# GHZ S RI R 50
0.2	-0.0139443340947858	0.00533904971081667	0.00304452580526688	-0.000885157460206636	0.00305498539909166	-0.000885004850390147	0.00582222416381586	0.000817238044056695
0.3	-0.0131690125283135	0.00580114956636862	0.00289840499159363	-0.00130117818229314	0.00289212024681997	-0.00131282041288695	0.00610547870485595	-0.00148143019055843
0.4	-0.0124553568738496	0.00649389025372816	0.00268423145086724	-0.00169543112392508	0.00268212618186786	-0.00169734320484657	0.00567183064197402	-0.00332383616574517
0.5	-0.0118801777656011	0.00720096774065404	0.00241438250006454	-0.00205231002454419	0.00241719633302469	-0.00205603563454847	0.00478030093720965	-0.00489757930940806
0.6	-0.0111997765236571	0.00813002334483086	0.00210190562171398	-0.00237233098180381	0.00210116237649647	-0.00237517304239519	0.00357180359446921	-0.00616138524789849
0.7	-0.0104632110902493	0.00892599895294	0.00175132199127429	-0.00264237106330516	0.00175752753536073	-0.00264646394782577	0.00201618980343084	-0.00707330283204963
0.8	-0.00961911864935862	0.00966901332432143	0.00135780987736096	-0.00286225366670132	0.00136608162662426	-0.0028606576559371	0.00024922758783076	-0.00747927838448226
0.9	-0.00879865133768	0.0103089874963204	0.000953360584782207	-0.00301413903015276	0.000953341185549974	-0.00302355326467151	-0.00153169619764926	-0.0074057370987013
1	-0.00801810104947324	0.0107325053529448	0.000520645440069919	-0.00312226073082629	0.000520497090940571	-0.00312761659711594	-0.0031984919688535	-0.00686019215719174
1.1	-0.00750760790124907	0.0112197665732328	7.32279181975973E-05	-0.00316217873827146	7.41154545223637E-05	-0.00316690459070395	-0.00468376614334441	-0.00581122502261589
1.2	-0.00690638460106059	0.0114017177974979	-0.00036555653508151	-0.00313499798626442	-0.000364331459018075	-0.00315179017052795	-0.0054751122432822	-0.00453049315615507
1.3	-0.00665598585435126	0.0111879213010537	-0.000796599192853399	-0.00306069396258709	-0.000801536844865884	-0.00306834802325522	-0.00553080568472558	-0.00333787690600379
1.4	-0.00649954715939493	0.0109781435601515	-0.00122244040113509	-0.00291556693811974	-0.0012248558515629	-0.00292269579033205	-0.00528595941429764	-0.00259354096869052
1.5	-0.00603844753009363	0.0111671194050286	-0.0016141511048322	-0.00271731956347891	-0.00161217982283597	-0.00272286063613956	-0.00505912730469253	-0.00197955900575524
1.6	-0.00505253376392327	0.0117138535339158	-0.00197703160774917	-0.0024609119725872	-0.00198050154724792	-0.00246179099403625	-0.00519364696731842	-0.00103233620240312
1.7	-0.00388286313548545	0.0120324394326015	-0.00230185151251496	-0.00216652211422358	-0.00230390084899185	-0.0021751087320687	-0.00503541279173143	0.000214707398060705
1.8	-0.00279310797441068	0.0123048970142434	-0.00257864260402078	-0.00181733610189397	-0.00258381907261963	-0.00182279559772315	-0.00455611193429299	0.00143470036233844
1.9	-0.00177646243268168	0.0123312059075608	-0.00280424634552392	-0.00144820676071888	-0.00280073512422655	-0.00144201848681962	-0.0037366263825587	0.00254273501243554
2	-0.00105687766155784	0.0123163371796911	-0.00297961613713552	-0.00103648044452243	-0.00298235513204815	-0.0010296369803822	-0.00267240943450579	0.00346612250737034
2.1	-0.00024096970902001	0.012479808352726	-0.00309474924633166	-0.000604325348846452	-0.00309685107826082	-0.000611019985395195	-0.00126560246191428	0.00398053441819481
2.2	0.000654047192411839	0.0125127565133707	-0.00314829701995932	-0.000173361164753228	-0.00315010909854012	-0.00016363644405274	0.000319734536338236	0.00402742065882545
2.3	0.00146089259299146	0.0123504894913214	-0.00314003913456555	0.000268863935705325	-0.0031467946440005	0.00026595533401579	0.00181708363944069	0.00359010128263233
2.4	0.00221059735824009	0.012091378815629	-0.0030798411377715	0.000703565650209363	-0.00307866590360972	0.000718683178069141	0.00324297871987437	0.00286302251561135
2.5	0.00266275132716695	0.0116604041230399	-0.00294444059945143	0.00113562370218062	-0.00295744342007518	0.00113692544639098	0.00454203566186037	0.0017355235175716
2.6	0.00302343399116758	0.0116258976648106	-0.00275430541840771	0.00153089038985059	-0.00277522811044885	0.00153481028340097	0.00570129701490349	0.000239016613372552
2.7	0.00365240244686155	0.01164786505399	-0.00252205685844201	0.00190011351884355	-0.0025223337909599	0.0019052005192747	0.00641522144927015	-0.0016662577724946
2.8	0.00449693178822824	0.0116293723784518	-0.00222675073244878	0.00222521214923592	-0.00223658144676033	0.00223641459615558	0.0066258384981124	-0.00362282943751647
2.9	0.00554496513157063	0.0113874073573224	-0.00188996471791054	0.00251822524998142	-0.00188803114332037	0.00252713575544778	0.00655926737839375	-0.00546768950516031
3	0.00645610182292614	0.0109317100588844	-0.00151873996238681	0.00276122511702662	-0.00153383500386303	0.00274819297119495	0.00624129582228901	-0.00727191583476963
3.1	0.00745046146270872	0.0106059544478661	-0.00111958438143077	0.00294443695433316	-0.00113652956487645	0.00294985643858285	0.00559153189808498	-0.00912823076877306
3.2	0.00842723161073058	0.0100024354955077	-0.000699987888041199	0.00306918552612622	-0.000695709515621213	0.0030799925608927	0.00429180277403829	-0.0108594631125533
3.3	0.00926363366415041	0.0091961994929351	-0.00027042827123467	0.0031404153853168	-0.000267132044783328	0.00313603150496908	0.00265781743435432	-0.012379053070494
3.4	0.00993252447587339	0.00825859049997909	0.000175343912641365	0.00314831998945046	0.000165913620082075	0.00314940771286773	0.000730405420682053	-0.0137008210234732
3.5	0.0102208831923616	0.00728564784227294	0.000609219079408052	0.00309140772997827	0.000614227253602878	0.00309007262056832	-0.00159739678855271	-0.0147880174868496
3.6	0.0105288155625449	0.00668002199766302	0.00102925007204199	0.00297087687797176	0.00103585314326257	0.00297436331138744	-0.00416846261691547	-0.0153453898757039
3.7	0.0109676769904493	0.00596751849030706	0.00144562817457745	0.00279415907339315	0.00144389803101705	0.00281053289244852	-0.00692026674966307	-0.0153897823370331
3.8	0.0114079812014981	0.00515549663251942	0.00181378291612177	0.00256727695486192	0.00182439046660827	0.00257361944990015	-0.00974483864385723	-0.0148439955385783
3.9	0.0118139711693146	0.0041965409755513	0.00216105230900501	0.00228881101093402	0.00215645389284994	0.00228871937158246	-0.0124386546726675	-0.0136339126253962
4	0.0118790460487182	0.00318485802742289	0.00245185528867979	0.00196919878066389	0.00246330154474936	0.00197532867570015	-0.0146984350566336	-0.0118484551938414
4.1	0.0120027304105991	0.00253275141660892	0.00270318243740774	0.0016028088739489	0.00271975440465502	0.00161257177117835	-0.016421234077477	-0.00973299474233159
4.2	0.0122820078489827	0.00170232789249746	0.00290471362816337	0.00120603678268812	0.002905948599377	0.00120832145678604	-0.0178468425746942	-0.00742642239842196
4.3	0.012446042787955	0.000749244478498603	0.0030472463433842	0.000797981885831901	0.00304843910305621	0.000806563622123052	-0.0188959159346514	-0.00494871619248417
4.4	0.0124195355952595	-0.000371161519966071	0.00312587278777989	0.00036277876371497	0.00313378826894764	0.000358137320195009	-0.0195574684973052	-0.00221547833437704
4.5	0.0119133006496595	-0.00144660487095724	0.00314906214855257	-8.14974401245305E-05	0.00314587424440691	-7.92338601210201E-05	-0.0196474452415468	0.000602636609709617
4.6	0.0113007292203298	-0.0020103557302611	0.00309568928874315	-0.0005272994011038	0.00310872596237695	-0.000515330383748697	-0.0192404556765649	0.00328459548321905
4.7	0.0109430139863121	-0.00242266490604029	0.00299360362587916	-0.000940258887643602	0.0029935027613501	-0.000949690917824368	-0.0185473702346223	0.0057768845176886
4.8	0.0106696057339471	-0.00285098811807309	0.0028445430948478	-0.00134276030209415	0.00283688416747646	-0.00136292951909671	-0.0174114758375659	0.00829121398282198
4.9	0.0106671924743162	-0.00332906461216225	0.0026288604285539	-0.00174004740633272	0.00262279482197544	-0.00173160462092976	-0.0157087809031836	0.0106395423337231
5	0.0105583587074541	-0.00399259097612212	0.00235306511999502	-0.00207216985310657	0.00235580538023699	-0.00208459059479537	-0.0132782496441809	0.0126407022561001
5.1	0.0107519574213078	-0.00449140886835494	0.00203120149390649	-0.00239562889332102	0.0020444245714007	-0.00239315588421927	-0.0103721710626546	0.0139647366645028
5.2	0.011043130876926	-0.00544054437566683	0.0016884911327722	-0.00265231894564732	0.0016889904358796	-0.00265647877284503	-0.00741434734071713	0.0146285241349923
5.3	0.0110703173116383	-0.00663870570312766	0.0012986771840878	-0.00286336414709587	0.00129493328116587	-0.00286593383663955	-0.00442223548928858	0.0148310824249778
5.4	0.0107393361067415	-0.00790149559071232	0.000887671209004238	-0.00302217175209333	0.00088678252814701	-0.00302462900435244	-0.00139428230575761	0.0144130889398735
5.5	0.0097733728609355	-0.00885821280019841	0.000448805120813802	-0.00311610004135585	0.000461375088847105	-0.00311608538355314	0.00140855586309851	0.0132953536569473
5.6	0.0091149820739752	-0.00916407282421791	1.573800353179E-05	-0.00314562176885534	1.24439589556995E-05	-0.00314216528625867	0.00374678115025383	0.0115850903542428
5.7	0.00865549689781007	-0.00966591838687315	-0.000416751392897142	-0.0031193857033785	-0.000420466360443774	-0.00312307135083646	0.00537320625406736	0.0095753172086044
5.8	0.00820904948224787	-0.0103158640539293	-0.000851142083517896	-0.00302909858687245	-0.000850414241924522	-0.00303677675550534	0.00651259969151366	0.00734193868604327
5.9	0.00764250564186469	-0.0111812828616595	-0.00126754028588985	-0.0028763128820682	-0.00126594172297799	-0.0028804615237447	0.00707674058312494	0.00507338566833762
6	0.00634034170491278	-0.012375887794389	-0.00165533067686375	-0.00267097946144026	-0.00164934556514792	-0.00267432609003335	0.00710485928412241	0.00284919930114834
6.1	0.00459799054681547	-0.0127272319709293	-0.00201273152108085	-0.00242059406928157	-0.00200859199149182	-0.00242535630094943	0.00688914061050541	0.000723546974489462
6.2	0.00306518132532094	-0.0127548705578952	-0.00233253098674683	-0.00210539412480842	-0.00232895647175218	-0.00211405236178273	0.00622497264513895	-0.00142002482123584
6.3	0.00193547488622403	-0.0125144853288687	-0.00259982863381801	-0.00176673062651986	-0.0026096359951041	-0.00177448516087552	0.00530086119952603	-0.00339743581534019
6.4	0.00115901208453146	-0.0124621057282483	-0.00282695447486415	-0.0013822124587208	-0.00282496477419326	-0.00138800406631494	0.00426314150683686	-0.00521860181293731
6.5	0.000262487323829145	-0.0124857827504127	-0.00299220024387924	-0.000980716184223829	-0.00299260424277496	-0.000979594411640715	0.00310363130991469	-0.00700532262431884
6.6	-0.000165905535162716	-0.012185791426478	-0.00309708510670946	-0.000555401067695149	-0.00310774895316793	-0.000558405884001438	0.00150306020606175	-0.00877111952312208
6.7	-0.000523426096413052	-0.0122707560717529	-0.00314218978759467	-0.000121151273548064	-0.00314114797058701	-0.00011491481668478	-0.000860312834897796	-0.00989971910264704
6.8	-0.00105550849823866	-0.0123287893950422	-0.00312779561624906	0.000327021177671691	-0.0031268902227877	0.000331779957763053	-0.00347231649822779	-0.0100978607526392
6.9	-0.00167602170142869	-0.0124678516693193	-0.00304584500480829	0.000757091693173478	-0.00304626829380133	0.000762074204774077	-0.00584995156717394	-0.00945688630570793
7	-0.00285810723428466	-0.012444019343145	-0.00291596619539385	0.00117509929370539	-0.00291738047967265	0.00117831469035869	-0.00780162613780116	-0.00831323229675228
7.1	-0.00364235201223539	-0.0116174627598462	-0.0027184602031688	0.00157336026209189	-0.00272088224598468	0.00158437383346887	-0.0093783133325185	-0.0069005709155732
7.2	-0.00397408438412096	-0.0111053229888936	-0.00247836439767273	0.00193466034135487	-0.00247854767456438	0.00194055318164736	-0.0107996875892357	-0.00512109469497318
7.3	-0.00428687721221632	-0.0108145871665472	-0.0021882686884448	0.00225962508718568	-0.00218550793010894	0.00226109886304529	-0.0117429665005293	-0.00295510730687234
7.4	-0.00459847202969018	-0.0108943782673419	-0.00184637390311391	0.00254377390404217	-0.00183916170208998	0.00255029490520219	-0.0121694392144398	-0.000672370134543218
7.5	-0.00566716463042242	-0.0114944859120234	-0.00146913400667761	0.00277920951277323	-0.00147017233772173	0.00277719559411234	-0.0118395191212619	0.0016602013725591
7.6	-0.00710039716943578	-0.0113116125579863	-0.00107562746844481	0.00295611350365897	-0.00106497934114752	0.00296646098980403	-0.0108087792451722	0.00358394818710885
7.7	-0.00843784582591983	-0.0109866112298629	-0.000646577380555416	0.00308005569530039	-0.000641015941115351	0.00307970922085852	-0.00982476638366483	0.00488172776530628
7.8	-0.00949769562880845	-0.0105107523126501	-0.000200647057239455	0.00314133555814033	-0.000214281774113123	0.00313425561374359	-0.00851967742229606	0.00632680167998258
7.9	-0.010342830674681	-0.0100557646132399	0.000223112236051276	0.00312813246488644	0.00023419637811386	0.00312783059719761	-0.00663189633973221	0.00771500465969115
8	-0.0113736852728087	-0.0093124173020691	0.00065835273032289	0.00307271106631636	0.000666640871476572	0.0030706401768319	-0.0042791194384932	0.00855289214787399
8.1	-0.0116012516611677	-0.0080880034694634	0.0010896887808059	0.00294962509631913	0.00108741054050824	0.00294637198220343	-0.00181268730564135	0.00872907172145926
8.2	-0.0116206976403327	-0.00739117086931379	0.0014816907576557	0.00276821504319048	0.00148086310845805	0.00277979718821643	0.000475831898657924	0.00848977605130195
8.3	-0.0117730665749772	-0.00684695099044172	0.0018549278210752	0.00253617860694931	0.00186000409646134	0.00253359642126	0.00269993079816493	0.00793646635105939
8.4	-0.0120216135121104	-0.00637532487526475	0.0022021842552156	0.00225554526139085	0.00219102231769679	0.00225593937204421	0.00483703483516838	0.00699771114720795
8.5	-0.012854390021619	-0.00581701927066893	0.00249867091807283	0.00192002702295194	0.00249867944229172	0.00192137766846282	0.00684518875991321	0.00558455721408872
8.6	-0.0132284759473051	-0.00431301264725891	0.00273078091331883	0.00155991496938015	0.00272657074120499	0.00155760479791105	0.0085954289523466	0.00345006598041685
8.7	-0.0129308779058433	-0.00315720462620467	0.00292117801415306	0.00116047695145017	0.00292001533555083	0.00116006560807801	0.00950384224098347	0.000834618079108671
8.8	-0.0123839468918134	-0.00236897860001245	0.00305049724254372	0.000741499747462476	0.00306147729224536	0.000739395736198436	0.00963995125079329	-0.00184690056697796
8.9	-0.0116942327238993	-0.00218379368060453	0.00312425759556652	0.000310503429286571	0.0031336110049538	0.000303366100855986	0.00934934421860776	-0.00426472702852225
9	-0.0116737136821184	-0.00255957080927012	0.00313698030208208	-0.000137929887446853	0.00314375379236781	-0.000132327190809228	0.00885768855598585	-0.00657446528237695
9.1	-0.011813011826909	-0.00248047671111253	0.00308932168308533	-0.000570481801709981	0.00308953941467671	-0.000570674123405613	0.00801905808836091	-0.00904837102006725
9.2	-0.0120429710090848	-0.00253345942977788	0.00297416435132264	-0.000991333307839125	0.0029779829741347	-0.000991108423921275	0.00646702517642116	-0.0113780893297318
9.3	-0.012478292436194	-0.0023865481304394	0.00280224627637401	-0.00140000029916655	0.00282028591997937	-0.00140042705630663	0.00445105268077538	-0.0132516413139409
9.4	-0.0129409677192427	-0.0021331285785559	0.00258503690907567	-0.00177219531551488	0.00258836423216227	-0.00178321528941223	0.00209561298159295	-0.0147153519943748
9.5	-0.0137961441359197	-0.00142147350892959	0.0023141092846133	-0.00212835020291458	0.00232890192779448	-0.00212900032232243	-0.000585395731608148	-0.0156937267966853
9.6	-0.0139495386347944	-7.80161353889924E-05	0.00199571232425784	-0.00243005331730193	0.0019960270284643	-0.0024230396349712	-0.00374404547049537	-0.0163980011326919
9.7	-0.0136790892599272	0.000862806106079312	0.00163450853596081	-0.00268444715954137	0.00164280566086311	-0.00268602508672429	-0.0074739302330498	-0.0162377348893576
9.8	-0.0133451537878592	0.00155612161291604	0.00125098073517272	-0.00288100156273637	0.00124916619252655	-0.00288965193381686	-0.011249909767296	-0.0150040851420259
9.9	-0.0130042359510673	0.00195356604457051	0.000841421549597487	-0.00302769310113904	0.000829544345874734	-0.00303032864830481	-0.0148246146239521	-0.0126553103080964
10	-0.0133652742623096	0.0021887387590749	0.000407460922413806	-0.00310735005756099	0.000406657032645902	-0.00311467182511199	-0.0175870762895562	-0.0095150572796587
10.1	-0.0134282422344586	0.00325739393044063	-2.67700765070856E-05	-0.00314476379070733	-3.14122012532139E-05	-0.003147540657725	-0.0195445955622581	-0.00611459420325031
10.2	-0.0130248229311386	0.00403544341444875	-0.00046743922636888	-0.00310580488687929	-0.000480044077040933	-0.00310958370214191	-0.0210227347431807	-0.00238335463030642
10.3	-0.012500907275088	0.00459719371891524	-0.000900425332167602	-0.00300375462601964	-0.000900193844250878	-0.00301715212965685	-0.0217199397325011	0.00186784525107518
10.4	-0.0119231101269365	0.00472000468181813	-0.00131030555064197	-0.00285603942786464	-0.00131347921018464	-0.00285391112831198	-0.0212449789800492	0.00624818544590955
10.5	-0.0121199467651382	0.00473539562609744	-0.0016939866721246	-0.00263683187653355	-0.00170015559657014	-0.00264409541334665	-0.0196419011735147	0.0104204508883387
10.6	-0.0121504746114154	0.00550722795576264	-0.00205337296715129	-0.00238041476349432	-0.00205487115133616	-0.00238553007424811	-0.0172601398263591	0.0139028882921388
10.7	-0.0119597233381164	0.00635879438800778	-0.00236069712448454	-0.0020678198753651	-0.00236390151787826	-0.00208386029473218	-0.0144831194597366	0.0170926888191386
10.8	-0.0114086621250125	0.00734249596194609	-0.00262796839566342	-0.00172001611858693	-0.00262502813292944	-0.00172218266154712	-0.0111256265819025	0.0199755486029359
10.9	-0.0105517487886398	0.00801334988400958	-0.00284537996815325	-0.00134191763522079	-0.00284465852091909	-0.00134704609372547	-0.00711257483503051	0.0223603056365762
11	-0.0100514124611509	0.00852120775615848	-0.00300909311139305	-0.000926062432529742	-0.00300206534351702	-0.000930355716990107	-0.00231544568675178	0.0240255334140991
11.1	-0.00894312704051125	0.00956434470844895	-0.00310460469997477	-0.000508101634407566	-0.00309685560819126	-0.000499798449744237	0.00289878014956689	0.0243708941939567
11.2	-0.0073578818222929	0.0098866345124224	-0.00314450077462895	-6.59336860933035E-05	-0.00315110331590446	-6.27208804925064E-05	0.00794698196340882	0.0237042124318936
11.3	-0.00568949250723391	0.0096103127049788	-0.00312141952885385	0.000375254057711997	-0.00312458687109747	0.000373088426214592	0.0129241908919633	0.0223248954345262
11.4	-0.00436841495203857	0.00873526587876208	-0.00303464160037862	0.000806173581964727	-0.00303927484903199	0.000806327547691872	0.0177110590821031	0.020037224181405
11.5	-0.004003857513918	0.00773142505597583	-0.00290179626519453	0.00121541238956835	-0.00289427370718331	0.00122016843940303	0.0221676856609023	0.0166337605208436
11.6	-0.00334943233704255	0.00730331285458515	-0.00269861237345833	0.00160935480304709	-0.0027067323499961	0.00161906506044153	0.0259767499296705	0.0120090054005447
11.7	-0.00254936671693511	0.00631035228600473	-0.00244476006931953	0.00197652132690195	-0.00244651093305432	0.00198021582363807	0.0286046455468775	0.00668807597644817
11.8	-0.00204033483253441	0.00502461564932656	-0.00214583017360927	0.00230092006879096	-0.00215504262141247	0.0023107285917864	0.0302462120109895	0.00119647778439135
11.9	-0.00179921967483193	0.00328631374306749	-0.00180584917117271	0.00257374190374441	-0.00180587991596219	0.00258030797048245	0.0311684621793183	-0.0041979669974515
12	-0.00327616814770704	0.00205569049648669	-0.00142553940775244	0.00279855646233034	-0.00143003558533004	0.00280134694984229	0.0310114903771426	-0.00984226938901942
