# GHZ S RI R 50
0.2	-0.0136381955782134	0.00530790955110016	0.00304317435462663	-0.000885830810505343	0.00305363033679079	-0.000885681631799759	0.00622465348450387	0.000879886725144619
0.3	-0.012835241924506	0.00569964022617746	0.00289644152286823	-0.00130173546619805	0.00289015506021289	-0.00131336937281058	0.0065168499300514	-0.0014892288394681
0.4	-0.012160521845522	0.00619015062401349	0.00268160235187994	-0.00169545075952656	0.0026794976943353	-0.0016973605660311	0.00598807300666001	-0.00354400104278744
0.5	-0.0118720027622953	0.00698451916180148	0.00241184844033859	-0.00205122683332234	0.00241465897656622	-0.00205495007298387	0.00462658522266921	-0.00497383897551836
0.6	-0.0109351516344428	0.00799713978427848	0.0020996095431543	-0.00237111375123954	0.00209886605144508	-0.00237395341584888	0.00360500487360117	-0.00587482420090932
0.7	-0.0101842505728077	0.00859631251422329	0.00174892234266323	-0.00264055600509897	0.00175512104215041	-0.00264464717723672	0.00218164158684911	-0.00677373343943779
0.8	-0.00939506860064546	0.00923746362326453	0.0013556964539121	-0.00285964761758989	0.00136396008946795	-0.00285805531864835	0.000545226878713991	-0.00716923189894952
0.9	-0.00859217108474639	0.0097135310972098	0.000952058536227336	-0.00301086412021893	0.000952038402711912	-0.00302026788541368	-0.00100054001945711	-0.00730865318276996
1	-0.00821740265466459	0.00993505682579811	0.000520143116616986	-0.00311937802101538	0.000519994868520232	-0.00312472893536249	-0.00302596406260802	-0.00732808124891698
1.1	-0.00775637326209622	0.0107514735794966	7.26393890027641E-05	-0.00315885464724403	7.35252249110114E-05	-0.00316357565766962	-0.00490362528357777	-0.00605762187551448
1.2	-0.00706113879231115	0.0107752510035993	-0.000365298252287688	-0.00313125341262848	-0.000364075574010549	-0.00314802571827558	-0.00583662484678763	-0.00483968358627237
1.3	-0.00685638491194815	0.0103771825187545	-0.000795416700720754	-0.00305701836787475	-0.000800347805321132	-0.0030646634403426	-0.00613424440370747	-0.0036206314756339
1.4	-0.00672144128768811	0.0099662361096367	-0.00122060417844444	-0.00291243320933496	-0.00122301579225039	-0.00291955431189476	-0.00591042040302417	-0.0027815413222253
1.5	-0.00644838575576131	0.0102554298244069	-0.00161239267007103	-0.00271402487876448	-0.00161042401445183	-0.00271955951745061	-0.00589169245149097	-0.00178739536683654
1.6	-0.00526379004792393	0.0108790299695325	-0.00197379941830555	-0.00245752836248828	-0.00197726412157737	-0.00245840652608275	-0.00553060268935354	-0.000339651076647942
1.7	-0.00417069772107252	0.0112166781532264	-0.00229777793514545	-0.00216409929521221	-0.00229982148055262	-0.00217267401099218	-0.00502643464639068	0.000927087666165312
1.8	-0.00310501390681291	0.0116165145356175	-0.00257424721340734	-0.00181580164374874	-0.00257941412494125	-0.00182125548885238	-0.00433282043986209	0.00207227736763594
1.9	-0.00208283111387463	0.0117006134184526	-0.00279972391235981	-0.00144712464972571	-0.00279621989746629	-0.00144094398899848	-0.00346789435669988	0.00291321203636121
2	-0.00149149064876459	0.0119288372123518	-0.00297382485482839	-0.00103593904351517	-0.00297656196459184	-0.00102910903864586	-0.00293811828746065	0.00385671089252932
2.1	-0.000268490811034336	0.012259553554045	-0.00308890224078268	-0.00060592390495809	-0.00309099474157585	-0.000612608800943452	-0.00138749046190166	0.0049303485777438
2.2	0.000778031230964913	0.0120860406447833	-0.00314304618430169	-0.000176053042028389	-0.00314486451503732	-0.00016634574564582	0.000531120677876911	0.00506409217957362
2.3	0.00157958107215546	0.0117791647495219	-0.00313522088349803	0.000265266363626171	-0.00314196251569676	0.000262355673443762	0.00234313824581677	0.00454175156389931
2.4	0.00226882027592191	0.0113874743518132	-0.0030752236292578	0.000698834816862223	-0.00307406761053257	0.000713927095130756	0.00405842133369566	0.00340417269364795
2.5	0.00242742644961991	0.0109909810746701	-0.00294123133148093	0.00112883807778027	-0.00295421388932215	0.00113011625247475	0.00489924313128284	0.00167037287074246
2.6	0.00296518911837134	0.0112600285031692	-0.00275311970628193	0.00152422732077605	-0.00277402055237317	0.00152810705409282	0.00562808332657198	0.000431384649151807
2.7	0.00382887759427429	0.011219245608407	-0.0025218554411358	0.00189332481134642	-0.00252214054101943	0.00189840450686712	0.00626372822768336	-0.00127425937330262
2.8	0.00482914270004348	0.0110308685366967	-0.00222782575314399	0.00221812151930981	-0.00223766374269749	0.00222929080052924	0.00653253115238705	-0.00310236965180057
2.9	0.0058969128480208	0.0105402239766166	-0.00189299434143261	0.00251097880834101	-0.00189108237676198	0.0025198822177236	0.00649217914729663	-0.00506047392241298
3	0.00665318895709321	0.0100439956081088	-0.00152389694672916	0.00275571116410263	-0.00153895107499364	0.00274265434705108	0.00570285658843231	-0.00678785785407979
3.1	0.00782240020762844	0.00961585114726415	-0.00112476402677465	0.00294001111035103	-0.00114170789516227	0.00294539213966654	0.00512871608861307	-0.00809256231566576
3.2	0.00869442420104174	0.00876914081321119	-0.000706132241858553	0.00306544274035132	-0.000701880394481789	0.00307625121088659	0.00405044648170386	-0.00964116855155552
3.3	0.00935984153029615	0.00785435503896187	-0.000277552905840162	0.00313800035733813	-0.000274248395725377	0.00313362661306023	0.00264731510049325	-0.011096538351063
3.4	0.00984884782625739	0.00684619100637574	0.000167817246992284	0.00314797715665821	0.000158386644108345	0.00314904219941396	0.000900387443701547	-0.012608259648643
3.5	0.00985968989382958	0.00600255166725277	0.000603002030830454	0.00309226543288312	0.000608012286846357	0.00309094043511914	-0.00183469922015897	-0.0137744693130806
3.6	0.0103001952534707	0.00550054990309668	0.00102249506354577	0.00297202817287347	0.00102908827971937	0.00297552755681159	-0.00427457648826376	-0.0138223104424507
3.7	0.0106300263047154	0.0046559055240984	0.00143885430459408	0.00279700451466965	0.00143708636457055	0.00281337125873082	-0.00662437141153813	-0.0138432625001851
3.8	0.010847233306802	0.00387246499928245	0.00180780046125032	0.0025715933012162	0.00181839337484501	0.00257796083735902	-0.00915183795668884	-0.013556707365412
3.9	0.0110427939236811	0.00306863547325605	0.00215637912735461	0.00229387648609251	0.00215178021760183	0.00229377478906327	-0.0118346278750368	-0.0129016833917197
4	0.0109361386624098	0.00251055473720253	0.00244699914588851	0.00197434914963375	0.00245842960485053	0.00198050363520941	-0.0149140538303913	-0.0113599026441001
4.1	0.011519604045794	0.00219729074653343	0.00269920139820493	0.00161023397528513	0.00271574912877027	0.00162004238510404	-0.0168678071364234	-0.00857654850155865
4.2	0.0120841313690753	0.00130804806972123	0.00290278554925794	0.00121426326888067	0.00290401500382579	0.00121655221456325	-0.0180728975379205	-0.00596181343070688
4.3	0.012423293497901	0.000305591289987945	0.00304699812043983	0.000806260324107963	0.00304816959418652	0.000814850175859118	-0.0188337469672701	-0.00342648570921769
4.4	0.0125345059901732	-0.000888171910255708	0.00312664718666445	0.000370960447969759	0.00313457883067044	0.00036633669683164	-0.0192935148122986	-0.00100494848704478
4.5	0.0120600805916195	-0.00185963398502986	0.00315167853876384	-7.20095385051727E-05	0.00314848137205186	-6.97539224432153E-05	-0.0199954771869858	0.00154175670435906
4.6	0.0119833089639465	-0.00243749295686238	0.00310136162985428	-0.000519250895706267	0.00311438203575229	-0.00050722882387777	-0.0197679583316021	0.00485660636121002
4.7	0.0118748812255364	-0.00327828045220168	0.0030004396296538	-0.00093383156847192	0.00300036320724547	-0.00094327767657413	-0.0188388969338444	0.00762378491717272
4.8	0.0116096721874064	-0.00410586598651535	0.00285232362287222	-0.0013375119218263	0.00284470474770432	-0.00135773153130625	-0.0174278774021957	0.0102175159581154
4.9	0.0114662672360123	-0.00493576775855363	0.00263804476634263	-0.00173579573670532	0.00263194586887302	-0.00172735530032613	-0.0154951838870585	0.0123281421928978
5	0.0110835838916337	-0.00567824158273592	0.00236408684100606	-0.00207089454860066	0.00236686624104012	-0.00208333751619455	-0.0135078999417637	0.0142492688016257
5.1	0.011345030704621	-0.006370473371852	0.00204109638829625	-0.00239702851742896	0.00205434567105767	-0.00239452166583546	-0.0103326479581173	0.0160930636401535
5.2	0.0113229325323918	-0.00758094674049373	0.00169799186185888	-0.0026551480805209	0.00169850094752216	-0.00265931678400357	-0.00690928411004978	0.0166226037431807
5.3	0.0110109205503358	-0.00874734990571869	0.00130787221620889	-0.00286807598132738	0.00130412393444381	-0.00287065993611384	-0.0037257670975711	0.0164268033292009
5.4	0.0104712451338797	-0.00988598695042827	0.000896039552923632	-0.00302948967201954	0.000895152880594883	-0.00303195592500349	-0.000878660806006611	0.0154222210404677
5.5	0.00936025228202637	-0.0105027069808797	0.000453875908732003	-0.00312520711004187	0.000466484735841233	-0.00312517755128409	0.000843279033186803	0.0143191520667449
5.6	0.00906064479301571	-0.0108592977116701	1.94400948750678E-05	-0.00315431383354849	1.61329088166756E-05	-0.00315085161098597	0.00319256021817254	0.0135813282569343
5.7	0.00836249500832902	-0.0116419896807097	-0.000414371616065975	-0.00312898803079079	-0.000418093195224526	-0.00313268874121945	0.00528512168763913	0.0118495732813353
5.8	0.00747373316913938	-0.012196806649207	-0.000850946541781932	-0.00303939383433175	-0.000850209164231075	-0.00304709537299167	0.00687476481941659	0.009577831317791
5.9	0.00653359694500735	-0.0126463752830766	-0.00127021135622507	-0.00288618532899362	-0.00126860562263818	-0.00289034653474157	0.00782952771020541	0.00674834734451998
6	0.00501794929032038	-0.0129226999868034	-0.00165894409250952	-0.00267878890258671	-0.00165294160198091	-0.00268214264260381	0.00699919287665431	0.00375691425256421
6.1	0.00427634222327266	-0.012433422749295	-0.00201731626057114	-0.00242890663661526	-0.00201316176528173	-0.00243368061870866	0.00621605368637625	0.00238305943453527
6.2	0.00378013516618089	-0.0126523644471556	-0.00233931962370345	-0.0021126914737027	-0.00233573142132994	-0.00212137608178561	0.00577203593318707	0.000628733722677022
6.3	0.00325065406781753	-0.013105882650472	-0.00260805624460294	-0.00177213140180022	-0.00261789469783729	-0.00177990972160324	0.00516071755523344	-0.00132592478535787
6.4	0.00247092242733306	-0.0138695105865997	-0.00283530771581595	-0.00138544556580038	-0.00283331377976352	-0.00139125408212915	0.00419011232509632	-0.00359760676144111
6.5	0.00128376214887781	-0.0141736561685985	-0.00300063160798973	-0.000984023160545589	-0.00300103695119228	-0.000982898232915562	0.00213806713095248	-0.00518415036617052
6.6	0.000842233316586234	-0.014392262644971	-0.00310747888759927	-0.000556556811647859	-0.00311817876398929	-0.000559569230174926	0.000927395606934153	-0.0060539023552552
6.7	-1.27448174989452E-05	-0.0147671876468322	-0.00315237014875746	-0.00011969673050953	-0.00315132131959812	-0.000113440820675429	-0.000881841807432279	-0.00707892546731919
6.8	-0.00087387702307989	-0.0147879843330366	-0.00313713337962415	0.00033031633798818	-0.00313622172400834	0.000335089026057664	-0.0030473386281761	-0.00742377352624719
6.9	-0.00169896845092553	-0.0149046934279337	-0.0030546234980577	0.000761297587644802	-0.00305504495488475	0.000766295499530269	-0.00524084182383515	-0.00744381881759877
7	-0.00305001099152751	-0.0145365396803771	-0.00292552338639171	0.00118190578887863	-0.00292693999971543	0.00118513408687887	-0.00836136935670514	-0.00644924178735275
7.1	-0.00336444311239139	-0.0138888868608413	-0.00272523141313509	0.00158294416012424	-0.00272764448504561	0.00159399889543232	-0.00984233896099927	-0.00383482657811691
7.2	-0.00397912565115144	-0.0138989869476	-0.00248286129973172	0.00194501427632659	-0.00248303504384232	0.00195092601617347	-0.0105058839436064	-0.0016904210004656
7.3	-0.00491485244903274	-0.0137655744565943	-0.00219094508424633	0.00227064338447031	-0.00218817305437801	0.00227211670107651	-0.0105944490717356	0.000389445422304337
7.4	-0.00597333381998208	-0.0136699853552175	-0.00184717114185866	0.00255599495962865	-0.00183992161793482	0.0025625224595367	-0.0101332924474239	0.00179697704891852
7.5	-0.00777815952626587	-0.0133228829336108	-0.00146546491082858	0.00279207450744436	-0.00146651236196139	0.00279005745815863	-0.0104740206846987	0.00272839589053146
7.6	-0.00861046092117616	-0.0121094333658221	-0.00106957059498644	0.00296638147411238	-0.00105886654512384	0.00297672273635551	-0.0099767707391626	0.00490784112865787
7.7	-0.00934193652085275	-0.0115356679254919	-0.000639059277913119	0.00308911896662005	-0.00063348590873927	0.00308875539340956	-0.00891307588447089	0.00600006411079211
7.8	-0.00981224861703001	-0.0111142340709512	-0.000191159194771508	0.00314912516979571	-0.000204847378474781	0.00314207226559809	-0.00780275099097915	0.00701863714731351
7.9	-0.0102169834043224	-0.0109013844217088	0.000235024584346572	0.00313369002081916	0.000246130208893963	0.00313334693918185	-0.00667022329137632	0.00791813113742257
8	-0.0108742758970531	-0.0102215603998852	0.00067055500571304	0.00307371452995935	0.000678844752856931	0.00307161039464804	-0.00598851935827694	0.00946387898700201
8.1	-0.0105211871588948	-0.00976079171042342	0.00110083557422511	0.00294919234803341	0.00109854385685272	0.00294594334193272	-0.00327697149372575	0.0112357790251699
8.2	-0.010782206144974	-0.00968945788619057	0.00149304752769853	0.00276573187452409	0.00149226030034078	0.00277732866136086	-0.000323360777575515	0.0115927196771506
8.3	-0.0112092172349209	-0.00939088996104621	0.00186572570671387	0.00253089472797225	0.00187079566435568	0.00252829168883831	0.0025661512020765	0.0111605397181366
8.4	-0.0116888473070065	-0.00905780221549002	0.00221080130116999	0.00224735236069036	0.00219964029195363	0.00224778858901125	0.00512624121067135	0.00964410346175474
8.5	-0.0126934238215062	-0.00829266807930637	0.00250427004887727	0.00191208921829159	0.0025042827320722	0.00191343966746682	0.00605847707423089	0.00798766646249896
8.6	-0.0126572627849773	-0.00713841032866607	0.00273626869040736	0.00155113110507169	0.00273205036957112	0.00154883448840304	0.0078661832478424	0.00708246240640463
8.7	-0.0127508909859895	-0.00662972544880131	0.00292465407872085	0.00115019816626103	0.00292349019085125	0.00114979090494123	0.00958324527125734	0.00488581503597874
8.8	-0.0129836009079369	-0.00603182252282192	0.00305136107027565	0.000730858316679835	0.0030623281977741	0.00072871854758687	0.0106166766016421	0.00209479038973633
8.9	-0.0131132548666136	-0.00555037764400393	0.00312297802291948	0.000301027468040616	0.00313230369879232	0.000293867449837533	0.0110673707763848	-0.00124010924459283
9	-0.0135958368694296	-0.00494053760134335	0.00313601909607727	-0.000147408630790002	0.00314280838485902	-0.000141827423086775	0.00980943326010944	-0.00454096567384717
9.1	-0.013207824098989	-0.00413837501457092	0.00308546986355966	-0.00058100978539466	0.00308568678849353	-0.000581202758231135	0.00867225899468349	-0.00669101764282518
9.2	-0.0129853850298143	-0.00394702730125004	0.00296784865516074	-0.00100056015208279	0.00297166430484039	-0.00100034858330452	0.00712913156656209	-0.00916297716291158
9.3	-0.0129030872650643	-0.00370638317490448	0.00279443911438659	-0.0014075981316965	0.00281245669167319	-0.00140808363571727	0.00493698980808609	-0.0112353857304507
9.4	-0.0128755752866198	-0.00363278536985368	0.00257654735524786	-0.00177891560476406	0.00257983491160509	-0.00178993530023824	0.0021744073553068	-0.0130915815333407
9.5	-0.0132875323344234	-0.0029503977576809	0.00230235778784674	-0.002134580354275	0.00231712698538024	-0.00213528856128005	-0.00181560849963518	-0.0136345590119264
9.6	-0.0128900313412265	-0.00243892918262453	0.00198242879922271	-0.00243203643244243	0.00198276851637926	-0.00242503928920639	-0.00476179504560559	-0.0129497761249347
9.7	-0.0130298057236272	-0.00227483838299911	0.00162152791580822	-0.00268360582288072	0.00162979997494621	-0.00268520811442626	-0.00775782183844184	-0.0123401212168085
9.8	-0.0133572437327963	-0.00182740362946539	0.00123821253960076	-0.00287793687993092	0.0012363736646996	-0.00288655944205129	-0.0107971433766485	-0.0111465273775086
9.9	-0.0136758747253016	-0.0011929472309924	0.00082821778991497	-0.00302205053751806	0.00081636509400423	-0.00302463618741746	-0.01386305653002	-0.00958581008804458
10	-0.0143101985305565	-0.000168095377634538	0.000395747455156501	-0.0030965754304837	0.000394922835574925	-0.00310386606144123	-0.0176388989353565	-0.00697937816347688
10.1	-0.0137863893245342	0.00113561792744435	-3.45224676524432E-05	-0.00313232896568692	-3.9153274087819E-05	-0.00313508331262465	-0.0196556269046336	-0.00265726960078276
10.2	-0.0132889944398584	0.00175435869734057	-0.000472661107966847	-0.00309229376842016	-0.000485224089732855	-0.00309602865037694	-0.0204614953829803	0.0012520741345187
10.3	-0.0128484876881936	0.00230147750235517	-0.00090282188211372	-0.00298906048653228	-0.0009026192171162	-0.00300240127539421	-0.0204884708555395	0.00506901470738629
10.4	-0.012413158764046	0.00260845172190385	-0.00130881060867406	-0.00284022583401231	-0.00131196557599509	-0.0028381024040146	-0.0198373791885353	0.00821645367555972
10.5	-0.012486467682046	0.00322440191358391	-0.00168755077410354	-0.00262358135321435	-0.00169369495721199	-0.00263080755170698	-0.0197894450608597	0.0116069370084827
10.6	-0.0115563915058138	0.00400104400585774	-0.00204622273690257	-0.00236938815152258	-0.0020477176256688	-0.00237448142473947	-0.0181883843771998	0.0160279784238306
10.7	-0.0108928279393837	0.00440974605541558	-0.00235173217253037	-0.00205772398097326	-0.0023549315123395	-0.00207369420824155	-0.0156033445712073	0.0198474120059894
10.8	-0.010077380282494	0.00482851048466187	-0.00261660332638414	-0.00171169924416886	-0.00261367673680829	-0.00171385677402876	-0.0120780616453168	0.0232635608637516
10.9	-0.00926736509209897	0.00494066419410121	-0.00283210187123852	-0.00133708024320886	-0.00283138155091426	-0.00134218546488461	-0.00785085751265844	0.0255056602833971
11	-0.00885741783239711	0.00529511164024316	-0.00299740160374698	-0.00092410600139795	-0.00299039792429773	-0.000928379760916331	-0.00415058454105553	0.0274565134293535
11.1	-0.00751099182845338	0.00554515880670581	-0.00309195156385479	-0.000506766715965403	-0.00308423567856139	-0.000498495269146028	0.001376123841643	0.0293598126226369
11.2	-0.0065905128994446	0.0050476293961121	-0.00313113583027257	-6.74706505262283E-05	-0.00313771224496573	-6.42752751029998E-05	0.00748694955296873	0.0293144071901462
11.3	-0.00596248956272333	0.00451488932902856	-0.00310884925054875	0.000370634800500936	-0.00311200133819298	0.000368475036948357	0.0136470885188256	0.0278264923622323
11.4	-0.00560067417415171	0.0038724243000678	-0.00302425565461598	0.000799676617469589	-0.00302887180714315	0.0007998246784934	0.0192846599604258	0.0246133334138849
11.5	-0.00577976544930752	0.00365882460666431	-0.00289117631834777	0.00120889574927385	-0.00288368608631882	0.00121363774693423	0.0230092160950437	0.0206274024703564
11.6	-0.00506959070177135	0.00349974957842742	-0.00268849305326273	0.00159908807713755	-0.002696588212274	0.00160874583105423	0.0271885832533153	0.0165966044154835
11.7	-0.00475956965408236	0.00280726561667821	-0.00243741905158674	0.00196403235637762	-0.00243916835248619	0.00196770807872646	0.0306907627739179	0.0108680645308242
11.8	-0.00462622568709237	0.00229894152883797	-0.00214119781942589	0.0022875611975866	-0.00215039025274231	0.00229731265513747	0.0328547088933735	0.00425780626895377
11.9	-0.00444799772447467	0.00173269249378544	-0.00180265717111465	0.00256007576043404	-0.00180269872415582	0.00256661458417521	0.0331945428476986	-0.00291512519467473
12	-0.00497970941301535	0.00172780153969253	-0.00142462545604742	0.00278172815251793	-0.00142910563609217	0.00278449517975873	0.0306427967720705	-0.0089834806591528
