# GHZ S RI R 50
0.2	-0.0145231557998729	0.00485218753346451	0.00304900913684643	-0.000883819168009355	0.0030594815782009	-0.000883658000446642	0.00530102289997873	0.000368875888624025
0.3	-0.0136226587254055	0.00563367636348177	0.00290427333202077	-0.00130030944510691	0.00289799041210913	-0.00131197631197491	0.00571490975118891	-0.00161295774792608
0.4	-0.0128026045931717	0.00678409175749738	0.00269168612043607	-0.0016959298623117	0.00268957863904451	-0.00169784825972441	0.00538390517749416	-0.00300932901155807
0.5	-0.0112590022861436	0.00740737574193561	0.00242188532457685	-0.00205598636412912	0.00242470876795508	-0.00205971966704635	0.00541096719021784	-0.00467282654227373
0.6	-0.0110691040142363	0.00744552897146154	0.00210805998033278	-0.00237669094160458	0.00210731655062997	-0.00237953999017808	0.00368342807141883	-0.0067540050633988
0.7	-0.0108411229293296	0.00843235552118459	0.00175754334715894	-0.00264799709852748	0.00176376748176106	-0.00265209640828523	0.00165318315438247	-0.00742437663698842
0.8	-0.0102778560430979	0.00939103386719553	0.00136327218277433	-0.00286989131919073	0.00137156722538597	-0.00286828631387663	-0.000346866942262045	-0.00759590238740322
0.9	-0.00991353416218161	0.0105551378099969	0.000956668839430185	-0.00302370004482053	0.000956650184852016	-0.00303314439859455	-0.00252545931606855	-0.00702431788680568
1	-0.0083703117744919	0.0123041252173596	0.000521107535883465	-0.00313084908401343	0.000520957167122694	-0.00313621936777176	-0.00343708682659913	-0.00524798555840396
1.1	-0.0069873547247143	0.0119482575797102	7.40977622086045E-05	-0.00317124374933412	7.49888327147423E-05	-0.0031759829869404	-0.00414830525596914	-0.00507017490673416
1.2	-0.00661536159008063	0.0121215323276057	-0.000366834767311128	-0.0031453409082916	-0.000365606027803149	-0.00316218856515884	-0.00524182124437809	-0.00378600205520784
1.3	-0.00615089928368789	0.0120265611972268	-0.000800582817134904	-0.00307084306402253	-0.000805540513336999	-0.00307852129531764	-0.00515202215546494	-0.00240601768093702
1.4	-0.0058971013799999	0.0117681103751561	-0.00122846233087838	-0.00292393870431792	-0.00123089068235139	-0.00293108844647533	-0.00481182995757368	-0.0016006517457161
1.5	-0.0047669694200508	0.0113820732188057	-0.00161940484212735	-0.00272546050673029	-0.00161742815085955	-0.00273101877824711	-0.00390819415961481	-0.0014910210682065
1.6	-0.00483299636626688	0.0110607961355192	-0.00198606467326744	-0.0024700473366126	-0.00198954902755955	-0.00247092846494527	-0.00501482450715053	-0.00128350756796032
1.7	-0.0041649072782431	0.0117680650420538	-0.00231368617254216	-0.0021728929766857	-0.00231575335793504	-0.0021815126138214	-0.00524824820606926	0.000345197002556903
1.8	-0.00323510953478934	0.0123468689566718	-0.00259143571399744	-0.00182076148024781	-0.00259664048773757	-0.00182623498943857	-0.00486939953255587	0.00181557175579634
1.9	-0.00219881976633838	0.0129890634446035	-0.00281692237467636	-0.00144989146593363	-0.00281338929386007	-0.00144368439885605	-0.00401624518266018	0.00345258285176207
2	-0.000143702546696312	0.0130598777064811	-0.00299534986662417	-0.00103723537414656	-0.00299809231213492	-0.00103035526709054	-0.0017270629968468	0.00439187207357506
2.1	0.000351180434253887	0.0119002978003709	-0.00311100662803052	-0.000598560821120783	-0.00311313698648891	-0.000605281140431272	-0.000725464232868444	0.00369508030120687
2.2	0.000558148929283771	0.0119089695771237	-0.00316205641338556	-0.000164284804888041	-0.00316384581643305	-0.000154513607526942	0.000224060437330909	0.00380348290723743
2.3	0.000881779254061069	0.0119370797173746	-0.00315191520504621	0.000280118019241642	-0.00315870755048451	0.000277219474878583	0.00133128998571464	0.00357084754631496
2.4	0.00109705599680753	0.0123568851345026	-0.00309086335686655	0.000717292229087595	-0.00308963069882442	0.000732471740008039	0.00231897111402276	0.00342912681446537
2.5	0.00248568708134209	0.0131044611067189	-0.0029519279199342	0.00115524591845409	-0.0029649821762118	0.00115661778780434	0.00449183988233232	0.00328649351383772
2.6	0.00353078547396593	0.0122465298036707	-0.00275473577994052	0.00154981100673137	-0.0027757016892723	0.00155385121977233	0.00615738047316905	0.000968192358087026
2.7	0.00405008452260515	0.0119961049861061	-0.00251968588524929	0.00191799821254819	-0.00251993828539507	0.001923100877366	0.00667087117096421	-0.00113791744079672
2.8	0.0046943616304676	0.0118646556710849	-0.00222135630814805	0.00224301719986563	-0.0022311560221178	0.00225430209353888	0.00664116587411369	-0.00313106989689891
2.9	0.00560420601007422	0.0120100956437325	-0.0018799120748371	0.00253616018129348	-0.00187792017585898	0.00254508265598154	0.00639700604362885	-0.00454499695885692
3	0.00755990263753244	0.0115893262654218	-0.00150234084403117	0.00277398333947334	-0.00151753642479617	0.00276103592835894	0.00700846605300172	-0.00623855722134671
3.1	0.00823001491305816	0.0102138561431729	-0.00110455541057565	0.0029529524496021	-0.00112148530238793	0.00295846828441675	0.00601764547698612	-0.00897466326621204
3.2	0.00878934004152602	0.00956911626045484	-0.000683276874827086	0.00307625838426695	-0.000678932849033034	0.00308705205529002	0.0043806120004074	-0.0105950125710037
3.3	0.00932583812854856	0.00877791275154811	-0.00025134055953067	0.00314408402992463	-0.000248069110517107	0.00313967712721828	0.00254654343272133	-0.0120250166147268
3.4	0.00969382674692095	0.00824797084297893	0.000195477567671807	0.00314603884526938	0.000186057716694395	0.00314718666927228	0.000419010668595994	-0.0129291346410638
3.5	0.0109336257556748	0.0075206460124845	0.000624108459803964	0.00308488726465424	0.000629104317179998	0.00308352842278263	-0.000943065362574944	-0.0138164569009207
3.6	0.0108526603135343	0.00575689923117246	0.00104452255115424	0.00296528444373284	0.00105114305660605	0.00296873640962116	-0.00392686715823837	-0.0154212493801501
3.7	0.0104444166970071	0.00520585798482033	0.00146099645965514	0.00278440104206453	0.00145936157842175	0.00280077648129072	-0.00738392238426788	-0.0152235955569771
3.8	0.0103973647383732	0.00496001970321136	0.00182645226577194	0.002553732228947	0.00183708380339451	0.00256000586090313	-0.0105250883598835	-0.0141597544748401
3.9	0.010743319854631	0.00507414422219348	0.0021690547083494	0.00227384058750052	0.00216446369937448	0.0022737726187274	-0.0131767636816489	-0.0120668680590831
4	0.0125230915580772	0.00462241143285326	0.00245999004309008	0.0019565288558472	0.00247145969174679	0.00196260115258039	-0.0139174611292546	-0.00993437605819602
4.1	0.0128504256023346	0.00250036938745761	0.00271050103203399	0.00158428215753969	0.00272711747075754	0.00159393153941011	-0.0156146041591177	-0.00913183745146297
4.2	0.0125421299412141	0.00137847585412515	0.00290636241569744	0.00118566988903692	0.00290760904132161	0.00118794236185316	-0.0175832752349828	-0.00700015703430997
4.3	0.0122430356872089	0.000543134821063825	0.00304453428931085	0.000778420608341832	0.00304577386107656	0.000786974791483977	-0.0190246623725689	-0.00438979124793592
4.4	0.011886482875249	0.000137451551220392	0.00312133551540051	0.000344680812925546	0.00312920866770487	0.000340005190639636	-0.0199850899506438	-0.00102523444585144
4.5	0.0127784127075442	-0.000263701228323322	0.00314178155154334	-0.000103936676603592	0.00313861667948639	-0.000101655017882154	-0.0188323731981268	0.00240934265076079
4.6	0.0124412418984593	-0.00218479251127503	0.0030787954844485	-0.000546595449911373	0.00309185978510454	-0.000534768304281441	-0.0182530990497003	0.00388549125558467
4.7	0.0116830254644631	-0.00294013063350271	0.00297357931296812	-0.000954061565300784	0.00297342130924984	-0.000963447986082064	-0.0179377305671316	0.00617797274775237
4.8	0.0110720636342298	-0.00356067558516791	0.00282277519390127	-0.00135258973491043	0.00281503740280335	-0.0013726153684792	-0.017046681713909	0.0085939849726748
4.9	0.0106240351806153	-0.00374574106055729	0.00260452624509116	-0.00174725040153537	0.00259854408626695	-0.00173881391344854	-0.0156622545615794	0.0112486852131392
5	0.0114248443053348	-0.00428669948004157	0.00232294073334187	-0.00207141152356933	0.0023255841832888	-0.00208375762308996	-0.0123121033280945	0.0133023615026269
5.1	0.0107716471332436	-0.00592777350218427	0.00200620765779739	-0.00238565694206044	0.00201934059602396	-0.00238325575756708	-0.010240675278637	0.0135962635430592
5.2	0.0101058233575932	-0.00632432867614408	0.00166672951393551	-0.00263936910352656	0.00166721013990203	-0.00264350082711358	-0.00805147055734245	0.0148203546781845
5.3	0.00990198452718583	-0.00670267533917806	0.00127885692006317	-0.00284660847005234	0.00127513184009145	-0.00284914574416371	-0.00515685655039384	0.0156890244001885
5.4	0.00984898818442478	-0.00694003375028176	0.000870354012459047	-0.00299934702666058	0.000869464943286655	-0.00300178051441311	-0.00186548694277748	0.0160470092002746
5.5	0.0110061285204952	-0.00797846035778817	0.00044228568013395	-0.00308822877261042	0.000454741804552694	-0.00308822414787081	0.00270880024210661	0.0147099506197173
5.6	0.0095734638749371	-0.0103278959401723	1.41666210346828E-05	-0.00312247677216887	1.08984206702245E-05	-0.0031190442054148	0.00412435525536188	0.011282539809753
5.7	0.00780863910665468	-0.0106738333127043	-0.000415779453598547	-0.0030958688747783	-0.000419469271862538	-0.0030995245338033	0.00462733658077955	0.00959426926156764
5.8	0.00650137223713887	-0.0106839496895581	-0.000845275998594794	-0.00300502985696073	-0.0008445559906999	-0.00301264780798597	0.00513213251332744	0.00796791389375999
5.9	0.00518949299634859	-0.00995427570989293	-0.00125445101928338	-0.00285425611442666	-0.00125286133590626	-0.00285836958166512	0.00512656213427898	0.00702780210630219
6	0.00602852568074141	-0.00884530938079857	-0.00164062108923811	-0.00265754351835405	-0.00163466671064467	-0.0026608593980802	0.00709640492956011	0.00668434005758325
6.1	0.00603232875104536	-0.0105080531353098	-0.00199925593473897	-0.00240547270707132	-0.00199514197336472	-0.00241020340433463	0.00820141203053653	0.00322825573967483
6.2	0.00500778145750567	-0.0112658441366964	-0.00231397959756225	-0.00209180870345782	-0.00231042464049447	-0.00210040124364248	0.00779856859692484	0.00052321767221924
6.3	0.00399279032089491	-0.0118941646318181	-0.00257777071836902	-0.00175803539382807	-0.00258749306458715	-0.00176574910670506	0.00690370784211262	-0.0020993572339328
6.4	0.00289376462735128	-0.0119247032514907	-0.00280535257462427	-0.00138004899347771	-0.00280336185832847	-0.00138579836448703	0.00556867234281541	-0.00387661290256621
6.5	0.0032615236134845	-0.0127685641458402	-0.00297325953768341	-0.000977187878943558	-0.0029736619934876	-0.000976073236896368	0.005531418364357	-0.00634114407664957
6.6	0.00113710377811212	-0.0140132976570657	-0.00307147527271167	-0.000556052302559062	-0.00308204914750531	-0.000559050649092481	0.0023593836458511	-0.00925741066934076
6.7	-0.000249622971981596	-0.0136240776866634	-0.00311746928858962	-0.000129758542256038	-0.00311645449260482	-0.000123567253892659	-0.000730851531201635	-0.00980265593218385
6.8	-0.00135623893068848	-0.0133506083805566	-0.00310691439614271	0.000313344932865756	-0.00310603268819872	0.000318073425596906	-0.00369116255229487	-0.00972932623840215
6.9	-0.00245789889519787	-0.0123808437104689	-0.00302839776377662	0.000742451232482177	-0.00302883416731078	0.000747399908762377	-0.00643814472872762	-0.00816609756976347
7	-0.00130412846102959	-0.0119671473036971	-0.00289487064433505	0.00115578848915867	-0.00289628313375465	0.0011589719815105	-0.0063290106077095	-0.00678998367070609
7.1	-0.00294688153579456	-0.0136372997482519	-0.00270578382459399	0.00154508081560686	-0.00270825004099914	0.00155599226787886	-0.00888021368883122	-0.00751244880931917
7.2	-0.00490468747612589	-0.0130786904387572	-0.00247332561117031	0.00190608077181298	-0.00247354404399713	0.00191193207433025	-0.0116505811995097	-0.00545439598197845
7.3	-0.0064787180749958	-0.0122481668712391	-0.00218800878032735	0.00223142956268486	-0.00218527506001882	0.00223291081553805	-0.0134561347137186	-0.00275252020183747
7.4	-0.00824977605860514	-0.0106583650641174	-0.0018495205817193	0.00251367697315826	-0.00184240198840029	0.00252019768608257	-0.0149178828862227	0.000970729495323659
7.5	-0.00758038676816522	-0.00833701974905211	-0.00148481516333338	0.00274593834683848	-0.00148582735688505	0.00274392886241169	-0.0128806718954222	0.00554659417813948
7.6	-0.00780325051953671	-0.00902153451003844	-0.00109923130541118	0.00293315081240808	-0.00108872769025759	0.00294355552630645	-0.0110299194844873	0.00637540945554085
7.7	-0.00881922476184537	-0.008342300941686	-0.00067204888536793	0.00306270887313189	-0.000666505061826903	0.00306241404012401	-0.00988155417566356	0.00793414944076401
7.8	-0.00922791743330944	-0.00773223834736438	-0.000229059415380636	0.00312835487239816	-0.000242580227831139	0.00312117358688263	-0.00816970088427699	0.00943231731485321
7.9	-0.00921923226715214	-0.00685483484768848	0.000189588390784264	0.00312066042836371	0.000200640928593415	0.00312047581511734	-0.00565316379996104	0.0111722524254727
8	-0.00746286189039683	-0.00761752677069001	0.000624832445989015	0.00307995290663243	0.000633143341142658	0.00307797242722907	-0.00128465483169616	0.0109367785101158
8.1	-0.00912737877500329	-0.00908483480993243	0.00106413347955192	0.00295986835267925	0.00106188316633006	0.00295659452010523	-0.000226733512446563	0.00897975173492836
8.2	-0.0104302482831859	-0.0085945272584613	0.0014570087794201	0.00278094860184428	0.00145607880361854	0.00279252187384665	0.00101987223000937	0.00890318567195184
8.3	-0.0114415946987688	-0.00797761017920184	0.00183165289048362	0.00255444268413453	0.00183675508352187	0.00255190744470262	0.00265407973681166	0.00857645730026144
8.4	-0.0124238064449948	-0.00649165262485484	0.00218450068474934	0.00228142532859215	0.00217331307871688	0.00228171138993501	0.00428270941897062	0.00858663637786786
8.5	-0.0109865955855062	-0.00537551460668882	0.00249215885509574	0.00194353202583826	0.00249215771484741	0.00194488665782175	0.00837769956483482	0.00759547777539887
8.6	-0.0120307773067524	-0.00650537030091029	0.00272203741848003	0.00158230806360249	0.00271784000964771	0.00157996347361333	0.00936327299918702	0.0032836601649089
8.7	-0.0134357597222284	-0.00546407671632621	0.00291652216450169	0.00118736441529719	0.00291536090950299	0.00118694246029016	0.00895775132218148	0.000867940086704434
8.8	-0.0142029628578535	-0.00410606011873539	0.00305306634848445	0.000769682358031098	0.00306409635898909	0.000767665871933717	0.00830586827085058	-0.00122841752619237
8.9	-0.0146720523597573	-0.00217333682781242	0.00313403467953846	0.000334605940288739	0.00314347649993783	0.000327509647574301	0.00732952344918325	-0.00228769917227942
9	-0.0126816289193065	-0.000509505367317459	0.00314350775864323	-0.000116701900022659	0.00315025495267403	-0.000111042864992917	0.00868786569981536	-0.00310649374156793
9.1	-0.0123093601026526	-0.00129796305550531	0.00310380213813557	-0.00054409138081574	0.00310402227420629	-0.000544282300043032	0.00820876260595952	-0.00652397715176063
9.2	-0.0121338605594969	-0.000940746029782009	0.00299672514579016	-0.000970391548746754	0.00300055983589372	-0.000970132715734719	0.00699264669556997	-0.00859737017877503
9.3	-0.0117977189898229	-0.000963123506433514	0.00282787214119624	-0.00138627186997067	0.00284601170104708	-0.00138656423416982	0.00557499095606128	-0.0107744268328363
9.4	-0.0118166284907878	-0.000653659597985294	0.00260890455708135	-0.00176274456054684	0.00261232196481481	-0.00177379235943113	0.00338764502049038	-0.0122872007768118
9.5	-0.0105625932867006	-0.00119638258717002	0.00234484456940335	-0.00211687343264138	0.00235971314264013	-0.00211738898691118	0.00235408606613628	-0.0143829325884978
9.6	-0.0124534451831636	-0.00241147686757461	0.00203138532467298	-0.00243200127730526	0.00203164371382723	-0.00242493110238443	-0.00263497160135799	-0.0171246735716607
9.7	-0.0138930729915212	-0.00135842448852498	0.00166623086437732	-0.00269460037158625	0.00167460538870897	-0.00269613334455565	-0.00780237993253054	-0.0165547658042472
9.8	-0.0147392425255056	-0.000116000814691981	0.00127934209613521	-0.0028955885261879	0.00127756894531186	-0.0029043185303474	-0.0124054322222105	-0.0147322801799792
9.9	-0.0153660628865231	0.0018783494661784	0.000869978188859201	-0.00304584270931248	0.000858024991479693	-0.00304858495986716	-0.0166295167328794	-0.01110439582317
10	-0.0135208662898337	0.00338582321987136	0.000433684220007854	-0.00313974896413472	0.000432922118894286	-0.00314715933636147	-0.0174629321590577	-0.00709824528075594
10.1	-0.0138552034672822	0.00274414599086314	-1.47533351410765E-05	-0.00317985654453077	-1.94362333682931E-05	-0.00318268248342232	-0.0199354675789618	-0.00518019387171292
10.2	-0.014409617646679	0.00384376340539534	-0.00046134698101607	-0.00314003293935628	-0.000474070651741622	-0.00314389600778136	-0.0222409493275201	-0.00100415093801414
10.3	-0.0145029599929545	0.00516344749303224	-0.000899433924784322	-0.00303971884114973	-0.000899151736042489	-0.00305326148025624	-0.023375523613457	0.0039175363792749
10.4	-0.0142106820091437	0.00718161864719184	-0.00131787908251549	-0.00289660339122644	-0.0013210999638813	-0.00289445811314757	-0.0231331657610603	0.00984183412226463
10.5	-0.0114284611944659	0.00848488478398766	-0.00171912890281402	-0.00267091695560573	-0.00172538734959454	-0.00267827307566658	-0.0190314805791888	0.015011377662461
10.6	-0.0104967349571977	0.0077781797252999	-0.00207915178491343	-0.00240344113411683	-0.00208067359226239	-0.00240861007955443	-0.0161003361855921	0.0172797886233681
10.7	-0.00954283922522048	0.00779578154406185	-0.00238895044863471	-0.00208717460936506	-0.00239221030099846	-0.00210338469776948	-0.0126952542136642	0.0200173535729399
10.8	-0.00899010581493069	0.0074593146825102	-0.00266089206865936	-0.00173414578717393	-0.00265792305563103	-0.00173634248179971	-0.0093876738623751	0.0218885069231782
10.9	-0.0089305865004469	0.00799749599171978	-0.00288296245740077	-0.00134570922262378	-0.00288225338742468	-0.00135089862073477	-0.00596789412302883	0.0243509802286246
11	-0.00655452082325201	0.00809636472507975	-0.00303736337003842	-0.000918872376851134	-0.00303030072069523	-0.000923233523993323	0.000471834476685485	0.0256800231659756
11.1	-0.0069038618390697	0.00646122490013771	-0.00313232169219033	-0.000503976546711871	-0.00312448430462249	-0.000495623980008521	0.00428992822518775	0.0240261790389829
11.2	-0.00717852836921306	0.00668886181437329	-0.00317428495776144	-5.54545835473275E-05	-0.00318093820846153	-5.21882803667175E-05	0.00805379380769477	0.0236426962450413
11.3	-0.00687570843443926	0.00699375407656719	-0.00314834160022078	0.00039381259524539	-0.00315154858191299	0.000391642351223606	0.0122252081642596	0.0227963988764183
11.4	-0.00663260060520254	0.00766460219639307	-0.00305273304276671	0.000829720313891859	-0.00305740012563793	0.000829902160143588	0.0164435757033063	0.0216517848463071
11.5	-0.00433316894070125	0.00737651072790401	-0.00291860426342303	0.00123271246273789	-0.00291101434838053	0.00123747942492789	0.0228983958782389	0.0185836644162193
11.6	-0.0049081059700187	0.00529435078231607	-0.00271726818114232	0.0016364310343635	-0.00272542306828596	0.00164626907133133	0.025635967391599	0.0123216263888597
11.7	-0.00573614838839703	0.00523122662377498	-0.00245471654323218	0.00200917000140953	-0.00245646067047011	0.00201290837250622	0.027027194404746	0.00760286365090491
11.8	-0.00613506048634864	0.00572342700237918	-0.00214727650413506	0.0023335215777269	-0.00215649563108825	0.00234346951449113	0.0279592949018807	0.00327269448213014
11.9	-0.00571306247853611	0.00721927748989191	-0.00180383116188186	0.00260257452202665	-0.0018038240918573	0.00260918763744195	0.0288440008153608	0.000227877532301409
12	-0.00236937362964993	0.00709540852703027	-0.00142232203319375	0.0028356010894154	-0.00142684588864674	0.00283844778254309	0.0326699070620596	-0.00481646517877156
