# GHZ S RI R 50
0.2	-0.013865801928254	0.00527580245252697	0.00304452905310873	-0.000885353956038122	0.00305498884723051	-0.000885201962894588	0.00592568388248415	0.000776184493408001
0.3	-0.0130133594558574	0.0057878986353655	0.00289824818133191	-0.00130137197650167	0.00289196267934278	-0.00131301349694768	0.00628154887581035	-0.00147271434256728
0.4	-0.0123004649757438	0.0064352985615682	0.00268393622415938	-0.00169548511865089	0.00268183097910906	-0.00169739693179556	0.00583387937327486	-0.0033627441562741
0.5	-0.0117535983774496	0.00723507278411312	0.00241424435693021	-0.0020522287041008	0.00241705801730948	-0.00205595415286215	0.00487146842286382	-0.00483104793026365
0.6	-0.0109647775503644	0.00808987891482453	0.0021016477381086	-0.00237233465033325	0.00210090435708659	-0.00237517651420812	0.00375378035189981	-0.00610360076255046
0.7	-0.0102895866259439	0.00882561643967648	0.00175102972381417	-0.00264219303371014	0.00175723447377734	-0.00264628580253123	0.00216462707774789	-0.00702563697948223
0.8	-0.00948817145726502	0.00956471847128986	0.00135761485512927	-0.00286194319714764	0.00136588567545027	-0.00286034748243899	0.000399134686775647	-0.00740901708652327
0.9	-0.0087131814966452	0.0101729719369377	0.000953346529826111	-0.00301380663701224	0.000953327391159708	-0.0030232199156823	-0.00136723839075178	-0.00737941044243939
1	-0.00808335318273749	0.0106727212075077	0.000520569859158768	-0.00312207430674189	0.000520421444962051	-0.00312742983881106	-0.00317478946089472	-0.00684405150057364
1.1	-0.00747793169811426	0.0112478715449702	7.32187833956757E-05	-0.00316176010267853	7.41062030513351E-05	-0.0031664853293303	-0.00464706670988312	-0.00573147167373531
1.2	-0.00689848018719939	0.0114189750182858	-0.000365385268800707	-0.00313463555669997	-0.000364159658443462	-0.00315142567043403	-0.00551781235275562	-0.00444098983368227
1.3	-0.00658550580753828	0.0112680462076918	-0.000796361719062674	-0.00306042163347565	-0.000801298476053941	-0.00306807516327265	-0.00555979834337611	-0.00313512904666674
1.4	-0.00629729834222673	0.0109752996533274	-0.001222234013941	-0.00291536678615561	-0.00122464900770837	-0.00292249512848505	-0.00518330600102394	-0.00240021994683173
1.5	-0.005785201060099	0.0110927879508858	-0.00161384675829217	-0.00271693669383365	-0.00161187566263192	-0.00272247687564404	-0.00490475514936808	-0.00179194243674061
1.6	-0.0048473123349972	0.0114769033708634	-0.0019765027062219	-0.00246082855278258	-0.00197997210986015	-0.00246170785968623	-0.00501878739435552	-0.000902230524822056
1.7	-0.00381028688235869	0.0118200421649798	-0.0023014656113961	-0.00216658539592781	-0.00230351395020761	-0.00217517156960915	-0.00489183821487256	0.000366260619922802
1.8	-0.00277569557080402	0.0121565930303737	-0.00257835475843302	-0.00181738130812041	-0.00258353053279209	-0.00182284077456294	-0.00441136366919547	0.00159958585456972
1.9	-0.00181190109658999	0.0122545432782974	-0.00280390568014165	-0.00144813995452489	-0.00280039501980867	-0.00144195222635111	-0.00363526535730138	0.00270239141020189
2	-0.00104240198296693	0.0124140655864955	-0.00297906645614986	-0.0010366552171671	-0.00298180580002997	-0.00102981305480485	-0.00261690514445035	0.00374681497076271
2.1	-7.98843190875169E-05	0.0124999049462215	-0.00309445451548454	-0.000604532139225377	-0.00309655563020645	-0.000611226418712132	-0.00112698856645011	0.00427619540678944
2.2	0.000786211466422584	0.0124636815886414	-0.00314791035090801	-0.000173514453169656	-0.00314972275009646	-0.000163790997425901	0.000472425929146266	0.00432411941611713
2.3	0.00154530611182191	0.012268855937495	-0.00313955608498196	0.000268601696452264	-0.00314631031169689	0.000265693087856915	0.00199821351966514	0.00386870284243939
2.4	0.00219006105610749	0.0120013041499204	-0.00307934177926565	0.000703050650575455	-0.00307816863923559	0.00071816544544773	0.00340325153362682	0.00306707551417191
2.5	0.00255209025958702	0.0117543594375974	-0.00294429881957531	0.00113505563452554	-0.00295730045051564	0.00113635526627094	0.00457252383934557	0.00196946707689753
2.6	0.00305356993115137	0.0117981756714804	-0.00275395429226668	0.00153039397037207	-0.00277487367286348	0.00153431143380401	0.00572725365703321	0.000542032972653635
2.7	0.00376237548852923	0.0118278671173219	-0.00252177003248772	0.00189930639445792	-0.00252204766282686	0.00190439220204123	0.00644776827191704	-0.00129246702938241
2.8	0.00467861224272943	0.0117730236580066	-0.00222673588512395	0.00222421609765151	-0.00223656683785669	0.00223541383428625	0.00670789192777325	-0.0032155398665214
2.9	0.00574004362054425	0.0114975489340588	-0.00189035674901821	0.00251727068887538	-0.00188842600770336	0.00252618024415174	0.00664972465319854	-0.00506379126799418
3	0.00674619739143123	0.0110934056448681	-0.00151911035406724	0.00276053217486462	-0.00153420061912007	0.00274749864751232	0.00634758728949466	-0.0067850040796937
3.1	0.00784062041879397	0.0105962625612283	-0.00112023841533843	0.00294354403088319	-0.00113718195727948	0.00294895748351808	0.0057776502083239	-0.00865805535951537
3.2	0.00876905664208943	0.00987311832706159	-0.000700914112392427	0.00306858667796875	-0.000696639810818754	0.00307939382367758	0.00450877506153906	-0.0104057238786032
3.3	0.00953743481214426	0.00898551937450962	-0.000271391174169322	0.00314011913940011	-0.000268093800357858	0.00313573658447389	0.00290187491941042	-0.0119651423085753
3.4	0.0100886099747342	0.00800473762497827	0.000174552240646243	0.00314821485461266	0.00016512212303432	0.00314930018012238	0.000941752549593809	-0.0133567143021387
3.5	0.0103427083821898	0.00711985846703927	0.000608314890267749	0.00309102854869347	0.000613322540099902	0.00308969496452193	-0.00144704871091851	-0.0144005512000413
3.6	0.010653694030871	0.00638492150006954	0.00102806588207662	0.00297097979458701	0.00103466706527597	0.00297446832666147	-0.00401603863366161	-0.014995784484018
3.7	0.0109127417437765	0.00563287589441896	0.00144464084213666	0.00279448902032667	0.00144290543372602	0.00281086143761819	-0.00682761279346421	-0.0150408692373361
3.8	0.0111801428352062	0.00489396376557391	0.00181287993973643	0.00256766184754615	0.00182348485657221	0.00257400716373573	-0.00969990271696959	-0.01448794600945
3.9	0.0114376055730203	0.00412026987772981	0.00216004402594455	0.00228921181947521	0.00215544622460784	0.00228911871884959	-0.0124855507941779	-0.0132606718125935
4	0.0115978613738437	0.00344063146735428	0.00245067127352312	0.00197022137506588	0.00246211350090376	0.0019763563194534	-0.0148041481079302	-0.0113144992325864
4.1	0.0119463375534325	0.00275839791507241	0.00270263752316002	0.00160398706759845	0.00271920617575334	0.00161375718513356	-0.0164697730300973	-0.00914649871956511
4.2	0.0122469364905729	0.00189781184190642	0.0029043016291467	0.00120716482171941	0.002905535749252	0.00120945000474324	-0.0178852645055246	-0.006781132668601
4.3	0.0124150682780268	0.000972797363504083	0.00304695635495656	0.000799226967442103	0.00304814564629245	0.000807809282667771	-0.0189018855077786	-0.00425285804097488
4.4	0.0123750276036697	-5.70106529856139E-05	0.00312584197040118	0.000364275892654327	0.00313376000740459	0.000359637989375651	-0.0195631618453083	-0.00148775307682768
4.5	0.0120482951178133	-0.000885439594407751	0.00314984551462735	-8.02230694348956E-05	0.00314665592136129	-7.79602601361968E-05	-0.0196295804639464	0.00149405330632399
4.6	0.011779036212673	-0.00157333030878951	0.00309620581018619	-0.000526574968451286	0.00310924104016963	-0.00051460114917993	-0.0190393111762195	0.00420762453791025
4.7	0.0115601125020297	-0.00218692991993738	0.00299403529941965	-0.000939414129308736	0.00299393724121931	-0.000948846666590388	-0.0182071381857384	0.00666078679706915
4.8	0.0113323913229689	-0.00284914050546736	0.00284514678171826	-0.0013418058503027	0.0028374947038496	-0.00136197868430197	-0.0169621322963658	0.00905059197880714
4.9	0.0112305243559115	-0.00352754186689187	0.00262984452741609	-0.00173923171944467	0.00262377493194475	-0.00173079029583064	-0.0152709135308384	0.0112249414577788
5	0.0110896570459608	-0.00422536286727054	0.00235376677897917	-0.00207174757101865	0.00235651034796697	-0.00208416861090436	-0.0129064225434559	0.0131886857230411
5.1	0.011179100943222	-0.00498813441950449	0.00203215411196781	-0.00239476397208941	0.00204537599320507	-0.00239228558342843	-0.0100612489636175	0.014408971021448
5.2	0.0111809954224575	-0.00595890394447491	0.00168989704897011	-0.00265175433533884	0.00169039836658869	-0.00265591429480682	-0.00721279856544841	0.0150811356592917
5.3	0.0110352127783104	-0.00702710585404507	0.00130020826078123	-0.00286325518114781	0.00129646489937508	-0.00286582702042116	-0.0042691920846326	0.015312529505848
5.4	0.0106265022059895	-0.00813136148135727	0.000888975130502365	-0.00302244434757478	0.000888087188235544	-0.00302490242184471	-0.00131113787544366	0.0148831986722748
5.5	0.00984115784884322	-0.00890971740081588	0.000450190157549702	-0.00311607193226954	0.000462760796436914	-0.00311605178417129	0.00144471206390207	0.0138597049949332
5.6	0.00920143580590731	-0.00953106585796393	1.74792972444734E-05	-0.00314638681013274	1.41825333010297E-05	-0.00314293129676401	0.00371206404244381	0.0120823778753938
5.7	0.0084123780798981	-0.0100873784757721	-0.000415451489348949	-0.00312064602025726	-0.000419166023915219	-0.00312433464710267	0.00517779255206581	0.0101521644162847
5.8	0.00763884122237002	-0.010571949692693	-0.000850312703364858	-0.00303053040241514	-0.000849581701120175	-0.00303821111310798	0.00620135483035948	0.00805412615985574
5.9	0.00674637675200834	-0.0110204653522862	-0.00126698900165628	-0.00287760746699629	-0.00126538859441136	-0.00288175685691425	0.00661941016487387	0.00597094976624262
6	0.00556419801876068	-0.0113130083955581	-0.00165476789641419	-0.00267278811048705	-0.00164877889710693	-0.00267613333501628	0.00661396797206589	0.00425332809276972
6.1	0.004628635600478	-0.0113088195445669	-0.00201317617725586	-0.00242224199339273	-0.00200903353117016	-0.00242700563623883	0.00683613775334292	0.00246162322795061
6.2	0.00384620754107426	-0.0114563733116537	-0.00233309454842751	-0.0021065097261865	-0.00232951746592755	-0.00211517066317903	0.00672697040771961	0.000336338425474156
6.3	0.00320037762089616	-0.0117657419975266	-0.00260027948004449	-0.00176763214704949	-0.00261008837153147	-0.00177539038719838	0.00621483623153075	-0.00201995335253796
6.4	0.00237821985736984	-0.0123005616946215	-0.00282732784632973	-0.00138330694825388	-0.00282533612186253	-0.00138909953994742	0.00514962816628431	-0.00433821034893485
6.5	0.00142330000029993	-0.0126111802609083	-0.00299335490974873	-0.000981673802471656	-0.00299375928381703	-0.000980551603301731	0.00379434177232672	-0.00629947286465189
6.6	0.000657289869615635	-0.0127569976443739	-0.00309778881110449	-0.000555755658715253	-0.00310845500254428	-0.000558761958099684	0.00195199868828953	-0.00817945900462809
6.7	-7.1703482417109E-05	-0.0128414036415932	-0.00314276327096533	-0.000121778527212619	-0.00314172245540454	-0.000115540685492038	-0.000534995971664601	-0.00921469492920465
6.8	-0.000800449603561693	-0.0128636011458017	-0.00312865288093547	0.000326242453640512	-0.0031277485722368	0.000331002650073283	-0.00316053648394412	-0.00942100358629078
6.9	-0.00165936277557539	-0.0129178308532756	-0.00304724808750967	0.000756578983997013	-0.00304767287072415	0.000761563348213564	-0.00567979125302323	-0.00885455614728496
7	-0.00269989199326182	-0.0126050779083452	-0.0029169405732385	0.00117539401855804	-0.00291835540657777	0.00117861041139315	-0.00772569897827914	-0.00754445934006451
7.1	-0.00344092504977079	-0.0121586398051588	-0.0027193789777421	0.00157314938440795	-0.00272180380605537	0.00158416487811199	-0.00935298355725748	-0.00618754644827595
7.2	-0.00413089724571119	-0.0117614169331203	-0.00247961517014476	0.00193475999972201	-0.00247979980335059	0.00194065476260325	-0.010889125289224	-0.00431290432063046
7.3	-0.00482908667343621	-0.0114132088255919	-0.00218943735581381	0.00226019410808498	-0.00218667573301506	0.00226166884577665	-0.0118679316281776	-0.00207472677082101
7.4	-0.00566867888662948	-0.011227912606835	-0.00184699435685072	0.00254464666397115	-0.00183977967701801	0.00255116986237729	-0.0124251018043343	0.000249579234114963
7.5	-0.00689032712853624	-0.0108802551711173	-0.00146964306789838	0.00277923732255399	-0.0014706812056491	0.00277722309136028	-0.0122271848459758	0.00297265951717463
7.6	-0.00775286146221725	-0.0102780922406869	-0.00107685497483005	0.00295675327910038	-0.00106620646648575	0.0029671072876005	-0.010950180068505	0.0051242558540379
7.7	-0.00859883715224117	-0.009763922338876	-0.00064742372091776	0.00308126491196374	-0.000641859819158208	0.00308091931277144	-0.00956412861645762	0.00649936409095369
7.8	-0.00918427412423013	-0.00944631467878437	-0.000200950243876505	0.00314271545537742	-0.000214590526775514	0.00313563144054225	-0.00797163746369917	0.00769811912866746
7.9	-0.00979006732996014	-0.00921093439708367	0.000223140183731371	0.00312917601384468	0.000234228016238754	0.00312887420966221	-0.00613081957722284	0.00882523312967263
8	-0.0103665543195962	-0.00866731119425238	0.000658136678736184	0.00307424283155719	0.000666429001543172	0.00307217238845722	-0.00381696152358035	0.00963466061362243
8.1	-0.0106289475060396	-0.00813748055257918	0.00109073668422978	0.00295107251566255	0.00108845669911004	0.00294781797000208	-0.00145494545575422	0.00967776885686733
8.2	-0.0109342214444395	-0.00767151515491344	0.00148296635144219	0.00276878371439683	0.0014821415700174	0.00278037015509247	0.000760164447317047	0.00949782305950557
8.3	-0.0112857282208544	-0.00723366703167608	0.00185590049687225	0.00253616842135108	0.00186097703651482	0.00253358449244984	0.00300647101371696	0.00893012343035604
8.4	-0.0117885112630477	-0.00676079051274574	0.00220265496881491	0.00225560922281033	0.00219149174139891	0.00225600441466162	0.00504761852439906	0.00789647014842768
8.5	-0.0124751752361591	-0.00596378366822725	0.0024998524478285	0.00192008191783167	0.00249986126458193	0.00192143297741023	0.00699901899306124	0.00661006985452218
8.6	-0.0128095654930389	-0.00493867530764652	0.00273124540608446	0.00155912601655663	0.00272703454544056	0.00155681706181417	0.00869803786102008	0.00436852449868311
8.7	-0.0129162642285724	-0.00396697759625123	0.00292107935919048	0.00116004697190182	0.00291991672569319	0.00115963579564463	0.00948459913017482	0.00182517633783557
8.8	-0.0128029446989626	-0.00313577550423915	0.00305033649859244	0.000741528752743378	0.00306131607028763	0.000739425072949627	0.00958899441599228	-0.000785767363025755
8.9	-0.0126015008267186	-0.00262914628889719	0.00312460665111487	0.000310739021845181	0.00313396161917783	0.000303601446412952	0.00919031133690504	-0.003168772935294
9	-0.0125576143262605	-0.00221806674528736	0.00313699057516577	-0.000138375072037405	0.00314376492255251	-0.000132773280639434	0.0086560298240313	-0.00516436821831399
9.1	-0.0123241140838636	-0.00188313423781373	0.00308936831549718	-0.000570052107046834	0.00308958607125484	-0.000570244396926372	0.00800226060591333	-0.00747282846326489
9.2	-0.0121706032667289	-0.00175021466045281	0.00297488678448873	-0.00099118169643116	0.00297870615699964	-0.0009909563134043	0.00673926142081582	-0.00971273822552357
9.3	-0.0121561985409793	-0.00169937819567699	0.00280304572339579	-0.00140053207687735	0.00282109083798467	-0.00140095964589178	0.00501339449882595	-0.0117597753231832
9.4	-0.0123964243264017	-0.00169805223109219	0.00258510211891027	-0.00177336860914672	0.00258842693025889	-0.00178439209315216	0.00266531131921148	-0.0135352138908542
9.5	-0.0128888274676227	-0.00118455358801989	0.00231353862430535	-0.00212854330896586	0.00232832979668549	-0.00212919585488068	-7.02637245538076E-05	-0.014597260876374
9.6	-0.0131631709626333	-0.000551214304318507	0.00199574182592061	-0.00243057364174895	0.00199605725755947	-0.00242355905140126	-0.00343132234400926	-0.0154951677365489
9.7	-0.0133422124823041	0.000165182226847631	0.00163396497646754	-0.00268519338145274	0.00164226260949414	-0.00268677373662624	-0.00734675982561137	-0.0152714127101303
9.8	-0.0134197160740182	0.000846715158151657	0.00124986237462961	-0.00288139685147661	0.00124804462083025	-0.00289004631051161	-0.0112078629130152	-0.0139984734012646
9.9	-0.0135401695559387	0.00149854272008912	0.000840154705401805	-0.00302711386675675	0.000828279999506189	-0.00302974463404343	-0.0149655014055941	-0.0116362995807806
10	-0.0138025295336827	0.00233042653306283	0.000407250360872122	-0.0031068082313862	0.000406446292725685	-0.00311412864436068	-0.0178043987706246	-0.00822014898054881
10.1	-0.0136906916067069	0.00331602908462424	-2.76762901930472E-05	-0.00314419817060634	-3.23183958465883E-05	-0.00314697320023544	-0.0197490303216954	-0.00473955688874552
10.2	-0.0133506717980661	0.00417881369360283	-0.000467959392707432	-0.00310445408637281	-0.000480560054009156	-0.00310822851648746	-0.0211561261811727	-0.000839808667192691
10.3	-0.0128663769406743	0.00484822988523694	-0.00090005783060281	-0.00300225044907645	-0.000899826798109046	-0.00301564135191726	-0.0217149109618862	0.00342246985215995
10.4	-0.0124295553823803	0.00525899441971361	-0.00130908225474922	-0.00285534284635868	-0.00131225531592496	-0.00285321615078038	-0.0213055209815078	0.00775707134568157
10.5	-0.0121875962687793	0.00586501534545966	-0.00169397930649314	-0.00263704009768542	-0.00170014829271256	-0.00264430426512519	-0.0196843250627694	0.0122041810540466
10.6	-0.0116298395726854	0.00654194414596304	-0.00205334453044287	-0.00237954690943491	-0.00205484327998615	-0.00238466086097595	-0.0170999953553265	0.0158007203869287
10.7	-0.0109179897262492	0.00713758738273035	-0.00236015138085404	-0.00206689254845512	-0.00236335645878171	-0.00208292740165204	-0.0139636562501212	0.0189910622267366
10.8	-0.0101052124067018	0.00751197566423487	-0.0026270779657632	-0.00171933860716905	-0.00262413880277769	-0.00172150445464581	-0.0103705304340265	0.0215309677075915
10.9	-0.00948972830243391	0.00771744136551004	-0.0028447513201667	-0.0013414775754694	-0.00284403025835337	-0.00134660483096459	-0.00651642150582655	0.0235636975156702
11	-0.00891650599666256	0.00813975554265644	-0.00300775164781777	-0.000924726312990951	-0.00300072882274502	-0.000929019282963466	-0.00187897373158292	0.0252301875270383
11.1	-0.00800536858292095	0.00851766551051715	-0.00310255744016161	-0.000508122294605037	-0.00309481424352013	-0.000499823568908094	0.00314477428211257	0.0254706522124493
11.2	-0.00695604748644833	0.00861066471442549	-0.00314298509515788	-6.65012886079293E-05	-0.00314958509253284	-6.32912766920668E-05	0.00806964460966489	0.0249203824169947
11.3	-0.00581108015094443	0.00830426019797754	-0.00312027636586114	0.000374683120447797	-0.00312344219951919	0.000372517884132473	0.0130557041938466	0.0235526852685461
11.4	-0.00503376634514452	0.00764599963581221	-0.00303323058287839	0.000805961415954136	-0.00303786173112767	0.000806115544152577	0.0177373901458671	0.0211942406286618
11.5	-0.00465095249725432	0.00711564797746145	-0.00289985247522723	0.00121380704635353	-0.00289233679034741	0.00121856119318328	0.022157671343925	0.017941094261071
11.6	-0.00417357276589715	0.00653057463041499	-0.00269801816908779	0.00160775782146091	-0.002706138011111	0.00161746121576754	0.0258735434746194	0.0132381956278468
11.7	-0.00383463262314192	0.00580636087443422	-0.00244413656467755	0.00197533584320421	-0.00244588736598486	0.00197902859917052	0.0283688172262815	0.00800817338737645
11.8	-0.00364936961453284	0.00507026678880883	-0.00214488968293235	0.00229963979422854	-0.00215409808891868	0.00230944285574176	0.0298989564970434	0.00260814928545824
11.9	-0.0036743825441296	0.00433396735424343	-0.00180474627320539	0.00257153025685824	-0.00180477776150906	0.00257809121612858	0.0304371889473848	-0.00250056450526598
12	-0.003986483842916	0.00399255259081422	-0.00142596930743074	0.00279621906490803	-0.00143046406571715	0.00279900580809821	0.0306817109067217	-0.0076228710350894
