# GHZ S RI R 50
0.2	-0.0136061975588044	0.00545693098821877	0.00304250082365107	-0.000886136082386262	0.00305295497653364	-0.000885988518057329	0.00618561105268243	0.000963584725387397
0.3	-0.0128121513435058	0.00583391010003497	0.00289552192094931	-0.00130197459504436	0.00288923474457984	-0.00131360460971996	0.00647655131352018	-0.00141966368145572
0.4	-0.0121719713168645	0.00632115283681818	0.0026805000340892	-0.00169547342658915	0.00267839562045333	-0.00169738227603476	0.00594496226098246	-0.00346796440093778
0.5	-0.0119075799620156	0.00721900415983281	0.00241077169483564	-0.00205107956840303	0.00241358072987763	-0.00205480225098197	0.00467668744120776	-0.00482498211734798
0.6	-0.01088450937373	0.00825347621413865	0.00209833888293618	-0.00237085092920112	0.00209759493844205	-0.00237368947968213	0.00378547761202743	-0.0058813424443691
0.7	-0.0101073419995054	0.00884692737250233	0.00174757762960945	-0.00263995398677749	0.00175377287476798	-0.00264404509497279	0.00231198840588138	-0.00691573110610081
0.8	-0.00929176926289008	0.00947313778695509	0.00135444138760381	-0.00285873054023061	0.00136270182842728	-0.00285714086419284	0.0005849750803363	-0.0073930654268008
0.9	-0.00851496563982329	0.00988692614924393	0.000950949099833647	-0.00300978803029845	0.000950926791036549	-0.0030191877393038	-0.00114435128341105	-0.00755990774009731
1	-0.00828987229432494	0.0102052606436357	0.000518849111314443	-0.00311805691940961	0.000518699142277974	-0.00312340521911059	-0.00334604945518524	-0.00725152481863596
1.1	-0.0077475089909421	0.0111648688285733	7.16949799733438E-05	-0.00315689422372963	7.2578916960933E-05	-0.00316161252541239	-0.00492194369867149	-0.00576540467732783
1.2	-0.00697933668071229	0.0113357678932457	-0.000365766285902014	-0.00312910936420821	-0.00036454820767519	-0.00314587090483992	-0.00562573775290764	-0.00445963221395312
1.3	-0.00652606452185477	0.011052467461414	-0.000795513071710018	-0.00305476313062604	-0.000800442407217445	-0.00306240194737931	-0.00554601149057973	-0.00326614023028562
1.4	-0.00624079749963345	0.0105054650849575	-0.00122040456185578	-0.00290998279079348	-0.00122281611154574	-0.00291709804032599	-0.0051744001294658	-0.00275658895806382
1.5	-0.00598329416451719	0.0107575444650386	-0.00161131356684654	-0.00271118728700854	-0.0016093476907247	-0.00271671700762071	-0.00515852313469991	-0.0019686240746029
1.6	-0.00486561296962814	0.0112250986150156	-0.00197197373159391	-0.00245538701582615	-0.0019754353200713	-0.00245626448647576	-0.00505184673915307	-0.000950586570438656
1.7	-0.00388835657497614	0.011536210755863	-0.00229573457525797	-0.00216230973318958	-0.00229777609643644	-0.00217087713856448	-0.00492993316664422	0.000287725864304936
1.8	-0.00291237591681405	0.0119024109003656	-0.0025718427067133	-0.00181424817983431	-0.00257700472507524	-0.00181969726416562	-0.00447532307000845	0.00152740243533242
1.9	-0.00205793141036791	0.0119913964452661	-0.00279666175318809	-0.00144593744506482	-0.00279316205792633	-0.00143976279747926	-0.00380378916639361	0.00258026007406177
2	-0.00149641840757627	0.0124542494606499	-0.00297042834674185	-0.00103612454688238	-0.00297316552500465	-0.00102930248971609	-0.00304235630242949	0.0039013663843704
2.1	-0.000181760763807861	0.012722738511548	-0.00308616134667454	-0.000606502035507686	-0.0030882498082258	-0.000613182183738609	-0.00123130276625234	0.00465979555330911
2.2	0.000816733373449235	0.0125514509150346	-0.00314021447241832	-0.000176975325587803	-0.00314203452776863	-0.000167277211912807	0.00052197342962268	0.00460888693425637
2.3	0.00159585926718711	0.0122391752126677	-0.00313242777667759	0.000263628247518414	-0.00313916185751319	0.000260717266898596	0.00210664194698602	0.00404534449847247
2.4	0.00216059704315897	0.0118221233377426	-0.00307296533055943	0.000696253000323674	-0.00307181998244915	0.000711332741208904	0.00347341150516054	0.00306209974698713
2.5	0.0021895566169491	0.0117208552835	-0.00294023083731	0.00112642236490393	-0.0029532067485721	0.0011276919927805	0.00429092361422384	0.00203257629431089
2.6	0.00295031515974322	0.0121032500435757	-0.00275176222030989	0.00152186303768236	-0.00277264931218074	0.00152573052398156	0.00562946716741795	0.000940732389931529
2.7	0.00395765149674706	0.0120433993135585	-0.00252099632901781	0.00189029809706281	-0.0025212842705788	0.00189537358651573	0.00661552003591808	-0.000944299855557953
2.8	0.00499798761159143	0.0117324207930326	-0.00222786055560374	0.00221492990803937	-0.00223769969814638	0.00222608412172858	0.00699806636583762	-0.00308399156472994
2.9	0.00592261791243971	0.0112037142175623	-0.00189385366105568	0.00250832550677186	-0.00189194913516433	0.00251722577043945	0.00682151979291848	-0.00517910243037316
3	0.00669062899537171	0.0109223432881518	-0.00152414358340861	0.00275338213709794	-0.00153918297047126	0.00274032685601826	0.00624348132652589	-0.00677312614296539
3.1	0.00794714922170457	0.0104217285715293	-0.00112596293317354	0.00293677014227735	-0.00114289670764706	0.00294213446854263	0.00582560932245162	-0.00855346502377529
3.2	0.00880067756553824	0.00958514054630481	-0.000708309903777714	0.00306277838048289	-0.000704070251308342	0.00307358328632438	0.00453293151466288	-0.0103785696716666
3.3	0.00947722307363113	0.00864531331531896	-0.000280068344744997	0.00313603335864709	-0.000276761938036977	0.00313166483713327	0.00288948326105568	-0.0119795176045998
3.4	0.00985983519592587	0.00760318795062886	0.000165488061149413	0.00314626501520234	0.000156062188830299	0.00314732275318463	0.000805830344377052	-0.0134585655422806
3.5	0.00988232781603699	0.00698107271805597	0.000599483024085123	0.00308987828380195	0.000604489743344195	0.00308855932090826	-0.00183225376720665	-0.0142648364097597
3.6	0.0104232794752345	0.00633673444291526	0.0010179472916098	0.00297157588456597	0.00102453188281006	0.00297508185751308	-0.00415818035936975	-0.0147343236452631
3.7	0.0106435113553026	0.00547561120287697	0.0014347274486757	0.00279763035229574	0.00143293967211467	0.00281398794549674	-0.00694680670920695	-0.0148876485193961
3.8	0.0107677924092286	0.0047394637028535	0.00180387194979382	0.00257277776273947	0.00181445262525693	0.00257915581080333	-0.00990409529929849	-0.0143830990321074
3.9	0.0108316109788278	0.00408749382789754	0.00215205546375655	0.00229567144992086	0.00214745911097922	0.00229556340866601	-0.0128631636903926	-0.0131335447351123
4	0.0109444226325647	0.00392710555408359	0.00244282029227786	0.00197870585749259	0.00245423710015317	0.00198488119819835	-0.0153135871450859	-0.0107733234330055
4.1	0.0118650082201989	0.00335602451012307	0.00269746844885055	0.0016149291816978	0.00271400565447319	0.00162476635748881	-0.0165183059080081	-0.00846993443736405
4.2	0.0123782675103454	0.00225505275534968	0.00290175056265227	0.00121876358507394	0.0029029770120051	0.0012210548778201	-0.0177507310542082	-0.00630142112380942
4.3	0.0125815657160532	0.00113095515548855	0.00304658702816869	0.000811156994019206	0.00304774563216582	0.000819750974902537	-0.0187333292740492	-0.00396025685243256
4.4	0.0124177780164665	-7.41786331140241E-05	0.00312758991252263	0.000376687977404836	0.00313553380405543	0.00037207590856901	-0.0195286386146446	-0.00140445926688516
4.5	0.0118920789121601	-0.000651889942837533	0.00315548575413659	-6.75714602637955E-05	0.00315228159323655	-6.53177813648572E-05	-0.019908191601828	0.00178219613768033
4.6	0.0119813071325109	-0.00130537245622744	0.00310450826610441	-0.000516558395447626	0.00311752754220394	-0.000504513011312043	-0.0190641414313652	0.00463452698146459
4.7	0.0118362801728537	-0.00212564205611102	0.00300384463120673	-0.000931134333353429	0.0030037789325663	-0.00094058789233915	-0.0181691589821012	0.00698173930496972
4.8	0.0115824615455212	-0.00296544455126786	0.00285666287595897	-0.0013353153177032	0.00284906134348073	-0.0013555634223996	-0.0169329246752527	0.00926678049839576
4.9	0.0113070652549341	-0.00381364660133908	0.00264333269848925	-0.00173530628694656	0.00263721692745088	-0.00172686116594037	-0.0153837825911243	0.0113048149897714
5	0.0109851024088958	-0.004275501214427	0.00236745000283423	-0.00207210675158071	0.00237023751010787	-0.00208456174397959	-0.0132214622637518	0.0135389031587825
5.1	0.0112848417059897	-0.00513584082041619	0.00204466067747781	-0.00239712325332896	0.00205791787653785	-0.00239460334230324	-0.0101309329537501	0.0147641187962227
5.2	0.0111222624363433	-0.00620611399520203	0.00170222875419873	-0.00265635255474991	0.00170274223540798	-0.00266052514794485	-0.00734859121918381	0.0153691364281946
5.3	0.0108757832617889	-0.00717850559266511	0.00131160631090415	-0.00287063286308211	0.00130785533594563	-0.00287322277341597	-0.00443190690642429	0.0156634312729181
5.4	0.0104039437489101	-0.00822105607885188	0.000898196677976322	-0.00303254713323636	0.000897309948904962	-0.00303501648981423	-0.0015152958606082	0.0152259984100873
5.5	0.00970157814504701	-0.00858952411184005	0.000456453626934603	-0.0031265164080998	0.000469069084437222	-0.003126477399956	0.00123147114758526	0.0145719459161466
5.6	0.00955175480150298	-0.00951120508336359	2.30918214974182E-05	-0.00315796079330667	1.97768048997417E-05	-0.00315449834823592	0.00394989142196352	0.0126219608389809
5.7	0.00862073119111818	-0.0104281961361909	-0.00041223383251227	-0.00313387510097389	-0.000415957556114266	-0.0031375844180593	0.00537461367905445	0.0104065328966275
5.8	0.00758683665982861	-0.0110612440061622	-0.00085016812633533	-0.00304434199026022	-0.000849424600332352	-0.00305205415682591	0.00626280230744921	0.0081419886911491
5.9	0.00627537258286388	-0.0115690495012209	-0.00126966216077157	-0.00289062805662505	-0.00126805144415289	-0.00289479316921991	0.00636768534311877	0.00587016066792649
6	0.00462108474123379	-0.0111714933501948	-0.00165843437840835	-0.00268572954186714	-0.00165241680723685	-0.00268908148999471	0.00581016353131794	0.00462993439597101
6.1	0.00428206117355031	-0.0107625573404531	-0.00202067752560887	-0.00243553422935643	-0.00201651100311732	-0.00244031699802063	0.00644618744440905	0.00323420642407745
6.2	0.00381838927276091	-0.0110378280011511	-0.00234375958524016	-0.00211756015453387	-0.0023401621611604	-0.00212626210617007	0.00656482250231705	0.00104472514163416
6.3	0.00329399931531069	-0.0115990177802205	-0.00261285198606783	-0.00177611590068774	-0.00262270832225995	-0.00178391140306323	0.00613997590602117	-0.00148492873526587
6.4	0.00223054400003351	-0.012332933504253	-0.00284094348478658	-0.00138964049530711	-0.00283894280239358	-0.00139546090365115	0.00483975701580993	-0.00396530592011804
6.5	0.00129140509721649	-0.0121967760080508	-0.00300971969200376	-0.000986104257654813	-0.00301012592240774	-0.000984975913105848	0.00342344683864851	-0.00542563485601568
6.6	0.000863082115499425	-0.012621338023171	-0.00311487872406761	-0.000555161856113134	-0.00312560500964911	-0.00055817191502212	0.00196711835795601	-0.00741637993154198
6.7	9.56904976255581E-05	-0.0128200041477919	-0.00315887667834748	-0.00011788389182477	-0.00315782162834381	-0.000111615909198435	-0.000436163596923156	-0.00851915010093961
6.8	-0.000601927832353806	-0.0129911435749556	-0.00314390801536904	0.000332918735524934	-0.00314299149143706	0.000337701486426206	-0.00294345553081923	-0.00889365884649152
6.9	-0.00173930815560443	-0.0132272790691584	-0.00306200831417287	0.000766249864844925	-0.00306242609703904	0.000771261458458131	-0.00569609415747048	-0.00858309026199145
7	-0.00283393419123796	-0.0123035885735992	-0.00292928195155789	0.00119005720347844	-0.00293069520805673	0.00119329495231652	-0.00791654929416114	-0.00671429345844308
7.1	-0.00296094598646588	-0.0121998691363436	-0.00272723243326437	0.0015891320301364	-0.00272963396653012	0.00160020706376934	-0.0089740816349599	-0.00552255145206501
7.2	-0.00378755112062286	-0.0122469997796779	-0.00248467415571508	0.00195179324886067	-0.00248484030166679	0.00195771573175915	-0.0105141171372919	-0.00397278910976045
7.3	-0.00475109671728808	-0.0121774613649395	-0.0021912649994528	0.00227846863622029	-0.00218848539763201	0.00227994011467187	-0.0115654530555539	-0.00199466527727241
7.4	-0.0061510105944343	-0.012268128076477	-0.00184433466470188	0.00256383865786565	-0.00183706007753734	0.00257036003123312	-0.0124430137856214	-8.40891862402928E-05
7.5	-0.00810321990583184	-0.0112206002383682	-0.00146184427848102	0.00279579966539209	-0.00146289542447452	0.00279378322252031	-0.0129466803714218	0.00305651185348687
7.6	-0.00847541379730696	-0.0102461595740198	-0.00106765922824054	0.00297137142006943	-0.00105692999733082	0.00298171410158289	-0.0113619975820856	0.00549585524833418
7.7	-0.00938641789344809	-0.00969413869413168	-0.000635320344959831	0.00309457427550748	-0.000629739424902413	0.0030942017523939	-0.010043426286873	0.00682451452803782
7.8	-0.00993587340874312	-0.00919685302853521	-0.000185813120586932	0.00315338219036911	-0.000199530840728953	0.00314634478248569	-0.00850644503430633	0.0081403581319255
7.9	-0.0106152873369206	-0.0086607930395647	0.000240270809432287	0.00313575541937654	0.000251384545024941	0.0031353941275973	-0.00680359293359533	0.00956262765170432
8	-0.010419076291976	-0.00749405357265905	0.00067412407547379	0.00307774093330524	0.00068242443469069	0.00307562673107309	-0.00408728406311916	0.0110439855461807
8.1	-0.0100399096120983	-0.00767022876757404	0.00110855420687943	0.00295283124525242	0.00110625189253882	0.00294958027271024	-0.0010426702059908	0.0106559584786433
8.2	-0.0104460024214378	-0.00768071004584117	0.00150153077702272	0.00276635783893221	0.00150076884876221	0.00277797332251026	0.00117929534700652	0.0101260386730174
8.3	-0.0109663498724106	-0.00751702681904373	0.00187339476468886	0.00252955064935059	0.00187846454478041	0.00252693349885824	0.00336461385601002	0.00930403057916721
8.4	-0.0118922746258491	-0.00719419080116346	0.00221764397965173	0.0022461484929312	0.00220646981156692	0.00224660552546406	0.00504870331856478	0.00804726760682181
8.5	-0.0126488822234049	-0.0057075732123686	0.00251459867165284	0.00190923906877751	0.00251461503839222	0.00191059226081879	0.00681642220010967	0.0073749531186057
8.6	-0.0123746096779117	-0.00506959400585502	0.0027439888059671	0.0015435531617782	0.00273975889653353	0.00154126831715796	0.009056639528456	0.00490869885877571
8.7	-0.0126777337734486	-0.00457390301667754	0.00292972233467603	0.00114213234850469	0.00292855658017701	0.0011417283253618	0.00976384393082734	0.0020151978809649
8.8	-0.0129558565600162	-0.00401050075813164	0.00305526001606153	0.000722705701309105	0.00306622773294134	0.000720533754980577	0.00965819333103848	-0.000856483232114441
8.9	-0.0134551694581688	-0.00356537720578868	0.00312691104737224	0.000291416787806762	0.00313622292623706	0.000284220383476339	0.00873831989045898	-0.00345440458193516
9	-0.0138617257309482	-0.00224283737236285	0.00313517031445179	-0.000160453249440194	0.00314198232964963	-0.000154900724904109	0.00769172918687279	-0.00480360195086476
9.1	-0.0132686380043209	-0.00161010742861112	0.00308140103534276	-0.000590278924354895	0.00308161719641795	-0.000590472438281818	0.0072511627180505	-0.00683956732257166
9.2	-0.0130043270833098	-0.00113262950256245	0.00296366477112446	-0.00100888892543331	0.00296747945574864	-0.00100868868834073	0.00602300143937761	-0.0087617948479851
9.3	-0.0125442330296584	-0.000828740061051982	0.0027889270075774	-0.00141617500555668	0.00280693688226013	-0.0014167187326727	0.00463908147001778	-0.0105709457487472
9.4	-0.0124766264308553	-0.000947985958366852	0.00256734155290619	-0.0017872883363999	0.00257058349107653	-0.0017983108387028	0.00247931495537039	-0.0124757654868899
9.5	-0.0124058911106062	-0.000140460027839318	0.00229118254124287	-0.00213667285491208	0.00230591782029053	-0.00213742249401234	7.82983543655674E-05	-0.0131386692862844
9.6	-0.012178654425857	-0.000380185541755141	0.00197419294479906	-0.00243351878050152	0.00197454854714138	-0.00242653147160199	-0.00280548636766505	-0.0146038093217572
9.7	-0.0126552512312861	-0.000199818174935963	0.00161221394910763	-0.00268456523686675	0.00162047113929318	-0.00268618782626725	-0.00686458348375481	-0.0147439876573023
9.8	-0.0130938033894286	0.000200869474726509	0.00122795289150801	-0.00287650521397537	0.00122609278825506	-0.00288510779717034	-0.0108961873858372	-0.0137040398366578
9.9	-0.0138287323334997	0.000831954118383762	0.000819185335658965	-0.00301656458521874	0.000807355692400708	-0.00301911643285268	-0.0151087885238828	-0.0114639482454205
10	-0.0141950615497829	0.00252237633702143	0.0003916549197672	-0.00309215004707289	0.000390823426256164	-0.00309942829067997	-0.0181042152226776	-0.00735136258449364
10.1	-0.0135057839690222	0.003258280487844	-4.11678712255332E-05	-0.00312854983091672	-4.57990789300332E-05	-0.00313129103463066	-0.0195321211281964	-0.00403858850186428
10.2	-0.0132821040953291	0.00379944441576378	-0.000478613283112117	-0.00308580257638628	-0.000491162303012995	-0.0030895033024117	-0.020957002530251	-0.00042372520873063
10.3	-0.0130895303297477	0.0042628461051638	-0.000906198247267984	-0.0029813608886677	-0.000906019318629513	-0.00299467471101797	-0.0216885366870377	0.00356340650686135
10.4	-0.0133243015903301	0.0047671322446721	-0.00130956536430783	-0.00283438995988797	-0.00131271317920719	-0.0028322667588806	-0.0218958486937433	0.0077885463854049
10.5	-0.0131520159265168	0.00648835957690333	-0.0016923506574396	-0.00261890072940322	-0.00169850741858395	-0.00262611088566172	-0.020564313879136	0.0131603784560028
10.6	-0.0118757636766743	0.00734519565861445	-0.00204916438729942	-0.00235972371914434	-0.00205067060055567	-0.00236480414135779	-0.0174568682334093	0.0170206233287929
10.7	-0.0106305072926087	0.00787511061012342	-0.00235124044395195	-0.00204792498355081	-0.00235446883284989	-0.00206385312355771	-0.0138755407414102	0.0202420607701767
10.8	-0.00950682695308879	0.00775812358339748	-0.00261425967702117	-0.00170308103957324	-0.00261134343046356	-0.00170523951011242	-0.0099569174230714	0.0223526891884265
10.9	-0.0092191773606123	0.0075552382563792	-0.00283027895978562	-0.00132861470016285	-0.00282957106008503	-0.00133371292495323	-0.00646677917221859	0.0240545601609716
11	-0.00854740995475898	0.00854401180024766	-0.0029912055503393	-0.000911894945945921	-0.00298423653707903	-0.000916177715420802	-0.00187196492910448	0.0263106674925908
11.1	-0.00715313395959039	0.00827862909636145	-0.00308145785073293	-0.000499814069211533	-0.0030737566042635	-0.000491585645553576	0.00359200934853049	0.0261829250434279
11.2	-0.00638212882901657	0.00790632016608213	-0.00312112647957314	-6.34462569816291E-05	-0.00312767781399493	-6.02531841511034E-05	0.00840742896718642	0.0253520148315813
11.3	-0.00562294239119604	0.00733319475239035	-0.00309886854224504	0.000373640114592753	-0.00310201388399611	0.000371491136139211	0.0132854952901265	0.0237848599685775
11.4	-0.00548951825200976	0.00663622976172814	-0.00301188308901055	0.000802180748111753	-0.00301648227082667	0.000802336513067819	0.0175241050590748	0.0212359209645512
11.5	-0.00513392390317064	0.00688371075986594	-0.00287686829349652	0.00120389813094176	-0.00286941284613209	0.00120861506393786	0.0218027922314625	0.0186123429757043
11.6	-0.00437020954591737	0.0058502882566861	-0.00267984207947271	0.00159224002010361	-0.00268791345545403	0.0016018602236395	0.0258187492529583	0.013563014196198
11.7	-0.00456231053203808	0.00494758893274412	-0.00242971432922565	0.00195733366698171	-0.00243145837696764	0.0019609971956247	0.0279475629416187	0.0081101979116798
11.8	-0.00499023938145421	0.00446956943175005	-0.00213358448031512	0.00227921820163912	-0.00214274422544521	0.00228893409140601	0.0289670787665194	0.00276727338079519
11.9	-0.0055378134853726	0.00457112563259116	-0.00179688866502687	0.00254744502502061	-0.00179693537377366	0.00255395531151737	0.0289219556187233	-0.00177557965969898
12	-0.00501560293802233	0.00585159265170751	-0.0014268224055395	0.00277014616931659	-0.0014312956492277	0.00277289458504132	0.0296066734003618	-0.00541478422409782
