# GHZ S RI R 50
0.2	-0.0138493736008978	0.00546544111715191	0.00304307948743295	-0.000885507513992006	0.0030535348576611	-0.000885357407256983	0.00602919132600383	0.00105487670584389
0.3	-0.0131119949557277	0.00582183928170185	0.0028965580339173	-0.00130135908362288	0.00289027309904994	-0.00131299358849594	0.00625487489860149	-0.00134916096374634
0.4	-0.0123941090178565	0.0063793852198227	0.0026819069457288	-0.00169517786622673	0.00267980245098021	-0.00169708800091816	0.00576259185353805	-0.00333949401184952
0.5	-0.0120307461137351	0.0070709659856634	0.00241205216087294	-0.0020510012890306	0.0024148630624037	-0.00205472426968317	0.00444685416336639	-0.00486483558364182
0.6	-0.0111529459532382	0.00815760409955604	0.0021001171426786	-0.00237079531267868	0.00209937415796752	-0.00237363520402051	0.0033570936721372	-0.00564788114335369
0.7	-0.010292521400684	0.00877979846804377	0.00174957055258827	-0.00264049032965118	0.00175577059038812	-0.00264458076475555	0.00206270673614541	-0.00649331356401794
0.8	-0.00944419918649627	0.00938650946279119	0.00135633507829082	-0.00285978068030145	0.0013645994805011	-0.00285818682525041	0.000514095783694414	-0.00690782856126593
0.9	-0.00859697769881814	0.0098838371156663	0.0009526171009761	-0.00301108869463188	0.000952598349389287	-0.0030204936019314	-0.000949042181043334	-0.00703485613181066
1	-0.00806937167033969	0.0100486496929517	0.000520914427229962	-0.00311963782335538	0.000520767376200314	-0.00312498941961632	-0.00281400838495509	-0.00716737259988714
1.1	-0.00768519788370289	0.010882878823419	7.32790480804677E-05	-0.00315958372068138	7.41660229159054E-05	-0.00316430566754602	-0.00482114633554841	-0.00589940317657861
1.2	-0.00686473223544978	0.0110688901925442	-0.000364896724733311	-0.00313203833704766	-0.00036367115633375	-0.00314881435312748	-0.00566509402782349	-0.00450693067512787
1.3	-0.00655484932855419	0.0107503018237949	-0.000795114792987197	-0.0030578550469722	-0.000800045825873172	-0.00306550268016529	-0.00588812649468032	-0.00317568653680958
1.4	-0.00639140038803808	0.0104276410816231	-0.00122035414660355	-0.00291340115736988	-0.00122276500463422	-0.0029205245169324	-0.00563503098771681	-0.00220226548085904
1.5	-0.00612056530239941	0.0106163792519603	-0.00161251909527863	-0.00271535232378786	-0.00161054868953964	-0.00272088872149631	-0.00562531481558625	-0.00126681242015683
1.6	-0.00493377623203975	0.0111850199283195	-0.00197432817667873	-0.00245850480297185	-0.00197779402518051	-0.00245938348988087	-0.00521854471867096	0.000187258169799143
1.7	-0.00381212724200073	0.0113171518818973	-0.0022983051032493	-0.00216501189458981	-0.00230034847928367	-0.00217358954874685	-0.00462306942771243	0.00125378915367885
1.8	-0.00279858838127444	0.0115355062763403	-0.00257494037168068	-0.00181678920584361	-0.00258010844043419	-0.00182224568538795	-0.00394448236407541	0.00218977708118059
1.9	-0.00182284030047062	0.0114734576214165	-0.00280081861455135	-0.00144814537382557	-0.0027973137898058	-0.00144196143752629	-0.00311992514608725	0.00283426380496204
2	-0.00138520112299179	0.0114757926438097	-0.00297531721328683	-0.00103639382484279	-0.00297805554465746	-0.00102956038547162	-0.00280872513331331	0.00351741902220631
2.1	-0.000398443867961246	0.0118794375648226	-0.00309019932020899	-0.000606250836161534	-0.00309229255784545	-0.000612938616168057	-0.00153509884285542	0.00472718572965558
2.2	0.000587996844251302	0.0117858741645278	-0.00314461788894776	-0.00017623061026569	-0.00314643740747184	-0.000166518495861502	0.000352730888543837	0.00498647724719898
2.3	0.00135847412948251	0.0115637064322969	-0.00313696005686826	0.000265494013806963	-0.00314370551751319	0.000262581874602583	0.00218434910180033	0.00455724019000428
2.4	0.00210420354045844	0.0112673520430975	-0.00307690041910451	0.000699591825447051	-0.00307574198497922	0.000714692597230992	0.0040091080361881	0.0034710307446484
2.5	0.00233974285960184	0.010778010874316	-0.00294244811592876	0.00112966446202697	-0.0029554364391109	0.00113094460046604	0.00490206704024809	0.00154496797186907
2.6	0.00276065329416308	0.0110685174427555	-0.00275474148826685	0.00152521040327174	-0.00277565482851152	0.00152909296796563	0.00542124604053941	0.000317673386772585
2.7	0.00358277369033061	0.0110921601319198	-0.00252333453703327	0.00189497249594821	-0.0025236191411583	0.00190005572910246	0.00596476964888001	-0.00128602854028596
2.8	0.00456951892215871	0.0110134561769151	-0.00222885215294318	0.00222019672394417	-0.00223869434873083	0.00223137612703909	0.00620205387922295	-0.00295933116114221
2.9	0.00572513729848259	0.010606797941395	-0.00189347052511882	0.00251315319844873	-0.00189155470094445	0.00252206177069921	0.00624967882696739	-0.00481056012697997
3	0.0065151923729441	0.0100547959629859	-0.00152441128768738	0.00275797072750101	-0.00153947872643805	0.00274490775527695	0.00544579493489419	-0.00657517297740071
3.1	0.0077145016985772	0.00973017440499308	-0.00112450019914182	0.00294289325966929	-0.00114145586809195	0.0029482855991525	0.00488130565035868	-0.00768069636760423
3.2	0.00871527137662242	0.008878915493754	-0.000705104866904096	0.00306810029529198	-0.000700844341265686	0.00307891471206665	0.00397421488709431	-0.00916378860566759
3.3	0.00947315502186433	0.00792709268557122	-0.000276082070476226	0.00314036093947516	-0.000272777552640842	0.00313598235545379	0.00272389744031208	-0.0106262911432915
3.4	0.0100817186226214	0.00686722397402452	0.000169525565104676	0.00315018995604801	0.000160088616460792	0.00315126052688329	0.00115049154644168	-0.0122064587739065
3.5	0.0101185353528758	0.00584621581603219	0.000605568336505076	0.00309471983037709	0.000610582342941701	0.00309339035421136	-0.00158511414580698	-0.0135863685805119
3.6	0.0105506055954221	0.00538896763932718	0.00102586128596968	0.00297338320543646	0.00103246254053456	0.00297687948266192	-0.00403983060534868	-0.0135150533398273
3.7	0.0110118914061542	0.00449067809770671	0.0014422896798915	0.00279765889634088	0.00144053486753374	0.00281403839420104	-0.00617980737233189	-0.013559079749921
3.8	0.0113304852692616	0.00358283235801582	0.00181143899178573	0.00257169966110384	0.00182204515577631	0.00257806178763719	-0.00852679876069522	-0.0134357608908673
3.9	0.0116178545925397	0.00257254973591803	0.00216041566537923	0.00229326719080651	0.00215581325699018	0.0022931703245751	-0.0110864762443089	-0.0130901916876486
4	0.0113674274085913	0.00165228432905047	0.0024510514041454	0.00197204401505731	0.00246249655845708	0.00197818606788481	-0.0144102705874218	-0.0120023302200885
4.1	0.0116737348973868	0.00132528306943712	0.00270197637053422	0.00160728979503114	0.00271854103380548	0.0016170801376337	-0.0167345867616356	-0.00917243024723615
4.2	0.0120914857678227	0.000427101035714255	0.00290501803799354	0.00121100771587412	0.00290625061794417	0.00121329573570377	-0.0180871264006206	-0.00650756969824764
4.3	0.01227388040052	-0.00054487625152183	0.00304863119388595	0.000802537910274466	0.00304981384625474	0.000811127976744057	-0.0189861340701915	-0.00392174233641468
4.4	0.0123098558932166	-0.00167709564463623	0.00312736731490539	0.000366724261003819	0.00313529320088699	0.000362089381756648	-0.0195010306028106	-0.00146784389126425
4.5	0.0116745369192324	-0.00272423366460254	0.00315086732919254	-7.57596621206317E-05	0.00314767359388582	-7.3500744008422E-05	-0.0204458516231365	0.000943787094087756
4.6	0.0113838871828515	-0.00305960425301606	0.00310072461582924	-0.000522345064476827	0.00311375660519951	-0.000510336512813057	-0.020540608683982	0.00459162824767469
4.7	0.0112659190569267	-0.00368812838800997	0.00299949112432068	-0.000937163388271077	0.00299940428952709	-0.000946609666074306	-0.0196170949296703	0.00768266450792127
4.8	0.0110463033563165	-0.00430840436461631	0.00285066701129275	-0.00134087275422213	0.00284302426863196	-0.00136108283508675	-0.0181050685220822	0.0105558345341249
4.9	0.0110637177155275	-0.00497670027229825	0.00263554667992126	-0.00173865598778328	0.00262945883295285	-0.00173020966036323	-0.0159448759285785	0.0128368802622245
5	0.0107532270037613	-0.00573725303743615	0.00236189769905138	-0.00207315656049352	0.00236466451350875	-0.00208560169004975	-0.0139149261675831	0.0147305401557253
5.1	0.0111381440436285	-0.00624012997987659	0.00203807299100498	-0.00239979914992652	0.00205132616553655	-0.00239730942610883	-0.0105770067742333	0.0168762550993524
5.2	0.0113507572444231	-0.00748803699525693	0.00169398061659054	-0.00265716206739452	0.00169448372223138	-0.00266133087774503	-0.00679028199483422	0.0173777718945833
5.3	0.0111570701898703	-0.00877035618624354	0.00130346369973484	-0.00286907103016688	0.00129971288994557	-0.00287164896713744	-0.00340384091297923	0.0169878855247358
5.4	0.0107052738648299	-0.0100140928136251	0.000891762909375062	-0.00302967585343369	0.000890873284701999	-0.00303214013306091	-0.000467610649554477	0.0157566862538483
5.5	0.00949283730808061	-0.0107906942248703	0.000449013394298111	-0.00312538219956493	0.000461620168259258	-0.00312537195903785	0.00100478034740489	0.0144431081966191
5.6	0.00930290714402049	-0.0109024187939418	1.39403277755484E-05	-0.00315255615446101	1.06410446283252E-05	-0.00314909014355005	0.00341451312062739	0.0140955893855089
5.7	0.00897937452274539	-0.0117878210381125	-0.000419143531202486	-0.00312581010160783	-0.000422868170048942	-0.00312950178297616	0.00598062173412734	0.012336577720576
5.8	0.00838836571906955	-0.0126633494523834	-0.000854846302500528	-0.00303527303157832	-0.000854121480588386	-0.00304296858982874	0.0079960144418548	0.00971830049778595
5.9	0.00768517912375654	-0.0136607274488046	-0.00127340793541671	-0.00288142545092505	-0.00127181015566816	-0.0028855850728593	0.00929737732614408	0.00619088845632948
6	0.00589129150396127	-0.0149291450701985	-0.00166122379426739	-0.00267236807815799	-0.00165523507739457	-0.00267572741752183	0.00808202016090312	0.00194214510013869
6.1	0.004173229236455	-0.0147768717951964	-0.00201698596056072	-0.00242251478220374	-0.00201284400329823	-0.00242728604962739	0.00606542659668932	0.000227626819992693
6.2	0.00275130217319901	-0.0147553376043019	-0.00233780448416416	-0.00210717202191293	-0.00233423026058795	-0.00211584684635505	0.00457416305843491	-0.00118527462846943
6.3	0.00169879418506951	-0.0143949562235291	-0.00260581590941092	-0.00176719237774692	-0.00261564689104678	-0.00177495046098833	0.00340057369067531	-0.00221575746190159
6.4	0.00112696066839584	-0.0143885114664824	-0.0028322841391684	-0.00138066417564233	-0.00283029870982425	-0.00138646570349869	0.00265282417700081	-0.00366605881463416
6.5	0.000201764755299298	-0.0144195674825554	-0.0029958200674032	-0.000980353156974998	-0.00299622396862815	-0.00097923001024966	0.000764511447647029	-0.00490814293542141
6.6	0.000202065587569061	-0.014366168870096	-0.00310314877520628	-0.000554464060078295	-0.00311383419189243	-0.000557467664869299	5.39339509428887E-05	-0.00528258832213111
6.7	-0.000377565707340798	-0.0148868651754737	-0.00314800170817279	-0.000117843102178118	-0.00314695100905139	-0.000111596549346474	-0.0013172032667797	-0.00639117106980062
6.8	-0.00117105939685134	-0.014948670957084	-0.0031321774619599	0.000331627048052576	-0.00313126443358311	0.000336391959971031	-0.00329345573997696	-0.00680301846705429
6.9	-0.00182116717557447	-0.015070121480935	-0.00304897787794884	0.000761312067167935	-0.00304939641186619	0.000766301472139846	-0.00525320495784203	-0.00693247573476143
7	-0.00328934908770304	-0.0149229854216154	-0.00292098799926749	0.00118021688561462	-0.00292240230445357	0.00118344029334621	-0.00864751737976125	-0.00623300448191676
7.1	-0.00356495572443637	-0.013903994320018	-0.00272093811030979	0.00158157980845812	-0.00272334438940504	0.00159261986569795	-0.0101376226640637	-0.00303334508273161
7.2	-0.00384651844937821	-0.0138627665337997	-0.00247833536090104	0.00194265814103352	-0.00247850707374884	0.0019485605308817	-0.0103039374854604	-0.000705644265486336
7.3	-0.00449188080639707	-0.0137726676216863	-0.00218696219034162	0.00226708366430145	-0.00218419465641444	0.00226855414693066	-0.00987303031554746	0.00134123131391036
7.4	-0.00510126692865662	-0.0138319526300373	-0.00184454492816799	0.00255168176989072	-0.00183730780021593	0.00255819976441579	-0.00872771589264113	0.0024048931221843
7.5	-0.00675654973293831	-0.014221849344102	-0.0014633109479655	0.00278870973760746	-0.00146435729670671	0.00278669534856757	-0.00891939071785491	0.00222080309559759
7.6	-0.00792765982395857	-0.0131868524690001	-0.00106699108564975	0.0029615785889259	-0.00105630272744694	0.00297189945741269	-0.00887075509923562	0.00410199714323958
7.7	-0.00894517710882804	-0.0127839184356957	-0.00063791243483056	0.00308324098585498	-0.000632349638078909	0.00308287822247687	-0.00824934697762509	0.0049667953529058
7.8	-0.00971792788480917	-0.0122841379429687	-0.000191642621225895	0.00314304181271525	-0.000205302684052487	0.00313599872470785	-0.00755192970954895	0.00601431037917173
7.9	-0.0101533860712052	-0.0119558555375985	0.000233397310057441	0.00312819393100673	0.000244483267888057	0.00312785574304462	-0.00670041350517787	0.00696375618814028
8	-0.0112387018067924	-0.0113250894283712	0.000668255674283147	0.00306747787790505	0.000676528687483112	0.00306538056254788	-0.00669071593110054	0.0085911655432213
8.1	-0.0107751236839222	-0.0105149907297579	0.00109549355352493	0.00294380843102233	0.00109321009038542	0.0029405642860947	-0.0039739227313622	0.0110865963862366
8.2	-0.0109647454467097	-0.0105111593401402	0.00148672784846338	0.00276263061414612	0.00148592697346246	0.00277420523098922	-0.000815934373409409	0.0115795589696185
8.3	-0.0114967444793538	-0.0102103413791563	0.00185951308308026	0.00252958538618822	0.00186457889389495	0.00252699308206173	0.00211177212029363	0.0112217359532596
8.4	-0.0119638068816398	-0.00978819224458035	0.00220497012592883	0.00224678773895379	0.00219382449903274	0.00224721003050181	0.00479043691304127	0.0097363603827782
8.5	-0.0132031807604369	-0.00911010847479081	0.00249717019476545	0.00191285155308165	0.00249718075070634	0.00191419980168839	0.00533909839626875	0.00793485418516727
8.6	-0.0131668226030198	-0.00740469370115758	0.00273056034525322	0.001554226778222	0.00272635065882094	0.00155192528566177	0.00710415651697417	0.00784481762553474
8.7	-0.0129114472319418	-0.00672055427427056	0.00292015902442839	0.00115376032403419	0.00291899684573269	0.00115335159889424	0.00936626852597256	0.00598953590681621
8.8	-0.0128000956359401	-0.00611482485392962	0.0030474616057623	0.000734780161095112	0.00305842189175357	0.000732658860989533	0.0110111795420535	0.00322213157663934
8.9	-0.0125087540877667	-0.00581219898546215	0.00311922097889044	0.000305840243121751	0.00312854866679936	0.000298703016350932	0.0121254793906981	-0.000475157105744025
9	-0.012976327861105	-0.00581742476121662	0.00313435568493473	-0.000140976304252773	0.0031411294436019	-0.000135384861233045	0.0108561367509171	-0.00467873783570099
9.1	-0.0127979020174584	-0.00518283097465506	0.00308505484784875	-0.000575781692771685	0.00308527198885821	-0.000575974231228094	0.00939997285062391	-0.00707008359666698
9.2	-0.0128603642339171	-0.0051999068612276	0.00296767027750166	-0.000995077318559551	0.00297148324045778	-0.000994859619164115	0.0075062434444771	-0.00980771897837962
9.3	-0.013176131683549	-0.00488336978958933	0.00279534050134892	-0.00140146708548658	0.00281334774471758	-0.001401918420855	0.00482368350230892	-0.0118482855507826
9.4	-0.0133110828222316	-0.00454363987551825	0.00257963864065332	-0.00177258043634014	0.00258294961907567	-0.00178358909891011	0.00177947844318435	-0.013469553538596
9.5	-0.0139480150158887	-0.003680383369193	0.00230690848949054	-0.00213059992561888	0.00232168201126514	-0.00213127998995042	-0.00271200809623529	-0.0137780602848267
9.6	-0.0132740836239449	-0.00259924818834716	0.00198662156458111	-0.0024281558574474	0.00198694852786401	-0.00242115889722169	-0.00543420428962752	-0.0121854422641853
9.7	-0.0129470816956287	-0.00238773675928777	0.00162715245114216	-0.00268018703583348	0.00163542782829956	-0.00268177195374187	-0.00778015104819562	-0.0113449948533798
9.8	-0.0128929659280154	-0.00205306362942079	0.00124508016231578	-0.00287606024581686	0.00124326010965109	-0.00288468967173131	-0.0102174502995348	-0.0102451142332553
9.9	-0.0127851477916812	-0.00175201478663693	0.000835286015049012	-0.00302264728669274	0.000823429570311267	-0.00302526014207677	-0.0126847182058417	-0.00920622177928491
10	-0.013556583117131	-0.00145414127934086	0.000401270390520318	-0.00309781209802225	0.000400457690205787	-0.00310510863458542	-0.0167290309448339	-0.00754356805979369
10.1	-0.0133235728791873	-0.000245198244105166	-2.79137019166554E-05	-0.00313469569468623	-3.25420656982619E-05	-0.00313746186618572	-0.0191580275622987	-0.00321588993921628
10.2	-0.0130946428467083	0.000228761327380706	-0.000467055521728753	-0.00309692827513787	-0.000479626048686263	-0.00310069268164241	-0.0201662368218944	0.000611108713876892
10.3	-0.0129196104384684	0.000907093355530946	-0.000899235370325131	-0.00299473192817658	-0.000899010744856473	-0.00300809115369402	-0.020349844939682	0.00451504029030304
10.4	-0.0123788603765101	0.00132463262252661	-0.00130703198717124	-0.0028452181954555	-0.00131019329342579	-0.00284309592976864	-0.019536360972188	0.00756613892876759
10.5	-0.0125831154664826	0.00167693522665178	-0.00168452323059605	-0.00262817380635158	-0.00169066014212685	-0.00263541506639186	-0.0200051262508612	0.0105230488054643
10.6	-0.0119508007032006	0.00251080192113124	-0.0020444068020231	-0.00237619196349302	-0.00204589411184839	-0.00238129446216844	-0.0188489853299237	0.015121319623464
10.7	-0.0116297622616937	0.00299473582549306	-0.00235174220338824	-0.0020647984595951	-0.00235491914333843	-0.00208079797728717	-0.0167080119715721	0.0191873582492525
10.8	-0.0110376289522041	0.00385466658621707	-0.00261801812497426	-0.00171855985079006	-0.00261508348369986	-0.00172071614050563	-0.0134175476503667	0.0232252443938822
10.9	-0.0100116462047052	0.00433632950714493	-0.00283421271034501	-0.00134391899167045	-0.00283348266700106	-0.00134903086949447	-0.00894018747913136	0.0259094694614948
11	-0.00966301823547955	0.00469829131952572	-0.00300226720012624	-0.000932123263628667	-0.00299523937869573	-0.000936392671343589	-0.00545820837786975	0.0279660826639855
11.1	-0.00809201728235363	0.00545610715298579	-0.00309916353131048	-0.000512049113069152	-0.00309143869777657	-0.000503746657720243	0.000338992046849172	0.030757390998996
11.2	-0.00677061023654228	0.005031552032154	-0.00313869726421222	-7.1001146850254E-05	-0.00314529314780764	-6.78050505506108E-05	0.00714292458376455	0.0310097369965583
11.3	-0.0058005430715479	0.00449068994787159	-0.00311688289073758	0.000368232562060326	-0.00312004042176703	0.000366064132813018	0.0140022986296605	0.0295379473706169
11.4	-0.00504349735653219	0.00372326906656103	-0.00303359843509911	0.000798366560248167	-0.00303822759510219	0.000798509639585812	0.0203446001105927	0.0260246731940554
11.5	-0.00529211473844446	0.00315072121073107	-0.00290131626817964	0.0012115570527401	-0.00289380342563721	0.00121631824106696	0.0240233687581877	0.0214469081393761
11.6	-0.00440991096589658	0.0031743662599657	-0.00269631077301448	0.00160326726169754	-0.00270443009782042	0.00161295130898244	0.0284329599787552	0.0176101109738667
11.7	-0.00375704780299361	0.00227969997163673	-0.00244476603348068	0.00196911889764557	-0.00244652107708809	0.0019728047226865	0.0324989323862151	0.0115475945195961
11.8	-0.0033672310116679	0.00144319049995189	-0.00214811034177025	0.00229433647301235	-0.00215733244220464	0.00230411680370294	0.0350636773148245	0.00428715552553195
11.9	-0.00279908909862193	0.000160255423381028	-0.00180824290274133	0.00256956426445425	-0.00180828273080247	0.00257612601798641	0.0357168085441445	-0.00415689121143412
12	-0.00410484279727928	-0.000560150882837028	-0.00142608094504587	0.00279169319587465	-0.00143057191606156	0.00279447331784372	0.0318458523975598	-0.0111621341026161
