# GHZ S RI R 50
0.2	-0.0137759815483805	0.00525928622720258	0.00304430807524383	-0.000885412357396537	0.00305476722881317	-0.000885260762202687	0.00600230458386611	0.000748058411009767
0.3	-0.0129814021471263	0.00570698652166013	0.00289799342004311	-0.00130143693486914	0.00289170772568182	-0.00131307737750701	0.00630167060890488	-0.0015652260331096
0.4	-0.0123037495256113	0.00633114845937981	0.00268362117169536	-0.001695560856662	0.00268151593656326	-0.00169747237971727	0.00582412877353976	-0.00347710603743849
0.5	-0.0118215969493786	0.00708474498869514	0.00241380561829752	-0.00205222367588183	0.0024166186493605	-0.00205594897671279	0.00481671853773407	-0.00499668128888212
0.6	-0.0110938065081118	0.00800481509679971	0.00210125046797975	-0.0023722406599312	0.00210050695449653	-0.0023750821693854	0.00364615092487786	-0.00623456429299052
0.7	-0.0104070199417822	0.00876458271136866	0.00175058657699021	-0.00264207315439233	0.00175679026069432	-0.00264616607155493	0.0020549994961245	-0.00715549011646117
0.8	-0.00960493971564816	0.00950813307871997	0.00135711677832372	-0.00286172631764464	0.00136538670949343	-0.00286013174149343	0.000269201266139374	-0.00754587140769211
0.9	-0.00881463606526961	0.0101164175783869	0.000952832405123875	-0.00301343664137357	0.000952812142091557	-0.00302284840548587	-0.00150982899984374	-0.00750938252149455
1	-0.00817367196857452	0.0105264982722069	0.000520183841639968	-0.00312158501979216	0.000520034944950044	-0.00312693961376156	-0.00331015283739675	-0.0070226234377962
1.1	-0.00766783341709892	0.0110658936812727	7.2803987655411E-05	-0.00316123395548085	7.3690655638104E-05	-0.00316595849483327	-0.00484335297962969	-0.00593368616910719
1.2	-0.00711960041964297	0.0111686387550487	-0.000365743230037089	-0.00313392192842646	-0.000364520210108308	-0.00315070866165527	-0.00571989197483809	-0.00472079379903086
1.3	-0.00692454042249354	0.0109008028121027	-0.000796561060386329	-0.00305956722786117	-0.000801497592556384	-0.00306721824089807	-0.00585786877964886	-0.0035541606711564
1.4	-0.00677208360931731	0.0106246584947406	-0.00122221565564598	-0.00291445398150254	-0.00122463075854436	-0.00292158015289799	-0.00561628438692223	-0.00283574348787755
1.5	-0.00632379922799378	0.0108802081169426	-0.00161373526124601	-0.0027160436862782	-0.00161176531150159	-0.00272158264689661	-0.0053985885437476	-0.00212208545940661
1.6	-0.00528483988125459	0.0114818676112018	-0.00197615163126474	-0.00245976915244484	-0.00197961999394526	-0.00246064773965053	-0.00544371520337498	-0.00106097767867325
1.7	-0.00409965134079157	0.0118948853469033	-0.00230077976253047	-0.00216561073645439	-0.00230282799556248	-0.00217419358355974	-0.00521454931409806	0.000277062944421514
1.8	-0.00295818425545258	0.0122448075995237	-0.00257743685986295	-0.00181659518056512	-0.00258261085697971	-0.00182205237808274	-0.00465288106431379	0.00154516301463446
1.9	-0.00190903446362813	0.0123075907749712	-0.00280286648867158	-0.00144755723275562	-0.0027993570728423	-0.00144137188474194	-0.00379558045255436	0.00264853184291459
2	-0.00116488152897116	0.0123899861551493	-0.00297785263689825	-0.00103613972753377	-0.00298059064733744	-0.00102930034298628	-0.00275727312538954	0.00364082087520946
2.1	-0.000216467568626819	0.0125432852854591	-0.00309300641632306	-0.000604424603653833	-0.0030951062047885	-0.000611115936509394	-0.00125118283823873	0.00419357888310862
2.2	0.000703771752770087	0.0125117918093748	-0.00314651887494179	-0.000173743792512976	-0.00314833142512472	-0.000164024758547222	0.000381876308546567	0.00421286035910381
2.3	0.00150178659901316	0.0122985617009172	-0.00313823525484217	0.000268121106452832	-0.00314498623477301	0.000265212965402732	0.0019103052670077	0.00373242530864281
2.4	0.00220086220959407	0.0119878218051319	-0.00307805858951197	0.000702349838075838	-0.0030768878747592	0.000717458047747962	0.00333062366454922	0.00292067290413741
2.5	0.00254970457413023	0.0116059785747992	-0.00294306480998862	0.00113390857102178	-0.00295606025469882	0.00113520497763595	0.00450630938065228	0.00176178600854564
2.6	0.00295910018996637	0.011641027313491	-0.00275318006544397	0.00152902076966978	-0.00277409154851168	0.0015329310894672	0.00563809280635804	0.000329870495975419
2.7	0.00363591836096294	0.0116680262296356	-0.00252122898450516	0.00189787447333263	-0.00252150781933098	0.00190295812491522	0.00636200458853733	-0.00153678698067413
2.8	0.00452862752216735	0.0116216842058245	-0.0022264246284042	0.00222266493779412	-0.00223625459114502	0.00223385524975218	0.00661030438571997	-0.00348413908240533
2.9	0.00558774816948859	0.0113332159672989	-0.00189035552758852	0.00251555734483437	-0.00188842853609148	0.00252446365092146	0.00655008585202288	-0.00535864276833665
3	0.00650661638945882	0.0108995904419513	-0.00151968830699781	0.0027588671696365	-0.00153476750554976	0.00274583225419604	0.00619974453844498	-0.00712386947143132
3.1	0.00756536081778291	0.0105095765455715	-0.00112095204388153	0.00294216798134347	-0.00113789202033331	0.00294757343858485	0.00560534729706585	-0.00896103786335169
3.2	0.00851039425428311	0.00983423903853621	-0.000701842471852338	0.00306722768796523	-0.000697573835118269	0.00307803263456688	0.00431953575288445	-0.0107112484568013
3.3	0.00929746160574157	0.00898593613157229	-0.000272648247423959	0.00313888440520233	-0.000269350158050657	0.00313450483173481	0.00268971908293322	-0.0122524285178421
3.4	0.00989125246585223	0.0080197504425115	0.000172942057701989	0.00314729187813998	0.000163514427074366	0.00314837220023165	0.000734582899407542	-0.0136199435391307
3.5	0.0101102411574835	0.0071028731198786	0.000606733072153646	0.00309058595626801	0.00061174016700231	0.00308925501646572	-0.00167751904053982	-0.0146757256412175
3.6	0.0104261363353705	0.00647386607512825	0.00102638345792973	0.00297056358727084	0.00103298104681751	0.00297405412502958	-0.00423755215668221	-0.0152110200911769
3.7	0.0107769666688719	0.00573415544282404	0.00144272612119433	0.00279446403973606	0.00144098241753562	0.00281083083329071	-0.00701267469186633	-0.0152658732310995
3.8	0.0111102162038888	0.00494911675799149	0.00181095621049979	0.00256811045078756	0.00182155492533557	0.00257446044206179	-0.00987825077724322	-0.0147319574047162
3.9	0.0114005304089972	0.00407599650853808	0.00215833340254721	0.002290090364481	0.00215373643737131	0.00228999458138016	-0.0126587086741141	-0.0135283331637123
4	0.0114282662938031	0.00327711972012672	0.00244909548329603	0.00197114620572805	0.00246053201773703	0.00197728610022482	-0.0150368552892559	-0.0116237926315785
4.1	0.0116680570134174	0.00271834250412326	0.00270100795468897	0.0016054688723399	0.00271756665948583	0.00161524808712529	-0.0167340762505793	-0.00937744207627671
4.2	0.0119931213250404	0.00194216380831744	0.00290310450449068	0.00120909018485493	0.00290433685520821	0.00121137597953164	-0.0181242147833844	-0.00697417730278505
4.3	0.012211187973815	0.00106320847797468	0.00304622844849899	0.000801363965478787	0.00304741154377246	0.000809946689786318	-0.0191103587787261	-0.00441326939488649
4.4	0.0122462713759357	2.66186994608209E-05	0.00312551393463735	0.00036644265717533	0.00313343501066403	0.000361810375065273	-0.0197081730249447	-0.0016283474385136
4.5	0.0118795880035366	-0.000884470482149938	0.00314976439503698	-7.77364150159819E-05	0.00314657316421441	-7.54762237295129E-05	-0.0197463654859811	0.00130847258521363
4.6	0.0115816033436781	-0.00146890361955494	0.00309702608341307	-0.000524062252911102	0.0031100529526875	-0.000512076104648904	-0.0191159030001198	0.00405495118810113
4.7	0.0114303805656578	-0.00205847179699216	0.00299535788094698	-0.000937262477358084	0.00299526716476246	-0.000946696948182614	-0.0182197373684318	0.00645858724403991
4.8	0.0112517902782752	-0.00273190176979371	0.00284681721362094	-0.00133996808775667	0.00283917859618427	-0.00136015136015195	-0.0169594396640114	0.00878687132485282
4.9	0.0112061534094421	-0.00345329499788206	0.00263183177629183	-0.00173762685980674	0.00262575417536139	-0.00172918805573582	-0.0152574661698888	0.0109077034471883
5	0.0110044391973093	-0.00423090102689658	0.00235641576071432	-0.0020705741625679	0.00235917081318771	-0.00208299770605748	-0.0129429575661144	0.0127981909881407
5.1	0.0111152654519709	-0.00490528327943925	0.00203479369025825	-0.00239447404430573	0.00204802009435551	-0.00239198522017893	-0.0100974152685446	0.0140371628670397
5.2	0.0112101008404768	-0.00593040601917685	0.00169245106564912	-0.00265185979112513	0.00169295539072036	-0.00265602134976619	-0.00724212655289578	0.0146449014530668
5.3	0.0110767614576357	-0.00710653294292313	0.00130277465132428	-0.00286379513960353	0.00129903117002749	-0.00286637076468861	-0.00434600586752357	0.0148212270403793
5.4	0.0106161730904193	-0.00832080851842987	0.000891575028994493	-0.00302357151022831	0.000890688273093938	-0.00302603161394357	-0.00144321085295774	0.0143681905871745
5.5	0.00959772839493242	-0.00915105702832411	0.000452257114995126	-0.00311803184772693	0.000464836667498616	-0.00311800463637882	0.0011907752020961	0.0133384205607669
5.6	0.00890675707089118	-0.0095266636601178	1.90334535691668E-05	-0.00314833967492736	1.57329395140733E-05	-0.00314488362445513	0.0034526858990801	0.0116922020519584
5.7	0.00823060160441361	-0.0100014712883641	-0.000414120976845231	-0.00312287963404431	-0.000417836026069578	-0.00312657255330574	0.00495644838962606	0.00978251058274148
5.8	0.00755630946296713	-0.0104819722927611	-0.000849411646176283	-0.00303311238911635	-0.000848676304126519	-0.00304079820870121	0.00598331871796847	0.00770392200641831
5.9	0.00678330292098313	-0.011016892144805	-0.00126677659217791	-0.00288042852832756	-0.00126517315771675	-0.00288458053505962	0.0064398197228493	0.00564433293927799
6	0.00550511842497786	-0.0115679485826519	-0.00165514978860257	-0.00267517962640914	-0.00164915553850219	-0.00267852544887997	0.0064143250411788	0.00385282171872383
6.1	0.00435867528614254	-0.011490504794496	-0.00201359918361048	-0.00242478740738647	-0.00200945163860843	-0.00242955270783933	0.00660046649067297	0.00214375286063532
6.2	0.0035161116946165	-0.0115659720439396	-0.00233414881380006	-0.00210916077103071	-0.0023305653443163	-0.00211782732392804	0.00652520402279532	2.61491527157596E-05
6.3	0.00284410232480342	-0.0117878781613482	-0.00260199162450714	-0.00177008236272714	-0.00261180660583298	-0.00177785081434638	0.00602019376203678	-0.00232633783529823
6.4	0.00208089448294884	-0.0123026155088324	-0.00282954797556015	-0.00138523017540189	-0.00282755307081741	-0.00139102751685698	0.00500673632475846	-0.00466741579646609
6.5	0.00102176691652327	-0.0126138288656691	-0.00299562627201967	-0.000983409796864489	-0.00299603132813628	-0.000982286756967853	0.0036134402849097	-0.00668411070461738
6.6	0.000365937350360283	-0.0125816392290101	-0.00310090695236254	-0.000557140618472993	-0.00311158359799604	-0.000560152836949276	0.00183638206659822	-0.00854613640591523
6.7	-0.000242852585191966	-0.012696585147868	-0.00314620131715536	-0.000122236746423263	-0.00314516000295222	-0.000115991948241884	-0.000649088467068183	-0.00965791745726945
6.8	-0.000912107665723595	-0.0127405379697617	-0.00313202756773306	0.000326621980170761	-0.00313112224119792	0.000331387307671151	-0.00330408070190252	-0.0098662697097173
6.9	-0.00168410197132331	-0.0128748594922449	-0.00305033727693412	0.000757500445520283	-0.00305076225778845	0.000762489942156681	-0.00577980435884712	-0.00930403665837576
7	-0.00290415189631669	-0.0126896807938287	-0.00292027981884982	0.00117681565703276	-0.00292169621242906	0.00118003579277813	-0.00789561528753331	-0.00806325321698521
7.1	-0.00366230199672508	-0.0119936039397752	-0.0027221825497588	0.00157572271222381	-0.00272460735792168	0.00158675186869973	-0.00949726696743367	-0.00660863724606547
7.2	-0.00419700375666185	-0.0115481663859517	-0.00248164459152906	0.00193775190064794	-0.00248182734553367	0.00194365317708286	-0.0109945845783622	-0.0047836737272148
7.3	-0.00476552395464108	-0.0112151956225884	-0.00219084918866771	0.00226341362463185	-0.00218808409978973	0.00226488883046905	-0.0120099660957178	-0.00256683363441536
7.4	-0.00542872799883515	-0.0111289837139572	-0.00184795910770716	0.00254810453670794	-0.00184073411235803	0.00255463184729028	-0.0125600549209148	-0.000220262505851863
7.5	-0.00668610468873742	-0.0110955064893918	-0.00146964313073824	0.0027833117575814	-0.00147068367809759	0.00278129584763198	-0.0124002557439001	0.00245450025127083
7.6	-0.00763225537261297	-0.0104589511037254	-0.00107580842945884	0.0029602909128822	-0.0010651426655421	0.00297064725596914	-0.0111000306383281	0.00473043248200013
7.7	-0.00843438048108807	-0.0100389523684568	-0.000645922669541402	0.00308446546239526	-0.000640354011759368	0.00308411579443021	-0.00959067095754864	0.00605751326264907
7.8	-0.00906231347389385	-0.0098705833702151	-0.00019891967652203	0.00314568750543975	-0.000212577230300777	0.00313860670885976	-0.00795062482179816	0.00715023101574401
7.9	-0.00980918626186535	-0.00979498371127133	0.000225871924692147	0.00313190393604638	0.000236969817620309	0.00313159290659249	-0.00611592435391465	0.00814201009324234
8	-0.0107933135685881	-0.00924135593195644	0.000661579190784397	0.00307588846254043	0.000669875668698175	0.00307380851499199	-0.00396348575105472	0.00886838590458462
8.1	-0.011108191004416	-0.00837351733663719	0.00109391313724689	0.00295216973294323	0.0010916289196928	0.00294891486700586	-0.00162110822105285	0.00898600044601604
8.2	-0.0113544455120926	-0.00779081904198781	0.00148643375949832	0.00276954396186645	0.00148561832346841	0.00278113962224939	0.000556939130638198	0.00878099070473634
8.3	-0.0116655045689656	-0.00727136663177592	0.00185970661851851	0.00253626735739937	0.00186478444051505	0.00253367664754418	0.00274215242368019	0.00824532274709368
8.4	-0.012087539238865	-0.00679482956215993	0.00220656343302579	0.00225465900214005	0.00219539337760732	0.0022550667031776	0.00479037497931164	0.00725388901757116
8.5	-0.0129639457623935	-0.00607035185085522	0.00250300081323151	0.00191850724622945	0.00250301099154233	0.0019198589560224	0.00664741396410906	0.00594101234023063
8.6	-0.0133224145112012	-0.00471122555372421	0.00273456429772243	0.00155722857603547	0.00273034841949743	0.00155492260517496	0.00836288281356879	0.00385023679860625
8.7	-0.0132389397294593	-0.00362137285614815	0.00292409172532036	0.00115719857985303	0.00292292795329841	0.00115678856540521	0.00919752142113323	0.00129450149872081
8.8	-0.0129562028849797	-0.00276845060760483	0.00305260100698798	0.000737944716763498	0.00306358262146319	0.000735826078035735	0.00927335463596288	-0.00131023527947848
8.9	-0.01256156642948	-0.00234974510497477	0.00312585168943033	0.000306872451768916	0.00313520018257603	0.000299721099825779	0.00888079459165165	-0.00364496449176904
9	-0.0125806631456404	-0.00216248975246191	0.00313795380609294	-0.00014213809428434	0.0031447372182366	-0.000136542309233338	0.00830961829966019	-0.00563980336736121
9.1	-0.0123551729804702	-0.00174744871254017	0.00308945895108892	-0.00057459485538928	0.00308967649772655	-0.00057478750969436	0.00773473966374473	-0.00782416553038639
9.2	-0.0121305577924995	-0.00170668568250584	0.00297374704306584	-0.000995595482503808	0.00297756712478611	-0.000995375616261655	0.00658463875296136	-0.010108902743455
9.3	-0.0121522618320701	-0.00174975767699282	0.00280097631213007	-0.00140444265467344	0.00281902022811945	-0.00140489568193702	0.00489458675163048	-0.0122125748215052
9.4	-0.0124327193737264	-0.00182867629512904	0.00258257547511656	-0.00177668285669939	0.00258588542896047	-0.0017877100212377	0.00260443869658828	-0.0140403996858954
9.5	-0.0131790095434285	-0.00131492936951638	0.00231024014559116	-0.00213195069884997	0.00232502976768566	-0.00213262552525995	-0.000194184952035714	-0.015148788078453
9.6	-0.0133947848845237	-0.000398053085779676	0.00199139068996519	-0.00243277179992045	0.00199171662686345	-0.00242576005626315	-0.00346111206380178	-0.0159991266468641
9.7	-0.0134045852395091	0.000341026413633644	0.00162950825692908	-0.00268630558180962	0.00163780007748908	-0.00268789682660182	-0.00733142411088263	-0.0158817811929951
9.8	-0.0133546699290335	0.000976076123504028	0.00124543902894446	-0.0028817163478344	0.00124361059869814	-0.00289035934444712	-0.0112176025247713	-0.0146735095370852
9.9	-0.0133407887718504	0.00146130746097548	0.000835625573437825	-0.00302685688052468	0.000823752784777968	-0.00302947018989357	-0.0149730502818397	-0.0123584700996967
10	-0.0138032517536447	0.00202972251655454	0.000402444335673226	-0.00310514448487111	0.000401630223419631	-0.00311245841720639	-0.017922613793603	-0.0090506616053569
10.1	-0.0138057719171344	0.00315377019336287	-3.14491013935312E-05	-0.00314164832114101	-3.60908411728508E-05	-0.00314441552694136	-0.0199003683085113	-0.00550812015493663
10.2	-0.0134495880596292	0.00401463732108409	-0.000471262988224518	-0.00310153305078559	-0.000483858483886369	-0.0031052897418701	-0.0213504406562564	-0.00164901888808393
10.3	-0.0129671029810451	0.00467215066525118	-0.000902987876903469	-0.00299874592982484	-0.000902773320697434	-0.00301212636645673	-0.0219900367056106	0.00264684322935824
10.4	-0.0124866832176044	0.00498792009747617	-0.00131146782308214	-0.00285091545489309	-0.00131463510565979	-0.00284878675652807	-0.0215671795357105	0.00704189124152716
10.5	-0.0124975063549439	0.00543820608956733	-0.00169467031168643	-0.00263217238998418	-0.00170083941696781	-0.00263942160842504	-0.0199970858696327	0.0114768025219419
10.6	-0.0120705498296176	0.00629963766493305	-0.00205344915502827	-0.00237511922926552	-0.00205495117412936	-0.00238022642056467	-0.0173603834985215	0.01515645451151
10.7	-0.0114281991768707	0.00699946046647768	-0.00235957568214826	-0.00206228498444955	-0.00236279299432908	-0.00207829895516265	-0.0142137448441111	0.0183264621342595
10.8	-0.0106803327505087	0.00755271483404833	-0.00262549985146826	-0.00171471046518503	-0.00262256637239236	-0.00171687646958515	-0.0106062748121665	0.0208655675386451
10.9	-0.00986146975590519	0.00783585240891721	-0.00284189115265782	-0.00133730160367395	-0.00284117526096842	-0.00134242232453711	-0.00664931672569047	0.0229514783079876
11	-0.00942429059663449	0.00821761365582109	-0.00300459898637644	-0.000921723641253426	-0.0029975875077434	-0.000926015633906367	-0.0020443602952939	0.0245263717836142
11.1	-0.00843094810539131	0.00889776513516385	-0.00309890327392669	-0.000505071513267459	-0.00309116378521348	-0.000496789568421188	0.0030473477705121	0.0247977888167639
11.2	-0.00716691838405988	0.00904113064768047	-0.00313839157433526	-6.42634121497103E-05	-0.00314497964527735	-6.10536447033706E-05	0.00797899666616344	0.0241312178722871
11.3	-0.00586287449154245	0.00870235303605277	-0.00311520068459372	0.000375717482560872	-0.00311836269038402	0.000373557277501472	0.0128749048488325	0.0227286883455549
11.4	-0.00492041992915725	0.00791746553254768	-0.00302834834864315	0.000805701609956286	-0.00303297238656417	0.000805856982691313	0.0175087451152213	0.020379239499613
11.5	-0.00469589379461536	0.00722414338082304	-0.00289516308572232	0.00121334655493442	-0.00288765607184647	0.00121809057777513	0.0217742826056487	0.0171100291185948
11.6	-0.00415617584250135	0.00684848929991142	-0.00269290156816495	0.00160592746879867	-0.00270100438995815	0.00161561709515549	0.0254983870509174	0.0125872148743071
11.7	-0.00359629292493155	0.00608307394726009	-0.00243973443634307	0.00197221101976737	-0.00244148184022115	0.00197589763210247	0.0280510672422697	0.00741161747438812
11.8	-0.00323424117822869	0.00517335553010318	-0.00214145616552315	0.00229575252949791	-0.0021506498276668	0.0023055390172157	0.0296515209261653	0.00206447461172641
11.9	-0.00317934141521298	0.00406705028841805	-0.00180213869521797	0.00256750779050295	-0.00180217050380444	0.0025740587436548	0.0303368359256716	-0.00306862687994535
12	-0.00392411614165434	0.00341033903034822	-0.00142350497899096	0.00279125447223348	-0.0014279918541649	0.00279403620883225	0.0305078108802591	-0.00830591612888758
