# GHZ S RI R 50
0.2	-0.0140095441489047	0.00566673941421967	0.00304342040856665	-0.000885263906566153	0.00305387661855725	-0.000885112701666664	0.00575103874484528	0.00114455133955793
0.3	-0.0132370497092458	0.00605083913606737	0.00289709493881703	-0.00130110991911199	0.00289081087563656	-0.00131274672955532	0.00602977562701254	-0.0012310312759346
0.4	-0.0124793539374016	0.00666136026417731	0.00268267220798912	-0.00169506130876455	0.002680567630965	-0.0016969721319628	0.00563792471496824	-0.00315395456888353
0.5	-0.0120735088442693	0.00731616636616521	0.00241280550251797	-0.00205117708484083	0.00241561743103965	-0.00205490055987598	0.00457475268344561	-0.00477466501905818
0.6	-0.0112934452112368	0.00849363713454543	0.0021008928837111	-0.00237098320165914	0.00210015015433317	-0.00237382378730676	0.00346875831509094	-0.00578571395465997
0.7	-0.0103582894156871	0.00924982779827455	0.00175043897187581	-0.00264089753264211	0.00175664125745891	-0.00264498804875573	0.00211377402036179	-0.00673466400211684
0.8	-0.00940299531547106	0.00991229834623015	0.00135715276143715	-0.00286046479419879	0.00136541946818469	-0.00285886928780128	0.000461148873923007	-0.00721846040279057
0.9	-0.00844494517075564	0.0104289360679292	0.000953217811213136	-0.00301200410593943	0.00095319993675312	-0.00302141215364331	-0.00117712015281006	-0.00726683936040131
1	-0.00778314657418847	0.0104997833892197	0.000521343746156555	-0.00312048603869544	0.000521197133182972	-0.00312583918339636	-0.00295706544979252	-0.0070797978973075
1.1	-0.00757284397446327	0.0112680879883346	7.37095595618419E-05	-0.00316069049817128	7.45974525160327E-05	-0.0031654139995742	-0.00474625314286513	-0.00575399772959122
1.2	-0.00682271371344529	0.0117212542571818	-0.000364783589261855	-0.00313331014325067	-0.000363556154020414	-0.00315009270973142	-0.00539585733747296	-0.00420044021588483
1.3	-0.00639586126885245	0.0117133016550479	-0.000795314409477617	-0.0030591132054209	-0.000800247122353557	-0.00306676410022008	-0.00527860198970238	-0.00279811573222509
1.4	-0.00601467496928307	0.0115428941757411	-0.00122076415230106	-0.00291451181447503	-0.00122317579821061	-0.00292163788041447	-0.00480601306544509	-0.00201116547879781
1.5	-0.00566983809632512	0.011597202095803	-0.00161297607020235	-0.00271655822596535	-0.00161100448124699	-0.00272209671144582	-0.00468925498301759	-0.00153480746345355
1.6	-0.00454877494715962	0.0121509417135628	-0.00197527967030839	-0.00245967022753762	-0.00197874717577483	-0.00246054932039087	-0.00468997767665484	-0.000569871337438755
1.7	-0.00336967364579912	0.0121858156402036	-0.00229949962457053	-0.00216586332362967	-0.00230154448247441	-0.00217444479696932	-0.0045148923038224	0.00039133367243348
1.8	-0.00237802023814595	0.0122715069083959	-0.00257622668235189	-0.00181735284684337	-0.00258139749412714	-0.00182281124806196	-0.00413066615876169	0.00141818718530709
1.9	-0.00145830390627904	0.0121009435055969	-0.00280212323309015	-0.00144855409331988	-0.00279861644830713	-0.0014423677785651	-0.00340859466205633	0.0023248847009447
2	-0.00117882744950269	0.0119783406724781	-0.00297691797362699	-0.00103660448702857	-0.00297965696844172	-0.00102976733406403	-0.00279028160042719	0.00314050326165744
2.1	-0.000402386654351611	0.0125581087936841	-0.00309170087514002	-0.000605990845342176	-0.00309379621464988	-0.000612681286608315	-0.00142263412609673	0.00407575875609383
2.2	0.000675457026356013	0.0126389323281121	-0.00314604232200349	-0.000175820559287505	-0.00314786114064492	-0.000166103847551261	0.000347746253702845	0.00417258542793505
2.3	0.00159759125674193	0.0124364049549443	-0.00313841797076876	0.000266121089875456	-0.00314516712168025	0.000263208633306744	0.00196314721022248	0.00369572164917979
2.4	0.00248073910986746	0.012017656731737	-0.0030784129942502	0.000700603144290738	-0.00307725082185867	0.000715711808668429	0.00352775819114244	0.00281213151340062
2.5	0.00266219579996551	0.0112162246088713	-0.00294357552299491	0.00113126195211985	-0.00295657010130013	0.00113254723113057	0.00456106079302112	0.00131243589234355
2.6	0.0026704008546998	0.0114725257788616	-0.00275545299171537	0.00152679048551275	-0.00277637426992735	0.00153068165369948	0.00536693964459304	9.98334240518265E-05
2.7	0.00326347719004448	0.0117572258015305	-0.00252382475464647	0.00189670402034397	-0.0025241077316886	0.00190178965823688	0.00604273632018329	-0.00154475531655081
2.8	0.00421883595059746	0.0119896240472993	-0.00222900055110413	0.00222206648577843	-0.00223884286870727	0.00223325476830465	0.0063633766962597	-0.00324966261606347
2.9	0.0055099174562408	0.011777006819323	-0.00189314659768082	0.0025151074244501	-0.00189122588001197	0.0025240189902599	0.00653785134318583	-0.00506063939223459
3	0.00633150591120363	0.0112566448014305	-0.00152368892306334	0.00275959779486804	-0.00153876738333948	0.00274653715454318	0.00613647833492599	-0.00693813032452999
3.1	0.00753671333509197	0.0111724235740691	-0.00112370356051409	0.00294458856564114	-0.0011406639127622	0.00294999039089744	0.00569374763479726	-0.00854918085248462
3.2	0.00877444703358317	0.0104462760435809	-0.000703774268436913	0.00306975479903535	-0.000699506236045286	0.00308057147467158	0.00465476741997117	-0.0104050630651188
3.3	0.0097376743580099	0.0094593685412374	-0.000274275073467495	0.00314167414752425	-0.000270972010153456	0.0031372919589276	0.00315277722177978	-0.0121083922928102
3.4	0.0104827863194694	0.0082532785226827	0.000171591311114036	0.00315091995206637	0.000162152536581941	0.00315199686103388	0.00130422032893616	-0.0137102944403114
3.5	0.0104168741891985	0.00701784440231177	0.000607514493939324	0.00309512888866313	0.000612528960806977	0.00309379617374947	-0.00139817631943758	-0.0150666549504625
3.6	0.0106561653739272	0.00674019415360376	0.00102811357398534	0.00297340982904382	0.00103471878005565	0.00297690250056682	-0.00403784040267486	-0.0152830389439281
3.7	0.0112872840356767	0.00601922020295085	0.00144444091885684	0.00279702707743913	0.00144269732695945	0.00281341001006377	-0.00659117734478777	-0.0153367399009395
3.8	0.011849622062559	0.00505865783099919	0.00181323899971905	0.0025706278225435	0.0018238499288172	0.00257698323030921	-0.00929362422489386	-0.014945303308323
3.9	0.012275098127794	0.00376901129500301	0.00216179546767536	0.00229206106456872	0.00215719290330726	0.0022919668714958	-0.0119753837017534	-0.0140706019149822
4	0.0117496991029971	0.00248227050325581	0.00245248223904467	0.0019708222543987	0.00246393227249031	0.0019769582621219	-0.0148251930712976	-0.0125540762485256
4.1	0.0116263163584667	0.00236743315346899	0.00270312686113783	0.0016056328565561	0.0027196985370883	0.00161541303834421	-0.0167980325516771	-0.00991394910894422
4.2	0.0120583425823357	0.00176595690383285	0.00290588182271278	0.00120926588847531	0.00290711586281854	0.00121155324090243	-0.0180854423503328	-0.00737734602906255
4.3	0.0123927237219244	0.000881615864822064	0.00304935919155659	0.000800649154694349	0.00305054740964316	0.00080923907458267	-0.0189731878039957	-0.00482226518461822
4.4	0.012545977636833	-0.000360285424672185	0.00312796886040735	0.000364503244316765	0.00313589224901249	0.000359862137549878	-0.0194522239273121	-0.00220209911646588
4.5	0.0117157831853001	-0.0016551188440102	0.00315079544015318	-7.86182937680954E-05	0.00314760375748213	-7.63564803041076E-05	-0.0198652176427969	0.000380593378975155
4.6	0.0110840309797292	-0.00173963565020938	0.00309975229452378	-0.000524980877182061	0.00311279266796821	-0.000512985756778664	-0.0195083221281269	0.00355209617002044
4.7	0.0110244313990181	-0.00208323832723544	0.00299794624238384	-0.000939559833407727	0.00299785116776174	-0.000949003750997282	-0.0185189586671807	0.00613498283199129
4.8	0.010958245783475	-0.00259018877462696	0.00284855361494091	-0.001342931293371	0.00284089566509603	-0.00136312802510562	-0.017169604398422	0.00858314634261458
4.9	0.0111230680351753	-0.00330811852331313	0.00263283515464714	-0.00174023736710126	0.00262675751823964	-0.00173178934080968	-0.0152941531271683	0.0106917142391944
5	0.0106554521977493	-0.00420770164862399	0.00235880060088772	-0.00207373302088343	0.00236155589464597	-0.00208617261899174	-0.0132384742638751	0.0124630545771265
5.1	0.0109282879306931	-0.00435081211098859	0.00203524327489509	-0.0023997683777054	0.00204849032995904	-0.00239728911616395	-0.0102407276390907	0.0141726083580272
5.2	0.0114587547152579	-0.00545318415163739	0.00169113042031142	-0.00265665874747029	0.00169163039207732	-0.00266082530990136	-0.00702323476651412	0.0146869445967699
5.3	0.0114883779347966	-0.00692665841005446	0.00130069015935383	-0.00286793133878248	0.00129694027002454	-0.00287050504391091	-0.00401889618480469	0.0146104600934221
5.4	0.0109871537109398	-0.00852181402712056	0.000889298490400776	-0.0030277906779725	0.000888408141925422	-0.00303025248746054	-0.00115819328015106	0.0138595309528641
5.5	0.00919450856760452	-0.0095289381789892	0.000447373819515726	-0.00312313646256914	0.000459970791631629	-0.00312313143459583	0.000827446664718313	0.0126963784216919
5.6	0.00854234124724557	-0.00901484127899205	1.25502358777994E-05	-0.00315025362745668	9.25488624971514E-06	-0.00314678871063149	0.00318098190995068	0.0118022118162971
5.7	0.00841390168018488	-0.00937465904985034	-0.000420072861681436	-0.00312322316727083	-0.0004237960984951	-0.0031269104981246	0.00514600723574296	0.00993161662294579
5.8	0.008158660093021	-0.0100028711449346	-0.000855231961287866	-0.00303259631938922	-0.000854510383791905	-0.00304028609723869	0.00648523314413423	0.00771842226873061
5.9	0.00784762049422637	-0.0109885370615092	-0.00127332046623305	-0.00287889075785076	-0.0012717251267559	-0.00288304775107065	0.00731992525237474	0.00532041199112068
6	0.00613609769399461	-0.0125603707611743	-0.00166122302348233	-0.00266991261527526	-0.00165523965872102	-0.00267327219427915	0.00693994055415344	0.00268682207889344
6.1	0.00431116544374808	-0.012106774819889	-0.0020164972359682	-0.00241945824454363	-0.00201236116726673	-0.00242422756008721	0.00661273375109136	0.00135678784669299
6.2	0.00343093212234741	-0.0119531392962724	-0.00233649175062383	-0.002104090822627	-0.00233292486274972	-0.00211275887493914	0.00658883776686563	-0.000595835502011202
6.3	0.00279877027414762	-0.0119856270510544	-0.00260375456632157	-0.00176429917112358	-0.00261357819984778	-0.00177204518553095	0.00615807710545431	-0.00283998006867778
6.4	0.00220830211325449	-0.0125681704689456	-0.00282962010182149	-0.00137817617636518	-0.00282763883674307	-0.00138397196151116	0.00530673001556349	-0.00529445012874926
6.5	0.000551222123330749	-0.0129058192518438	-0.00299236788609725	-0.000978118820276288	-0.002992770903693	-0.000976996955759758	0.00337637767283501	-0.00739167177780656
6.6	0.000220162814260221	-0.0122206765290336	-0.00309896009655945	-0.000553393699870692	-0.00310963119982187	-0.000556392122219744	0.00187151442288435	-0.00875624338064402
6.7	-0.000116299169185106	-0.0125201916408752	-0.00314377551230451	-0.000117822755306301	-0.00314272649507731	-0.000111584532378598	-0.000460031187340824	-0.0100918280104585
6.8	-0.000750692281305367	-0.0126642553602399	-0.003128071528179	0.000330773650277352	-0.00312716033918095	0.000335532369865302	-0.00316446869659773	-0.0103749717529174
6.9	-0.00137832330025907	-0.013093428391645	-0.00304501165441123	0.000759714234567604	-0.00304543055990307	0.000764696836921304	-0.00553945803619965	-0.010036339883256
7	-0.00352621130133426	-0.0132881816094988	-0.0029172202328326	0.00117743787541211	-0.00291863369436303	0.00118065612043885	-0.00846623472042737	-0.00912063073147269
7.1	-0.00436112737206746	-0.0114710181470212	-0.00271819031313097	0.00157810855288699	-0.00272059912568057	0.00158913291853536	-0.0101020552711394	-0.00669983923224984
7.2	-0.00430623734190625	-0.0107723559800517	-0.00247623524246766	0.00193883304584972	-0.00247640995078267	0.00194472782095988	-0.0111237085645122	-0.00472250436765212
7.3	-0.00437971327207853	-0.0104456365087668	-0.0021854992506129	0.00226281139384353	-0.00218273620363759	0.00226428164787595	-0.0118107460562779	-0.00252022582486996
7.4	-0.00436581661526929	-0.0107107043041844	-0.00184397651450295	0.00254682989647491	-0.00183675412066954	0.00255334453619912	-0.0118894491035477	-0.000429002539179826
7.5	-0.00599195901571124	-0.0118571058633166	-0.00146434160267367	0.00278374900080692	-0.00146538459291503	0.00278173604611156	-0.012104108098416	0.00132729369957873
7.6	-0.00759444786381184	-0.0107583152763205	-0.0010689643725936	0.00295723351890774	-0.00105829853854272	0.0029675544817041	-0.0112684083277545	0.00415984366320566
7.7	-0.00833182801272941	-0.0102451996499549	-0.000640788121204335	0.00307945465298988	-0.000635230433136953	0.00307909858039657	-0.0096781079408671	0.00562760000721719
7.8	-0.0089981008407066	-0.0100828534883396	-0.000195209209225988	0.0031401198341659	-0.000208849201071895	0.00313306656924789	-0.00798828348536525	0.0067575370819915
7.9	-0.00983034152615991	-0.0102597389647403	0.000229482819162079	0.00312621509494499	0.00024056117875746	0.00312589042650651	-0.00613258801604599	0.00751031159080648
8	-0.0119942477404176	-0.00952684304824102	0.000664740819773405	0.00306642878736892	0.000673011305361671	0.00306434111821644	-0.00488260684371452	0.00827549495268709
8.1	-0.0118798726084734	-0.00746469808781596	0.00109215080909843	0.00294266003334159	0.00108987179796332	0.00293941621778461	-0.00212038432236802	0.0093474711179424
8.2	-0.0114674173944702	-0.00675481350926912	0.0014829321967832	0.00276169474227321	0.00148212129622471	0.00277325894241787	0.000604177104346785	0.00913907666876428
8.3	-0.0112911634837937	-0.00634111310644817	0.00185520021734681	0.0025292216199774	0.00186026412481939	0.00252663692653062	0.00316178843999696	0.00845828765786141
8.4	-0.0112241091371808	-0.00638053498384229	0.00220037368422022	0.00224733478283418	0.00218923758226586	0.00224774372330275	0.00561037372758251	0.00700157611180225
8.5	-0.0129275197207915	-0.00638011561772896	0.0024923823787742	0.00191411768941237	0.00249239124580587	0.00191546465209719	0.00672450225708409	0.00504181721636029
8.6	-0.0134125666730633	-0.00403164949396102	0.00272568426622791	0.00155693781578836	0.00272148195357979	0.00155463205638053	0.00836102574548739	0.00377658603528233
8.7	-0.0127212886391576	-0.00275498716773751	0.00291601259322647	0.00115774354160387	0.00291485198073525	0.00115733319275316	0.00966780101844824	0.00129544629366762
8.8	-0.0118807304728065	-0.00201618837368135	0.00304426828600705	0.000739668603684484	0.00305522544663862	0.000737567861396092	0.0101085965760173	-0.00142410452535528
8.9	-0.0108305168371063	-0.00217270465590901	0.00311703953277669	0.000311359588786093	0.00312637535585936	0.000304243060915138	0.0101942604629986	-0.00417376827393353
9	-0.0113593394143807	-0.00307642342038668	0.00313332817534772	-0.000134548433835523	0.00314008773322891	-0.000128945571166785	0.00917648277062318	-0.00703056314068327
9.1	-0.0114876765873127	-0.00248601212041156	0.00308611226174808	-0.000569262908588024	0.00308632979698993	-0.00056945498086938	0.00833981383778016	-0.00900227147344715
9.2	-0.0114636883953949	-0.00278349747296862	0.0029701874600512	-0.000989354920326088	0.00297400068095714	-0.000989129597584998	0.00704069705766607	-0.0115746082191569
9.3	-0.0120324010685999	-0.00295507472625734	0.00279883879366276	-0.00139663805428325	0.00281685243153189	-0.0013970556403421	0.00488828516574724	-0.0137665462324477
9.4	-0.0127801493717244	-0.00301815139881687	0.00258382291713789	-0.00176843627333155	0.0025871554084381	-0.00177944269054819	0.00225873840139559	-0.0155549446719433
9.5	-0.0146723435670583	-0.00218067460803233	0.00231222193293004	-0.0021275741834986	0.00232700542245526	-0.00212822723110429	-0.00148090895913784	-0.0164273515177022
9.6	-0.0146205516728061	0.000134775943345558	0.00199197623471171	-0.00242662784813821	0.0019922920272952	-0.00241962543040351	-0.00445136750889524	-0.0161194045810014
9.7	-0.0139608670725975	0.00117045002046689	0.00163237934207699	-0.00267955813076467	0.00164066288297415	-0.00268113149422758	-0.00777250569229505	-0.0158451157667188
9.8	-0.0134091561347522	0.00184825474863321	0.0012502145373661	-0.0028762232248947	0.00124840600884895	-0.00288486137768472	-0.0113134892082668	-0.014626292827095
9.9	-0.0128406441806232	0.00195369236594002	0.000840367101236703	-0.00302365617381185	0.000828505719614646	-0.00302628846738878	-0.0146412177055349	-0.0125749216632914
10	-0.0140199864273825	0.00191638585894225	0.00040572852923565	-0.00309977409985928	0.000404924912854451	-0.00310707760345411	-0.0182190187155965	-0.009716773145642
10.1	-0.0140379567222554	0.00402180945018691	-2.3713842392666E-05	-0.00313670816915248	-2.83414002507398E-05	-0.00313948231046797	-0.0201269701047328	-0.0052898348934239
10.2	-0.0130055387216742	0.00505312666345565	-0.000462601958056082	-0.0030996134278542	-0.000475174701640837	-0.00310339950970076	-0.0209783743385016	-0.00131336348866509
10.3	-0.0119019735764934	0.005525954838795	-0.000894856647278519	-0.00299868953109783	-0.000894609059539155	-0.00301205918777175	-0.0210954839940487	0.00284201598292645
10.4	-0.0108152447233349	0.00504367751070244	-0.00130357170687926	-0.00285067639101115	-0.00130674023796224	-0.00284855721774747	-0.0201077775835995	0.006604613540029
10.5	-0.0117044503097093	0.00443993200446755	-0.00168255626896677	-0.00263421264853692	-0.00168868968803769	-0.00264147290190987	-0.0192171793311723	0.0101228605576889
10.6	-0.0118216197255496	0.00552457895263436	-0.00204382353117687	-0.00238289167530929	-0.00204530523747434	-0.00238800410534237	-0.0169202336804428	0.0139328826651022
10.7	-0.0114895977050225	0.00633077565242372	-0.0023529232470458	-0.00207134453130522	-0.00235608430765374	-0.00208737486967911	-0.0140661605630064	0.0171074904010186
10.8	-0.0108877945047016	0.00729426713964818	-0.00262062688372849	-0.00172444801396262	-0.00261768476779418	-0.00172660475918543	-0.0106462969061352	0.0199904568671752
10.9	-0.00982510327543753	0.00760036544946103	-0.00283783086013544	-0.00134889347377079	-0.00283709476128515	-0.00135401346748278	-0.0064548743550724	0.0219940528013933
11	-0.010279943474018	0.00773317318875144	-0.00300642649876132	-0.00093652795924755	-0.00299938283903791	-0.000940797888371636	-0.00261960337676471	0.0233075943689229
11.1	-0.00915622573057679	0.00958880423826355	-0.00310449569831532	-0.000515629208811531	-0.0030967635306186	-0.000507304757265891	0.00260674936810565	0.0244885796028407
11.2	-0.00725699821503541	0.00993704023565087	-0.00314464548183623	-7.32268385364256E-05	-0.00315125609312379	-7.00290293911805E-05	0.00797752009987166	0.0238810073450535
11.3	-0.00543620884288116	0.00952049148111292	-0.00312297606544099	0.000367289397697151	-0.00312613843179585	0.000365115202671169	0.0131802847170117	0.0223779947387765
11.4	-0.00396175067230119	0.00824665494834272	-0.00303964471391433	0.000798451361408012	-0.00304428260098753	0.000798592558576592	0.01816537966085	0.0196991358011736
11.5	-0.00451102399378477	0.00701511985785319	-0.00290773986922111	0.00121284245742912	-0.00290021363150224	0.00121761645231266	0.0216963740619249	0.016028057105357
11.6	-0.00378803084425476	0.00749322081083884	-0.00270208048621389	0.00160626256265725	-0.00271021776465254	0.00161596567658002	0.0255525776457454	0.01231784632987
11.7	-0.00250649462395547	0.00658269121202435	-0.00244955594712606	0.00197310097696194	-0.00245131435939281	0.00197679416888229	0.0286820720302713	0.00709843432443299
11.8	-0.00162940231878854	0.00505505457665039	-0.00215196739150903	0.00229905300675601	-0.00216120605977468	0.00230885345160922	0.0307257271472955	0.00136278710725765
11.9	-0.00150794290096138	0.00259071899089171	-0.00181112783848149	0.00257493056027263	-0.00181116622080379	0.00258150495528948	0.0315756372394035	-0.00484714524362127
12	-0.00430248917453235	0.00100466094542906	-0.00142742384922594	0.00279744832852679	-0.0014319217764491	0.00280023557494969	0.0300501946253483	-0.0108391629955391
