# GHZ S RI R 50
0.2	-0.0141439962420316	0.00554012312394086	0.00304401503370771	-0.000885214385347964	0.00305447307144735	-0.000885062449114049	0.00572570654782371	0.00111793404664411
0.3	-0.0133310500990441	0.00599242254749071	0.00289779858736065	-0.0013011559731263	0.0028915141190941	-0.00131279569195483	0.00603094692174117	-0.00119057420085249
0.4	-0.0125354402791728	0.00668200232731498	0.00268352214284277	-0.00169527751971415	0.00268141717600339	-0.00169718902498465	0.00562599663081273	-0.00304866558333233
0.5	-0.0118772703837647	0.00734634387996833	0.0024136411825906	-0.00205185982035899	0.00241645409390408	-0.00205558454518778	0.00463071756396345	-0.0046128611689445
0.6	-0.0110903190891964	0.00821626569381569	0.00210136538284999	-0.00237174610787373	0.00210062230955147	-0.00237458745078248	0.00345765875279598	-0.00565193964013579
0.7	-0.0103053566849972	0.00887886199183824	0.00175084334307676	-0.00264170548383793	0.00175704724319294	-0.00264579737182511	0.00207141144935333	-0.00648698553690411
0.8	-0.00949266439035614	0.00951460051038689	0.00135743020518486	-0.00286144328449836	0.00136569961574702	-0.00285984771330553	0.000460672487013655	-0.00688988011088637
0.9	-0.00875216907821115	0.0101245138324707	0.000953178600517619	-0.00301318789578477	0.000953159544779858	-0.00302259926697258	-0.00114658086912106	-0.00689929192506906
1	-0.00804429292393649	0.0106441999338326	0.000520750408412377	-0.00312138981692491	0.000520602516455604	-0.00312674427045695	-0.00284189105776332	-0.00662450118885719
1.1	-0.00745402632371021	0.011377374333956	7.32954768812084E-05	-0.00316134691632392	7.41829101044341E-05	-0.00316607150429004	-0.00459644240221833	-0.00544113072492605
1.2	-0.0066023575088569	0.0117936424426263	-0.000365340180689984	-0.00313404561017421	-0.000364114924965059	-0.00315083258772304	-0.00537960106614938	-0.00383382101108593
1.3	-0.00597986485376681	0.0117219162162298	-0.000796134475935008	-0.00305972001968453	-0.00080106997888812	-0.00306737183518149	-0.00526873064087644	-0.00228166621096143
1.4	-0.0055402880346703	0.011346775862832	-0.00122174576789707	-0.00291472129057266	-0.00122415971002823	-0.00292184801823341	-0.00474085899963312	-0.00139166904840216
1.5	-0.00506462504752113	0.0111500771713821	-0.00161346710206237	-0.00271655315146374	-0.00161149610407114	-0.00272209233387096	-0.00451251080011047	-0.000884764310860552
1.6	-0.00428671823008971	0.01126633105087	-0.00197602281967343	-0.00246005420483141	-0.00197949126013523	-0.00246093313815933	-0.00455655605890253	6.84011884358671E-05
1.7	-0.00346362140417899	0.0113506013559701	-0.00230054355070245	-0.00216592696705865	-0.00230259074731073	-0.00217451019001139	-0.0043165366368668	0.00107913385265227
1.8	-0.00265627385754043	0.0115878642686129	-0.00257721610414569	-0.00181704094564811	-0.00258238937574905	-0.00182249908196292	-0.00387970356892734	0.00205775557768112
1.9	-0.00180675753340031	0.0116982980196867	-0.00280279538841632	-0.00144811994541849	-0.00279928679978323	-0.00144193362259541	-0.00318561480109321	0.00291990216219637
2	-0.0010888543194674	0.0117924147085586	-0.00297788564070309	-0.0010365238167701	-0.00298062455111194	-0.00102968439652609	-0.00253614604415353	0.00372401391777961
2.1	-0.000181379379480626	0.0119026797043889	-0.00309289509901758	-0.000605050092971757	-0.00309499354587027	-0.000611741871893386	-0.0013069758236922	0.00458526558340401
2.2	0.000653703473330667	0.0118120250815776	-0.00314670829837499	-0.000174541510026713	-0.00314852340693713	-0.000164822209270609	0.000404401402458126	0.00480724572311665
2.3	0.00130415044388868	0.0116142421883011	-0.00313871449971813	0.000267386610883566	-0.00314546565573396	0.000264476430611285	0.00207191004858453	0.00439372252993427
2.4	0.00186893684712909	0.0114681384271914	-0.00307869659049839	0.000701802730285783	-0.00307752892192032	0.00071691358451089	0.00366747802239446	0.00349384690940636
2.5	0.00227057631336066	0.0113206465981452	-0.00294369012743449	0.0011332760781219	-0.00295668737445305	0.00113456927297821	0.00474600007737788	0.0019961154236877
2.6	0.0028212084918085	0.0114890263517323	-0.0027543528890594	0.00152852430609316	-0.00277527082567522	0.00153242893673959	0.00547764545996733	0.000657351472896815
2.7	0.00361918086790532	0.0115564930892813	-0.00252251566952793	0.00189786546238717	-0.00252279585282003	0.00190295069229077	0.00604091833387027	-0.000938866908350994
2.8	0.0046039837823964	0.0115486107579546	-0.00222762120896562	0.00222299854201615	-0.00223745672138016	0.0022341908007353	0.00628767246917134	-0.00258376691831238
2.9	0.0058110187257524	0.0113025179695866	-0.00189143836326832	0.00251607370005026	-0.00188951229271108	0.00252498335593198	0.00637710892350528	-0.0042930345302039
3	0.00697468902942831	0.0107844531700415	-0.00152097853571408	0.00275970339101319	-0.00153606121382363	0.00274665938937004	0.00598631906560108	-0.00603311445119938
3.1	0.00819706761656858	0.0101452178365913	-0.00112175599416043	0.00294361048308897	-0.00113870517133944	0.00294901746716035	0.00546419324066065	-0.00754113307887331
3.2	0.00916868951652899	0.00918350707807626	-0.000702177600236428	0.00306870223865298	-0.000697906904430252	0.00307951237492726	0.0044859518000051	-0.00919283961718401
3.3	0.00986347713241443	0.00811130094431492	-0.000272709938861915	0.00314033692398506	-0.000269410418424606	0.00313595526439719	0.00311393705788108	-0.0107964758674486
3.4	0.0103371304647937	0.00703986181435361	0.00017306963385532	0.00314882025619766	0.000163637432769824	0.00314990123392601	0.00135681309354691	-0.0123639913479229
3.5	0.010520983687037	0.00604115380238352	0.000607477465221875	0.00309233440255272	0.000612487349253411	0.00309100205136791	-0.0012019481165099	-0.0136878343200208
3.6	0.0107583825582385	0.00528709481041015	0.00102758474001033	0.00297167669364387	0.00103418621826307	0.00297516721516909	-0.00385186022698669	-0.0139753846129577
3.7	0.0109354895247035	0.00447861484104316	0.00144392599074826	0.00279529189518232	0.00144218514613529	0.00281166576214761	-0.00634479741160485	-0.0139478599168789
3.8	0.0110955781687463	0.00377389591508252	0.00181227618385111	0.00256878533263818	0.00182288071851207	0.00257513564902553	-0.00891608230738032	-0.0135796894291623
3.9	0.0113443450907082	0.00309945433302235	0.00215994354477503	0.00229053283207647	0.002155344469594	0.00229043827394323	-0.0115363237941565	-0.0128035795011878
4	0.0115455767621143	0.00241545950036545	0.00245076250656481	0.00197080259423189	0.00246220554561845	0.00197693982819747	-0.0143225412827373	-0.0113949975873638
4.1	0.0119540100716998	0.00176222952131299	0.00270216057835115	0.00160507707759289	0.00271872633076632	0.00161485387454899	-0.0164531856587077	-0.00893000728662279
4.2	0.012293496309483	0.00081741085886843	0.00290436073234074	0.00120865372160053	0.00290559411564694	0.00121093989005392	-0.0178686925379185	-0.00636134984098682
4.3	0.0124275788462115	-0.000155373116443639	0.0030475233016988	0.0008005976544127	0.00304870971103173	0.000809182857515631	-0.0188236814982764	-0.003800377504294
4.4	0.012390967141339	-0.00115744006979574	0.00312655421730222	0.000365228362274273	0.00313447558448278	0.000360591426812969	-0.0194275428379909	-0.00119123278895178
4.5	0.0121195482812746	-0.00202682718569034	0.00315019326248307	-7.87898672888557E-05	0.00314700231896275	-7.65282938568121E-05	-0.0199247244086061	0.00146303912999263
4.6	0.0119429398943161	-0.00272937357121239	0.00309780199483175	-0.000525056039114711	0.00311083596968262	-0.0005130698656697	-0.0197876115715006	0.00465667664716087
4.7	0.011772655858804	-0.0034990867068793	0.00299599828306756	-0.000938695390402493	0.00299590400095732	-0.000948132950707869	-0.0189130455329456	0.0074972410437634
4.8	0.0114783731557646	-0.00427068928047842	0.00284705007647599	-0.0013416247499278	0.00283940025573528	-0.00136181050137189	-0.0175200989384198	0.0101454202164082
4.9	0.0113165982408149	-0.00496692927925964	0.00263161308076754	-0.0017391716920216	0.00262553796333496	-0.00173072838205622	-0.015589426768611	0.0123866439634977
5	0.0111320744503164	-0.00571837396557092	0.00235640255564581	-0.00207205383252736	0.0023591540205345	-0.00208448218878201	-0.0133948616565566	0.0142772253031343
5.1	0.0112031724196174	-0.00649446830869153	0.00203414783294793	-0.00239649090694529	0.0020473803699591	-0.00239400876566159	-0.0104148516054879	0.0160343318416521
5.2	0.0111070865786873	-0.00753749832286929	0.00169112284585869	-0.00265356362056892	0.00169162459299558	-0.00265772646031958	-0.0070541164226137	0.0167242229312217
5.3	0.0108278955297867	-0.00856245988594799	0.00130113695998236	-0.00286504899215921	0.00129739128226213	-0.0028676226049396	-0.00383163623599092	0.0166516526178748
5.4	0.0104037718491765	-0.00953406093332318	0.000889903996011063	-0.0030245551672061	0.000889015639811865	-0.00302701510920795	-0.000873620911419367	0.015789548345497
5.5	0.0096705229773755	-0.0102919648273303	0.000449974988312667	-0.00311913877698727	0.000462557627874708	-0.00311912121074972	0.0011925743267498	0.0145296816173387
5.6	0.00917994450696994	-0.010898828284309	1.62408522717126E-05	-0.00314831105640542	1.29434515967565E-05	-0.00314485212853674	0.00333966265887572	0.0135612177457094
5.7	0.00839179244243203	-0.0116339705408247	-0.000416580963251475	-0.00312213144840849	-0.000420298492609564	-0.0031258208853809	0.00534842367654321	0.0118817350469196
5.8	0.00746465912029372	-0.0121495465481786	-0.000851587745353876	-0.0030319414806217	-0.00085085841240292	-0.00303962654377169	0.00690516453289792	0.00964560849294327
5.9	0.00650036277406763	-0.0123977673205547	-0.00126887744068393	-0.00287891046819547	-0.00126727762629978	-0.00288306304872564	0.00783610944016673	0.00700218951381508
6	0.00545044999006964	-0.0125296706486459	-0.00165698481460769	-0.00267258694277178	-0.00165099603554911	-0.00267593702020356	0.0074581507013208	0.00413872692697734
6.1	0.00481646925926489	-0.0123607340472269	-0.00201424378381231	-0.00242210189371057	-0.00201010175853946	-0.00242686760375973	0.00675648443108513	0.00244061557519872
6.2	0.00433443708655999	-0.0126591724443865	-0.00233439909166498	-0.00210662708063141	-0.00233082298617144	-0.00211529179827569	0.00630607156588886	0.00061805703094694
6.3	0.00379124252729991	-0.0131600420263499	-0.00260187633272093	-0.00176740969335369	-0.00261169162277897	-0.00177516750919238	0.00567381787476386	-0.00136745426689349
6.4	0.00303019224920379	-0.0138265824492675	-0.00282877082081292	-0.0013822980451079	-0.00282678139143685	-0.00138809318109349	0.00472236938273485	-0.0035318786533105
6.5	0.00207314969878818	-0.0143762134954398	-0.00299362071046181	-0.000981063587204411	-0.00299402485633583	-0.000979941280908503	0.00289506329698346	-0.00535537420931448
6.6	0.00128958202369148	-0.0148107091753972	-0.0030991043082676	-0.000555585581622987	-0.00310977516785461	-0.00055859173472411	0.00134577975002802	-0.00641597943094748
6.7	0.000239985899578075	-0.01520042075012	-0.00314422344051527	-0.000120734363343524	-0.00314317997388399	-0.000114494072099385	-0.000640011979757083	-0.00744668367681371
6.8	-0.000856219927864948	-0.0152209113409344	-0.00312957522100889	0.000327816360550895	-0.00312866837741012	0.00033257776959824	-0.0030251069223189	-0.00779324025034486
6.9	-0.00184644610566116	-0.0151069881493236	-0.00304744873335738	0.000757920130734222	-0.00304787159698351	0.000762905486597485	-0.00537158285041906	-0.00759122473718928
7	-0.00291645753469571	-0.0148020416039729	-0.00291805694691442	0.00117637600946614	-0.00291947190634217	0.00117959405867556	-0.00822460848068303	-0.00668009969942776
7.1	-0.00359688060929168	-0.0143644988355529	-0.00271991586792683	0.00157559339672046	-0.00272233552448451	0.00158661623630965	-0.0100840835091953	-0.00425784648939463
7.2	-0.00444649422944775	-0.0141954143848206	-0.00247908470547364	0.00193705731200236	-0.00247926539081357	0.00194295406525987	-0.0109689212192345	-0.00192458278159881
7.3	-0.00555511468088522	-0.0138574452828096	-0.00218848110654939	0.0022620268839505	-0.00218571799284639	0.0022635002048923	-0.0112115143038876	0.000354181957261736
7.4	-0.00677531760893213	-0.0133390848471335	-0.00184623494329759	0.0025463238710098	-0.00183901485361136	0.002552845289173	-0.0108942483275086	0.00218230837673301
7.5	-0.00814848452436175	-0.0125354459267424	-0.00146789307275195	0.00278200921791363	-0.00146893357081653	0.0027799948796403	-0.0108170734589078	0.00353240509871506
7.6	-0.0088692333797667	-0.0112981488945118	-0.00107373518598979	0.00295794273977069	-0.00106307552352981	0.00296828561552867	-0.0102311753258426	0.00571870702784764
7.7	-0.00940098181633243	-0.0105197032565049	-0.000644610531486434	0.00308146549330456	-0.000639047611787927	0.00308111499812958	-0.0089837303520542	0.00701301939348729
7.8	-0.0096254637940533	-0.0100266304194487	-0.000198349315232257	0.00314250656457849	-0.000211993785206413	0.00313543457711005	-0.00764992387733336	0.00809869897310418
7.9	-0.00970875778950812	-0.00980582431739835	0.000226050991307137	0.00312875443697543	0.000237137787133149	0.00312844228546362	-0.00620801151002971	0.00899705233185756
8	-0.00992550194874748	-0.00960361461634005	0.000661378527521842	0.00307177413529818	0.000669663845187643	0.00306969511074531	-0.00513833811891634	0.010107535969908
8.1	-0.00983902881459608	-0.00952570830733905	0.0010918689198992	0.00294818553232889	0.0010895884787826	0.00294493487676506	-0.00271256543122189	0.011531785401971
8.2	-0.010196323243239	-0.00957957110643932	0.00148354629350844	0.002766405190769	0.00148272801926473	0.00277798533615501	0.000155162495673679	0.0117975774389328
8.3	-0.0107379837448962	-0.00940506857188951	0.00185631192025102	0.00253381102794619	0.00186138436166772	0.00253122567833456	0.00294558867526523	0.011265968503331
8.4	-0.0113075722174492	-0.00900432129672487	0.00220263512312437	0.00225261208658859	0.00219147979821724	0.00225301437210046	0.00543744468537435	0.00982873444917995
8.5	-0.0120061756906045	-0.00840872647190581	0.0024977602381309	0.00191766028701585	0.00249776932303113	0.00191901000135202	0.00667468361742028	0.00799360712890631
8.6	-0.0122935095734108	-0.00757441266224822	0.00272987807372623	0.00155816642464781	0.00272566932583763	0.00155585889920636	0.00814758380924598	0.00680685262789343
8.7	-0.0126278184628572	-0.00696986722736367	0.00291995016114345	0.00115884715901518	0.00291878798831684	0.00115843643630726	0.00965828638098278	0.00474048300553499
8.8	-0.012984111465041	-0.00621936743267612	0.00304877563306856	0.000740278410225302	0.00305974829985343	0.000738172984896251	0.0106145990291175	0.00211317144885766
8.9	-0.0131353811910643	-0.00542179216136589	0.0031222964184841	0.00031021894432664	0.00313164372749033	0.000303085850770355	0.011091526938216	-0.000926627766493684
9	-0.0131751137231731	-0.00469498456865536	0.00313604942381826	-0.000137645019692766	0.00314282044617036	-0.000132043479047442	0.0102783511096118	-0.00415003841329887
9.1	-0.0127437142365494	-0.00410433790187146	0.00308847625717851	-0.000570796274238113	0.00308869390678418	-0.000570988580626582	0.00918693568665678	-0.00651821908597718
9.2	-0.0124689411714218	-0.0040144715030312	0.00297305154675772	-0.000991641970333181	0.00297686904879103	-0.000991417940469146	0.00770167548177312	-0.00910984073219395
9.3	-0.0124560749283072	-0.00395744253183454	0.00280101616149675	-0.00140012359272222	0.00281904969528156	-0.00140055400873723	0.005435735355663	-0.0113795218137555
9.4	-0.0125757648416379	-0.00386961756786666	0.0025839308354659	-0.00177232400440636	0.00258725469500199	-0.0017833418032493	0.00252161097718147	-0.0132402283060336
9.5	-0.0129251965870026	-0.003428141638104	0.00231226788638263	-0.00212891969049773	0.00232705562203141	-0.00212957744649414	-0.00142999471071972	-0.0140259531713609
9.6	-0.0129810373637115	-0.00301491610630445	0.00199322734046713	-0.00242953911601716	0.00199354540217788	-0.00242252999726646	-0.00483850594208258	-0.0134237600694709
9.7	-0.0133300061003447	-0.00265143416518244	0.00163225353472104	-0.00268317147079642	0.00164054405286579	-0.00268475159536064	-0.00803296913687321	-0.012607910917479
9.8	-0.013774253926324	-0.00201144884187346	0.00124894474218548	-0.00287928442797267	0.00124712831770795	-0.00288792754377647	-0.0111760685525142	-0.0112274855890824
9.9	-0.0141134911480772	-0.00105959167901472	0.000839304839435001	-0.0030254950440101	0.000827436565152375	-0.0030281228554888	-0.0142458566286275	-0.0093618762683131
10	-0.0143687575515938	2.33334112600025E-05	0.000405653260389023	-0.00310359726317439	0.000404847338043646	-0.00311090945350736	-0.0176662042198669	-0.0067322254951539
10.1	-0.0140112115622081	0.00120642370713526	-2.68690839748088E-05	-0.00314050743931538	-3.15050468041833E-05	-0.00314328034917167	-0.0198769505518514	-0.00252069222433097
10.2	-0.0135969926307058	0.00202907301418079	-0.000466383509627183	-0.0031017539530243	-0.000478971122572339	-0.00310552952964736	-0.0207700227504882	0.00160184646443699
10.3	-0.0131431075526312	0.00284103159120643	-0.000898398554045253	-0.00300003815841678	-0.000898163636600733	-0.00301341790127475	-0.0207829657554004	0.00568293216896316
10.4	-0.0124948933549858	0.00355110585734007	-0.00130726658310073	-0.00285265495029103	-0.00131043677063312	-0.00285053095672402	-0.0199229306538997	0.00922239411768646
10.5	-0.0118201820601825	0.0042046363684121	-0.0016896265632231	-0.00263484679534882	-0.00169578154604036	-0.00264210610823273	-0.0192605663163939	0.0126747532472073
10.6	-0.0107253273172504	0.00462802919425058	-0.00204952799653267	-0.00237985796014043	-0.00205102063677858	-0.00238496971286734	-0.0174238453638354	0.0167328888114166
10.7	-0.00987538312271039	0.00469670777697875	-0.00235711894390207	-0.00206762040738196	-0.00236030917082707	-0.00208364865241085	-0.0146662606967713	0.0202527601833662
10.8	-0.00919936670783877	0.00474463177801941	-0.00262421629037335	-0.00172028195762537	-0.00262127725954378	-0.00172244430434805	-0.0112476835775721	0.0232781273709378
10.9	-0.00849113460860931	0.00474201431642857	-0.00284137213170092	-0.00134326154685467	-0.00284064661607335	-0.00134838436035876	-0.00711688076581911	0.0254984849437378
11	-0.00793498964015022	0.00477731433868553	-0.00300625324800395	-0.000928555891822632	-0.00299922551319955	-0.000932839291322504	-0.0032666250539064	0.0271315836717509
11.1	-0.00704338885422208	0.00472444905678163	-0.0031023073515041	-0.000510338918507765	-0.00309456976134418	-0.000502034411524845	0.00182065650134815	0.0287777778531975
11.2	-0.00643785864299407	0.00429008261093802	-0.00314238374165125	-6.85530522979122E-05	-0.00314898467555848	-6.53479432788436E-05	0.00766907554507161	0.0288178255741077
11.3	-0.00599023960924154	0.00386823698344892	-0.00311987096777518	0.000372122896231221	-0.0031230343704423	0.00036995563554993	0.0136941580420178	0.0274313954284717
11.4	-0.00573006611966009	0.00348036718544426	-0.0030341341148856	0.000802953135986753	-0.00303876556591295	0.000803102636596117	0.0192797982629507	0.0244439546896818
11.5	-0.00568212788381632	0.00323467397968853	-0.00290145519478807	0.00121308570833335	-0.00289393858337262	0.00121784474008043	0.0232541966319828	0.0203948312717076
11.6	-0.00529652941006192	0.00296013032968008	-0.00269800161753121	0.00160646162895769	-0.00270612312132886	0.00161616007252963	0.0271380572133162	0.0162294580957657
11.7	-0.00520491263615046	0.00248300870961857	-0.00244482410481462	0.00197327996779568	-0.00244657687080492	0.00197697070202739	0.0304523939866548	0.0106755606987569
11.8	-0.00517610459195176	0.00228888347633489	-0.00214654859746341	0.00229784832255459	-0.00215576407147375	0.00230764369692506	0.0325271537291575	0.0043236384716492
11.9	-0.00492965855682053	0.00219399031128896	-0.00180661465743031	0.00257108629222001	-0.00180664987927639	0.00257764871620691	0.0329355146082138	-0.00245386151918288
12	-0.00478935372007942	0.00213050456416268	-0.00142622953340993	0.00279490332688377	-0.00143072351897203	0.00279768794648966	0.0309899084621912	-0.00866801725752046
