# GHZ S RI R 50
0.2	-0.0143089830227035	0.00452078171265224	0.00304955776477379	-0.000883661558196632	0.00306003178424367	-0.000883499362840912	0.00559671398061741	0.000111935451287407
0.3	-0.0134361631915962	0.00528043221610953	0.00290494930654784	-0.00130021630417153	0.00289866656806572	-0.00131188600678526	0.00597295681668183	-0.00189238809667242
0.4	-0.0126577639109798	0.00637374207203795	0.00269242068899778	-0.00169595862909423	0.00269031300720062	-0.00169787765378472	0.00556211513620192	-0.00335639571198973
0.5	-0.0112022075162556	0.00693747289191269	0.00242265982585889	-0.0020560313657593	0.00242548436860456	-0.00205976498176217	0.00536496186413892	-0.00504246503755711
0.6	-0.0110911693259934	0.00695554643361775	0.002108991109935	-0.00237689171137673	0.00210824800578075	-0.0023797415806077	0.00350630150108719	-0.00693711546299036
0.7	-0.010956046812052	0.00793373854012288	0.00175849632735502	-0.00264840817432535	0.00176472289575617	-0.00265250749585331	0.00147199718489365	-0.00746349063138109
0.8	-0.0104689983051596	0.00892454404331149	0.00136417956537092	-0.00287047809977645	0.00137247672143275	-0.00286887114762309	-0.0004674940463456	-0.00752360350487355
0.9	-0.0101061259408881	0.0101348224789077	0.000957556235745116	-0.00302435624538663	0.000957539506006844	-0.00303380326331908	-0.00246252686208662	-0.00694552510024987
1	-0.00850757704400326	0.0117601516929343	0.0005222228866923	-0.00313179980611479	0.00052207406237676	-0.00313717203131448	-0.00328579286402468	-0.00556412399173637
1.1	-0.00719160524527195	0.011215279258129	7.49066299628121E-05	-0.0031726764125029	7.57992663492582E-05	-0.00317741760065271	-0.00432352838691127	-0.00565773483650585
1.2	-0.00699063470714157	0.010996718799624	-0.000366346614002424	-0.00314693095104417	-0.00036511372402565	-0.00316378645022434	-0.0057667033473343	-0.00469491973954511
1.3	-0.00700588004057671	0.0105376682090198	-0.000800338512796315	-0.00307259350874053	-0.000805297118558211	-0.00308027674843061	-0.00630317751736372	-0.00351774664779835
1.4	-0.00714367762949846	0.0103668356712552	-0.00122845409053009	-0.00292597489486671	-0.00123088208192545	-0.00293312947154954	-0.00634961226831142	-0.00240354659605397
1.5	-0.0060667940113873	0.0102912079084082	-0.0016202438955006	-0.00272780442626558	-0.00161826484627411	-0.00273336668534595	-0.00551934401315453	-0.00178436563039555
1.6	-0.00592720698664466	0.0103903702061087	-0.00198740963466858	-0.00247181642379959	-0.00199089641456981	-0.00247269823603064	-0.00619728261508672	-0.000833063906493439
1.7	-0.0049990917523504	0.0113262550125971	-0.00231522487744323	-0.00217446461367803	-0.00231729324368072	-0.00218309027851744	-0.00585740005243405	0.0010219486426554
1.8	-0.00382249163081278	0.0120600730395886	-0.00259334136659905	-0.00182219018934417	-0.00259854992574677	-0.00182766793335917	-0.00506120506974429	0.00249793849667344
1.9	-0.0024998497699557	0.0127396539577829	-0.0028194669940184	-0.00145097334650687	-0.00281593044107948	-0.00144476110250673	-0.00389308092123672	0.00393077858189508
2	-0.000332765758954389	0.0126429167753627	-0.00299807206105527	-0.00103711534554062	-0.00300081451861201	-0.0010302288717295	-0.00179827647272905	0.00453844780694149
2.1	0.00020604001994987	0.011511408813539	-0.00311324258868867	-0.000598212020948339	-0.00311537600211273	-0.000604936343640869	-0.000947925466584909	0.0041666207175486
2.2	0.000489687597105499	0.0114615758365472	-0.00316440666388799	-0.000163593352196956	-0.00316619486586522	-0.000153814563279145	0.000217740860861637	0.00443459904121307
2.3	0.000850156239031593	0.011460956239586	-0.00315419794848098	0.000281445380156197	-0.00316099645287537	0.000278547049671584	0.00160293536039283	0.0042132583646045
2.4	0.00119173259275442	0.011865990361794	-0.00309260653274098	0.000719377780605057	-0.00309136519816121	0.000734567034262704	0.00297345197820929	0.00384570444387523
2.5	0.00269591099632045	0.0123364512469779	-0.00295267208032928	0.00115700754792036	-0.00296573124169483	0.00115838563390759	0.0051377465611834	0.00294513403906427
2.6	0.00362705522685239	0.0113313557026261	-0.00275590533758769	0.00155159599100429	-0.00277688255819103	0.00155564514091385	0.00623311490334999	0.000443397984126467
2.7	0.00405426092498709	0.0109656809303769	-0.00252043144416639	0.00192034648829202	-0.00252068172170464	0.00192545251386565	0.00641393914865703	-0.00158516739528939
2.8	0.0046302984891216	0.0108015824085948	-0.00222137787536865	0.00224547068484654	-0.00223117693127275	0.0022567671762557	0.00623368069117879	-0.00338475440100387
2.9	0.00556447330422723	0.010873340173655	-0.00187932306744246	0.00253810546977274	-0.00187732579241576	0.0025470303404727	0.00602179851616475	-0.0047634991844182
3	0.00736873806668884	0.010253115147836	-0.00150242554999296	0.00277578696330505	-0.00151763218399658	0.00276283665603782	0.0062493045289774	-0.00656900992053459
3.1	0.00787720960616828	0.00897179488589854	-0.00110372804571754	0.00295554477767705	-0.00112066647450766	0.00296107339138914	0.00500926777900391	-0.00872418318428801
3.2	0.00833372996824912	0.00837878703830079	-0.000681717962762071	0.00307833060340467	-0.000677364862703034	0.00308912732833327	0.00351549068507032	-0.00997034011004678
3.3	0.00879942749102606	0.00772481559726825	-0.000249605582967836	0.00314565646344254	-0.000246335243071076	0.00314124564013165	0.0019054406407529	-0.0111295034468455
3.4	0.00925307843284401	0.00733768002806523	0.000197016392071464	0.00314760070797705	0.000187592121376778	0.00314875343474219	0.000132887949704794	-0.0119768835375339
3.5	0.0105086316056775	0.00652328199087435	0.000626897885374203	0.00308712937031355	0.000631897120528786	0.00308576570681976	-0.00132288852491312	-0.013110985931196
3.6	0.0104399890149108	0.00491122121065338	0.00104814005615939	0.00296583798124394	0.00105476773647201	0.00296928504219279	-0.00430528047628388	-0.0142392810864991
3.7	0.0101475358444262	0.00434786392713976	0.00146432064253744	0.0027841586729902	0.00146270098580994	0.00280054262704182	-0.00725969838484836	-0.0139261734243274
3.8	0.0101685852340835	0.00405553040611532	0.00182976047709318	0.00255305763252288	0.00184040283440648	0.00255932357300838	-0.00994301545111556	-0.0131160234236834
3.9	0.0106077813691269	0.00405912627080639	0.00217288021559361	0.00227254192029902	0.00216828664251153	0.00227247926833828	-0.0123401368507432	-0.0116540200086583
4	0.0121965637452227	0.00333815745747118	0.00246358397481441	0.00195285211532581	0.0024750654170836	0.00195890676076437	-0.0137537985734046	-0.0102812856788792
4.1	0.012317316629521	0.00146663723802368	0.00271199185783212	0.00158038797415308	0.0027286173534795	0.00159001349673024	-0.0161449394863167	-0.00896630437779694
4.2	0.0120939881908468	0.000517070616837828	0.00290725914850775	0.00118188653373006	0.00290850831765556	0.00118415704727256	-0.0180557727728227	-0.00638386275337233
4.3	0.0119449383946866	-0.000211034417835986	0.00304482125440362	0.000774275077373023	0.00304607165722495	0.000782825609715729	-0.0192463164242627	-0.00359569619042725
4.4	0.0118599942760167	-0.000605542211342594	0.00312034242400979	0.000339888724167667	0.00312820485331094	0.000335203686214837	-0.0198762867723383	-0.000389571431890418
4.5	0.012842008261016	-0.0013305749600122	0.00313836045500696	-0.000107371151224189	0.00313520148471359	-0.00010508832203135	-0.019073461271511	0.00244560013959386
4.6	0.0124322502998224	-0.0032507639035336	0.0030761900113899	-0.000548514105850744	0.00308925386319838	-0.000536705190252762	-0.0190857792215646	0.00438868186597538
4.7	0.0116977933140855	-0.00408934554063515	0.00297084488825371	-0.000956020120548174	0.00297067886974026	-0.000965400377279395	-0.0187415343623898	0.00711203090157061
4.8	0.0110534614904064	-0.00472024777688158	0.00281934051324779	-0.00135414893661145	0.0028115902220928	-0.00137415191907	-0.0176680486843144	0.00985176716865315
4.9	0.0107035964492301	-0.0048972017855284	0.00260041317727234	-0.00174737740782172	0.00259444384594719	-0.00173894534556456	-0.0158906244234542	0.0125782572470164
5	0.0114706831739821	-0.00566982129445237	0.00232065996815588	-0.00207028559594882	0.00232329864793971	-0.00208262254589622	-0.0127042261238251	0.0143492824968713
5.1	0.0108398377940601	-0.00723402141593695	0.00200363403633058	-0.00238569255464117	0.00201676164552132	-0.00238330102056278	-0.0104805511165709	0.0152493667277049
5.2	0.0102591896752406	-0.007824321933031	0.00166355958382728	-0.00263851633398884	0.00166403689324077	-0.00264264520553983	-0.00762382788768548	0.0163590908598078
5.3	0.00995093568428742	-0.00838047206892388	0.00127610681203588	-0.00284472418483909	0.00127238371720005	-0.0028472570724917	-0.00444742382205361	0.0167108668041435
5.4	0.0098236574130389	-0.00867249544997132	0.000868887052425422	-0.00299723588060622	0.000867998037415724	-0.00299966723643428	-0.00122097293953375	0.016470551809966
5.5	0.0106634241727296	-0.0098872753601865	0.000440101243416439	-0.00308770576294797	0.000452554067228206	-0.00308770947709156	0.00231952068520602	0.0147096368775879
5.6	0.00917557043440496	-0.0118147752575992	1.1019826308785E-05	-0.00311980595560362	7.75788199582932E-06	-0.00311637305981968	0.00342328442399272	0.0124632235356637
5.7	0.00758194419235246	-0.0121254070691538	-0.000417741251125066	-0.00309213573100745	-0.00042142986487013	-0.00309578448206052	0.00460898834273635	0.0112060109618607
5.8	0.00635987935857826	-0.0121063024842065	-0.000846193985196892	-0.00300120053304602	-0.000845479457926105	-0.00300881053785502	0.0058384270363935	0.00950322529579734
5.9	0.00531664229937282	-0.0113825490816185	-0.00125529824258753	-0.0028507216188203	-0.00125371293559845	-0.00285483238701537	0.00664773567592115	0.00784551053970781
6	0.00618096552574191	-0.0108864525683912	-0.00164127211137359	-0.00265165952429133	-0.00163533049659246	-0.00265497740046082	0.00816854788903006	0.00564552135125941
6.1	0.00573502641796303	-0.0125614322729046	-0.00199652476221226	-0.00240000919867641	-0.00199242072923679	-0.00240473273139043	0.00764478547065324	0.00210529414560206
6.2	0.00445241289431586	-0.0132595284069259	-0.00231040946334194	-0.00208788514461621	-0.00230686194666819	-0.00209646373021022	0.00636995904102441	-9.55037001809416E-05
6.3	0.00328658174591231	-0.0136217863091018	-0.00257398095521422	-0.00175484303898294	-0.00258368918299654	-0.00176254300014091	0.00511737388412732	-0.00191844508548567
6.4	0.00242848383157258	-0.013487051966985	-0.00280084057194201	-0.00137661145286913	-0.00279885541005434	-0.00138235128349616	0.00406970769520065	-0.00325997806235633
6.5	0.00273263776456454	-0.014556346124272	-0.0029658893106714	-0.000975638857817027	-0.00296629109948622	-0.000974526987997367	0.00352134593736533	-0.0056001794762337
6.6	0.00075915619470637	-0.0156496461256449	-0.00306572456848686	-0.0005572809874351	-0.00307627787040124	-0.000560281674235686	0.000775625706043622	-0.00730564625253995
6.7	-0.00063192072402242	-0.0154064258273652	-0.00311243505046862	-0.00013114150479006	-0.00311142502903136	-0.000124959565152854	-0.00154064794459517	-0.00768822488450152
6.8	-0.0017914653446175	-0.0149739151997658	-0.00310155180316305	0.000311393628712018	-0.00310067378206657	0.000316114142176138	-0.00397135685517963	-0.00758039007630503
6.9	-0.00254489659527559	-0.0138671511854738	-0.00302243922585097	0.000738512268105856	-0.00302287850807163	0.00074344993440036	-0.00605600275205295	-0.00638911594234762
7	-0.00144406624214381	-0.0139068042001035	-0.00289211031812834	0.00114918318420262	-0.00289352575588001	0.00115235924109343	-0.0067402131696755	-0.00587977860291139
7.1	-0.00307350702859321	-0.0152395682047567	-0.00270433433131009	0.00154036536294901	-0.00270680952342643	0.0015512615465638	-0.00959555117149245	-0.00522857356614056
7.2	-0.0048296061093623	-0.0148107642167588	-0.00247191030839173	0.00190084596505299	-0.00247213459022467	0.00190668894943368	-0.0113949289730869	-0.00262778773367924
7.3	-0.00640510012646356	-0.0140316322651035	-0.00218781034889708	0.00222532402053378	-0.00218508252256614	0.00222680675656625	-0.0121103549890815	8.93188992189069E-05
7.4	-0.0079356826089397	-0.0123430686344846	-0.0018519682773108	0.00250769144359765	-0.00184486890344394	0.00251421770270723	-0.0121160756559716	0.00308921487555767
7.5	-0.00713199351118471	-0.0106735939107575	-0.00148744201215086	0.00274347981159771	-0.00148845166942389	0.00274146978660174	-0.00994690679562377	0.00528442528631698
7.6	-0.00767593287046714	-0.0113535743220392	-0.00110026604747395	0.00292934863945718	-0.00108978080408817	0.0029397504564171	-0.00914374381311949	0.00556320386843862
7.7	-0.00868012466314041	-0.0108273123040786	-0.000674553232967286	0.00305839253169195	-0.000669015597540527	0.00305810400518858	-0.00845306203806026	0.00663491769940998
7.8	-0.00918160909258901	-0.0103098978737912	-0.000232884779941255	0.00312487188613331	-0.00024638250647145	0.00311768037231648	-0.00741523656559828	0.00776232411915117
7.9	-0.00906724551938606	-0.00962873342410008	0.000185962744510099	0.00311888848653941	0.000197008459748111	0.00311871640469177	-0.00578865630497074	0.00907541030654728
8	-0.00793894099856812	-0.0107585470266025	0.00062239206398502	0.00307609910134957	0.00063069271237977	0.00307412560635078	-0.00340105348174851	0.00902381158503099
8.1	-0.00969014089781808	-0.0117426428301034	0.00105790070944983	0.00295641589213169	0.00105565911831915	0.0029531442753779	-0.00286857184224007	0.00938919505575293
8.2	-0.0110002665819427	-0.0111939125473481	0.00145006121676762	0.00278014931948517	0.00144911108722767	0.00279170638278153	-0.000946119439814026	0.0103282506710955
8.3	-0.0120743158089566	-0.0103755517885709	0.00182543276017287	0.00255533127044521	0.00183053473660237	0.00255280741774927	0.00133985765514743	0.0105125690465723
8.4	-0.0127675053212505	-0.00870349848045479	0.00217898169022091	0.00228210422728469	0.00216780546306688	0.00228237420527779	0.00377534075541327	0.0104076191350866
8.5	-0.0114575464915509	-0.00800064605959125	0.00248357525886364	0.00194555287832476	0.00248357117494956	0.00194690513926377	0.00708754201560141	0.00864556993531538
8.6	-0.0125626232554515	-0.00868946719949593	0.00271571112798679	0.00158833412388449	0.00271152322028983	0.00158598016781912	0.00771190138622304	0.0059745136263048
8.7	-0.0137828784821177	-0.00770764861111555	0.00291235818855061	0.00119366047576192	0.00291119847212129	0.00119323598999386	0.00841004191811212	0.00435090985724435
8.8	-0.014578996648584	-0.00635948771471543	0.00304971916149944	0.000775985864528084	0.00306074763866219	0.000773994748775077	0.00901934349290294	0.00234033809641626
8.9	-0.0148321224821049	-0.00436185799232149	0.00313042131675494	0.000342199079828052	0.00313987265144289	0.000335132828679704	0.00949183607050492	0.00045588883445909
9	-0.012924585885748	-0.00322327874924261	0.00314405963664318	-0.000105987910584639	0.0031507878630498	-0.000100305589991998	0.0106115807467046	-0.00241972480872782
9.1	-0.0126859167172935	-0.00385014063832433	0.00310681972957991	-0.000536809814353503	0.00310704045155621	-0.000537000300079535	0.0093631108299458	-0.0059892291736246
9.2	-0.0125904481372356	-0.00367752033331722	0.00299958440062206	-0.000963630355193893	0.00300341926550645	-0.000963362566835519	0.00774646450653014	-0.00854468265055088
9.3	-0.0125328309582169	-0.00359768742087319	0.00283185734807659	-0.00137894399575628	0.00284999971355356	-0.00137918839117684	0.00554306351162863	-0.010832586087581
9.4	-0.0123795030990734	-0.00300378683485491	0.00261630144466442	-0.00175539816982473	0.00261975692971307	-0.00176644194070877	0.00292148660327568	-0.0122522384378234
9.5	-0.0112906430072669	-0.00364316485077013	0.00235391318604324	-0.00211509108731461	0.00236880902911049	-0.00211557271514179	0.000403605940328883	-0.0141413381780645
9.6	-0.0128065252145204	-0.00440745410324748	0.00203795921573011	-0.00243044482948899	0.00203820436858613	-0.00242336742546093	-0.00449010873568769	-0.0147816157038377
9.7	-0.0139227859811407	-0.00357004515872549	0.00167393430545387	-0.00269343998190443	0.00168232039579318	-0.00269495550655062	-0.0084858530937998	-0.0135251720737582
9.8	-0.0146910087752082	-0.00242744650784241	0.00128799775432989	-0.00289655096217355	0.00128624291157555	-0.0029052972583882	-0.0119858311230541	-0.0116690187055932
9.9	-0.014994979018583	-0.000523424887401258	0.000877547603936813	-0.00305042737610396	0.000865575137151935	-0.00305319795610993	-0.015011805590699	-0.00885534049438319
10	-0.0133501783402742	0.000336971355694106	0.000437019628655481	-0.00314322236543995	0.000436263204079261	-0.0031506425293296	-0.016599943638229	-0.00650532982546424
10.1	-0.0138358123034503	-7.01941257278307E-05	-9.10500353488397E-06	-0.00318298233835177	-1.37874340244907E-05	-0.00318581937190787	-0.0197325486342415	-0.00386606224152236
10.2	-0.0143805228389764	0.000899557940472693	-0.000456494775131806	-0.00314556525494915	-0.000469230740560377	-0.00314945659754488	-0.0216315521334929	0.000441415305773839
10.3	-0.0145315289104316	0.00225857664886988	-0.00089700423676287	-0.00304609458398846	-0.000896703884136771	-0.00305966002744375	-0.0222795593287841	0.0051135018050194
10.4	-0.0138761347608394	0.00420834032364414	-0.0013176494844181	-0.00290094859841313	-0.00132087562589201	-0.00289880275008818	-0.0214270498306716	0.00993645427977783
10.5	-0.0113201628889576	0.00471317010621476	-0.00171488246783409	-0.0026740613545128	-0.00172112938486975	-0.00268142866417481	-0.0188785188421915	0.0132632228388203
10.6	-0.0108435857691092	0.00396714196296533	-0.00207626527623674	-0.00241118929626269	-0.00207777718949136	-0.00241636817386794	-0.0176925577396521	0.0162085533193826
10.7	-0.0104919161896154	0.00408435449975335	-0.00238892443539832	-0.0020951548636454	-0.00239215886653452	-0.00211139787480201	-0.0154210869627447	0.0198666998263575
10.8	-0.0102388750329973	0.00437565567035944	-0.00266232759799668	-0.00174123854512661	-0.00265935027271788	-0.00174343392787671	-0.0123916457078264	0.0232790089166053
10.9	-0.00964646958357223	0.00539051891075856	-0.00288379841575374	-0.00135291377181197	-0.00288307842623452	-0.00135810799970488	-0.00818975799975624	0.0265258698044057
11	-0.00728405391636389	0.00511362011961655	-0.00304222143048632	-0.000929791143830633	-0.00303512896561758	-0.000934142897281898	-0.00247863895565547	0.0277707391479505
11.1	-0.00744555291664306	0.00387278121824655	-0.00314102974963988	-0.000510141515097402	-0.00313318108696527	-0.000501752116647876	0.00157822000144413	0.0282733369025764
11.2	-0.00752999587718949	0.00388674464904288	-0.00318257160461903	-5.92005464875654E-05	-0.00318924606055271	-5.59331974072386E-05	0.00683854223833513	0.0287594768535719
11.3	-0.00741902870764549	0.00415426822978852	-0.00315672335214932	0.000390861837295349	-0.00315993565576173	0.000388682144307864	0.0125665925574448	0.0280492780376491
11.4	-0.00700652608520823	0.0049124570644214	-0.00306343928510768	0.000827137247632393	-0.00306812091469368	0.000827311828777251	0.0183857389671503	0.0261083111032288
11.5	-0.00504494629874231	0.00428868686010044	-0.00293098587862602	0.00123711031895189	-0.00292336569287013	0.00124189885257157	0.0243205699387519	0.0215901834601968
11.6	-0.00555196015513933	0.00288815875052695	-0.00272454640935147	0.00164216615448504	-0.00273272134056638	0.00165203568337704	0.0273933067165934	0.0162287689059199
11.7	-0.00595438262181075	0.00293320225984191	-0.00246132574272593	0.0020147526735734	-0.00246307446828884	0.0020185013129761	0.0302419810477724	0.0110572171760296
11.8	-0.00587212297093172	0.00339292318564388	-0.00215387370863508	0.00234063255719718	-0.00216312115888993	0.00235061080776956	0.0323431628008248	0.00525253020153905
11.9	-0.00466506430786903	0.00430380971069217	-0.00180868497013855	0.0026135542074056	-0.00180867314271219	0.00262019193793723	0.0336519318585346	-0.000678198677099708
12	-0.00213602496300564	0.0030271240802754	-0.00142029042572072	0.00284534760094127	-0.00142481985494079	0.00284821011561537	0.0340395263139082	-0.008251603123424
