# GHZ S RI R 50
0.2	-0.01409126280179	0.00463915922689688	0.00304815220138698	-0.000884235232195655	0.00305862234209917	-0.00088407620587578	0.00581351744364782	0.000233434736856332
0.3	-0.0132062002464703	0.00532878013652561	0.00290299848079674	-0.00130067557766457	0.00289671442764752	-0.00131233703858576	0.00619723678952173	-0.00184049465345288
0.4	-0.0124463024354036	0.00623630257900361	0.00268982838206662	-0.00169594070847045	0.00268772133535374	-0.00169785749948051	0.00575974508269038	-0.00348858615709234
0.5	-0.0113539915004398	0.0068533428549319	0.00242006678551084	-0.00205484657683059	0.00242288797928918	-0.00205857765746504	0.00518500331312346	-0.00511034238647857
0.6	-0.0110281349332298	0.00716944325772128	0.00210682354866089	-0.00237552998141042	0.00210608037557459	-0.0023783774791145	0.00353862903273565	-0.00668487325640305
0.7	-0.0107318706817807	0.00806152982580548	0.00175624862954662	-0.00264656696454044	0.00176246865719439	-0.00265066437768622	0.00167374804190122	-0.00727917404857083
0.8	-0.0101526648143414	0.00898366719275211	0.00136217527667678	-0.00286788468040682	0.00137046442402019	-0.0028662811674153	-0.000158583683274299	-0.00739558491764984
0.9	-0.00961295239712661	0.0100026276181279	0.000956346398824861	-0.00302103156929546	0.000956329241446202	-0.00303046806001914	-0.00195412870537147	-0.00700857579482324
1	-0.00832064310357828	0.0111251341490144	0.000522058226438506	-0.00312891847913476	0.00052191006365463	-0.00313428586423817	-0.00307387882287759	-0.00615958782571343
1.1	-0.00733215942522238	0.0109056357594652	7.44949269478367E-05	-0.00316961318473601	7.53861923734189E-05	-0.00317434987868087	-0.00446417767898649	-0.00593677210512348
1.2	-0.00709135599156478	0.0106959870104993	-0.000366016517445354	-0.00314339527782371	-0.000364785439675719	-0.00316023192096843	-0.00588735191711773	-0.00495623451130854
1.3	-0.00720574908155344	0.010280355460801	-0.000799067587124789	-0.00306911149400597	-0.000804019578012034	-0.00307678635471324	-0.00653613523973942	-0.00372152969726388
1.4	-0.00728650951346466	0.0101715434208803	-0.00122647785275424	-0.00292315760482539	-0.00122890162202542	-0.00293030515998164	-0.00652473095575415	-0.00252828770249764
1.5	-0.0063891996943681	0.0102508725778481	-0.00161870750744658	-0.00272503103072256	-0.00161673060223288	-0.00273058779342834	-0.00587203207213792	-0.00173180623466551
1.6	-0.00584922122753057	0.010591166893046	-0.00198450649455146	-0.00246855685336228	-0.0019879884208142	-0.00246943769551272	-0.00613093166127266	-0.00050790806191262
1.7	-0.00475632999398399	0.0113498855118285	-0.00231133419572779	-0.00217216303746105	-0.00231339701175512	-0.00218077736373345	-0.00559049323287319	0.00117155383130022
1.8	-0.00352353250980469	0.0119562437286184	-0.00258916857305249	-0.00182088287004963	-0.00259436798897605	-0.00182635559893004	-0.00471662085560538	0.00250279836867609
1.9	-0.00220498639394459	0.0123825979672063	-0.00281543707109981	-0.00145013322226441	-0.00281190709263148	-0.00144392752795097	-0.00355071507881927	0.00365678297536416
2	-0.000564447329393733	0.012222487200616	-0.00299281667033008	-0.0010362845578882	-0.00299555662477039	-0.00102941026145544	-0.00201423989694386	0.00418668850530332
2.1	7.451433579868E-05	0.0115847035578091	-0.00310757406811863	-0.000599698199333758	-0.00310969855956379	-0.000606413011360321	-0.00108023040565552	0.00433741294283646
2.2	0.000593590530107403	0.0115415040945467	-0.00315951193749387	-0.000166223015301901	-0.0031613063420096	-0.000156460517662869	0.000333724869593073	0.00463283461598365
2.3	0.00111817519742633	0.0114782622685384	-0.00314981472038278	0.000278093378208151	-0.00315660051310526	0.00027519298478529	0.00190548654656298	0.00435427595864339
2.4	0.00165903367990055	0.0116343666590702	-0.00308824581478536	0.000715170402062171	-0.00308702139082435	0.000730335993384246	0.00350282592391313	0.0037235048389683
2.5	0.00278846417172607	0.0116278652581556	-0.00294928822163026	0.00115036357054404	-0.00296232657863602	0.00115171884422782	0.0052854770841073	0.00230343571301248
2.6	0.00339157595739741	0.0109506329722478	-0.00275511884156164	0.00154502885187059	-0.00277607697936097	0.00154903760262005	0.00601052692479051	0.000120808059824213
2.7	0.00381271555807619	0.0107636838121651	-0.00252056390116862	0.00191401843358917	-0.00252082212458476	0.00191911804500728	0.00616217755459232	-0.00170900785432954
2.8	0.00449362710493122	0.0107431078622116	-0.00222254627547547	0.00223892653651615	-0.00223235287841191	0.00225019247285409	0.00608389392028253	-0.00334024605378978
2.9	0.00558038123643576	0.010717892772035	-0.00188228083550582	0.0025311637379076	-0.00188030436690927	0.00254008193247935	0.00603489968246696	-0.00480708595958153
3	0.00707320153962156	0.0100561495699777	-0.00150814122485607	0.00277065894228491	-0.00152330859988329	0.00275767999792993	0.00593600911241678	-0.00665777792973943
3.1	0.00776865285525259	0.0091391792964827	-0.00110895127563371	0.00295214276267533	-0.00112589306458461	0.00295763633274715	0.00487278912191119	-0.00839830892195395
3.2	0.00842857357942039	0.00849639343953261	-0.000687545451585971	0.0030754011891396	-0.000683216213109454	0.00308620116467141	0.00360871370351995	-0.00967068146741394
3.3	0.00902241008303137	0.00777534926781136	-0.000256393498887964	0.00314390421740605	-0.000253114760662611	0.00313950224165093	0.00216111250939297	-0.0108910351624647
3.4	0.00960215761135152	0.0071745664960798	0.000189673777928938	0.00314809517334322	0.000180246713392725	0.00314922592170675	0.000541787049132997	-0.0119745473266528
3.5	0.0104695015147676	0.00618288927284866	0.000621670932850968	0.00308936187295118	0.000626674399077823	0.00308800654692475	-0.00132884337916963	-0.0133054833950394
3.6	0.0104959665777599	0.0049787740164823	0.00104282644186343	0.00296743293506681	0.00104944748770118	0.00297089137929271	-0.00420839839933901	-0.0139925057171449
3.7	0.0104833793134077	0.00432926057983098	0.00145880284380994	0.00278718694045947	0.00145715035300215	0.00280356823605214	-0.00684411291066512	-0.0137640865090737
3.8	0.0106479832190677	0.00380670913007259	0.00182512336407717	0.00255748594325181	0.00183575609944146	0.00256377518579063	-0.00935261649417185	-0.0132145663578239
3.9	0.0110698289140307	0.00338286972527829	0.00216998970431097	0.00227747963080683	0.00216539394523318	0.00227740890989134	-0.0117630972065343	-0.0122337033541756
4	0.0119113691979228	0.00242048391723541	0.00246048848006138	0.00195656357415316	0.00247196017798998	0.00196263563325636	-0.013965263409077	-0.0111439181916483
4.1	0.0118553535239058	0.00119229480127402	0.00270868269799704	0.00158641298986763	0.00272528804484461	0.00159607544449617	-0.0165821522103381	-0.00918244574634807
4.2	0.0118227665610943	0.000457350534818302	0.00290590803841351	0.00118885151651346	0.00290715271725011	0.00119112579297027	-0.0183244973547568	-0.00636689058453949
4.3	0.0118578758188163	-0.000204891535116479	0.00304504196626957	0.000781088196480915	0.00304627529986111	0.000789646487116016	-0.0193375311664886	-0.00350136702732898
4.4	0.0119694761937131	-0.000757254882444567	0.00312109756972729	0.000346172825581677	0.00312897278660314	0.000341501095158674	-0.0197669641205614	-0.000465288906634358
4.5	0.0125239794508986	-0.0016947186067809	0.00313974704211387	-9.90552537958263E-05	0.00313658088746258	-9.67800323183485E-05	-0.0194444468092754	0.002107344453029
4.6	0.0121407408995463	-0.00304231217677782	0.00308144155581076	-0.000540985005683226	0.00309449000072928	-0.000529126703291216	-0.019516337201629	0.00467746761125336
4.7	0.0117188236088501	-0.00380418756971966	0.00297731657997148	-0.000950439939405007	0.00297717224899792	-0.000959833962860691	-0.0188705967117148	0.00754645723067584
4.8	0.0113043448379788	-0.00448069997661091	0.00282642913449479	-0.00134980747400739	0.00281871232384162	-0.00136985660326416	-0.0175538301805377	0.0102877668840628
4.9	0.0111771896387891	-0.00490442583414185	0.00260853435106641	-0.00174352900809103	0.00260253547843972	-0.00173509929696767	-0.0155335550459158	0.0127771324891018
5	0.011557474721034	-0.00589622768937892	0.00233168421096127	-0.0020690745640823	0.00233436188482711	-0.00208143395640075	-0.0127748692404229	0.0143515195686724
5.1	0.011164539633198	-0.00709379366655137	0.00201303890085666	-0.00238822668923907	0.0020261958962168	-0.00238580554332772	-0.0102825481487914	0.0157035861546149
5.2	0.010869383198099	-0.00795584845979122	0.00167193953690335	-0.00264214180090415	0.00167242482331968	-0.00264627985924061	-0.00707419026531264	0.0165599962276884
5.3	0.0105490665791876	-0.00885058399385076	0.00128411858091163	-0.00284978693993024	0.00128039030947112	-0.00285233249878205	-0.0038665378697253	0.0165527711415782
5.4	0.0102447577834487	-0.00952383198904524	0.000876461951541877	-0.00300485078007026	0.000875574268584229	-0.00300729094606451	-0.000811619961584898	0.0158947628817204
5.5	0.0101632400014109	-0.0107312630653674	0.000443563818338456	-0.00309795248268791	0.000456059097850769	-0.0030979482958292	0.00176736398327179	0.0141406893025203
5.6	0.00888249903210451	-0.0117846052662272	1.2363019237706E-05	-0.00312821913388909	9.09082833829819E-06	-0.00312477834884891	0.0030731521597287	0.0128285122417485
5.7	0.00773725632204084	-0.0120834115088973	-0.000417227250179615	-0.00310078123272042	-0.000420923961777658	-0.0031044418927805	0.00476194997221659	0.0116237854308426
5.8	0.00677358183033125	-0.0122065701277582	-0.000847511375057908	-0.00301033423812775	-0.00084679179685963	-0.00301796629244064	0.00632562749530619	0.00976946982864087
5.9	0.0060008178722121	-0.0119109003498832	-0.0012596477356865	-0.00285936167407365	-0.00125805817034268	-0.00286348544498165	0.00747891620654671	0.00760896392901969
6	0.00610807368160132	-0.0121418251692788	-0.00164652311277383	-0.00265655651983871	-0.00164057030746835	-0.00265988536290066	0.00820173518205751	0.0045338358564524
6.1	0.00515913037829147	-0.0130667086544686	-0.0020007318271839	-0.00240553638235539	-0.00199661821660362	-0.0024102700201867	0.0070487008928333	0.0017382651417181
6.2	0.0040488772012804	-0.0134300305448072	-0.00231642285441347	-0.00209320415250903	-0.00231286642803267	-0.00210180495072228	0.00589360567018697	-8.44511804512812E-05
6.3	0.0031352550582766	-0.013643245125611	-0.00258141506795642	-0.00175855163697619	-0.00259115172490198	-0.00176626844297821	0.0048680023592545	-0.0017146265696145
6.4	0.00255094252845366	-0.0138010712133261	-0.00280815742881272	-0.00137783734968698	-0.00280617165866474	-0.00138359160513526	0.00410271269804648	-0.00332949036873267
6.5	0.0022482401791064	-0.0149183891939741	-0.00297173842677975	-0.000977785757704365	-0.00297214109241692	-0.000976671697543885	0.00288975553762224	-0.00568485381124428
6.6	0.00071668465469373	-0.0155470237803251	-0.00307466877671941	-0.000558527110943915	-0.00308525299764189	-0.000561535221389317	0.000614446998710262	-0.00681505331214969
6.7	-0.000482260490808458	-0.0155419081757467	-0.00312153057044216	-0.000129367643799826	-0.00312051335010547	-0.000123168517425257	-0.00143060003241998	-0.00740814575876211
6.8	-0.00157687031582612	-0.0151798133791929	-0.00310941818174212	0.000315132934863389	-0.00310853340643496	0.000319865040547306	-0.00374007778968048	-0.00738465168621353
6.9	-0.00215940749984558	-0.0144419299389359	-0.0030291065402228	0.000742384791713842	-0.0030295434080858	0.000747334503081061	-0.00562685220034486	-0.00661608990321081
7	-0.00205326280959238	-0.0147228806577066	-0.00290111687125332	0.00115450493803593	-0.0029025353563825	0.0011576922793831	-0.00739096192469325	-0.00636967528375813
7.1	-0.00348601806307724	-0.0149985122966996	-0.00271064496236883	0.00154989184875984	-0.00271311021916904	0.00156082783711223	-0.0100604466450019	-0.0045489427991036
7.2	-0.00469670769741389	-0.0145236207587017	-0.00247535388894438	0.00191085185733098	-0.00247556787653123	0.00191671180537502	-0.0112310006735856	-0.00183793595796989
7.3	-0.00590331957065257	-0.0138359127302668	-0.00218958179166304	0.00223538741993306	-0.00218684385507545	0.00223686909283089	-0.0114635405749154	0.000793692088559075
7.4	-0.00691898863207366	-0.012589569078169	-0.00185287485124108	0.0025188150855268	-0.00184574156584994	0.00252534781626469	-0.0108335998244889	0.00327554940757981
7.5	-0.00678997675815046	-0.0118324223134792	-0.00148355429451158	0.00275686207852579	-0.00148457346788262	0.0027548488390772	-0.00929961187325336	0.00439353056961754
7.6	-0.00760599845528327	-0.0118324058515268	-0.00109277752809715	0.00293896912775282	-0.00108223638163015	0.00294935730459714	-0.0088513173769662	0.00526876522945253
7.7	-0.00828947970598698	-0.0113623720948401	-0.00066634007201027	0.00306609552663621	-0.000660793155768783	0.00306578935543438	-0.00786231197278185	0.00625133756992906
7.8	-0.00869496481227088	-0.0111501427380114	-0.000223354261478133	0.00313142281335832	-0.000236900006618937	0.00312426096861431	-0.00678093744706673	0.00703673872425329
7.9	-0.00878856899631404	-0.0109885193173972	0.000198101892548689	0.00312384512196981	0.000209167002923146	0.00312363093161295	-0.00551441188279411	0.00780631510453011
8	-0.00894522848365747	-0.0119406870460675	0.000635511876321147	0.00307494922789038	0.000643808195829625	0.00307294019179206	-0.00447883312887321	0.007939438294369
8.1	-0.0103047536093226	-0.0118969136378902	0.00106773059621155	0.00295383926695794	0.00106547782506014	0.00295057395410963	-0.00361389287747505	0.0095478456224928
8.2	-0.0112363825779076	-0.011303042382004	0.0014597971580141	0.00277680920683155	0.00145888407150545	0.0027883750333895	-0.00123364995036929	0.0106086391012942
8.3	-0.0120683620503455	-0.0104920612840763	0.0018351258031597	0.00254978695355406	0.0018402206750147	0.00254724414849853	0.00136721825500548	0.0107919706398318
8.4	-0.0124702394890815	-0.00919234124567807	0.00218690954840041	0.0022730268212626	0.00217573821087639	0.00227333921943888	0.00413110513663355	0.0102535767418578
8.5	-0.0121267526560658	-0.00884911597186755	0.00248647255868739	0.00193710333358002	0.00248647209546306	0.00193845434971861	0.00636731408433035	0.00810489838342912
8.6	-0.0131342867161903	-0.0084329777828813	0.00271982633490259	0.00158085202705278	0.00271563234001147	0.00157850960229562	0.00707906493864324	0.00666754978484776
8.7	-0.0137690021760444	-0.00733673503946237	0.00291528628382046	0.00118417481163367	0.00291412556109121	0.00118375408876657	0.00844618741640971	0.0052160777143269
8.8	-0.014138396211263	-0.00608712490237621	0.00304987678921849	0.00076568944447357	0.00306089056554271	0.000763664732170971	0.00958832126267642	0.00310295773453271
8.9	-0.0139174555004062	-0.00458406264875091	0.00312755205268761	0.000333583782556663	0.00313697349910922	0.000326501264146545	0.0106224230293384	0.000641083370657211
9	-0.0127221077639231	-0.00416024207108747	0.00314333749905013	-0.000112958901861046	0.00315007731263177	-0.000107292413644683	0.011023038970237	-0.00307237070386444
9.1	-0.012530004271357	-0.00425975650046777	0.00310369528536857	-0.000546844290368211	0.00310391528178271	-0.000547035422722824	0.00966047726884437	-0.00616633532241693
9.2	-0.0123211032600546	-0.00430807941471441	0.00299316610390678	-0.000972304818891357	0.00299699762908169	-0.000972049766285048	0.00810101732542709	-0.0089577056661961
9.3	-0.012440617473606	-0.00434351055131664	0.00282403881734558	-0.0013852403234045	0.00284215586624226	-0.00138553670924149	0.00566872743478325	-0.0113679327638984
9.4	-0.012410865610882	-0.00396502616048664	0.00260927887063664	-0.00176037220819052	0.00261270280620714	-0.00177141407340436	0.00284424991010228	-0.0130007867823802
9.5	-0.0122729638141388	-0.00431398929988108	0.00234396297437282	-0.00212227358657983	0.0023588447507606	-0.00212281127058818	-0.000763784061144441	-0.0145759301738516
9.6	-0.0132187762565356	-0.00407770516415109	0.00202474043641258	-0.0024325836840834	0.0020250107273368	-0.00242552246434232	-0.00511341554683807	-0.014016113727885
9.7	-0.0137476024105691	-0.00331333673139821	0.00166168467781103	-0.00269221302149397	0.0016700462507362	-0.00269375075845731	-0.00841995478582473	-0.0127244850170695
9.8	-0.0141487750470271	-0.00236071114190648	0.00127662557131845	-0.00289364140057302	0.00127484934957508	-0.00290236251521538	-0.0114351013235083	-0.0110368634312234
9.9	-0.014090180395854	-0.00101977444415972	0.000865326274571941	-0.00304640353634956	0.00085337185718912	-0.0030491276873401	-0.0140122372084296	-0.00887449573951654
10	-0.0134049160739065	-0.000733106989920904	0.000424301601711676	-0.00313280831800188	0.000423521952454605	-0.00314019760778299	-0.0166027073912595	-0.00717975704912434
10.1	-0.0139166453791769	-0.000315698728396728	-1.60662530155957E-05	-0.00317051068896985	-2.07366024069164E-05	-0.00317332633139857	-0.0197919337278969	-0.00366891451100693
10.2	-0.0141062192988922	0.000680982212576115	-0.000461181068775148	-0.00313316796215448	-0.000473878429025449	-0.00313701939162637	-0.0212823400438883	0.000685291124675712
10.3	-0.0139733590483967	0.00192763667316115	-0.000899996614716963	-0.0030326160695628	-0.000899725933548095	-0.00304613052057086	-0.0215785570851817	0.00520681920689072
10.4	-0.0130075527322374	0.00328526827316435	-0.00131759520290514	-0.00288476367837188	-0.00132080192628479	-0.00288262104241467	-0.0203790595986288	0.00931471052169899
10.5	-0.0114631383944247	0.00323238084437062	-0.00170690567278114	-0.00265960602279352	-0.00171312271873356	-0.00266693298468399	-0.0189950569511387	0.0119690701978183
10.6	-0.0111737274960527	0.0030941418275604	-0.00206805260924198	-0.00240145624501599	-0.00206955867937417	-0.00240661433543065	-0.0181131718828597	0.0156019785186891
10.7	-0.0109366747959397	0.00336885643572588	-0.00237987439201296	-0.00208627143611289	-0.00238309957137304	-0.00210244899944987	-0.015990569098718	0.0194767618692492
10.8	-0.0105925793891635	0.00401167340521451	-0.00265097365375569	-0.00173371335083434	-0.0026480091338882	-0.001735899411378	-0.0128799457547096	0.0232904440792429
10.9	-0.00962094664612763	0.00487086845290092	-0.00286959237170106	-0.00134932443447562	-0.00286887109365675	-0.00135449457541125	-0.00833916746383708	0.0263630154707145
11	-0.00813660954665397	0.0044088659659833	-0.00303173341377393	-0.000931428505275164	-0.00302465590843688	-0.000935756866685461	-0.00362036277746273	0.0274972657098037
11.1	-0.00793972514462389	0.00415631320233358	-0.00313098654680484	-0.000509872895360672	-0.00312316598650405	-0.000501506428630968	0.000815749503819992	0.0291684378455185
11.2	-0.00747417686490482	0.0041538066601298	-0.00317108786855875	-6.11589944225622E-05	-0.00317774055486049	-5.79079472228869E-05	0.00673448645849244	0.0297449021342869
11.3	-0.00699227684708135	0.00422384244274666	-0.00314586679501853	0.000385512279862918	-0.00314906483002977	0.00038333640625547	0.0130052337689877	0.0288638545775525
11.4	-0.00625216255669519	0.00444562083569708	-0.00305619033193563	0.000819443596855441	-0.0030608589819877	0.000819609511738565	0.0192773158055674	0.0263302716731895
11.5	-0.00528434476010925	0.00353739960665396	-0.00292433486225778	0.00123288548047556	-0.00291673525442671	0.00123766544642437	0.0242027066168383	0.0214355535963477
11.6	-0.00545323551542954	0.00305153072606235	-0.00271585597777851	0.00163406789162929	-0.00272400863943711	0.00164389506378438	0.0276135355809139	0.0170011234706801
11.7	-0.00521912833075686	0.00295731310527271	-0.00245559868235847	0.00200391359589544	-0.00245734680647018	0.00200764630426695	0.0311860529118278	0.0116720577236511
11.8	-0.0046910048621279	0.00294762399304529	-0.00215132097640419	0.00232958052573135	-0.00216055734156532	0.0023395115456939	0.0338108905956645	0.00526962589449536
11.9	-0.00351138355525347	0.00273176397923497	-0.00180704974305825	0.00260421789579862	-0.00180704623507786	0.00261083766460058	0.0350830583308777	-0.0019992968346072
12	-0.00267044801528845	0.00099354363293573	-0.00141734878896024	0.00283194669748397	-0.00142186228774214	0.00283479246124545	0.0334650301202359	-0.0101195912393324
