# GHZ S RI R 50
0.2	-0.0149334233019564	0.0037653508845249	0.00305575499660219	-0.000882013079223522	0.00306624696978948	-0.000881839689996101	0.00491788458655421	-0.000717373817981101
0.3	-0.013890473821769	0.00497807252805233	0.00291294907646619	-0.00129925735419115	0.00290666788982951	-0.00131096057268467	0.00548983353593785	-0.00227169359867834
0.4	-0.0130145825607922	0.00664959939713982	0.00270246219553241	-0.00169685496095863	0.00270035133978567	-0.00169878244027141	0.00523654930320674	-0.00315681276556019
0.5	-0.0104360647628468	0.00715286711982154	0.00243279444538413	-0.0020611850256041	0.00243563190957102	-0.00206492930288248	0.00632762749194799	-0.0049740089590747
0.6	-0.0110059533960522	0.0061530012636944	0.00211719077810366	-0.00238309819648192	0.0021164471221641	-0.00238595758107476	0.00383943611512365	-0.00814154511512409
0.7	-0.0115105170188081	0.00751158899305101	0.0017666362194937	-0.00265627014273605	0.0017728875716463	-0.00266037895194989	0.00105944028388058	-0.00848073048080968
0.8	-0.0112948673593238	0.0088825248901716	0.00137119681348283	-0.00288096039401628	0.00137952562034091	-0.00287934233215692	-0.00132144502119405	-0.00827138211519428
0.9	-0.0113525669859793	0.0107647133510632	0.000961628105145419	-0.00303728669966221	0.000961611241228701	-0.00304677408786675	-0.00397421180261795	-0.00698855751221672
1	-0.00867848615095098	0.0138677484135081	0.000522538957623871	-0.00314334113280288	0.00052238691315873	-0.00314873263380129	-0.00378552865180783	-0.00379725963643507
1.1	-0.00640597530879516	0.0119936001518662	7.57458623643038E-05	-0.00318486030937296	7.66427542085581E-05	-0.00318961956998594	-0.00356056307994962	-0.00512017645809764
1.2	-0.00676468355236808	0.011629892931603	-0.000368415499768345	-0.00316074044331496	-0.000367179616793237	-0.00317767037087739	-0.00535974355636683	-0.00439995852990492
1.3	-0.0068913253346193	0.0113211581166447	-0.000806035794427789	-0.00308609246214219	-0.000811022151515284	-0.00309380749096918	-0.00584483018448781	-0.00325053654839666
1.4	-0.00708774688720434	0.0113786561321947	-0.00123687006128595	-0.00293706035741795	-0.00123931618559004	-0.00294424266930379	-0.00595497071021971	-0.00214973072948703
1.5	-0.00516594577552927	0.0108720439262871	-0.00162775515076571	-0.00273860916763977	-0.00162576956252362	-0.00274419502395865	-0.00425225923546915	-0.00221244054530365
1.6	-0.00611605070760384	0.0102526032256853	-0.00200001274005336	-0.00248369565752151	-0.00200351904032207	-0.00248457962439259	-0.00628659245220849	-0.00235866934396989
1.7	-0.00547117047308319	0.0118127297303709	-0.00233146137247904	-0.00218249925096263	-0.00233355530898552	-0.00219116856901209	-0.00661813428037476	0.00012092156432465
1.8	-0.0042458853528194	0.0128836261189948	-0.0026107564614949	-0.00182621672387372	-0.00261600385073977	-0.00183171205598961	-0.00598651666173289	0.00211662222041789
1.9	-0.0027519736053959	0.0141826501443513	-0.00283670356731637	-0.00145261147663769	-0.00283313648640457	-0.00144637491040972	-0.00467845604564506	0.00446236618277203
2	0.000955282882844121	0.0139867977195752	-0.0030192481865013	-0.00103724076528614	-0.00302199320931137	-0.00103030487801315	-0.000675850375537731	0.00515881255519455
2.1	0.000922421130734254	0.0113924965176368	-0.00313485346496812	-0.000589669735208601	-0.00313702651908854	-0.000596427264569379	-0.000175577807279682	0.00297351466584484
2.2	0.000465949022701812	0.0114952341509584	-0.00318254055294108	-0.00015061491472738	-0.00318429570786888	-0.000140774461947767	8.4944989504558E-05	0.00313625776415606
2.3	0.000452395188521585	0.0117816370965136	-0.00316964035170523	0.000297357102932072	-0.00317648816275591	0.000294474478986775	0.000811160714850596	0.00314982584918035
2.4	0.000416288934905369	0.0128610733394328	-0.00310662595518477	0.000738633097343028	-0.00310530305387046	0.000753902451477453	0.00149699171626462	0.00369009443521547
2.5	0.00311175007072867	0.0143026227673829	-0.00296162557754511	0.001183848499866	-0.0029747499531265	0.001185323923344	0.0049821310829004	0.00431988485837555
2.6	0.00451330819794759	0.0120623235894204	-0.00275536642308642	0.00157730512348716	-0.00277639516641627	0.00158152016500059	0.00708305345212874	0.000636600272127281
2.7	0.00453004538049157	0.0114133228654639	-0.00251598106438241	0.00194449004309924	-0.00251619692535239	0.00194961567278402	0.00712815667085677	-0.00191176527706159
2.8	0.00470598624843038	0.011230481148036	-0.00221271222718254	0.00226922642982563	-0.00222246298512597	0.00228063246790853	0.00662132782500518	-0.00400504161198899
2.9	0.00538762724026236	0.0118542901793904	-0.00186431391027229	0.00256156452374633	-0.00186223682167253	0.00257050097651683	0.00610112947554561	-0.00494010455714388
3	0.00822839690851431	0.0112994107701963	-0.00147914478557685	0.00279175511586117	-0.00149448087800504	0.00277892792011438	0.00761958100895074	-0.00673121960047167
3.1	0.00809207827990657	0.00912462016598368	-0.00108251067707864	0.00296562120327505	-0.00109941892549087	0.00297127899341673	0.0058423986750852	-0.0103937139730299
3.2	0.00811279909438701	0.00889833741839488	-0.000658630715795492	0.00308607420289179	-0.00065419114698801	0.00309684629016155	0.00360196363209799	-0.0116030910816463
3.3	0.00843274905288779	0.00852506372038354	-0.000223895618898162	0.003148610251345	-0.000220660486413156	0.00314417135090921	0.00148036084032623	-0.0126040177160059
3.4	0.0088022434908998	0.00872840616169547	0.000223424225792718	0.0031426760668633	0.00021401945861351	0.00314390727890786	-0.000693424728856025	-0.012705487414013
3.5	0.0112871448180427	0.00808618668032732	0.00064604745709389	0.00307710196935084	0.000651028157339571	0.0030757079608748	-0.000733634713166367	-0.0134681705958804
3.6	0.0107374558341994	0.00531262861691365	0.00106763121064571	0.00295693941231247	0.00107427828516825	0.00296033942861538	-0.00421794952281646	-0.0161351220761087
3.7	0.00976774926589333	0.00510364118079878	0.00148348535000441	0.00276997909572488	0.00148199028023021	0.00278635628210553	-0.00830917534574197	-0.0155701989558265
3.8	0.00959351898544744	0.00536695796901033	0.00184510182927973	0.00253428768355067	0.00185576946220766	0.00254046172199559	-0.0116217433260043	-0.0139146508877803
3.9	0.0102223731110083	0.00625496719097034	0.0021821197499847	0.00225235769701961	0.00217753775096753	0.00225232534419911	-0.0139771602257369	-0.0109310115053369
4	0.0136165334031065	0.00564874719143172	0.00247305904562889	0.00193551465304532	0.00248456577546225	0.00194149173927182	-0.0130176157673387	-0.00885493801856606
4.1	0.0135260640924573	0.00212137342708801	0.00271998348266242	0.00155582070304867	0.00273665746446561	0.0015652957287003	-0.0149949414318859	-0.00943849313966463
4.2	0.0125777301945508	0.00102417805032556	0.00290791758943024	0.00115530021382243	0.00290918101403724	0.00115755402291401	-0.0175203034031187	-0.00732665018326076
4.3	0.0119972299509386	0.000456999480385697	0.00303986576272816	0.000748921908682434	0.00304117531645609	0.000757433071608492	-0.0192098075601629	-0.00447332459225383
4.4	0.0116192614303027	0.000680256391643964	0.00311291176042504	0.000316493374444238	0.00312071582600705	0.000311766900605472	-0.0201690451090478	-0.000462066551913753
4.5	0.0139022976540937	0.000313706175111994	0.00312702680586428	-0.000135793479767208	0.00312389918446665	-0.000133489213091592	-0.0174831010702048	0.00309374360024825
4.6	0.0131526607047167	-0.00303196695864948	0.00305277193103841	-0.000572171208124093	0.00306586031084698	-0.000560548282627232	-0.0171200131015842	0.00299117801973106
4.7	0.0116722079503132	-0.00380751417633472	0.00294382921261085	-0.000972311647222516	0.00294359281036495	-0.000981628342809352	-0.0175027312866684	0.0050984683213206
4.8	0.0106278549383224	-0.00420708082202862	0.00279039835875088	-0.00136517507298528	0.00278255718079114	-0.00138498605637354	-0.0170588060532854	0.00762333659864246
4.9	0.00997637375346499	-0.00373630721423172	0.00256843412368918	-0.00175475116766457	0.00256257200582079	-0.00174633383018325	-0.0159063636807234	0.0108834911811543
5	0.0119088260624577	-0.00431557006944987	0.00228190956660037	-0.00206722416162683	0.00228442871147266	-0.00207945826647301	-0.0113574113171592	0.012816055136341
5.1	0.0103435795246014	-0.00681315219062143	0.00197194407489455	-0.00237105502647679	0.00198494997713584	-0.00236875032822652	-0.0102740352441815	0.0120595311825592
5.2	0.00914901302155212	-0.00660413710360178	0.0016362898145033	-0.00262012759478196	0.00163674496526515	-0.00262421865307588	-0.00876040634801824	0.0138325378022836
5.3	0.00894651236440555	-0.00643363079218468	0.00125172876139498	-0.00282151737434674	0.00124803251243057	-0.00282400973649282	-0.00596677537692398	0.0152672368486024
5.4	0.00923906715606935	-0.00588506190985823	0.000848315168273548	-0.00296643964813431	0.000847427497946173	-0.00296884030997955	-0.00237800346971242	0.0164571648824863
5.5	0.0122036399125549	-0.00749591831549141	0.000433709221856179	-0.00305134101433598	0.000446014702897091	-0.00305134946270087	0.00403814528708846	0.0145703204793401
5.6	0.00951819384467759	-0.011281903911346	1.07610683439158E-05	-0.00308962221014332	7.53085077977078E-06	-0.00308622236858515	0.00420442859242554	0.00959553424145587
5.7	0.00684688041568994	-0.0110485251402588	-0.000414456406701203	-0.00306183114230245	-0.000418109935816918	-0.00306544331189937	0.00367098630655573	0.00841825018118002
5.8	0.00524876062413589	-0.0103642558179552	-0.000836480825743208	-0.00297076493824286	-0.000835770956106827	-0.0029782967694774	0.00372830328492949	0.00751514120070472
5.9	0.00395037213178275	-0.008411934718952	-0.00123653065188996	-0.00282367843070746	-0.00123495350570949	-0.00282774335924023	0.00358991575017113	0.00795493521737196
6	0.0071308506019634	-0.00657155725367627	-0.0016210189333828	-0.0026358052343664	-0.00161511386770589	-0.00263908051366676	0.00797627379148539	0.00863019236522947
6.1	0.00751316392790506	-0.010288239701758	-0.00197796358420852	-0.00238256658258571	-0.0019738880723055	-0.00238724777116064	0.00969094728141265	0.00314480421876744
6.2	0.00582656553432919	-0.0115841224928263	-0.0022861160011616	-0.00207276557333826	-0.00228258659747574	-0.00208126080233062	0.00872833936656403	-0.000171094198720462
6.3	0.00425114388017227	-0.0122703890431441	-0.00254597813238724	-0.00174597567295323	-0.00255557780953464	-0.00175363242404788	0.00731595771618358	-0.00292149934918908
6.4	0.00304197490838093	-0.0116252309362829	-0.00277401905432103	-0.00137557822287148	-0.0027720294387926	-0.001381266008798	0.00587083648918209	-0.00404940581942697
6.5	0.00467028686169493	-0.0132688573625276	-0.00294234182048332	-0.000972750095454668	-0.00294274225772331	-0.000971647106732213	0.00720279584524942	-0.00736742982718843
6.6	0.000976482877207918	-0.0152676306102017	-0.00303429878436119	-0.000559572399044657	-0.00304474117217131	-0.000562570376346632	0.002426039417789	-0.0112369379087734
6.7	-0.000931602777117424	-0.0141433388239448	-0.00308238000075141	-0.000143051569414475	-0.00308140567727498	-0.000136923956374677	-0.00131949607140292	-0.0111093981077332
6.8	-0.00222323488200465	-0.013333033179333	-0.00307635273105621	0.000293483615420668	-0.00307550545091227	0.000298167759964438	-0.00456086084642156	-0.0104892023480681
6.9	-0.00312213466009508	-0.0112053594385278	-0.0030013642344841	0.000719525517260249	-0.00300182132185401	0.000724421643808817	-0.0071729829032044	-0.00768414540016856
7	0.000473519943128552	-0.0111955119770464	-0.00286654518729871	0.0011241847064808	-0.00286795969582677	0.00112732082288126	-0.00447932404016364	-0.00664033697420673
7.1	-0.00244683360085158	-0.014887875306651	-0.00268961393501286	0.00150431495354434	-0.00269214892819313	0.00151508476894896	-0.00824690938562282	-0.00961542019813046
7.2	-0.00551183034684246	-0.0139011916819743	-0.00246683999334655	0.00186454590572294	-0.00246711052262493	0.00187033804806765	-0.012287088193147	-0.00728558744250453
7.3	-0.00764277054783913	-0.0124661815270699	-0.00218891127327097	0.00218959732880899	-0.0021862173151168	0.00219109090672736	-0.0148871521778975	-0.00401963637388875
7.4	-0.0097016460027016	-0.00942684990292297	-0.00185772301444675	0.00246968059328299	-0.00185074245196963	0.00247621196528381	-0.0169480315363154	0.00133056582428756
7.5	-0.00650765561137538	-0.00621731215593711	-0.00150911724694397	0.00270283485460058	-0.00151009393638299	0.00270082875738157	-0.01248210774984	0.00710815311959651
7.6	-0.00668185417658949	-0.00883220971062477	-0.00113132276382106	0.0029017860763033	-0.00112101624970711	0.00291226831586116	-0.0103862433361415	0.0061275966726539
7.7	-0.00822676045188432	-0.00831478741730602	-0.00070781050900494	0.00303786515386509	-0.000702292252628933	0.00303764305491216	-0.00979117454873744	0.00764764020099724
7.8	-0.00883740249996405	-0.0075769383634696	-0.00026979980499006	0.00311005405937566	-0.000283158684351672	0.00310272684666509	-0.00819236495078701	0.00936412490235182
7.9	-0.00848523377289165	-0.00618025628782385	0.000142800941324012	0.00311169736545222	0.000153814546495285	0.00311167662572337	-0.0051210644488236	0.0116378774271266
8	-0.00534744690223783	-0.0084402707963269	0.000580332462668877	0.00308757142668349	0.00058866814343703	0.00308571115472753	0.000847321844395654	0.0100786115787066
8.1	-0.00894531844775913	-0.0111135346521285	0.00102583484889962	0.00297155991425508	0.00102362756391562	0.00296825950199392	9.96260146970459E-05	0.00646414342821528
8.2	-0.0111966726256243	-0.00983360778589208	0.0014196711758138	0.00279861346607933	0.0014185895583844	0.00281016831775513	0.000265698450638516	0.0070321232437055
8.3	-0.0126064184485893	-0.0085005673601914	0.00179753511844697	0.00258071360199552	0.00180267440558137	0.00257824703346539	0.00138197650223877	0.00742111448065653
8.4	-0.0135304613110102	-0.00570272084141349	0.00215890046775365	0.00231659294422732	0.00214768172606514	0.00231672806444954	0.00301883072412649	0.0088571033977675
8.5	-0.00971354934240354	-0.0047049176021963	0.0024778101514232	0.00197652646538425	0.00247779407365575	0.0019778849314137	0.00968060975259151	0.00783116089869719
8.6	-0.0118024647002001	-0.00779419762358536	0.00270752013578958	0.00161740184268921	0.00270334397372169	0.00161500329205977	0.00972343415431686	0.00136976178641953
8.7	-0.0143161031244276	-0.00630920605622054	0.00290963494841582	0.00122765608438013	0.00290847579156623	0.00122721822860778	0.00810884681616517	-0.00076510762864998
8.8	-0.015595015781637	-0.00424365258132181	0.00305613318596699	0.000810668357374093	0.00306723368526404	0.00080878014828081	0.00676050238183981	-0.00219698196972724
8.9	-0.0161074042618834	-0.000910467087526351	0.00314543328305639	0.000370721908554597	0.00315499867264943	0.000363695418377151	0.00552210403764293	-0.0017330782110873
9	-0.0116969045230792	0.00110830142641766	0.00315386576073783	-8.13730837745948E-05	0.00316056814292166	-7.56212366879145E-05	0.00931307251677246	-0.0018483631850945
9.1	-0.0116946166880692	-0.00124892146509005	0.00312634728134161	-0.000505797205231732	0.00312657102779109	-0.000505986162136786	0.00870716710047797	-0.00678254094021181
9.2	-0.0118039639251752	-0.00088976183235729	0.00302866664571961	-0.000939463106550216	0.00303252350432317	-0.00093915475918621	0.00732428848447417	-0.00885912134422007
9.3	-0.0115961217089923	-0.000999565793765062	0.00286437375480822	-0.00136362308305634	0.0028826480499658	-0.00136370788998949	0.00590543758678896	-0.0111470641320614
9.4	-0.0115219041084002	-5.39595378628009E-05	0.00264658750264172	-0.0017449806123314	0.00265015367658344	-0.00175606420083244	0.00389683228369344	-0.0120239857737713
9.5	-0.00877092338623494	-0.00189008415998186	0.0023935767322505	-0.00210240906862246	0.00240857701490326	-0.00210272471167193	0.00466053828026572	-0.0155092572726357
9.6	-0.0126241203518422	-0.00426215168846341	0.00208323264695566	-0.00243519571046902	0.00208340973265642	-0.0024280428249769	-0.00224876822813405	-0.0198494892829707
9.7	-0.0149998886915247	-0.00244597448399517	0.0017139750655282	-0.00270863076054775	0.00172246358876831	-0.0027100938225272	-0.00857002927418217	-0.0187508418202821
9.8	-0.0162406779135436	-0.000437475390720081	0.00132361529113161	-0.00291755638009314	0.00132190806021885	-0.00292640885305068	-0.0138168686594217	-0.0162293498976819
9.9	-0.0168319615083763	0.00288625180570019	0.000913144301186475	-0.00307653680114765	0.000901063630409117	-0.00307943967904577	-0.0182130954681466	-0.0112070085651507
10	-0.0127340961915001	0.00428169605321529	0.000467996203088801	-0.00318763135632351	0.000467285717461242	-0.00319517019758824	-0.0168070575497287	-0.00713318766336213
10.1	-0.0139259105593925	0.00209117283903565	3.34815971478497E-06	-0.00323013563327295	-1.39236586692621E-06	-0.00323303317965486	-0.0201014419729283	-0.00680764506319745
10.2	-0.0152513044146099	0.00354805452801991	-0.000452353329667077	-0.00319127610361079	-0.000465255115099168	-0.00319526482660951	-0.0233049356956317	-0.00228749714575787
10.3	-0.0156670318320842	0.00548914999728269	-0.000900240110920701	-0.00309326107587052	-0.000899891732888605	-0.00310702274811711	-0.0249166533938127	0.00336268770740528
10.4	-0.0150309749830154	0.00874212628483502	-0.00133264045254338	-0.00295251319030439	-0.00133592557971759	-0.00295033931953748	-0.0244208926446164	0.0107968174345874
10.5	-0.00992582224971264	0.00951646325688712	-0.0017515674645725	-0.00271550793169908	-0.00175794166034775	-0.00272298535485829	-0.0177171756762514	0.0157481848217437
10.6	-0.00979935378803708	0.00715644362554914	-0.00211284106928823	-0.00243797081265589	-0.00211439063365668	-0.00244321669967341	-0.015305232538571	0.0163675027492702
10.7	-0.00955630209667896	0.00715969801707095	-0.00242818867318045	-0.00211680261613286	-0.00243151682949816	-0.00213325970662264	-0.0125112103938548	0.0188072350106883
10.8	-0.00968384360934739	0.00705123346841778	-0.00270722048302192	-0.00175550501727094	-0.00270420940436418	-0.00175774354054604	-0.00978843765304313	0.0208456609074927
10.9	-0.00960934247009956	0.0087006266791173	-0.00293362430059051	-0.00135296014264551	-0.00293292855066235	-0.00135823273233632	-0.00626516733445763	0.0244547078939516
11	-0.00518610785316365	0.00823298468658815	-0.00307867130935713	-0.000915967946983198	-0.00307154279233676	-0.000920415085982601	0.00240947622629813	0.0251701461744783
11.1	-0.00701978865290358	0.00516332109229379	-0.00317646477645379	-0.000499996942950493	-0.00316849248409564	-0.000491558327165409	0.00484894137111397	0.0217621802005718
11.2	-0.00820254568272679	0.00596456040099158	-0.00321925251948761	-4.07100180205554E-05	-0.00322598347659871	-3.7365180375152E-05	0.00758605238337116	0.0216802027597633
11.3	-0.00836698859711154	0.00722795127016349	-0.00318831682813654	0.000419028134009778	-0.00319158078527262	0.000416848891358404	0.0108033490322867	0.0216004557973038
11.4	-0.00789980661126371	0.00933626244674622	-0.00308281212267727	0.000860361403396817	-0.00308753263940696	0.000860577364513038	0.0149473136879604	0.0220129907948645
11.5	-0.00332307800479358	0.00843464536093336	-0.00294933388505865	0.00126169166334092	-0.0029416269664999	0.00126648287300035	0.0239721531996322	0.0185042153091015
11.6	-0.00518545375372458	0.00506453773459968	-0.00274395731534018	0.00167897940304038	-0.00275215707241044	0.001689014740846	0.0254367611641664	0.0107945561357793
11.7	-0.00656084631634753	0.00573320909032548	-0.00246927750833594	0.0020572097544301	-0.00247101161884313	0.00206101263273036	0.0260696350458042	0.0067464594761968
11.8	-0.00686540074022298	0.00697673842977964	-0.00215138755744389	0.00238179890137286	-0.00216062499741867	0.00239195325684531	0.0269074530149446	0.00335419837098966
11.9	-0.00522896730398938	0.00957882631774075	-0.00180253105267394	0.00264991917755964	-0.00180246534157012	0.00265661194835908	0.0289447481921733	0.00177111170113434
12	0.000670453476328573	0.00779101917596031	-0.00141143741578832	0.00289183806887292	-0.0014159946392323	0.00289477532120879	0.0358987586490354	-0.00481449177146867
