# GHZ S RI R 50
0.2	-0.0141120820100074	0.00500954416975714	0.00304660078207075	-0.000884857932922626	0.00305706663136547	-0.000884702371358632	0.00570379580494115	0.000524744123443702
0.3	-0.0131964966602118	0.00568516421114531	0.00290089502228361	-0.00130112343800675	0.00289460974824705	-0.0013127760267912	0.00612521077637232	-0.00156203750150095
0.4	-0.0124461983968567	0.00655215913052537	0.00268726867810325	-0.00169586114431045	0.00268516231189835	-0.00169777574452	0.00571400459420534	-0.00323754924943025
0.5	-0.0114225069602864	0.00735426997978527	0.00241759681422182	-0.00205413791245701	0.00242041468331753	-0.00205786718188216	0.00520938546747834	-0.00470775061848398
0.6	-0.0108324630305799	0.00773600280114472	0.00210419263994963	-0.00237458008954895	0.00210344884182213	-0.00237742507123167	0.00388010668111415	-0.00642566275682023
0.7	-0.0104312967203513	0.00853848615434174	0.0017535203752926	-0.00264492271254203	0.00175973300618725	-0.00264901908361418	0.00202945945140821	-0.00726140774328732
0.8	-0.00978893044261409	0.00937619480541301	0.00135971734841467	-0.00286553035904923	0.00136799880151096	-0.00286393161206237	0.000122735040602221	-0.00753940910548575
0.9	-0.00927253578048692	0.0102303205158387	0.000954397928490013	-0.00301825691166896	0.00095437775044753	-0.00302768376815306	-0.00188087556655271	-0.00727471221501123
1	-0.00832594304338813	0.0114493482906599	0.000520096006070702	-0.00312592168052722	0.00051994555605554	-0.00313128345031943	-0.003377171143525	-0.00605524206226423
1.1	-0.00720527848320803	0.0116407342661161	7.30625218675032E-05	-0.00316552170304814	7.39506321694177E-05	-0.0031702526112225	-0.00437215885759175	-0.00533503699330075
1.2	-0.00672150724192007	0.011766409954867	-0.000366414760263653	-0.00313892525521021	-0.000365190246870066	-0.00315573887630649	-0.00536384495959999	-0.00408471161108245
1.3	-0.00628063663393786	0.0116312398919232	-0.000798589563180307	-0.0030645426071663	-0.00080353612843515	-0.00307220540121157	-0.0053037508028852	-0.00273734224588627
1.4	-0.00596390617921972	0.0112519634185511	-0.00122535477316025	-0.0029185045966352	-0.00122777665359698	-0.00292564091319332	-0.00490050211953525	-0.00204626196525056
1.5	-0.0051264661858296	0.011108052589434	-0.00161625502282233	-0.00271976056044381	-0.00161428274733308	-0.00272530754680518	-0.00429674571968866	-0.00166921292168083
1.6	-0.00472591954876996	0.011017512736762	-0.00198046541881944	-0.0024643802121644	-0.00198394083491132	-0.00246526003045116	-0.004913175341648	-0.00120700703060182
1.7	-0.00399346135489392	0.0115840047865686	-0.00230671908523319	-0.00216886934663848	-0.00230877618179142	-0.0021774689078843	-0.00504992108885303	0.000281638949490194
1.8	-0.00306058556511361	0.0121105414810789	-0.00258391353901427	-0.00181826518399435	-0.00258910189604051	-0.00182372932597855	-0.00464892615039521	0.00168483132485045
1.9	-0.00211474267408058	0.0125638717364442	-0.00280913107257141	-0.00144828193657868	-0.0028056107206851	-0.00144208750457572	-0.00388489739040178	0.00310993553546453
2	-0.00062305217133838	0.0128776617059837	-0.00298564340028653	-0.00103682673053153	-0.00298838385033462	-0.00102996923540003	-0.00218557649218074	0.00428066766905563
2.1	0.000271363887863996	0.0122348012273404	-0.00310151695132969	-0.000601607479112231	-0.00310363128082812	-0.000608312469384893	-0.000797511793221865	0.00412349185851992
2.2	0.000770841281904407	0.0121428449821813	-0.00315365553924674	-0.000169040646276957	-0.00315545634231454	-0.000159297507842081	0.000455132609348022	0.00414900783222268
2.3	0.00125878150522951	0.012028707061478	-0.00314432457151482	0.000273900969188921	-0.00315109444911626	0.000270998004374951	0.00174573514685148	0.00377967409376482
2.4	0.00157915812357615	0.0121125898582464	-0.00308382543322354	0.000709239897886372	-0.00308262605921364	0.000724380332120363	0.00286240728548651	0.00329069244531698
2.5	0.00240038983592354	0.0125977752104232	-0.00294741810327945	0.00114421075112527	-0.0029604422390006	0.00114554351173071	0.00446337078854777	0.0028482082113466
2.6	0.00340364173581207	0.0122383088033876	-0.00275336924988034	0.00153922012865424	-0.00277430375538786	0.00154319539951544	0.00604861604053691	0.00102188215564949
2.7	0.00413642211370374	0.0120463382986973	-0.00251988716854356	0.00190732177232276	-0.00252015295160445	0.00191241358809201	0.00675866519130233	-0.00100398158433613
2.8	0.00495435850363859	0.0118142490975873	-0.00222360932107907	0.00223206776758377	-0.00223342307072081	0.00224330162997377	0.00690567877379801	-0.00307409096450298
2.9	0.00584866585032399	0.0116670703105631	-0.00188513433199824	0.00252527586102832	-0.00188317616427849	0.00253418914808329	0.00666608057836489	-0.00477914876928927
3	0.0073483569517424	0.0113381673976478	-0.00151047402992472	0.00276595313773013	-0.00152560920796048	0.00275296594131041	0.00680835552860149	-0.00639187105610804
3.1	0.00827796959597896	0.010249741939412	-0.00111262816054364	0.0029463201470334	-0.00112955717583129	0.00295177698267511	0.00606967265391969	-0.00878469825610673
3.2	0.00891554353817703	0.00950607160062295	-0.000692952080370538	0.00307070293724045	-0.000688649116075313	0.00308149989862185	0.00454340866114692	-0.0104948540476123
3.3	0.00948448547972467	0.00865573790407783	-0.000262506614688772	0.00314070623238805	-0.000259221807520693	0.00313631461468413	0.00277532154409634	-0.011987069956388
3.4	0.00982620237999765	0.00792785784327389	0.000183861658095813	0.0031458912749959	0.000174440181613163	0.00314700416386862	0.000645120002718069	-0.0131171686586113
3.5	0.0105951604325152	0.0072998222868034	0.000614445327942584	0.00308636717772682	0.000619444662022908	0.003085024036429	-0.00121393426562067	-0.013919664507364
3.6	0.0107881880753812	0.00591020512067657	0.00103386267425479	0.00296753959408	0.00104046833845621	0.00297101275743014	-0.00390807587791354	-0.0151330513727972
3.7	0.0105575936631291	0.00521536355408486	0.00145055788948383	0.00278946961372888	0.00144886279450402	0.00280583713821188	-0.00715572368266186	-0.0150904426223729
3.8	0.0105146608258552	0.00480614407630743	0.00181747577593587	0.00256105251489056	0.00182808669446509	0.00256736675361739	-0.0102704759392569	-0.0142260575526562
3.9	0.0106962429398048	0.00469472329979643	0.0021621568898648	0.00228222422315281	0.00215756420725316	0.00228214048022068	-0.0130879017376419	-0.012412374696468
4	0.0118792863352896	0.00450154240316411	0.00245292946144431	0.00196537418034515	0.00246437717245544	0.00197148773760353	-0.0144632392926824	-0.0100720533086216
4.1	0.0125569227393747	0.00295004436562028	0.00270541523355865	0.00159641527059368	0.00272200075558126	0.00160613899853291	-0.0158752963814404	-0.00870610201053611
4.2	0.0125836278230072	0.00179718698038027	0.00290454887799869	0.00119861204423553	0.00290578760678307	0.00120089187189964	-0.0175426904495202	-0.00658508497365151
4.3	0.0124761399759366	0.000834527713828984	0.00304526878252008	0.000791221844745496	0.00304647662058793	0.000799791417173977	-0.0188042795948332	-0.00409255020464784
4.4	0.0121776074151729	0.000127671471533258	0.00312373691163069	0.000357293686576402	0.00313163779247163	0.000352643219410985	-0.0197157620635036	-0.00104213429165942
4.5	0.0125691070677512	-0.000263983897309288	0.00314736411070047	-8.97828518127003E-05	0.00314418369067605	-8.75119110696547E-05	-0.0191318726057041	0.00236353605381137
4.6	0.0124946820277146	-0.00176753126395328	0.00308873354391236	-0.00053517197896118	0.00310178127066316	-0.000523261125480383	-0.0183726222281592	0.00432421413678559
4.7	0.01197393349166	-0.00261265171843286	0.0029851169423953	-0.000945242913634164	0.00298499435250794	-0.000954654860342004	-0.017831349505272	0.00659455452546869
4.8	0.0114907850584765	-0.00336747326786998	0.00283572127050885	-0.0013458394341531	0.00282803656647565	-0.00136594997731532	-0.0168082353503442	0.00892415929202033
4.9	0.0110674152843467	-0.00384761624809707	0.00261945355324702	-0.00174256318596735	0.00261341989041864	-0.00173412366316037	-0.015390260072342	0.0113056141822116
5	0.0114342403878547	-0.00433364952592919	0.00233982429058834	-0.00207167239427556	0.00234252239215518	-0.00208405979045182	-0.0125020554356934	0.0134525251858286
5.1	0.0111390767769283	-0.00577223084423624	0.00202082921023696	-0.00238963628914953	0.00203400798179772	-0.00238718915174514	-0.0100420161813733	0.0140267011627421
5.2	0.0105592414740957	-0.00643232270153392	0.00168049790530934	-0.00264547388402405	0.0016809915522237	-0.0026496208795532	-0.00770880045758423	0.0150120705567102
5.3	0.0102828233616243	-0.0069732434871018	0.00129167977383671	-0.00285553064518573	0.00128794524370901	-0.00285808840643557	-0.00484536686063373	0.0157117952813441
5.4	0.0100626556155765	-0.00744718421657155	0.00088125212945305	-0.00301185294464979	0.000880364216180431	-0.00301430014484917	-0.00170306023817551	0.0158134433594462
5.5	0.0106070254747832	-0.00814601522260751	0.000448121283593301	-0.0031024102562184	0.000460636755791411	-0.00310239057243237	0.00223754045886276	0.0148068045093563
5.6	0.00971466353436385	-0.0100994003244683	1.83684801539128E-05	-0.00313600337609153	1.50815505090993E-05	-0.00313256025255631	0.00418588174761664	0.0118318956838677
5.7	0.0081548106902644	-0.010709019186123	-0.000413768048024632	-0.00311065548769337	-0.000417470225218437	-0.00311433266421584	0.00495158567490755	0.00991852822621487
5.8	0.00684456159071354	-0.0109200699120754	-0.00084662972351246	-0.00302043791376527	-0.000845899209023107	-0.00302809229404564	0.00552634340958771	0.00808158253467509
5.9	0.00542006425817792	-0.0105549367479362	-0.0012597834943279	-0.00286856649519388	-0.00125818488155067	-0.00287269963124154	0.00547596132909021	0.00670783842048983
6	0.0053260403006371	-0.00943271499426451	-0.00164690055712554	-0.00266915172506098	-0.00164092025686307	-0.00267248015548616	0.00647742650691283	0.00625190045635858
6.1	0.00544305866132753	-0.0102257275592284	-0.00200753147320835	-0.00241786080205045	-0.00200339567400719	-0.00242261186534673	0.00759692733984895	0.00365846636301303
6.2	0.00481292201725223	-0.0108355977012296	-0.00232562461624943	-0.00210229902761479	-0.0023220518724418	-0.00211093477289159	0.00754553667825415	0.00113272045348172
6.3	0.00410857995578224	-0.0115782446230367	-0.00259146867795255	-0.0017654777980421	-0.00260124323295131	-0.00177322496460113	0.00694382883875892	-0.00156955871245802
6.4	0.003003356736159	-0.0120204976655639	-0.00281930365988471	-0.0013843002047418	-0.00281730808802	-0.00139007753914651	0.0056040169226294	-0.00374529912062512
6.5	0.00288852072244089	-0.0125433259095527	-0.00298798127208062	-0.000980993062248035	-0.00298838532952231	-0.000979872889638217	0.00503767212060054	-0.00586348318574628
6.6	0.00132605737750855	-0.0136351653481078	-0.00308858200196142	-0.000555681722524471	-0.00309921595359738	-0.000558684616457262	0.0024489023193164	-0.00854000215724341
6.7	6.14191927254587E-05	-0.0134554917434885	-0.00313365511186534	-0.000125288012340571	-0.00313262491797699	-0.000119066675001036	-0.000458381115810061	-0.00926984772873843
6.8	-0.000926239072220211	-0.0133298408604083	-0.00312149199232842	0.000320695851525029	-0.00312059712099547	0.000325445771822323	-0.00325677558961794	-0.00935159206320295
6.9	-0.0020973513588227	-0.0127979680918566	-0.00304186368024066	0.00075155756340066	-0.00304229326971374	0.000756531227068536	-0.00604800388262012	-0.00826781517876074
7	-0.00173239207077753	-0.012088010629517	-0.00290836373590366	0.00116924112612227	-0.00290977651405927	0.00117244590545043	-0.00679189634126035	-0.00662114207545668
7.1	-0.00274476432289608	-0.0132481344820641	-0.0027142391669246	0.00156190712659921	-0.00271668131274112	0.00157288175774814	-0.00873660498068335	-0.00673393788283079
7.2	-0.00439840547704269	-0.0129850183719195	-0.00247815551228528	0.0019236118614235	-0.00247835446555647	0.00192949115074364	-0.0111317821697442	-0.00490314485293833
7.3	-0.00585989130630142	-0.0124390559908437	-0.00218977443806482	0.00224968208525645	-0.0021870227768205	0.00225116002566171	-0.012721528564248	-0.00246783247355875
7.4	-0.00765908182601143	-0.0114418769096943	-0.00184785114153781	0.00253328148828906	-0.00184067169999618	0.00253980355837605	-0.0140691850659365	0.000577328161241085
7.5	-0.00804312108305465	-0.0093152442675855	-0.00147640053185683	0.00276503968668499	-0.00147742748891521	0.00276302730872244	-0.0130505291359246	0.00481693664872376
7.6	-0.00815994725144296	-0.00934258914860996	-0.00108789677097596	0.00294820830584467	-0.00107730640581134	0.00295859333340614	-0.0111931507569189	0.00626861881241535
7.7	-0.0090994017477387	-0.00865839733085897	-0.000658493620628816	0.00307570580995589	-0.000652933995567708	0.00307538172202589	-0.00995196279941662	0.00776969238570096
7.8	-0.00948316902898449	-0.00807586203666155	-0.000212712463392178	0.00313885471442009	-0.000226312349296926	0.00313172576766494	-0.00825646851376658	0.00920458181277068
7.9	-0.00967745142210693	-0.00731100331184479	0.000208939951549473	0.00312725970045713	0.000220018807838277	0.00312700775770905	-0.00601266603534538	0.0108301535208113
8	-0.00830871579591904	-0.00733182754971182	0.000643612885893704	0.00308031131432127	0.00065192303041499	0.0030782797753308	-0.00216256047861818	0.0112926405010477
8.1	-0.00917384283735013	-0.00852483593080715	0.00108186084043344	0.00295842608942396	0.00107958933601323	0.00295515971108225	-0.00032188433994946	0.0097891369185294
8.2	-0.0102112196298036	-0.00829121535603001	0.00147508286685347	0.00277617183839522	0.00147421884920189	0.00278776583255355	0.00125157852014064	0.00951509802466549
8.3	-0.0110776271846996	-0.0078668907143225	0.00184870615267779	0.00254538570360214	0.00185379709400068	0.00254281732321388	0.00308675581836473	0.00899226799461037
8.4	-0.0120972655515613	-0.00681669174616089	0.00219824730250433	0.0022683014785887	0.00218706131855051	0.00226865485791767	0.00470216024417142	0.00851311671318838
8.5	-0.0114150943640461	-0.005469337870492	0.00250229740676684	0.00193052671516371	0.00250230333467988	0.00193188135182461	0.00796636625314845	0.0077139245298003
8.6	-0.0118986407560459	-0.0061132051204384	0.00273170413983904	0.00156687512528675	0.00272749237592444	0.00156455435129873	0.00947194949275289	0.00396538179623713
8.7	-0.0130158529969101	-0.00537772984899364	0.00292249286524897	0.00116936172393348	0.00292132953834616	0.00116894691667781	0.00939519181836794	0.00130658595326046
8.8	-0.0137364730275979	-0.00432874716491145	0.00305470062748723	0.000750978064093869	0.00306570830046363	0.00074889855565095	0.00886793774217577	-0.00108758444311044
8.9	-0.0143782941754495	-0.00289125403182999	0.00313213951317401	0.000317182550719917	0.00314153159365338	0.000310043368792161	0.00780747901588429	-0.00270318553333125
9	-0.0133156251159314	-0.00112243781572628	0.00314069016477044	-0.000134864426109122	0.00314746560444147	-0.000129248398781069	0.0082220336438831	-0.00356292745978087
9.1	-0.0127659332085598	-0.00133419504971143	0.00309518877756087	-0.000562733583001219	0.00309540734319086	-0.000562925569885687	0.00782127620340237	-0.00642619805015159
9.2	-0.0125081747337106	-0.000850827805158565	0.0029841305969883	-0.000986055803163859	0.00298795811838986	-0.000985820423730016	0.00663541789903226	-0.00837538502402548
9.3	-0.0119978276498101	-0.000714721569601874	0.00281292007660417	-0.00139882702476091	0.0028310124816353	-0.00139922149499224	0.00533263594007981	-0.0103891413776481
9.4	-0.0118867758061595	-0.000609496962662115	0.00259250585619243	-0.00177340956425128	0.00259585177581406	-0.00178445019248661	0.00322166052378741	-0.0121048947840388
9.5	-0.0109331120008321	-0.000659816066772279	0.00232341896943691	-0.00212510575474598	0.00233823531426291	-0.0021257159504622	0.00175576679374883	-0.0136550303789088
9.6	-0.012023418765532	-0.00177471973557557	0.00200894925333926	-0.00243327305522664	0.00200924678781768	-0.00242623426498103	-0.00244861557403507	-0.0161067210257409
9.7	-0.0132536584129444	-0.00113308652698051	0.00164471679619333	-0.00269153652692932	0.00165304644807771	-0.00269310687350518	-0.00731491402096284	-0.0158449421866416
9.8	-0.0140762586994291	-0.000209408474166767	0.00125851679942011	-0.0028888359545119	0.00125670681563113	-0.00289751657374792	-0.0117865329108563	-0.0143091591008756
9.9	-0.014885943611047	0.00134605388623944	0.000849290045616754	-0.00303468022015805	0.000837384224038222	-0.00303734476328394	-0.0161065398223526	-0.0111588441132247
10	-0.0138297310013444	0.00313074988879544	0.000416830841095446	-0.00312158972591507	0.000416040396613425	-0.00312894923326536	-0.0177326821315959	-0.00695097999119505
10.1	-0.013696711893973	0.00294648250516581	-2.61416051372824E-05	-0.00316028030463147	-3.08059535537187E-05	-0.00316307198940229	-0.0197537774232522	-0.00454402319542255
10.2	-0.0139886577427985	0.00383745244776816	-0.000469241941012303	-0.00311879100038969	-0.000481899224027516	-0.00312258619068767	-0.0217369229553282	-0.000564810107491293
10.3	-0.0139960119382118	0.00484706013555234	-0.000902983723009647	-0.00301657472699572	-0.000902746016558907	-0.00303002774491069	-0.0227143419915631	0.00400345709975737
10.4	-0.0139765209631723	0.00635966004904035	-0.00131527835129343	-0.00287208509229185	-0.00131847030566107	-0.00286994770362408	-0.0227035734495944	0.00930402967545226
10.5	-0.0120824776054558	0.00802335255238644	-0.00170992444920559	-0.00265045241617364	-0.00171614690101359	-0.00265775057339686	-0.0196091417638975	0.0147061754284779
10.6	-0.0108551130336715	0.00787995434254968	-0.00206856985556124	-0.00238536851567885	-0.00207008801721991	-0.00239050213981516	-0.0165009548934014	0.0175783712840296
10.7	-0.00965171801449778	0.0080760147351168	-0.00237489462246269	-0.00207064048390926	-0.00237814878818831	-0.002086737603882	-0.0129393964925102	0.020487131566788
10.8	-0.00881371702272371	0.00761450874211229	-0.00264305488748705	-0.00172078891193722	-0.0026401076648588	-0.00172297158353281	-0.0092541068121576	0.0223331402529906
10.9	-0.00872722595363074	0.00779317729084468	-0.00286272409687093	-0.00133771282186666	-0.00286201772408416	-0.00134286649821527	-0.00590178028243233	0.0244222890433925
11	-0.00693641634515136	0.00824884765869775	-0.00301903375451679	-0.000914244421548066	-0.00301201192861212	-0.000918577661590867	-0.000132247640888751	0.026125540968995
11.1	-0.00663769471365273	0.0068976863472115	-0.00311144783550528	-0.000501156288107658	-0.00310366386447999	-0.000492857845511057	0.0042915514737085	0.0248916327234366
11.2	-0.00668370820130696	0.0068202718144497	-0.00315257436809896	-5.77557791205841E-05	-0.0031591849695223	-5.45173841744337E-05	0.0083430710225257	0.024310450956413
11.3	-0.00634805836226915	0.00676675669325472	-0.00312802647012755	0.000386672423388484	-0.00313120905996238	0.000384511961341293	0.0127160023609053	0.0231785621925503
11.4	-0.00630807893699902	0.00697405683927231	-0.0030354543811497	0.00081967813496952	-0.00304009327560454	0.000819851260582326	0.0168444029589399	0.0215116717819535
11.5	-0.00470184208048791	0.00707011473731336	-0.00290060708285834	0.00122121223711399	-0.00289307300817438	0.00122595612624025	0.0224993412204411	0.0187467753418966
11.6	-0.00477925902664039	0.00527249582813705	-0.00270174400055537	0.00161872318559815	-0.00270986341949467	0.00162847323283311	0.0257225791014205	0.0128452336059205
11.7	-0.00552671507485065	0.00492324666430601	-0.00244407278817873	0.00198860420176522	-0.00244581603508221	0.00199231247122211	0.0272808548217209	0.00785701858096865
11.8	-0.00606280935749277	0.00518438651218377	-0.00214093868691272	0.00231182300921188	-0.00215013037897175	0.00232167823757467	0.0281476274938525	0.00321379150989793
11.9	-0.00611680166293635	0.00641630396113316	-0.00180024209888541	0.00258000105052904	-0.00180025576922746	0.00258657117206083	0.028551816537487	-0.000225725818079248
12	-0.00353453816420013	0.00717499846184518	-0.00142414241373551	0.00280912534171089	-0.00142864579733329	0.00281193228279091	0.0313821809612783	-0.00444165294621959
