# GHZ S RI R 50
0.2	-0.0139670157296327	0.00556786064747957	0.00304325395501911	-0.000885697248959214	0.00305371005909031	-0.000885547571964098	0.00587845511526141	0.00112385423013283
0.3	-0.0131088611711256	0.0060236451505995	0.00289662707157189	-0.00130157475793197	0.00289034121999259	-0.00131320948399155	0.00622898601058671	-0.00118086525980175
0.4	-0.0123480473328367	0.00661414732349599	0.0026819541997118	-0.00169534085367946	0.00267984955296405	-0.00169725099019877	0.00579626154549191	-0.00313357852055047
0.5	-0.0118570679748493	0.00741729294712732	0.00241221100258701	-0.00205137532149949	0.00241502201259977	-0.00205509889095457	0.00466875351283947	-0.00456478481755914
0.6	-0.0108843526795853	0.00834828741448104	0.00209987999123423	-0.00237123637319725	0.00209913654457294	-0.00237407630930121	0.00369454044310406	-0.00559484032667054
0.7	-0.0100836984539646	0.00894211366505276	0.00174925684251435	-0.00264075070105984	0.00175545644259873	-0.00264484198604629	0.00230104294296757	-0.00653472758405814
0.8	-0.00925805468625366	0.00955224998018504	0.00135602596351707	-0.00286000349938029	0.00136429073430253	-0.00285841058820413	0.000669787023154904	-0.00698063477909044
0.9	-0.00849469491026606	0.0100455784255103	0.000952220810384017	-0.00301142462489505	0.000952200630756538	-0.00302083012714971	-0.00095863645974663	-0.00709496177238689
1	-0.00805715512480783	0.0104821809022891	0.000519984962683909	-0.00311976224600223	0.000519836327261359	-0.00312511374732726	-0.00293021997144944	-0.00683689835915785
1.1	-0.00745856518831709	0.0114090838014161	7.26563398127446E-05	-0.00315918703394145	7.35422829603448E-05	-0.00316390853886112	-0.00461155968822113	-0.00543719197532343
1.2	-0.00659551446517958	0.0118057931082631	-0.000365386691541192	-0.00313169602680505	-0.000364164033215221	-0.00314847074016247	-0.00533580913919217	-0.0038657257792951
1.3	-0.00592692812218863	0.0117602106487913	-0.000795676987059343	-0.00305742378957161	-0.000800609169009292	-0.00306506973641751	-0.00513810302458522	-0.00233140629473574
1.4	-0.005404018317744	0.0112864599158439	-0.00122098992943171	-0.0029126076904927	-0.0012234024301266	-0.00291972927197911	-0.0045280208051046	-0.00160214336014759
1.5	-0.00500240553066081	0.0111534814607682	-0.00161241524499589	-0.00271411800719326	-0.00161044648278377	-0.00271965278892758	-0.00437251542840714	-0.00107559329098985
1.6	-0.00412882853697321	0.0112534555349611	-0.00197404955494284	-0.00245796847753942	-0.00197751478498001	-0.00245884686898878	-0.00437578709325991	-0.000222240873954091
1.7	-0.00336758100438675	0.0113447832709833	-0.00229827140892873	-0.00216437127113891	-0.00230031568873727	-0.00217294737857714	-0.00427471025837951	0.000795927328772355
1.8	-0.00259323749542451	0.0116161176846338	-0.00257474531789042	-0.00181585646301157	-0.00257991336821853	-0.00182131067016727	-0.00391289736948038	0.00184679217042723
1.9	-0.00182442719518189	0.0117306681703847	-0.00280000315559096	-0.00144715180067383	-0.00279649864676166	-0.00144097074488851	-0.00330777902729573	0.00277381124051172
2	-0.00122205989210856	0.0120614705241989	-0.00297438257540301	-0.00103637904609137	-0.00297712077200487	-0.00102954778679948	-0.00269660709908651	0.00385746424799312
2.1	-8.86618183955706E-05	0.012263575280969	-0.00308978617843287	-0.000605841783819335	-0.00309187977781513	-0.00061252832172229	-0.00119136316184126	0.00473512351699543
2.2	0.000824162122515082	0.0121220970333705	-0.0031437572673962	-0.000175777426990185	-0.00314557502811249	-0.000166067806944186	0.00056253370366258	0.00485150135195345
2.3	0.00152316684842231	0.0118628376934871	-0.00313588866494545	0.000265555610540871	-0.00314263198965304	0.00026264477914639	0.00221780759173613	0.00436702280620601
2.4	0.00205991166373286	0.011587610087877	-0.00307612807280364	0.000699142266941834	-0.00307497123017881	0.000714239055594198	0.00371962306673929	0.00339232001154917
2.5	0.00224086878716989	0.011509399789914	-0.00294228188217036	0.00112997840029669	-0.00295526988636239	0.0011312599746099	0.00460997933439934	0.00208501440547867
2.6	0.00290993223249663	0.0118415559745535	-0.00275337808563588	0.00152544651126786	-0.00277428319444207	0.00152933350447449	0.00557370487640772	0.000919877972042131
2.7	0.00383188955117266	0.0118934140946617	-0.0025220139871659	0.00189440888160403	-0.00252229791413312	0.00189948989962293	0.00632384877245314	-0.00073715783534908
2.8	0.00488611191366411	0.0117735337320505	-0.00222793503679855	0.00221933283517512	-0.00223777316734673	0.00223050787298426	0.00666502739831038	-0.00254948321594485
2.9	0.00600633846444899	0.0114014166997587	-0.00189281277074487	0.00251259572033888	-0.00189089692101872	0.00252150179589874	0.00667431887998786	-0.00441629368057411
3	0.00704112626527733	0.0110002618861756	-0.00152269138283182	0.00275706649710774	-0.00153775548597397	0.00274401536033949	0.00621437586469116	-0.00606761005120451
3.1	0.00835025426076403	0.0103665618614218	-0.00112383907247105	0.00294076439928949	-0.00114078301200727	0.00294615216526849	0.0058000574867673	-0.0076860140513612
3.2	0.00928595927514802	0.00938517646843695	-0.000705097922543912	0.00306633448029394	-0.000700841063501075	0.00307714350595616	0.00472983859120283	-0.00944575838865674
3.3	0.00996200934224242	0.00830381264398071	-0.000276115268850572	0.00313877648836469	-0.000272812163792431	0.00313440027267573	0.00326657003476047	-0.0110978523273901
3.4	0.0103537940063409	0.00718700083035198	0.000169699895237459	0.00314812762230467	0.000160269175493367	0.00314919834971552	0.00135886315318622	-0.0126953951325358
3.5	0.0104123488169439	0.00635302125242422	0.000604114325128802	0.00309158023078909	0.000609123335873458	0.00309025348159977	-0.00130153830149667	-0.013812808436636
3.6	0.0107692479409815	0.00562561805137361	0.00102346827575324	0.00297192112787802	0.00103006300715066	0.00297541874807887	-0.00382480755231791	-0.0141598869730896
3.7	0.0109075181130162	0.00478693519725115	0.00144007827148432	0.00279660827857701	0.00143831682130571	0.00281297681625362	-0.0064544693075119	-0.014201185874807
3.8	0.0110015663633835	0.00409886557618006	0.00180885051359127	0.00257078244059673	0.00181944591152291	0.00257714539004576	-0.00919251005226443	-0.0137695648095856
3.9	0.0111334243151076	0.00348903388219107	0.00215678930493735	0.00229293205398757	0.00215219095942309	0.00229283175159461	-0.0119732542309386	-0.012801219692388
4	0.0113097850512828	0.00313692837468606	0.00244747659875803	0.00197441680155033	0.00245890904683548	0.001980571199091	-0.0146624601392478	-0.0109445424676697
4.1	0.0120394080503388	0.00253797576958862	0.00270045666167442	0.00160962269506266	0.00271701206424251	0.0016194273419537	-0.016361898501931	-0.00849888506100951
4.2	0.0125029425705062	0.00149530731711157	0.00290369654720927	0.00121320548151416	0.00290492713628831	0.00121549422294966	-0.017656700910586	-0.0060957129574488
4.3	0.0126907111480919	0.000418185673599324	0.00304764590328352	0.00080519872765255	0.00304882075738456	0.000813789102957967	-0.0185872414513911	-0.00365466222522704
4.4	0.0125924166456393	-0.000711182064078236	0.00312749937608318	0.000370108044017259	0.00313543150840932	0.000365480812331873	-0.0192730012055688	-0.00113080696892295
4.5	0.0122024040912432	-0.00143384320782912	0.00315309759539938	-7.40747687513822E-05	0.00314990039614785	-7.181604280326E-05	-0.019790286048451	0.00173991331870912
4.6	0.0121964623744979	-0.00214788438058748	0.00310124757565347	-0.000521811875788117	0.00311427899547002	-0.000509799153789919	-0.0193566752507089	0.00481708014412303
4.7	0.0120389295309316	-0.0029945048033394	0.0029997681761663	-0.000935955127090632	0.00299968505911433	-0.000945401150795718	-0.0184707174888983	0.00745614601463916
4.8	0.011745293723932	-0.00384396576369707	0.00285145675552736	-0.00133944764456027	0.00284382418022583	-0.0013596623627056	-0.0171360928122113	0.00994496122518362
4.9	0.0114876422413868	-0.0046446833687341	0.00263689446114926	-0.00173806127067344	0.0026308017630243	-0.00172961519792564	-0.0153801136412685	0.0120713003321144
5	0.0112000822866513	-0.00524929711224175	0.00236127027170708	-0.00207282109168797	0.00236403583554101	-0.00208526361998886	-0.0132544642373756	0.0141320332009129
5.1	0.0113530926256615	-0.00608853995802024	0.00203856825725437	-0.00239742388818149	0.00205181364595985	-0.0023949272811867	-0.0102231318081907	0.0156970634280021
5.2	0.0111582871699716	-0.00713169481636619	0.00169573799348034	-0.00265539457250099	0.00169624422938252	-0.00265956227266532	-0.00710632726355605	0.0163727786607732
5.3	0.0108542897141002	-0.00808113730878323	0.00130539302240469	-0.00286809356339841	0.00130164408974073	-0.00287067399713134	-0.00400299690920873	0.0164674816942865
5.4	0.0104004573277905	-0.00903554329774475	0.000893061847446463	-0.00302867619771904	0.000892173582185538	-0.00303114044576076	-0.00106974117822013	0.0157662672528501
5.5	0.00971706507794424	-0.00956043985525483	0.000452122486770639	-0.00312279696499706	0.00046472079786425	-0.00312277297599036	0.00123619446608723	0.0147976421704323
5.6	0.00941751582995077	-0.0103695546581387	1.85973987991442E-05	-0.00315284957361103	1.5292668655476E-05	-0.00314938808976531	0.00363752073604787	0.0134374685999492
5.7	0.00848754976954629	-0.0112178571523705	-0.000415379839696694	-0.00312754443090186	-0.000419101281135409	-0.00313124221650824	0.00538088477384806	0.0115459737658739
5.8	0.00741547124984087	-0.0117338182086683	-0.000851775953886122	-0.00303755316747507	-0.00085104209725842	-0.00304525122919411	0.00663561404188981	0.00933502976007791
5.9	0.00621665650416923	-0.0119490002708182	-0.00127014388956219	-0.00288402599727941	-0.00126854024165334	-0.00288818497069457	0.00719772491341183	0.00690094162958726
6	0.00495000655234536	-0.0115535445826748	-0.00165845441565468	-0.00267816804570692	-0.00165245332589482	-0.00268152077958232	0.00672216786847215	0.00487665159123483
6.1	0.0047759315426916	-0.0111099895357569	-0.00201804448723716	-0.00242768955745201	-0.00201389263399122	-0.00243246458804007	0.00678077001795227	0.00346953782474768
6.2	0.00464825323644206	-0.0114722112352804	-0.0023394792381057	-0.00211077829485454	-0.0023358965669178	-0.00211946143466024	0.00684025795407642	0.00146883575161723
6.3	0.00431730602560184	-0.0122705066781332	-0.00260747501374112	-0.00177025707739312	-0.00261731169841946	-0.00177802779483561	0.00647284850899246	-0.00095197074156595
6.4	0.00338173915511369	-0.0132422017339838	-0.00283452803126583	-0.00138437805384306	-0.0028325359691065	-0.00139018480792487	0.00533229816718767	-0.00349122686256427
6.5	0.0023187328068193	-0.0136101770159992	-0.0030009121567029	-0.000982191620490784	-0.00300131680952651	-0.000981066566796237	0.00351216569012921	-0.00522216621715056
6.6	0.00155650885512735	-0.0141674215131438	-0.00310598119269084	-0.000554201839060014	-0.00311667662511491	-0.000557205493029542	0.00191319942952501	-0.00667512631602025
6.7	0.000474784547228089	-0.014492263233172	-0.00315030411185259	-0.000118395974084835	-0.0031492535632163	-0.000112144662609955	-0.000303720707329581	-0.00771701179101407
6.8	-0.000547489519362829	-0.0145728488001825	-0.00313531629109491	0.000330948050938027	-0.00313440390017015	0.00033571786821997	-0.00276404415852403	-0.00808977128605753
6.9	-0.00170354144488671	-0.0146014519213446	-0.00305325686919821	0.000762261141128452	-0.00305367617063596	0.000767257486931573	-0.00535417685944037	-0.00789801051335392
7	-0.00282278418582911	-0.0139365732786679	-0.00292234304879727	0.00118310747093991	-0.00292375618146142	0.00118633424747786	-0.00806563077155091	-0.00652588517945455
7.1	-0.00325413069870686	-0.0137054594149206	-0.00272230412073792	0.00158205338699632	-0.0027247124565549	0.00159309821012408	-0.0096040378089673	-0.00456677941185442
7.2	-0.00420435579628458	-0.0136642215215613	-0.00248070850898006	0.00194387936014065	-0.00248088130737092	0.00194978663558927	-0.0107806390945563	-0.00252280967507673
7.3	-0.00538311194957918	-0.0134220554053823	-0.00218887532842077	0.00226949423826469	-0.00218610496472913	0.00227096589018802	-0.0113620819746978	-0.000351369646243906
7.4	-0.00684701076814227	-0.0130918161364261	-0.00184452311000993	0.00255422143922958	-0.00183727816382996	0.00256074020763986	-0.0115804639845319	0.00148939655339775
7.5	-0.00859376269060758	-0.0119137349148658	-0.00146419303836268	0.00278801914281616	-0.00146523861516758	0.00278600451656117	-0.0118746556457476	0.00365402642060372
7.6	-0.00909029855810173	-0.0105611840436166	-0.00107021765388004	0.00296361665672593	-0.00105952675961476	0.00297395535870991	-0.0108912901280683	0.0061010760979277
7.7	-0.00966350230870828	-0.00972674077601261	-0.000639721706214116	0.00308696357251137	-0.000634151703998304	0.00308660214466233	-0.00954122381904623	0.00752650312581413
7.8	-0.00986013690694138	-0.00915959396701957	-0.000191990668925715	0.0031469518967753	-0.000205667509660601	0.00313989955723516	-0.00802968854415054	0.0087497505056522
7.9	-0.010041159800303	-0.00881141008055393	0.000233224744587912	0.00313125967738947	0.00024432150470836	0.00313092257552808	-0.00640317691679499	0.00983904028378106
8	-0.00990498455875555	-0.00816511258779272	0.000667700142750664	0.0030735538001992	0.000675989715330217	0.00307145743633293	-0.00467506585388279	0.0112239854699036
8.1	-0.00955361775548857	-0.00839783351883068	0.00109990018018209	0.00294927672443541	0.00109760957832125	0.00294602731489846	-0.00185661515190321	0.0118733500495552
8.2	-0.0098985508805418	-0.00853891419232638	0.00149196172072376	0.00276512285472477	0.00149117229883506	0.00277671559417463	0.000847619908603035	0.0118051694983647
8.3	-0.0103817704013032	-0.00847163901863404	0.00186392740177198	0.00253045462308183	0.0018689960497537	0.0025278546735597	0.00351195664867813	0.0110803098288589
8.4	-0.0111006156628019	-0.00822887696891186	0.00220877827605512	0.00224831630284655	0.00219761956367772	0.00224874493082509	0.00571594071647985	0.00955726545329337
8.5	-0.0118026780524524	-0.00729890785516096	0.00250443777930168	0.00191287074675515	0.00250445024233776	0.0019142214584384	0.00711895461264076	0.00813888193387541
8.6	-0.0118323138385944	-0.00675274762818724	0.00273513650804577	0.00155079770773787	0.00273091992454167	0.00154850157045847	0.00890763709657885	0.00634630594800629
8.7	-0.0122959040087329	-0.00633370527751258	0.00292309716025416	0.00115088727918417	0.00292193387251098	0.001150479724418	0.0100433151496835	0.00388903973364271
8.8	-0.0127827483842364	-0.00570486715139598	0.00305041461067603	0.000732325157682165	0.00306138083839061	0.000730191539911689	0.0105374235203579	0.00112212995925021
8.9	-0.0132607864977067	-0.00501829614652954	0.00312327024466467	0.000302117455792027	0.00313259950800264	0.000294959676751007	0.0103834898125266	-0.00180042278792175
9	-0.0135391005375217	-0.00384141531779714	0.00313482421321337	-0.000147459803157147	0.00314161111672664	-0.000141880944944088	0.00936553343519411	-0.00421257734773101
9.1	-0.0129819078767978	-0.00315110769470173	0.00308459598194925	-0.000578926408739605	0.00308481293684331	-0.000579119174860896	0.00853319018057743	-0.00639054496793649
9.2	-0.012669151737955	-0.00283704464840954	0.00296839966959835	-0.000998699028178961	0.00297221510002792	-0.00099848510134816	0.00716338355476441	-0.00867608473837483
9.3	-0.0123986805969464	-0.00266877186965987	0.00279537654273387	-0.00140669171462247	0.0028133967839574	-0.00140717019548498	0.00527320289245273	-0.0107748126468683
9.4	-0.0124232038041852	-0.00270404669225623	0.00257639274041938	-0.00177857649718693	0.00257968063370177	-0.00178959486613471	0.00261321391198807	-0.012702512350357
9.5	-0.0125481771604195	-0.00211001516643357	0.00230260749092874	-0.00213191918152127	0.00231736951700398	-0.00213261704308659	-0.000791531039215419	-0.0133973698440847
9.6	-0.0125095917238079	-0.00212035048251077	0.0019846481421697	-0.00243082674451808	0.00198498236860462	-0.00242382829610651	-0.00403054319972243	-0.0136186069490719
9.7	-0.0130604296069317	-0.00187237088931949	0.00162324530405999	-0.00268337804643391	0.00163152000311711	-0.00268497650315488	-0.00763458453371044	-0.0131381692358315
9.8	-0.0136508704446141	-0.00128566096058716	0.00123945826298057	-0.00287763553472183	0.00123762273859708	-0.00288625943090019	-0.0111771334428173	-0.0118375690916921
9.9	-0.0143000226347916	-0.00032141675517848	0.000830134383655936	-0.00302093668387298	0.000818285603572414	-0.00302352997024272	-0.0147706591854745	-0.00976053066854258
10	-0.0145861061133481	0.00131828784039554	0.000399489046874761	-0.00309768795304459	0.00039867234899983	-0.00310498321200623	-0.0180662755623895	-0.00631832036564994
10.1	-0.0139113144400637	0.00243275898931282	-3.29852811628821E-05	-0.00313438020575367	-3.76177231722062E-05	-0.00313713864683489	-0.0198215963390791	-0.0022992965399677
10.2	-0.0134178815962226	0.00319836713153586	-0.000471278271037714	-0.00309380806449644	-0.000483844519916495	-0.00309755089273269	-0.0207225915182786	0.00169729582862181
10.3	-0.0129209268441186	0.00383389021729846	-0.000900941627829023	-0.00299103390878848	-0.000900728747002351	-0.00300438029234322	-0.0208196975118781	0.00566565324785966
10.4	-0.0125956128099836	0.00440613703343916	-0.00130700229622186	-0.00284423096436438	-0.00131016242270546	-0.00284210892637787	-0.0203392487293211	0.00931650062687482
10.5	-0.0120229066018358	0.00557598156595171	-0.00168966438011609	-0.00262814013668224	-0.00169581677197041	-0.002635379222319	-0.0194404999110237	0.0135299832197429
10.6	-0.0106806390440517	0.00608742754099635	-0.00204848102849569	-0.00237148920754767	-0.00204997792803479	-0.00237658730910825	-0.0170444126667043	0.0174824465023465
10.7	-0.00953725294038268	0.00621067315815216	-0.00235382273754466	-0.00205962677488725	-0.00235702468820333	-0.00207561150334385	-0.0138771174471838	0.0208353558106228
10.8	-0.00856553262088193	0.00595432272265796	-0.00261929891891773	-0.00171355731121673	-0.00261636921130509	-0.00171571702543104	-0.0101852510853533	0.0233965072179964
10.9	-0.00818634446508405	0.00566910029081383	-0.0028362934432615	-0.00133784829057495	-0.0028355739606943	-0.00134296047737263	-0.00642403994630723	0.0251863694020451
11	-0.00764705356676283	0.00604718338534854	-0.0029997913531685	-0.000922063274092812	-0.00299278753745766	-0.000926345256014759	-0.00240678651766409	0.0270674507896495
11.1	-0.00662668307477276	0.00571101414256275	-0.00309339081558093	-0.000506552920377374	-0.00308567034627919	-0.000498278908193589	0.00276429485546515	0.0279797686342545
11.2	-0.00614889340329414	0.00521377202913844	-0.00313356587544129	-6.70917454535496E-05	-0.00314014693460993	-6.38929942332128E-05	0.00813854250144695	0.0276934443608966
11.3	-0.00575357195425515	0.00470447587266825	-0.00311141571371943	0.000372187432094922	-0.00311457140603948	0.000370027030058911	0.0136950535528336	0.0262098143690411
11.4	-0.00574963037498642	0.00423939938002005	-0.00302526850733698	0.000802385142923824	-0.00302988701488521	0.000802536765043199	0.0186683644341125	0.0233533052047206
11.5	-0.0056453802674476	0.00437320461141141	-0.00289138000090528	0.00120896114366083	-0.00288388928704785	0.00121370350744498	0.0226790744587379	0.019955425488757
11.6	-0.00515529409433921	0.00377655046326578	-0.00269088957500375	0.00160025302515442	-0.00269899229664059	0.00160991839753316	0.0265951060493568	0.0154478594443627
11.7	-0.00533400117376427	0.00320214393772568	-0.00243900298098101	0.00196657876403686	-0.00244075270267613	0.0019702583634635	0.0293799788214329	0.00995421567747307
11.8	-0.0056268087052763	0.00305514523455715	-0.00214151058053233	0.00229016355662209	-0.00215070439089256	0.00229992613961045	0.0309607161825067	0.00402817912802251
11.9	-0.00582688356709811	0.00332784840961561	-0.00180269037590814	0.00256118253246798	-0.00180273066724063	0.00256772329397818	0.0310182948869138	-0.00177442876993617
12	-0.00531730583431508	0.00419872445207643	-0.00142701135116436	0.00278433847432299	-0.00143149724761693	0.00278710718291299	0.0301064745066526	-0.00669748493667371
