# GHZ S RI R 50
0.2	-0.0141777923765579	0.0047130734752093	0.00304805667870781	-0.000884327563377874	0.0030585266074129	-0.000884168920692139	0.00571085400014177	0.00029215143501681
0.3	-0.0132598341130778	0.00544612532084956	0.00290283843628973	-0.00130073343181792	0.00289655419149303	-0.00131239421046542	0.00612922504167449	-0.00173809073357465
0.4	-0.0124934378135555	0.00640320595661414	0.00268970151536551	-0.00169591539862972	0.00268759452082664	-0.00169783208616493	0.00570611849121125	-0.00333413594979063
0.5	-0.0112656261982018	0.00711508227048789	0.00242005275922916	-0.00205500508929878	0.0024228738820012	-0.00205873639338664	0.00529496625720051	-0.00486957021530199
0.6	-0.0108584476897736	0.00727538942447055	0.00210650185027973	-0.00237570523858353	0.00210575837633271	-0.00237855257890124	0.00373856982372347	-0.00664157917451799
0.7	-0.0106179085750275	0.00811632077872194	0.00175589975631979	-0.00264657143101218	0.00176211903531263	-0.00265066917420745	0.00180006228337306	-0.00731667658077812
0.8	-0.0100854255400033	0.00901528761679293	0.00136187907416096	-0.00286785264941713	0.00137016794235456	-0.00286624987787641	-0.000105945391391314	-0.00747204512160756
0.9	-0.00967720527355962	0.0100360437279573	0.000955993575533442	-0.00302113296389833	0.000955975325368074	-0.00303056942340071	-0.00206991884098643	-0.00707620619868505
1	-0.00847235203423252	0.0114923090536751	0.000521189318073498	-0.00312877652312478	0.000521039757853631	-0.0031341433904132	-0.00328595962980214	-0.0058386480401732
1.1	-0.00719984727961418	0.0113698866168296	7.40061291984919E-05	-0.00316893000961776	7.48964932914445E-05	-0.00317366579887645	-0.00434031693197474	-0.00549951728074082
1.2	-0.0068447068456419	0.011293531652561	-0.000366267225858651	-0.00314276726779534	-0.000365038090807557	-0.00315960087156952	-0.00560790210208424	-0.00439824504308434
1.3	-0.00662467448025772	0.0109910537540575	-0.000799295588205789	-0.00306845818150684	-0.000804247613914149	-0.00307613104965436	-0.00589094917425232	-0.003084942298983
1.4	-0.00650571628978444	0.0106819203471133	-0.00122672572969347	-0.00292220574677094	-0.00122915024689882	-0.00292935108275161	-0.00568207546792465	-0.00213721566222108
1.5	-0.00552555856328903	0.0105469202971378	-0.00161808327061648	-0.00272371616208878	-0.00161610750567351	-0.00272927046804069	-0.00494741357186762	-0.00159148131054892
1.6	-0.00525273777490003	0.0104664309380462	-0.00198365745478401	-0.00246813768574076	-0.00198713832605399	-0.00246901872780491	-0.00551395603871116	-0.00085312753570139
1.7	-0.00448212281258299	0.0112080405421752	-0.00231074889594133	-0.0021718358774508	-0.0023128108476753	-0.00218044854251843	-0.00535923789177959	0.000807293809625422
1.8	-0.00344976723315382	0.0118582698052135	-0.00258849815699656	-0.00182045273755796	-0.00259369620715736	-0.0018259241460807	-0.00472172088278422	0.00221299496064668
1.9	-0.00232728317620344	0.0124474164737376	-0.00281425363161574	-0.00144983702704207	-0.00281072552282371	-0.00144363334959249	-0.00375708592613057	0.00357855868415857
2	-0.000473959168127654	0.0126054324188902	-0.00299178929086306	-0.00103720506806851	-0.00299453128356688	-0.00103033326844914	-0.00194465260757379	0.00445808132109411
2.1	0.000307080210932513	0.0116662750264949	-0.0031074675245946	-0.000600184581287758	-0.00310959095160404	-0.000606899701051803	-0.000831513957293074	0.0042467180349602
2.2	0.000662789548650894	0.0115393768499609	-0.00315918109180745	-0.000166501005107789	-0.00316097622743949	-0.000156739649175665	0.000390840261679327	0.00441600254084551
2.3	0.00103234272555149	0.0114723777648332	-0.00314941708618885	0.000277546619974327	-0.0031562014582119	0.000274645540216104	0.00176009571950147	0.00412636137650707
2.4	0.00130578738690183	0.0117457193439839	-0.0030883577991433	0.000714193474350951	-0.00308713809229673	0.000729358910529278	0.00303876876905734	0.00365209300792529
2.5	0.00244743599063079	0.0123239442773752	-0.00295029369304441	0.00115048278972716	-0.00296333619545093	0.00115183743559898	0.00485606639645763	0.00290884824571305
2.6	0.00351179325831172	0.0116823108958824	-0.00275486587202029	0.00154543988057655	-0.00277582326781	0.001549451806072	0.00613090430090444	0.00077345405920713
2.7	0.00414637025536187	0.0113756173770393	-0.00252033103835972	0.00191386660334678	-0.00252058920710459	0.00191896576966857	0.00654732432909088	-0.00121221532276143
2.8	0.00487358447883814	0.0111370704789942	-0.00222267056647039	0.00223879459023072	-0.00223247779746391	0.00225005994177598	0.00653329114800112	-0.00310846917152737
2.9	0.00579029799040695	0.0110718384288516	-0.00188245953847962	0.00253174019914495	-0.00188048214604247	0.00254065987740507	0.00631124055648463	-0.0046407602900051
3	0.00748347460757834	0.0106019449425002	-0.00150665340030832	0.00277107413920374	-0.00152182530191031	0.00275810385861972	0.00645251874051238	-0.00631401467835706
3.1	0.00825699013494281	0.00932087883158974	-0.00110829720213925	0.00295108449203135	-0.00112523201485279	0.00295657722583279	0.00548947581084731	-0.00850919855998456
3.2	0.00876494803672145	0.00857759804987464	-0.000687478765532388	0.00307470130099757	-0.0006831507856582	0.00308549900621503	0.00402748347731672	-0.00994935213413919
3.3	0.00923487322218289	0.00778989467111248	-0.000256170732076109	0.00314343200350365	-0.000252892758168388	0.00313903051893558	0.00239484195528092	-0.0112640438267505
3.4	0.00958424817607477	0.00722854634882704	0.000190408794350935	0.00314705694072282	0.000180984980893764	0.00314818971307593	0.000489650877256474	-0.0122856856102904
3.5	0.0106005247828162	0.00654069533894958	0.000620743468785163	0.00308697587583323	0.000625743119196144	0.00308562233081085	-0.00119797573740596	-0.0132756152535178
3.6	0.0106914989510297	0.00496412246970998	0.00104100408588051	0.00296695356120389	0.00104762119216798	0.00297041412839563	-0.00401123097736128	-0.0144112275855322
3.7	0.0103424727087793	0.00427745450896362	0.00145754788198777	0.00278714524275146	0.00145589002718199	0.00280352274172377	-0.0070635876366134	-0.0142459738665249
3.8	0.0102289659090559	0.00394957816873801	0.00182384460094505	0.0025573625615311	0.00183447254255172	0.00256365339609056	-0.00992538227786904	-0.0134596445715724
3.9	0.0104705079015896	0.00399124038803302	0.00216783206640179	0.00227759998785555	0.00216323839143028	0.00227752689501639	-0.0125408424828263	-0.0119140406251762
4	0.0119114931846382	0.00367202401875343	0.00245853159825492	0.00195929337024538	0.00246999742735663	0.00196537799426654	-0.0140538389263006	-0.0101050130089473
4.1	0.0124310825065157	0.001930482269387	0.00270913211440784	0.00158857573189121	0.00272574024921839	0.00159825141533646	-0.0160195788973446	-0.00870162201111543
4.2	0.0123295841461462	0.000823979945114522	0.00290638812647335	0.00119026643173443	0.00290763237692966	0.0011925418652195	-0.0178251501773976	-0.00630226818526565
4.3	0.012167902238023	-1.40534625360401E-05	0.00304551647796645	0.000782651581490244	0.00304674634251864	0.00079121272883182	-0.0190488554733121	-0.00362635813476588
4.4	0.0119619160178204	-0.000500372597382085	0.00312248497362063	0.00034841958808564	0.00313036736440489	0.000343750654355851	-0.0198154576166276	-0.000497362747903514
4.5	0.0127440189510079	-0.000948140200731091	0.0031434062153645	-9.88265869636772E-05	0.0031402361325686	-9.65490683757889E-05	-0.0191947929624354	0.00263938356847139
4.6	0.0126790197786212	-0.00272154647898576	0.00308290994934141	-0.000542399293172991	0.00309596976371054	-0.000530539332732123	-0.0188234463628306	0.00470324916495869
4.7	0.0121093346196013	-0.00368644800812902	0.0029782109737032	-0.000951279062482498	0.00297806500640098	-0.00096067638959479	-0.0183213290673139	0.00726091482136209
4.8	0.0115451770742703	-0.00448668327046763	0.00282758853838905	-0.00135065421553505	0.00281986655849056	-0.00137071172582192	-0.0172007692308757	0.00981096587905711
4.9	0.011113528314329	-0.00488647342044736	0.00260986347624857	-0.00174561957144113	0.00260386295505677	-0.00173718185934412	-0.0155441736231363	0.0123239834594974
5	0.011683950456562	-0.00553517271632496	0.00232998405061936	-0.00207169283257599	0.00233264988643543	-0.00208405672453306	-0.012539223896801	0.0142537551674236
5.1	0.0112018947031554	-0.00718223500851424	0.00201174280721114	-0.00238816745062631	0.00202489683171385	-0.00238575100094884	-0.0101671001861452	0.0150271920488543
5.2	0.0104647391091762	-0.00786084374944893	0.0016715204823125	-0.00264234804581148	0.00167200514639711	-0.00264648611031888	-0.00752112514382687	0.0160516008607212
5.3	0.0100522616448828	-0.00834392873947516	0.00128335435307991	-0.00285038632910196	0.00127962503634522	-0.00285293095253508	-0.00448019706503227	0.0165224203908512
5.4	0.00984521792373426	-0.00860860693941764	0.000874473157818319	-0.00300471828449257	0.000873584209373391	-0.00300715738624724	-0.00132254282491816	0.0163764617127626
5.5	0.0106624768725137	-0.00946856054889253	0.00044345734270606	-0.0030950107849315	0.000455940934858759	-0.00309500535811499	0.00228690152196559	0.0149932700010215
5.6	0.00956234674477563	-0.0115687108284512	1.42016647628102E-05	-0.00312777028574632	1.09279114696944E-05	-0.00312433191145424	0.00380395872914327	0.0124979358084315
5.7	0.00786790342096551	-0.0121299537318731	-0.000416243304008277	-0.00310124473204826	-0.000419939190010011	-0.00310490700116214	0.00484626855372189	0.0109583399597489
5.8	0.00644618176399411	-0.0122118242618357	-0.000846913134068393	-0.00301058094302336	-0.000846191969922606	-0.0030182130332283	0.00582633833314713	0.00916633966093527
5.9	0.00506307112310381	-0.0115250157925035	-0.0012580064542618	-0.00285925989220416	-0.00125641534456885	-0.00286338192357501	0.00625456136918519	0.00753456932570159
6	0.00547686905121504	-0.0104111031821509	-0.00164435399106041	-0.0026599588244989	-0.00163839398136494	-0.0026632826050879	0.00737225649212982	0.00606764701558857
6.1	0.00557241021086959	-0.0115467521255535	-0.00200231005045755	-0.00240852813416946	-0.00199819103025659	-0.00241326585870834	0.00751387249618927	0.00307182624029413
6.2	0.00478707195274185	-0.0122445236514219	-0.00231823648463386	-0.00209458162233146	-0.00231467800755873	-0.00210318889247625	0.00680094385795132	0.000818798684209234
6.3	0.00396215235972617	-0.0128933391422563	-0.00258283167257412	-0.0017596112170742	-0.00259257364546952	-0.00176733263273305	0.00590439463376194	-0.00134882668920429
6.4	0.00302326806367023	-0.0131461937714342	-0.00281006312307573	-0.00137991932439139	-0.00280807379016427	-0.00138567776047556	0.004769242127145	-0.0031068450604523
6.5	0.00322248153110001	-0.0140444229893561	-0.00297695249926238	-0.000977826104893802	-0.00297735523717158	-0.00097671007173056	0.00415831685609163	-0.00530862909971022
6.6	0.00141266783573741	-0.0154150198250633	-0.00307706703422497	-0.000555800817835952	-0.00308766059130423	-0.000558800193738264	0.00155363270027468	-0.00739998333587861
6.7	-0.00010665184496352	-0.0152955879469577	-0.00312272763388582	-0.000127551541311625	-0.00312170634964955	-0.00012135079809068	-0.000969672220538619	-0.00793885265864927
6.8	-0.00131478648436412	-0.0149964311483448	-0.00311104967647227	0.000316609704629573	-0.00311016242396791	0.000321344123827889	-0.00351038491497868	-0.00795208968517944
6.9	-0.00235745839768329	-0.0140920426852469	-0.00303159337940531	0.000745497419758922	-0.00303202683098007	0.000750452480763171	-0.00592149858441753	-0.00690997566894084
7	-0.00150875959338992	-0.0136414937595097	-0.00289953033962527	0.00115968962648734	-0.00290094350991231	0.00116287987479547	-0.00678016860526324	-0.00585734491134884
7.1	-0.00273167510612295	-0.015103974120389	-0.00270834998235147	0.00155132485241806	-0.0027108058812116	0.00156225823592462	-0.00919309871082315	-0.00543740940689743
7.2	-0.0046151427757863	-0.0149162202116203	-0.00247411666790973	0.00191215349377429	-0.00247432729535837	0.00191801321939102	-0.0111920958289236	-0.0031395974131816
7.3	-0.00638732951540176	-0.014261448051382	-0.0021879164431132	0.00223723302070938	-0.0021851771975897	0.00223871259512784	-0.0122040178296529	-0.000552639897779005
7.4	-0.00833708451836626	-0.0127467399718561	-0.00184907194544145	0.00252002619805464	-0.0018419336759394	0.00252654763363392	-0.0127306459738989	0.0023616328847325
7.5	-0.00817440248468181	-0.0104068633869743	-0.0014811637189023	0.0027534768562153	-0.00148218187518664	0.00275146642530874	-0.011176969388639	0.00539722743325996
7.6	-0.00824473710558171	-0.010581046535576	-0.00109372833451217	0.0029378159387018	-0.00108319399185585	0.00294820597950212	-0.00988518745581349	0.00624317321246471
7.7	-0.00904174840315033	-0.00991335494494707	-0.00066643160189637	0.00306612993952827	-0.000660884583827359	0.00306582390834734	-0.00887647306723862	0.00746865272367456
7.8	-0.00930491373482422	-0.00938186566581758	-0.000222899081098776	0.00313098781248195	-0.000236443779495713	0.00312382885695661	-0.0075414095194725	0.00862884778576654
7.9	-0.00917197394531224	-0.00870253452813069	0.000197150096829006	0.00312223098185404	0.000208209357651395	0.00312201990261424	-0.00575139960279418	0.00996851219656101
8	-0.00764045658246027	-0.00941154384873369	0.000632377278886269	0.00307753311960915	0.000640680906676287	0.0030755323629956	-0.00289030302263309	0.0102587294780672
8.1	-0.00889471784216266	-0.010922124765203	0.00106925832450713	0.00295708470834671	0.00106700264505226	0.00295381592169968	-0.00176573166732697	0.00989271014423198
8.2	-0.0102681832200562	-0.0107543015083654	0.00146201158284941	0.00277794191386068	0.00146110318769002	0.00278951565276342	1.8643861724577E-05	0.0103409168986854
8.3	-0.0114417099958589	-0.0101882311007631	0.00183652636753245	0.00255023172323601	0.00184162244189001	0.00254768654154307	0.00212614065233859	0.0102252876190552
8.4	-0.0124551340341719	-0.00874549740067458	0.00218807216555399	0.00227518437809723	0.00217689240142831	0.00227549467941118	0.00417321320206575	0.00990960525165925
8.5	-0.0113751210013028	-0.0075702693065098	0.00249255830832202	0.00193816847370552	0.00249255908727686	0.00193952182851993	0.00731994613364723	0.00865908908573251
8.6	-0.0120659285813187	-0.00844336963816863	0.00272337069459991	0.00157754855971959	0.00271917137469724	0.00157521127149048	0.00838444141741024	0.00565814022901081
8.7	-0.01342534771228	-0.00775486561102742	0.0029169416542981	0.00118149048358061	0.0029157803226678	0.00118107083792084	0.00882492558874246	0.00364725805506243
8.8	-0.0144631686963324	-0.00655412564816902	0.00305166744279248	0.00076360413646109	0.0030626839406395	0.000761570021635642	0.00904337274045511	0.00147761926210439
8.9	-0.0151842890413646	-0.00462128098530901	0.00313079639176672	0.000329970009086932	0.00314021748710652	0.000322869294993343	0.00891201853312064	-0.000377495359346913
9	-0.0136729130879178	-0.00275612199537498	0.00314193476284147	-0.000120182021220708	0.0031486852235129	-0.000114533166549895	0.00964345452305474	-0.00238593403908153
9.1	-0.0130480376898146	-0.00305931161104896	0.00310049028438007	-0.00054930307423315	0.00310070990976423	-0.000549494248881509	0.00881643253397614	-0.00559124178312256
9.2	-0.0127106592840511	-0.0026751454387492	0.00299153072912929	-0.000974221014198433	0.00299536127022493	-0.000973968873690699	0.00746241968637014	-0.00789562576837664
9.3	-0.0122395909439734	-0.00257702071158784	0.00282221655571508	-0.00138824481584369	0.00284033147268216	-0.00138856133123338	0.00570484134785081	-0.0101361473822209
9.4	-0.0119462342554588	-0.00226955866415491	0.00260429538348526	-0.00176377317742972	0.0026076972260927	-0.00177481332198709	0.00326882443738507	-0.0118036659011676
9.5	-0.0106563174711187	-0.00271662711139064	0.00233858596354819	-0.00211925891940477	0.00235343922253308	-0.00211980204950525	0.00108382279883076	-0.0135056373091676
9.6	-0.0118943610712881	-0.00407278788796816	0.0020237925227157	-0.002430938202416	0.00202406193008644	-0.00242388112874786	-0.00349289180983045	-0.0148781391046501
9.7	-0.0132806972604356	-0.00357131126655884	0.00165991437990476	-0.00269174543189522	0.00166827183083673	-0.0026932858551762	-0.00783289813141414	-0.0140336526407268
9.8	-0.0143202422061017	-0.00260033204251804	0.00127399774065863	-0.00289211315208132	0.00127221797150188	-0.00290082648200892	-0.0116938796916398	-0.0123479442654501
9.9	-0.0150986226449287	-0.000764112674838848	0.000864302232271666	-0.00304210776744305	0.000852364632193455	-0.00304482883531954	-0.0152742953119232	-0.00952324077148805
10	-0.0136985062180314	0.000760653159637782	0.000428089432339519	-0.00313223154887426	0.000427318753126092	-0.00313962163581993	-0.0170304002743842	-0.00640014363735109
10.1	-0.0138141751174459	0.000335018540811407	-1.65489822381723E-05	-0.00317195124485792	-2.12218795703559E-05	-0.00317476746820789	-0.0197228691510529	-0.00382592145285007
10.2	-0.0144182050920463	0.00121728635205306	-0.000462003356343462	-0.00313271622238751	-0.000474700474011721	-0.00313656372828751	-0.0217000799601541	0.000360607545406611
10.3	-0.0146969024014681	0.00253387235214463	-0.000899288338940916	-0.00303203753105042	-0.000899015524557859	-0.00304554870762818	-0.0225146975294663	0.00500423932386546
10.4	-0.0144550499116326	0.00458120581681219	-0.00131591528821928	-0.00288742002921178	-0.00131912552684505	-0.00288527889355531	-0.0220949271681475	0.0100119054825919
10.5	-0.0119472921286462	0.00602971146588434	-0.00171229676169394	-0.00266339915881132	-0.00171853158522889	-0.00267073537802527	-0.0194519833406732	0.0143760462848108
10.6	-0.0107114191942849	0.00552459331854066	-0.00207270560589366	-0.00239911909019172	-0.00207422049813731	-0.00240427684008987	-0.0173711576348689	0.0174559786002552
10.7	-0.00971531653055253	0.00551614642509237	-0.00238225570774519	-0.00208352075489479	-0.00238549946153829	-0.00209969449561408	-0.0144211710803546	0.0208734001563975
10.8	-0.00905674310625247	0.00521915343300587	-0.00265307291763391	-0.00173153063823846	-0.00265010992560797	-0.00173371987180416	-0.0110075072679896	0.0235935905321402
10.9	-0.00874449396481666	0.00566098337750889	-0.00287373332096195	-0.00134572981186138	-0.00287301971531411	-0.00135090470944992	-0.00714222639350387	0.026228263145529
11	-0.00652907265342065	0.00566991663015077	-0.0030310831064052	-0.000922135912773169	-0.00302402494035171	-0.00092647909769011	-0.00151276549003371	0.0277267039632022
11.1	-0.00644145718732951	0.00396337517621374	-0.00312646507150901	-0.000505852344264408	-0.00311864855720838	-0.000497507343163921	0.00275575131658485	0.027571802775373
11.2	-0.00679801469365667	0.00366548458550417	-0.0031678860529576	-5.87846625448694E-05	-0.0031745295585559	-5.55320937124485E-05	0.00758421906343447	0.0276483700261539
11.3	-0.00695802528481352	0.00372704456947231	-0.00314280989249946	0.000388505087042541	-0.00314600752782072	0.000386334419189521	0.0128539356222603	0.0267233798507537
11.4	-0.007051404252108	0.00438041809417144	-0.00304990521304795	0.000823272194647341	-0.00305456608963426	0.00082344570114839	0.0180015268719306	0.0247745125944705
11.5	-0.00525195389955797	0.00436589228358393	-0.00291616892695168	0.0012288965640049	-0.00290859180648004	0.00123366406796459	0.0237494779755554	0.0210044149167618
11.6	-0.00557584766905852	0.00270159154990599	-0.00271386368925854	0.00163017046005899	-0.00272201396120251	0.00163998016146047	0.0269537563961377	0.0154053014101835
11.7	-0.00639734770835001	0.00265292364447483	-0.00245357365275502	0.00200169340556451	-0.00245532065525195	0.00200542237046073	0.0292853226168754	0.0102367500492716
11.8	-0.00679357854694654	0.00333264953421909	-0.00214826586359315	0.00232650566391267	-0.00215748911567248	0.00233642357889519	0.0308412804400337	0.00482160228179105
11.9	-0.00621027513880123	0.00491840765891536	-0.00180526941615967	0.00259721776023754	-0.00180527119533907	0.00260382340133703	0.0315788468309826	-0.000121529745172908
12	-0.00303837398152663	0.0050595020236423	-0.00142311516064793	0.00282791274883325	-0.00142763345251476	0.00283074766749521	0.0329183622112097	-0.00612411994872466
