# GHZ S RI R 50
0.2	-0.0145544710601909	0.00411767467462522	0.00305247938957272	-0.000882839155306422	0.00306296182939373	-0.000882671539993082	0.00535547659030724	-0.000297897607853645
0.3	-0.0136208406173239	0.00506642171269369	0.00290874159245536	-0.00129968739655191	0.00290245989828834	-0.001311373009937	0.00580052525151463	-0.00211445203259406
0.4	-0.0128215907048754	0.00643731484349593	0.00269724261377967	-0.0016962802815361	0.0026951335017513	-0.00169820339214656	0.00542442220021272	-0.00330405493643572
0.5	-0.0107801571536809	0.00697668413176111	0.00242758481213208	-0.00205845890174272	0.00243041565876975	-0.00206219758806388	0.0058393913503783	-0.00503419660944763
0.6	-0.0110063804968852	0.0064042435501061	0.00211293403424021	-0.00237981678994481	0.00211219071046836	-0.00238267120411978	0.00364669699085738	-0.00756012770361223
0.7	-0.0112508211135782	0.00752309010713316	0.00176244809145444	-0.00265209630038379	0.00176868657367068	-0.00265619995025215	0.00121709286950943	-0.00797780256511457
0.8	-0.0109706934458327	0.00867891930901267	0.00136764420750855	-0.00287544947882589	0.00137595646511701	-0.00287383690591313	-0.000956599743436516	-0.00789461840391447
0.9	-0.0109258640594987	0.0102296436109021	0.000959599116534347	-0.00303059924276058	0.000959582540299058	-0.00304006582149572	-0.00331040753741361	-0.00697633599571619
1	-0.00886046316034867	0.0127450184460378	0.00052227679363687	-0.00313730777428479	0.00052212627146613	-0.00314268916710147	-0.00368517196674092	-0.00465194316149243
1.1	-0.00693928872430248	0.0115670072050531	7.53758319719018E-05	-0.00317834768728826	7.62705671560947E-05	-0.0031830972681912	-0.00407366079171289	-0.00536112693260283
1.2	-0.00697065845127958	0.0112072321422908	-0.000367210174956863	-0.00315346251747389	-0.000365975266785152	-0.00317035310436499	-0.00571810893902112	-0.00455835910812572
1.3	-0.00697865160720721	0.010676676389955	-0.00080295715708584	-0.00307901459723408	-0.000807928713325605	-0.00308671304063468	-0.00622699827768876	-0.00347620835466354
1.4	-0.00720787621001412	0.0104426129920421	-0.00123241467492598	-0.00293116196867357	-0.00123485120476748	-0.00293832952696662	-0.00636596097398727	-0.00245284522285509
1.5	-0.00574219021626927	0.0101517512331017	-0.00162344811844283	-0.00273274829679686	-0.00162146580065932	-0.0027383210200801	-0.00514124096727733	-0.00208866284589956
1.6	-0.00625850457009646	0.00984360513985846	-0.00199301530843381	-0.00247765677439202	-0.00199651115070926	-0.00247854004901544	-0.0065131635751936	-0.0015959944104663
1.7	-0.00558741175237737	0.0112137646358093	-0.00232271102861691	-0.00217851331036002	-0.00232479065671333	-0.00218715990556259	-0.00649120884012779	0.000687056555426942
1.8	-0.00442444367653377	0.0122533381612144	-0.00260139254105154	-0.00182428971673425	-0.00260661894005413	-0.00182977614841801	-0.00574631514749297	0.00249652301603322
1.9	-0.00302222572594024	0.0134149119020659	-0.0028272542363183	-0.00145200012834085	-0.00282370424437513	-0.00144577635456812	-0.00450227134657952	0.0044574846858729
2	0.000128297184480095	0.0134678864297371	-0.0030078517185807	-0.00103794030352982	-0.003010597151169	-0.00103103109169497	-0.0013666678710157	0.00524075472381654
2.1	0.000571012730896448	0.0114394901872897	-0.00312365900365794	-0.00059474862375344	-0.00312581024468185	-0.0006014896459943	-0.000583172245931357	0.00391982819339753
2.2	0.000459350637929825	0.0113468570153569	-0.00317317197706721	-0.000157948853556115	-0.0031749461616577	-0.000148140512623427	0.000163545757366922	0.00410765122630985
2.3	0.000550999384936954	0.0114278156104179	-0.00316176870237915	0.000288407449374659	-0.00316859045506818	0.00028551509377811	0.00123900812304336	0.00395851823956112
2.4	0.000554118754475799	0.0122131844479139	-0.00309981693935429	0.000727827101873159	-0.00309854055716748	0.000743056530240531	0.00222243860051859	0.00399845319475736
2.5	0.00267201832555372	0.013464078235169	-0.00295790611284008	0.00116962644701308	-0.00297100002491902	0.00117104916999678	0.00501249574751681	0.00395495774364443
2.6	0.00412935313876516	0.0118476453046429	-0.00275617054807595	0.00156390183866304	-0.00277717578273242	0.00156802927496569	0.00670916703714127	0.000858253288854371
2.7	0.00450481624200832	0.0111984498760092	-0.00251887324117331	0.00193182146226933	-0.00251910774011762	0.00193693749257159	0.00687966381953115	-0.00148825547737905
2.8	0.00490604112003955	0.0108241956110561	-0.00221794298268296	0.00225691180466468	-0.00222772226704964	0.00226826128416856	0.00653123487060354	-0.00354165552273187
2.9	0.00559908758290877	0.0110752853138543	-0.00187284651630108	0.00254983141460902	-0.00187081129028392	0.00255876432086023	0.00605735555996605	-0.00475708274657921
3	0.00797382342603684	0.010529541483525	-0.00149125118738679	0.00278402192408291	-0.00150652349078543	0.00277112995796483	0.0068812813099567	-0.00647965563058743
3.1	0.00816557136013697	0.00856956220243184	-0.00109375349122723	0.00296048312401091	-0.00111067862085641	0.00296607317372809	0.00534599985990223	-0.00940417593331075
3.2	0.00823027016730221	0.00806795544949105	-0.000670932142664389	0.00308236538120761	-0.000666537775256127	0.00309315186615209	0.00341483420231258	-0.01060104551628
3.3	0.00846450544662625	0.00753713108797978	-0.000237348349206907	0.00314752025407177	-0.000234094374161597	0.00314309537283249	0.00151188843813136	-0.0116473437108345
3.4	0.00869254640743979	0.00752161966323605	0.000209969735333515	0.00314545479557131	0.000200554220876345	0.00314664606829457	-0.000533802900296388	-0.01208203497595
3.5	0.0106102733848858	0.0070037443508417	0.000635837134300157	0.00308194442419481	0.000640826889842026	0.00308056664995019	-0.0012768474490413	-0.0128806555950999
3.6	0.0103364058180307	0.00465786826621913	0.001056986598631	0.00296188038182666	0.00106362321313378	0.00296530623133822	-0.0044763012778216	-0.0148062005129228
3.7	0.00949886089612336	0.00426008175565338	0.00147330933394371	0.00277775345924771	0.00147174740477968	0.00279413531124048	-0.0080447306462539	-0.0143305756396156
3.8	0.00922812153433413	0.00439589678179611	0.00183694360841546	0.00254433567166777	0.00184759790617138	0.00255055882087327	-0.0110743508545848	-0.0130381281066724
3.9	0.0096508207917648	0.0051752207528375	0.0021768009411032	0.0022631676512417	0.00217221312276539	0.002263118685199	-0.0134933384140882	-0.0107047712777958
4	0.0124815674409411	0.00494610617809586	0.00246772237404623	0.00194585815397323	0.00247921530040015	0.00195188127179999	-0.0135880715019912	-0.00876755816140372
4.1	0.0129012616151095	0.00206402920353672	0.00271642886827525	0.00156963430895791	0.00273308133372163	0.00157919393929124	-0.0155912858330894	-0.00847255418323875
4.2	0.0123878757551851	0.000859741425875062	0.00290824366629548	0.00116978395869018	0.00290949976385707	0.00117204722436242	-0.0177517446605421	-0.00618223651077748
4.3	0.0120129021684587	0.000122593092672777	0.00304314021359917	0.000762698888383732	0.00304441823901153	0.000771232921833421	-0.0191589412115643	-0.00342632222686659
4.4	0.0117252188590988	5.579036461064E-05	0.0031178226619121	0.000329391148431264	0.00312566079957188	0.000324686088709766	-0.0199985758971707	0.00012626659330604
4.5	0.0135880542443566	-0.000298889355986399	0.00313481637529942	-0.000121230462268115	0.00313167064894236	-0.000118935807566493	-0.0182243724354305	0.00341657667703644
4.6	0.0132853625468236	-0.00326820738023923	0.00306585000484122	-0.000560858241454425	0.00307893314383576	-0.000549138002662421	-0.017972840613484	0.00421342231122365
4.7	0.0121298031823996	-0.00435078267736715	0.0029584086442335	-0.00096466218679039	0.00295820693814187	-0.000974014178186277	-0.0180325392117549	0.00656581629052564
4.8	0.0111552049811983	-0.00505997755703796	0.00280593698142461	-0.0013602813929971	0.0027981375830531	-0.00138019600713161	-0.0173207664943235	0.00914039637013184
4.9	0.010420193890392	-0.00498001706320729	0.00258548253064853	-0.00175222881241637	0.00257956490592048	-0.00174379928265738	-0.0159669977669931	0.0121047732505293
5	0.0117991170389348	-0.00552109808123301	0.00230114429889058	-0.00207028471804156	0.00230371908677986	-0.0020825749176321	-0.0121024237728338	0.014068461754247
5.1	0.0106303693611018	-0.00784136272849244	0.00198755582047321	-0.00237897398237125	0.00200062431418132	-0.00237662800759405	-0.0104746175546976	0.0140604551463789
5.2	0.00942106226520064	-0.00800159854417474	0.00164986895074248	-0.0026299942051134	0.00165033472629163	-0.00263410494549687	-0.00837077078922308	0.015570688472064
5.3	0.00901365203988422	-0.00797885910419084	0.00126361489948708	-0.0028339126228206	0.00125990402509287	-0.00283642501694091	-0.0053737196204618	0.0165427739086314
5.4	0.00907969863391644	-0.0075949897556067	0.000857713196632557	-0.00298235192690736	0.000856824007720235	-0.0029847678441736	-0.00196589681005797	0.0170480538202721
5.5	0.0114029571888555	-0.00878943090412122	0.000436522124832144	-0.00306887055957353	0.000448898480606338	-0.00306887778653125	0.00313049813436804	0.0153151773699829
5.6	0.00939642841886798	-0.0121796940917483	1.12077927591458E-05	-0.00310484216330429	7.96122802760103E-06	-0.00310142598386414	0.00372580146387184	0.0114993241654412
5.7	0.00686531347097488	-0.0123570121426048	-0.00041611619386551	-0.00307735634828818	-0.000419787666759081	-0.00308098728223468	0.00387487410037256	0.0103090829182879
5.8	0.0050736181709881	-0.0118567021064198	-0.000841539891054612	-0.00298619103806795	-0.000840827971854056	-0.00299376261120467	0.00440301851560972	0.00910870641213406
5.9	0.00353153339981439	-0.010054177182709	-0.00124577459985136	-0.00283712659125933	-0.00124419330634925	-0.00284121422648827	0.00458803903860923	0.00866548377678809
6	0.00583764692746909	-0.0078999491057953	-0.00163068703259838	-0.00264481557645525	-0.00162476137593023	-0.00264811104853247	0.00762826319739665	0.00838544201319733
6.1	0.0067061401249585	-0.010517059416393	-0.00198816614417502	-0.00239220225131333	-0.00198407486024674	-0.00239690673107059	0.00864682987914593	0.00391158597355098
6.2	0.00576067225370603	-0.0118269796725227	-0.00229926023843603	-0.00208048466769654	-0.00229572233061422	-0.00208902453561811	0.00780471924510742	0.00101812310588858
6.3	0.00459019732736919	-0.0128779621958592	-0.00256068324498161	-0.00175027681883776	-0.00257034002768628	-0.00175795485109276	0.00658421392649357	-0.00157462929920994
6.4	0.00333970551335689	-0.0128058608379913	-0.00278804346685455	-0.00137626736933409	-0.00278605589274032	-0.00138198240378433	0.00513160528964561	-0.00301158702140178
6.5	0.00444561050981816	-0.0142175957085007	-0.0029557488792279	-0.000973733995775875	-0.00295614983586696	-0.000972625943214691	0.00548649992385481	-0.00575247003091278
6.6	0.00138516655743466	-0.0162654754908504	-0.00305049791771599	-0.000556999074164164	-0.00306099795455675	-0.000559993569322145	0.00160562281261398	-0.00860807472923844
6.7	-0.000581256832351138	-0.015588794161819	-0.00309729462350724	-0.000136114842381493	-0.00309630056413128	-0.000129960688365311	-0.00142528353163521	-0.00860758532093161
6.8	-0.00197485148950374	-0.0149590107350341	-0.00308889565711785	0.000303109813565758	-0.00308803198364917	0.000307811969092391	-0.00418928719889841	-0.00828019809225612
6.9	-0.00305765120836322	-0.0131881236006257	-0.00301216090315374	0.000730079330828858	-0.00301260762193054	0.000734997162992561	-0.00665137201382464	-0.00633066764049524
7	-0.000304924178405432	-0.0128162942045976	-0.00287818533754276	0.0011384460364613	-0.00287959802209087	0.00114160264026116	-0.00553662857377695	-0.00536274560375274
7.1	-0.0023936537973525	-0.0160134058895735	-0.00269549796596261	0.00152260785222278	-0.00269799877176666	0.00153343759091395	-0.00882470309831724	-0.00677903837261432
7.2	-0.00525098091391839	-0.0156119472252433	-0.00246832684952482	0.00188274699257226	-0.00246857292435301	0.00188856310608259	-0.0118757637700855	-0.00432494830223035
7.3	-0.00761624633691069	-0.0145637830654416	-0.00218724817074428	0.00220758405678963	-0.00218453746532417	0.00220907111584704	-0.0135872627099937	-0.00135730092152736
7.4	-0.0101293729056356	-0.0119263286284163	-0.00185303335558542	0.00248853232828464	-0.00184599326003062	0.00249505551903977	-0.014798892685788	0.00276324855082193
7.5	-0.00820483350093076	-0.00843213071133205	-0.00149702781731553	0.00272117658138627	-0.00149802033505927	0.00271917007656414	-0.0115685824391454	0.00708661415956379
7.6	-0.00810244527766361	-0.00994022912898984	-0.00111591632401326	0.00291421421715076	-0.00110552650714336	0.00292465415382782	-0.0100037427914717	0.00665886093427022
7.7	-0.00925092737090338	-0.009230169475358	-0.000691155876028749	0.0030471905361523	-0.000685629543851711	0.00304693562079016	-0.00937404193743443	0.00798612017020299
7.8	-0.00956471132896269	-0.00844683991661049	-0.000251224880123034	0.00311634106726195	-0.000264648403593996	0.00310908443687873	-0.00806114953243227	0.00943724183852871
7.9	-0.00901627937094157	-0.00720618318127363	0.000163896578913551	0.00311359977527213	0.000174920182991486	0.00311350481539574	-0.00573065973509729	0.0113525033604846
8	-0.00597719912021475	-0.00887891793169167	0.000599804145159629	0.00308151110226772	0.000608121572049982	0.00307959848198105	-0.00132001597331958	0.0107634008654456
8.1	-0.00845486054827161	-0.0117164228776356	0.00104172119342307	0.00296398016677929	0.00103949693691573	0.00296069411465308	-0.00138292376911995	0.00889093870396529
8.2	-0.010534364314377	-0.0111603161108515	0.00143469241827967	0.00278861695560784	0.00143367750960496	0.00280017017916309	-0.000365830967662188	0.00969185747474506
8.3	-0.0120183884172074	-0.0102414196138473	0.00181062913834962	0.00256708840595436	0.00181574785077366	0.00256459445344492	0.00138586071273724	0.00995700639057877
8.4	-0.0131410592567254	-0.00792872358830565	0.00216754430983795	0.00229931696571523	0.00215635023842126	0.00229951592941781	0.00332657586014217	0.0105899436697194
8.5	-0.010171624239571	-0.00670507622515069	0.00248083426194498	0.00196118103588017	0.00248082417079075	0.00196253648437701	0.0084840431426026	0.00939907919735335
8.6	-0.0115424107954097	-0.00939103414154883	0.00271081602982854	0.00160183885416009	0.00270663524237968	0.00159946415130594	0.00886876718745632	0.00450519671223182
8.7	-0.0139380323578318	-0.00859899211183494	0.00290949399681383	0.00121033963283826	0.00290833515418775	0.0012099085646628	0.00824882391828081	0.00257790155573057
8.8	-0.0156131604073336	-0.00697903140024345	0.00305160208416992	0.000793737958755973	0.00306266288893337	0.000791801583651927	0.00778762585010482	0.0008354885160076
8.9	-0.0167626038568515	-0.0039462123048173	0.00313746829490402	0.000356835451455532	0.00314697635812313	0.000349791281935051	0.00719680574515785	0.000126364110806542
9	-0.0135511948615115	-0.00133243274107517	0.00314735812806795	-9.44802059615682E-05	0.00315407160106168	-8.87677951482524E-05	0.00962524036545053	-0.00104368817226128
9.1	-0.0130547139572979	-0.00271194783646549	0.0031145531979053	-0.000520174886644615	0.00311477532498967	-0.000520364421795567	0.00876484753981112	-0.00527714538534035
9.2	-0.0128516752013661	-0.00214861066794622	0.00301308160492504	-0.000950068603422938	0.00301692561421756	-0.00094977933419879	0.0073514789015569	-0.00741786373136514
9.3	-0.0122562154334903	-0.00207056650420424	0.00284745491166527	-0.0013701830648952	0.00286565710014634	-0.00137034354974861	0.00577871776474867	-0.00969740586891576
9.4	-0.011864833574543	-0.00135333539920806	0.00262999325380204	-0.0017493975176265	0.00263350174839385	-0.00176045559255199	0.00351358601550745	-0.010996119758224
9.5	-0.0091981026255035	-0.0027416332713403	0.00237221896253904	-0.00210565805914599	0.00238715214921808	-0.00210605018278336	0.00282404906366452	-0.0136772128562918
9.6	-0.011920281768379	-0.00536796261575852	0.0020610949829156	-0.00243016791632186	0.00206130131289044	-0.00242305642940765	-0.00322701212079557	-0.0165360587293864
9.7	-0.0142499519505474	-0.00439730996993334	0.00169450627653933	-0.00269896577387328	0.00170294045052338	-0.0027004502378585	-0.00862021976260709	-0.0153389885299193
9.8	-0.0158181028269493	-0.00284817463817164	0.00130629790818436	-0.00290478025196578	0.00130457169828738	-0.00291357521536948	-0.0131325750466275	-0.0131117446222923
9.9	-0.0168772933906874	0.000131337983979563	0.000896605949702363	-0.00306028046440005	0.00088459150207237	-0.00306312271776137	-0.0170696491504133	-0.00907011832014983
10	-0.0136788810149592	0.00211986472472278	0.000456029073393865	-0.00316363861971697	0.000455304655413356	-0.00317111600474071	-0.0170328880328056	-0.00543821385258279
10.1	-0.0141511451555306	0.000519408957625381	-5.06700765087023E-07	-0.00320589042392408	-5.2150729890169E-06	-0.00320876059839105	-0.0200872492752496	-0.00406439070810586
10.2	-0.0151926874108158	0.00164835484439729	-0.000451809316848676	-0.00316747927799581	-0.00046461995249599	-0.00317142753709016	-0.0225711133627703	0.000364222158414577
10.3	-0.0156548488548607	0.00330151139173123	-0.000895107147866277	-0.00306927125890769	-0.000894768999377188	-0.00308292860042618	-0.0236488828944097	0.00539441379545379
10.4	-0.0153616148405212	0.00628137482002974	-0.00132101191374105	-0.00292828238747928	-0.0013242702138997	-0.00292612718776874	-0.0232274254051035	0.0114607484492641
10.5	-0.0109570882303582	0.00775551028110237	-0.00173184986965087	-0.00269784538397753	-0.00173815751653164	-0.00270527752949604	-0.0185662231560748	0.0159715302063381
10.6	-0.00994865575049032	0.00594152328669222	-0.00209353686747741	-0.00242599448314189	-0.00209506504487757	-0.00243120833507826	-0.0166211962048523	0.0177194114112207
10.7	-0.00922038604306333	0.00564898769104654	-0.00240726064662696	-0.00210769785914955	-0.00241053112761876	-0.0021240509094578	-0.0138067250954713	0.0209423226423138
10.8	-0.00897301663771366	0.00510009369229008	-0.00268385703225201	-0.00175064650675102	-0.00268086072315076	-0.00175286153795248	-0.0107416059569578	0.0233657627205385
10.9	-0.00904683971512862	0.00621526306296553	-0.00290926941233198	-0.00135512468154536	-0.00290855837527947	-0.00136036003525226	-0.00725681179646174	0.0266800760128836
11	-0.00527631837745174	0.006008915244632	-0.0030601343025503	-0.000922912051422446	-0.00305302428826502	-0.00092731082940267	4.68937460574983E-05	0.027876463272463
11.1	-0.00626765672625126	0.00290182120752983	-0.00315749738356118	-0.000506968448535774	-0.00314959466840408	-0.000498551774490225	0.00324993699820378	0.026191901195384
11.2	-0.00751695127738854	0.00290796984697705	-0.00320081467485237	-5.23299237629432E-05	-0.00320751970949943	-4.90288673973156E-05	0.00715638381470419	0.0264686768547805
11.3	-0.00829327382027214	0.00351982344136339	-0.00317311485246013	0.000403143122074569	-0.00317635207993845	0.000400961522340595	0.0116677689564879	0.0260321305182098
11.4	-0.00860391764150683	0.00530175036458968	-0.00307305726231993	0.000842836035920874	-0.00307775793371557	0.000843030015198147	0.0165190469281532	0.0252158734469334
11.5	-0.00499807113725141	0.00526435462427689	-0.00293939726840351	0.00124605207129356	-0.00293174271597385	0.00125084560517289	0.0241579520054851	0.0214712900809732
11.6	-0.00626991206963169	0.00240815565152221	-0.00273612638043134	0.00165757455852751	-0.00274432484176072	0.00166751808547938	0.0264411827111958	0.0146156436098068
11.7	-0.00782018316097621	0.00293611543762717	-0.00246736665457895	0.00203413629068523	-0.00246911153263659	0.00203791105154112	0.0279767046817289	0.00995891537804409
11.8	-0.00844237116412204	0.00441639238354049	-0.00215434874758881	0.00235957625050293	-0.0021635985162076	0.00236963551540715	0.0292222961954636	0.00539881418329974
11.9	-0.00729398793698366	0.0074350089277085	-0.00180773013317388	0.00262894263259732	-0.00180769833299372	0.00263560561946703	0.030501766099541	0.00199648802831494
12	-0.0015001850232803	0.00713520605281203	-0.00142094990403575	0.00286721073027338	-0.0014254993560102	0.002870104184806	0.0346908330430225	-0.00447736601141922
