# GHZ S RI R 50
0.2	-0.0139262458929075	0.00558629232844171	0.00304310696873275	-0.000885603697540649	0.00305356251867577	-0.000885453867620116	0.00592088544583845	0.00114530504093551
0.3	-0.0131483421136511	0.00595629766435568	0.00289655459989491	-0.00130146992932675	0.00289026920570882	-0.00131310438625414	0.0061912804978886	-0.00124509368689506
0.4	-0.012415509237991	0.00654736102027454	0.00268193497107217	-0.00169530686756175	0.00267983035825831	-0.00169721699561014	0.0057296747348025	-0.00319801013394728
0.5	-0.0119434407669387	0.0072548540622331	0.00241203608152456	-0.00205135750950004	0.00241484684569774	-0.00205508099725322	0.00457776030524528	-0.00472381608910482
0.6	-0.0110891127038575	0.00823942057200554	0.00209982811979239	-0.00237109108378002	0.00209908475826706	-0.00237393090503267	0.00348415560785728	-0.00569254543882843
0.7	-0.0102746337363056	0.00887199674285543	0.00174923671627536	-0.00264069821680382	0.00175543622470895	-0.00264478940704896	0.00210774124683159	-0.00658917710728345
0.8	-0.00945410612909122	0.00948336314036185	0.00135594920260208	-0.00285998333478626	0.00136421387046624	-0.00285839060789789	0.000475644507036887	-0.00703144002291248
0.9	-0.00869375600835728	0.0100024481742017	0.00095206052501144	-0.00301135108668486	0.000952039957006943	-0.00302075623540642	-0.0011500477453832	-0.00712110354669239
1	-0.00818204245263602	0.0103800651523455	0.000519952145620861	-0.00311956737211376	0.000519803518872317	-0.00312491853904186	-0.00304578169616059	-0.00693037757564299
1.1	-0.00768731281222099	0.0112335114976099	7.25752140753571E-05	-0.00315915318088317	7.34610271610428E-05	-0.00316387465495409	-0.00483882201798019	-0.00560805165191907
1.2	-0.00683163031836389	0.0115817923059402	-0.000365563575167463	-0.00313154697743802	-0.000364341992965298	-0.00314832108701947	-0.00557740946761089	-0.00408311108254407
1.3	-0.00625139722115312	0.0113884279512137	-0.000795816260136445	-0.00305715278142383	-0.000800748578796601	-0.00306479786142776	-0.00547376199190477	-0.00268975640461278
1.4	-0.00588771556402648	0.0109083015038867	-0.00122099761577245	-0.00291227150710198	-0.0012234101909859	-0.00291939229144726	-0.0050218539953726	-0.00195763023836963
1.5	-0.00556489237592274	0.0108811671872776	-0.00161242762942029	-0.00271391064490335	-0.001610459178818	-0.00271944519784842	-0.0049437313632247	-0.00132199022189861
1.6	-0.00465326343399374	0.011209160423664	-0.00197407727295424	-0.00245750591240806	-0.00197754221240389	-0.00245838386605004	-0.00490238390932074	-0.00022784679244395
1.7	-0.00375617862511212	0.0113902189651776	-0.00229803419133018	-0.0021638666282863	-0.002300078691515	-0.00217244119412294	-0.0046554352771138	0.000879868820234138
1.8	-0.00288615444605215	0.0116959819704434	-0.00257432584557374	-0.00181546028127884	-0.00257949310105282	-0.00182091336517582	-0.00419280590740011	0.00195963303435908
1.9	-0.00201882110300512	0.0118143365666974	-0.00279952922561911	-0.00144691536544452	-0.00279602532046143	-0.00144073533975335	-0.00348798788896757	0.00288257180437221
2	-0.00138492879192208	0.0120494391488734	-0.0029738885173111	-0.00103604908896483	-0.00297662589072968	-0.00102921894740484	-0.00285594436644697	0.00386517766764576
2.1	-0.00028657275420789	0.0122989279368951	-0.00308895776624113	-0.000605761037966241	-0.00309105064451184	-0.000612445869789017	-0.00139188662727582	0.00480095242444418
2.2	0.000684940369421684	0.0121623455518321	-0.00314300199559765	-0.00017600381392348	-0.00314482015530757	-0.000166296635146189	0.000425698587305285	0.00492947630367456
2.3	0.0014159792404016	0.0118796441045031	-0.00313525287235782	0.000265182914952195	-0.00314199447835842	0.000262272017836646	0.00212119255586057	0.00442301576280096
2.4	0.0019964770115023	0.0115845473953435	-0.00307554897649166	0.000698722917183349	-0.00307439371778369	0.000713816661506136	0.00367601529189519	0.00342224420928186
2.5	0.00221254221581558	0.0113820124964949	-0.00294158282192155	0.00112926712979472	-0.00295456725416392	0.00113054663168944	0.00459828725985656	0.00197604170082271
2.6	0.00278584389552006	0.0116778539244986	-0.00275314507499954	0.00152448888815986	-0.00277404664293792	0.00152837024334626	0.00545301111471811	0.000772647426682617
2.7	0.00367256708601263	0.011725032033086	-0.00252199622070523	0.00189356663700644	-0.00252228116845574	0.00189864675762401	0.006160209385871	-0.00088408908582318
2.8	0.00469962826040666	0.0116197357218959	-0.00222801422424367	0.0022185160412983	-0.00223785298191657	0.0022296872447767	0.00647156034491935	-0.00267469170329377
2.9	0.0058354984575814	0.0112494722767681	-0.00189301026687746	0.00251169187577809	-0.00189109677074556	0.00252059667118362	0.00649575285979061	-0.00453459541435564
3	0.00682313927175475	0.0107841531684245	-0.00152338780736919	0.00275617031511221	-0.001538445447286	0.00274311604589007	0.00598325504290024	-0.00624760882528753
3.1	0.00807219016492816	0.0102235840363351	-0.00112453736726601	0.00294036032488704	-0.00114148198013484	0.0029457435844701	0.00550618120746546	-0.00778042340480443
3.2	0.00901710321456195	0.00927090645671545	-0.00070570218169774	0.00306594751610618	-0.000701447970669763	0.0030767566254599	0.00445262370192432	-0.00950009718617831
3.3	0.00968812546032265	0.00821219439750364	-0.000276815344126279	0.0031384015483786	-0.000273511552083665	0.00313402653173639	0.00299453868174207	-0.0111251838419985
3.4	0.0101004204731673	0.00711774500799331	0.000168793873020974	0.00314791066290569	0.000159363643921037	0.00314897862883518	0.00111726361734822	-0.0127043159292092
3.5	0.0101304156788965	0.00623635388262009	0.000603382283927396	0.00309182217140965	0.000608391771152638	0.00309049659755599	-0.00157693907657772	-0.0138767805468165
3.6	0.0104445239821235	0.00561489101167656	0.00102293842791144	0.00297189358188178	0.00102953219521455	0.00297539201338771	-0.00414365613352084	-0.0141054685356965
3.7	0.0106579926980534	0.0048171561913962	0.00143932514956315	0.0027966257427771	0.00143756035799621	0.00281299218770884	-0.0066837601880178	-0.0141022478085723
3.8	0.0108142375516667	0.00411160003617374	0.00180803320028561	0.00257103073200226	0.00181862605508819	0.00257739587513558	-0.00934654031247517	-0.0136968994943674
3.9	0.0109962370503574	0.0034359644272949	0.00215613769830205	0.00229341769733092	0.00215153951393248	0.0022933162185126	-0.0120733690804078	-0.0128133048807976
4	0.0110827471081505	0.00294917942927201	0.00244696483978746	0.00197461973737195	0.00245839536501712	0.00198077534717153	-0.0148690957418095	-0.0111051072476083
4.1	0.0116809746180139	0.00246772518845266	0.00269952411282092	0.00161012059728315	0.00271607381653368	0.00161992830761091	-0.016712503547992	-0.00853605952774176
4.2	0.0121779064154537	0.00152955021095035	0.00290297006860686	0.0012141096911156	0.00290419972139606	0.00121639863432995	-0.0179767004670007	-0.00602304800301164
4.3	0.0124357164605262	0.000507536135306446	0.00304721223834129	0.000806232650699917	0.00304838400857127	0.000814823016979955	-0.01883704630159	-0.00352622796128024
4.4	0.0124406149956297	-0.000619175582921113	0.00312723437726927	0.000371058000061125	0.0031351675597915	0.000366433445499603	-0.0194193118587732	-0.00100444053771579
4.5	0.0120653592449756	-0.00145790590918869	0.00315263084103708	-7.28039894604844E-05	0.0031494332430915	-7.05468957911806E-05	-0.0199353038056884	0.00173810793877057
4.6	0.0120217713649559	-0.00211318881723556	0.0031015174280493	-0.000520218840161627	0.00311454268347353	-0.000508199416174121	-0.0195638359305588	0.00488709787587446
4.7	0.0119293999159309	-0.00296318429354058	0.00300044101266354	-0.000934646636802592	0.00300036224614367	-0.000944093458063856	-0.0186163834359068	0.00754266665830826
4.8	0.0116658250222003	-0.00384750160512621	0.00285229680984757	-0.00133834707902985	0.00284467220967621	-0.00135856695220561	-0.0172457020797909	0.0100105764721031
4.9	0.0114433531581215	-0.0046922553951698	0.00263785406798654	-0.00173697879224703	0.00263175714399082	-0.00172853493237951	-0.0154456675227435	0.0120953738861946
5	0.0110955176228344	-0.0053983892779266	0.0023629358732298	-0.00207182808646966	0.0023657092688455	-0.00208427135343875	-0.0133908165879983	0.0140543397105554
5.1	0.0112263199274232	-0.00614725957815049	0.00204026199203387	-0.00239733103865806	0.00205351062961002	-0.00239482793331184	-0.0103766273705149	0.0157350631849991
5.2	0.0111174843452608	-0.00722853403123447	0.00169718874613741	-0.00265553706331665	0.00169769664273475	-0.00265970577107714	-0.00715238955108928	0.0163774332748229
5.3	0.0108215463332759	-0.00828410454534208	0.00130682253044968	-0.00286839902034075	0.00130307352432091	-0.00287098156400061	-0.00402775192557546	0.0163563503082594
5.4	0.0103116562321129	-0.00934153679147657	0.000894628223700413	-0.00302932129203974	0.000893740689859112	-0.00303178674003908	-0.00115093271433419	0.015536369603163
5.5	0.00939730106031464	-0.00995535772882049	0.000453238383879404	-0.00312426488863217	0.000465843126999372	-0.00312423731774429	0.000902869378718675	0.0144773845537366
5.6	0.00897700943150371	-0.0105104156424971	1.90498421619851E-05	-0.00315399593642289	1.57434183109857E-05	-0.00315053365828981	0.00318094182711456	0.0133948967897824
5.7	0.00812433459743224	-0.0112444285929829	-0.000414940311566943	-0.00312860894648619	-0.000418662254679099	-0.00313230858036236	0.0050200133622346	0.01163007134877
5.8	0.00711789750486264	-0.0116966146980496	-0.000851473959865454	-0.0030387687910792	-0.000850738339709036	-0.00304646936603364	0.00636305434425284	0.00947896795967974
5.9	0.00604186679442226	-0.011883565214903	-0.00127028198390258	-0.00288539388339051	-0.00126867711011132	-0.00288955436609319	0.0070686079419169	0.00704962884366478
6	0.0048001766470862	-0.0116617248706818	-0.00165903756368899	-0.00267884308713095	-0.0016530349453546	-0.00268219702588341	0.00660464877045586	0.00480607734800924
6.1	0.00453233469461059	-0.0111314438322655	-0.00201804298825552	-0.00242834358284692	-0.00201388984085902	-0.00243311882123009	0.00652747402086692	0.00348217050451185
6.2	0.00448089346808987	-0.011484268793254	-0.00233963894365383	-0.0021117258553291	-0.00233605377212251	-0.00212041039270014	0.00664358439195325	0.00150626202952767
6.3	0.00417844949808999	-0.0123261741853268	-0.00260794024051639	-0.00177119574118785	-0.00261777850172639	-0.00177897031582043	0.00629723478931797	-0.000939468680451486
6.4	0.00326965834199388	-0.0133750037516748	-0.00283514679684133	-0.00138498346927219	-0.00283315371434991	-0.00139079156375505	0.00518662489787594	-0.00354792371252582
6.5	0.00204253138470749	-0.0138321605850804	-0.00300103087555662	-0.000982976494512587	-0.00300143582679584	-0.000981851404355182	0.00318554135475658	-0.00535730620124486
6.6	0.00129441485876075	-0.014216782614286	-0.00310685549516576	-0.000555391088901628	-0.00311755358513767	-0.000558399209244751	0.00160934688667299	-0.00660096253360362
6.7	0.000281519235600255	-0.01456627094038	-0.00315160498380136	-0.000119095933971206	-0.00315055528332077	-0.000112841775705986	-0.000512474445131667	-0.00765748497233759
6.8	-0.000730925065139043	-0.0146499349880972	-0.00313661340884902	0.000330681913371052	-0.00313570125908456	0.000335453756057528	-0.00294386974127334	-0.00803751194276164
6.9	-0.00181487019818462	-0.0147131746790247	-0.00305434981857483	0.000762063430195877	-0.00305476997973412	0.00076706132277073	-0.00545172334800649	-0.00789887947435579
7	-0.00308882995302487	-0.0142064637162711	-0.00292410582827685	0.00118280557730024	-0.0029255206059166	0.00118603348829993	-0.00834531185906988	-0.00669545646874718
7.1	-0.00359769650067854	-0.0137292369329892	-0.00272405355401125	0.00158286415221411	-0.00272646398282914	0.00159391557397672	-0.00996791313966762	-0.00445338228508604
7.2	-0.00442280401020586	-0.0136248705864858	-0.00248192042391171	0.00194499024320518	-0.00248209307428606	0.00195090059791785	-0.0109922053928755	-0.00232501061026528
7.3	-0.00552128958388639	-0.0133768368709684	-0.00218981019743034	0.0022706507135852	-0.00218703847148988	0.0022721229427565	-0.0114569349329374	-0.000146447922199512
7.4	-0.00685677372899456	-0.0130726275576612	-0.00184550813261614	0.00255552643399616	-0.00183825949898557	0.00256204866404213	-0.0115046424961663	0.00164426091643285
7.5	-0.00861522644449905	-0.01213783318512	-0.00146464946390206	0.00279025890098764	-0.00146569617725067	0.00278824308199068	-0.0118034088244105	0.00350945554879845
7.6	-0.00919014894425587	-0.0106749106170538	-0.00106963780130249	0.00296533385466404	-0.00105893839210037	0.00297567338051254	-0.0109267370540729	0.00604881182344162
7.7	-0.00964114794611187	-0.00986637848777828	-0.000639049307154538	0.00308829474038288	-0.000633477349460213	0.00308793153818802	-0.00946090337710152	0.00743068541169362
7.8	-0.00979482818224912	-0.00944694961427805	-0.000191174982477836	0.00314821288847921	-0.000204859060706557	0.00314116170962072	-0.00792548057383179	0.00849423645245295
7.9	-0.0100111759511184	-0.00928902716261772	0.000234502995535948	0.00313254160794425	0.000245604482488887	0.00313220019019473	-0.00638830842642738	0.00939251678869051
8	-0.0102745631177364	-0.00875128181022901	0.000669653883891489	0.00307377255301254	0.000677943871428734	0.00307167086072379	-0.00507633822397836	0.010670303055709
8.1	-0.00999044678651818	-0.00867169524849327	0.00110100338216945	0.0029489858326066	0.00109871152613152	0.00294573713265186	-0.00235245544995774	0.0117048551127202
8.2	-0.01026964952517	-0.00871360389009934	0.00149292586355767	0.00276496732306069	0.00149213976423894	0.00277656147844136	0.000442888434137174	0.011765113347922
8.3	-0.0107004125844109	-0.00858924708167266	0.00186499823141231	0.00253016116222626	0.00187006666533343	0.00252755921161269	0.00318450421240958	0.0111037831102461
8.4	-0.0113136121488755	-0.00836556727821931	0.00220981443760678	0.00224745420029863	0.00219865551433094	0.00224788759934913	0.0055099672239569	0.00954587546494706
8.5	-0.0121764203282707	-0.00760327598980271	0.00250437337864638	0.00191198504355267	0.00250438612428522	0.00191333550024634	0.00672079565886957	0.00794925236883322
8.6	-0.0123007295084269	-0.0067844023135491	0.00273544052697021	0.00155063409602105	0.002731223483576	0.0015483382165022	0.00840963735787782	0.00647514340296308
8.7	-0.0126334943713118	-0.00627027193893991	0.00292364321465606	0.00115040771545523	0.00292247971998246	0.0011500003568772	0.00970790859795182	0.00413442664164822
8.8	-0.0130205207484062	-0.0056178467812406	0.00305074008167772	0.000731561191668381	0.00306170623536254	0.000729424617564673	0.0103423959799276	0.00139054654536719
8.9	-0.0133541054847681	-0.00496519723924799	0.00312309670473953	0.000301510406630897	0.00313242394054286	0.000294351408161462	0.0103675233308961	-0.00159579738080235
9	-0.0136862807583979	-0.0039857392174253	0.00313528045507991	-0.000147430975320208	0.00314206825194945	-0.000141851200723797	0.00929285102966869	-0.00424852004399446
9.1	-0.0131468679100066	-0.00316764599283217	0.00308520637547677	-0.000579931076948105	0.00308542333091983	-0.00058012395177413	0.00842517019779543	-0.00631653051891982
9.2	-0.0127257593593112	-0.00293300482023239	0.00296835242622677	-0.000999883055062575	0.00297216833975101	-0.00099967049098711	0.00714745500646193	-0.00869121485350055
9.3	-0.0124812459957869	-0.00287658906972097	0.00279496553923394	-0.00140762159072881	0.00281298591803324	-0.00140810592638897	0.0052132263198407	-0.0109060557606329
9.4	-0.0125398798516678	-0.00298987784154657	0.00257618325740628	-0.0017792378944488	0.00257946902975366	-0.00179025767567088	0.00249102823052636	-0.012914395615999
9.5	-0.0129165770541009	-0.00243804722299657	0.00230219453825336	-0.00213353494239927	0.00231695997685319	-0.00213423987790507	-0.00120651407331487	-0.0136455200609386
9.6	-0.0128651259256941	-0.00216080369845711	0.00198306601112207	-0.00243182017498182	0.00198340434733747	-0.0024248224393661	-0.0044452815496843	-0.0135180526568671
9.7	-0.0132752045344249	-0.00188359527607405	0.00162169493517878	-0.00268366827307764	0.00162996741953575	-0.00268527034388922	-0.00787861030811183	-0.0129731919455857
9.8	-0.0137864772469336	-0.00131349552886041	0.00123806620400643	-0.00287766877794756	0.00123622742914433	-0.00288629048594597	-0.0113054017066364	-0.0116823786822786
9.9	-0.0143296176165043	-0.000423913856622675	0.000828554265083712	-0.00302104477693168	0.00081670538918904	-0.003023631932332	-0.014762336369914	-0.00970899056275429
10	-0.0147766042572224	0.00100838307826655	0.000397154945195626	-0.00309669041720975	0.000396333475083617	-0.00310398209604621	-0.018236762059769	-0.00650314369050713
10.1	-0.014178377181182	0.00234038683653933	-3.41189930176479E-05	-0.00313257917449514	-3.87498054510594E-05	-0.00313533433791735	-0.0200796497043344	-0.00225053148602953
10.2	-0.013565838878887	0.00314139376183628	-0.00047189766347309	-0.00309219540148349	-0.000484458908071477	-0.003095933000672	-0.020845792958679	0.00178751081280354
10.3	-0.0129793287709553	0.00374526659806216	-0.000901428263943308	-0.0029894043588194	-0.000901219478799388	-0.00300274473940042	-0.0208338660683789	0.00571211102950313
10.4	-0.0125325380772949	0.00418899889030376	-0.00130733573099317	-0.00284205092869156	-0.00131049317577834	-0.00283992891428377	-0.020222742404775	0.00919666726752117
10.5	-0.0122342394773739	0.00506250186278024	-0.00168837442810036	-0.00262581000935675	-0.00169452199233446	-0.00263304259268543	-0.0195530081435036	0.0130471642280924
10.6	-0.0109310027767734	0.00571499605715978	-0.00204708822231177	-0.00237042550156212	-0.00204858371879233	-0.00237552098366406	-0.0173329656350346	0.0171970518829353
10.7	-0.0098762325826696	0.00585495155763085	-0.00235263344025641	-0.00205870410698565	-0.00235583339879228	-0.00207468124692991	-0.0142674713131583	0.0205933371390365
10.8	-0.00896340437587205	0.00572549018326697	-0.0026178878536417	-0.00171264137962624	-0.00261495971646245	-0.00171479992743627	-0.0106345236615743	0.023304313932378
10.9	-0.00847421166892728	0.00549737093823485	-0.00283424070306013	-0.00133735713356541	-0.00283352099107885	-0.00134246585323872	-0.00676203150414975	0.0251492331248732
11	-0.00809277977727173	0.00576309491053426	-0.00299837164183049	-0.000922907186924018	-0.00299136863154853	-0.000927184924404268	-0.00293791224674155	0.0269366051564505
11.1	-0.0070725172610334	0.00570498387455277	-0.0030925784556353	-0.000506657902265321	-0.00308486053907269	-0.000498385382890486	0.00223961832719029	0.0281887798359901
11.2	-0.0064437520260976	0.00524672425535443	-0.00313231813025877	-6.71727332739329E-05	-0.0031388966836674	-6.39754794875241E-05	0.00780553070623137	0.0279757264390721
11.3	-0.00597387259256957	0.0047197344357347	-0.00311002979463399	0.00037162026100185	-0.0031131837585312	0.000369460452788462	0.0134920580289219	0.0264789143533733
11.4	-0.00586216241810436	0.0041798898314021	-0.00302443946825484	0.000801259181369649	-0.00302905640981597	0.000801409458344419	0.0186140342743092	0.0235262904343066
11.5	-0.00595233196698388	0.00415903980407472	-0.00289100501825778	0.00120887910151387	-0.0028835151025775	0.00121362072905829	0.022432141039376	0.0199377365915893
11.6	-0.00547239609757966	0.00384453364424615	-0.00268941975834593	0.00159978006906479	-0.0026975175203691	0.00160944168731918	0.0263402666113753	0.0157150143119998
11.7	-0.00544816424002097	0.00332033199717066	-0.00243777287940796	0.0019653301152141	-0.00243952186340202	0.00196900755789032	0.0293576707325594	0.0102591016416409
11.8	-0.00554914046276274	0.00309293672509228	-0.0021408289372884	0.00228870206467259	-0.00215001981016767	0.00229845840723148	0.0311570652237313	0.00421039754644375
11.9	-0.00561403473309835	0.00310922626731606	-0.00180221765824148	0.00256022524609612	-0.00180225827934262	0.00256676380249814	0.0313352472743984	-0.00191880456179596
12	-0.00545436957211311	0.00362797739292146	-0.00142553675425174	0.00278257289423807	-0.00143001898485799	0.00278534034414389	0.0299771215418132	-0.00724385875593177
