# GHZ S RI R 50
0.2	-0.0137939457744709	0.00544130838142013	0.00304296614098027	-0.000885623660168109	0.00305342126601268	-0.000885474029427154	0.00608633719458108	0.00103226665471725
0.3	-0.0130007269625943	0.00583313311379306	0.00289631877337979	-0.00130143901492978	0.0028900335792441	-0.00131307250182161	0.0063667126781391	-0.00133617219172957
0.4	-0.0122780302187089	0.00634282300185857	0.00268155300140685	-0.00169510539826164	0.00267944865381941	-0.00169701524471018	0.00587724336062317	-0.00337377879679703
0.5	-0.0119792998313279	0.00710596169777012	0.00241186193832981	-0.00205071419293804	0.00241467265838037	-0.00205443669972737	0.00449347317908641	-0.00482498732694153
0.6	-0.0109921757630847	0.00819417681097491	0.00209994935127497	-0.00237059016046854	0.00209920643804236	-0.00237342981679915	0.00351152360239481	-0.00560044061060163
0.7	-0.010136769804544	0.00876857710562269	0.00174940533032929	-0.00264015741040003	0.00175560470587701	-0.00264424727892103	0.00221481358980939	-0.00648800855954094
0.8	-0.00928994825511484	0.00936475786361943	0.00135629044275896	-0.00285933349127079	0.0013645536638279	-0.00285773945425346	0.000669659269701355	-0.00690977859509725
0.9	-0.00842896601324605	0.00981427365883645	0.000952797223923722	-0.00301060645305092	0.000952779419330492	-0.00302001015482635	-0.000772703919627928	-0.00708557525153992
1	-0.00802351473479147	0.00994198295013608	0.000521188248484513	-0.00311938203165201	0.000521041735356945	-0.00312473329184131	-0.0027581422554636	-0.00726484301118827
1.1	-0.00762362200133425	0.0108713235021469	7.35439501453369E-05	-0.00315923519024306	7.44312366668749E-05	-0.00316395654909855	-0.00475813007390281	-0.00590379291694197
1.2	-0.00681043410947762	0.0110519317816407	-0.00036444773948513	-0.0031317534185336	-0.000363220104015962	-0.00314852749200394	-0.00561540053477454	-0.00451495861517302
1.3	-0.00648987922412026	0.0107958309089273	-0.000794562045577045	-0.00305772924096181	-0.000799491453117384	-0.00306537702823671	-0.00583276663874389	-0.00311715737225155
1.4	-0.0062382843970021	0.0104640032239915	-0.00121981768946938	-0.00291348774274997	-0.00122222725895604	-0.00292061121819606	-0.00549237773845535	-0.00214678032269856
1.5	-0.00595426998253196	0.0106335683738859	-0.00161209288540456	-0.00271540190466621	-0.00161012190202456	-0.00272093775114905	-0.00546787126608465	-0.00122219532015885
1.6	-0.00472366404621429	0.0111245239579055	-0.00197371371853776	-0.00245871942214077	-0.00197717915711662	-0.00245959872278622	-0.00501256616634999	0.000164847799214924
1.7	-0.00365760146842528	0.0112169789916002	-0.00229780579701901	-0.00216546307906692	-0.00229984731578058	-0.00217404102042673	-0.0044607579727464	0.00119080904233682
1.8	-0.00267874660123348	0.0114358591519124	-0.00257462251874825	-0.00181734024004207	-0.00257978958568675	-0.00182279785884105	-0.00381036724450616	0.00212118328171821
1.9	-0.00174175098318545	0.0113650488488303	-0.00280065189533304	-0.0014486529053749	-0.00279714801047074	-0.00144246821611149	-0.0030239712801823	0.00274905050501218
2	-0.00136948698830022	0.0114481726370894	-0.00297504424294355	-0.00103696239776092	-0.00297778387211931	-0.00103012965656379	-0.00278746248263206	0.00350791948239436
2.1	-0.000293408008514495	0.0118887178522759	-0.00309021141184412	-0.000607000470059371	-0.00309230319602514	-0.000613689069179234	-0.00143066615484106	0.00476297616619729
2.2	0.000711615817281795	0.0117642901282664	-0.00314480853553917	-0.000176887500166341	-0.00314663017482095	-0.000167175058195326	0.000479528180988423	0.00499834954715759
2.3	0.00148756666598373	0.0115216632068929	-0.00313724237107081	0.000264910973425444	-0.00314398776969234	0.000261997323662302	0.00232391330798703	0.00455044425871056
2.4	0.00222236501495826	0.0111812636970661	-0.00307722068673086	0.000699014588134779	-0.00307606521846381	0.000714116474705688	0.00414644805003569	0.00341393641096139
2.5	0.00236280030893591	0.0107035822367143	-0.00294306960038039	0.00112903611419454	-0.00295605971514221	0.0011303130615829	0.00494104132272662	0.00148417130406936
2.6	0.00280937708115303	0.011069227295207	-0.00275544407258802	0.00152492836823057	-0.00277636131179485	0.0015288076233085	0.00547115120532543	0.000330128559402566
2.7	0.00366306239156553	0.011110093036433	-0.00252399721745396	0.00189477115712006	-0.00252428275884259	0.00189985499870472	0.00603897045966437	-0.00124992135310524
2.8	0.00468825087971435	0.0110256877191348	-0.00222956256551363	0.0022200529858525	-0.0022394081620821	0.0022312319299539	0.00631281294215076	-0.00292232286176828
2.9	0.00585486985774483	0.0105864309175696	-0.00189432696287925	0.00251312093345853	-0.00189241283216975	0.00252203132013031	0.00637174073749397	-0.00480463637183494
3	0.00662537628984927	0.0100616487671673	-0.00152525804685055	0.00275834171033009	-0.00154032666851888	0.00274527300876615	0.0055397571997586	-0.00654092637069462
3.1	0.0078884503595654	0.00971911609703612	-0.00112514167901583	0.00294327207488829	-0.00114210127899502	0.00294866291463429	0.0050365640800293	-0.00764874828469576
3.2	0.00889030925639166	0.00882648342936007	-0.000705762119717299	0.00306859332913434	-0.000701502565649556	0.00307941061973219	0.00413753320879174	-0.00916330402426534
3.3	0.0096425709598934	0.00784662989794594	-0.00027666810819595	0.00314104888218548	-0.000273362091049037	0.00313666982383155	0.00289011243968423	-0.0106505408523639
3.4	0.0102293556288191	0.00674710854478366	0.000169154194310901	0.00315109467540128	0.000159714460601472	0.00315216429131609	0.00130183262516072	-0.0122736445435236
3.5	0.0102083325763305	0.00574788348151206	0.000605544563751933	0.00309550054644351	0.000610559854228887	0.00309417102466059	-0.00149553250006496	-0.0136341097070127
3.6	0.0106742463682398	0.00528922027955396	0.00102576290470115	0.00297416765848138	0.0010323652604763	0.00297766545646412	-0.00391599178514621	-0.01355601608552
3.7	0.0111026235940344	0.00435797773162848	0.00144239957272846	0.00279855344564439	0.00144064266421005	0.00281493716912293	-0.00607843879185129	-0.0136295182916795
3.8	0.0113745849989618	0.00345116088509896	0.00181179087736107	0.002572556815268	0.00182239967089522	0.00257892146325632	-0.00846107588019377	-0.0135109621743658
3.9	0.0116076181428646	0.00246181085410723	0.00216096652150757	0.00229394335896713	0.00215636284431478	0.00229384637439962	-0.0110701894413082	-0.0131595345676817
4	0.0113118609159676	0.00165436842122335	0.00245149040183764	0.0019726477294828	0.00246293779629038	0.00197879189907198	-0.014453035565366	-0.0119758567549162
4.1	0.0117235643453505	0.00138505637480868	0.00270274822697906	0.00160797748585652	0.00271931762612408	0.00161777202397454	-0.0166916237941444	-0.00908160600773324
4.2	0.012192240024992	0.000468932799998243	0.00290601124827677	0.00121141275136956	0.00290724425432161	0.00121370154769031	-0.0179972692185342	-0.00642321182934733
4.3	0.0124053391771664	-0.000521597447393215	0.00304967931799058	0.000802657195464353	0.00305086277472291	0.000811250049743161	-0.0188615778860568	-0.0038492619211526
4.4	0.012448127526052	-0.00168490778587997	0.00312833992694889	0.000366630712151046	0.00313626791352092	0.000361993908051654	-0.0193666020996254	-0.00143106712623612
4.5	0.011788105378383	-0.00269140990167698	0.00315200751047846	-7.59494516710289E-05	0.00314881273186069	-7.36895488468883E-05	-0.0203530190821945	0.00101221552540275
4.6	0.0115964104248164	-0.0030227198552109	0.00310175982282198	-0.000523091990405543	0.00311479871336293	-0.00051108140624229	-0.0203650562905785	0.00468363673295623
4.7	0.0115163583400944	-0.00371298610045768	0.00300017349468464	-0.00093810904922316	0.00300008453251715	-0.000947558113306222	-0.019401054680435	0.00773050517072164
4.8	0.0113069382546822	-0.00439531030540548	0.00285107285746139	-0.0013418665690221	0.00284342353651301	-0.00136207995695276	-0.0178714247104655	0.0105537686277453
4.9	0.0113015606398916	-0.00513564863001321	0.00263579739148104	-0.00173964683530005	0.00262970993218617	-0.00173119715989685	-0.0157235919464034	0.0127661038481878
5	0.0109347524177191	-0.0058977723498752	0.00236189405847798	-0.00207439924953997	0.00236465788430005	-0.00208684843891625	-0.0137504610458569	0.014660675703436
5.1	0.0113297032313202	-0.00644663135605923	0.00203760669923599	-0.0024007965861785	0.0020508625950727	-0.00239831071381532	-0.0103939407783633	0.0167739776513691
5.2	0.0114668252633041	-0.0077283486617665	0.00169342614633509	-0.00265795581531436	0.00169392812824171	-0.00266212525955663	-0.00666387120374452	0.0172432822710957
5.3	0.0112090138200962	-0.0089842687937216	0.0013028139008389	-0.00286975987395718	0.00129906194743447	-0.00287233706080972	-0.00332777175468903	0.0168688876894236
5.4	0.0107192387728279	-0.0101954461890552	0.000890937953770081	-0.00303030935270765	0.000890047466445194	-0.00303277365145567	-0.000427341112778904	0.0156526970228727
5.5	0.00949035290394458	-0.0108784903307429	0.000447898893922338	-0.00312561685901326	0.000460505966169404	-0.00312561115609572	0.00100938873268922	0.0144214779393238
5.6	0.00937857994807695	-0.0110198973512231	1.30892893155024E-05	-0.0031525360332175	9.79096670354936E-06	-0.00314906915801803	0.00348616397866106	0.0140655756030091
5.7	0.00899434924453162	-0.0119493923731882	-0.000419984401906106	-0.00312575633494108	-0.000423710093714594	-0.00312944709202691	0.00600837441240975	0.012275981085869
5.8	0.00832093695815173	-0.0127947058683641	-0.000855747636182973	-0.0030350825747593	-0.000855025043518299	-0.0030427784931897	0.00796266562371028	0.00968410731865589
5.9	0.00753610810031735	-0.0137107773153274	-0.00127434261020766	-0.00288095258992189	-0.00127274623938479	-0.00288511267016082	0.00920076640025636	0.00621305938145331
6	0.00568429623286344	-0.0147451933071447	-0.00166182159028276	-0.00267170282819577	-0.0016558342649702	-0.00267506353602658	0.00791088325971154	0.00215781521831051
6.1	0.00420566694201268	-0.0143963882802605	-0.00201767819901797	-0.00242189256917258	-0.00201353769586291	-0.00242666500541006	0.00609804363829849	0.000636357635626416
6.2	0.00304297646775283	-0.0143904254673162	-0.00233844502928128	-0.00210622157526181	-0.0023348741159869	-0.00211489724599973	0.0048451133442619	-0.00078159845621121
6.3	0.00217312648093444	-0.0141969807254801	-0.00260618725928353	-0.00176597188984151	-0.00261602006416668	-0.00177372523766461	0.00384397148362619	-0.00196249697448963
6.4	0.00160826014820568	-0.0144120047498883	-0.00283221636469634	-0.00137935994830897	-0.00283023343775942	-0.0013851610317397	0.00310332273780309	-0.00362437062282603
6.5	0.000606383133135242	-0.0145163775636082	-0.00299561929656689	-0.000979247396056883	-0.00299602277707753	-0.000978124313181114	0.00112349969666987	-0.00492708803806662
6.6	0.000565200177611798	-0.0145842610649419	-0.00310267102656988	-0.000553104814428802	-0.0031133552335251	-0.000556103492492245	0.000381576013741374	-0.00538962478639181
6.7	-0.000126062782033111	-0.0151376329890007	-0.00314703197619409	-0.000116634145043115	-0.00314597929173853	-0.000110389994260751	-0.00107625197598364	-0.00652102326387106
6.8	-0.000973923850470281	-0.0151981510363087	-0.00313088993492098	0.00033249609598856	-0.0031299757386959	0.000337258919551459	-0.00308792440820347	-0.00693606508245877
6.9	-0.00168540145060078	-0.0153424941123499	-0.00304761304578635	0.00076180048437527	-0.00304803014182872	0.000766788081999507	-0.00509898841755145	-0.00710308135408677
7	-0.00321356235170746	-0.0151064774066899	-0.00291952471318594	0.00118067940385661	-0.00292093748744941	0.00118390203933959	-0.00857435210611019	-0.00632634916652815
7.1	-0.00342262349534003	-0.0141333728149056	-0.0027191317768982	0.00158152078222838	-0.00272153383403398	0.00159255591225113	-0.0100067608552385	-0.00314406693174575
7.2	-0.00378172911467971	-0.0141568958704739	-0.00247664549070829	0.00194209436151919	-0.0024768159896891	0.0019479936392216	-0.010227496736884	-0.000862234324093634
7.3	-0.00453133654799442	-0.0140725582671761	-0.00218546346879858	0.00226617473062479	-0.00218269721485383	0.00226764402888723	-0.00986651355675574	0.00117756838466324
7.4	-0.00527654231756782	-0.0141026026583633	-0.00184321108077885	0.00255054202327633	-0.00183597701653619	0.00255705553803745	-0.00882265635538851	0.00225648382721039
7.5	-0.00708475439188425	-0.0142774199976544	-0.00146202163488811	0.00278703502538068	-0.00146306752438187	0.00278502208884761	-0.00916387933356089	0.00223459204904172
7.6	-0.00814106040452026	-0.0130770875692606	-0.00106643523088696	0.00295955729875886	-0.00105575450084981	0.00296987186536796	-0.00903544203913015	0.00424995196531592
7.7	-0.00902672860664836	-0.0126047017617566	-0.00063783855487542	0.0030813096668362	-0.000632279089297455	0.00308094768660171	-0.00828799032290923	0.0051789739957624
7.8	-0.00968286096413618	-0.0121157562696103	-0.000191895038339058	0.00314119622276387	-0.000205546361588339	0.00313415564054305	-0.00749648640979035	0.00620199341500993
7.9	-0.010071374868127	-0.0118426140932641	0.000232888256880019	0.00312633395017838	0.000243967565602054	0.00312599727123969	-0.00661686474460469	0.00709545053008614
8	-0.0110598770775304	-0.0111684913248656	0.000667110716866512	0.00306569787411864	0.000675378998912864	0.00306360383306779	-0.00657862789695872	0.00878072124544311
8.1	-0.0105025318281065	-0.0104800136932195	0.00109423389102384	0.00294250301869864	0.00109195238577336	0.00293926006386423	-0.00377295248604814	0.0112079453786548
8.2	-0.0107057629192885	-0.0105518289831342	0.0014853520029965	0.00276138806172659	0.00148454927633144	0.00277295607730035	-0.000609361045960895	0.0116554640408853
8.3	-0.0112326124318271	-0.0102961014641939	0.00185781485325705	0.0025284509160859	0.00186287814115682	0.00252586132086579	0.00234305558721702	0.011263151424936
8.4	-0.01171770823927	-0.0099403068270206	0.00220281778738244	0.00224598667499566	0.00219167939153221	0.00224640523534677	0.00501634549237906	0.00970433942224906
8.5	-0.0129826715659773	-0.00922769061382883	0.00249499665243017	0.00191275438444848	0.00249500666893211	0.00191410187234073	0.00551956802360662	0.00793072306274037
8.6	-0.0128739386522403	-0.00762377305611156	0.00272840480274561	0.00155425652026751	0.00272419840659838	0.00155195492586417	0.00734707521233484	0.00777572682950232
8.7	-0.0126992194402209	-0.00704341926324688	0.00291781860112337	0.00115424342128322	0.00291665733284108	0.0011538344717531	0.00955582267896038	0.00584846416980571
8.8	-0.0127056450789767	-0.00646757322351157	0.0030451538801897	0.000735857650106086	0.00305610828026113	0.00073374325076516	0.0111223207094082	0.00305932284046352
8.9	-0.0125463238251187	-0.00613753987164338	0.00311724386467649	0.000307524029372805	0.00312657044092679	0.000300396470714492	0.0121447712829933	-0.000632506662776465
9	-0.0131000502989672	-0.00596364718742811	0.00313281304581457	-0.000139162198605548	0.00313958019530609	-0.000133569884289128	0.0107899634447991	-0.00470255800799203
9.1	-0.0128238520862074	-0.00523028834001979	0.00308364322473142	-0.000573492391237058	0.00308386036284735	-0.000573684681079843	0.00941220179017317	-0.00700410923765391
9.2	-0.0128078599259306	-0.00521342395921602	0.00296686116317711	-0.000992421364681668	0.0029706720057068	-0.000992201023198018	0.00759079709200546	-0.00971558438337471
9.3	-0.01302981650327	-0.00490857358311552	0.00279516572435741	-0.00139873282611472	0.00281316535240726	-0.00139917033740567	0.0049898088425627	-0.0117752666505042
9.4	-0.0131200059316461	-0.00463310613846464	0.00257995786633168	-0.00176999942894869	0.00258327569445911	-0.00178100143421569	0.00197671048799617	-0.0134679334581748
9.5	-0.0137224047548186	-0.00378944200804212	0.00230743808465385	-0.00212791184316085	0.00232220536205661	-0.00212858061610968	-0.00252273488147045	-0.0137866824755985
9.6	-0.0130183683856925	-0.00286124020447986	0.00198798781109174	-0.00242545764849803	0.00198830847798492	-0.00241846312796612	-0.00521800263792457	-0.0122991741743294
9.7	-0.0128100264274893	-0.00273554106457283	0.00162906379979906	-0.00267793378719379	0.00163733812829718	-0.0026795108345143	-0.00765381113122894	-0.011521545142893
9.8	-0.0128804136012252	-0.00240426316626752	0.0012473137007085	-0.0028742339923967	0.0012455017475752	-0.00288286285861468	-0.0101831731427079	-0.0104252964726564
9.9	-0.0129007673447705	-0.0020528818132017	0.000837742465919752	-0.00302112227228077	0.000825891416040509	-0.00302374493573987	-0.0127532974373099	-0.00935397083530493
10	-0.0137318237252934	-0.00155567648179189	0.000404339745105675	-0.00309664884998486	0.000403534701609244	-0.00310394444367303	-0.0168700007824884	-0.00752745172586059
10.1	-0.0133904655749325	-0.00027809140626116	-2.4722240461036E-05	-0.00313441432982641	-2.93473330589297E-05	-0.00313718493608307	-0.0192072743343504	-0.00312118812591182
10.2	-0.0131195029161448	0.00021716650491263	-0.000463902436717875	-0.00309717291036221	-0.000476468256056959	-0.00310094970272747	-0.0201621122207689	0.000731314827811399
10.3	-0.012909661014263	0.000900138947174152	-0.000896054183483855	-0.00299555626537868	-0.000895815536871351	-0.00300891471940659	-0.0202966340182156	0.00462660398536593
10.4	-0.0123884655746984	0.00132572644293112	-0.00130384835819802	-0.00284679168432899	-0.00130701217240703	-0.00284467293433621	-0.0194997396575662	0.00765098929204457
10.5	-0.0125626842556288	0.00182002600086356	-0.00168196050774468	-0.00263079244467317	-0.0016880907519436	-0.00263804263037222	-0.0199846554175139	0.0107174919780957
10.6	-0.0117637931492192	0.00266915367835216	-0.00204269360956072	-0.00237896518253991	-0.00204417632840036	-0.00238407075894241	-0.0187068740386149	0.0153504995793845
10.7	-0.0113050568944499	0.00310598017212448	-0.00235051782493986	-0.00206770577619557	-0.00235368047907352	-0.00208371343474548	-0.0164512726116672	0.0193990124423324
10.8	-0.010603061813296	0.00382942409983111	-0.00261730151633483	-0.00172164660238162	-0.00261436380187581	-0.00172380085941704	-0.0130577681496199	0.0233328356552193
10.9	-0.00958077713286322	0.00414209806042995	-0.00283416172763261	-0.00134717222923188	-0.00283342654469195	-0.00135228561423314	-0.00858067123260889	0.0258762403935861
11	-0.0092670321124134	0.00446731936502107	-0.00300291464571381	-0.000934967581765329	-0.0029958801281485	-0.000939233330882339	-0.00515030934868448	0.0279127340125835
11.1	-0.00769349245742224	0.00506025430508384	-0.00309995192535776	-0.000514842120767996	-0.00309223100300536	-0.0005065299453968	0.000653873123684817	0.0305945171056792
11.2	-0.00650864041009395	0.00452621491232734	-0.00314006017666606	-7.37757704555102E-05	-0.00314666184728539	-7.05839862000612E-05	0.00736403657230666	0.0307744964086174
11.3	-0.00570019542194242	0.00395976753535404	-0.00311885719562946	0.000365757548802406	-0.00312201454882963	0.000363585259740797	0.0141089209280354	0.0292796328970599
11.4	-0.00509593616582809	0.00320822362080184	-0.00303601966175611	0.000796473098774301	-0.00304065167761682	0.000796612651366341	0.0203494725932471	0.025763160163929
11.5	-0.00541720075265685	0.00277073221563139	-0.00290371571421058	0.00120998474630973	-0.0028962026259463	0.00121475404626788	0.0239639405841207	0.0212896551528153
11.6	-0.00453208197618286	0.00279652976538426	-0.00269929469653411	0.00160197057975329	-0.00270742709294652	0.00161165366683608	0.0283878857497683	0.0174652841145141
11.7	-0.00398204723215891	0.00193413961412401	-0.00244804732566688	0.00196858875602307	-0.00244980651355042	0.00197227580951453	0.0323915695780494	0.011418737068887
11.8	-0.00368548085494937	0.00119931851406383	-0.00215136432662888	0.00229454112348475	-0.00216060034735865	0.00230432228025554	0.0348927820577837	0.00421222044990848
11.9	-0.00327432387998793	0.000137582622037488	-0.00181122926311553	0.00257025484210992	-0.00181127339047373	0.00257682133833127	0.0354014269371857	-0.00407458061761357
12	-0.00440288369689783	-0.000344246623007243	-0.00142925727636107	0.00279273687420664	-0.00143375373641409	0.00279551572974817	0.0316225882052049	-0.010907932180773
