# GHZ S RI R 50
0.2	-0.0137722781395458	0.00534050057912774	0.00304361886386039	-0.00088577434455962	0.00305407619354245	-0.00088562455780743	0.00608490063842118	0.000905038392903756
0.3	-0.0129138436747408	0.00579289646775632	0.00289698193679281	-0.00130175033925299	0.00289069524815675	-0.00131338648578374	0.00643452029114086	-0.00140377528348767
0.4	-0.0121939848604819	0.00633158109106167	0.00268224642306577	-0.00169560614534499	0.00268014147743	-0.0016975164707408	0.00595591550085983	-0.00341014909466309
0.5	-0.0117997850533854	0.00712224684459048	0.00241246069213011	-0.0020516671112722	0.00241527196761252	-0.00205539118042102	0.00471511210864245	-0.00484963494382054
0.6	-0.0108850813332362	0.0080654133836105	0.00210006438294327	-0.00237161297199237	0.00209932074129033	-0.0023744532443138	0.00367621096365481	-0.00584335383030095
0.7	-0.010152142943033	0.00868776557013306	0.00174934733660668	-0.00264115782007312	0.00175554750580305	-0.00264524990039472	0.00222501855480296	-0.00673664897454806
0.8	-0.00935884290556378	0.00934789349085291	0.00135601466269629	-0.00286040833085301	0.00136428046834794	-0.00285881571758123	0.000577089623701886	-0.00712300041748564
0.9	-0.00856580115116547	0.00986267243185195	0.000952153842981872	-0.0030117579384553	0.000952133171964977	-0.00302116432595918	-0.00100005035120193	-0.00722023405518327
1	-0.00811513343441709	0.0101778700484744	0.000519979653747923	-0.00312015180509518	0.000519830882983072	-0.00312550395184518	-0.00295462433532283	-0.00711589380081304
1.1	-0.00760661768547656	0.0109570453134539	7.2484754341559E-05	-0.0031596498646946	7.33705538417372E-05	-0.00316437210612086	-0.00475690347197173	-0.00587347732260043
1.2	-0.00692255397905872	0.0110950005062822	-0.000365676633570141	-0.00313210752128901	-0.000364455082250821	-0.00314888468111773	-0.00568381362820466	-0.00455138622387342
1.3	-0.00660835324723573	0.0108566888476302	-0.000796042370537966	-0.00305778026811686	-0.000800975873276129	-0.00306542686070945	-0.00585708581923108	-0.00318894825312392
1.4	-0.00631880582112666	0.0104755715979175	-0.00122138776823396	-0.00291297591673754	-0.00122380115221982	-0.00292009843929204	-0.00547781993395592	-0.00234172860387036
1.5	-0.00594310667097117	0.0105904350675184	-0.00161311622072566	-0.00271450457165432	-0.00161114773847731	-0.00272004081641036	-0.00535048034356221	-0.00154715361504682
1.6	-0.00489894872747213	0.0110247362539224	-0.00197483635953155	-0.00245799641321164	-0.00197830232120439	-0.00245887429287799	-0.0051562430665472	-0.00031831279217126
1.7	-0.0039108460579876	0.0113074080034554	-0.00229899719754417	-0.00216424295335588	-0.00230104336811326	-0.00217281987438681	-0.00479205816203039	0.000891001033959132
1.8	-0.00292661882285823	0.0116820622867054	-0.00257546989261528	-0.00181562308519279	-0.00258063974675802	-0.00182107708663051	-0.00420086942459653	0.00202673285732169
1.9	-0.00195757222504478	0.0117951847808401	-0.00280084905857977	-0.00144673761268288	-0.00279734244247742	-0.00144055629700367	-0.0033924270491344	0.00292404084529004
2	-0.00131759158893731	0.0120197263340865	-0.00297507260340937	-0.00103539582853998	-0.00297780857914141	-0.001028562853059	-0.00278064613029818	0.00388248735847891
2.1	-0.000162128603163849	0.0122879266500825	-0.00308999270742601	-0.00060486387647436	-0.00309208843875889	-0.000611549780634941	-0.00127620959202685	0.00486215734125288
2.2	0.000840532629358712	0.0121437386127141	-0.00314380767583202	-0.000174808226446449	-0.00314562244160635	-0.000165098057743892	0.000584157325621734	0.00500162869727575
2.3	0.00162129411648	0.011856790701674	-0.00313574141549236	0.000266613156658751	-0.00314248560317561	0.000263704662992376	0.00234960414688114	0.00449418265832978
2.4	0.00228123521617111	0.0115026159462876	-0.00307557331793015	0.000700324386248848	-0.003074410472673	0.000715419372038245	0.00400708567824831	0.00341679300824488
2.5	0.00248406827425648	0.0111517016760679	-0.00294114778725854	0.00113066143261192	-0.00295413201324159	0.00113194697905518	0.00490503739913623	0.00178066955501997
2.6	0.00297950242750865	0.0113817012467414	-0.00275245755746931	0.00152580054583843	-0.00277335752477964	0.00152969177604606	0.00564134865862337	0.000507681238460575
2.7	0.00378584269827869	0.0114161186044166	-0.00252096597735741	0.00189467851979609	-0.0025212484823287	0.00189975852490478	0.00624582764656152	-0.00114411396787379
2.8	0.00479071637480281	0.0113286949871123	-0.0022267076167399	0.00221930546043128	-0.00223653995704691	0.00223047998868342	0.0065274234504731	-0.00289571618141711
2.9	0.00592829619345741	0.0109309876882101	-0.00189157480540162	0.00251198428406157	-0.00188965794899706	0.00252088648996842	0.00655399806247577	-0.00477138804055754
3	0.00683093923870068	0.0104342378544491	-0.00152218669480229	0.00275617309819866	-0.00153724593144638	0.00274312626029285	0.0059370339096152	-0.00650748013699601
3.1	0.00802712665735769	0.00993413444567689	-0.00112329032075969	0.00294018212318031	-0.00114022975708665	0.00294557026317863	0.00539872035326852	-0.00793836684072297
3.2	0.00893945664168234	0.00904936909015887	-0.000704563125638365	0.00306547653397882	-0.000700306429979853	0.00307628183044889	0.00433547548698747	-0.00956014472712958
3.3	0.00962169243585973	0.00807345875156873	-0.000275882364168211	0.00313770645987702	-0.000272580589909361	0.00313333160803221	0.00291502606964554	-0.0110903072745667
3.4	0.0100990832145427	0.00702221841706737	0.000169425745964186	0.00314719037068966	0.000159997794078719	0.00314826010726531	0.00112692325218174	-0.0126338007319295
3.5	0.0101334629641267	0.00611861063635154	0.00060412534355903	0.00309122017511126	0.000609133762115919	0.00308989344686457	-0.00157279746610097	-0.0138420690167719
3.6	0.0104716364799082	0.00554270698568787	0.00102360989385156	0.00297097962290305	0.00103020334441871	0.00297447537971205	-0.00411534730938834	-0.0139964089209694
3.7	0.0107302373040608	0.00474151819197651	0.00143979400903731	0.0027955998039293	0.00143803422115138	0.00281196311593969	-0.00657673383406744	-0.0139848114738729
3.8	0.0109265716214296	0.00400582943183313	0.0018083467300799	0.00256996774076042	0.00181893901994967	0.00257632856318159	-0.00916517122387897	-0.0136264344808056
3.9	0.0111272362369805	0.00325135774445806	0.00215644560741554	0.00229228805488701	0.00215184828503294	0.00229218805378541	-0.0118586261119328	-0.0128650416489154
4	0.0110870899146403	0.00268486082973096	0.00244702561833449	0.00197301623703854	0.00245845517247061	0.00197916529292762	-0.014818875398142	-0.0112762919168768
4.1	0.0116018861185815	0.00232623410628237	0.00269900839126235	0.00160862247370453	0.0027155549127004	0.00161842102401055	-0.016783472873792	-0.00856394606420184
4.2	0.0121334383309468	0.00149140528441011	0.00290217774173574	0.00121275899439939	0.00290340758927656	0.00121504665929338	-0.0180138944734162	-0.005925928586834
4.3	0.0124776861247172	0.000529051407920361	0.00304616792649262	0.00080496682258506	0.00304734180811138	0.000813553199464773	-0.0187782791811576	-0.00336355590673778
4.4	0.012605064724587	-0.000615240440869908	0.00312577022754764	0.000369815376909872	0.00313369781979696	0.000365190498549033	-0.0192290532998166	-0.000874445988704601
4.5	0.0122316812057764	-0.00157574010469761	0.0031505255169758	-7.34080327397312E-05	0.00314733050612121	-7.11517739500453E-05	-0.0197771778962312	0.0017165972435471
4.6	0.0121513564594635	-0.00221441890371416	0.00309958893219109	-0.000520217088676974	0.00311260752168506	-0.000508206248980932	-0.0194886673167867	0.00491912522931394
4.7	0.0120614850969459	-0.00305939894679566	0.00299853234821718	-0.000934313541903316	0.00299845287946203	-0.000943754581268528	-0.0185388687741614	0.00762073061477869
4.8	0.0118163367231286	-0.00392539592165233	0.0028503620005902	-0.00133759170920872	0.00284274152983178	-0.00135779794818269	-0.0171309380330596	0.0101320670735436
4.9	0.0116624635601891	-0.00478533871776786	0.00263600696148331	-0.00173551803589431	0.0026299140203984	-0.001727080842277	-0.0152385422732991	0.0122015634812152
5	0.0112940886890274	-0.00558718680109148	0.00236195169907992	-0.0020698633298772	0.00236472657885395	-0.00208229780678556	-0.0132229868050326	0.0140577979818093
5.1	0.0114306613151666	-0.00631727658499578	0.00203965203874154	-0.00239548179783855	0.00205289250205639	-0.00239297703743125	-0.0101947180068489	0.0158031375512703
5.2	0.0113525818291851	-0.00746134112421896	0.00169694258763612	-0.00265350354259912	0.00169745136089995	-0.00265766966547619	-0.00689380150989724	0.0163891775658792
5.3	0.0110278249520416	-0.00858604007051062	0.00130714931178244	-0.00286627632172674	0.00130340340668085	-0.00286885879414439	-0.00376857830788746	0.0162703743882776
5.4	0.0104837909897931	-0.00968967942962815	0.000895716383801732	-0.00302744980922017	0.000894830495949941	-0.0030299145390133	-0.000930054918866219	0.0153589128181332
5.5	0.00941122020025379	-0.0103541715629744	0.000454420731696913	-0.00312321273340878	0.000467021983548323	-0.00312317989520211	0.00090272412393813	0.0142345672144091
5.6	0.00894392746455295	-0.0107398747905974	2.01910149063559E-05	-0.00315288255500809	1.68844907946588E-05	-0.00314942269480287	0.00311225052112416	0.0133871934655404
5.7	0.00814111434418418	-0.0113989685212315	-0.000413472163668613	-0.00312771477984869	-0.000417191265707006	-0.00313141472610537	0.00504212594754456	0.0117339645833183
5.8	0.00719361689276964	-0.011803614322021	-0.000849807895149263	-0.00303833933034052	-0.000849068844574442	-0.0030460374523452	0.00649890158201303	0.00962453864000856
5.9	0.00624371836505575	-0.0120049196057596	-0.00126883785380412	-0.00288551710979699	-0.00126723140939693	-0.00288967627522534	0.00737999865043481	0.0071236541862955
6	0.00497157168793975	-0.012004483198486	-0.00165787273589238	-0.00267867630758239	-0.00165187059566676	-0.00268202772314837	0.00684712528519384	0.00455036517824471
6.1	0.00453306874584021	-0.0114244180755127	-0.00201639956745789	-0.00242852073399401	-0.00201224553984348	-0.00243329277825227	0.00649727342085172	0.00327145097225049
6.2	0.00444402028487968	-0.0116985707002748	-0.00233815181419452	-0.00211240589116565	-0.00233456324362416	-0.00212108693433096	0.00652412188770878	0.00141322584749193
6.3	0.0041778878072998	-0.0124749347595388	-0.00260677209427994	-0.00177211533099449	-0.00261660545760056	-0.00177989321877941	0.0061982457020583	-0.000922345579488683
6.4	0.00339014390936602	-0.0135751506238077	-0.00283414137207926	-0.00138575962311008	-0.00283214654910371	-0.00139156596251719	0.00521434830465501	-0.00355905819070996
6.5	0.0020613696956611	-0.0141722959304669	-0.00299952296664416	-0.000984195141492244	-0.00299992836273272	-0.000983070635360999	0.00307129960301615	-0.00547795733331881
6.6	0.00129285134093016	-0.014471668800542	-0.0031060375448646	-0.000557232495713525	-0.0031167321391459	-0.000560246789586338	0.00149946459268674	-0.00654351787432389
6.7	0.000274556030886585	-0.0147955680903292	-0.0031512411741625	-0.000120886238675697	-0.00315019514717486	-0.000114632067149583	-0.000559617903646129	-0.00754832102330963
6.8	-0.000701121994034133	-0.0147880847403454	-0.00313643237826927	0.00032890577327211	-0.0031355229781569	0.000333677567280038	-0.00290339274984359	-0.00784876860435951
6.9	-0.00161347316945383	-0.0148514008238355	-0.00305423969012258	0.000759918287315577	-0.0030546630298481	0.000764914911629384	-0.00521328430982175	-0.00775793657870988
7	-0.0029654979976534	-0.0145248490025778	-0.0029251603851955	0.00118019919386657	-0.00292657804022503	0.00118342584406599	-0.00825391601223975	-0.00676624405037498
7.1	-0.00351147112328724	-0.0138954234805786	-0.00272570985114069	0.00158106403203721	-0.00272812906229983	0.00159211547734991	-0.00993823177332986	-0.00428104452227736
7.2	-0.00425472299881671	-0.0137592712214853	-0.00248380775668879	0.00194349936907945	-0.00248398481964114	0.00194941065653597	-0.0108156046866946	-0.00206265103109701
7.3	-0.00526898263839871	-0.0134879538474643	-0.00219210905514031	0.00226942505967413	-0.00218933787156865	0.0022708998233587	-0.0111047653941703	0.00014728396597428
7.4	-0.0064069554703527	-0.0132073529960582	-0.00184852116717619	0.00255487460814959	-0.00184127553601512	0.00256140588919222	-0.0108517546623387	0.00184202657925666
7.5	-0.00812046799426972	-0.0126224042685037	-0.00146757518722074	0.00279118583696218	-0.00146862124333317	0.00278916790578618	-0.0111019727874686	0.00320981614765743
7.6	-0.00886142637682818	-0.0112378077036423	-0.0010717986426553	0.00296647497836127	-0.00106109849853423	0.00297682601465438	-0.0104481355325239	0.00562509078630069
7.7	-0.00935159837373197	-0.010502007831109	-0.000641089341920972	0.0030897680095677	-0.00063551390922703	0.00308940759570924	-0.00906578668060177	0.00690898402113275
7.8	-0.00956798132055026	-0.0101554386838865	-0.000192960355765026	0.00315027912263454	-0.000206650147553035	0.00314321590257158	-0.00764097599799813	0.00787991795872877
7.9	-0.00985229731915922	-0.0101160385813819	0.000233485854641503	0.00313529384466143	0.00024459690518191	0.00313495644754914	-0.00626461152516524	0.00862627944185003
8	-0.0104817246462128	-0.00963717991344645	0.000669825274002212	0.00307596955499201	0.000678121215080061	0.00307386719530791	-0.00541580779713629	0.00991371141046879
8.1	-0.0102982795735667	-0.00923200835137508	0.00110095611267041	0.00295103028030902	0.00109866365787286	0.00294777906784189	-0.00283154333480377	0.0114316870919583
8.2	-0.0105379668318014	-0.00909588846927224	0.00149334743709156	0.00276726633002472	0.00149255812007127	0.00277886850816002	6.95801470489217E-05	0.011748809402274
8.3	-0.010881925725035	-0.00881801214232498	0.00186616401631721	0.00253232806919542	0.00187123666569772	0.00252972466212763	0.00296480620212411	0.0112626273343998
8.4	-0.0112918917618711	-0.00855713432953094	0.00221155162307252	0.00224879758699901	0.00220038503717008	0.00224923233618283	0.00554030610512482	0.00970733634741456
8.5	-0.0122244092328068	-0.00798299045657464	0.00250534676404959	0.00191297741401536	0.00250535943034687	0.00191432846122147	0.00661699979323878	0.00789176621386535
8.6	-0.0123994659311784	-0.00696970772594797	0.00273701360890032	0.00155202666709797	0.0027327941272796	0.00154972870259716	0.00823771497729745	0.00671842703124844
8.7	-0.0126258594355501	-0.00639920794516147	0.00292566896264549	0.00115123951030668	0.00292450466128536	0.0011508318558708	0.00972501548131061	0.00449833066621076
8.8	-0.0129137526458209	-0.00571634054669495	0.00305273597010164	0.000731773920399275	0.00306370890537861	0.00072963508693929	0.0105682589943792	0.00178370669940286
8.9	-0.0130485025439045	-0.00511841086047005	0.00312460902828377	0.000301573683569464	0.00313394056917531	0.000294410991783166	0.01088852612618	-0.00133996348147542
9	-0.0134114292729471	-0.00444795499932537	0.00313751130737338	-0.00014691828145863	0.003144302774537	-0.000141333254105057	0.00976698247178322	-0.00442443688380648
9.1	-0.0129873154893651	-0.0036313833203419	0.00308769317396149	-0.000580631796557926	0.00308791029316533	-0.000580824845331495	0.00873381345311917	-0.00652660771254281
9.2	-0.0126309031454486	-0.00346632332266997	0.00297035429898242	-0.00100103532843968	0.00297417300258193	-0.00100082316244232	0.00735949463004536	-0.00899689598095708
9.3	-0.0125025412671975	-0.00338640852608128	0.00279672721420497	-0.00140885522794907	0.00281475980066443	-0.00140934167453684	0.00526605160836843	-0.0112072364905245
9.4	-0.0125427004655885	-0.00344159466623272	0.00257833283908544	-0.00178058760405671	0.002581621663357	-0.00179161619387156	0.00250037600438053	-0.0131749861355147
9.5	-0.0130829449550562	-0.00290922703313827	0.00230419121001923	-0.00213653438620246	0.00231897293949967	-0.00213724407307873	-0.0014721013056949	-0.0139033959773185
9.6	-0.0129847770320264	-0.00237793030689186	0.00198367470881614	-0.00243489932004534	0.00198401663152881	-0.0024278955639196	-0.0046927789897219	-0.0133786374926969
9.7	-0.013263210655189	-0.00205746575326093	0.00162185054838207	-0.00268665647717004	0.00163012927094341	-0.00268826362193012	-0.00792408874386418	-0.0127101837388893
9.8	-0.0136687845999972	-0.0014635517800764	0.00123780943666202	-0.00288087435943122	0.00123596485719068	-0.00288950301048813	-0.0111589218533756	-0.0113823333285118
9.9	-0.0140281065451208	-0.000645373924271142	0.000827346868569495	-0.00302478862823865	0.000815483764291041	-0.00302737035233153	-0.0143591052697832	-0.00954747683382273
10	-0.0145868888202711	0.000513531995977453	0.000394135801708304	-0.00309943869781734	0.000393305904702294	-0.00310673496626731	-0.0179984129649945	-0.00669350049408511
10.1	-0.0140853472470406	0.00198956732732717	-3.69380145443339E-05	-0.00313430423093678	-4.15738848092758E-05	-0.00313705679941988	-0.0199780452282372	-0.00224864874829302
10.2	-0.0134050429362863	0.0028223724799731	-0.000475054675405804	-0.00309357983626494	-0.000487626808124719	-0.00309730794595252	-0.0206391449108751	0.00184615927842077
10.3	-0.0127188491948244	0.00342321533711605	-0.000905151480145657	-0.00299006438208978	-0.000904956997053601	-0.00300341228074398	-0.0204774180477355	0.00574489530149879
10.4	-0.0120802084401295	0.00370341374011733	-0.00131142062420979	-0.00284119476567679	-0.00131457624705212	-0.00283906801410596	-0.0196501948079692	0.00897639686612689
10.5	-0.0118844086352196	0.00422116102230478	-0.00169077221345639	-0.0026237629121756	-0.00169692617842194	-0.00263098835850375	-0.0192933596008301	0.0124131621678232
10.6	-0.0109667357411747	0.00484760072720679	-0.00204918416980142	-0.00236893210728778	-0.00205068394931185	-0.00237402675562944	-0.0174661348967289	0.0165769202169842
10.7	-0.0101749962807759	0.00511151531909055	-0.00235470747751833	-0.00205676571823532	-0.00235792216249899	-0.00207274142008981	-0.014695025392827	0.0201661562821947
10.8	-0.00933366265064446	0.00529516371009732	-0.0026194628683497	-0.00171006596403519	-0.00261653689920402	-0.0017122272727489	-0.0111302321160777	0.0232541005860014
10.9	-0.00861242745484194	0.00522544626901764	-0.00283460879195247	-0.00133465731988871	-0.00283389350436766	-0.00133976530088218	-0.00700735611906265	0.0252667018656462
11	-0.00829798782993001	0.00534937662282321	-0.00299886364473006	-0.000921355712083731	-0.00299186282285563	-0.00092563710151748	-0.00332356037050751	0.0269439884511676
11.1	-0.00726740776669665	0.00552554973316666	-0.00309325939900932	-0.000504156826771877	-0.00308553401732709	-0.000495889950652784	0.00187775957947036	0.0285814169429161
11.2	-0.00651442406185158	0.00512009160813147	-0.00313210727652793	-6.44493281060985E-05	-0.00313868249072305	-6.12466414047332E-05	0.00768000117963206	0.0285065177172243
11.3	-0.00595364359569044	0.00464169378189488	-0.00310915214290612	0.00037393746711917	-0.00311230716449706	0.000371780491960591	0.0135948001938926	0.0270705906178772
11.4	-0.00565118742449094	0.00406740924593319	-0.00302373853241093	0.00080290517391723	-0.00302835501111712	0.000803058051369047	0.0190219469142386	0.0240088952741344
11.5	-0.00585983208248161	0.00384306475763239	-0.00289049505779552	0.00121171903732977	-0.00288299938561725	0.0012164548779601	0.0227181773217989	0.0201158534200104
11.6	-0.00535516060903563	0.00375275273896929	-0.00268730365132574	0.00160231204999327	-0.00269538999789692	0.00161198048033506	0.0266647735268595	0.0161243041701874
11.7	-0.00510397157859151	0.00324170277917308	-0.0024353288838749	0.00196701876959765	-0.00243707405175391	0.00197069681352087	0.0299875931616428	0.0106325427936169
11.8	-0.0049663716114059	0.00287642793928369	-0.00213845986102791	0.00228999139861112	-0.00214764062092544	0.00229975329146108	0.0320764905908684	0.00432352724238159
11.9	-0.00484102457637503	0.00248594769946602	-0.0017996211361467	0.00256191121692697	-0.00179965529494065	0.00256844957137292	0.0324004281317234	-0.00241396779844816
12	-0.00519679453943572	0.00250742309384339	-0.00142110944498982	0.00278325589625431	-0.00142558588950996	0.00278602819288667	0.0302903832949004	-0.00834051270053281
