# GHZ S RI R 50
0.2	-0.0138983545750957	0.0055617217310233	0.00304305536991926	-0.000885604205224412	0.00305351075759252	-0.000885454426812552	0.00593312632848317	0.00110624140058697
0.3	-0.0131546593411049	0.00592505808167581	0.0028965071497364	-0.00130143202884686	0.00289022192737432	-0.00131306630022254	0.00617144368821878	-0.00129051059310685
0.4	-0.0124664376424312	0.00656281495994115	0.00268198884053095	-0.00169523026636565	0.00267988428096771	-0.0016971404592313	0.00567337390304721	-0.00319451335148395
0.5	-0.0118863174061007	0.00733548128105626	0.00241217765508814	-0.00205153510948997	0.00241498856588869	-0.00205525889804473	0.00465703371044808	-0.00466393635920369
0.6	-0.0110312911844557	0.00817353718332401	0.00209969452989248	-0.00237126843244185	0.00209895096288863	-0.0023741082422599	0.00357276649917082	-0.00582000330451732
0.7	-0.0103046346710457	0.00878590061074955	0.00174910620615334	-0.00264077065888354	0.00175530549951148	-0.00264486212530074	0.00209116141643955	-0.00676632029097686
0.8	-0.0095542280487654	0.00939419290642095	0.00135585974803984	-0.00286008684047239	0.0013641246230233	-0.00285849441265405	0.0003623768376837	-0.00722752282420114
0.9	-0.0089401089419717	0.00993889918605348	0.000951864956059802	-0.00301163740336544	0.000951843574313888	-0.00302104318772742	-0.00144607358245421	-0.00728489840292843
1	-0.00847320132640175	0.0106379162318731	0.000519231761627652	-0.00311959098113546	0.000519081930439505	-0.00312494195349744	-0.00339536970221813	-0.00671887662084014
1.1	-0.00770682141919349	0.0114735476837199	7.22319684263374E-05	-0.00315872720703782	7.31171618004369E-05	-0.00316344812647392	-0.00486590989810984	-0.00539567837634374
1.2	-0.00678910144798206	0.0117744207745349	-0.000365739889742984	-0.00313122215938478	-0.000364519556744532	-0.00314799474367665	-0.00550013569162819	-0.00393075673991918
1.3	-0.00605553438713519	0.0114568210416417	-0.000796035429103093	-0.00305683274867498	-0.000800968058823736	-0.00306447675572732	-0.0052117979821601	-0.00269668858779377
1.4	-0.00574975260790354	0.010755570457986	-0.00122129633568033	-0.00291165776594831	-0.00122370972303064	-0.00291877714264755	-0.00482123870616959	-0.00223120071340003
1.5	-0.00542802177438855	0.0107330530812373	-0.00161191618498785	-0.00271297755219162	-0.00160994846222835	-0.00271851026370215	-0.0047487676833475	-0.00162281817183637
1.6	-0.00471693648065069	0.0109078286866502	-0.00197347239382258	-0.00245741223268679	-0.00197693672159621	-0.00245829051432539	-0.00494588545599794	-0.000751863243036655
1.7	-0.00399902796421964	0.0112410737421128	-0.00229772101381379	-0.00216378717523928	-0.0022997649049487	-0.00217236107530869	-0.00494090919322768	0.000508698255154107
1.8	-0.00320286747218806	0.0116868312382424	-0.00257393360909394	-0.00181523993742214	-0.00257910005084981	-0.00182069232202305	-0.00458636681899732	0.00176097130388213
1.9	-0.00241399130861374	0.0120162201938196	-0.00279864853496624	-0.00144683249929022	-0.00279514619064489	-0.00144065371477648	-0.00396523778950984	0.00294286217151789
2	-0.00146200474263937	0.0125577840020894	-0.00297328249042864	-0.00103713822516223	-0.00297602234099558	-0.00103030961499404	-0.00295310262888524	0.00426298851721035
2.1	-0.000183599298334998	0.0124833570809584	-0.00308927211746591	-0.000606305512852198	-0.00309136426430787	-0.000612991537284345	-0.00127241485012013	0.00481534307656567
2.2	0.000663991938079795	0.0122525479189679	-0.00314311432131288	-0.000176289119849653	-0.00314493341405991	-0.000166581706939146	0.000393867489422339	0.0048076509728976
2.3	0.00127454978542715	0.0119487703010382	-0.00313532831750365	0.000264704761151547	-0.00314206955156256	0.000261792797298363	0.0019224071789364	0.00427241903659368
2.4	0.00162767100354715	0.0117565685447189	-0.00307616866383209	0.000697923185669367	-0.00307501763784536	0.000713019309972657	0.00319690758304804	0.00341127151051033
2.5	0.00193160324260673	0.0120923617967465	-0.0029430212607104	0.001129717226173	-0.00295601193030819	0.00113099694596694	0.00422777328060081	0.00259337607211617
2.6	0.00300076129992887	0.0123212855230022	-0.00275330474040713	0.00152526888995587	-0.00277420899945681	0.00152915490184809	0.00566410197086113	0.00133572219328892
2.7	0.00410040636632373	0.0121290492529934	-0.00252213998232394	0.00189392630622701	-0.00252242463573933	0.00189900697812878	0.00663397976237046	-0.00059437645165108
2.8	0.00511297769577302	0.0116917781611823	-0.00222839575927555	0.00221903800089859	-0.00223823615779107	0.0022302117885288	0.00694917186465821	-0.00276182810711307
2.9	0.00597797775015842	0.0112108570328876	-0.00189322218643514	0.00251300656185774	-0.00189130621277919	0.00252191431248765	0.0067041441318764	-0.00476075840356741
3	0.00703533012795376	0.0109066948662819	-0.00152175381223433	0.00275724384907536	-0.00153682024612444	0.00274419828271041	0.00629872972477164	-0.00632647502524506
3.1	0.00821926003487995	0.0100440763858398	-0.00112359012128783	0.00293992580162146	-0.00114052948081438	0.00294531171529883	0.00577685830906115	-0.0082485401857223
3.2	0.00891953851206351	0.00909541337737795	-0.000705226464770083	0.00306576188865137	-0.000700971192928172	0.00307656943930711	0.00443345152171449	-0.0100292185644951
3.3	0.00942615912139699	0.00809678018901216	-0.000276106800437931	0.00313834089654962	-0.000272804109735473	0.00313396531571534	0.00275187698634554	-0.0116209111113006
3.4	0.00962084425427474	0.0071664876155918	0.000170062313800688	0.00314717355967358	0.000160634525820719	0.00314824520630857	0.000602693783810866	-0.0130142910948795
3.5	0.00985548210414663	0.00667552166967396	0.000603022783519272	0.0030896918921878	0.000608028813089832	0.00308836713935866	-0.00185339649863642	-0.0137594128816485
3.6	0.0102906724705462	0.00573409505872091	0.00102178680152373	0.00297157080240123	0.00102837804707969	0.00297507054106772	-0.00429655654965029	-0.0143830263078541
3.7	0.0102350371337459	0.00492698884833711	0.00143878254170516	0.00279659640722091	0.00143701546346948	0.00281296116119756	-0.00718474097834269	-0.0144156940933319
3.8	0.0101708430560067	0.0044179160694085	0.00180748129001069	0.00257077514916392	0.00181807175376003	0.00257714025199455	-0.0101433484405991	-0.0137727244097803
3.9	0.0102202358545666	0.00420218019792382	0.00215468775156521	0.00229326136962826	0.00215009121494565	0.00229315853977567	-0.0130286697968041	-0.0123303600335168
4	0.0109590881340967	0.00433706013984091	0.00244572705122199	0.00197691994218397	0.00245715429978579	0.00198308582730228	-0.0150849986511983	-0.00992211268475604
4.1	0.0121597204588993	0.00331650850950901	0.00270056820860994	0.00161161683231443	0.00271712432835789	0.00162143368197451	-0.0162487025226163	-0.00793271343551778
4.2	0.0126269596616387	0.00198200507263118	0.00290385939241066	0.0012147226173016	0.00290508929651527	0.00121701241625258	-0.0175343761356515	-0.0058600300582712
4.3	0.0127211884302369	0.000729672179450645	0.00304788524556065	0.000806912082832261	0.00304905600132862	0.000815504876055426	-0.0185719561693754	-0.00360784684684865
4.4	0.0124201950687545	-0.000397065476022268	0.00312860994090832	0.000372404803970354	0.00313654869027175	0.000367780971278414	-0.0194784057655359	-0.00105781637488117
4.5	0.0122571576714153	-0.000844939453684436	0.00315598271600362	-7.34628965142525E-05	0.00315278212085559	-7.12028040109658E-05	-0.0197090349210153	0.00214974128810043
4.6	0.0124124343961251	-0.00199952794749682	0.00310255718702678	-0.000522276123807852	0.00311559519622425	-0.000510259171047642	-0.0190155753175567	0.00471743514609554
4.7	0.0120406390056055	-0.00302758613915893	0.00300090542780494	-0.000936020752573958	0.00300082311141858	-0.00094547010574048	-0.0183414265278209	0.0070878788781078
4.8	0.0115369561235372	-0.00394650971487059	0.00285300494506395	-0.0013397097607373	0.00284537140618431	-0.00135993520540987	-0.0172535379038363	0.00945343161743808
4.9	0.0109898993211736	-0.00465035683329687	0.00263861274384394	-0.00173958936863771	0.00263251653880209	-0.00173113657296015	-0.015835049672371	0.0116756435134088
5	0.0108794058348277	-0.00493543401467818	0.00236054404060606	-0.00207480653234321	0.00236330247086106	-0.00208725382136436	-0.0134897770008457	0.0140646161315811
5.1	0.0109817469507472	-0.00608025387181627	0.00203820974135618	-0.00239757393854687	0.00205145492747956	-0.00239507898379545	-0.0105351776661606	0.0152230061327534
5.2	0.0105107062525869	-0.00696539020115244	0.00169589331120193	-0.00265591653476887	0.00169639943274389	-0.00266008495154682	-0.00779210704228167	0.016045346278916
5.3	0.0101882425304691	-0.00762340893653613	0.00130509331999152	-0.00286898011692745	0.00130134305091587	-0.00287156034832071	-0.00476669659457659	0.0164877541209994
5.4	0.00983213673544125	-0.00829251745050974	0.00089164794668981	-0.00302891820193419	0.000890758616760732	-0.00303138191830921	-0.00172879834308935	0.0161559368880931
5.5	0.00985924603623868	-0.00860636293001586	0.000452220324225629	-0.00312083265416075	0.000464810926342972	-0.0031208071694903	0.00139566966604011	0.0154189557798421
5.6	0.00963366406351518	-0.0102299936855657	2.00547574065143E-05	-0.00315285168052896	1.67484158504715E-05	-0.00314939171243534	0.00389966146884513	0.0131310890835507
5.7	0.00827802812873034	-0.0112499106912771	-0.000414637726254407	-0.00312813934748178	-0.000418358794361265	-0.00313183866982377	0.00513805530109566	0.0110045800070719
5.8	0.00688273650028955	-0.0117174908150689	-0.000851286555781866	-0.00303790025639301	-0.000850551273924108	-0.00304559867962417	0.00596442858192131	0.00885697197180971
5.9	0.00526115344497434	-0.011647710208536	-0.00126869446757866	-0.00288413655399075	-0.00126708925633545	-0.00288829419214984	0.0060073433844222	0.00682144694880723
6	0.00432214409413498	-0.0103396122713742	-0.00165668929440647	-0.00268122720729919	-0.00165068170921314	-0.00268457579290699	0.00593156342141828	0.0059253633094292
6.1	0.00482242430003855	-0.010297955797505	-0.00201924866085437	-0.00243038108501691	-0.00201509187158757	-0.00243515936539452	0.00686753823611347	0.00412920980028395
6.2	0.00467201756000468	-0.0110090892839176	-0.00234092479088363	-0.00211229236756125	-0.0023373393169435	-0.00212098108264578	0.0070046924007688	0.00170422528190572
6.3	0.00413122270025617	-0.0120531131003708	-0.0026087239250356	-0.00177157873262545	-0.00261856518540631	-0.00177935505133859	0.00646414524301052	-0.00104593358882622
6.4	0.00278399814019574	-0.0128435371775348	-0.0028363606214762	-0.001386527842488	-0.00283436484821256	-0.00139233865231963	0.00490130097171992	-0.00344685254575135
6.5	0.00219365519054833	-0.0128261676874528	-0.00300545420132934	-0.000982460084188431	-0.0030058590056004	-0.000981333314339365	0.00363431525917299	-0.00485161793267514
6.6	0.00133475032754421	-0.0137846396942279	-0.00310828838886943	-0.000552331669955638	-0.00311899254599009	-0.000555329558444254	0.00189270194212387	-0.00688501390249766
6.7	0.000202586356827189	-0.0139430810661339	-0.0031518004439115	-0.00011713507174071	-0.00315074680288015	-0.000110881327716421	-0.000505987010438692	-0.00780963681316978
6.8	-0.000758328424476545	-0.0140708387255537	-0.0031372217855109	0.000332128145647108	-0.00313630733753384	0.000336900735543389	-0.00300245391981554	-0.00820666005672524
6.9	-0.0021502414454993	-0.0139516199551638	-0.00305576992913022	0.000764992007499362	-0.00305618640350611	0.000769993546531761	-0.00587867159891813	-0.00777755209227432
7	-0.00252735123874869	-0.0127923560023389	-0.00292145839679675	0.00118745020407475	-0.00292286743280485	0.00119067976237492	-0.00771870917262626	-0.005852831366216
7.1	-0.00275146341691534	-0.0135477576901704	-0.00272089066680516	0.00158356658183562	-0.00272329156890219	0.00159461132916518	-0.00900942425197466	-0.00505181375105979
7.2	-0.00414058045887467	-0.0137871174957868	-0.00247998975560819	0.00194539827532852	-0.00248015950246664	0.00195130633625273	-0.0107520266371784	-0.00339165131040767
7.3	-0.00568036135891623	-0.0136685577115778	-0.00218766976998215	0.00227149100147446	-0.00218489782685722	0.00227296095327558	-0.011868696115993	-0.00135011935308138
7.4	-0.00780076428825888	-0.0132475806256182	-0.00184144934880485	0.0025557005327344	-0.00183419883568357	0.00256221033728526	-0.0129264313908985	0.000703945804633352
7.5	-0.00943619085424709	-0.0110492513691718	-0.00146222530641887	0.00278575411047858	-0.00146327035444985	0.00278374158117604	-0.0131187617064279	0.00416616332273468
7.6	-0.0094800367618854	-0.010190151330571	-0.00107055327914113	0.00296320942963927	-0.00105986478725263	0.00297354878927008	-0.0115765877434368	0.00623267814172148
7.7	-0.0104140404443224	-0.00937507639273211	-0.000639176238102638	0.00308727002762613	-0.000633605969628325	0.00308690752449901	-0.0105047970923881	0.00767760713567602
7.8	-0.0107783751260343	-0.00851337410680515	-0.000190998023165739	0.00314657923497074	-0.000204675153591185	0.00313953206234066	-0.00906931538462717	0.00923863291546444
7.9	-0.0109717409849502	-0.00750619858396385	0.000232967657297899	0.00312973243096662	0.000244058982781594	0.00312939599981951	-0.00722816448222782	0.0110405724373686
8	-0.00951256098311803	-0.00663322421524966	0.000665605916591999	0.0030753416454538	0.000673900539056282	0.00307325080746272	-0.00405710200187263	0.0125661342812249
8.1	-0.00911353633269142	-0.00787520574522847	0.00110131083772714	0.00295140144173072	0.00109901783044366	0.00294814988978528	-0.00106474027413003	0.0118816733673518
8.2	-0.00977982569986772	-0.00824697764664608	0.00149368402190341	0.00276565263361229	0.00149289894175352	0.00277725042849871	0.00119345612476436	0.0114297037498737
8.3	-0.0105220739174582	-0.00828143979450831	0.00186490244310957	0.00253059794615843	0.00186997163068043	0.00252799629376773	0.00347597350803425	0.0105596093847838
8.4	-0.011692689112357	-0.00780452172766201	0.00220966264847114	0.00224998817154049	0.00219849744579348	0.00225041513135189	0.00514694108971811	0.00933489703122047
8.5	-0.0116967051072686	-0.00618877206572571	0.00250923914406103	0.00191348693336569	0.00250925266291136	0.00191483943120001	0.00738241035681653	0.00864680563608159
8.6	-0.0114651666567755	-0.00662537627941641	0.00273787735224096	0.00154814146533788	0.00273365665358188	0.001545849455338	0.0094578739384176	0.00565506695882013
8.7	-0.0124170952108944	-0.00651413335585344	0.00292448068658091	0.00114870655510349	0.00292331688897098	0.00114829987603143	0.00994668915850109	0.00276694588793237
8.8	-0.0133775082974112	-0.00596552884333967	0.00305199554184092	0.000730492534951184	0.00306296418481683	0.000728350643285902	0.00976104153236297	-8.64890477402934E-05
8.9	-0.0145659852277841	-0.00499082208878022	0.00312593069649374	0.000298817905542194	0.00313525881246946	0.000291644284559084	0.00871413405423496	-0.00258162299040673
9	-0.0145770124487121	-0.00280944082312509	0.00313357446055028	-0.000153625980062024	0.0031403703446226	-0.000148062273310336	0.00796850646628632	-0.00376870337514843
9.1	-0.0138191401424673	-0.0023516503253314	0.00308170797231114	-0.000581379431192657	0.00308192458147118	-0.000581572254256503	0.0074227591513736	-0.00610155685256206
9.2	-0.013543288674564	-0.00164102102058068	0.00296647924226162	-0.00100056016489987	0.00297029334059615	-0.00100034921685871	0.00607604867010318	-0.00793986825031289
9.3	-0.0128393745575816	-0.00120307702525589	0.00279320419738427	-0.00140912689795015	0.00281121908596704	-0.00140962339886186	0.00469548198246565	-0.00973378768540609
9.4	-0.0125799903483819	-0.00120011396940025	0.00257171456592755	-0.00178106114753537	0.00257498334809226	-0.00179207587359026	0.00242630260827865	-0.0115964582763011
9.5	-0.01166688277808	-0.000646415662308825	0.00229779113733309	-0.00212916710197525	0.00231252746315421	-0.00212986965538231	0.000274614653162718	-0.0123538265340448
9.6	-0.0117706479552121	-0.00189760068548331	0.00198334387577795	-0.00242907151130831	0.00198367764634127	-0.00242207792353963	-0.00305139499296779	-0.014093807415821
9.7	-0.0129002310761332	-0.00188049614967195	0.00162139915144228	-0.00268235473811016	0.00162966848387899	-0.00268395503104606	-0.00737716776143328	-0.0139943888325963
9.8	-0.0139285854387975	-0.00133093182335296	0.00123712697292047	-0.00287562550388224	0.00123528936621284	-0.00288424099143561	-0.0115238581328448	-0.0127466072136242
9.9	-0.0151657340435568	-7.73182594210377E-06	0.000829354376244721	-0.00301669645216144	0.000817522149557598	-0.00301928758829107	-0.0158347534071345	-0.0101775384275369
10	-0.0147862755574823	0.00249279133575764	0.000402676230163453	-0.00309655172995649	0.000401867442812105	-0.00310384617381446	-0.0183646835899856	-0.00572771275737911
10.1	-0.0138081911681736	0.00278826141739292	-3.30618472452681E-05	-0.00313480970121146	-3.76949886268668E-05	-0.00313756841447326	-0.0197416478332966	-0.00260712071204754
10.2	-0.0136728031826374	0.00331444977615038	-0.000471475511322464	-0.00309285326805788	-0.000484038494393579	-0.00309659364261778	-0.0210624449816536	0.00110721282559364
10.3	-0.0135960446403451	0.00385415364134155	-0.00089985829726068	-0.00299006721546049	-0.00089964226009233	-0.00300340825784802	-0.0216686145382068	0.00502444176592642
10.4	-0.013987500055524	0.00486965995817367	-0.00130510907751452	-0.00284587957261929	-0.00130827155143643	-0.0028437594870997	-0.0219465451264637	0.0092859855961883
10.5	-0.0128484173345297	0.00712385777929774	-0.00169311717399643	-0.00263053945513271	-0.00169928094014514	-0.00263778437859327	-0.020252576208683	0.0147485925088079
10.6	-0.0110289760056888	0.00741079248609374	-0.00205104271918107	-0.00236944338921078	-0.00205254500852019	-0.00237454013116272	-0.0171757028084957	0.0183435477177421
10.7	-0.0094897497112823	0.00747202212336074	-0.00235458560570527	-0.0020576163661804	-0.00235779708855381	-0.00207359519946392	-0.0135466872130809	0.0214876325558433
10.8	-0.00840745317663225	0.00671580298003872	-0.00261996898170637	-0.00171229854962345	-0.00261704037425305	-0.00171445950441995	-0.00975651198276879	0.0234224291933593
10.9	-0.00853711962975348	0.00641278094117123	-0.0028387920221597	-0.00133564682924352	-0.00283807722006859	-0.00134076187010586	-0.00650943139672593	0.0251798690660439
11	-0.0072652436790114	0.00736958831694853	-0.00299871907182002	-0.000915570124077337	-0.00299172983959718	-0.000919861252696843	-0.00162572678389061	0.0275471542805184
11.1	-0.00616556341786028	0.00602852866750599	-0.0030894777610973	-0.000504139090519767	-0.00308176314508157	-0.000495880610643848	0.00358061916672926	0.0271626027015212
11.2	-0.00614394913255303	0.00534430514152705	-0.00313077877354527	-6.59383868512851E-05	-0.00313735281421477	-6.27402086998797E-05	0.00828037584505692	0.0265236353715885
11.3	-0.00610893982714747	0.00482781837146668	-0.00310881175706369	0.000373861979722311	-0.00311196640546533	0.000371705209003744	0.0131964985662864	0.0250086654818853
11.4	-0.00663294278721123	0.00466908080504452	-0.00302015593041202	0.000804661897171627	-0.00302476783697559	0.000804818489589931	0.0174088515090332	0.0225780210116673
11.5	-0.00577269114261701	0.00544383437963727	-0.00288483105369644	0.00120508419123666	-0.00287735994583595	0.00120981765990747	0.0221633220849488	0.0200283583896178
11.6	-0.00530385998415135	0.00386387000162257	-0.00268924939452595	0.00159634349331252	-0.00269735108141698	0.00160599181742912	0.0260276587774464	0.0145303449193392
11.7	-0.00620180604789152	0.00322115402716284	-0.00243745062656062	0.00196386931294597	-0.00243920005634892	0.00196754486193625	0.0279419509207016	0.0090594224690122
11.8	-0.00713544529781371	0.00346711787307317	-0.00213933088259905	0.00228664842200816	-0.00214851531735642	0.00229639600350911	0.0287670666198179	0.00376169156931364
11.9	-0.00771637908367608	0.00488866281052982	-0.00180194028379341	0.00255435845666811	-0.0018019874200701	0.00256088661983771	0.0284806045906712	-0.000489898482094596
12	-0.00549241445274841	0.0070500955001539	-0.0014326288912748	0.00278023738589852	-0.00143711930783067	0.00278299528281733	0.0297752286458999	-0.00388532331680266
