# GHZ S RI R 50
0.2	-0.014057277305076	0.00547173261168999	0.00304402634460011	-0.000885556168450016	0.00305448474859248	-0.000885405299376455	0.00578264274954119	0.00101913893182375
0.3	-0.01318317109322	0.00598778469935601	0.00289759857307413	-0.00130153580319524	0.00289131258807557	-0.00131317457591537	0.0061519710958375	-0.00122585507713881
0.4	-0.0124212410916539	0.00668027557269709	0.00268319499316149	-0.00169554468115537	0.00268108987386448	-0.00169745584014374	0.00572730629378038	-0.00307666273020845
0.5	-0.0117074549123294	0.0075014896510374	0.0024134346779097	-0.00205226931210555	0.00241624716091653	-0.00205599455958714	0.00484112861754158	-0.00449906797891585
0.6	-0.0108222393454836	0.0082046385331778	0.0021006463489278	-0.00237222642984235	0.00209990253491705	-0.00237506746666279	0.00378357826644025	-0.00578547241288322
0.7	-0.010154990003807	0.00882731354242051	0.00174996639804131	-0.00264185757360752	0.00175616854565569	-0.00264595059516249	0.00224451599158401	-0.00671768686671773
0.8	-0.00940930700226292	0.0094788838613828	0.00135656368370441	-0.00286140525071666	0.00136483242097169	-0.00285981188556186	0.000514090242443294	-0.00713452949551997
0.9	-0.00878974382339836	0.0100773784159433	0.000952284730789769	-0.0030131608588268	0.000952263163118037	-0.00302257134532582	-0.00128521133885844	-0.00714033194772689
1	-0.0082373631169748	0.0108938733060716	0.000519268817552372	-0.00312108240837819	0.000519118563961803	-0.00312643587039912	-0.00315078715942432	-0.0064640912619356
1.1	-0.0073612838338077	0.0116585431313386	7.2219080518562E-05	-0.00316023856786977	7.31046263013397E-05	-0.00316496175778702	-0.00452038303017227	-0.00521312310011303
1.2	-0.0065216507846851	0.0120307193628471	-0.000366069230797942	-0.00313290566767556	-0.000364848936928719	-0.00314968740270923	-0.00524154418223857	-0.0036761406673673
1.3	-0.00574650516450196	0.011958255223598	-0.000796780378475933	-0.00305848295867732	-0.000801716533227178	-0.00306613080818218	-0.00491793378652377	-0.00218986852493555
1.4	-0.00522475501785148	0.0113767094202407	-0.00122237335665696	-0.00291310356096113	-0.00122478905994456	-0.00292022655154634	-0.00431049016967411	-0.00159486668887426
1.5	-0.00470005483986143	0.0111389765449416	-0.00161311820021143	-0.00271433518249976	-0.00161114996271012	-0.00271987122873413	-0.00403116280850795	-0.00119871510863381
1.6	-0.0041141958001446	0.0110144685055751	-0.00197520274550661	-0.00245873508754224	-0.00197866954298823	-0.0024596133860654	-0.00434842582519162	-0.000613049926176509
1.7	-0.00353065079881543	0.0112512902043413	-0.0022998800924778	-0.00216464393385054	-0.00230192770844624	-0.00217322314487697	-0.00446872651727835	0.000548809349969029
1.8	-0.00282189038389523	0.0116505253239076	-0.0025762827937825	-0.00181557241247807	-0.00258145457231506	-0.00182102667706707	-0.0041975968104468	0.00174874168679036
1.9	-0.00208537310944927	0.0119826862618214	-0.00280107830356665	-0.00144671259922884	-0.0027975712237512	-0.00144053104858345	-0.00362783333848917	0.00292660774843696
2	-0.00109275368168603	0.0124819356360175	-0.00297594750592037	-0.00103649059864263	-0.00297868613086939	-0.00102965569862178	-0.00258391950294233	0.00419919377382125
2.1	7.77089665665933E-05	0.0123059693635542	-0.00309173446961324	-0.000604724425662366	-0.00309383232193478	-0.000611413588791158	-0.0010177230783304	0.00465888630095872
2.2	0.000826309293830638	0.012117011123104	-0.00314505386734135	-0.000174179149163418	-0.00314686717974713	-0.00016446484909038	0.000553722458568458	0.004699559014928
2.3	0.00139669030108055	0.0118726043207789	-0.00313678256593643	0.000267187007078192	-0.00314352952790212	0.000264278546029417	0.00204908776361373	0.00422420840370915
2.4	0.00173923639515364	0.0117507644010255	-0.00307713620701925	0.000700797274704473	-0.00307597221527269	0.000715900013434789	0.00332075081500315	0.00342662738407974
2.5	0.00212264505763609	0.0121123191373966	-0.00294310261811081	0.00113302019823287	-0.0029560972385604	0.00113431301636115	0.00442571317798964	0.00261945851944136
2.6	0.00312470967675577	0.012258553591036	-0.00275242753592334	0.00152825556965714	-0.00277333256067232	0.00153216259544706	0.00578014976292204	0.00127904808169527
2.7	0.00411180237037069	0.0121567639594075	-0.00252071507798664	0.00189657011162007	-0.00252099498810791	0.00190165177339157	0.0066285390401087	-0.000554821395927066
2.8	0.00511917305845023	0.0118711698340194	-0.00222643893121979	0.00222133363277902	-0.00223626937388402	0.0022325176597063	0.00693353686500192	-0.00256310100320366
2.9	0.00608711242114244	0.0115178934839018	-0.00189068087793272	0.00251481116756948	-0.00188875613695054	0.00252371677236719	0.00678615197749202	-0.0044274264073346
3	0.0073304838210849	0.0112004591758845	-0.0015188750670256	0.00275810809877481	-0.00153395063624383	0.00274507921559927	0.00655914525063445	-0.00599866911677859
3.1	0.00854442080782093	0.0102500535785576	-0.00112096174894823	0.00294025983794165	-0.00113789333207539	0.00294565853582627	0.0060650123287375	-0.00799550066391638
3.2	0.00929214176421757	0.00927188658275796	-0.000702528819962677	0.00306571281512863	-0.000698265436713163	0.00307651458258415	0.00477870712967021	-0.00979164328088125
3.3	0.00983990006053695	0.00822673898071129	-0.000273388403166011	0.00313770053138591	-0.00027009031396602	0.00313332338745649	0.00314689882027003	-0.011422455509399
3.4	0.0100763635221609	0.00725925703189322	0.000172505310514427	0.00314583797763071	0.000163081971444085	0.00314691672822588	0.00104950399028872	-0.0128514511810709
3.5	0.0103899095129884	0.00665389938947167	0.000604855892359914	0.00308812203148306	0.00060985914644183	0.00308679443999025	-0.00132681513912632	-0.0137149643843269
3.6	0.0107222791920208	0.00558626931647105	0.00102360390043599	0.00296984472017803	0.00103019550044604	0.00297333851733983	-0.00387401175461056	-0.014454162131536
3.7	0.0105877756783898	0.00479179770610875	0.0014402964559686	0.00279434577264565	0.00143854247546367	0.00281070505172588	-0.00682764079922945	-0.0144662131418436
3.8	0.0105035294282734	0.00430830400286768	0.00180843493593161	0.00256819528410401	0.00181902472143674	0.00257454959386231	-0.00979040839083087	-0.0138007733945697
3.9	0.0105725483244654	0.00410714128931329	0.00215505384152873	0.00229066631440461	0.00215045963457282	0.00229056652357065	-0.0126465184702344	-0.0123586516300517
4	0.0113573589045111	0.00414905144335393	0.00244596061065674	0.00197428809847029	0.0024573868084012	0.00198044312494267	-0.0146694247470089	-0.0100575294433165
4.1	0.012408594650088	0.00305925881723928	0.00270012126828828	0.00160857025411607	0.00271667459994028	0.00161836846557062	-0.015990248795582	-0.00812641648240719
4.2	0.0127842480974153	0.00179545330046474	0.00290261099123084	0.00121184915577237	0.00290384158997104	0.00121413646270663	-0.0173607149670794	-0.00597753372958115
4.3	0.0128464253959078	0.00062228961295299	0.00304609711250301	0.000804376470210404	0.0030472724185511	0.000812962043569115	-0.0184232571663037	-0.00364854046642954
4.4	0.0125706894920041	-0.000408968747239599	0.00312645637160596	0.000370114167677215	0.00313438608598453	0.00036548878082035	-0.0193001481826396	-0.00101096680343284
4.5	0.0125267146728131	-0.000869061751504168	0.00315300826755923	-7.56650189106039E-05	0.00314981226102389	-7.34047164389003E-05	-0.0194179051193298	0.00217563538700118
4.6	0.012639010507796	-0.00207719309570043	0.00309885443809102	-0.00052345130795438	0.00311188489833063	-0.000511454906139139	-0.018775750808409	0.00469581652824706
4.7	0.0122642923213922	-0.00307210079520215	0.0029970563222067	-0.000936302112630555	0.00299696984718655	-0.000945740635023568	-0.0181037544011646	0.00710570171912561
4.8	0.0117862886652764	-0.00397451276279256	0.00284907824644388	-0.0013391858565002	0.00284144618804131	-0.00135938417069515	-0.0169851277426778	0.0094893135947788
4.9	0.0112871802008763	-0.00466078536621713	0.00263459963681523	-0.00173814607580759	0.00262851411195008	-0.00172970242941628	-0.0155093592250404	0.0117244912525359
5	0.0112500107511742	-0.00504768567073661	0.00235690014900325	-0.00207195706939177	0.00235965347477029	-0.00208438630079318	-0.013097358424444	0.0139976338979422
5.1	0.0112289106830037	-0.00625275814744241	0.0020357320085955	-0.0023940234517614	0.00204895872755643	-0.00239153018052098	-0.0102733406996753	0.0151051847819596
5.2	0.010703088880984	-0.00709348524922238	0.00169420202720187	-0.00265202512713954	0.00169470836048627	-0.00265618789389844	-0.00757550890538517	0.0159726139302968
5.3	0.0103522998746756	-0.00771340861933146	0.00130425191427764	-0.00286472891783794	0.00130050747812676	-0.00286730687939359	-0.00457397974609264	0.016441572232778
5.4	0.0100152848583743	-0.00831598891732764	0.000891921193454948	-0.00302438504397346	0.000891034270112642	-0.00302684586172569	-0.00152472381193842	0.0161592916254794
5.5	0.0101163507876148	-0.00872148119296736	0.000453884571274247	-0.00311684178163374	0.000466460338902474	-0.0031168074657286	0.00164203954876223	0.0153268280187965
5.6	0.00973679740280027	-0.0103622891172221	2.20939444152786E-05	-0.00314954341673333	1.87887977910941E-05	-0.00314608922511362	0.00398205342212061	0.0130506365795806
5.7	0.00832746369240718	-0.0112796349374261	-0.000412034364849515	-0.00312517505154815	-0.000415748994972299	-0.00312887311172455	0.00517941259092797	0.0110419036122364
5.8	0.00691993661939865	-0.0116421867518178	-0.000848038492516323	-0.0030355313011085	-0.000847297874007431	-0.00304322143970163	0.00601027469498419	0.00900115288074286
5.9	0.005354605470244	-0.0113982578825606	-0.00126502381929408	-0.00288273935485096	-0.00126341632081944	-0.00288689193032274	0.00612425723204305	0.00712373606848861
6	0.00465711175007081	-0.0100393965226907	-0.00165342640720292	-0.0026805875162615	-0.00164742053624462	-0.00268392905181693	0.00627983254840802	0.00624738413687743
6.1	0.00523123844214725	-0.0100121607166258	-0.00201574992181538	-0.00242984516466529	-0.00201159306423964	-0.00243461635108893	0.00725679330634287	0.00443298688168542
6.2	0.00526835654332255	-0.0106980649189628	-0.00233714672521937	-0.00211250373968983	-0.00233355687267506	-0.00212118205912202	0.00756117691940571	0.002047113252406
6.3	0.00491177290432811	-0.0118521229157274	-0.00260504087042003	-0.00177260864474624	-0.00261486722389799	-0.00178038799325571	0.00719753032051778	-0.000796107769137944
6.4	0.00369044500634789	-0.0128258688882422	-0.00283311941557672	-0.00138814914358347	-0.00283111973202565	-0.00139395408402804	0.00576420578822637	-0.00336961006073508
6.5	0.00306481532515458	-0.0131733324930728	-0.00300212689460542	-0.000984274635064565	-0.00300253234919091	-0.000983149144591014	0.0044519235656675	-0.00512854946366205
6.6	0.00188639977381373	-0.0142483453949993	-0.00310508769002349	-0.000555309619070973	-0.00311577961264561	-0.00055831684994977	0.00239939911435408	-0.00724683437720929
6.7	0.000553352459528244	-0.0143809244217558	-0.00314941866447714	-0.000120846108165405	-0.00314837330112099	-0.000114595541858598	-0.000175669873758798	-0.00813704360896443
6.8	-0.000549928778489222	-0.0144224289492439	-0.00313564689804792	0.000328059852412239	-0.00313473889775376	0.00033283054966621	-0.00279611570561265	-0.00845356627124737
6.9	-0.00194071746992691	-0.014187452930401	-0.003054744409718	0.000760679202016705	-0.00305516686134035	0.000765676978339466	-0.00565948259749631	-0.00792558099282241
7	-0.00227100687312516	-0.0131747698740437	-0.00292126461659997	0.00118226366738945	-0.00292267754565659	0.00118548892760943	-0.00747759854970687	-0.00616338935287333
7.1	-0.00276520609475521	-0.0139313054200494	-0.00272236504145522	0.00157851126770449	-0.00272478290643968	0.00158954766663162	-0.00905195023759358	-0.00533408240716625
7.2	-0.00427551899442793	-0.0140125098445669	-0.00248245498738718	0.00194089792989551	-0.00248263417814154	0.00194680414752598	-0.010897057422323	-0.00349699852594617
7.3	-0.00588182478724407	-0.0137171401700914	-0.00219094335944757	0.00226747789006881	-0.00218817435757886	0.00226895207242206	-0.012053294190844	-0.0012785091208031
7.4	-0.00796329444537841	-0.0130482737962237	-0.00184571898447113	0.00255213098476345	-0.00183848086360761	0.00255865273894109	-0.0130396956703885	0.00101985538214051
7.5	-0.00936936557768867	-0.0107827646208544	-0.00146778455513379	0.00278360059993579	-0.00146882603908451	0.00278158567015211	-0.0130069169330829	0.00450488960405082
7.6	-0.00943044834431115	-0.00983168369529483	-0.00107606231986419	0.0029625878213434	-0.00106538715715869	0.00297294969909373	-0.0115191702176044	0.00663600833901721
7.7	-0.0101843343715995	-0.00889688316513042	-0.00064464177600765	0.00308769580599798	-0.000639068207705155	0.00308734243099834	-0.0102651107742385	0.00820473839055296
7.8	-0.0103473385182842	-0.0080848525532674	-0.000196356624975278	0.0031482104668098	-0.000210030492150861	0.00314113615068941	-0.00864521802809803	0.00971176763898809
7.9	-0.0103422341765852	-0.00727023453152421	0.000228031938626702	0.0031327552557849	0.000239133174403611	0.00313243672887553	-0.00664557540643871	0.0113092486863661
8	-0.00897937408629852	-0.00670065260657739	0.000662262715313749	0.00307938139609483	0.000670568620805528	0.0030772992706919	-0.00358475154696082	0.0125695445948696
8.1	-0.00881495490721122	-0.00796371150042323	0.00109878181917751	0.00295540456416266	0.00109649061568996	0.00295214731022841	-0.000849302581200611	0.0119200220720431
8.2	-0.00950394192286282	-0.00824179570092622	0.00149180211359842	0.0027700593200706	0.00149100245204427	0.00278166718505779	0.00141422265056589	0.0115907353300986
8.3	-0.0102032301856347	-0.00822845344000123	0.00186399738319585	0.00253536533391968	0.00186907483746118	0.00253276668532607	0.00376894679807052	0.0107795824317047
8.4	-0.0112406074883621	-0.00773347007972442	0.00221004253083729	0.00225464888654225	0.00219886420719069	0.00225506573005742	0.00559800997703596	0.00956274879162885
8.5	-0.0111362687514084	-0.00638978536681835	0.00251005256526837	0.00191729435726918	0.00251006501055803	0.00191864813272901	0.00792617036317836	0.00858656503775776
8.6	-0.011154191405895	-0.00690694538777786	0.00273899041648972	0.00155225784181407	0.00273476791064388	0.0015499595761126	0.00974681751718498	0.00555203519156003
8.7	-0.0122133212225693	-0.00670192408064042	0.00292656509965492	0.00115267461691532	0.00292540042549149	0.00115226641319743	0.0101646776366516	0.00277792021349861
8.8	-0.0131912038443277	-0.0060240146392796	0.00305485322254394	0.000733865698585924	0.00306583610871904	0.000731730515194774	0.0100044976583757	5.07158492663025E-05
8.9	-0.0142576350850152	-0.00489757596153283	0.00312905270961259	0.000301479441978407	0.00313839618390723	0.000294305130532009	0.00911602302271556	-0.00232531962939909
9	-0.0140536173558409	-0.00283400409769942	0.00313704456416662	-0.00015077178772002	0.00314384229631345	-0.000145195639173407	0.00857913319578527	-0.00367351430920157
9.1	-0.0133208783992356	-0.00245483337022128	0.00308648698870261	-0.000579383929807449	0.00308670407172173	-0.000579576822233161	0.00799947212017828	-0.00609996898861286
9.2	-0.0129991365114045	-0.00185282947873883	0.0029715540089729	-0.000999906427277801	0.00297537356006459	-0.000999692438682845	0.00669052865666749	-0.00806424330138822
9.3	-0.0123846073418405	-0.00155957378019401	0.00279813000057123	-0.00140952555300424	0.00281617154282323	-0.00141001205427199	0.00520560769397224	-0.0100158998552715
9.4	-0.0122024785394503	-0.00156260866301909	0.00257658118546288	-0.00178204363976811	0.00257986164496802	-0.00179307237131897	0.00283018719236076	-0.0118973004714798
9.5	-0.011431088649386	-0.00118748591242648	0.00230315723527057	-0.00213163036799263	0.0023179203657549	-0.00213232552212256	0.000500175572655999	-0.0128325700518546
9.6	-0.0118237520449102	-0.00231438355151398	0.0019875026329528	-0.00243306928530402	0.00198783546765366	-0.00242606285201599	-0.00313269479966218	-0.0144059366791021
9.7	-0.0130278061175179	-0.00211926782099489	0.00162444998432449	-0.00268694009715341	0.00163273395554637	-0.00268854256917871	-0.00751687986542965	-0.0141021855106125
9.8	-0.0140736798319326	-0.0014025783296295	0.00123928311089094	-0.00288067543778733	0.00123744223929168	-0.00288930602829381	-0.0116591812537584	-0.0126811742617576
9.9	-0.0152213344676687	8.67578946169876E-05	0.000830571884413863	-0.00302246000225007	0.000818717126468527	-0.00302505466962871	-0.0158563443047852	-0.0099674365716387
10	-0.0147397505338628	0.00249078065031993	0.000401728412564383	-0.00310264510868969	0.000400914060679741	-0.00310995293520744	-0.0183092766016131	-0.00563898161840223
10.1	-0.0139101470826163	0.00291545779206698	-3.51895523311842E-05	-0.00313979621589187	-3.98319218371362E-05	-0.00314255626986069	-0.0198512683641907	-0.00236750344566883
10.2	-0.0136976603476188	0.00366094483277829	-0.000474303158792637	-0.0030972717971399	-0.000486887938904361	-0.0031010093522416	-0.0210841469949923	0.00157871049553029
10.3	-0.0134331212884339	0.00436528718216762	-0.000903568155460217	-0.00299395556021604	-0.000903362176891164	-0.00300731724684613	-0.0214867590855548	0.00565649423061556
10.4	-0.0134880638229699	0.00544638131607278	-0.0013100078541284	-0.00284883216419672	-0.0013131729197029	-0.00284670562415039	-0.0214211849045255	0.00995925840167698
10.5	-0.0120718113234288	0.0073785435522062	-0.00169815845762126	-0.00263151366565095	-0.00170433781025645	-0.00263875949185495	-0.0194842351868351	0.0150775837194808
10.6	-0.0103142700621537	0.00746811348290872	-0.00205570382160937	-0.00236985397758987	-0.00205721301673957	-0.00237495462515398	-0.0165011487406219	0.0185007851604024
10.7	-0.00881500419800811	0.00740736512275879	-0.00235945722078702	-0.00205715177756809	-0.00236269032573915	-0.0020731441422203	-0.0129169708583497	0.0215551048040731
10.8	-0.00776604625476779	0.00660152002952501	-0.00262470397480889	-0.00171056482021604	-0.00262177533665909	-0.00171273163849116	-0.00914644205608489	0.0234628674304924
10.9	-0.00782525582631706	0.00622786300212512	-0.00284256088731886	-0.00133264809111383	-0.00284185263903067	-0.00133776759440722	-0.00580972391399599	0.0251453946112746
11	-0.00659173481154306	0.00682192783455236	-0.00300132668638345	-0.000912816014792873	-0.00299433833467853	-0.000917117025148748	-0.000986737226193233	0.0271521944635828
11.1	-0.00583399350686913	0.00544795433828212	-0.00309224088040351	-0.000500911071338301	-0.00308451124584739	-0.000492655716636566	0.00388421754056332	0.0267827648729522
11.2	-0.00596852758447989	0.00485781591045343	-0.00313274994608674	-6.19372968359353E-05	-0.00313932381931027	-5.87287070794171E-05	0.00846907691576726	0.0262593645537444
11.3	-0.00599833693097527	0.00445431995457535	-0.00310967405878002	0.000378102536175212	-0.00311283290888318	0.000375948964991966	0.0133629328731484	0.024857298413714
11.4	-0.00646769683753749	0.00442052507982225	-0.00302019709176448	0.000808440847029981	-0.0030248103102168	0.00080860286263311	0.0176657243146339	0.0225225432353528
11.5	-0.00560970404071346	0.00503962717287366	-0.00288514841338805	0.00120917489663659	-0.00287766730812823	0.00121390246822495	0.0224197723511393	0.019773912105967
11.6	-0.00536074527387382	0.0035912204581412	-0.0026881260648886	0.00160104168641224	-0.00269621722900021	0.00161070638053929	0.0260687656905376	0.0143994281371467
11.7	-0.00623679186439233	0.00313410683384326	-0.0024351551506195	0.00196803581673685	-0.00243689954158696	0.00197171495455553	0.0280225622509859	0.00908867803242997
11.8	-0.00706263681586644	0.00349327064773922	-0.00213638634606804	0.00229018017773863	-0.00214555824058347	0.00229994290912013	0.0289668937950427	0.00385954047126995
11.9	-0.00751810423909986	0.00493547819919548	-0.00179856140796711	0.00255775223350951	-0.00179859870499448	0.00256428219178411	0.0287927063775141	-0.000434730468783368
12	-0.00525518198223055	0.00677498432968096	-0.00142741159033571	0.00278333240269579	-0.00143189718617929	0.00278609931211147	0.0300330213598245	-0.00421539322067873
