# GHZ S RI R 50
0.2	-0.0139585276744463	0.00548860286788179	0.00304361609297437	-0.000885339924589478	0.00305407299374232	-0.000885188770209936	0.00590003986609341	0.00105733722079193
0.3	-0.0131895917870857	0.00588273063006511	0.00289727221415826	-0.00130121701553537	0.00289098765231267	-0.00131285452969679	0.00616168618821073	-0.00130895479591051
0.4	-0.0124613571888016	0.00652363372844439	0.00268289946920592	-0.00169518337537171	0.00268079473246593	-0.00169709436559731	0.00569299193448659	-0.0032137612286945
0.5	-0.0118884729236124	0.00722644675863219	0.00241309069463354	-0.00205159027772463	0.00241590290074049	-0.0020553144384194	0.00462808660239646	-0.00474247990644054
0.6	-0.0110868999850155	0.00810499796620915	0.00210080795095033	-0.00237144019057354	0.00210006482579052	-0.00237428094646051	0.00347558888424121	-0.00579588101654356
0.7	-0.0103399931181288	0.00874812843504944	0.00175028857247368	-0.00264123507833325	0.00175649084350505	-0.00264532646089701	0.00204147822333711	-0.00666663634173599
0.8	-0.00956637069386832	0.00937979857672175	0.00135698001034249	-0.00286081476729641	0.00136524750350608	-0.00285921993810135	0.000376991727209366	-0.00708169713724287
0.9	-0.00887516367282866	0.00996088123212052	0.000952895896218085	-0.00301249303683252	0.000952876666307611	-0.00302190218088383	-0.00129912475175433	-0.00711530426897264
1	-0.00829131333240031	0.0105065746945415	0.000520472839962608	-0.00312071042930097	0.000520324707248879	-0.00312606366412261	-0.00312147152000429	-0.00678504306726334
1.1	-0.00767782708981265	0.0112738278429222	7.3142404020685E-05	-0.00316042721154624	7.40293813171787E-05	-0.0031651504574007	-0.00482379451885965	-0.00555761248836886
1.2	-0.00684322858321953	0.0115870242894877	-0.000365234147292265	-0.00313308102228232	-0.000364009302334757	-0.00314986283956952	-0.00560284739085227	-0.00406302935145545
1.3	-0.00626575016252232	0.0113679751825854	-0.000795827289926032	-0.00305879893565467	-0.00080076112247737	-0.00306644850851135	-0.00552016163058084	-0.00267780038893524
1.4	-0.00593303455059125	0.0108806003034891	-0.00122131660454383	-0.00291384217966988	-0.00122372967456255	-0.00292096674765077	-0.00510010432445066	-0.00192564810809995
1.5	-0.00552734493596297	0.0108359285093845	-0.00161274157418835	-0.00271555163044174	-0.00161077114756053	-0.00272108858356834	-0.00493829278766364	-0.00128575893102305
1.6	-0.00469101361563537	0.0110772155912211	-0.00197492226031503	-0.00245941146230051	-0.00197838926555736	-0.00246029056472898	-0.00495094828145859	-0.000243715458383599
1.7	-0.00382018529351818	0.0113020019983648	-0.00229939872394734	-0.00216558403221794	-0.00230144377475815	-0.0021741646989422	-0.00469632536779027	0.000906397092257494
1.8	-0.00293912497304809	0.0116276607188586	-0.00257604296101957	-0.00181689933936719	-0.00258121355610061	-0.00182235659392891	-0.00420448664786981	0.00198970133696138
1.9	-0.00205953169196001	0.0117877169573254	-0.00280149118376386	-0.00144815350856068	-0.00279798509906936	-0.00144196872860863	-0.0034840947509591	0.00292881746350572
2	-0.00127198273706459	0.0120123635534572	-0.00297648304229263	-0.00103713250029354	-0.00297922322293901	-0.00103029641910442	-0.00273057013422049	0.00388223981121849
2.1	-0.000222570131425012	0.0120678215944843	-0.00309193612519267	-0.000605909094282201	-0.00309403187425342	-0.000612599908896098	-0.00133776684462566	0.00465527475888604
2.2	0.000620409123644019	0.0119139299482335	-0.00314588641875853	-0.000175480394336927	-0.00314770411607924	-0.0001657640300917	0.000365879440725738	0.00479012735262338
2.3	0.00125445792714097	0.0116713845861962	-0.00313802344906371	0.00026624573699704	-0.0031447719258515	0.000263333971777061	0.00199038133480843	0.00432794250879992
2.4	0.00174848840125915	0.0114919996494549	-0.00307829465456957	0.000700348107445313	-0.00307713360986665	0.000715456030648201	0.00348533804675767	0.00341859563779612
2.5	0.00208349297556804	0.0114832366012892	-0.00294396856630082	0.00113192127208946	-0.00295696543772213	0.00113320875196608	0.00451169776573952	0.00211281903934298
2.6	0.00279634445250937	0.0116921142036599	-0.00275460345008667	0.00152743515177013	-0.00277552066326417	0.00153133226749523	0.00545645387516838	0.000819833263842237
2.7	0.00369994048446055	0.0116710814888942	-0.00252296633845645	0.00189667649629521	-0.00252324845730674	0.00190176104641947	0.00615482790622807	-0.000885341253581945
2.8	0.00469970611395701	0.0115145678422143	-0.00222843521505491	0.00222188503133216	-0.00223827491808807	0.00223307228154659	0.006428373888053	-0.00270503662612169
2.9	0.00579404693430414	0.0111768950137104	-0.00189261339052827	0.00251534057033839	-0.00189069115198833	0.00252425141027196	0.00640673700759066	-0.00452219099428258
3	0.00690077953319284	0.0107335884036844	-0.00152185417612652	0.00275940599572315	-0.001536933861889	0.00274635696484937	0.00598350715844568	-0.0061996495566713
3.1	0.00812654058038463	0.0100392138260926	-0.0011227881109666	0.00294308719569884	-0.00113973861000352	0.00294848777939429	0.00547530337337807	-0.00781504283201303
3.2	0.00901063616625533	0.00907940205748502	-0.000703453095677637	0.00306850389049191	-0.000699186697786056	0.00307931608657252	0.00438271255171295	-0.00950443163078761
3.3	0.00964504370962361	0.00803517418600271	-0.000273940447912142	0.00314052937149559	-0.000270638934435472	0.003136148563185	0.00291602738748834	-0.0110976679753093
3.4	0.0100322780285841	0.00700673195091628	0.000172166319789344	0.00314920800958503	0.000162732792514427	0.00315028634167751	0.00104019899643472	-0.0126135968441735
3.5	0.010217193802191	0.00617471329849023	0.000606423786871374	0.00309236146770805	0.000611433829564796	0.00309103084308139	-0.00150454752759552	-0.0137507747724062
3.6	0.0105410255622803	0.00536809051412091	0.00102622118449426	0.00297237435354286	0.00103282142780772	0.00297586829658832	-0.00406692217739733	-0.0141306122504334
3.7	0.0106475344046202	0.00452962664545368	0.00144293341266778	0.00279637463502535	0.00144118511216753	0.00281275037476462	-0.00667559564400948	-0.0141490972998507
3.8	0.0107149562762113	0.00385941942924315	0.00181158135862526	0.0025699549640469	0.00182218525715319	0.00257631059149437	-0.0093845988014557	-0.0137241191458428
3.9	0.0108610428433219	0.00331137874130963	0.00215926848376098	0.00229169953609628	0.00215466888394608	0.0022916030796475	-0.0121257279475983	-0.0127643703664019
4	0.0111688157231634	0.00290516839723798	0.00245011850126921	0.0019727546143888	0.00246156040908103	0.00197890025963831	-0.0147535453543245	-0.0110290660677718
4.1	0.0118107296079809	0.00218146383025241	0.00270259472573185	0.00160704253716654	0.00271916316923521	0.00161683135578616	-0.016605708652391	-0.00866281710167121
4.2	0.01216914845472	0.00115100994697533	0.00290512625163843	0.00121026376254785	0.00290635928806085	0.00121255136166482	-0.0180025868913879	-0.00620605018330954
4.3	0.0122788598093767	0.00015369926786155	0.00304848418141536	0.000802102244419775	0.00304966778486619	0.000810691477284104	-0.0189935056661693	-0.00367523415540356
4.4	0.0121776938779749	-0.000814661177829187	0.00312792621342298	0.000366853613030378	0.00313585362784209	0.00036221805408045	-0.01967189103939	-0.00101404178475094
4.5	0.0119834422111871	-0.00146727676431494	0.00315268625235917	-7.78142267547084E-05	0.00314949206515886	-7.55519329491818E-05	-0.0200510153281172	0.00189405547424898
4.6	0.0120383426764747	-0.00225694414061793	0.00309989314929109	-0.000525149860987914	0.00311293476177244	-0.000513154696562089	-0.0196183947259335	0.00495672786331642
4.7	0.0119261162555423	-0.00314667057791821	0.00299786839263483	-0.000938993041277988	0.0029977748812014	-0.000948436241692652	-0.0186834063854571	0.00762173233063756
4.8	0.0116426368408345	-0.0040503198552711	0.00284897142642939	-0.00134220593138982	0.00284131866013772	-0.00136240513176417	-0.0173057392940106	0.0101020767414657
4.9	0.0113843135806338	-0.00485119727837965	0.00263363557921872	-0.00174045067854657	0.0026275557253227	-0.0017320010572341	-0.0155038772683412	0.0122375052631151
5	0.0111950712497268	-0.00553070219600206	0.00235734416986263	-0.00207411480793838	0.00236009378074883	-0.00208655216734303	-0.0132891465231804	0.01421064347357
5.1	0.0112662423063832	-0.00648177828566815	0.00203470096390897	-0.00239794155722467	0.00204794007167026	-0.00239546043655321	-0.0103209629925766	0.0157292081772657
5.2	0.0110085263654663	-0.0075373549523819	0.00169168238640471	-0.00265522085853862	0.00169218385026298	-0.00265938601181549	-0.00718495113510528	0.0163987823868191
5.3	0.0106563678516367	-0.008479699968109	0.00130127566524754	-0.00286701303080921	0.00129752722957624	-0.00286958733673785	-0.00407464359000159	0.0164473546790518
5.4	0.0101909300509358	-0.00936897895089979	0.000889189415588995	-0.00302648515974151	0.000888299634483167	-0.00302894604239744	-0.0011526581227588	0.0157273887341864
5.5	0.00962535823251571	-0.00995481349322289	0.000449170194433264	-0.00311994460771911	0.000461755564524595	-0.00311993067750294	0.00116325670555217	0.0146567889412407
5.6	0.00921510212365586	-0.0108466418609831	1.59369243154699E-05	-0.0031496152622521	1.26385003366751E-05	-0.00314615457792858	0.00341346085923934	0.0133199472184179
5.7	0.00823105120852495	-0.0116636473842157	-0.000417455184806658	-0.00312361304034834	-0.000421175369785426	-0.00312730354146365	0.00517172232704269	0.0115142818681812
5.8	0.00712448329144514	-0.0121530860989577	-0.000852940348593074	-0.00303309136394414	-0.000852213094029255	-0.00304078025065142	0.00647881039387885	0.0093129842940647
5.9	0.00590725109094939	-0.0122909449189495	-0.00127016654033188	-0.00287943688088163	-0.00126856749392878	-0.00288359127523084	0.00709419350174271	0.00685629942381176
6	0.00480756973068446	-0.0119083665003563	-0.00165785839072069	-0.0026737636229505	-0.00165186696148425	-0.0026771154891455	0.00671608769190409	0.00464698777628235
6.1	0.00453949544385747	-0.0116609542912496	-0.00201635375682676	-0.00242305558151227	-0.00201221052579039	-0.00242782577280673	0.00651468291755621	0.00303501323642869
6.2	0.00422078499750383	-0.012024819155587	-0.00233659070613682	-0.00210670934664628	-0.00233301656560556	-0.00211538029974479	0.00629684159148999	0.00109577698767454
6.3	0.00375449936027244	-0.0126744747430973	-0.00260379922510444	-0.00176707276486001	-0.00261362224045803	-0.00177482979520663	0.00575953217624395	-0.00109996982981358
6.4	0.00287921356396013	-0.0134330094498492	-0.00283056472707669	-0.00138209524075131	-0.00282857612069138	-0.00138789379210275	0.00468677893997027	-0.00338535999145976
6.5	0.00205595313165242	-0.0138459244053608	-0.00299651250608711	-0.000980247399411901	-0.00299691637481023	-0.00097912398948217	0.00304535674370085	-0.00511120242919215
6.6	0.00128144917420484	-0.0144990775108281	-0.00310104567855203	-0.000553392821814484	-0.00311172409103992	-0.000556391953757542	0.00147414881361459	-0.00651151936041222
6.7	0.000191963767447093	-0.0148536374004219	-0.00314540713544375	-0.000118571697557496	-0.00314435892816147	-0.000112329956697444	-0.000640197546090184	-0.00754015984596635
6.8	-0.00087044236512551	-0.0149170516213917	-0.00313055300757792	0.000329954745364761	-0.00312964275563944	0.000334717379527723	-0.00305767361621736	-0.00791451283671232
6.9	-0.0019938469995706	-0.0148187330178878	-0.00304851079898719	0.000760601059026531	-0.00304893016524836	0.000765589394253345	-0.00557175489588471	-0.00766481986060408
7	-0.00287878025308852	-0.014218896089435	-0.0029175520033531	0.00118011204309123	-0.00291896364320963	0.00118333268538397	-0.00814984536064812	-0.00641566078586878
7.1	-0.00337931774187992	-0.014140362603355	-0.00271845408160319	0.00157806763974515	-0.00272086364186123	0.00158909260499702	-0.00979845671797702	-0.00447009104002593
7.2	-0.00440172291548419	-0.0141212585048795	-0.0024775670698492	0.00193922917673746	-0.0024777428042933	0.00194512634688668	-0.0109403191959212	-0.00236043898218026
7.3	-0.00567589810111705	-0.0138517038235287	-0.00218650363417123	0.00226414675771844	-0.00218373903477815	0.00226561760649974	-0.0114655846466486	-0.000160308126527274
7.4	-0.00720887573946891	-0.0133412632182799	-0.00184318999526283	0.00254804954003555	-0.00183596358983685	0.00255456216460607	-0.0115951094522263	0.00176132940239483
7.5	-0.00869629694391757	-0.0119964099774054	-0.00146469682619169	0.00278156709895045	-0.00146573837969128	0.00277955483307209	-0.0116314777453285	0.00384849969662851
7.6	-0.00903362788572534	-0.0107750985704884	-0.00107183377896187	0.00295753347679195	-0.00106117220193989	0.0029678673743355	-0.010601953835942	0.00607153378124638
7.7	-0.00948867398292481	-0.010038877855548	-0.00064256000214197	0.00308109675597612	-0.000636998677171798	0.00308074293455906	-0.00920040522294433	0.00736090841292004
7.8	-0.00965336065300902	-0.00963001396043696	-0.000196188279882101	0.00314159522804169	-0.00020983293375789	0.00313453468609591	-0.00774165518998959	0.0083859773482815
7.9	-0.00981236696217179	-0.00937765791569013	0.000227652390990177	0.00312694714738873	0.000238733051862104	0.0031266290583553	-0.00624850271322085	0.00934310606947061
8	-0.0096163372472271	-0.0090416254340423	0.000661564658161298	0.00307085542995923	0.000669847462597318	0.00306877598404456	-0.00464574959332629	0.0105162727063759
8.1	-0.0095383600813195	-0.00944470757967673	0.00109322028107802	0.00294760939483066	0.0010909383742491	0.00294435987696899	-0.0021707000256879	0.0112441955216808
8.2	-0.0101321407115288	-0.00962080250562257	0.0014849023715103	0.0027650114776295	0.00148409108888283	0.00277658993946574	0.000375555749001037	0.0112841873002279
8.3	-0.0108716131992009	-0.00947377705797933	0.00185705061830676	0.00253203557291639	0.00186212009771745	0.00252944838605179	0.00288243259817671	0.0106939680392982
8.4	-0.011740189038032	-0.00897277310929533	0.00220275505126117	0.0022513841316754	0.00219160265878049	0.00225178965915598	0.00501374678345076	0.00939890588103182
8.5	-0.0123052296210332	-0.00791986966473258	0.00249924784803269	0.00191646026400089	0.00249925773049901	0.00191781016549669	0.00646959548677097	0.00805986802984471
8.6	-0.0124038912032221	-0.00737108780539608	0.00273041728998587	0.00155543078608501	0.00272620779044733	0.00155312745151183	0.00815324042094586	0.00644250359769286
8.7	-0.0129222992197114	-0.00686576830927983	0.00291942487658386	0.00115639490629113	0.00291826294636006	0.00115598513721432	0.00936995672628722	0.00419160622732207
8.8	-0.0134760142675528	-0.00612604949003704	0.00304791442436199	0.000738355736015034	0.00305888146006038	0.000736245352932822	0.0099845981823242	0.00155170373735729
8.9	-0.0139725427433038	-0.00520259138876186	0.0031218055013919	0.000308281648060578	0.00313114651220943	0.000301144502060431	0.00998928345271476	-0.001258360143613
9	-0.0140036482639984	-0.00387477199083131	0.00313413956629159	-0.000140702143816131	0.00314091236167153	-0.00013511053731231	0.00920101127566105	-0.0037274172212695
9.1	-0.0133026447824954	-0.00319696808356584	0.00308559434674621	-0.000572005088517701	0.00308581171034081	-0.000572197353512557	0.0084368984901291	-0.00596307481387976
9.2	-0.0128219618329602	-0.00292039044775386	0.00297068857576996	-0.000992200856411585	0.00297450365416155	-0.000991978530643564	0.00719712527066208	-0.00833303377324239
9.3	-0.0124408045088132	-0.00285462453637886	0.00279872934875812	-0.00140070394134761	0.00281675238526432	-0.00140114298960768	0.00535132063243563	-0.0105690111601767
9.4	-0.0123752752707235	-0.00292699871513671	0.00258070386660001	-0.0017729169351783	0.00258401712123388	-0.00178392901098636	0.00269651830604542	-0.0125618034394462
9.5	-0.0123244057570418	-0.00254111715501405	0.00230862423244745	-0.00212699404369253	0.00232339299965875	-0.00212765591224376	-0.000709922876546493	-0.013427771658077
9.6	-0.012367002308717	-0.00274428660545553	0.00199149047891066	-0.00242742173177804	0.00199180826270814	-0.00242041872111802	-0.00406520045314885	-0.0136245819684727
9.7	-0.0129803635273662	-0.0025876664185614	0.00163069739627165	-0.00268125179792236	0.0016389812830824	-0.00268283156609222	-0.0076142756889235	-0.0131184010830715
9.8	-0.0136375083166772	-0.00205927303754924	0.00124745048832354	-0.00287689955612881	0.00124563451264128	-0.0028855347647928	-0.0110823172064173	-0.0118655589535495
9.9	-0.0143067308270226	-0.00109065717883395	0.000838618088266653	-0.00302198077089808	0.000826763541096747	-0.00302460664404984	-0.0145770154312826	-0.00989692742039752
10	-0.0144700669073884	0.000367652906358574	0.000407396128223496	-0.00310107841904786	0.000406595590614303	-0.00310838583159848	-0.0178366820347744	-0.00678605453529283
10.1	-0.014019398263665	0.00121306566874549	-2.60300470327624E-05	-0.00313918904980058	-3.06633225097399E-05	-0.00314196201119061	-0.0199001157023043	-0.00297089180963323
10.2	-0.0138706196319488	0.00192530547139068	-0.000465448146513895	-0.00310009225598675	-0.000478027790910344	-0.00310386840769269	-0.0211027641861262	0.00101143373161631
10.3	-0.0137074662270012	0.0027460521331648	-0.000896687793279016	-0.00299854875579702	-0.00089644784330006	-0.0030119202151682	-0.0214667628885665	0.00513212708731586
10.4	-0.0134855913768573	0.00372030027260999	-0.00130479362031279	-0.00285256136717761	-0.00130796417636108	-0.00285044036057592	-0.0210610041710365	0.00905053566580828
10.5	-0.0127379446175532	0.00507862763387477	-0.00168944070537029	-0.00263598185938467	-0.00169559558621247	-0.00264324466840687	-0.0200971396927813	0.013284999157004
10.6	-0.0112539017184333	0.00561924006890391	-0.00204943811052276	-0.00237918070037108	-0.0020509310879891	-0.00238429134471026	-0.0177604458472396	0.0173577137313597
10.7	-0.00996828550229841	0.00571550612492655	-0.00235623981860693	-0.00206699656073709	-0.00235942838889166	-0.00208301943671026	-0.0145704878454823	0.0208508973392206
10.8	-0.00899904368606998	0.0054616660515937	-0.00262316189762615	-0.0017202245722079	-0.00262022335720038	-0.00172238579263323	-0.0108871646887925	0.0235446454330317
10.9	-0.00855091114717924	0.00528844585082358	-0.00284126215647854	-0.00134330603223476	-0.00284053651738676	-0.00134842869416742	-0.00701867481289502	0.0255135529871546
11	-0.00777556708310676	0.00558728301249021	-0.00300515092368717	-0.000926732393288423	-0.0029981286723095	-0.000931016790930438	-0.00285770731763217	0.0273646133728456
11.1	-0.00678675175266368	0.0050941852123895	-0.00309985303066176	-0.000510341393639131	-0.00309212245831138	-0.000502042295857155	0.00230367713419736	0.0283726623036139
11.2	-0.00637586152817342	0.00453079031302937	-0.00314067249407176	-6.94419428959181E-05	-0.00314727081995342	-6.62405033666549E-05	0.00780923253280491	0.0281718683999783
11.3	-0.00610677778380435	0.00405382029862329	-0.00311872859067303	0.000371312687445557	-0.0031218902930403	0.00036914560162306	0.0134696151020549	0.0267210860212498
11.4	-0.00614245482844653	0.00372701499531245	-0.0030324069020616	0.000802654640063291	-0.00303703576914673	0.000802804283739443	0.0186065211767169	0.0238837917297878
11.5	-0.0058886729299215	0.00383595751790594	-0.00289896928175781	0.00121034494942461	-0.00289146305453115	0.00121510266244259	0.0227794007302422	0.0203160379300768
11.6	-0.00546932960121909	0.00319418884321451	-0.00269806454990644	0.00160350792771288	-0.00270619022315827	0.00161319522367926	0.0266741590931406	0.0157813947561951
11.7	-0.00570022468095464	0.00269839646229101	-0.00244535458405829	0.00197121100080952	-0.0024471091380449	0.00197489960939614	0.0295619576247545	0.0102740053689156
11.8	-0.00597255548746328	0.00270844575537232	-0.00214691768070742	0.0022959376991797	-0.00215613470438678	0.00230572489624765	0.0312611259338226	0.00428545340234617
11.9	-0.00597778591747925	0.00318992275379253	-0.00180728043980567	0.00256814409312279	-0.00180732030923465	0.00257470226393952	0.0314819149404752	-0.0016337365800995
12	-0.00500613694542632	0.00390473504076842	-0.00142980296956384	0.00279282719402232	-0.00143430029513263	0.0027956057036469	0.0306708755070486	-0.0069370615747163
