# GHZ S RI R 50
0.2	-0.0144777322286155	0.00422508451218131	0.00305183113735459	-0.00088308001524188	0.00306231176533258	-0.000882913786676216	0.0053370603302964	-0.000277463208921948
0.3	-0.013583469834097	0.00513798406065908	0.00290788195863151	-0.00129991001787738	0.00290159960109066	-0.0013115919933995	0.00575393701939856	-0.00212951265408517
0.4	-0.0128097847991363	0.00645788851620288	0.00269610531949372	-0.00169636525169266	0.00269399640595244	-0.00169828736016149	0.00539547469715595	-0.00335800791648041
0.5	-0.0109766068094575	0.00701852169674588	0.0024263234516654	-0.00205808441277935	0.00242915260449878	-0.00206182215606841	0.0057599897912163	-0.00510718769561532
0.6	-0.0111617709612829	0.00672320615553393	0.00211183606501602	-0.00237930647036817	0.00211109256810486	-0.0023821597758044	0.0036715921021429	-0.00759689495906093
0.7	-0.0112474442668206	0.00791027083641214	0.00176126197840866	-0.00265139085844512	0.0017674972534985	-0.0026554940755672	0.00129677859370051	-0.00812455630258036
0.8	-0.010821886814101	0.00907900181083616	0.00136647795146387	-0.00287438266582724	0.00137478668771508	-0.00287277238772796	-0.000891414251708586	-0.00811983301576504
0.9	-0.0105672934313867	0.0105372541559788	0.000958686358358918	-0.0030291174703458	0.000958668531588552	-0.00303857901957671	-0.00325042096557835	-0.00724565652623037
1	-0.00854175502881389	0.0126570449145534	0.000521857854565941	-0.00313585117085835	0.000521707109109605	-0.00314123000796228	-0.00369963688502817	-0.00500158998022362
1.1	-0.00691996261128825	0.0115511946216467	7.48623347594386E-05	-0.00317677856600758	7.57559136152997E-05	-0.00318152591918281	-0.00408424419423695	-0.00554537818480493
1.2	-0.00699857934060444	0.0112356886877064	-0.000367377110230293	-0.00315156223656931	-0.000366144980319852	-0.00316844303400306	-0.00556827306972454	-0.00477478608706774
1.3	-0.00715482027440119	0.0108007294274966	-0.000802631273986651	-0.00307702418121858	-0.000807600144788267	-0.00308471747383046	-0.00605144648259234	-0.00378481158429884
1.4	-0.00741827234490707	0.0107829162070818	-0.00123164185563671	-0.00292938083154875	-0.00123407684802187	-0.00293654403044681	-0.00622925810294405	-0.00281124334278964
1.5	-0.00604236578351268	0.0107089735994136	-0.00162278759682229	-0.00273102624078065	-0.00162080695910989	-0.00273659597137057	-0.00507985615582728	-0.00246639845744015
1.6	-0.00620687264041832	0.0107269988979746	-0.00199168350519764	-0.00247559679953088	-0.00199517673547245	-0.00247647911784913	-0.00635838705466562	-0.00203030058902308
1.7	-0.00522938624996968	0.0119399778574902	-0.00232073717565519	-0.00217685367007813	-0.00232281474253079	-0.00218549336470717	-0.00639725368198346	0.000107224081861789
1.8	-0.0039365721540056	0.0127639993774047	-0.00259910817359353	-0.00182316053049128	-0.00260432976126809	-0.00182864324981748	-0.00571874349507974	0.00187731830364031
1.9	-0.00252085596497078	0.0135967247786769	-0.00282494383853652	-0.00145123573987372	-0.00282139726757381	-0.0014450162549531	-0.00449500417213229	0.00378980976986138
2	0.000165309029876078	0.0134187654943048	-0.00300501132595939	-0.00103720416505264	-0.00300775473553883	-0.0010303015039429	-0.0014695515436531	0.00453397069010933
2.1	0.000424435480801958	0.0117862671220269	-0.00312047068076035	-0.00059512456289341	-0.00312261780325432	-0.000601859747610004	-0.000640051501812275	0.00326383921176609
2.2	0.000449545333676458	0.011868368727738	-0.00317027106791743	-0.00015896370468156	-0.00317204723712175	-0.0001491647991213	8.02778261886566E-05	0.00337045528926137
2.3	0.000741174167062799	0.0120018152637921	-0.00315904465352027	0.000286941941654069	-0.00316585918715735	0.000284049574562574	0.00107310596850446	0.00322673007214575
2.4	0.00101620534384159	0.0126088154101272	-0.00309707302854639	0.000725863765973595	-0.0030958040390429	0.000741078786112515	0.00203330148279708	0.00333779070074217
2.5	0.00296417511091726	0.0133381710282476	-0.00295547056869836	0.0011663793619562	-0.00296855119184763	0.00116779179418772	0.00480139861419068	0.00333784593862866
2.6	0.00399873298061205	0.0118158329755918	-0.00275504877176445	0.00156042547574756	-0.00277603938449403	0.00156453303497545	0.00660991272892955	0.000367933593730364
2.7	0.00421830366836321	0.0113292807169673	-0.00251826363193376	0.0019283566202768	-0.00251850177248335	0.00193346829694978	0.00689717542705462	-0.00204499372891525
2.8	0.00458096255000183	0.0111449826599208	-0.0022178710772278	0.0022532522631567	-0.00222765115537574	0.00226458443137986	0.00659964906565706	-0.00416829136146025
2.9	0.00532651309596922	0.0114200604712727	-0.00187359088264252	0.00254583415120119	-0.00187156582076326	0.00255476111338116	0.00617335837978245	-0.00547552459905554
3	0.00737975718773245	0.0108970222347504	-0.00149346419205296	0.00278055340275086	-0.00150871211491246	0.00276765229906965	0.00695765183541484	-0.00728161249797876
3.1	0.00756145424961806	0.0094717094378381	-0.0010959485255362	0.00295771588552213	-0.00111286915981089	0.00296328650020768	0.00550556916340797	-0.0102540144760824
3.2	0.00789040137624501	0.00918307551296505	-0.000673702497408267	0.00307965711333713	-0.000669322221258134	0.00309044113768106	0.00354599859233204	-0.0116018597679328
3.3	0.00839262724206454	0.00875684852535655	-0.000240940592696771	0.00314532275324074	-0.000237683344994383	0.00314090442827018	0.00157162334970894	-0.0126964911996709
3.4	0.00891481642019612	0.00863646066851252	0.000205694854619993	0.00314439209167059	0.000196281772436762	0.00314557032797502	-0.000490892065226725	-0.0131417562448193
3.5	0.0106775815671902	0.00792221281321891	0.000632259997882604	0.00308205094847744	0.000637250316052959	0.00308067903418335	-0.00127443798369641	-0.0139615152025844
3.6	0.0104961126654594	0.00594478781338573	0.00105325245400639	0.00296189632289698	0.00105988261461336	0.00296532825466828	-0.00436972510380045	-0.0158812451271915
3.7	0.0100972890352417	0.00554360428573222	0.00146930767618355	0.0027787383721237	0.00146772542340997	0.0027951130029704	-0.0079479645919801	-0.0155576604699352
3.8	0.0101907350400702	0.00538548526432921	0.00183330654064331	0.00254629936886785	0.00184395088847974	0.00255253536753893	-0.0110718426282357	-0.0143179201813827
3.9	0.0107698029111046	0.00556480958658657	0.00217403742682987	0.00226570040269752	0.0021694497988695	0.00226564596286521	-0.0135319702746341	-0.0119716582514585
4	0.0129814825582733	0.00474370115119674	0.00246505025240941	0.00194792704581802	0.00247653390523421	0.00195396058947804	-0.0136739339214252	-0.0100254747857928
4.1	0.0129164935206847	0.00220110688619664	0.0027135532666952	0.00157291951210296	0.00273018818945005	0.00158249929854485	-0.0155659791102422	-0.0097096477449245
4.2	0.0123678045913394	0.00119409479676559	0.00290627848475501	0.00117378257734439	0.00290753124170703	0.00117604738441292	-0.0177339017987035	-0.00755892851031595
4.3	0.0120156313951953	0.000488016755400357	0.00304196814644892	0.000766937368514655	0.00304323416971583	0.000775472903210528	-0.0192399111373646	-0.00484864910379843
4.4	0.0117399418119636	0.00025335264191801	0.00311707366532544	0.000333663164323358	0.00312491755671935	0.000328969366787397	-0.0201205122633502	-0.00125841099460996
4.5	0.0130229762553744	-0.000374984581043131	0.00313440409105728	-0.000115680622190384	0.00313125494818738	-0.000113391970562404	-0.0183904807694204	0.00204659243078286
4.6	0.0122513507572034	-0.00271584595756222	0.00306778741385779	-0.000555187105009095	0.00308085198014103	-0.000543438656647059	-0.0180409689008225	0.00290414791212474
4.7	0.0111251669570674	-0.00330155664205274	0.00296151784054513	-0.000959818842118708	0.00296133277616638	-0.000969175565999123	-0.0180899320983384	0.00516397200542715
4.8	0.0103402807913131	-0.0036337701596269	0.00280987739027525	-0.00135614294012995	0.00280210839908889	-0.00137608228285638	-0.0174348169343866	0.00773591519831811
4.9	0.00995894858836643	-0.00342162748436784	0.0025902673085581	-0.00174855352526338	0.00258433062989523	-0.00174012972069475	-0.0160747735620062	0.0107452353461107
5	0.0112182947490435	-0.0040121798066026	0.00230771341242758	-0.00206794777680264	0.00231031530535999	-0.00208024606081989	-0.0122180504828377	0.0127267746918665
5.1	0.0103469710108386	-0.00576355596981858	0.00199369773096178	-0.00237889836883302	0.00200677897723361	-0.00237652938341821	-0.0104290175512454	0.0127014890023835
5.2	0.00976106393710237	-0.00598501262452765	0.00165565746902481	-0.00263076312219607	0.00165612975527063	-0.00263487812360815	-0.00837233029852391	0.0140544331387351
5.3	0.00969145832938117	-0.00633842341677693	0.00126934005522128	-0.00283568397306867	0.00126562810737759	-0.00283820495575551	-0.00549110029645447	0.015043155493283
5.4	0.0098077052280648	-0.00646742747020992	0.000863358571433495	-0.00298561191705472	0.000862471560033212	-0.00298803278456414	-0.00206015722657947	0.0156752824435911
5.5	0.0113844498883069	-0.00790344857058837	0.000440291224931427	-0.00307388298435555	0.000452689520570735	-0.00307387814359938	0.00314319210597644	0.0140300763425291
5.6	0.0094437477650668	-0.0104365203919539	1.38513009777357E-05	-0.00310924783290701	1.05972285219272E-05	-0.00310582954311981	0.00412933621084699	0.0101666561267646
5.7	0.00765734033811603	-0.0104979924485335	-0.000413911797914216	-0.00308217013586423	-0.000417585253187157	-0.00308580964765122	0.00441741143527155	0.00862820546215277
5.8	0.00656686455858984	-0.010394867153835	-0.00084023297801394	-0.0029915508729976	-0.00083951333856315	-0.00299913354894634	0.00490450958092415	0.00715447933222037
5.9	0.00559202717289588	-0.00965826114034312	-0.00124596467587832	-0.00284271615340847	-0.00124437799671891	-0.00284680958291574	0.00503343962266201	0.00647924331492394
6	0.0071044626868666	-0.00925876968117766	-0.00163168681953559	-0.00264897845872028	-0.00162575198983118	-0.00265227570203235	0.00783737947751301	0.00586866701743769
6.1	0.0062951316357641	-0.0120595345819997	-0.0019887638631029	-0.00239701715315704	-0.00198466324703654	-0.00240172436788103	0.00853259544091403	0.00130535256936133
6.2	0.00413719465782011	-0.0128142905908432	-0.00230116796007671	-0.00208574131890873	-0.00229761720447092	-0.00209429180909612	0.00720545038632048	-0.00154184485809129
6.3	0.00240649813496016	-0.0127854887043625	-0.0025639774043291	-0.00175513570578653	-0.00257364586200135	-0.00176283395876863	0.00566938820847171	-0.0036771997916363
6.4	0.00136598530470063	-0.0119262773246673	-0.00279220048533724	-0.00137999269627644	-0.00279020671623356	-0.00138571665429545	0.00438066654544243	-0.00464912646305345
6.5	0.0022954803159428	-0.0127655866142258	-0.00295984724889962	-0.000977570413494078	-0.00296024970249348	-0.000976460851816774	0.00506313025649706	-0.0072218675985977
6.6	-2.31359568098151E-05	-0.0138045310789962	-0.0030567765287052	-0.000560143390143346	-0.00306729749413015	-0.000563151050216194	0.00161057752841788	-0.0102907532335701
6.7	-0.0011732903168379	-0.013076944788773	-0.00310420051696939	-0.000137196414494136	-0.00310320577318354	-0.000131028221831033	-0.00150093585380039	-0.0106064211410374
6.8	-0.00204387161814194	-0.0125722150216856	-0.00309552445591677	0.000303686029687228	-0.0030946590428925	0.000308398285629218	-0.00441715412312049	-0.0102668182342449
6.9	-0.00268976750098264	-0.0112564680770242	-0.00301821749746502	0.000731425454925206	-0.00301866529816417	0.000736353112803467	-0.00682385811695659	-0.00819841146241211
7	-0.000709228877202306	-0.0113626331259453	-0.00288538977645438	0.00114080782721709	-0.00288680637776822	0.00114397194235345	-0.00563818654135277	-0.00720086001494925
7.1	-0.00282960741690071	-0.013399638671146	-0.00270142147857347	0.00152773065288546	-0.0027039230739807	0.0015385884970238	-0.00855349437289298	-0.00865578647861557
7.2	-0.00478539678727439	-0.0125874776509134	-0.00247263304590817	0.0018886084446634	-0.00247287583544178	0.00189443779500443	-0.0115910725575211	-0.0065879812195939
7.3	-0.00611084431790475	-0.0116127069603811	-0.00219049349036066	0.00221390965462959	-0.00218777584583016	0.00221539808440107	-0.0135384134186009	-0.00377166342666289
7.4	-0.00736309525176039	-0.00981488939131812	-0.0018556079452849	0.00249572727538212	-0.00184854657349067	0.0025022607669243	-0.0149470099743138	0.000414090905011508
7.5	-0.00552704689046554	-0.00826128196001428	-0.00149692864793892	0.00273004353372391	-0.00149792645034931	0.00272803343424722	-0.0117920405366017	0.00481579846912493
7.6	-0.00627275828810366	-0.0103123065697154	-0.00111333485381406	0.00292148934004	-0.00110290872093652	0.00293193222957391	-0.0101133995958178	0.00448585916179429
7.7	-0.00800131071797588	-0.0100828447694882	-0.000687666906460864	0.00305354032743004	-0.000682131379019223	0.00305327646770075	-0.00961843418049583	0.00574338886418325
7.8	-0.00908796082528726	-0.00944155627304712	-0.000246764900057786	0.00312201825749768	-0.000260222558354339	0.00311477037034757	-0.00838512944152647	0.00738656406502593
7.9	-0.00934852034189924	-0.00822699756759501	0.000169841357243605	0.00311864535205412	0.000180883707803975	0.00311853017777581	-0.00589753931260384	0.00951026369496443
8	-0.00776586772813177	-0.00944512756733628	0.000606710269951423	0.00308373901222436	0.00061503311598341	0.0030818074233302	-0.00107921564871799	0.00874154715790211
8.1	-0.0103355473924884	-0.0104415714918339	0.0010474545392087	0.00296541509205981	0.00104522281853068	0.00296212912818982	-0.000864464091681125	0.00661904207527499
8.2	-0.011808227426762	-0.00926760887384149	0.00144094105136016	0.00278982610293449	0.0014399433015499	0.00280139543806918	-7.53231902859808E-06	0.00692028526733264
8.3	-0.0128262159445746	-0.00810487363855355	0.00181772657168216	0.00256716035777364	0.0018228474740236	0.00256465372785568	0.00139123811805639	0.00705778593382254
8.4	-0.0135202258990503	-0.00597977705748536	0.00217483191378216	0.00229712810474317	0.00216362620428725	0.00229735138714702	0.00315464479301716	0.00782745125130964
8.5	-0.0113511586356045	-0.00506283044713863	0.0024861607392812	0.00195816750574981	0.00248615306966959	0.00195952396240803	0.00821954481912573	0.00677217502725125
8.6	-0.0128119734490938	-0.00628886078463362	0.00271709673492912	0.00159848683800491	0.00271290644591731	0.00159611741727297	0.00892758967638443	0.00197816700297607
8.7	-0.01414060273437	-0.00480225197863492	0.00291532073570561	0.00120478267046102	0.00291415969152545	0.00120435386817311	0.00831675884396757	-0.000291919947641178
8.8	-0.0145760237206379	-0.00317878951391641	0.00305577361231039	0.000786536495794931	0.00306683729498124	0.000784570622791801	0.00757919790844994	-0.00216751234092148
8.9	-0.0144576636888078	-0.00106915578480493	0.00313929311758651	0.000349249674238776	0.00314878678507846	0.000342180056405665	0.00676917840629327	-0.00275455703567246
9	-0.0116056462203644	-0.000195385041165885	0.00314914585229089	-0.00010163473219521	0.00315587646884788	-9.5933823052942E-05	0.00906285810673443	-0.00380296324605768
9.1	-0.0117728282168561	-0.00177257106890752	0.00311408620926238	-0.00052942491557085	0.00311430785900958	-0.000529615161815536	0.00831088639123194	-0.00793917227673728
9.2	-0.0120757931714807	-0.00158848271923289	0.00300974252193906	-0.000958492628153086	0.00301358656625974	-0.000958214415728891	0.00674094140350867	-0.0101113447902667
9.3	-0.0122032608480012	-0.00149302377453778	0.00284249101861575	-0.00137694794934657	0.00286068391884405	-0.00137715586758386	0.00504554957957451	-0.0121207742125037
9.4	-0.0122538052651419	-0.000685608655318368	0.00262490566023729	-0.00175478737293779	0.00262838718991549	-0.00176584918217807	0.00302622605908022	-0.0130698809188175
9.5	-0.010781039808412	-0.00152766068640966	0.00236550366448373	-0.00211191984934018	0.00238043164888724	-0.00211235489874788	0.00268244477837929	-0.0156070111840589
9.6	-0.0131800953187658	-0.002450570987376	0.0020521755259661	-0.00243346256091925	0.00205240158374102	-0.00242635892204043	-0.0027283125001796	-0.0186676668772897
9.7	-0.0144266367281206	-0.000946862117531441	0.00168585778983726	-0.00270001497777968	0.00169427847335304	-0.00270151857640548	-0.00801026522517835	-0.0179836913550509
9.8	-0.0149269433043031	0.00051158189234154	0.00129804273214081	-0.00290451838015903	0.00129629799283757	-0.00291329931287676	-0.0126411798552664	-0.0160185151435065
9.9	-0.014988279417757	0.00262636362320919	0.000887976273726152	-0.00305928621113999	0.000875967430119084	-0.00306209530348052	-0.0166328143652449	-0.0120685056892144
10	-0.0124459428218067	0.00325755326716493	0.000446695549359329	-0.00315925987171355	0.000445952265769675	-0.00316672205068266	-0.0166399759307506	-0.00858487059524954
10.1	-0.0134029224670468	0.00198318997664765	-7.18397491912136E-06	-0.00320006630721785	-1.18897734160066E-05	-0.00320292146059448	-0.0195845648747473	-0.0074443773697085
10.2	-0.014345939958404	0.00304351316809605	-0.000457829685057126	-0.00316122985241427	-0.000470627397062557	-0.00316514412949921	-0.0224374255206805	-0.00337978036690362
10.3	-0.0146670056173664	0.00447653409338999	-0.00090074473179475	-0.0030615349996888	-0.000900439573647406	-0.00307516815933711	-0.0240101186140028	0.0017803196759953
10.4	-0.0141939128549992	0.00665267833301369	-0.00132526933169968	-0.00291777001814547	-0.00132851418449544	-0.00291561175187103	-0.0236851761833747	0.0082543570153479
10.5	-0.0111620519195133	0.00709463138852166	-0.00173108531055562	-0.00268647549134112	-0.00173738606698421	-0.00269387367883672	-0.0188710158703494	0.0129627986875766
10.6	-0.0113650237054872	0.00600323513050352	-0.00209121621993693	-0.00241658030107759	-0.00209274742414278	-0.00242177799423825	-0.0166072857087547	0.0146261702883609
10.7	-0.0113394864151372	0.00653179822363403	-0.00240337047436065	-0.00209858216376606	-0.00240665378128599	-0.00211488517294304	-0.0139874734746889	0.0175410736672626
10.8	-0.0112944231791869	0.00714656218396362	-0.00267791326978221	-0.0017422581015559	-0.00267492851314965	-0.00174447005660012	-0.0111088251297104	0.0201306653003721
10.9	-0.0108184929460872	0.00876673321654107	-0.00290076742675695	-0.00134865535193371	-0.00290006241268624	-0.00135387418152005	-0.00732591287127805	0.0236033356818072
11	-0.00765403675359781	0.00878019064465443	-0.00305246470107776	-0.000919811551634719	-0.00304537405071571	-0.000924200669349834	0.000161832307424461	0.0247789455532189
11.1	-0.00826500152138072	0.00740233529977374	-0.00314934203914089	-0.000503183575262836	-0.00314145427212337	-0.000494795711760799	0.00377307251283975	0.022786165215323
11.2	-0.00820579912431979	0.0081319123097041	-0.00319101153507542	-5.0431854312255E-05	-0.00319769418230372	-4.71372979572204E-05	0.00747709702667358	0.0224972046078108
11.3	-0.00744489140036861	0.00884595019594494	-0.00316292133126562	0.000402292940352113	-0.00316614851700373	0.000400118757113528	0.0114284662168317	0.0219123987451003
11.4	-0.00642177868868476	0.0097765989248043	-0.00306434969271025	0.000839393638311514	-0.00306903669518904	0.000839585551261344	0.0159157483376605	0.021336904724156
11.5	-0.00325950288598284	0.00868267780281951	-0.00293135413980165	0.00124350335567796	-0.00292371853700527	0.0012482823770947	0.0234191592206036	0.0178428036813913
11.6	-0.00406893228365312	0.0063187304998668	-0.00272705573128354	0.00165194125603273	-0.00273522719743769	0.00166185129324328	0.0258761576586063	0.0111589867429415
11.7	-0.00451460071536971	0.00621443186788597	-0.00246036749548831	0.00202603672099265	-0.0024621087370089	0.00202979804417774	0.0272846435353861	0.00652204314927815
11.8	-0.00443339063131654	0.00632054699491384	-0.00214979091447048	0.00235051274546466	-0.00215902105229717	0.00236053331499373	0.0284472352748596	0.00226796588385699
11.9	-0.00311809880538601	0.00701460691423962	-0.0018047220724935	0.00262061526516818	-0.00180469503491742	0.00262726038500747	0.030280591359508	-0.00081246006936491
12	-0.000220713510304169	0.00505036375419605	-0.00141802485568529	0.00285650470089948	-0.00142256075196773	0.00285938527460847	0.0345416368703894	-0.00735079551057744
