# GHZ S RI R 50
0.2	-0.0139740393922064	0.00564175515049099	0.00304284222729614	-0.000885690642913896	0.00305329702625231	-0.000885541343308402	0.00588859017043034	0.00121621633125735
0.3	-0.0132081384599239	0.00599967333365028	0.00289621881097044	-0.00130157273036553	0.00288993309187195	-0.00131320576146167	0.00614399656247819	-0.00118648361058121
0.4	-0.0124497418168111	0.00657395838245011	0.00268145648199603	-0.00169539640057348	0.00267935190626764	-0.0016973060941358	0.0056984935698652	-0.00315828306316352
0.5	-0.012040040109153	0.00724510058805777	0.00241142986119787	-0.00205118906922566	0.00241423980763191	-0.00205491212034116	0.00445303058567739	-0.0047106679884312
0.6	-0.0111566231571767	0.00834164130576885	0.00209938847452401	-0.0023708454530053	0.00209864507549751	-0.00237368480900564	0.00337784481873524	-0.00552102021812519
0.7	-0.010252149579973	0.00896661334161015	0.00174874764681031	-0.00264042691479969	0.00175494585086351	-0.00264451796883736	0.00211060415839094	-0.00639113507295389
0.8	-0.00937536664402667	0.00955399388886901	0.00135542297806033	-0.00285955573740605	0.00136368619553203	-0.00285796408164589	0.00056473863559282	-0.00683871055909462
0.9	-0.00852501613769543	0.0100411185962439	0.000951633559420255	-0.00301067054356045	0.000951612395119458	-0.00302007337533721	-0.000929766801171174	-0.00696747749222629
1	-0.00799302255920035	0.0102255998323264	0.000519914163078747	-0.0031189293293027	0.000519765680361004	-0.00312427942397089	-0.0027963028007894	-0.00702915596889118
1.1	-0.00763490542352843	0.011137612063841	7.23652946170756E-05	-0.00315863658726682	7.32506657655149E-05	-0.00316335733801374	-0.00478229206749771	-0.00566729174196217
1.2	-0.00674449675971253	0.0115304702899232	-0.000365712121926597	-0.0031308195411254	-0.000364492046723379	-0.00314758998809486	-0.00552606122702329	-0.00407946687397866
1.3	-0.00621460438816864	0.0113901601045423	-0.000795737087033659	-0.003056343095203	-0.000800668459328385	-0.00306398603181761	-0.00550477294004547	-0.00259671429784736
1.4	-0.0058423262570969	0.011031392502233	-0.00122067686511335	-0.0029116153926604	-0.00122308878832367	-0.00291873456512444	-0.00504295044823863	-0.0016956280709093
1.5	-0.00554307182977543	0.0110114276177399	-0.00161241235508661	-0.00271340590190371	-0.00161044460891426	-0.00271893983299156	-0.00499434082836342	-0.00100946295217388
1.6	-0.00448711425803162	0.0114030209208878	-0.00197382980586311	-0.00245650818289045	-0.00197729384023508	-0.00245738540199218	-0.00475744906319635	0.000216170411138156
1.7	-0.00349596812437515	0.0114268253237173	-0.0022973551578592	-0.00216299744764923	-0.00229939940636014	-0.00217156894355874	-0.00434771057145356	0.00116946329377051
1.8	-0.00261012702893324	0.0115967544391611	-0.00257349329438297	-0.00181486929954664	-0.00257865888055482	-0.00182032061088522	-0.00382932516685823	0.00208094586884782
1.9	-0.00173570209346967	0.0115481986891202	-0.00279883571991171	-0.00144645604533853	-0.00279533255848747	-0.00144027774105315	-0.00311050633241179	0.002782524723109
2	-0.00134024917701265	0.0115922178100947	-0.00297288862772936	-0.00103516093000708	-0.00297562382076016	-0.00102833302696885	-0.00278485165462759	0.00353731487071316
2.1	-0.000369941251211931	0.0120309633324239	-0.00308741783452108	-0.000605521637333439	-0.00308950954699548	-0.000612203203004343	-0.00149115751909277	0.00472735463696672
2.2	0.000635496031911189	0.0119513307732631	-0.00314161946579732	-0.000176140581574109	-0.00314343749209863	-0.000166437759336483	0.000390196586410099	0.00496003011648572
2.3	0.0014075321312828	0.0117095519745272	-0.00313392083733021	0.000264909987181791	-0.00314065940242248	0.000261999997119779	0.00217859609485886	0.00450355497033191
2.4	0.00211339446194141	0.0113957472053824	-0.00307397898580086	0.000698336955258362	-0.00307282445584713	0.000713422974028015	0.00391689139656955	0.00344032480044172
2.5	0.00228897845514892	0.0109353598900646	-0.00293978628815776	0.00112784915263932	-0.00295276199076217	0.00112912496534024	0.0047725048286477	0.00163287233981208
2.6	0.00265141671067997	0.0112993304135839	-0.00275236741760163	0.00152278424585619	-0.00277326035719545	0.00152665634091919	0.00531722509962728	0.000487041183417306
2.7	0.00346715521738051	0.0114387704450542	-0.00252144595990741	0.00189199521880602	-0.00252173227463265	0.00189707302702844	0.00589882376145644	-0.00103537782627759
2.8	0.00450032515079751	0.0114657818660122	-0.00222759073687971	0.00221678406904976	-0.00223742803030353	0.00222794695883898	0.00619795060516629	-0.00264236622226317
2.9	0.0057481650414107	0.0111251933352287	-0.00189296288059427	0.00250948680451166	-0.00189105412361988	0.00251838731787867	0.00633727555310956	-0.00444543054070622
3	0.00665233802802293	0.0105874199010648	-0.00152461821206495	0.00275418623847376	-0.00153966195239493	0.00274112696201728	0.00569406504875039	-0.00621264388922117
3.1	0.0079469631907054	0.0102190529921734	-0.0011255439526688	0.00293916580075375	-0.00114248683293754	0.00294454041003308	0.00524351085639698	-0.00744544486982433
3.2	0.00902203702755076	0.00927220726317966	-0.00070682344044172	0.00306462234340627	-0.000702575410967399	0.00307542975947493	0.00437340073830662	-0.00908928116124967
3.3	0.00979286791248497	0.00820097601292487	-0.000278434660111208	0.00313718779643525	-0.000275129598694306	0.00313281606448809	0.00308429493812566	-0.0106974656467539
3.4	0.0103480812892611	0.00703302458758094	0.000166586155022037	0.00314738815196764	0.000157157102970283	0.00314844939006081	0.00141216872397634	-0.0123724548160156
3.5	0.0102975053449908	0.00595986908431729	0.000601951299819671	0.00309235756648421	0.000606961820970396	0.00309103428340495	-0.00138998640306463	-0.0137766616551247
3.6	0.0106237360659736	0.00550317218219092	0.00102172061680092	0.00297175153246063	0.00102831204055004	0.00297525169205694	-0.00394356266446182	-0.0137673573515625
3.7	0.0110231508116632	0.0046550190826774	0.00143772058336698	0.00279680823719913	0.0014359482543596	0.00281317085831981	-0.00621167456896012	-0.0137898894733976
3.8	0.011311100683647	0.00379623614944459	0.00180655545258444	0.00257174873734971	0.00181714413760846	0.00257811881417553	-0.00865846613186978	-0.0135865849489743
3.9	0.0115728104803056	0.00283288051820211	0.00215535179124727	0.0022943811906366	0.0021507534075454	0.00229427790608233	-0.0112735594948308	-0.0131060294886092
4	0.0113138374611952	0.0019777416367229	0.0024461614201319	0.00197444972454283	0.00245758855559095	0.0019806052544986	-0.0145176341078815	-0.0118689378597066
4.1	0.0116228609468066	0.00171223689903995	0.00269769035502264	0.00161075757705842	0.00271422884663241	0.0016205692176058	-0.0167510289508517	-0.00903507267206761
4.2	0.0120868474126477	0.0008756431981528	0.00290150950526961	0.00121543553686179	0.00290273753169376	0.00121772457025129	-0.0180576827669982	-0.00636740213407207
4.3	0.0123313641254838	-8.26945886333588E-05	0.00304611679913524	0.000807714424388398	0.00304728364900687	0.000816303574154621	-0.0189170273645474	-0.00379177772921738
4.4	0.0123973698183303	-0.00122173897626581	0.00312604056517339	0.000372411175429119	0.00313397334278485	0.000367791867058852	-0.0194232225912256	-0.00131950895495531
4.5	0.0117979169992548	-0.00224259824088291	0.00315085718424183	-7.00237918890008E-05	0.00314765948929684	-6.77707901517951E-05	-0.0202600120859618	0.00116594207586267
4.6	0.0115822223111867	-0.00256956556616709	0.00310169971287748	-0.000516746545504884	0.00311471013056814	-0.000504714321466542	-0.0201916948421559	0.00473902028652293
4.7	0.0115632117483754	-0.00324787445075046	0.00300147994452157	-0.000931736819332541	0.00300141045480292	-0.000941184098294686	-0.0191802953972784	0.00768501869535563
4.8	0.0113941198567301	-0.00399147721326299	0.00285371472338306	-0.00133576387900445	0.00284610854564558	-0.00135599206489148	-0.0176721262744835	0.010373904543756
4.9	0.0113737851404376	-0.00478956493138321	0.00263969285383973	-0.00173417317900798	0.0026335869756706	-0.00172573581395385	-0.0156117554266277	0.0125188634985321
5	0.0109681987796978	-0.00561336904158084	0.00236677718786231	-0.00206951044040546	0.00236956871155265	-0.00208195532084052	-0.013661406910381	0.0143603288016373
5.1	0.0112410773894897	-0.00611521722317067	0.00204383611774741	-0.00239706194306406	0.00205709133891691	-0.00239454496960238	-0.0104706367376592	0.0164204579633011
5.2	0.0113939836347487	-0.00731545391987204	0.00170034105464523	-0.00265563531983603	0.00170085268161055	-0.00265980596305426	-0.00685506301535627	0.0169657813243874
5.3	0.011170818562263	-0.00857629413560573	0.00131011681395684	-0.00286889301772758	0.00130636793709711	-0.00287148037066819	-0.00357303744212012	0.0166703999604261
5.4	0.0106605661101623	-0.00983274328058834	0.000898375041508901	-0.0030308560330929	0.000897489261426456	-0.00303332434581098	-0.000697291739311957	0.015539279411243
5.5	0.009356051783897	-0.0105912118494086	0.000455477123185554	-0.00312778037813761	0.000468097025525031	-0.0031277459432342	0.000818076613899845	0.014299246182018
5.6	0.00903013886015562	-0.0106538800461376	1.99526819863394E-05	-0.00315644689964622	1.66427083846863E-05	-0.00315298285607785	0.00314554737379443	0.0138711012819389
5.7	0.00858680159180363	-0.0114081262532098	-0.000413985604821304	-0.00313097608410556	-0.000417708692989084	-0.00313467980485753	0.0055055449547288	0.0121773195779948
5.8	0.0078878658969488	-0.012091715650023	-0.000850861520173522	-0.00304151542986198	-0.000850122074743903	-0.00304922174498642	0.00730366010331319	0.00977568718650134
5.9	0.00711955597792437	-0.0127642476569527	-0.00127080376470089	-0.00288840722716845	-0.00126919640789927	-0.00289257125178164	0.00844847094338321	0.00670561228656221
6	0.00549840205820176	-0.0135299720559385	-0.00166015842512772	-0.00267994866746027	-0.00165415328645588	-0.00268330494108881	0.00750504325167909	0.00318891635504137
6.1	0.00436029505929148	-0.0130157978876393	-0.00201768038108316	-0.00243001855310157	-0.00201352380308004	-0.00243479361427026	0.00629212738569658	0.0018377699329457
6.2	0.00372205299187972	-0.0130990923293372	-0.00233994572561356	-0.00211425446269661	-0.00233635376175565	-0.00212294239466218	0.00569291647652905	0.000232134034775684
6.3	0.00314275449014179	-0.0133384602766932	-0.00260920245474325	-0.00177367985492857	-0.00261904501094779	-0.00178146464656699	0.00502605283642498	-0.00149759994403165
6.4	0.0024968531042763	-0.0139750847464175	-0.00283682678339744	-0.00138650448479958	-0.00283483116740922	-0.00139231618931691	0.0041931098504974	-0.00363860028134152
6.5	0.00122115035637478	-0.0143381109756342	-0.00300161166444458	-0.000985229922705828	-0.00300201747491056	-0.000984104637437185	0.00203834929610201	-0.005276699096022
6.6	0.000872408979012925	-0.0143667988102017	-0.00310965958304403	-0.000558160810343289	-0.0031203665532733	-0.000561179595436405	0.000926187589464697	-0.00592755136574045
6.7	8.77804804974842E-05	-0.0148770977639795	-0.003155221740027	-0.000120373768927645	-0.00315417308184251	-0.000114111968456592	-0.000792531737648933	-0.00708152618294157
6.8	-0.000862369325204339	-0.0149703224142145	-0.00313997274638225	0.00033051112928564	-0.00313906042535551	0.000335288150338043	-0.00303298176444884	-0.00750217411865372
6.9	-0.00171352379786327	-0.0151349621009917	-0.00305710917157588	0.000761850447290231	-0.00305753107167809	0.000766852391807622	-0.00524610636097568	-0.00758486874818043
7	-0.00338170229360326	-0.0149318331747559	-0.00292880456773479	0.00118257006134673	-0.00293022328591838	0.00118580145119541	-0.0087071471149935	-0.006760464593517
7.1	-0.00384841012908552	-0.0138359514847649	-0.00272827318132447	0.00158539904275688	-0.00273068712414183	0.00159646778454236	-0.0103415006592002	-0.00366732806472666
7.2	-0.00426504291718958	-0.0136604263063775	-0.00248486644360886	0.00194805466820412	-0.00248503820949433	0.00195397294475132	-0.0107851465896216	-0.0013219764438685
7.3	-0.00503383045046711	-0.0134499701190641	-0.00219225008410425	0.00227384148069444	-0.00218947463790904	0.00227531516915163	-0.0106794516499332	0.000835979216659359
7.4	-0.00584856383463005	-0.0133515539028604	-0.00184820346729679	0.00255941702751879	-0.00184094376035566	0.00256594883558956	-0.00994220637562881	0.00222650571158337
7.5	-0.00763272067829024	-0.0133229496571093	-0.00146545821759066	0.0027967560299421	-0.0014665084401569	0.0027947370558347	-0.0102543245298596	0.0027964816771
7.6	-0.00863333902405662	-0.0118041558502005	-0.00106777361325803	0.00297019288957708	-0.00105704967788302	0.00298053378467577	-0.00994700747053038	0.00526963923253146
7.7	-0.00918374867592489	-0.0111627175827019	-0.000636871118298588	0.0030921405939801	-0.000631293621959377	0.00309177186345972	-0.00870452736981249	0.00641545233807805
7.8	-0.00953618402194413	-0.0107933228334678	-0.000188583143143067	0.0031517729702257	-0.000202288223374505	0.00314472635877815	-0.00748825744759077	0.00737603537677838
7.9	-0.00986919833026334	-0.0107534698582065	0.00023834253749757	0.00313609045761673	0.000249457156817025	0.00313573602911909	-0.00633110032305284	0.00809020398199281
8	-0.01090356895725	-0.0102648624953612	0.000674858859262106	0.00307438210168574	0.000683150025027512	0.00307226621144413	-0.00602481859811621	0.00945328273079347
8.1	-0.0104933622689056	-0.00948463990905558	0.00110390920431859	0.00294892479048338	0.00110161381836058	0.00294567709819036	-0.00327885811557733	0.0115995934651674
8.2	-0.0105907128497076	-0.00948155990616721	0.00149596173541714	0.00276552228287135	0.00149518403678781	0.00277712416434531	-0.000140359046037485	0.0119069558596898
8.3	-0.0109768374414953	-0.00929591372986095	0.00186888254644352	0.0025303017083617	0.0018739523598784	0.00252769284897971	0.0028103574153336	0.0113634007368909
8.4	-0.011399867030106	-0.00910777298145408	0.00221399095955668	0.00224569189018946	0.00220282669759548	0.0022461404371299	0.00543959703889687	0.00968460404536535
8.5	-0.0127195424424183	-0.00860777896711107	0.00250594408908697	0.00191005136681222	0.00250595790229968	0.00191140184561219	0.00602769560705432	0.00775434800405236
8.6	-0.012845890300607	-0.00703227928737274	0.00273836614524764	0.0015497226489209	0.00273414465890677	0.0015474282375852	0.00767343720934257	0.00730706799039972
8.7	-0.0127297755891912	-0.00634108887441683	0.00292687880183775	0.00114799202319602	0.00292571407465779	0.0011475856601176	0.00962259844132081	0.00530131642094528
8.8	-0.0127262468207812	-0.00569749886417514	0.0030529904994097	0.000727961706105502	0.00306395862740051	0.000725810143827612	0.0109201897889111	0.00255012988149443
8.9	-0.0125506885261252	-0.00531892368999815	0.00312358792177355	0.000298120283821763	0.00313290783558919	0.000290950741500107	0.0116956012804734	-0.000912702112029325
9	-0.0130618065601752	-0.00509902017767	0.00313711444129668	-0.000149643068390352	0.00314391019961053	-0.000144064444608476	0.0104059229790287	-0.00463220580265458
9.1	-0.0127395675901717	-0.00426102775466718	0.0030863350424906	-0.000584768378538905	0.00308655185708788	-0.000584961690541677	0.00919074394303837	-0.00676510446663717
9.2	-0.0125145277279939	-0.00427378627070582	0.00296734944030065	-0.00100455702933545	0.00297116633592641	-0.0010043502147798	0.00763153042720129	-0.00944946735283275
9.3	-0.0126611137022256	-0.00419995479773307	0.0027930027890815	-0.00141114528648893	0.00281102157677817	-0.00141165280218008	0.00519364359047122	-0.0116909272020955
9.4	-0.0128736169834886	-0.00415775035884303	0.00257497545926036	-0.0017819446805339	0.00257825154817649	-0.00179296943567809	0.00216418298328573	-0.0135766867482068
9.5	-0.0137497684494033	-0.00340330633251888	0.00230009612230415	-0.00213864930052063	0.00231486951156352	-0.00213937902726482	-0.00232273506911723	-0.0140434052134822
9.6	-0.0133501752778527	-0.00232898315570877	0.00197822982177145	-0.00243489146084806	0.00197858077224132	-0.00242789584666465	-0.00527954151425532	-0.0127431900271795
9.7	-0.0132208061118927	-0.00200728744133438	0.00161715934567625	-0.00268508574158862	0.00162542648433606	-0.00268669940950981	-0.00798325452695412	-0.0119439090768793
9.8	-0.0133277496316081	-0.00154318222400841	0.00123393355991287	-0.00287866587136445	0.00123208367385702	-0.0028872831460805	-0.0107732202773615	-0.0107241338621176
9.9	-0.0134091525585195	-0.00104055457283634	0.000823630838350682	-0.00302247664496188	0.000811777430386956	-0.00302504447384789	-0.0135819491215101	-0.0093215285204564
10	-0.0142480695436491	-0.000362487759873015	0.000390141795162344	-0.00309511052905497	0.000389305195217505	-0.00310239468674543	-0.0175780754149898	-0.00707749014027328
10.1	-0.0138732480053772	0.00122466986822966	-3.84549940887253E-05	-0.00312942137366272	-4.30850522096414E-05	-0.00313216734179053	-0.0197499107587154	-0.00245474826838269
10.2	-0.0132715767404433	0.00195545434315995	-0.000475880014010969	-0.00308929245791695	-0.00048843737451594	-0.00309300977825625	-0.0204379889337269	0.001575160807615
10.3	-0.0127071336759738	0.0026035775129273	-0.000905804865792921	-0.0029855763670455	-0.000905618866080984	-0.00299890684137769	-0.0203217874913635	0.00548716096467719
10.4	-0.0120514662223794	0.00278025344088969	-0.00131138673848867	-0.00283545448078126	-0.00131453547720427	-0.00283332888601037	-0.0193255186320154	0.00849154198742046
10.5	-0.0120728803933531	0.00320617338102145	-0.00168748518760219	-0.0026182020662125	-0.00169362700299958	-0.00262541207883109	-0.0194773102754089	0.0116882478471463
10.6	-0.0112038455723676	0.00401440829024609	-0.00204556191319402	-0.00236544349269352	-0.00204705855045227	-0.00237053021379888	-0.0178522549225482	0.0161281596493444
10.7	-0.0105537110361718	0.00427095947715943	-0.0023508140449023	-0.00205379315960419	-0.00235402205536694	-0.00206974421749928	-0.0152834835979235	0.01980820571394
10.8	-0.00993619914582784	0.0047077064653104	-0.00261492408299786	-0.00170774464200891	-0.0026120024838672	-0.00170990194618028	-0.0119388588111501	0.0231543866676865
10.9	-0.00899442648805435	0.00473800239426901	-0.00282902581068277	-0.00133378983740355	-0.00282830916252305	-0.00133888861775821	-0.00760516006284816	0.0253865674938213
11	-0.00892614589778683	0.00487901563357378	-0.0029947772952978	-0.000922779957248172	-0.0029877807612626	-0.000927050871095103	-0.00427886546012149	0.0271433687928713
11.1	-0.00766676498117235	0.00553698739331269	-0.00308979670494075	-0.000504625505939112	-0.00308208225122715	-0.000496364932424775	0.00117096095489353	0.0294981041736966
11.2	-0.00656827205886586	0.00514247558456166	-0.0031280548776481	-6.55443245149136E-05	-0.00313462283999755	-6.23482294609289E-05	0.00748873599460941	0.0295753835715998
11.3	-0.00574762682972558	0.00456723132245589	-0.0031052606799432	0.000371592343351037	-0.00310841024316989	0.000369436344653575	0.0138865375738703	0.0280489284140838
11.4	-0.00520220194539651	0.00379611088149494	-0.00302121800401757	0.000799553807093627	-0.00302582974548382	0.000799702698324123	0.0197312808702038	0.0246903146065594
11.5	-0.00565322344654397	0.00336560518972391	-0.00288857439015531	0.001209854573196	-0.00288108615428562	0.00121458898455343	0.0231804868392611	0.0204600263923644
11.6	-0.00497371458466341	0.00353009339609628	-0.00268428596553259	0.00159913597250489	-0.00269236506353984	0.00160878831063376	0.0273225449490822	0.0167476645782944
11.7	-0.00444570765930926	0.00285184905325539	-0.00243349829879595	0.00196263325769672	-0.00243524379358078	0.00196630513019601	0.0310551360074902	0.0110259554866945
11.8	-0.00414526713859914	0.00222137984716059	-0.00213803331129409	0.0022855193334422	-0.00214721217922961	0.00229526210584667	0.0333961979609248	0.00426225614994362
11.9	-0.00405028715585733	0.00126758724437747	-0.00179960723780184	0.00255780594458311	-0.00179964626417025	0.00256433724123192	0.0336703688363811	-0.00337819565500235
12	-0.00493865639509428	0.000916245187164914	-0.0014205110582794	0.00277866566758818	-0.00142498263596999	0.00278143186955967	0.0306468476357417	-0.00978326592378292
