# GHZ S RI R 50
0.2	-0.0140352422515781	0.0052875802423983	0.0030452042717165	-0.000884910458057183	0.00305566576674982	-0.000884756412893261	0.00576562552683213	0.000795980196762
0.3	-0.0132285597699291	0.00579084281226254	0.00289931134938067	-0.00130096566648766	0.0028930272118159	-0.00131261172592707	0.00607753742883175	-0.0014618006661662
0.4	-0.0124987131294	0.006554434002676	0.002685432983824	-0.00169539259529959	0.00268332746089313	-0.00169730572272549	0.00564714347451643	-0.00323808030855239
0.5	-0.0117306537325089	0.00725154887753026	0.00241565716005257	-0.00205279991830248	0.00241847266892568	-0.00205652664157713	0.00489646347345062	-0.00481076894702399
0.6	-0.0111264551697936	0.00797178649543132	0.00210297035255997	-0.00237292161330391	0.00210222720147405	-0.00237576479845462	0.0035899326428525	-0.00620404454164351
0.7	-0.0105104312659851	0.00877072345590619	0.00175246416970364	-0.00264316074230165	0.00175867290346535	-0.00264725428167962	0.00194836227532892	-0.00705474126548587
0.8	-0.00975427869952519	0.0095342644454571	0.00135889979003437	-0.00286341094981333	0.00136717524290226	-0.00286181290088798	0.000146119223767901	-0.00741122386382218
0.9	-0.00908077883005943	0.0102647211734776	0.000954141006086602	-0.0030157073197041	0.000954122403663622	-0.00302512670960026	-0.00171188253653404	-0.00726471182778187
1	-0.00822560127614257	0.0110197799837834	0.000520878180392991	-0.00312371907841962	0.00052072974461475	-0.00312907744293889	-0.00329564688233859	-0.00649050594602764
1.1	-0.00750598245901702	0.0114155635960231	7.35893528522484E-05	-0.00316370809000728	7.44778075070981E-05	-0.0031684361478563	-0.0046711139257273	-0.00556377175992918
1.2	-0.00690536774651392	0.0116446914876205	-0.000365552584287809	-0.00313682883712189	-0.000364325653502449	-0.00315363061026271	-0.0055343160632771	-0.00421345860027606
1.3	-0.00649128417529618	0.0114623254814888	-0.000797090629976	-0.00306254904251253	-0.000802031298267161	-0.00307020773451171	-0.0054889589785623	-0.0029255551197875
1.4	-0.00623695856030833	0.0111245190472788	-0.0012233404559093	-0.00291712384024775	-0.00122575778344038	-0.0029242565405988	-0.00514664603465001	-0.00221377144853116
1.5	-0.00565113827354659	0.0111187064217676	-0.00161482127138106	-0.00271879230895398	-0.00161284867765183	-0.00272433609176012	-0.0047923391132566	-0.00171819751473369
1.6	-0.00496063518626961	0.0114021609238794	-0.00197835900299908	-0.0024627629981972	-0.00198183140787072	-0.00246364278979944	-0.00513904113375056	-0.000905152443600841
1.7	-0.00399339905220778	0.0118209548193774	-0.00230379282984757	-0.00216794341685217	-0.00230584451715138	-0.00217653632916826	-0.00506266722558037	0.00043738220062971
1.8	-0.002993778478942	0.0122063985746579	-0.00258083274035866	-0.00181821808245239	-0.00258601391598247	-0.00182368066842179	-0.00460715339641708	0.00170935597547842
1.9	-0.00201524649776862	0.01243369540569	-0.00280638729762605	-0.00144874994220404	-0.00280287270285085	-0.00144255800584527	-0.00381347668908751	0.00292590261177658
2	-0.000964975375212947	0.0125602507054996	-0.00298231160362569	-0.00103706205778981	-0.00298505224536419	-0.00103021236462429	-0.00253408799167266	0.00392454019547952
2.1	-0.000110475445778618	0.0124039269081941	-0.00309774269482134	-0.000603704166497614	-0.00309984891821309	-0.000610403999130172	-0.00116716454314787	0.00423190863508847
2.2	0.000641009178259662	0.0123708268083748	-0.00315087905078515	-0.000172130458203035	-0.00315268834428071	-0.000162397206915806	0.000327205195397813	0.00429806180934106
2.3	0.0013047910380088	0.0122042669958525	-0.00314235159018138	0.000270456528262485	-0.00314911361209479	0.000267548653247452	0.00177446588099693	0.00387313804904296
2.4	0.00184343702902025	0.0120866632498219	-0.00308214576097656	0.00070553644928178	-0.00308096278983052	0.000720666304888605	0.00309064991719912	0.00320435732762787
2.5	0.00242619728005321	0.012056704115035	-0.00294639542332863	0.00113885339385791	-0.00295940959448451	0.00114016588708833	0.00446945539752631	0.0022894528504642
2.6	0.00303784383001843	0.011935135559485	-0.00275487667944379	0.00153413847419669	-0.00277580997770496	0.00153807795930312	0.00570372297626332	0.000696273919069721
2.7	0.00373244804839591	0.0119103915334782	-0.00252220207368034	0.00190317788632918	-0.00252247537603	0.00190826825116395	0.00639382249550049	-0.00118191507565716
2.8	0.00459930584930663	0.0118353827792491	-0.00222648473008265	0.00222835698935601	-0.00223631321359385	0.00223957421129167	0.00659603354906191	-0.00311321327866691
2.9	0.00564190353104	0.0116489413953783	-0.00188900252680746	0.00252166738761362	-0.00188705959097394	0.00253058230825333	0.00650954892554791	-0.00486350797932803
3	0.00686031221831512	0.0112215617380498	-0.00151640315804353	0.00276403476350047	-0.00153151866435263	0.00275101338797792	0.00639947268100482	-0.00659435281507677
3.1	0.00787391740429153	0.0105364185158489	-0.00111751002024639	0.00294652722482386	-0.00113445713391481	0.00295196322825599	0.00574552527849789	-0.00862534611538648
3.2	0.00873676222055812	0.0097967269677814	-0.000697457293613004	0.00307130532652547	-0.000693166788925976	0.00308211353081966	0.0044207068429741	-0.01036341149268
3.3	0.00943838690431111	0.00889455619950849	-0.000267157598398052	0.00314209764723153	-0.00026386464550005	0.00313770826746776	0.00276303356814812	-0.0119230234250742
3.4	0.00991962309889654	0.00799255061244078	0.000179237670675911	0.0031488950192413	0.000169806343546253	0.00314999454684145	0.000749761031635367	-0.0132323626804075
3.5	0.0103456181727118	0.00713515437986863	0.000612234630406534	0.00309083948738402	0.000617241544974211	0.00308949948986852	-0.00146554259705597	-0.0142584670820388
3.6	0.0105459456243228	0.00621381581668454	0.00103238166409972	0.00297062115893848	0.00103898975485784	0.00297410207098312	-0.004151750667084	-0.0150164101731081
3.7	0.0106647910348515	0.00552142262923506	0.00144903481937276	0.00279300996275494	0.00144732287215269	0.00280938857172976	-0.00707877189643265	-0.0149849777378526
3.8	0.0108611791805522	0.00489944591941454	0.00181679594659943	0.00256520585910529	0.00182741103253182	0.00257153611194075	-0.00999208600428147	-0.0143214022534652
3.9	0.0111383044978107	0.0043315525153903	0.00216310153501427	0.00228625150127289	0.00215850368783704	0.002286164618686	-0.0127400114261537	-0.0129199141622852
4	0.0116457565630065	0.00370659864461714	0.0024538418752788	0.0019673471616192	0.00246529478765284	0.00197346803323294	-0.0147466654705019	-0.0109536429199852
4.1	0.0119925589867074	0.00274509435911502	0.00270542554256163	0.00159969108819996	0.00272201118433195	0.0016094348648985	-0.0164429100339753	-0.0090341030999248
4.2	0.0121879706006738	0.00183752512441685	0.00290592176864663	0.00120233550168567	0.00290715944034988	0.00120461843115232	-0.0179538651038819	-0.00669360581177729
4.3	0.0122734499169136	0.000928047821298243	0.00304764664529968	0.000794300854465147	0.00304884917611665	0.000802879718494408	-0.0190396157045082	-0.0041457195697908
4.4	0.0121769082236382	3.09217649382754E-05	0.00312602323674394	0.000359339718791211	0.00313393303239697	0.000354690003213905	-0.0197501038455674	-0.00126086879330744
4.5	0.0121256148038406	-0.000709270401748835	0.00314910582885366	-8.62406102728295E-05	0.00314592116267674	-8.39721133914456E-05	-0.0195650157874523	0.00180076311821877
4.6	0.0118690677918233	-0.00165064449085684	0.00309342679316399	-0.000532016531684342	0.00310647666764062	-0.000520073878316223	-0.018977927472733	0.00428853915471888
4.7	0.0115759123206929	-0.00232859555625764	0.00299039065588806	-0.000944004274660305	0.00299027621866895	-0.000953430318480995	-0.0182139047804272	0.00670390486543096
4.8	0.0112720993724033	-0.00303394390392581	0.0028407866113356	-0.00134576064363074	0.00283310515741481	-0.00136590578049705	-0.0170247006836151	0.00906766987054034
4.9	0.0110709485291138	-0.00364739429220341	0.00262452092465555	-0.00174270286515621	0.00261847180498232	-0.0017342569767165	-0.0154061298599392	0.0113096827408938
5	0.011087318744475	-0.00432846835752125	0.00234699497667847	-0.00207350023627498	0.00234971217658603	-0.00208591079330703	-0.0128787082047035	0.0132749482865187
5.1	0.0109992564350995	-0.00525625049587072	0.00202593897564495	-0.00239475942122295	0.00203914765069139	-0.00239230414550589	-0.0102067399948187	0.0143489688160959
5.2	0.0108586752265276	-0.00610626377414272	0.00168379000499278	-0.00265089012136008	0.00168428448419864	-0.00265504552167718	-0.00746350113362695	0.0151407509527764
5.3	0.0106911083801484	-0.00703961940394447	0.00129410417488014	-0.00286122045223431	0.00129036216578808	-0.00286378309759569	-0.00451523342194809	0.015475453606726
5.4	0.0103326190563039	-0.00797564384476238	0.000883128148438678	-0.00301873418001569	0.000882238114631961	-0.00302118690398033	-0.00150867502681303	0.0151648317815746
5.5	0.00990782589590163	-0.00881119432768732	0.00044628066928283	-0.00311098610757378	0.000458828998951146	-0.00311097854064294	0.00154365627684037	0.0140554270877022
5.6	0.00906866344200204	-0.00975625772088099	1.43513220483406E-05	-0.00314154556443428	1.10630544873226E-05	-0.00313809213765963	0.00358451364373382	0.0120094352301583
5.7	0.0080547763457212	-0.0102422086106372	-0.000417918019389602	-0.0031151043604714	-0.000421630178019544	-0.00311878318478963	0.00485594667376797	0.0101775621868343
5.8	0.00713679459445701	-0.0105863436432138	-0.000851566048794031	-0.00302436282622711	-0.000850843357392543	-0.00303203053979955	0.00577328828879696	0.00821185219628786
5.9	0.00613620130798966	-0.0107031657507308	-0.00126651076198851	-0.00287140285378919	-0.00126491606504667	-0.00287554554527713	0.00611203703062734	0.00641123243944414
6	0.00542497453569115	-0.0105864600189777	-0.00165364945478438	-0.00266776498573758	-0.0016476715155315	-0.00267110826482342	0.00654045132294218	0.00502680049125489
6.1	0.00482717566609535	-0.0108449462099169	-0.00201160009745488	-0.00241657139605043	-0.00200746816093613	-0.00242133009248709	0.00702173279380802	0.00296730389201342
6.2	0.0041729486202152	-0.0111702842109783	-0.0023299783726972	-0.00210108249457214	-0.002326413406234	-0.00210972924522113	0.00699334341768051	0.000694273924316438
6.3	0.0035259301270287	-0.0116949921895107	-0.00259597034888896	-0.00176312333891768	-0.00260576343817157	-0.00177086245598127	0.00646460766325107	-0.00183535615899592
6.4	0.00260141503874518	-0.0122415760805515	-0.00282258230987347	-0.00138009721646039	-0.00282059564304757	-0.00138587987212483	0.00529982363734923	-0.00414176079765334
6.5	0.00184647129238235	-0.0127034819621458	-0.00298846850077878	-0.000978360914992403	-0.0029888715673296	-0.000977240529014263	0.00411769952384101	-0.00622758657693193
6.6	0.000761039777470588	-0.0130755216673671	-0.00309127482305321	-0.000553695496667359	-0.00310191889041003	-0.000556692350141258	0.00197720851186443	-0.00826083648123562
6.7	-0.000124620821392492	-0.0130867207698622	-0.00313612643329381	-0.000121504993009009	-0.00313508778346109	-0.000115280330961611	-0.000610938935631567	-0.00920117144859709
6.8	-0.00097331979218652	-0.013075063130909	-0.00312241221038896	0.000325210947949707	-0.00312151028991676	0.000329961698395252	-0.00331348930729855	-0.00938336710218912
6.9	-0.00193734780693971	-0.0129200715801145	-0.00304134769658677	0.000754937872455832	-0.00304177192293432	0.000759912494922205	-0.00591865124930443	-0.00864270279647352
7	-0.00256643962982667	-0.0125753564310243	-0.00291023603176235	0.00117224487030872	-0.00291164796241047	0.00117545351253422	-0.00760076020277021	-0.00732986688001985
7.1	-0.00351463251692128	-0.0125343137714646	-0.00271423974781344	0.00156796849916898	-0.00271666584114097	0.0015789578236814	-0.00945500868696374	-0.00631478644622604
7.2	-0.00447884880698399	-0.012104397270241	-0.00247580443919591	0.00192899901605956	-0.00247599280707952	0.00193488137669772	-0.0112151555412311	-0.00436779185631015
7.3	-0.00540405848661907	-0.0116568557687204	-0.00218659691753129	0.00225390749300784	-0.00218384208568032	0.00225538123656768	-0.0123504130317752	-0.00203283331056054
7.4	-0.00652336091472008	-0.0111427030891458	-0.00184505911023473	0.00253740796298039	-0.00183786605281805	0.00254392281239183	-0.013116637071351	0.000571783232809781
7.5	-0.0074093133779256	-0.0102593976976557	-0.00147045827697627	0.00277101681700316	-0.0014714912172264	0.00276900549064714	-0.01258778003752	0.00370513086674179
7.6	-0.00806349268400595	-0.00979094375384517	-0.00107942025606341	0.00295000330630295	-0.00106880577131987	0.00296035530774686	-0.0111651094438847	0.00569219770416838
7.7	-0.00881183525024013	-0.00917314999057421	-0.000650931752611814	0.00307515672289316	-0.000645376624769314	0.00307481998687081	-0.00972476352037848	0.00714369148897435
7.8	-0.00924925173517031	-0.00883375404158833	-0.000205667633927319	0.00313721524884394	-0.000219274065701835	0.00313012099274488	-0.00803565487895572	0.00835206609317393
7.9	-0.00968565366590818	-0.00854575463136144	0.000216825007567066	0.00312468319502461	0.000227895988534157	0.00312440299950753	-0.00603038506062207	0.0095138098106222
8	-0.00973695924726486	-0.00830211634081824	0.000651284786933613	0.00307248159359277	0.000659572953580775	0.00307042992888275	-0.00338465741312651	0.0101187431918923
8.1	-0.0102892689414401	-0.0082414967890105	0.00108455184722258	0.00294999332056577	0.00108227976355428	0.00294673810713554	-0.00128661124768276	0.00977936207233466
8.2	-0.0107911356433512	-0.00782277788048067	0.00147629679174579	0.00276862728621738	0.00147545145767929	0.00278020007750726	0.000770505291738044	0.00962121110335224
8.3	-0.0112860579846663	-0.00740185438173313	0.00184900181054137	0.002537601918234	0.00185407891144153	0.0025350307483569	0.00291837976847859	0.00906782626651061
8.4	-0.011917394996274	-0.00676562961399571	0.00219647431605777	0.00225908840207869	0.00218531670576654	0.00225945910010193	0.00486938261896437	0.00819054665848806
8.5	-0.0122001187387506	-0.00592949739328014	0.00249542717423631	0.00192375194114529	0.00249543358452981	0.00192510247035226	0.00719103275344342	0.00692393210251189
8.6	-0.0127122952710571	-0.00535764995218615	0.00272644780785737	0.00156349008984364	0.00272224415789189	0.00156117434647096	0.00869695309012657	0.00431629747286831
8.7	-0.0131177986327021	-0.00439170688790904	0.00291729551051523	0.00116588213913273	0.00291613427338625	0.00116546861847771	0.00925715513198645	0.00182767788519782
8.8	-0.0132450154952596	-0.0034573766061363	0.00304819715794129	0.000748155366234678	0.00305917958744206	0.000746076319372083	0.00921799955932435	-0.000677528685087373
8.9	-0.0132548119875875	-0.00261749301187695	0.00312415615364003	0.000317091102143595	0.00313352612829921	0.000309972081309352	0.00869321739792368	-0.00279752804519326
9	-0.0128468655337933	-0.00184744073200872	0.00313650327093421	-0.000132002069135048	0.00314326464213398	-0.000126387957783417	0.00850125344561564	-0.00453094418954354
9.1	-0.0125166875013014	-0.0016484985373502	0.0030909947897703	-0.000562641642067471	0.00309121302731238	-0.000562833421954069	0.00792265596934463	-0.00697936756333296
9.2	-0.0122498083338265	-0.001457524144312	0.00297846422415809	-0.000984680438573462	0.00298228470298046	-0.000984446069132405	0.00676412121500808	-0.00918847920851832
9.3	-0.0120986200533556	-0.00148240940705207	0.00280771270447069	-0.00139528129290507	0.00282576927165589	-0.00139567004872613	0.00514762294384902	-0.0113356984087379
9.4	-0.0122868726945288	-0.00149367094539259	0.00259002284143909	-0.00176889584685872	0.00259337203052576	-0.00177991783840601	0.00280801699785979	-0.0131488302166369
9.5	-0.0124573243841177	-0.00123485638499299	0.00232035612873506	-0.00212398167613245	0.00233515802964737	-0.00212459711020373	0.00031550940875501	-0.0144435376285601
9.6	-0.0130839447501167	-0.00100788186914239	0.00200380369173749	-0.00242870738327587	0.00200410295319543	-0.0024216838552677	-0.00341340906913237	-0.0156583520298062
9.7	-0.0135638432211732	-0.000251929459403993	0.00164179826882561	-0.00268510028948324	0.0016501098299757	-0.00268666485903846	-0.00758025903924644	-0.0153455293026704
9.8	-0.0138645401939592	0.000539695363930332	0.00125751978109091	-0.00288255107368489	0.00125571773219005	-0.00289121564030044	-0.0116018265059731	-0.0139589679401394
9.9	-0.0141551891346028	0.00150620857286782	0.000848197976507196	-0.0030294964808153	0.00083631241864405	-0.00303215785882381	-0.0154703147923778	-0.0113382967103495
10	-0.0140118276825389	0.00257234027849483	0.000414958188787363	-0.00311238506604816	0.000414168605944044	-0.00311972251305154	-0.0179545642485766	-0.0077634366779058
10.1	-0.0139462942581077	0.00330476006129191	-2.23164591272975E-05	-0.00315083305233818	-2.69635083907528E-05	-0.00315362189451096	-0.0199913926532578	-0.00449884373621704
10.2	-0.0137208857443966	0.00423970498757826	-0.000463673719684338	-0.0031117538554756	-0.000476294384873145	-0.00311555757118151	-0.0214942079860219	-0.000507590165080506
10.3	-0.0133160711392838	0.00502569670296269	-0.00089696530024376	-0.00301067282391458	-0.000896710748945513	-0.0030240940042671	-0.0221064329484073	0.00385476631922568
10.4	-0.0129136429073009	0.00576917080718498	-0.00130804659778862	-0.00286531335757113	-0.00131123182918575	-0.00286318596650775	-0.0217286639985323	0.00846173312775619
10.5	-0.0121209851864133	0.00657125704540023	-0.00169668177514399	-0.00264629523306601	-0.00170286263934585	-0.00265358620342837	-0.0196466566449617	0.013058579995566
10.6	-0.0113825000613943	0.00698503795718202	-0.00205691353412068	-0.00238740607443849	-0.00205841227521949	-0.00239253466107272	-0.0169588486274889	0.0164453928663383
10.7	-0.0105135843231448	0.00738983217134762	-0.00236512079961425	-0.0020742922590047	-0.002368322958484	-0.0020903734795782	-0.0136971269699575	0.0195116203673372
10.8	-0.00973440176804389	0.00747637056934224	-0.00263381328342279	-0.00172577201470168	-0.00263086437771123	-0.001727942593657	-0.0101351508343048	0.0218351561626269
10.9	-0.00929520804962219	0.00766015287695453	-0.00285318562740794	-0.00134581080549543	-0.00285246186816256	-0.00135095343630545	-0.00642200010898883	0.0238878466221903
11	-0.00841219742776571	0.00798275145885298	-0.00301534797445645	-0.00092681516044317	-0.00300830789604369	-0.000931119399893374	-0.00151078771960447	0.0254734073649983
11.1	-0.00779386532188736	0.00792008502583561	-0.00311089027863923	-0.000510051033171646	-0.00310312753006439	-0.000501728407251958	0.00323944246195826	0.0253990342856575
11.2	-0.00706520456244517	0.00800162475352834	-0.00315219104182169	-6.64755696947117E-05	-0.00315881013598005	-6.32556974421313E-05	0.00795600950919938	0.0249075984237775
11.3	-0.00616400460057639	0.00778649755513296	-0.00312930094904299	0.000377014909511812	-0.00313247694273312	0.000374844556625712	0.0128057947362636	0.0236173796191508
11.4	-0.0055940235931663	0.00740284546158214	-0.00304083930486355	0.000810044134179599	-0.00304548275331278	0.000810201614213634	0.0173784823166922	0.021458855961765
11.5	-0.00490342724460025	0.00698787987831279	-0.0029073268760792	0.00121777395884221	-0.00289978987612355	0.00122253900027765	0.0221278919901228	0.0182489619281277
11.6	-0.00467504741156652	0.00616311280465263	-0.00270545820634767	0.00161439678436736	-0.00271359750508439	0.00162413532271589	0.0256316441327666	0.0133020735652338
11.7	-0.00461389587220573	0.00563650567190605	-0.00244963409238429	0.00198373554359978	-0.00245138660128784	0.00198744124244019	0.0279223668917787	0.00820484306646838
11.8	-0.00457997999559357	0.00524779209793998	-0.0021483632821581	0.00230875183859421	-0.00215758668244076	0.00231859381952016	0.0293383327227024	0.00303580822280812
11.9	-0.00453784330051211	0.00509608506797252	-0.00180698918928523	0.00258059787208356	-0.0018070137206183	0.00258717705628382	0.0299086044509898	-0.0016575201899585
12	-0.00398267648043918	0.00495373676191513	-0.00142714700615363	0.00280726744056311	-0.00143165310005269	0.00281006908235775	0.0308576200869787	-0.00667813134504774
