# GHZ S RI R 50
0.2	-0.0149600992945641	0.00325971553394036	0.00305793205748471	-0.000881581651333307	0.00306843048056464	-0.000881404795605089	0.00500727008058083	-0.00112418628583262
0.3	-0.0138091979968705	0.00463461814588176	0.00291560849234245	-0.00129908576061195	0.00290932721019768	-0.00131080007632397	0.00567641061983809	-0.00251789710853679
0.4	-0.0128885117491985	0.00637503121439322	0.00270557445000777	-0.00169721799640228	0.00270346253681828	-0.00169914807575432	0.00542032972388332	-0.0033500611475209
0.5	-0.0101003889430743	0.00683592605368518	0.00243602767256081	-0.00206249058450445	0.00243886936749034	-0.00206623777591439	0.00654376361229098	-0.00516685837186818
0.6	-0.0108093871760616	0.00551762385922297	0.00212009012277585	-0.00238489535692255	0.00211934657779037	-0.00238775790094221	0.00384400413050421	-0.00838389856135013
0.7	-0.0115622681723606	0.00689533097428511	0.00176949903499138	-0.00265862791524767	0.00177575872961765	-0.00266273918224856	0.000931949688601198	-0.00850521988924022
0.8	-0.0114915607698082	0.00836688046916476	0.00137375161427952	-0.00288407219590263	0.00138209013035391	-0.00288244962125807	-0.00141574171494222	-0.0080943100573131
0.9	-0.0116413655462208	0.0104374801786242	0.000963532152207385	-0.00304100857114317	0.000963517326853225	-0.00305050824086351	-0.00392098032514373	-0.00667792123489124
1	-0.00868176002079716	0.0137679162962475	0.000523854179932769	-0.00314716547599548	0.000523703079501286	-0.00315256375639976	-0.00340776939696498	-0.00361507297799763
1.1	-0.00618799161943948	0.0114414615968059	7.67826860632939E-05	-0.00318935882229046	7.76822407132799E-05	-0.00319412457657208	-0.00330740343248419	-0.00549558711494656
1.2	-0.00681396456713835	0.0106766149770449	-0.000368427007214202	-0.00316581133849955	-0.000367186104430973	-0.00318276784728448	-0.00561007296618689	-0.00508655232505532
1.3	-0.00738923073071726	0.0101186062436719	-0.000807194796314081	-0.00309128810888335	-0.000812189006658016	-0.00309901630529804	-0.00673567258234485	-0.00397208874443559
1.4	-0.00787273484060829	0.0103080296251182	-0.00123898013933952	-0.00294205654237153	-0.00124143043926037	-0.00294925107308103	-0.00712295159811502	-0.0024464005621845
1.5	-0.00578546274569727	0.00984921132584622	-0.00163080004535118	-0.00274382141507359	-0.00162881061505637	-0.00274941782664393	-0.00528210918320657	-0.00220029495011173
1.6	-0.00686817639063894	0.00929362151359005	-0.00200480583184478	-0.00248836299868408	-0.002008319658277	-0.0024892479203882	-0.00715219042026498	-0.00185151359370257
1.7	-0.0062101823747779	0.0111496516455918	-0.00233733074990185	-0.00218592905401187	-0.00233943312435902	-0.00219461537832824	-0.00705908644865481	0.000912171161057517
1.8	-0.00486289218137593	0.0124923698547674	-0.00261728118736617	-0.0018284153384184	-0.00262254280092026	-0.00183391887341335	-0.00608839469068873	0.00298536868151514
1.9	-0.00308990772101438	0.014056354264169	-0.00284384512983142	-0.00145369859335446	-0.00284026590340246	-0.00144745117861927	-0.0044643297254406	0.0052803274858344
2	0.00110206630491628	0.0137492445324865	-0.00302724055818811	-0.00103646621901568	-0.0030299846308513	-0.00102951159375499	-0.000378735888218053	0.00565293888672307
2.1	0.00107205646878726	0.0108635260812433	-0.0031421958251941	-0.000586721432489348	-0.00314438243746331	-0.000593490195071105	-0.000130773135750907	0.00356792724501897
2.2	0.000559348300159169	0.0109019960930941	-0.00318909300140216	-0.000146325974464572	-0.00319083746172247	-0.000136463402217432	0.000260376350887671	0.0039523219923137
2.3	0.00050071883507962	0.0111993113062331	-0.00317540369438801	0.000302988841912111	-0.00318226956931776	0.000300111448869063	0.00126060618234531	0.00402496708903159
2.4	0.000510131239497808	0.0124147256677399	-0.00311130280407942	0.000745852206291519	-0.0031099489149424	0.000761148841198378	0.00231851377042424	0.00441863829842415
2.5	0.00360269808384533	0.013798821664999	-0.00296387549503724	0.00119223140319087	-0.00297701805652537	0.00119373782673415	0.0060330445731219	0.00435445169741644
2.6	0.00501433091556314	0.0111299251544525	-0.00275594046542335	0.00158533187869735	-0.0027769900513751	0.00158959712660334	0.00753759819618138	0.000203308872847669
2.7	0.00484555417672976	0.0103013974647274	-0.00251512673805781	0.00195269332980065	-0.00251533158895448	0.00195782643201539	0.00708120731234127	-0.0022655612695258
2.8	0.00488796776432984	0.0100968010183525	-0.0022100265982005	0.00227730096662319	-0.00221976216716688	0.00228874431982683	0.00633237518946713	-0.00407909885037919
2.9	0.00559211109598523	0.0107527362073537	-0.0018594913029373	0.00256874560710391	-0.00185738935027529	0.00257768510559648	0.00585219878417982	-0.00484231315718048
3	0.00855277108265842	0.00994118260537522	-0.00147344882209202	0.0027969004064599	-0.00148882425452005	0.00278410170306604	0.00718334226225649	-0.00677268147813
3.1	0.0081275863547922	0.00755467631213308	-0.00107628294092102	0.00297029621262125	-0.00109318991568151	0.00297599796371353	0.00499508821750757	-0.00998688799865092
3.2	0.00788289198351474	0.00738997592366635	-0.000651264773787801	0.00308950035859552	-0.000646795621665298	0.00310026749483302	0.00283103437468665	-0.0107217075801842
3.3	0.00803091244599646	0.00718364620106377	-0.000215928520925937	0.00315029495639679	-0.00021270358884637	0.00314584622018328	0.00092386470266652	-0.011380619414593
3.4	0.00841878141440587	0.00766365699344791	0.000231088813638204	0.00314260530763846	0.000221685624302772	0.00314385954116891	-0.000874454601386078	-0.01131715980785
3.5	0.011160152794226	0.00695514580083376	0.000653513918860412	0.0030767713490686	0.000658493267037136	0.00307536512084616	-0.00080275333648095	-0.0123521207108614
3.6	0.0104619114766617	0.00407484007036686	0.00107599655194731	0.00295478720367357	0.00108265465286152	0.00295816992174384	-0.00444978829542768	-0.0146970705448708
3.7	0.00938740285590935	0.00396491555263099	0.00149119351251423	0.00276573835220595	0.00148974434064523	0.00278211920713067	-0.00813058887987967	-0.0138634130539207
3.8	0.00919838441869155	0.00439120295474464	0.00185171428796799	0.00252864394716413	0.00186239670978743	0.00253478716944339	-0.010940855689998	-0.0123182564467995
3.9	0.00998699161780962	0.00546761155710837	0.00218784362171187	0.00224586183976749	0.00218326253102632	0.00224584210442976	-0.0129217830482043	-0.00983156747126075
4	0.0136505527591615	0.00468807164510462	0.002478412681711	0.00192702942979938	0.00248993469506989	0.00193296801325109	-0.0123284377470626	-0.00857433219870932
4.1	0.0134216960816323	0.00110545752441217	0.0027224993912087	0.00154580812761455	0.00273918859790786	0.00155522182991831	-0.0150814874647629	-0.00885800760592386
4.2	0.0125454668977182	0.000130097050405196	0.00290824122252094	0.00114520862588255	0.00290951010544394	0.00114745613269738	-0.0175567895975341	-0.00625636917054553
4.3	0.0121445408604439	-0.000383851734531716	0.00303836382691633	0.000738780276492781	0.00303969754931177	0.000747276910938672	-0.0189260641444789	-0.00327579400954019
4.4	0.0120612412394749	-0.000147003442067565	0.00310938226055688	0.000306054179806875	0.00311715978574746	0.000301309592325336	-0.0195246798554585	0.000525619474040792
4.5	0.0147484278851519	-0.000945346002805999	0.0031197114530232	-0.000145577310363902	0.00311659814008724	-0.00014326802721982	-0.0169986930055089	0.0033139501265989
4.6	0.0137828749094611	-0.00478814860904096	0.00304390419767069	-0.000578838571736721	0.0030569916609083	-0.000567278165913074	-0.0175024480122409	0.00333074595357645
4.7	0.0120244549603663	-0.00573481667660241	0.00293420242611944	-0.000977279205703297	0.00293394335389474	-0.000986572522890456	-0.0181392967926487	0.00592401070102449
4.8	0.010713087590454	-0.00608856349354974	0.00277969374412755	-0.00136840123658693	0.00277182477629204	-0.00138814075063969	-0.0176768678210134	0.00890227890566681
4.9	0.0100052702185406	-0.00540912558900934	0.00255647298646177	-0.0017553359138164	0.00255064842431601	-0.00174693078306292	-0.016183072882246	0.0124434057876313
5	0.0121373618198242	-0.00614783631979632	0.00227101583392783	-0.00206391779803465	0.00227350723285892	-0.00207611498323962	-0.0115931159531582	0.0140981872806694
5.1	0.0103553096320904	-0.00876877953151424	0.00196261798809025	-0.00236677304649542	0.00197558816873621	-0.00236449395790755	-0.0105990429508827	0.0138985534943639
5.2	0.00904319748415741	-0.00856224730670573	0.00162746937297394	-0.00261412231247286	0.00162791738958209	-0.00261820107106699	-0.00845212894576775	0.0157745568716125
5.3	0.00869831850539753	-0.0083387239765213	0.00124430709221572	-0.00281343473020799	0.00124062046318247	-0.00281591449785645	-0.00530350269815	0.016818213673559
5.4	0.00902733880956872	-0.00754923841607063	0.000843521245533762	-0.00295675745406767	0.000842635117671529	-0.00295914928695154	-0.00166041751575146	0.0175313333131843
5.5	0.0122122038521897	-0.00942579261333177	0.00043116299573497	-0.00304281919293577	0.000443433356172154	-0.00304283289422308	0.00401110071676296	0.0150276669613605
5.6	0.0092226047272138	-0.0132319236044839	8.37808948755787E-06	-0.00308013764600585	5.16038242441431E-06	-0.00307674579357256	0.00352210989221375	0.0110457840805698
5.7	0.00636641338911165	-0.01286595747572	-0.000414653467825997	-0.00305141851944992	-0.000418296688334055	-0.00305501677432698	0.003479719959281	0.0105083359658659
5.8	0.00464977136989245	-0.0118728308511561	-0.000834159043080521	-0.00296064373805206	-0.000833452799744565	-0.00296815037495892	0.00423450686908045	0.00977436924375654
5.9	0.00356777240213294	-0.00935890351589682	-0.00123251698951538	-0.00281508460227774	-0.00123094439258924	-0.00281913690944627	0.00500206550400193	0.0098586120469673
6	0.00752614969256319	-0.00754601728117787	-0.00161698437972478	-0.00262705624774028	-0.00161109878282034	-0.00263032358999659	0.00955822949694521	0.00891050533737405
6.1	0.00810818606957575	-0.0115883618231264	-0.0019708326577814	-0.00237396429461185	-0.00196677186421448	-0.00237862860254677	0.00994071833275823	0.00298520705051342
6.2	0.00654258553201727	-0.0131726948563269	-0.00227724277771712	-0.0020662587861349	-0.00227372275390082	-0.00207472258347422	0.00827819521661578	-3.77178141094296E-05
6.3	0.00491753672048867	-0.0140945938591386	-0.00253631969124166	-0.00174126409923946	-0.00254588240308106	-0.00174889938909086	0.00655342437213533	-0.00233227082310598
6.4	0.00379970126483553	-0.0135317305477573	-0.00276377652458336	-0.00137187457069664	-0.00276179159989041	-0.00137754168598184	0.00524674304749422	-0.00318544869322103
6.5	0.00544315828457279	-0.0157803309695908	-0.00292926817992936	-0.000970676154676056	-0.00292966768893074	-0.000969578091341845	0.00602376986962206	-0.00666396526381096
6.6	0.0012801443742683	-0.0179606054298549	-0.0030213759646058	-0.000561955426296353	-0.00303177225057204	-0.000564957338439071	0.00110510120458074	-0.00933250058083825
6.7	-0.000999901137619911	-0.0168228674065707	-0.0030706825369632	-0.000147660447679907	-0.00306972205519243	-0.000141553989234568	-0.00200829558090077	-0.00876667910521111
6.8	-0.0025553982090079	-0.0156886861359655	-0.00306537354348782	0.000286976028958864	-0.00306453766834837	0.000291644160671061	-0.00475160712812864	-0.00796652482529653
6.9	-0.0031945289045175	-0.0130733179783412	-0.00299062375597303	0.000710472756763733	-0.00299108897717474	0.000715348033823056	-0.00664924328395374	-0.00532352842288726
7	0.000955491976894532	-0.0135434564417511	-0.0028588589973583	0.0011105772056826	-0.00286027798104842	0.00111369644340178	-0.00435783909833094	-0.00537454805178142
7.1	-0.00226854530251583	-0.017498493797867	-0.00268613362226248	0.00149094174218762	-0.00268869559930277	0.00150166992503082	-0.00892332057839627	-0.00724445247810445
7.2	-0.0055686214563932	-0.0166288083223825	-0.00246553888385921	0.00185085502339059	-0.00246582758907526	0.00185662887125509	-0.0122069488561845	-0.00411651020032013
7.3	-0.00806740745965502	-0.0150936106211757	-0.00219040536647277	0.00217533779594737	-0.00218772463726352	0.00217683671018788	-0.0137510213414543	-0.000632922641033751
7.4	-0.0102342291515044	-0.0114746558387791	-0.00186340476689072	0.00245551444180486	-0.00185646965473602	0.00246205859751728	-0.0142708714936631	0.00423094500064997
7.5	-0.00645729412736922	-0.00847018362833557	-0.00151806611211841	0.00269282479710587	-0.00151903319399859	0.00269081753158445	-0.00927267984504615	0.00757649989015257
7.6	-0.00695954410050515	-0.0112168192039653	-0.00113994464811546	0.0028933743668365	-0.00112969102413424	0.00290387746403028	-0.0084374619126525	0.00573820866132589
7.7	-0.008655905547476	-0.0106054726789419	-0.000718097328119826	0.00303063571093405	-0.000712586567985547	0.00303043457310994	-0.00857961454868076	0.00691095929261385
7.8	-0.00924436604754513	-0.00961416342904421	-0.000281824234902678	0.00310515798822203	-0.00029513757711381	0.00309778671059584	-0.00772276573145775	0.00850045022023398
7.9	-0.00839982563204336	-0.0082123571415555	0.000130506617356181	0.003110435936274	0.000141513855809095	0.00311045842755151	-0.00538680429774432	0.0104777151835876
8	-0.00513865941498322	-0.0109164173315031	0.000570539648708841	0.00308707805768347	0.000578874888175953	0.00308524443820468	-0.00113032672160369	0.00913262690673494
8.1	-0.00903276086017569	-0.0137594456893568	0.00101396253811048	0.00297170521621456	0.00101176970874038	0.00296840081411646	-0.00281369028493884	0.00782492478570436
8.2	-0.0113318100771519	-0.0123561007951185	0.00140733489876289	0.00280185933418484	0.00140620829083256	0.00281339999692856	-0.00179859691311595	0.00979886411114929
8.3	-0.0126970672079502	-0.0108098528552847	0.00178637526702566	0.00258678701516929	0.00179152217937466	0.00258434217697988	0.000311505864432962	0.0108301716383555
8.4	-0.0131522882852111	-0.00772662242696587	0.00214988807337138	0.00232389129322248	0.00213867169047983	0.00232398539236775	0.00313104234755853	0.0121788965786257
8.5	-0.00870211197868291	-0.00745066098321431	0.00246762783157645	0.00198425600715801	0.00246760645825064	0.00198561306405105	0.00961757814452224	0.00988846526039683
8.6	-0.0111135304447062	-0.0110145849160805	0.00269903462997836	0.00162982572198523	0.00269487109804559	0.00162740798072817	0.00883864599692165	0.00450996264754388
8.7	-0.0139667669026136	-0.00982275592111896	0.00290488405167046	0.00124155729732663	0.00290372654995338	0.00124111392033429	0.00809750452906498	0.0032894682288418
8.8	-0.0157216772854472	-0.00773969745044625	0.00305429648797125	0.000824654288101002	0.00306541169824738	0.000822814111152784	0.00800689567964255	0.0020500616990732
8.9	-0.016342608663252	-0.00394341607661655	0.00314496148942067	0.000384784322499358	0.00315456154044075	0.000377797566077758	0.00838104134634803	0.0018044421504828
9	-0.0115266087557075	-0.00220327833244371	0.00315722560409987	-6.41641302304935E-05	0.00316390265445211	-5.83702380893628E-05	0.0123497299407163	-0.000727452234164136
9.1	-0.011783170482241	-0.00478668269665801	0.00313488918408231	-0.000491722301368396	0.00313511427860187	-0.000491910549768391	0.0105863809307	-0.0062469949906177
9.2	-0.0121890245460176	-0.00455997374784478	0.00303876315126441	-0.000927731610994976	0.00304262613047004	-0.000927405398300591	0.00850406179711029	-0.00884398422406053
9.3	-0.0124000423838821	-0.00444718584320202	0.00287625119256558	-0.00135314143953449	0.00289456169845907	-0.00135314248699167	0.00600764485150217	-0.0111778449877831
9.4	-0.0121214722729087	-0.00288704629427644	0.00266198254478477	-0.00173554771877735	0.0026656144984353	-0.00174663969696795	0.00348480806447487	-0.0117617348657045
9.5	-0.00911250491926506	-0.005127703486339	0.00241284231688822	-0.00209971675347791	0.00242790385044017	-0.00209996426266488	0.00274179003455557	-0.0152426852942475
9.6	-0.0130823550530355	-0.00742714734647132	0.00209990658746972	-0.00243665471334868	0.00210005817226423	-0.00242947451557949	-0.00468039566502134	-0.0173516070267831
9.7	-0.01555771840562	-0.00566351966046258	0.00173021686726683	-0.00271260490394086	0.00173874257705509	-0.00271404274576266	-0.0100131465371151	-0.0151222934934167
9.8	-0.0170585781933584	-0.00342128112926541	0.00133946155268843	-0.00292499982133531	0.00133777859655921	-0.00293389516511469	-0.0141987647410797	-0.0121798299936773
9.9	-0.0175165023695637	0.000457608678622377	0.000927082546741826	-0.00308900322235347	0.000914950835828959	-0.00309195744510163	-0.0172728000782554	-0.00742154280385453
10	-0.0129684148491107	0.0017113788045644	0.000475241402080369	-0.00320166363728774	0.000474539627085175	-0.00320923855918718	-0.0160955948551481	-0.00484907403184981
10.1	-0.0141314577253146	-0.000284810385154889	9.54508330677533E-06	-0.00324315007524373	4.7909952785029E-06	-0.00324606837737937	-0.0200341896896348	-0.00372102711473883
10.2	-0.0151411935723934	0.00125184844217273	-0.000448292195798959	-0.00320603738262856	-0.000461242663260129	-0.00321006787459891	-0.0224051801030495	0.00121800728011744
10.3	-0.0152352307275234	0.00323389842011154	-0.000899962529284449	-0.00310890706649767	-0.00089959272096755	-0.00312273207705853	-0.0229770971638183	0.00652359063361954
10.4	-0.013886974626096	0.00644934991175478	-0.00133694182645438	-0.00296643685637689	-0.00134024283012604	-0.0029642551144579	-0.0214387231782321	0.0125537920277911
10.5	-0.00825894761576693	0.00599430460455797	-0.001754898884552	-0.00272556318574228	-0.00176128717661838	-0.00273306956931523	-0.0159555809392071	0.0148425371995542
10.6	-0.00878889644173696	0.00288066747492591	-0.00211716984362009	-0.00245096498449633	-0.00211871696748913	-0.00245623396525419	-0.0159569929638316	0.0155811750488441
10.7	-0.0093808628785716	0.0026631582676867	-0.00243659963908767	-0.00212925598674835	-0.00243992307988761	-0.00214579126252963	-0.0146525365260381	0.0191317655164649
10.8	-0.0100179348060605	0.00306272237613523	-0.00271850299922709	-0.00176517106816096	-0.00271547681068988	-0.00176741796756314	-0.0124202681120664	0.0228516476338619
10.9	-0.00956159095552405	0.00527534658835856	-0.00294476643689012	-0.00135965191445253	-0.00294406560253114	-0.00136494528771209	-0.00806805418606499	0.0274059679906067
11	-0.00472470300309919	0.00416165830717438	-0.00309151791191904	-0.000924826778134411	-0.00308434977795413	-0.00092928374988177	0.000125613219409407	0.0276992098911517
11.1	-0.00686522524516416	0.00089008019227604	-0.00319393277496785	-0.000503628696671567	-0.00318591858777391	-0.000495141154342398	0.00221073012744745	0.0263931668339624
11.2	-0.00837538922231955	0.00144291401383876	-0.00323606571626162	-3.95471403637736E-05	-0.00324283036208729	-3.61819766543813E-05	0.00629984240567209	0.0275053171316129
11.3	-0.0092618382020866	0.00282109151510604	-0.00320372483719515	0.000423074386965528	-0.00320700619381882	0.000420886468723004	0.0112687343528427	0.0279120473521622
11.4	-0.00887917247887005	0.00553306972812458	-0.00309815728494305	0.00086550090219047	-0.00310290158096832	0.000865719171272974	0.0172959741358177	0.0276860778871056
11.5	-0.00415988601432228	0.0043539119453112	-0.00296649924424488	0.00127368984685051	-0.00295873667974419	0.00127850139420141	0.0260072135680888	0.0223506982479113
11.6	-0.00637192768986896	0.00143839678846007	-0.002754304373633	0.00169479967643924	-0.00276252242468571	0.00170490893792255	0.0274844799488252	0.0154365187506001
11.7	-0.00763739846840864	0.00252732843144326	-0.00247602818338762	0.00207328577694747	-0.00247776114269934	0.00207711130075813	0.029586760930123	0.0110590906780276
11.8	-0.007587321026888	0.00415810086688326	-0.0021558527582007	0.00239867929992128	-0.00216510955054641	0.00240890578487947	0.0316812396278861	0.00616792055777595
11.9	-0.00493525718269238	0.00683018876498511	-0.00180402699798723	0.00266987075191384	-0.00180394008052613	0.00267659952506519	0.0343048315922614	0.00159737905342572
12	0.000931803594523749	0.00362441106774414	-0.00140421608397459	0.00291126402862391	-0.00140877984413232	0.00291423558244852	0.0376468333128837	-0.0083079548853025
