# GHZ S RI R 50
0.2	-0.0139161173930717	0.00517239066256816	0.00304487307758852	-0.000885139722022719	0.00305533374967015	-0.000884986720369079	0.00595251320810301	0.000744932873491847
0.3	-0.0131060768605564	0.00566681101853988	0.00289878390928969	-0.00130118003713487	0.00289249904167273	-0.00131282384088067	0.00625686571446634	-0.00152202577961812
0.4	-0.0123959159900511	0.00637056854371942	0.00268469310999606	-0.00169544914910519	0.00268258771508667	-0.00169736162427524	0.00577102743761418	-0.00336606406074968
0.5	-0.0116893659396715	0.00711543858674827	0.00241497922935268	-0.00205255377896065	0.00241779384226347	-0.00205627993086877	0.00483717275153642	-0.00485609963322499
0.6	-0.0109731848359138	0.00778844737473822	0.00210228991822267	-0.00237269363490091	0.00210154659185686	-0.00237553617846377	0.00359534001196131	-0.00611158353802199
0.7	-0.0103989233542855	0.00847768435438536	0.00175170810030322	-0.0026427234902976	0.00175791480114609	-0.00264681678063338	0.00199055852096978	-0.00693357243200817
0.8	-0.00971001742173274	0.00919608148816567	0.00135821608979968	-0.00286271996452207	0.00136648930945844	-0.00286112321736554	0.000243904944706223	-0.007262187182449
0.9	-0.00910068413040145	0.00988993351618278	0.000953687012817544	-0.00301481921853029	0.000953667924967266	-0.00302423567812696	-0.00151163244203258	-0.00718652503444379
1	-0.00839505923663923	0.0106784690238348	0.000520581322410568	-0.00312293708467708	0.00052043264724971	-0.00312829405377543	-0.00321569415428372	-0.00661986897711591
1.1	-0.00757878319099195	0.0111858706967155	7.32889774476625E-05	-0.00316267268075823	7.41767268328319E-05	-0.00316739925918913	-0.00472328707767234	-0.00565279896374173
1.2	-0.00692830358164797	0.0112829311478928	-0.000365539291865701	-0.00313566387138226	-0.000364313458431014	-0.00315245952731973	-0.00569141155154279	-0.00437348104084522
1.3	-0.00655623113884238	0.0109683915619528	-0.000796781437798672	-0.00306141619196484	-0.000801720239292255	-0.00306907206391989	-0.00581764675140662	-0.00307851699896097
1.4	-0.00636151271258856	0.0105354687181059	-0.00122283000471223	-0.00291614664815385	-0.00122524628346417	-0.0029232769423276	-0.00553457109440387	-0.00226511254025889
1.5	-0.00580019271464057	0.0105778829194039	-0.00161425214507112	-0.00271773174243731	-0.00161228039314239	-0.00272327344972036	-0.00522072050396433	-0.00153369066960539
1.6	-0.00504263379370434	0.0108091909957959	-0.00197729187977971	-0.00246182442640947	-0.00198076267778611	-0.00246270409645298	-0.00530420008928287	-0.00049226891699014
1.7	-0.00414115118190607	0.0112399577509181	-0.00230255683186143	-0.00216737138104546	-0.00230460651195293	-0.00217596106266676	-0.00501334817669069	0.000862716805239443
1.8	-0.00315216497228308	0.0116866522786481	-0.00257957607873329	-0.00181793781733803	-0.00258475444762521	-0.00182339915818791	-0.00441175357755519	0.00206451605908023
1.9	-0.00216572864053959	0.0119583051921997	-0.00280515752328884	-0.00144861775389586	-0.00280164508776835	-0.00144242758173263	-0.00358394887896981	0.0031100885207981
2	-0.00107036530057769	0.012183630956389	-0.00298082399702713	-0.00103715389717607	-0.0029835646935148	-0.00103030768605146	-0.00253025871999211	0.00405920784325861
2.1	-5.55037237589886E-05	0.0119418216039386	-0.00309645966526058	-0.00060427419592779	-0.00309856341224466	-0.000610972123777386	-0.0011789235848543	0.00454314268815074
2.2	0.000641778798423636	0.0117804532649492	-0.0031497639145923	-0.000172811913033667	-0.00315157487739858	-0.000163082406553386	0.000383121010852741	0.00467671792405681
2.3	0.00120144369466213	0.0115888085645553	-0.00314129357725528	0.000269620584955501	-0.00314805250125541	0.000266712156789498	0.00194028928611999	0.00426538122192335
2.4	0.00163865241587379	0.0115264103868062	-0.00308111489741914	0.000704421139253254	-0.00307993649695175	0.0007195453162857	0.00338418831602127	0.00346421491952751
2.5	0.00218784263840039	0.0116922308100517	-0.00294579075190023	0.00113730319150813	-0.00295880080699349	0.00113861015911126	0.0046179027342562	0.0023166549446782
2.6	0.00304470844048608	0.0116532810344324	-0.00275462907421171	0.00153275546652933	-0.00277555782848618	0.0015366866190389	0.0056914299933475	0.000777443542988229
2.7	0.00388949196740138	0.0115037570945706	-0.00252210103389027	0.00190171403303484	-0.00252237603750943	0.00190680275161347	0.0063228911263499	-0.00105036523374424
2.8	0.00480379281125452	0.0112676118941264	-0.00222667448247721	0.00222680083907335	-0.00223650434451462	0.00223801076795933	0.00650563474626501	-0.00294357039740957
2.9	0.00579842740190162	0.0109632207047998	-0.00188962905530015	0.00252009867904403	-0.00188769074203789	0.00252901199929922	0.00637946660586913	-0.00472228359931772
3	0.00701118975260199	0.0105326497640209	-0.00151736328126116	0.00276288939745461	-0.00153247043512666	0.00274986358486137	0.00605126689353316	-0.00637701887826688
3.1	0.00809084835808788	0.00968976834537007	-0.00111844933647535	0.00294537299002911	-0.00113539465872356	0.00295080078207849	0.00539367530185158	-0.00812866454492645
3.2	0.0088326913444804	0.00882432774013468	-0.000698779612401324	0.00307024900916505	-0.000694495339991349	0.00308105675869145	0.00416581870226827	-0.00970859904933157
3.3	0.00941355574442316	0.00790228469354322	-0.000268787418709525	0.00314137577901664	-0.000265492727146558	0.00313698896791221	0.00265089059050918	-0.0111714141257716
3.4	0.00980038049086495	0.0070438326336678	0.00017749557942181	0.00314866674973226	0.000168064628005529	0.00314976100123429	0.000781502061031592	-0.0125115818035573
3.5	0.0102450593408295	0.00630376182720989	0.000610687667955997	0.00309079948602522	0.000615694684572267	0.00308946203202203	-0.00149817496686935	-0.0135590235759495
3.6	0.0105682879267735	0.00526657100903655	0.00103052536351427	0.00297087361376997	0.00103713064242029	0.00297435797373714	-0.00406641692719458	-0.0141594956213372
3.7	0.0105553585092093	0.00443722330998772	0.00144729531793856	0.00279384578990232	0.00144557336196145	0.00281022304145783	-0.00678508300428301	-0.0141575557139688
3.8	0.0105625432192699	0.00384171771887024	0.00181538444456715	0.00256641835948796	0.00182599638604557	0.00257275521835017	-0.00953982794098086	-0.013655744303917
3.9	0.0107124318625098	0.0034529338200947	0.00216207095366136	0.00228759716298446	0.00215747275941931	0.00228750782830279	-0.0122655089053606	-0.0125465565352804
4	0.0113364877750577	0.00310782651662505	0.00245279322134025	0.00196879163580725	0.00246424297477577	0.00197491916615866	-0.0145907505960252	-0.0107635199339886
4.1	0.0119818922756563	0.00207332203242601	0.00270483544624859	0.00160157922449209	0.0027214175091145	0.0016113345673299	-0.0164474770669754	-0.0086867632361534
4.2	0.0121891187752798	0.000993873906591406	0.00290578563528904	0.00120419808773692	0.00290702225057228	0.00120648214065773	-0.0179810884833392	-0.00626698108073241
4.3	0.0121920357078831	4.46283140512806E-05	0.00304779632228056	0.000796135644101976	0.00304899435165023	0.000804716826632865	-0.0190657756017966	-0.00368976514836866
4.4	0.0120361247618482	-0.000767064079708379	0.00312641138978685	0.00036122721915897	0.00313432540202263	0.000356581217494987	-0.019791894005958	-0.000879243983008843
4.5	0.012113393699122	-0.00130646517027905	0.00315014562903192	-8.41265564125198E-05	0.00314695842837804	-8.18595178264266E-05	-0.0199020390324164	0.00214372518934952
4.6	0.0121728324539034	-0.00236827366297618	0.00309507023173514	-0.000530515654611335	0.00310811909464947	-0.000518560498889049	-0.0194558256220679	0.00493977334280052
4.7	0.0119295118860543	-0.00327675235683276	0.00299218834994605	-0.000942905999166264	0.00299207863710797	-0.000952336260161612	-0.0186439197813901	0.00758644500003374
4.8	0.0115742867943828	-0.00413650860894987	0.0028427688258108	-0.00134500067973617	0.00283509362943067	-0.001365158963834	-0.0173264271880937	0.0101068910172851
4.9	0.0112791427022151	-0.00481548085358484	0.00262674584691721	-0.00174233011091185	0.00262068943222729	-0.00173388276561845	-0.0155482997301646	0.012358896654823
5	0.0113340224224279	-0.0054623146981538	0.00234928720795066	-0.00207393650056682	0.00235201086756824	-0.0020863539766956	-0.0130815764023214	0.014344372845057
5.1	0.0112957250931172	-0.00665356707361539	0.00202775446565125	-0.00239549331491525	0.00204096972373845	-0.00239303284231939	-0.0102312528624648	0.0156167492019347
5.2	0.0108890204167258	-0.00763254495869077	0.0016855487809888	-0.00265182783211337	0.00168604483246227	-0.0026559853729466	-0.00723639121895183	0.016357514505327
5.3	0.0105119483985215	-0.00844192207461008	0.00129573915562164	-0.00286253610130553	0.00129199568842116	-0.00286510140383363	-0.00414566388821647	0.0165217500383074
5.4	0.010128155921597	-0.00914180812868501	0.000884455397027086	-0.00302050926228328	0.000883565380347428	-0.00302296382485245	-0.00114754623254996	0.0159657245383824
5.5	0.0100043767867901	-0.00977177939807745	0.000446924841637274	-0.00311282366690367	0.000459480798009923	-0.0031128145912978	0.00157173735658148	0.0148331659710267
5.6	0.00947144524315516	-0.011075284151166	1.49734884028794E-05	-0.00314334187014887	1.16826627084304E-05	-0.00313988710830807	0.00367997659858309	0.0131127508618857
5.7	0.00829521041894851	-0.0118808297354393	-0.000417637519972564	-0.00311716368448908	-0.000421351399459199	-0.00312084550592366	0.005252552225243	0.0113292382421134
5.8	0.00710684603388062	-0.012327389599976	-0.000851772104350641	-0.00302647564795921	-0.000851048019129275	-0.00303414837490205	0.00648631961532941	0.00916907912170356
5.9	0.00581041888590249	-0.0123485120636296	-0.0012671671549045	-0.00287331527400181	-0.00126557120849226	-0.00287746053786573	0.00702637175661955	0.00681626560117597
6	0.00502956516120214	-0.0118454990739209	-0.00165423608165864	-0.00266948980287291	-0.00164825432501328	-0.00267283419156692	0.00695164766184033	0.00470705240117414
6.1	0.00470555977377053	-0.0120814006648582	-0.00201264427166071	-0.00241864607496245	-0.00200850856787532	-0.00242340750597163	0.00666642679367591	0.00261279992341839
6.2	0.00400473682242078	-0.0124842056484007	-0.00233161607986287	-0.00210292898699051	-0.00232804756993155	-0.00211158218555961	0.00604917588664412	0.000649904494468763
6.3	0.00330275817621131	-0.0129308337234388	-0.00259803123078224	-0.00176463716609381	-0.00260783206199352	-0.00177238287972437	0.00527254402631102	-0.00132684610769964
6.4	0.00243457101546922	-0.0133461283813128	-0.00282491868860409	-0.00138121648109945	-0.00282293042204153	-0.00138700391767059	0.00420831536942827	-0.00325842592466654
6.5	0.00204802753241191	-0.0137582869384846	-0.00299132225314273	-0.000979267746359901	-0.00299172569425261	-0.000978146290112913	0.00299719227109192	-0.00497445440050349
6.6	0.00110962566669551	-0.014630580337843	-0.00309451333519871	-0.000553518615575236	-0.00310516881233123	-0.00055651595585274	0.00126817433744247	-0.00656718051023353
6.7	-3.65692519812569E-05	-0.0148430569361458	-0.00313908392979197	-0.000120526522773226	-0.00313804214823359	-0.000114296435932945	-0.000882809720173014	-0.00744353846810111
6.8	-0.00106919231387002	-0.0147978797557722	-0.003125042299121	0.000326759630832513	-0.00312413766230998	0.000331514218589319	-0.00325357786498175	-0.00771175239003881
6.9	-0.00211926452630782	-0.0144737685527733	-0.00304369577657631	0.000756943322993468	-0.00304411818503595	0.000761922517155644	-0.00568385119823015	-0.00724893721641727
7	-0.00243060267089804	-0.0138772438393372	-0.00291221963617829	0.0011750936573634	-0.00291363092940896	0.00117830612549646	-0.00770545267613426	-0.00602274138991875
7.1	-0.00302918151224737	-0.0143122800698238	-0.00271514793164121	0.00157104726517226	-0.00271756807206066	0.00158204645757935	-0.00946910388942224	-0.00456687350702131
7.2	-0.00427309497896053	-0.0143102403472766	-0.00247614931836828	0.00193200744418766	-0.00247633376306225	0.00193789390988747	-0.0108162808043168	-0.00245502959628567
7.3	-0.00565777336045955	-0.0139802136620231	-0.0021864292077709	0.00225694307753783	-0.00218367151856284	0.00225841582895312	-0.01142694359668	-0.000191148926974266
7.4	-0.00728963520911424	-0.0132503891136867	-0.00184425121330085	0.0025405092851421	-0.001837048349984	0.0025470226767498	-0.011627033917636	0.00192339083954464
7.5	-0.00828472404313641	-0.0116615652900428	-0.00146864828763598	0.00277371027597563	-0.00146968356654364	0.00277169891031591	-0.0111870126379393	0.00420608781479856
7.6	-0.00851375622856206	-0.0110169895625829	-0.00107747041274528	0.00295198835388825	-0.00106684361066003	0.00296233579840473	-0.0100617410204694	0.00585384365654205
7.7	-0.00918510412853052	-0.0104164671968704	-0.000648710782186187	0.00307685778173064	-0.000643153796583428	0.00307651645412128	-0.00890452499154523	0.00699999859418187
7.8	-0.00950912087808219	-0.00998221006802869	-0.000203151227707782	0.0031384428593253	-0.000216768095816225	0.00313135742530526	-0.00761938758565814	0.00805108757952583
7.9	-0.00968509067050316	-0.0095348779279047	0.000219488265824208	0.0031253136886508	0.000230561887840309	0.00312502418375192	-0.00616114687374167	0.00917459339730015
8	-0.00905712416550327	-0.00943774962351843	0.000653458775827483	0.00307257240346671	0.000661746989584797	0.0030705148236753	-0.00417390721548067	0.0101768206081523
8.1	-0.00938644434899774	-0.0101975903222251	0.001086723541492	0.00295032477877582	0.00108444869861715	0.0029470698578294	-0.00211728395269238	0.010578095866179
8.2	-0.0102922389178438	-0.010286234875896	0.00147881912382197	0.00276871445998961	0.00147798150719407	0.00278029250091934	0.000132911516607427	0.0107435752357359
8.3	-0.011253741184494	-0.00997102876675838	0.00185174737717942	0.00253721230837768	0.00185682457836265	0.00253463611314971	0.00244037542737022	0.0103441849432259
8.4	-0.012246766924017	-0.00909567479951149	0.00219921628158475	0.00225811147986238	0.00218805469440496	0.00225849169345283	0.00447441938003076	0.0094296851390594
8.5	-0.0123241475597651	-0.00783483256961735	0.00249826390953479	0.00192245988680696	0.00249827150374185	0.00192381103524196	0.0064215957224779	0.008282670928094
8.6	-0.0124934594911207	-0.00765389338962641	0.0027293029709803	0.00156109035877082	0.00272509502459507	0.00155877835404318	0.00802224028569539	0.00632625790279064
8.7	-0.0132147032176856	-0.00708783334137659	0.00291939153489874	0.0011626928139428	0.00291822952362308	0.00116228057508906	0.00906828243932769	0.00416624808653265
8.8	-0.0138765214162977	-0.00621780267249327	0.0030494793141558	0.000744575376818533	0.00306046060929165	0.000742482835436528	0.00962260137430889	0.00165986097444209
8.9	-0.0144337093714482	-0.00502191863659029	0.00312472353631225	0.000313357406073696	0.00313408551922024	0.000306226705369259	0.00961330586062444	-0.000911046893658952
9	-0.0140187371907432	-0.00351649262313985	0.00313637670885937	-0.000136225076494513	0.00314314574518554	-0.000130619972641654	0.00925986254430099	-0.003254448900089
9.1	-0.0133265585502499	-0.0031630962732251	0.00308939608763943	-0.00056669536196986	0.00308961400542613	-0.000566887387077957	0.00847539901511932	-0.00581536940378614
9.2	-0.0129348141617709	-0.00282486640815049	0.00297605602155592	-0.000988004315434782	0.00297987527861863	-0.000987774802940343	0.00714847227575675	-0.00814002038183785
9.3	-0.012504354606765	-0.00266948207357172	0.00280477076345063	-0.00139793951018095	0.00282281851320689	-0.00139834933556761	0.00534027094074495	-0.0103007992645538
9.4	-0.0122995272660781	-0.00258614791178458	0.00258664372611568	-0.0017710144344811	0.00258997836615135	-0.00178203472205163	0.00281065807597202	-0.0121530131854647
9.5	-0.011757476792785	-0.0023946030977528	0.00231620762165265	-0.00212512085553253	0.0023309980305701	-0.0021257529758307	-0.000134721297656473	-0.0132056395164624
9.6	-0.0120286479425172	-0.00303128434862478	0.00200001176785549	-0.00242859330830576	0.00200031715415206	-0.00242157563090706	-0.00372964467411847	-0.0138103245362929
9.7	-0.0128263837510993	-0.00285373923934134	0.00163838878995717	-0.00268442773775843	0.00164669286701444	-0.0026859978934261	-0.00745141557643351	-0.0132670011069593
9.8	-0.0135523587973355	-0.00227948156092082	0.0012543823682185	-0.00288138102183256	0.00125257501862599	-0.00289003779790248	-0.0109707277804358	-0.0119677462977438
9.9	-0.0142400277130051	-0.00116562113999812	0.000845334365325024	-0.00302776636601298	0.000833456080233397	-0.00303041702573945	-0.0144622937405863	-0.00987622213059383
10	-0.0139431804296203	0.000219545934056225	0.000412936744431255	-0.00311012395843011	0.000412143808220571	-0.00311745511507045	-0.017290899147151	-0.00687270746770937
10.1	-0.0137090396919348	0.000495326562701677	-2.39812251856897E-05	-0.00314896143504465	-2.86270169716922E-05	-0.00315174615650333	-0.0196015648191221	-0.00360797314043936
10.2	-0.0139816520966941	0.0011467052046795	-0.000465437225935398	-0.00310969428584127	-0.000478053237982899	-0.00311348763811881	-0.0212259074138391	0.000332462843250575
10.3	-0.0141500740683634	0.00213135901089654	-0.000898580771332177	-0.00300811549574456	-0.00089833611537178	-0.00302152836037884	-0.0219120293043771	0.00462469084934576
10.4	-0.0140759477899601	0.00351561359642741	-0.00130910175201821	-0.00286223544005201	-0.00131228308338133	-0.00286010738068954	-0.0216468149845381	0.00894145658779138
10.5	-0.0128140750908564	0.00506939144716975	-0.00169718510059502	-0.0026433414359153	-0.00170336629010139	-0.00265062330111821	-0.0202627854413391	0.0133879746716922
10.6	-0.0114244420598862	0.005362333885007	-0.00205712633501264	-0.00238391459990244	-0.00205862785536989	-0.00238903794723719	-0.0180234172688123	0.0172433864795182
10.7	-0.0102931887804735	0.00553657848000623	-0.0023643473535795	-0.00207060048042078	-0.00236755802392814	-0.0020866639789078	-0.0149481991353925	0.0208033991044315
10.8	-0.00939330842241301	0.00537833245161449	-0.00263212492265504	-0.00172235105311756	-0.00262918042993096	-0.0017245211793685	-0.0113250648499833	0.0236268741262452
10.9	-0.00895431084285488	0.00548511526334389	-0.00285085999999134	-0.00134291217538196	-0.00285013966339603	-0.00134804973535434	-0.00742191337377978	0.0258923908316321
11	-0.00764981807952728	0.00583357045425575	-0.00301265720432856	-0.000924075376719843	-0.00300562715701786	-0.000928379088776446	-0.00273598866829428	0.0277784860610655
11.1	-0.00678221686712223	0.00497077923504583	-0.00310711702260261	-0.000507923113758806	-0.00309936035893068	-0.000499614894744993	0.00230561661425752	0.0284619623565789
11.2	-0.00653140955660907	0.00446492949185652	-0.00314803233943705	-6.54791296789798E-05	-0.00315464173296426	-6.22616175911202E-05	0.00770064918987504	0.0283425703075559
11.3	-0.00632503235087686	0.00413439016304029	-0.0031251586496563	0.000377063974879357	-0.00312833088002046	0.000374896998143039	0.0133385732325465	0.0270441316530101
11.4	-0.00634115222914671	0.00407519595613658	-0.00303682575182075	0.000809377167922965	-0.00304146320475752	0.000809535018764062	0.0185418644477741	0.0244269857407043
11.5	-0.0055559239029681	0.00416827278843184	-0.00290304032265415	0.00121615430501109	-0.00289551402762739	0.001220912035786	0.0232461216134609	0.0207954036448368
11.6	-0.0052552777498105	0.00311867715772345	-0.00270202587477967	0.00161143445092422	-0.00271015606385087	0.00162115715809146	0.02704215497892	0.015847573022844
11.7	-0.00566120923697202	0.00266163345258339	-0.00244720121161548	0.00198031340330694	-0.0024489527984713	0.00198401372019868	0.029785489703491	0.0103365411598639
11.8	-0.00598413818588434	0.00281148209285531	-0.00214672326487108	0.00230507449238743	-0.00215593959519134	0.00231490077018975	0.0314358848547828	0.00443048572187335
11.9	-0.00581357725758788	0.00357285836265995	-0.00180608550707429	0.00257671096725221	-0.0018061131196514	0.00258328240797698	0.0318007967270979	-0.00129206516942852
12	-0.00414687175944628	0.00413100151742314	-0.00142755249703566	0.0028031946303316	-0.00143205562257338	0.00280599004756821	0.0316296467259781	-0.00679455922550482
