# GHZ S RI R 50
0.2	-0.0140628339806204	0.00506024970938212	0.00304599364253866	-0.00088502699562346	0.00305645774022969	-0.000884872554571444	0.00579348101327776	0.00061572295289629
0.3	-0.0131779944488879	0.00567614875221188	0.00290012172395795	-0.00130122817265738	0.00289383624991469	-0.00131287751796686	0.00617686618657993	-0.00153062257395611
0.4	-0.0124402118430303	0.00650280167417954	0.00268632747810584	-0.00169580577106598	0.00268422138467205	-0.00169771957196297	0.00573017529649447	-0.0032511145468827
0.5	-0.0114543934058759	0.00729527652122633	0.00241661689215626	-0.00205377391548109	0.00241943346881014	-0.00205750234720132	0.00510991333357825	-0.00470808601973325
0.6	-0.0108129888815312	0.00767865382645475	0.00210330020447843	-0.00237408550824323	0.00210255632708727	-0.00237692954758675	0.00380243059071821	-0.00630593694650935
0.7	-0.0104025137967705	0.00840549422113859	0.0017526134916322	-0.00264424377489218	0.00175882354224309	-0.00264833951395013	0.00201122232768234	-0.00712907179999286
0.8	-0.00979557957362054	0.00918581198377741	0.00135888962732536	-0.00286459982150664	0.00136716813476012	-0.00286300258808552	0.000147330575734576	-0.00741759116568689
0.9	-0.00933447317131721	0.0100017880116879	0.000953769465353823	-0.00301710807793103	0.000953748542525152	-0.00302653110658456	-0.00180537940565964	-0.00721226776285172
1	-0.00849054760080618	0.0112375735293332	0.000519675334332161	-0.00312474175567631	0.000519524568401533	-0.00313010142878517	-0.00338492840974995	-0.00612871351968427
1.1	-0.00733425235537896	0.0115445849119629	7.27045657732671E-05	-0.00316413911182402	7.35917990587356E-05	-0.00316886803389609	-0.00448926794714197	-0.00533832898434741
1.2	-0.00674077662341341	0.0116429830298391	-0.000366464193671402	-0.00313734482106015	-0.000365241522458489	-0.00315415021091732	-0.00546837741553651	-0.00407554539150962
1.3	-0.00622524792297692	0.0113854943685935	-0.00079828029815719	-0.00306290914674848	-0.000803224545193546	-0.00307056775147412	-0.00541560060027265	-0.00276224465098643
1.4	-0.00594693093499979	0.0108573183029552	-0.00122473472714153	-0.00291693651582036	-0.00122715539736041	-0.00292406900452855	-0.0050508601245412	-0.00209520471830115
1.5	-0.00520204053449758	0.010706399557653	-0.00161540384383236	-0.00271813200281311	-0.0016134328879574	-0.00272367583465075	-0.00455035775323946	-0.00160562231611885
1.6	-0.00482485619441819	0.0105957174287368	-0.00197905557164933	-0.00246282583054502	-0.0019825286501669	-0.0024637052035599	-0.00506480935412633	-0.000985370475847825
1.7	-0.00418750186841812	0.0111777378116756	-0.00230491937419168	-0.00216765287833528	-0.00230697413623592	-0.00217624684033578	-0.00511766673569878	0.000518483300264037
1.8	-0.00331574280955199	0.0117779326173891	-0.00258184562527247	-0.00181741216587293	-0.00258702954744115	-0.0018228733428122	-0.00467831720565936	0.00191192279474819
1.9	-0.00239107100812378	0.0123237190115773	-0.0028068241434862	-0.00144777069200241	-0.00280330751779552	-0.00144158006661691	-0.00391837293593751	0.00329250792650199
2	-0.000844729376532753	0.0127721198023154	-0.00298296719221155	-0.00103685143084143	-0.00298570741271523	-0.00103000018487959	-0.00233589777363954	0.00450377910985027
2.1	0.000220511897112933	0.012108236019679	-0.00309892452510437	-0.000602427104828173	-0.00310103450053365	-0.000609127894008627	-0.000888228914712882	0.00449174805851779
2.2	0.000749145906156766	0.0119083749955417	-0.00315130365222604	-0.000170382760131617	-0.00315310768004074	-0.000160647481319746	0.000471183002333613	0.00453357479795547
2.3	0.00118924622593317	0.0117298164171097	-0.00314223727100704	0.000272076723853323	-0.00314900084391425	0.000269172307633376	0.00184990329433807	0.00412457896038671
2.4	0.00142145965043318	0.0118184336820788	-0.00308206511561358	0.000706896313138781	-0.00308087563122692	0.000722026741865459	0.00302313453264252	0.00352120465070073
2.5	0.002196748785359	0.0124557337158372	-0.00294636893926105	0.00114136668503431	-0.00295938576382004	0.0011426892420373	0.0045080133779055	0.00295988751465221
2.6	0.00338988871732872	0.0121844467278945	-0.00275296587563351	0.00153641224903193	-0.00277389179208214	0.00154037039010117	0.00602641598376719	0.00120414512002633
2.7	0.00426946083668497	0.0118991466464405	-0.00251996016408518	0.00190445285753225	-0.00252022956299935	0.00190954178134411	0.00675234028810885	-0.000804016529319273
2.8	0.00513450523224123	0.0115204672432148	-0.00222425791309467	0.00222919498109263	-0.00223407561679217	0.0022404154723002	0.00690484334147922	-0.00289498690937061
2.9	0.00598003653618218	0.011261896711311	-0.00188646172852892	0.00252256262622282	-0.0018845120178217	0.002531473679067	0.00662319541571144	-0.00465523887773203
3	0.00745786332179342	0.0109263329736761	-0.00151226837132022	0.00276378211129497	-0.00152738775097852	0.00275078666268512	0.00661043244373752	-0.00622624512337077
3.1	0.00842687156563496	0.00970908740430239	-0.00111461181581258	0.002944337812378	-0.00113153905830774	0.0029497789093831	0.00586809702427331	-0.00846944800204342
3.2	0.00896170947623559	0.0088521794750761	-0.000695391117002414	0.00306901798910822	-0.000691099098045981	0.00307981491380969	0.00437912599461448	-0.0101153570514647
3.3	0.00940660488927447	0.00796085731443402	-0.000265312778686831	0.00313952570677767	-0.000262024920417285	0.00313513841968958	0.00265490510159739	-0.0115763471176091
3.4	0.0096151662948922	0.00725458254854977	0.000180916641728753	0.00314533052691707	0.00017149632588328	0.00314643446536749	0.000543721069659612	-0.0127338165010773
3.5	0.0103353031949774	0.00675452712811436	0.000611529686541996	0.00308610860386441	0.00061652891228625	0.00308477027631654	-0.00141661858135134	-0.0134966690685264
3.6	0.0105821479781693	0.00533548739517653	0.00103058974124564	0.00296780471855677	0.00103719015589411	0.00297128364877239	-0.00405898373681958	-0.0145687342566932
3.7	0.0102441078287048	0.00460173187264631	0.00144730479397681	0.00279051935880324	0.00144559245983857	0.00280688210138266	-0.00719641749352461	-0.0144998925211701
3.8	0.0100651115513305	0.00427089762252602	0.00181445792453976	0.00256275856323122	0.00182506070919105	0.00256908373943191	-0.0102258993123256	-0.0136803963806152
3.9	0.010163802383953	0.00435674377255238	0.00215944356950612	0.00228445019864582	0.0021548513455923	0.00228436134839294	-0.0130314811859935	-0.0119732445027789
4	0.0114845595862643	0.00445890012019316	0.00245035797997741	0.00196827816210796	0.00246179746010924	0.0019744054579576	-0.0145465279142722	-0.00963816727044542
4.1	0.0124859276623568	0.00289420215349096	0.00270368302625098	0.00160011429405688	0.00272025801064312	0.00160986069103313	-0.0159334795320695	-0.00814532454241961
4.2	0.0126361441166725	0.00160106803210973	0.00290372535711248	0.00120256788007171	0.00290496149957466	0.00120484981571217	-0.0175069416998384	-0.00600528204942417
4.3	0.0125604663279549	0.000533071640377669	0.00304522949480673	0.000795262267119405	0.00304642703042538	0.000803836008316936	-0.0186857536991539	-0.00357305929613546
4.4	0.0122480169774251	-0.000222943557688073	0.0031244420043195	0.000361400095469969	0.00313235173413224	0.000356757952808163	-0.0195890177633686	-0.000673858850507978
4.5	0.0127141591403292	-0.000542191893053272	0.00314922690985009	-8.56921539355928E-05	0.00314604173930939	-8.34241382883496E-05	-0.0192050839526951	0.0026542096022015
4.6	0.0128471661382956	-0.00221075001733487	0.00309144580151284	-0.000531888529011557	0.00310448826643271	-0.000519954257875712	-0.0185344343358112	0.00472511498245213
4.7	0.0123136304916734	-0.00328147125925431	0.00298830462396805	-0.000942556026474723	0.0029881925389844	-0.000951974807739985	-0.0180102575586706	0.00706565334894804
4.8	0.0117264479707001	-0.00419049831215506	0.00283940629222718	-0.00134375302892324	0.00283173782716417	-0.00136388765277367	-0.0169821619525817	0.00944292496118408
4.9	0.011142944388405	-0.0047342203345876	0.00262367126093704	-0.00174127950678864	0.00261762309332611	-0.00173283900108724	-0.0155656291725884	0.0118147359997179
5	0.011460789788804	-0.00513514126193971	0.00234410135165977	-0.00207161432402474	0.00234681359535906	-0.00208401177527548	-0.0127865794271678	0.014040871806961
5.1	0.0111799646111804	-0.00671159113325406	0.00202476266951612	-0.00239021878052723	0.00203795195543318	-0.00238775824531864	-0.0102336132594139	0.0147739022974527
5.2	0.0104042135864446	-0.00741451953657312	0.00168435943055174	-0.00264670003833393	0.00168485700956798	-0.00265085073321001	-0.0077662370918056	0.0157714895610821
5.3	0.00999325749671603	-0.0078402037550972	0.00129528603646271	-0.00285754564704	0.00129154955143601	-0.00286010904524545	-0.00481204342571599	0.0164033877668468
5.4	0.00974210593529573	-0.00815417459505068	0.000884289998426458	-0.00301464444379014	0.000883402748084124	-0.00301709500170562	-0.0016861410654263	0.0163635620119325
5.5	0.0104752845128798	-0.00867118415625824	0.000450374947000864	-0.00310539082619619	0.000462903472442208	-0.00310536391742076	0.00204343229491724	0.0153905608193033
5.6	0.00976376011920279	-0.0108847393100797	2.04268081279591E-05	-0.00313934503116613	1.71341251170787E-05	-0.00313590036241321	0.00402029080644372	0.0125940923982997
5.7	0.00800241352265377	-0.0116810723330268	-0.000412336729687384	-0.00311453199423718	-0.000416040956198024	-0.00311821572932592	0.00488413350523724	0.0107282008206431
5.8	0.00642629755936413	-0.0118491853784893	-0.00084605059135349	-0.0030245939460066	-0.000845315083490869	-0.00303225731871542	0.00556815323617688	0.00887707599551298
5.9	0.00475530125293427	-0.0112173129162378	-0.00126003182934639	-0.00287265324914166	-0.00125842938843671	-0.00287679073071974	0.00558913659522857	0.00735792030020723
6	0.0047397421475811	-0.00950185733650396	-0.0016475675784543	-0.00267332691601583	-0.00164157811083687	-0.00267665639103054	0.00639780293906616	0.00679137311421636
6.1	0.00545702518916039	-0.0101267337285373	-0.0020093999401963	-0.00242220230124327	-0.00200525615494058	-0.00242695846083299	0.00746104433270254	0.00432242870303341
6.2	0.00521636065565777	-0.0109585868296944	-0.00232855663582612	-0.00210600282097002	-0.00232497643034188	-0.00211465050899549	0.00745070776883045	0.00181687301191728
6.3	0.00464612611201442	-0.0120528401894531	-0.00259504829205017	-0.00176838366515845	-0.0026048362148057	-0.00177614338640721	0.00686046773347082	-0.000932695585824103
6.4	0.00341022985914169	-0.0127267774579268	-0.00282323879603895	-0.00138651201679576	-0.00282123989883167	-0.00139229748227437	0.00541518036353537	-0.00318402684452547
6.5	0.00333091286609594	-0.0132636924855391	-0.00299264957950002	-0.000982602271884188	-0.00299305429720865	-0.000981480349978412	0.00463522886786281	-0.00511218906903363
6.6	0.00173550569721257	-0.014693299702362	-0.00309349087748611	-0.000555896654567672	-0.00310414195872934	-0.000558901979316937	0.00218077036852157	-0.00753082587240422
6.7	0.000232707051767855	-0.0146229195906259	-0.00313831591565361	-0.00012454323935517	-0.00313728235614959	-0.000118313028174879	-0.000521944584928228	-0.00820006005244315
6.8	-0.0009180253808019	-0.01450167926106	-0.00312592778440143	0.000322244872107979	-0.003125029963313	0.000327001401273311	-0.00315578542144585	-0.00836151056820908
6.9	-0.00224984999914683	-0.0138854489953964	-0.00304614907719644	0.000753964465617405	-0.00304657723881489	0.000758945828936077	-0.00593995877937761	-0.00747807656853522
7	-0.00172617399525862	-0.0129242064893306	-0.00291201712698201	0.00117300259476984	-0.0029134298904394	0.00117621323293684	-0.00693900537560781	-0.00580151079992599
7.1	-0.00250495364744427	-0.014444157536961	-0.00271667075604828	0.00156608361131176	-0.0027191077341386	0.00157707480584839	-0.00882492262360192	-0.0056906002318117
7.2	-0.00441759842248128	-0.0144949893589049	-0.00247982542746076	0.00192807944065674	-0.00248001994318014	0.00193396649504365	-0.0110390797206119	-0.00379121613226883
7.3	-0.00628056123681882	-0.0140476324305454	-0.002190586215321	0.00225449981447667	-0.00218782972384647	0.00225597721125154	-0.0124023598477452	-0.00142250732231181
7.4	-0.00859165940737402	-0.0129095584185342	-0.00184747635931899	0.00253836886196666	-0.00184028114700483	0.00254489146396415	-0.0135694422537703	0.00131593644847602
7.5	-0.00921325316285832	-0.0101093575925107	-0.00147468572124169	0.00276949803662529	-0.00147571602149897	0.00276748483591555	-0.0127773428663201	0.00524190276154564
7.6	-0.00903398028505741	-0.00984709917794312	-0.00108575772637457	0.00295215706219514	-0.0010751462229312	0.00296254051538127	-0.0110884062512488	0.00665974986090825
7.7	-0.0098939160117639	-0.00902368122915485	-0.000655557086657373	0.00307936305864239	-0.000649992601890494	0.00307903223684975	-0.00998028172859207	0.00811373082310859
7.8	-0.0101058996558061	-0.00826602532650921	-0.000208920272606353	0.00314184434873235	-0.000222540975742735	0.00313472645330529	-0.00844423084991511	0.00956103045073712
7.9	-0.0100167931908286	-0.00731809542541141	0.000213309150498382	0.00312915125917491	0.00022439536744974	0.00312888417718546	-0.00641092662845409	0.0112629268845784
8	-0.00805663429871631	-0.00729730989045875	0.000647760952983214	0.00308131835303	0.000656073452761906	0.00307927545123195	-0.00283338280362471	0.0120767239826785
8.1	-0.00858552860294059	-0.0091209001490167	0.00108645852718421	0.00295894132254153	0.0010841812411467	0.00295567579121099	-0.000815964150324654	0.0109401842535598
8.2	-0.00975849951881543	-0.00926245382614455	0.00147985902212593	0.00277552890875329	0.00147901121211925	0.00278713031606357	0.000997288150081688	0.0108167952223151
8.3	-0.0107850972958325	-0.00901096042116465	0.00185311770042564	0.00254360167206469	0.00185820673103934	0.00254102488069208	0.00306817274233224	0.010282986961476
8.4	-0.0119860375878751	-0.00797422051633692	0.00220191555160068	0.00226579508144496	0.00219072739094705	0.00226616405056316	0.00478103290092731	0.00961515353546188
8.5	-0.0111314238855066	-0.00643845706229352	0.00250580403959096	0.00192772868749116	0.00250581183716289	0.00192908377342747	0.00785577339205139	0.00880824836964347
8.6	-0.011379605144493	-0.00755745710605333	0.00273469595473535	0.00156294207747048	0.00273047972589888	0.00156062738675008	0.00942811564909483	0.00523642403794188
8.7	-0.0128209889564861	-0.00724341400128335	0.00292442178652306	0.00116488437280742	0.00292325777024289	0.00116447134986562	0.00953073620893113	0.00262656163269738
8.8	-0.0140433574444808	-0.00632425427915101	0.00305569304325648	0.000746328206268868	0.00306669706242839	0.000744232164641243	0.00921656473945245	0.000147362547436409
8.9	-0.0152488225782662	-0.0046672981472716	0.00313249223445254	0.000312444486329319	0.00314187316713048	0.00030529142171715	0.00827480571421809	-0.00175753912583619
9	-0.0143028579826733	-0.00223490965058473	0.003140038980549	-0.000140327756786342	0.00314682332433574	-0.000134724297621798	0.0084644952400306	-0.00282612566933082
9.1	-0.0135012062577777	-0.0022521286512854	0.0030928775612515	-0.00056772034759035	0.00309309570622784	-0.00056791261972898	0.00793964901338102	-0.00565705185818803
9.2	-0.013133719578474	-0.00158211240399311	0.00298094440426002	-0.000990313183922503	0.0029847702456303	-0.000990084071574734	0.00667914958167552	-0.00758597740716627
9.3	-0.0123594733055401	-0.00130929743792887	0.0028089890644471	-0.00140246585705548	0.00282706990083751	-0.00140288893352599	0.00533325803266277	-0.00958587274199894
9.4	-0.012001613840192	-0.00119837605083086	0.00258764921380233	-0.00177651981364306	0.00259097407258928	-0.00178755817995187	0.00310215843494382	-0.0113808547174213
9.5	-0.0105659534105561	-0.00126519084641835	0.00231738238140679	-0.00212661512706785	0.00233218155413615	-0.00212724906924646	0.00137772565385197	-0.0127484060911184
9.6	-0.0114717859149948	-0.00305474661422754	0.00200321571135351	-0.00243328787614468	0.00200352278607594	-0.00242625762106361	-0.00278684600922687	-0.0149324551540417
9.7	-0.0130502138885244	-0.00279608853536868	0.00163907006564738	-0.00269055166550989	0.00164738757960314	-0.00269213149560895	-0.00751834567640935	-0.0145351139066737
9.8	-0.0143024560404834	-0.00195076353435662	0.00125295330813285	-0.00288668556353948	0.00125113404802972	-0.00289535219388986	-0.0118298385767861	-0.0129880166116024
9.9	-0.0155456245090075	-0.000122366660547734	0.000844123121374452	-0.0030309976449902	0.000832232591196128	-0.0030336429629401	-0.0160813454129709	-0.00997855758630827
10	-0.0143626174964574	0.00225766171352072	0.000413255517803265	-0.00311677122362501	0.000412459599651009	-0.003124117734567	-0.017886383922602	-0.005739413932725
10.1	-0.0138633436128286	0.00197510133945888	-2.88746217946151E-05	-0.00315521787931	-3.35339834757683E-05	-0.00315800101719406	-0.0198094481591048	-0.00314131909666454
10.2	-0.0141650241231988	0.00273657832414796	-0.000470953859531858	-0.00311306402793419	-0.000483592499434175	-0.00311684249651882	-0.0215536731705605	0.000846455706153868
10.3	-0.0142874343755943	0.00371524234118541	-0.000903249513845821	-0.00301049569638132	-0.000903020777122096	-0.00302392430946888	-0.0223286880288658	0.00520121386200855
10.4	-0.0144623811513877	0.00543668406499027	-0.00131389799662169	-0.00286631827054922	-0.00131708329670726	-0.00286418366025043	-0.0223796916928656	0.0101136863277827
10.5	-0.012264751484582	0.00759788931689654	-0.00170793190708657	-0.00264580885164947	-0.00171414648069371	-0.00265309381788708	-0.0197168110810859	0.0154290568254621
10.6	-0.0105135720269749	0.00729723908313415	-0.00206605893986286	-0.00238060517985035	-0.00206757656989013	-0.00238572968972954	-0.0168000077514564	0.0185086378684125
10.7	-0.00904747978950714	0.00721101309119767	-0.0023712707493434	-0.00206630331464731	-0.00237452368474502	-0.00208237100163782	-0.0132696888671747	0.021600412610321
10.8	-0.00811108523981057	0.00638883885765227	-0.00263854459798337	-0.00171734952909401	-0.00263560295279749	-0.00171952867999543	-0.00959769695025769	0.0235588078002528
10.9	-0.00820694846067021	0.00634474117786457	-0.00285793301737525	-0.00133530261165008	-0.0028572280962868	-0.00134044757914567	-0.00623162387087858	0.0256142338068199
11	-0.00622516682875349	0.00685439075381523	-0.00301388710876915	-0.000911963458573301	-0.00300687866907317	-0.000916290563076369	-0.000675114169518185	0.0275282737732666
11.1	-0.00580750675595959	0.00485967657957042	-0.00310520680353865	-0.000500123829308484	-0.00309743838577256	-0.000491842109863009	0.00386879062290307	0.0266319012435329
11.2	-0.00629242505942154	0.00433740854840554	-0.00314626541068942	-5.82198648036161E-05	-0.00315286340051821	-5.49891547492636E-05	0.008201808670478	0.0262249026803325
11.3	-0.00656291708091894	0.00416338886256018	-0.00312199638002314	0.000385044435388089	-0.00312517212487118	0.000382887328009138	0.0129285320835404	0.0250388257387502
11.4	-0.0070990627349929	0.00459513063922523	-0.00302960521641608	0.000817255640334408	-0.00303423489245203	0.000817427219468355	0.0172477283736004	0.0230976163984224
11.5	-0.00548609918570772	0.00520597921009012	-0.00289445231966876	0.0012170834935514	-0.00288693779550931	0.00122181980957937	0.0227835500571189	0.0202698407791592
11.6	-0.005553840397747	0.00324665891109284	-0.002697087606365	0.00161296473014625	-0.00270519698168815	0.00162268668532676	0.0261484840989386	0.0143714480055844
11.7	-0.00672732730056483	0.00299675579797003	-0.00244071629761117	0.00198213066616011	-0.00244245926020194	0.00198582945699902	0.0278666875238187	0.0091949828525835
11.8	-0.00761889200049188	0.00370952488268984	-0.00213873242041311	0.0023046986508718	-0.00214791456857541	0.0023145234418235	0.0287627091276334	0.00421234144985686
11.9	-0.00777787441684355	0.00576120281278412	-0.00179932580870267	0.00257193657946526	-0.00179934751635879	0.00257849177725132	0.0288490151490045	0.000390119093874992
12	-0.00430131015037749	0.00736807293629925	-0.00142595123869793	0.00280071064724089	-0.0014304498891665	0.00280350388090424	0.0311828225458614	-0.00374969310067207
