# GHZ S RI R 50
0.2	-0.967386090460375	0.250742866452473	8.82843121799207E-06	5.33639204898624E-06	1.14105496493497E-06	-2.89207330610679E-06	1.00090344835912	-0.00599570516629544
0.3	-0.928578829542955	0.370668200181946	-7.67417205608495E-06	-8.29817538795483E-07	-1.90311774099411E-08	3.66563630759692E-06	1.00114980444948	-0.00880658250623356
0.4	-0.874595863336303	0.484935028183633	-2.21163015991273E-06	6.35161983565651E-06	2.91922932614429E-06	5.7536725169244E-06	1.00173374986568	-0.0114340591154431
0.5	-0.806228655279946	0.592281131611729	-2.65669697657704E-06	5.49877520122898E-07	1.05492119757563E-05	4.90133954175001E-06	1.00182330881253	-0.0157152992671941
0.6	-0.724417431351477	0.688668687666834	-1.72875137379094E-06	-1.86770718819598E-08	4.17384003561106E-06	-1.03560697947078E-05	1.0007450563378	-0.0183131053915374
0.7	-0.632078124149156	0.774418499550685	-2.05205524829914E-06	9.89250190401708E-07	3.78497950138116E-06	1.11867849915373E-05	1.0006410837766	-0.020578772693434
0.8	-0.529406463457544	0.848174690912528	-5.62175986856042E-06	3.7875801161303E-06	-3.17427767413539E-06	-2.14641421574876E-06	1.00083545743243	-0.0224580909761455
0.9	-0.418386078673762	0.908187672816137	-6.74618469015947E-07	5.26373611557183E-06	3.27533673846739E-06	-2.92947063435989E-07	1.00131065940069	-0.0244780157447357
1	-0.300221790377802	0.953834590926686	1.57441477230108E-05	-3.68447022898151E-06	-9.63264561487293E-06	5.1948844795097E-07	1.00260670660845	-0.0263337284176593
1.1	-0.178084656508779	0.983951116239781	1.34784880350431E-06	-2.99409780730468E-06	9.43326609984901E-06	1.26489723112886E-05	1.00232197518387	-0.0299030746895782
1.2	-0.0522360604739519	0.998408927786451	-7.94009912385634E-06	-3.26865687116965E-06	-3.1112791283742E-06	-4.49469124561785E-06	1.00120306869945	-0.031232660458268
1.3	0.0745274060990907	0.996607029254379	1.81598358965829E-07	3.3453785684991E-06	1.93593170039518E-06	3.40836775075145E-07	1.00080415801178	-0.0322815912364869
1.4	0.199438679773497	0.978641661855323	2.56554980405228E-08	3.77732713658013E-06	-2.53889229194339E-06	-5.62755302378818E-06	0.999954490939565	-0.0339546584829686
1.5	0.321450462998228	0.945779909620196	3.1947777770673E-06	-2.69846505505264E-07	2.7107168728322E-06	2.09770601344602E-06	1.00080776881426	-0.0374173528628197
1.6	0.437921955915681	0.897484813370731	1.78938044902881E-06	-1.94556674125641E-06	-8.99071224172437E-07	-3.06915700528192E-06	0.999804889097137	-0.041049693765471
1.7	0.547092712500007	0.835059343440649	-8.93504573625032E-08	-3.5324754985779E-06	2.0147337289949E-06	4.93519845945619E-06	1.00034435859543	-0.0434350958969093
1.8	0.647334706724205	0.759899530357797	-2.06372286578067E-06	-1.81620003255589E-06	-4.63317838156331E-06	1.83632508749783E-05	1.0003654502311	-0.0461449526844433
1.9	0.737122676086224	0.673545209838038	-4.40072574968409E-06	-1.47019745125761E-06	-4.93817649013719E-06	-6.01738990033897E-06	1.00073729203386	-0.0477565274042416
2	0.817748386826522	0.576709583727759	-9.51336329558305E-08	-6.77493131063809E-07	-1.67629319497451E-06	-1.42513161163396E-06	1.00294367768198	-0.051468930252435
2.1	0.884296003277595	0.466301644314692	-1.12128497888141E-06	9.49719931685232E-06	2.00317304855183E-06	-3.87463909344811E-07	1.00147244999994	-0.0564874223395085
2.2	0.934805070682783	0.351040656328183	-4.18383442639311E-08	-5.95239448169717E-06	-7.3090906024008E-07	2.75029587477972E-06	1.00027947856757	-0.0588897924292756
2.3	0.97087135974469	0.230691511617065	-1.31059060079822E-06	2.78012173370426E-06	-2.30690913694482E-07	1.20164912454434E-05	0.9996255152388	-0.0606348767737233
2.4	0.991792010666934	0.106079094586666	-5.90666725320396E-06	-3.69731823184788E-06	-1.75950327066855E-05	1.46422733494256E-05	0.999479848547093	-0.0637353635189813
2.5	0.997690974286649	-0.0195352279968151	1.81201634722251E-06	-2.97749040505716E-06	-1.76605960902719E-06	7.57405612674761E-06	0.999272337539948	-0.0664465142693421
2.6	0.987171326277238	-0.144293164601149	2.87409088564648E-06	9.12122090606552E-07	-1.74122719865884E-06	4.52236290021709E-06	0.998670254492401	-0.0698711121598598
2.7	0.960841401477702	-0.267203912135163	3.88046222947231E-06	1.04660015226415E-05	2.34723936508048E-06	3.87215630816432E-06	0.997902295371988	-0.0731698382507035
2.8	0.919083158658752	-0.38588916912443	-8.2788233149581E-07	-2.29656159636196E-06	2.10622757453103E-07	-1.89551153167719E-06	0.997592358260711	-0.0754784638909225
2.9	0.863039688392549	-0.497602341103652	3.73075839336796E-06	-8.36386140921497E-06	-1.35922958899114E-06	-1.42609176410651E-05	0.996947398065523	-0.0776521072139919
3	0.793808203420113	-0.601753306524886	2.79379123179838E-08	6.66626332067E-06	-1.47755630735509E-05	5.40643913205982E-06	0.996682005870152	-0.0804302475559558
3.1	0.712859458415215	-0.69578340421984	-4.94494219558893E-06	7.87366315851577E-06	5.8213674676207E-06	-1.23084609290273E-07	0.995915825304991	-0.0828338324580396
3.2	0.618806707649396	-0.779715108609261	9.76430435142263E-07	2.12282298647794E-06	-4.56555250283172E-06	5.10185771728709E-07	0.995176607003327	-0.0847390059317883
3.3	0.515232271784889	-0.850791726131386	7.09781517998212E-07	-1.466233496481E-06	-4.58093173247056E-06	7.64799010592963E-07	0.994345624065367	-0.0881216259163531
3.4	0.40346610455771	-0.907110355990206	6.47007716449086E-06	1.89063922003121E-07	-8.18500287953794E-06	-7.12148093838114E-06	0.993466349246759	-0.0899328997149002
3.5	0.288408793960402	-0.950021396292943	-7.67986152585123E-06	2.00106193834194E-06	-5.93911257347678E-06	-7.94188824797704E-06	0.993294736940777	-0.0918312091280438
3.6	0.164852644541408	-0.980587149836933	-8.81039978528218E-07	-4.37725716643959E-06	-7.85201661805097E-06	-6.2897179766753E-06	0.993046144307795	-0.0948106411469159
3.7	0.0387353064617607	-0.993079065150318	-6.75472876601514E-06	-6.72713010506215E-06	4.98828715818932E-07	-4.7658130329024E-06	0.992268578142295	-0.097434077197045
3.8	-0.0872135851965542	-0.988900702969421	-3.6340067061141E-06	1.10400664138585E-06	-3.30864802517091E-06	-2.44357842821758E-06	0.99152278490794	-0.0990256462709898
3.9	-0.210167950395763	-0.9690959552216	-4.59918485954818E-07	3.50731485857177E-06	2.04495511671436E-06	-1.22947272463688E-06	0.991964543000334	-0.101326451318821
4	-0.329872309918238	-0.935317138276684	1.17315238423237E-05	8.04455245816477E-06	7.24050536582736E-06	-4.08720393612145E-06	0.993694679089688	-0.10412950336593
4.1	-0.444760475318762	-0.886239381764933	5.22045117151216E-06	1.28351345851997E-06	-3.40467004129816E-06	6.66845013806041E-06	0.991457510111328	-0.108090430155635
4.2	-0.551978473175633	-0.823471906276307	-7.09100129311826E-06	-1.14957035143582E-06	-8.24840852786536E-06	1.60637836771866E-08	0.989487660363244	-0.110281558420386
4.3	-0.650637190328701	-0.747451214485051	6.8485384168643E-07	-2.36656655022817E-06	5.20538506931175E-06	8.43655868868566E-07	0.988753293640982	-0.111856212448671
4.4	-0.73926333394768	-0.659190088657859	4.44906879716867E-06	-1.79874622933309E-06	-8.57097064422075E-07	1.34872735646886E-06	0.987978678744153	-0.114030800359154
4.5	-0.815652678263846	-0.559635379447035	6.77356072911813E-06	1.81193041543544E-06	-8.25001643173545E-07	-3.23960557345684E-06	0.987079012684935	-0.11665396849446
4.6	-0.878554016525175	-0.452521758677629	2.46292333931213E-06	2.92119518265201E-06	-6.49301915200359E-06	9.7419807081901E-06	0.985217956096495	-0.11860520119824
4.7	-0.928113260268398	-0.337607708760285	-1.39426428719702E-05	5.96778758996622E-06	-3.44415816163587E-06	-1.41037701843311E-08	0.984636188946955	-0.119766612717233
4.8	-0.962802356890983	-0.217490359495873	-3.1718583257435E-06	-5.09654999722704E-06	-5.47981322764591E-06	2.38224839838772E-06	0.983903348152395	-0.12158602384599
4.9	-0.981078740357157	-0.0937272797659875	-1.061321828716E-06	-8.49303925329788E-06	-4.19077107157195E-06	7.58313242022025E-07	0.983228221293101	-0.122773086179922
5	-0.981894115643636	0.0283665304452509	7.48582329402162E-06	-1.59207786318435E-06	-1.75102597395278E-06	-2.6931185696924E-06	0.982878272223119	-0.123949303783976
5.1	-0.9718589610676	0.150000058692673	-2.60186762028199E-06	-6.34000942162383E-06	-1.00741663830927E-06	-1.93595473181462E-06	0.982519325082153	-0.124834640432555
5.2	-0.946230698346664	0.271164913167411	3.96838600708926E-06	-4.44599311014037E-07	-5.38343100008338E-06	6.2790284653224E-06	0.98222185570296	-0.126545097654076
5.3	-0.905006294830554	0.388052052831309	5.11926965977876E-06	5.95113419306192E-06	-9.63315620564767E-07	-3.55833569615777E-06	0.981774378609646	-0.128618852656968
5.4	-0.84914701091125	0.498713475574399	3.03452622575787E-06	-2.009117892494E-06	-1.12245432802117E-05	2.21206780271602E-06	0.981038251434694	-0.130886690721445
5.5	-0.779300326308527	0.600712611817351	-4.32658886041761E-07	-2.17677585810218E-06	-5.73249017240643E-06	6.08825559798877E-06	0.980970180137822	-0.132569391371244
5.6	-0.697603371453406	0.692968014745459	2.37261603139657E-06	7.24434708765616E-06	-5.29422090120011E-07	2.90754906295416E-06	0.980613678104308	-0.135045578074752
5.7	-0.605407001792586	0.77491237628459	-2.54866985127561E-06	2.34484547013548E-06	7.8512778839249E-06	2.74861853887664E-06	0.979948618974109	-0.136643571207255
5.8	-0.503529049140574	0.844149012393312	-4.60964636118588E-06	5.06380124651073E-06	-3.6264518117251E-07	3.39473416517482E-06	0.979941858750971	-0.137704612073333
5.9	-0.394593048180496	0.900938249391125	6.30860732388187E-06	1.49522336789779E-06	-2.69422548089826E-06	2.52484688186155E-06	0.981036713800616	-0.138545088735068
6	-0.277829029283191	0.944979679194437	3.50543606165257E-06	3.28487126004191E-06	-3.26168247370322E-07	-1.42725705366295E-06	0.983756811369331	-0.142269987221211
6.1	-0.155838137208857	0.970554607034222	9.12278773561581E-06	1.49711488001205E-06	-1.30283907297264E-07	-1.79722225384689E-06	0.981373830799585	-0.14593351255612
6.2	-0.0333868905092938	0.981154344887877	2.4188077809475E-06	-1.72093951412825E-06	1.46183222944836E-06	-4.81162157059772E-06	0.979655685063055	-0.1466420772684
6.3	0.0891689040354867	0.977368404109569	-4.3226783851977E-06	4.21487665337243E-06	-6.11635096374477E-07	-1.71115005972185E-06	0.978856873899769	-0.147608973755919
6.4	0.211117523689434	0.95936556048521	-4.23225559676712E-06	1.06370164944906E-06	-1.7444099754483E-06	8.77758529957876E-06	0.978990448501195	-0.148938269010002
6.5	0.331586426904141	0.923395978353932	2.42734176376471E-06	-1.32233854229784E-06	1.46928059730645E-06	-2.90487046379302E-06	0.978004126622434	-0.152731894055757
6.6	0.441352148433944	0.873373577252601	-4.67724327152457E-06	-2.23669480074256E-06	-1.83320342587367E-06	-6.5667692409547E-06	0.976073619751372	-0.152953005897663
6.7	0.545834386824722	0.81252438871282	4.11951965341298E-06	-6.38066069048584E-07	-4.6284073297329E-06	9.82486730462372E-07	0.97656352829597	-0.153540855947359
6.8	0.642685407657599	0.738927284204822	3.72821637138437E-06	-2.03955310295946E-06	6.1540172279633E-06	-8.82842155167289E-07	0.976835105734431	-0.154822561504982
6.9	0.729886901862558	0.654023355085775	2.01811066404617E-06	1.63743060176186E-06	8.71399549773514E-06	-2.67613399932455E-06	0.97750339400148	-0.155863339842988
7	0.806754803563557	0.558209839442315	2.12929159286126E-06	4.07851873266241E-06	-1.27407474081868E-07	5.3400826352198E-06	0.97857599661659	-0.158334745854421
7.1	0.869774520964592	0.453143269829943	-1.41939632259525E-07	1.70293021437258E-06	8.22091743769153E-06	-4.55987979953834E-06	0.977048529994354	-0.16041265614883
7.2	0.919157158895369	0.34149741713054	4.81612964786783E-06	-1.3514699555093E-06	7.17272647327571E-06	3.79571923918706E-06	0.976095786748467	-0.161127624612154
7.3	0.953887959815291	0.224540080949558	4.82619417966395E-06	-1.06503440982833E-06	-7.22551393224867E-06	-7.3670573464198E-06	0.974943923139176	-0.161746988338676
7.4	0.973453970979897	0.10477728622629	-1.90488387462511E-06	9.77857522914355E-06	1.45306472534069E-06	-4.0151827752495E-06	0.973700947836228	-0.16155719052675
7.5	0.981315010578082	-0.015414511466153	8.22204606886712E-07	8.09858524904565E-07	1.64513260402794E-06	1.00566893357837E-06	0.976585292203098	-0.161011420391241
7.6	0.973435436244605	-0.14063024188327	1.47854773138513E-06	-2.58260358556315E-06	-5.34574868616918E-06	-3.67223643672477E-06	0.978264196448355	-0.166009984647496
7.7	0.948110395496188	-0.262612359826133	5.5185790542949E-06	2.46071651858853E-06	-6.93098486127067E-06	1.19132703948555E-05	0.978130091346722	-0.169558647059029
7.8	0.908211382071775	-0.37988036702699	-5.51770023975616E-07	-5.22887809803027E-06	3.77290959735918E-06	-4.67622981763484E-06	0.978611483143292	-0.172525029284099
7.9	0.85474139561828	-0.490977776926539	8.81216180672083E-06	1.62793198043633E-06	-9.41159560871333E-06	-8.72696747730367E-06	0.980191858453223	-0.17522584278023
8	0.788169299950597	-0.597881729925608	-6.64709829419999E-06	-1.69485359872486E-06	-1.20426677640837E-05	2.38402384229961E-06	0.982982343740338	-0.181219395220029
8.1	0.70436834902679	-0.692196484157113	5.06614416149278E-06	7.66075985745037E-07	2.87335901531124E-06	2.28024906749272E-06	0.979987699332867	-0.185864056792339
8.2	0.612616220334335	-0.773996260873276	3.57813750510873E-06	-2.54322976154416E-06	-3.58500789843048E-06	-1.16236931277249E-05	0.979132567624832	-0.187361461910333
8.3	0.511488271992445	-0.844627743938703	2.7390492644787E-06	-1.83244548191522E-06	1.59203444295081E-06	5.29787698900739E-06	0.979057295965617	-0.189477914496429
8.4	0.402086555889015	-0.901975195856352	-5.53715224028232E-06	-1.06393953810736E-06	1.02975194517342E-06	2.95613055146916E-06	0.979195658790509	-0.191983466663166
8.5	0.286462112159801	-0.945687106723114	-3.29753828139402E-06	1.59114720522437E-06	-4.73674759521471E-06	-5.0380559199567E-06	0.978867690640598	-0.195265523200131
8.6	0.164939313198906	-0.974825929282722	-8.14951478477299E-06	1.30160936198416E-06	-4.26831065599499E-06	-6.90244463336867E-06	0.978526635966299	-0.197352508950307
8.7	0.0406648841572411	-0.988304324905645	2.26934244420339E-07	-2.12473023693336E-07	6.11638217266395E-06	5.72334348225937E-07	0.9789723193095	-0.199650951632932
8.8	-0.0848373009364796	-0.985979699957371	1.04463756211488E-06	-1.81070474309643E-06	-2.38142038082272E-06	-1.30671785751152E-06	0.979442990630999	-0.20201891090353
8.9	-0.209021767033965	-0.96724618576893	-3.31376247995212E-07	3.03899396419412E-06	-1.2208443053887E-06	-1.65730459522788E-06	0.980126295416655	-0.204348274059278
9	-0.326175936725202	-0.932594293402999	2.96567706909336E-06	1.62143819074037E-06	-1.59998009492914E-06	2.10168985662613E-06	0.980824212087243	-0.20685435407854
9.1	-0.440384608157526	-0.887403361023594	-9.36993262025113E-06	2.16351076631473E-06	-1.59767260066515E-06	2.39930109864151E-06	0.981392094116669	-0.209670506193826
9.2	-0.549662257038816	-0.826255860094774	7.54403383718259E-06	-1.47422171598789E-07	-9.17386919355253E-06	1.87209389552734E-06	0.981293887966636	-0.212971442156152
9.3	-0.650080293444276	-0.751072294937514	1.57034631909704E-07	-7.20397904907873E-06	1.61027417498562E-06	-1.29009494901898E-06	0.980792873519866	-0.215852890272967
9.4	-0.739056971508359	-0.663135270926403	5.76322017370688E-07	2.50445018664799E-06	1.66509274456696E-06	-3.60146720542453E-06	0.980038201404589	-0.218147297289542
9.5	-0.816537231474398	-0.567131723473593	-2.96792677209295E-06	6.66172670140206E-06	4.77459344295827E-06	-1.32534681178626E-06	0.98109004868804	-0.22039222564965
9.6	-0.883012143872056	-0.458651417691946	-5.01875374992393E-06	-5.29582081198234E-06	4.77479798637319E-06	2.95088301063843E-06	0.981181254038185	-0.224788630026021
9.7	-0.933685560081574	-0.342766173538575	-1.97530071018791E-06	-5.13414866126697E-06	2.1146915405699E-06	2.84385359936989E-08	0.98073322302007	-0.22776598351606
9.8	-0.970080205434303	-0.221245320453407	6.34121354544312E-07	-4.31819112646399E-06	-2.94607365382711E-06	-2.56459726153465E-06	0.98087198400553	-0.229770894860884
9.9	-0.990924265084518	-0.0954590218636797	-6.21143823152962E-06	4.19894756462367E-06	-3.12944987872106E-06	1.6552788987329E-06	0.982225119171988	-0.231151361990551
10	-0.995284785810767	0.0317318201109723	3.61635924845141E-06	-1.79647208443991E-08	8.25518014629159E-06	1.1295956034989E-05	0.984461358584498	-0.236199616172626
10.1	-0.983129314039247	0.158349889907716	-2.88000478733383E-06	-2.5668778549188E-06	-2.02129554490281E-06	-2.53757696275379E-06	0.981680057078218	-0.239470335628284
10.2	-0.955121298950088	0.282504595451995	2.38903245295956E-06	-1.02345762593448E-06	-2.79678785765862E-06	-1.09092755936687E-06	0.981187370921038	-0.240716386405915
10.3	-0.911728704165168	0.402418646634601	7.8749947645617E-06	-5.99592343811575E-06	3.87868544659402E-06	8.34467374982946E-06	0.981112279275429	-0.242959966564333
10.4	-0.853356737807396	0.517061134747368	1.72653779071907E-06	2.57158860995781E-07	6.35695436405542E-06	-1.18964734475114E-06	0.980961718350157	-0.246238892630513
10.5	-0.77694197592211	0.621599795624753	8.43562649761654E-06	-4.18258207721704E-06	-4.99647056480913E-07	1.99255423755918E-06	0.979171260175955	-0.250810380744522
10.6	-0.692546855397232	0.711136969018245	9.01897370455969E-06	-1.26609319458434E-06	-1.51273828035437E-06	1.3762339020951E-05	0.977549687924215	-0.253388156852803
10.7	-0.598093285829276	0.792579057855546	8.09751800002716E-06	-1.90860528229109E-06	-3.07481588370488E-06	-5.33747964925053E-06	0.976407007393324	-0.256353652312552
10.8	-0.49257851219797	0.862148014427937	2.47171165245514E-06	5.30120628112471E-06	-3.6635907615148E-06	-2.09527870707406E-07	0.97525223652671	-0.258789923965909
10.9	-0.377721712248674	0.917539546281695	-5.61121057192899E-06	4.90937406585491E-07	1.61294742231003E-06	4.06628483892552E-06	0.974663382302958	-0.260963660595602
11	-0.257763718922296	0.955936785636357	4.31250349046476E-09	-5.2726338635114E-06	-8.46207782718781E-06	2.25159448227226E-06	0.974332873126821	-0.262944732935449
11.1	-0.134861145956226	0.980854051592294	6.38360678195634E-06	4.12334052459795E-06	-1.90773649188077E-06	1.08776412287049E-05	0.973865937155945	-0.265109260173329
11.2	-0.00983536110702946	0.989398828856511	1.59858569187518E-06	1.36402140819829E-06	5.21564134620411E-06	8.97706574727843E-06	0.973058121245466	-0.267650254026821
11.3	0.114688248281934	0.982001845434859	-4.73159752649393E-07	-1.75105702254397E-06	-7.21995132472147E-07	-4.43194747014802E-06	0.971951103565997	-0.270037671161294
11.4	0.237019907641652	0.960082291342992	2.75737348826292E-07	1.19442794061816E-05	2.4609620998389E-06	4.95427356279558E-06	0.970334647994985	-0.272417902699818
11.5	0.35687126865083	0.923244379113273	6.23659125297788E-06	-3.43922558448634E-07	3.13731174170356E-07	-1.89587599125977E-06	0.971028699848278	-0.275328473227468
11.6	0.46959529352161	0.871017845594233	-6.03858190989497E-06	3.11719639399856E-06	-4.89928531110468E-06	1.94745425285396E-06	0.969369857675281	-0.280898789312232
11.7	0.574561527444477	0.806395129488115	3.34271569694985E-06	-1.82193451323091E-06	-1.70946658829431E-06	2.25956824191923E-06	0.967395177889695	-0.285104709761883
11.8	0.671140309863609	0.7294533170665	-7.89694926092252E-07	9.86217836239474E-06	-2.69500435306166E-06	1.06186522360522E-05	0.965918086392582	-0.288856980575458
11.9	0.759067529346977	0.641779547170745	-7.35853278576655E-06	-1.0254529615531E-06	-3.91175756336688E-06	1.13519502634941E-05	0.966260731567848	-0.291454330831752
12	0.839113517665268	0.538794453650683	-6.44175434620716E-07	1.4022658607601E-06	-3.18537477707665E-06	-1.929745997975E-06	0.966099951224013	-0.298043581059361
12.1	0.898899448867215	0.424771352423286	-3.87345188602927E-06	5.07378663989646E-06	-1.27682140634967E-06	8.5135578623403E-06	0.961241068771784	-0.300686746619386
12.2	0.943812326015022	0.307035464286771	-6.20900752438395E-07	-3.82899408233711E-06	-3.15149557929964E-06	-7.06419038265021E-07	0.95921655987035	-0.302283090069101
12.3	0.973960633518539	0.185690396676122	3.6694161435251E-06	3.42162692947638E-06	-3.39359012708377E-06	6.36347885635561E-06	0.95763588908238	-0.304654165516634
