# GHZ S RI R 50
0.2	-0.966833138558998	0.251041071150765	8.82680707591592E-06	5.33007984700195E-06	1.1392611261421E-06	-2.89127280198241E-06	1.00045545289658	-0.00645265584732403
0.3	-0.927768095225552	0.370900475813297	-7.66988806825369E-06	-8.25065244988441E-07	-1.69943860902351E-08	3.66338156732865E-06	1.00055980362961	-0.0094072340594553
0.4	-0.873503543157394	0.484920868786217	-2.20581223061356E-06	6.34718532746699E-06	2.92003406771843E-06	5.74670132380668E-06	1.0008279741173	-0.0121263686952351
0.5	-0.805240293871848	0.591725226313511	-2.65372859517487E-06	5.49754108715816E-07	1.05386806641662E-05	4.89417346915944E-06	1.00075210698564	-0.0159377673181297
0.6	-0.72365819281818	0.688172234186114	-1.72747840795495E-06	-1.82652438160525E-08	4.16837185917336E-06	-1.034937933115E-05	1.0000697847521	-0.018688380896639
0.7	-0.6312511599741	0.773795547894803	-2.0499664697407E-06	9.892085504344E-07	3.78609332070035E-06	1.11760117611776E-05	0.999806620116044	-0.0211675929348551
0.8	-0.528621396832583	0.847338660516606	-5.61497374654353E-06	3.78624282629045E-06	-3.17214178766494E-06	-2.14313930882345E-06	0.999840380525708	-0.0230886053419181
0.9	-0.417691483192991	0.90715773724289	-6.71483827776627E-07	5.25875171630931E-06	3.27190273729761E-06	-2.94180065917234E-07	1.00014381275534	-0.0252416125788375
1	-0.29961312362181	0.952578959089551	1.57200405002359E-05	-3.68949200933914E-06	-9.61901017311428E-06	5.24956446899801E-07	1.00078737685968	-0.0270836307194329
1.1	-0.17763113016967	0.982447853179145	1.34441622314344E-06	-2.98962712996506E-06	9.42249423870968E-06	1.26241197244136E-05	1.0004010805079	-0.0301870819108402
1.2	-0.0519593837917533	0.99663274946761	-7.92714438547255E-06	-3.25919598434162E-06	-3.10763160268987E-06	-4.48515225926331E-06	0.99910169842384	-0.0316147003704225
1.3	0.0745100270633777	0.994643441047265	1.83066771090668E-07	3.33877682290925E-06	1.93235413368995E-06	3.39120214937788E-07	0.998417562725901	-0.0327545745720913
1.4	0.199120493640215	0.976716514397008	2.79597193769759E-08	3.77049285253683E-06	-2.53781130565734E-06	-5.61581504163748E-06	0.997551078507489	-0.0345570679561017
1.5	0.320661040221469	0.944014530359097	3.18900873203749E-06	-2.71080523848356E-07	2.70706662638864E-06	2.09256266945411E-06	0.998297224117962	-0.0378223839108581
1.6	0.436865063307705	0.89622335357153	1.7865279881046E-06	-1.94304376971594E-06	-8.98237504034289E-07	-3.06462561696841E-06	0.997814257460428	-0.0410527515056777
1.7	0.545897470183895	0.834102479791552	-8.90796213981766E-08	-3.52803298423355E-06	2.01197642212602E-06	4.92907657862072E-06	0.998626920978162	-0.043271674737263
1.8	0.646073496825686	0.759205884032448	-2.0610365263596E-06	-1.81460443554814E-06	-4.63185690820555E-06	1.83417667418193E-05	0.998891039527681	-0.0458727739727786
1.9	0.735885660031324	0.672808235364363	-4.39604555311319E-06	-1.46880203156774E-06	-4.93277458778212E-06	-6.01122920440782E-06	0.999260329248649	-0.0477354654542661
2	0.8155554150891	0.575896484104433	-9.48630739222684E-08	-6.76130202746696E-07	-1.67273065084504E-06	-1.42243382232222E-06	1.00045996692244	-0.0509988086497273
2.1	0.881973226636655	0.466764671032488	-1.13127050306731E-06	9.47818382565406E-06	1.99995475879522E-06	-3.84201982517075E-07	0.999613381273025	-0.0549216425764286
2.2	0.932899908360436	0.351935230942709	-3.32653999273379E-08	-5.94385989139055E-06	-7.33786935619631E-07	2.74527955796804E-06	0.998884190113973	-0.0573287207563651
2.3	0.969218009678305	0.231839365118504	-1.3130610521199E-06	2.77441892944454E-06	-2.4862647601599E-07	1.20000921691358E-05	0.998392126633657	-0.059077619976811
2.4	0.990348688193136	0.1074258423407	-5.89295530901992E-06	-3.70308299380479E-06	-1.75989634196554E-05	1.45935704007205E-05	0.998336282469342	-0.0621830300637327
2.5	0.996389107644509	-0.0178862151805481	1.81591152310181E-06	-2.9719328294376E-06	-1.77818895516548E-06	7.56499012637136E-06	0.998069771045168	-0.0647728153861105
2.6	0.986271767285354	-0.14235075189265	2.87011870084549E-06	9.15856524105928E-07	-1.74683371805208E-06	4.51562952638464E-06	0.997664513179701	-0.0679966550825631
2.7	0.960395589231694	-0.265057113694413	3.85702732252752E-06	1.04634564898364E-05	2.33770883898347E-06	3.87293690475893E-06	0.997073188035303	-0.0711602377613723
2.8	0.919194317485756	-0.383690057887555	-8.22134681524532E-07	-2.29658297730308E-06	2.14660305186361E-07	-1.89354656260753E-06	0.996966847222155	-0.0733764352884339
2.9	0.863604437216641	-0.495525384349496	3.74891984437746E-06	-8.34935276298604E-06	-1.32333002979057E-06	-1.42551441777666E-05	0.996403766354037	-0.07554495114376
3	0.794641956071379	-0.599740283417355	1.02154249722784E-08	6.66254835291918E-06	-1.47815248090012E-05	5.36411991621217E-06	0.996021827987002	-0.078200596798753
3.1	0.714129666407569	-0.693696538660825	-4.96495265528338E-06	7.85435202458007E-06	5.81815207307757E-06	-1.05968677344075E-07	0.995239486866604	-0.0803006842337213
3.2	0.620638923995756	-0.777819680400862	9.69093364737044E-07	2.12510423696745E-06	-4.56527484307113E-06	4.95081920204803E-07	0.994589662642452	-0.0819308120498951
3.3	0.517612412018606	-0.849296888241268	7.14792219097541E-07	-1.46356626320762E-06	-4.58298318668114E-06	7.48745978926654E-07	0.994013373846781	-0.0850804794572962
3.4	0.406185169452432	-0.906496015363824	6.47224001956647E-06	2.11931209337864E-07	-8.16350270401215E-06	-7.15341818520552E-06	0.993572824857757	-0.0869028559667908
3.5	0.29027436139471	-0.949876614893251	-7.69080600696158E-06	1.98198872345405E-06	-5.92220781144265E-06	-7.96355144330726E-06	0.993392862661977	-0.0891977482961478
3.6	0.167171485527005	-0.980046472122139	-8.69491825801498E-07	-4.38055083533633E-06	-7.83682460178362E-06	-6.3121081992375E-06	0.993180960192944	-0.0918919136352142
3.7	0.0413958375457857	-0.993224211510776	-6.73858929388858E-06	-6.74892495370356E-06	5.12448841532123E-07	-4.76638074701904E-06	0.992807953689655	-0.0945609878893933
3.8	-0.0846992455682425	-0.989710679846958	-3.63921725944266E-06	1.09502022815538E-06	-3.30420906617319E-06	-2.45391540249801E-06	0.99233684344018	-0.096439831501284
3.9	-0.20803317096924	-0.970330026140266	-4.68480101315085E-07	3.50811994606262E-06	2.0489742345461E-06	-1.2252900891916E-06	0.992678903452796	-0.0992630423451338
4	-0.32783828534043	-0.936591094555153	1.17099209181583E-05	8.07757940814558E-06	7.25228049753355E-06	-4.06736834581899E-06	0.993496399509988	-0.101684785575953
4.1	-0.442662267496285	-0.888150247070265	5.21945834251751E-06	1.30103369809522E-06	-3.42810677623815E-06	6.66151780604409E-06	0.991925069310919	-0.104927137179607
4.2	-0.550305527598359	-0.82597165418679	-7.09369764634454E-06	-1.17292439814687E-06	-8.25580652263217E-06	-9.8967092910515E-09	0.990295743918223	-0.107295322255843
4.3	-0.649537297771588	-0.750299961306087	6.92936780206816E-07	-2.36697995919677E-06	5.20835204814985E-06	8.60723479159933E-07	0.989650234384187	-0.108932075030902
4.4	-0.738683750970185	-0.662179756315378	4.45984179259036E-06	-1.78726982868063E-06	-8.62237724869007E-07	1.34770392899836E-06	0.988953008712818	-0.111090709502013
4.5	-0.815612101878143	-0.562839402835024	6.77776389263588E-06	1.8361672802129E-06	-8.15900413194745E-07	-3.24700239807528E-06	0.988380201288976	-0.113470048569359
4.6	-0.879132580530317	-0.455564647175622	2.45910645119982E-06	2.93352297239769E-06	-6.53255500682349E-06	9.74127557996859E-06	0.987113842292369	-0.115770537135686
4.7	-0.929081697851091	-0.340511725965106	-1.39845637830769E-05	5.94239192816754E-06	-3.45060376748942E-06	-2.3178371506015E-08	0.986713442512036	-0.117270299764207
4.8	-0.964171925331461	-0.220360576358139	-3.1650973650537E-06	-5.11474392618262E-06	-5.4967457414101E-06	2.37294526617378E-06	0.986150247663746	-0.119309059369679
4.9	-0.983085037977688	-0.0967692583561671	-1.0412512241495E-06	-8.51489855486457E-06	-4.20217745978113E-06	7.48936038222592E-07	0.985707983902557	-0.120708346528695
5	-0.985346214515127	0.0261214333469312	7.51145699290123E-06	-1.57945038249868E-06	-1.7499387632335E-06	-2.70506310932912E-06	0.985547785548889	-0.12211381476976
5.1	-0.975012316718829	0.14895235547371	-2.59796457011998E-06	-6.36247892331919E-06	-1.00682462548844E-06	-1.94319314327758E-06	0.985369492305497	-0.123217320606667
5.2	-0.949405257560857	0.270463603502007	3.98039368219975E-06	-4.3916391599002E-07	-5.40929839659146E-06	6.28775615293854E-06	0.985194122139177	-0.125146435547841
5.3	-0.908336333612525	0.387926236092985	5.12539715101815E-06	5.97699438455828E-06	-9.60673010469658E-07	-3.57053308548347E-06	0.984922688776341	-0.127386525282018
5.4	-0.852454943269327	0.499276534987591	3.04706268963193E-06	-2.01171440006025E-06	-1.12640942053545E-05	2.20462468031993E-06	0.984528298668303	-0.130013022466279
5.5	-0.782304247460769	0.601926340348974	-4.32286190973713E-07	-2.18422676435758E-06	-5.75616603693278E-06	6.10340781424834E-06	0.9843023001692	-0.132324920392757
5.6	-0.700291791402537	0.694574668894305	2.37458556258148E-06	7.26940141977945E-06	-5.33378693172184E-07	2.9164528211352E-06	0.983941329387822	-0.134807320512086
5.7	-0.607714933363838	0.776963819738142	-2.55863453142652E-06	2.35129259085281E-06	7.87620939873359E-06	2.76244202932378E-06	0.983515632782147	-0.136770663758158
5.8	-0.505268569885519	0.846624935090492	-4.6265661133948E-06	5.08062993777163E-06	-3.64494120760219E-07	3.40648739672726E-06	0.983527278820019	-0.138400899979406
5.9	-0.395407877732856	0.903486778004237	6.32962851564908E-06	1.49669795348923E-06	-2.70153765929012E-06	2.53436336715028E-06	0.984082917492941	-0.140059484350239
6	-0.278321141751684	0.946645934418717	3.51369595682996E-06	3.28994176970991E-06	-3.273916160665E-07	-1.42994551393553E-06	0.985321120769696	-0.143269016581831
6.1	-0.156610355802814	0.972360075229616	9.14152413794088E-06	1.50277225548254E-06	-1.30061940614283E-07	-1.801030613622E-06	0.983303876924604	-0.146168001158366
6.2	-0.0339933290453797	0.983077512838155	2.42437258806461E-06	-1.72390828017262E-06	1.46622076511181E-06	-4.82136322146416E-06	0.981498504746253	-0.14683315100237
6.3	0.0888012849657282	0.979475488463623	-4.33263299766684E-06	4.22252638421408E-06	-6.12480824755841E-07	-1.71483287631644E-06	0.980602266816011	-0.147618033242391
6.4	0.210900445989433	0.961448093879642	-4.24115364383741E-06	1.06449146734409E-06	-1.75075838778022E-06	8.79476959191389E-06	0.98068226370722	-0.148857811763045
6.5	0.331164404161847	0.926640022730932	2.43552246863541E-06	-1.3242791380543E-06	1.4759145215014E-06	-2.91222125154179E-06	0.980340325384484	-0.152134604017843
6.6	0.442932349319107	0.877134638853304	-4.69632426554231E-06	-2.24337786619831E-06	-1.84309956404443E-06	-6.59144558489844E-06	0.979292732277473	-0.15340177838275
6.7	0.548511128696178	0.815563022007816	4.13429479952E-06	-6.45467948519218E-07	-4.64468570838427E-06	9.9180544255521E-07	0.979698371565031	-0.154673903059683
6.8	0.64604735219799	0.741222264299302	3.7384872933085E-06	-2.05309122158919E-06	6.17503169181539E-06	-8.96124995773203E-07	0.979960226297563	-0.156338353633597
6.9	0.733670675543995	0.655411938023526	2.0285338536818E-06	1.63908234087969E-06	8.73918290888799E-06	-2.7032599857258E-06	0.980516694409415	-0.157829483914199
7	0.810394791769332	0.558842747220402	2.14417625237956E-06	4.08559746078765E-06	-1.16259778614653E-07	5.3556358566253E-06	0.981167908995834	-0.160125034643355
7.1	0.873599740125064	0.453390225379831	-1.39491601021682E-07	1.70804038910143E-06	8.23679601243311E-06	-4.58670453003203E-06	0.98016100841825	-0.162100917909775
7.2	0.923146969271344	0.341104416187402	4.82876298295769E-06	-1.36322685072513E-06	7.2007223677607E-06	3.79602222323731E-06	0.979478517112937	-0.163153313735384
7.3	0.95808298191471	0.223515812597312	4.84112937153175E-06	-1.07571836377677E-06	-7.26095567381431E-06	-7.38168129832574E-06	0.978662802559351	-0.164127122794489
7.4	0.978162510412571	0.102581911671904	-1.89665640821412E-06	9.82514801998378E-06	1.45265900091199E-06	-4.03544957754753E-06	0.977978561960632	-0.164941937145142
7.5	0.985033688180068	-0.0195675046529916	8.28702338281215E-07	8.10770736932329E-07	1.65605108041699E-06	1.00468724991326E-06	0.979808362113846	-0.165823000344578
7.6	0.976114739884835	-0.145033202781751	1.47531557317707E-06	-2.59775613229583E-06	-5.37923737566729E-06	-3.66791939898984E-06	0.980889936306787	-0.170548781148402
7.7	0.949957261474418	-0.267774408730275	5.54978676044633E-06	2.44892442595675E-06	-6.91187851439232E-06	1.19869309060047E-05	0.980465744100076	-0.174488589606464
7.8	0.908758380440738	-0.385444431749942	-5.76604794765346E-07	-5.24465544305517E-06	3.76554569001173E-06	-4.70903628517871E-06	0.980314004998815	-0.17769049214215
7.9	0.853596158392978	-0.496350738984601	8.84145271792361E-06	1.59006023120974E-06	-9.47607078423113E-06	-8.70361634463101E-06	0.980840674384659	-0.180458129713259
8	0.785660670370805	-0.601282995960282	-6.65807168244816E-06	-1.67013562875615E-06	-1.20413471893337E-05	2.4324047935342E-06	0.982223489207261	-0.185097438198323
8.1	0.702779362853621	-0.695028504166995	5.0736231558491E-06	7.52754090048313E-07	2.88274877393481E-06	2.27463969537397E-06	0.980113358522109	-0.188915182800526
8.2	0.610564507938416	-0.776967422870457	3.57445645764827E-06	-2.55662471998834E-06	-3.62345095590939E-06	-1.16256385895617E-05	0.979244225220216	-0.190778494994373
8.3	0.508791056242016	-0.847250923943996	2.73555841061704E-06	-1.84218210037319E-06	1.60937855215306E-06	5.29706904013996E-06	0.978736044465902	-0.193024336520492
8.4	0.398787529141984	-0.904139406849569	-5.54369735065209E-06	-1.04820801908452E-06	1.03913076212241E-06	2.95489709147252E-06	0.978375389032116	-0.19542373142871
8.5	0.282390509114216	-0.946879793579861	-3.29441883074619E-06	1.60370186606836E-06	-4.75759555148373E-06	-5.0253154888922E-06	0.977912482635341	-0.198314341185866
8.6	0.161024752073351	-0.974914542316203	-8.14442924818301E-06	1.33280706993969E-06	-4.29469544451095E-06	-6.88601157461672E-06	0.977605567282748	-0.200570517039778
8.7	0.0369362295833567	-0.987703436936255	2.26024046211998E-07	-2.1323187800533E-07	6.11567916072661E-06	5.48927780530557E-07	0.977815418915259	-0.20297989258228
8.8	-0.088208035067712	-0.984758719502557	1.03706647580644E-06	-1.81297324967011E-06	-2.38415671849319E-06	-1.29681888178379E-06	0.978053773632932	-0.205414766486557
8.9	-0.211861692441619	-0.965982040034196	-3.21112186453618E-07	3.03665227330578E-06	-1.22486439189066E-06	-1.65146586124489E-06	0.978439796918488	-0.207831889123301
9	-0.329857670314492	-0.931340661333379	2.96885463993211E-06	1.61061403975591E-06	-1.59198855929533E-06	2.10541208035669E-06	0.97859075405822	-0.210375586269839
9.1	-0.443812836595718	-0.884737563309774	-9.3503205528697E-06	2.19353732816057E-06	-1.58721971476283E-06	2.40181256716839E-06	0.97853698380132	-0.212852867836195
9.2	-0.5524282045379	-0.822916576033499	7.53131372140586E-06	-1.71597390449701E-07	-9.1529225709512E-06	1.89874476206497E-06	0.978062589667664	-0.215585817295169
9.3	-0.652061437058053	-0.747232848122129	1.34655603803868E-07	-7.19151190146174E-06	1.60342267315105E-06	-1.29271525698345E-06	0.97755936246172	-0.21799204478927
9.4	-0.740539734212284	-0.659094487654349	5.83212117691714E-07	2.49818990220647E-06	1.65076372822816E-06	-3.60034303646344E-06	0.976937479495165	-0.220330849015664
9.5	-0.816833463313733	-0.561663843134011	-2.93505179527808E-06	6.65506812765421E-06	4.75688779394519E-06	-1.33969604364653E-06	0.977344763997829	-0.222615220043831
9.6	-0.881247185604162	-0.454031585454928	-5.01708655285129E-06	-5.26355299651791E-06	4.76720754382156E-06	2.92721291519944E-06	0.97737768983167	-0.226364751565645
9.7	-0.931271184423329	-0.339038794957726	-1.98148490941932E-06	-5.11211659368042E-06	2.10771125992143E-06	2.30837265994635E-08	0.977070432095878	-0.229238278872077
9.8	-0.96712340448023	-0.218178016266381	6.21656727292377E-07	-4.30503331814629E-06	-2.94218705402628E-06	-2.54884955345868E-06	0.977185576661895	-0.231389320617433
9.9	-0.987533421949688	-0.0930939164957113	-6.17789372351127E-06	4.19843029335476E-06	-3.1136763648061E-06	1.65674198458774E-06	0.977887013446071	-0.233137505422247
10	-0.991675079826019	0.0335374332270771	3.60094950317412E-06	-2.43738851986022E-08	8.24033545745397E-06	1.12331184481778E-05	0.979180674882413	-0.236822280227822
10.1	-0.979087369158483	0.159456198836226	-2.87262719631732E-06	-2.55255099851734E-06	-2.01722169893403E-06	-2.52465234901971E-06	0.977476472306736	-0.239792855946828
10.2	-0.950851885937689	0.282758644754291	2.37782366390479E-06	-1.02315158089771E-06	-2.78730566280171E-06	-1.08210530217414E-06	0.976855067651659	-0.241477529202005
10.3	-0.90725183556268	0.401665358681271	7.83145118246309E-06	-5.98164423784566E-06	3.87437999858733E-06	8.3022879949617E-06	0.976313651829449	-0.243783095376903
10.4	-0.848990540805842	0.514682365372259	1.7184001780793E-06	2.54161682448088E-07	6.32483138102506E-06	-1.19029101940857E-06	0.975614622849688	-0.246756663588161
10.5	-0.77435699132197	0.618200007909296	8.39823318546644E-06	-4.16517702545281E-06	-4.97243720236385E-07	1.98388239390937E-06	0.973971325725199	-0.250547304449584
10.6	-0.690399301871681	0.708193341970228	8.9822601584501E-06	-1.26396836505189E-06	-1.50211751054859E-06	1.37074512141126E-05	0.972425602402111	-0.252949549471241
10.7	-0.596520394886747	0.78876773503509	8.06337479332829E-06	-1.90033443797602E-06	-3.0616926069122E-06	-5.31502159441903E-06	0.971391276630577	-0.255711362860884
10.8	-0.491964188411182	0.857902420121546	2.45881879844214E-06	5.28097367643126E-06	-3.64858035784163E-06	-2.10639590154183E-07	0.970513567755347	-0.257728224582176
10.9	-0.378326385095662	0.913467920505605	-5.59117147374537E-06	4.84027026432475E-07	1.60334962777798E-06	4.05290973611422E-06	0.970148780457582	-0.259509859291075
11	-0.258644583467846	0.952898047358267	7.89376525098684E-09	-5.25435713128547E-06	-8.43428582800099E-06	2.23801937738212E-06	0.970000493482035	-0.260939160579211
11.1	-0.135816953827819	0.977361293992119	6.3545680546759E-06	4.11489465358741E-06	-1.91286016192083E-06	1.08339929081067E-05	0.970083452654943	-0.262659336812819
11.2	-0.0115886888636947	0.985942093686043	1.590426008913E-06	1.36168473286627E-06	5.18143910882114E-06	8.95280387220603E-06	0.969758569477065	-0.264927809084584
11.3	0.112221829557964	0.978927540493047	-4.67948293230564E-07	-1.74621736618983E-06	-7.10386282946674E-07	-4.41871015420179E-06	0.969168992852293	-0.267307252241009
11.4	0.23406828216338	0.95746188857798	2.47971226635661E-07	1.19121598914112E-05	2.44301245868461E-06	4.94625743460577E-06	0.968039282458544	-0.270102103981469
11.5	0.353502981085103	0.921150843331067	6.22007623118135E-06	-3.31931627286859E-07	3.16227825263198E-07	-1.89011466822319E-06	0.967978921701667	-0.273063875012681
11.6	0.466026308878839	0.869618085569918	-6.02787087151682E-06	3.09491808321064E-06	-4.88932131993539E-06	1.93106839568267E-06	0.966752908910044	-0.277871725414627
11.7	0.570954931201441	0.805620363888014	3.33876534419437E-06	-1.80952572451056E-06	-1.71058718525488E-06	2.24994129228487E-06	0.965263737700585	-0.282246446632331
11.8	0.66772072128721	0.729119307664475	-8.08287140169177E-07	9.84004434596927E-06	-2.71118554412255E-06	1.05910354858042E-05	0.963829909086672	-0.286414650869379
11.9	0.755930535997434	0.641319286577601	-7.34178963040107E-06	-1.03115271326026E-06	-3.91559711973939E-06	1.1323625835832E-05	0.963577895435417	-0.289616937744068
12	0.834371508479894	0.53922979210895	-6.44289289663221E-07	1.39582512724025E-06	-3.16990010703657E-06	-1.92824991470105E-06	0.962461780866856	-0.294186984026677
12.1	0.895310826769582	0.426032279746187	-3.87081185784653E-06	5.0490219438938E-06	-1.28980723598581E-06	8.48258201448895E-06	0.958880564968379	-0.296899906056763
12.2	0.940132375458356	0.308146031766969	-6.10546635284413E-07	-3.81514289942634E-06	-3.13758324912868E-06	-7.10129683642887E-07	0.956702055941806	-0.298760407300416
12.3	0.969634321633598	0.187283071888812	3.64321113507515E-06	3.41572695806622E-06	-3.39509900982792E-06	6.32489775961739E-06	0.954694253756945	-0.300886497123338
