# GHZ S RI R 50
0.2	-0.965598586656687	0.251761513913061	8.8199232076562E-06	5.31459268978525E-06	1.13500589551966E-06	-2.88844732458653E-06	0.99890582141664	-0.00730960078718196
0.3	-0.925955760792346	0.371618058000946	-7.65677020544665E-06	-8.15562669815314E-07	-1.31428862313929E-08	3.6567228019708E-06	0.998647531417221	-0.0101823047570833
0.4	-0.870954816053976	0.485283248380324	-2.19360216125128E-06	6.33365326310125E-06	2.91880231899061E-06	5.72926027894566E-06	0.998407721378289	-0.0128010327422382
0.5	-0.802444268766201	0.590843494533553	-2.64520394921025E-06	5.48281237130372E-07	1.0505576536289E-05	4.87744300814249E-06	0.998001266149654	-0.0154641899834221
0.6	-0.721502958077609	0.687074600091652	-1.72341953751691E-06	-1.8581131194321E-08	4.1607363987221E-06	-1.03242195438057E-05	0.998726318999075	-0.0182839433969069
0.7	-0.628954975577551	0.77246371477606	-2.04476934388844E-06	9.87356788339089E-07	3.77987037450244E-06	1.11480952135319E-05	0.998453979623059	-0.0217425892974392
0.8	-0.526363526774181	0.845444836711871	-5.59792855496915E-06	3.7781976427895E-06	-3.16432015873496E-06	-2.1359043073986E-06	0.998030408228711	-0.0242354541010567
0.9	-0.415714129315768	0.904704428089851	-6.66511266194218E-07	5.24301996203401E-06	3.26171989578032E-06	-2.95093620244788E-07	0.997664169059098	-0.0269331702537178
1	-0.29807491658213	0.949594531409853	1.56552281288255E-05	-3.68664096370045E-06	-9.58064303296818E-06	5.30052320661455E-07	0.996538420413798	-0.0286692211737089
1.1	-0.176871636648841	0.979110647494384	1.33983098430365E-06	-2.975266239682E-06	9.37286261343521E-06	1.25713464470251E-05	0.996108303847638	-0.0296861609281588
1.2	-0.0520751804929807	0.993252232591415	-7.88890542840234E-06	-3.25822416040024E-06	-3.08753589844696E-06	-4.47139802809888E-06	0.99588530853562	-0.0302787974846612
1.3	0.0733203449067449	0.991491513979326	1.73224861377472E-07	3.32729241155409E-06	1.92448305955059E-06	3.43218280667582E-07	0.996380791797705	-0.0306803325093488
1.4	0.197093994773919	0.974061544375069	1.40787077246067E-08	3.76012438016405E-06	-2.5102047972814E-06	-5.60951032086779E-06	0.996777160599531	-0.032268874386586
1.5	0.317812473544836	0.941419920706649	3.18166618310677E-06	-2.58251015511849E-07	2.69200787673406E-06	2.09735521094654E-06	0.997558970045773	-0.0356869128114143
1.6	0.433488545663476	0.894361750171821	1.7901374990925E-06	-1.93201496444851E-06	-8.84554171436011E-07	-3.0614803947701E-06	0.99761321095041	-0.0393378460423018
1.7	0.542387070552666	0.8325362820243	-7.77849223716542E-08	-3.52111937562827E-06	1.99234745269545E-06	4.92536301384452E-06	0.997929216417858	-0.0425210204116034
1.8	0.642418121202978	0.757907362245706	-2.05215588301904E-06	-1.81606482275948E-06	-4.66876058827588E-06	1.82919445227252E-05	0.997600899159238	-0.045656941012528
1.9	0.732377912464106	0.67125716673016	-4.38504790840479E-06	-1.47159019071609E-06	-4.91466410714331E-06	-6.00537046338433E-06	0.997322976008837	-0.0485567822698531
2	0.809826448977699	0.573177414272708	-9.44357793826137E-08	-6.72927686911417E-07	-1.66486064567045E-06	-1.41564934352343E-06	0.995267906379041	-0.0518478967362739
2.1	0.874480190567454	0.467315873380067	-1.15148194232432E-06	9.42086968214098E-06	1.98961402412692E-06	-3.76379772883214E-07	0.994797030452035	-0.0524267816490309
2.2	0.926291551781187	0.354415197714796	-1.17948999414802E-08	-5.91631926574917E-06	-7.40217279506628E-07	2.7298728359565E-06	0.995542617092679	-0.0545955789138708
2.3	0.963433675520163	0.235416898451152	-1.31794894733356E-06	2.75786314364515E-06	-2.92544694634433E-07	1.19488313765575E-05	0.995600754126369	-0.0565688581001979
2.4	0.985371874638995	0.111626314264365	-5.85435049798053E-06	-3.71313510330153E-06	-1.75907495718468E-05	1.44627862266835E-05	0.99574663481076	-0.0598046526893835
2.5	0.991492441574355	-0.01323793127171	1.82414867869765E-06	-2.95582826266316E-06	-1.80687159076318E-06	7.5365934620913E-06	0.995423178867148	-0.0621454558571195
2.6	0.981689805829343	-0.136613320381747	2.85948676559882E-06	9.2252276978124E-07	-1.75649923211233E-06	4.49792904587545E-06	0.995533371317156	-0.0651124823834848
2.7	0.95627119362017	-0.25825254347558	3.81104792830261E-06	1.04377790333571E-05	2.31742608903281E-06	3.8662286191511E-06	0.994984233461986	-0.0682312904450869
2.8	0.91608657258421	-0.37564160238472	-8.10570606078658E-07	-2.28999676834397E-06	2.20500064967882E-07	-1.88494477868325E-06	0.994979590296409	-0.0700711235269988
2.9	0.862153902439376	-0.486852323179902	3.76734594176336E-06	-8.29827210636896E-06	-1.25891383568024E-06	-1.41997761528807E-05	0.994679258496811	-0.0719580344264348
3	0.79442450263905	-0.591300080415377	-1.98196300821648E-08	6.63603921633176E-06	-1.47467585292196E-05	5.27619455862117E-06	0.994545196782665	-0.0742714401261807
3.1	0.715039173643912	-0.684894863147973	-4.98317578865342E-06	7.79909007299714E-06	5.79551293785608E-06	-7.74133960814127E-08	0.994356436655608	-0.0760257104917188
3.2	0.623305866571504	-0.769145373543833	9.54031044901951E-07	2.12284750320123E-06	-4.55175232828721E-06	4.68364963194887E-07	0.994273946401907	-0.0775725687171247
3.3	0.522199256594417	-0.841374179350117	7.217560126728E-07	-1.45493402820538E-06	-4.57437504564282E-06	7.18319387751625E-07	0.994323279650831	-0.0805170035462604
3.4	0.412586653318948	-0.900747788419108	6.46127379201365E-06	2.56599633421693E-07	-8.10181540815018E-06	-7.19965847473899E-06	0.994962815707451	-0.0822176484759719
3.5	0.294691909053433	-0.946588962902257	-7.70494005050764E-06	1.94107213818895E-06	-5.8815338683796E-06	-7.99921199791839E-06	0.995511790758483	-0.0857001003779518
3.6	0.172029275267585	-0.974550788063963	-8.47606115994362E-07	-4.38073346779265E-06	-7.7992710768047E-06	-6.34407102470719E-06	0.994879492013202	-0.0883527838356006
3.7	0.0486783626607058	-0.988772348028011	-6.69491100566029E-06	-6.78180473978091E-06	5.39098714874805E-07	-4.75967629254642E-06	0.99491830433407	-0.0909716638109487
3.8	-0.0762638377110254	-0.987646419153573	-3.64527940070341E-06	1.07337776961007E-06	-3.28932470504248E-06	-2.473174629972E-06	0.994786855191807	-0.0932118945969748
3.9	-0.200056324827493	-0.971156223708719	-4.87036377203463E-07	3.50684153466696E-06	2.05608884349677E-06	-1.21495557844731E-06	0.994918412272976	-0.0971644097512781
4	-0.322059008576956	-0.938580290650616	1.16541229923655E-05	8.13060850052563E-06	7.26575505431737E-06	-4.02443972396926E-06	0.992619141811047	-0.099095573781235
4.1	-0.437544933708955	-0.890321644282171	5.20990830079239E-06	1.33708317646875E-06	-3.47393632253984E-06	6.63707591155894E-06	0.992441909242201	-0.0988284190894921
4.2	-0.545851934119118	-0.828777847312503	-7.0934954113435E-06	-1.22183052513138E-06	-8.26467175891961E-06	-6.53486454087664E-08	0.992874952583607	-0.10124270848421
4.3	-0.645811483585552	-0.753726084003823	7.09233722135809E-07	-2.36654925104587E-06	5.21164791098579E-06	8.95462119549773E-07	0.993177865103244	-0.103353189357844
4.4	-0.735556318351249	-0.6664067604567	4.48021679381242E-06	-1.76228955302121E-06	-8.7259434450687E-07	1.34488106188238E-06	0.992892132836027	-0.105748963399498
4.5	-0.813943700257835	-0.568794874157831	6.78442664089295E-06	1.89197224093014E-06	-7.94242326358977E-07	-3.2627794481341E-06	0.993045814336381	-0.107143061236334
4.6	-0.880294581166107	-0.461231598437269	2.45172355217951E-06	2.96504596390736E-06	-6.6316210154393E-06	9.74646766199334E-06	0.994168898664686	-0.109964720075843
4.7	-0.931636848809527	-0.345083014413494	-1.40994534927408E-05	5.89610671853768E-06	-3.47037215655518E-06	-4.31894633811056E-08	0.994612715020078	-0.112748297247886
4.8	-0.967440760950747	-0.224209294801877	-3.15788901844591E-06	-5.1624148433843E-06	-5.54263929932943E-06	2.35891532612324E-06	0.994388922512142	-0.115690198084553
4.9	-0.9870963500252	-0.101070583300432	-1.00374014819746E-06	-8.57501056285514E-06	-4.23306351354443E-06	7.31934274870734E-07	0.994126513809186	-0.11771573446095
5	-0.993811733391183	0.0228637684977146	7.58031109433454E-06	-1.55657439023427E-06	-1.75134472368138E-06	-2.73548422745151E-06	0.994212447131879	-0.119339705184041
5.1	-0.982620156331634	0.150860818091285	-2.60108447140987E-06	-6.42007766684221E-06	-1.00946967290649E-06	-1.961370968454E-06	0.99473649941715	-0.120968149405596
5.2	-0.955014834447344	0.273139839314116	4.01020574956502E-06	-4.32734322414994E-07	-5.46354085639809E-06	6.32012734508074E-06	0.994715770891569	-0.123704414815094
5.3	-0.913491786938548	0.390700232793313	5.14635847042547E-06	6.03181522823029E-06	-9.58448303244276E-07	-3.59800511303263E-06	0.994351698713668	-0.12624038723707
5.4	-0.858013432320691	0.50248274022592	3.07554296861567E-06	-2.0180969831941E-06	-1.13545244178035E-05	2.18912207254288E-06	0.994536993842648	-0.128834104570426
5.5	-0.788553314692474	0.607085711793659	-4.31597680363869E-07	-2.20364240226917E-06	-5.8172426134769E-06	6.14375885042839E-06	0.994788606504932	-0.132370943044864
5.6	-0.705036723263244	0.701969785399427	2.38536519602126E-06	7.33219670424347E-06	-5.41303660685405E-07	2.93984822727019E-06	0.994291172710873	-0.135008869282019
5.7	-0.610481724724465	0.785190274432209	-2.58172796051896E-06	2.36879435020943E-06	7.93941432845308E-06	2.79158258147252E-06	0.994464977949649	-0.137703048973377
5.8	-0.506193533471278	0.855156635537243	-4.66560069734249E-06	5.1236929245996E-06	-3.67511218872454E-07	3.43530753299451E-06	0.994612867921702	-0.140726103129786
5.9	-0.393984405836372	0.911652199409292	6.38338450643213E-06	1.49678047351534E-06	-2.7184854479744E-06	2.55985933415293E-06	0.994059452414171	-0.144804198790156
6	-0.276077102352234	0.951398601761717	3.53509159909101E-06	3.29440620251712E-06	-3.32037521760503E-07	-1.4347186813526E-06	0.989915670538616	-0.147348634323003
6.1	-0.156941865855086	0.977686401150429	9.17515018985228E-06	1.52174975949465E-06	-1.27990894212805E-07	-1.80826596178811E-06	0.989256950033171	-0.145556576992993
6.2	-0.0336048683083129	0.990079051942721	2.440878092539E-06	-1.72889230103737E-06	1.48319348940302E-06	-4.84513320173629E-06	0.989609020053856	-0.146215325393999
6.3	0.0910088661246378	0.986936545134157	-4.36502750744335E-06	4.24259930284236E-06	-6.13913748256523E-07	-1.72621335824534E-06	0.989651293702473	-0.147799408496845
6.4	0.214505843502494	0.967247406190183	-4.26612810743087E-06	1.06618423638199E-06	-1.76954791565269E-06	8.84254126190108E-06	0.989390332853233	-0.150077937388549
6.5	0.331732320692106	0.933191837816199	2.45663059565702E-06	-1.32322477327291E-06	1.49708414591989E-06	-2.92531121147575E-06	0.989155335891256	-0.151094022194878
6.6	0.447760681403219	0.887168707300779	-4.74285002470797E-06	-2.27764817446127E-06	-1.84943226662238E-06	-6.66717054209921E-06	0.992049752092329	-0.154280368162853
6.7	0.556869934845323	0.823548960187188	4.18113764457975E-06	-6.56367347601666E-07	-4.69708565276816E-06	1.00710691207758E-06	0.992322480999509	-0.158737945999961
6.8	0.656076756809978	0.746836068510383	3.77487722725821E-06	-2.08688887791931E-06	6.24222136708061E-06	-9.23773877718843E-07	0.991619549376857	-0.162258276105285
6.9	0.744680734975633	0.658333265477379	2.05861939931674E-06	1.64719103657746E-06	8.82161416906906E-06	-2.77502477252547E-06	0.990883015963307	-0.165444045697502
7	0.820486967768619	0.559116588877041	2.1896152119815E-06	4.10692011341732E-06	-8.20676671288316E-08	5.40282430352405E-06	0.988660119147629	-0.167511763678984
7.1	0.883420477231838	0.453010343152993	-1.31421326933964E-07	1.72183141575908E-06	8.27517105398976E-06	-4.66579022472923E-06	0.988537049742814	-0.167864490640925
7.2	0.933161176853743	0.339188407548335	4.86054891183401E-06	-1.39912812174108E-06	7.27822743796322E-06	3.78935426313373E-06	0.988844160616421	-0.169667918268575
7.3	0.968056521609436	0.220197460996839	4.87720490649085E-06	-1.10919053498534E-06	-7.36013677720334E-06	-7.40852401931781E-06	0.988755117467537	-0.171540115645808
7.4	0.989445922385321	0.0974165589386845	-1.87040206003652E-06	9.9425316270851E-06	1.44929978226889E-06	-4.08689541410883E-06	0.990000804402352	-0.174458254642904
7.5	0.995036385645242	-0.0311278626803891	8.48181101750656E-07	8.132417431134E-07	1.68868222197798E-06	1.00131547612978E-06	0.989727442714489	-0.181398370435213
7.6	0.980626546891162	-0.156828588333272	1.45624115606657E-06	-2.63896445609454E-06	-5.47214684594915E-06	-3.63384083619002E-06	0.986082217803679	-0.184899649471825
7.7	0.952512566990417	-0.279604105166517	5.62236923763774E-06	2.39974850448408E-06	-6.81811502495468E-06	1.21635718254958E-05	0.984895854405876	-0.188313932512473
7.8	0.909217167748695	-0.398128517581761	-6.49293109537733E-07	-5.2733649261742E-06	3.72989615809831E-06	-4.79092171383256E-06	0.983999429861627	-0.19200937185159
7.9	0.850434659647554	-0.510911219736362	8.91562662842373E-06	1.46236566096784E-06	-9.66372181206819E-06	-8.60602627724458E-06	0.982758214252875	-0.196725465909565
8	0.774190778079069	-0.612911511055111	-6.68041253530513E-06	-1.55618488872297E-06	-1.19896333594669E-05	2.63367828174461E-06	0.977286832869111	-0.200323000464806
8.1	0.692490935165177	-0.701129407910914	5.07173336156167E-06	6.90848851838399E-07	2.90362497947816E-06	2.23552159498472E-06	0.976295114026874	-0.198668122162706
8.2	0.600244988732314	-0.782164781095112	3.54180207101232E-06	-2.59279025692916E-06	-3.74697005552712E-06	-1.15711183664877E-05	0.976953230720681	-0.200322180380732
8.3	0.497564765418104	-0.851098624578349	2.71172424421029E-06	-1.86937078286734E-06	1.66474635106826E-06	5.27220737421436E-06	0.976552872453496	-0.202927590153579
8.4	0.387123246389047	-0.906693962171742	-5.54445364457147E-06	-9.90941648164343E-07	1.06685210164491E-06	2.9393244146403E-06	0.9755036336459	-0.205606974528714
8.5	0.268871765636652	-0.948648526497144	-3.27922199129464E-06	1.63575469508707E-06	-4.80671945287757E-06	-4.97975867759481E-06	0.974337076362116	-0.207447222475053
8.6	0.146112691645269	-0.97332885977399	-8.12599004295567E-06	1.42896408543108E-06	-4.37497088372835E-06	-6.83285303012466E-06	0.974712240171718	-0.20986303557847
8.7	0.0220779923465833	-0.982621394912633	2.2292695435298E-07	-2.15681319497012E-07	6.11132461279189E-06	4.71021881675559E-07	0.974325713927839	-0.21288500331465
8.8	-0.101530884235141	-0.975970086682997	1.01007377587321E-06	-1.81980659586632E-06	-2.39228275932106E-06	-1.26156162739938E-06	0.973711577561444	-0.21551346955864
8.9	-0.221146072188672	-0.955197896216306	-2.82762132002984E-07	3.02334050923606E-06	-1.23780539501785E-06	-1.62738900049313E-06	0.973385893631345	-0.218009266927006
9	-0.338681728208844	-0.923175129831745	2.97099150142817E-06	1.5705582860782E-06	-1.56128885612088E-06	2.11175186592391E-06	0.972681859264806	-0.221088401124472
9.1	-0.453364522346707	-0.873187720176869	-9.26737451834169E-06	2.29221938701273E-06	-1.54883509388939E-06	2.40626240192282E-06	0.971158871058343	-0.223534235597758
9.2	-0.559669775018714	-0.809802028187318	7.47424723206395E-06	-2.55168541121911E-07	-9.06453157609692E-06	1.98793680269571E-06	0.969569862457435	-0.22558509925894
9.3	-0.657560811823386	-0.733917688071211	6.07838179504235E-08	-7.13928330654824E-06	1.57837506277897E-06	-1.29932835816089E-06	0.96868196353281	-0.226976063523252
9.4	-0.745719672426008	-0.647040056888369	6.0223689001387E-07	2.47732840257418E-06	1.60781723940676E-06	-3.59287513483088E-06	0.968708509055571	-0.228980850779953
9.5	-0.824681519728574	-0.546192617196213	-2.84285671875654E-06	6.65420565506743E-06	4.71656787848805E-06	-1.38763922646968E-06	0.968040723523392	-0.232975490090201
9.6	-0.884360928580355	-0.434957731289766	-5.03798186557791E-06	-5.16653874573587E-06	4.76365476609274E-06	2.85094917123793E-06	0.966210156704364	-0.235080623245787
9.7	-0.930619871442745	-0.319852097848932	-2.01822673857644E-06	-5.05056399208142E-06	2.09099066780208E-06	1.17623879156834E-09	0.965856774524867	-0.236911143037305
9.8	-0.962768765607533	-0.199325243130457	5.72778896050312E-07	-4.27592607894096E-06	-2.94388540741589E-06	-2.49796644233261E-06	0.966114151681498	-0.238921993590941
9.9	-0.978784993718824	-0.0761161463754268	-6.07311524005984E-06	4.22811578881226E-06	-3.06599858531139E-06	1.67600614659173E-06	0.966105599327817	-0.242441761428362
10	-0.98089526042888	0.0467085226639883	3.55201184223688E-06	-6.07215053985844E-08	8.24332970917744E-06	1.09973011622834E-05	0.961566617737724	-0.244689792838777
10.1	-0.967478460319887	0.170541931194405	-2.84992441152994E-06	-2.49947697622667E-06	-2.00596534759368E-06	-2.47743205641029E-06	0.961462185433921	-0.242610206218067
10.2	-0.937736518157901	0.291896679446196	2.34211769315787E-06	-1.02271836040854E-06	-2.75753836029956E-06	-1.05355542870872E-06	0.962482569366161	-0.243761487745803
10.3	-0.892126479261495	0.408177406221547	7.70404787778642E-06	-5.94417142883345E-06	3.86569374271439E-06	8.17912906917311E-06	0.9624736909902	-0.245737120767528
10.4	-0.831847743374945	0.515694306258672	1.69635291413682E-06	2.44121189974123E-07	6.23547587536279E-06	-1.19875878845581E-06	0.9617143012278	-0.248154636606133
10.5	-0.763386319903537	0.612139422335471	8.29574943916699E-06	-4.11658761730244E-06	-4.90804237675868E-07	1.95998988117317E-06	0.960889877039802	-0.24970358403514
10.6	-0.684306220534308	0.704875433551506	8.90025993924442E-06	-1.26458874138032E-06	-1.47048955594383E-06	1.35868684872298E-05	0.961264234080359	-0.253136498519191
10.7	-0.591569415309801	0.786378142459048	7.98480689204405E-06	-1.90174566496216E-06	-3.04599379200595E-06	-5.2589974284185E-06	0.959279626367351	-0.256475146295552
10.8	-0.487870762604847	0.855649513593644	2.44509614846397E-06	5.22370626606762E-06	-3.61286019201067E-06	-2.01204966415374E-07	0.957618166337501	-0.257675772480221
10.9	-0.376074240165126	0.910000298059743	-5.53306169216025E-06	4.84731894532995E-07	1.59095367569114E-06	4.00951206376444E-06	0.957017653679182	-0.258807015545395
11	-0.261030053679009	0.951904339411794	3.62531418125689E-09	-5.20281099571695E-06	-8.34974884854443E-06	2.2227887314836E-06	0.956187654838589	-0.26032739623614
11.1	-0.137071005354256	0.979667455897494	6.28406438292196E-06	4.07049346116295E-06	-1.89331479858886E-06	1.07144993230913E-05	0.95537956555828	-0.260975873144614
11.2	-0.0117188868352208	0.98921810614809	1.5703229837206E-06	1.34986434619883E-06	5.10711102119114E-06	8.86476857113128E-06	0.95463469330496	-0.261762634896901
11.3	0.113470528687507	0.982159184660825	-4.56763046888915E-07	-1.73028330828075E-06	-6.86874424080707E-07	-4.37663952000416E-06	0.954850665137927	-0.262227393192581
11.4	0.236529592093824	0.959841497424308	1.81477895598604E-07	1.18170200604203E-05	2.39644944315622E-06	4.91942029078173E-06	0.956053613650025	-0.263789881998052
11.5	0.355403177398938	0.922389045203276	6.18532273385685E-06	-3.087211073065E-07	3.20874249890091E-07	-1.87812603658813E-06	0.955449404154932	-0.268859630553328
11.6	0.467769676562973	0.871045876055904	-5.99032746968938E-06	3.05444690187123E-06	-4.85725722599586E-06	1.90267698749871E-06	0.952861375726295	-0.271134768301363
11.7	0.573224894518783	0.80610627907352	3.31913679629293E-06	-1.78184283076049E-06	-1.705750637072E-06	2.22515212121112E-06	0.952677615657702	-0.273593382283944
11.8	0.669897341147649	0.727440191352658	-8.45403801909829E-07	9.76281072024834E-06	-2.73734697082085E-06	1.04998297706248E-05	0.953278776455309	-0.277279379180308
11.9	0.755389817291246	0.634985856816947	-7.28270209632177E-06	-1.04309221889662E-06	-3.91618142139001E-06	1.1226206411831E-05	0.954359634844401	-0.283061860787452
12	0.822012185916284	0.532511617334294	-6.40049706996586E-07	1.37514852626272E-06	-3.12148686402224E-06	-1.91240511209778E-06	0.948512355029894	-0.287468376454633
12.1	0.879606700451401	0.430191336921302	-3.8633784083183E-06	4.95320409518303E-06	-1.34333699895495E-06	8.36454105381556E-06	0.94719855553177	-0.287404347532633
12.2	0.926596489873569	0.318347184698184	-5.68216259293872E-07	-3.77800588449254E-06	-3.0957684961618E-06	-7.3133809632007E-07	0.946324779370472	-0.289984343493378
12.3	0.958761084271334	0.20115122872208	3.56856951209856E-06	3.41511774481478E-06	-3.42189180235699E-06	6.22100165885141E-06	0.944653030251839	-0.292388542279838
