# GHZ S RI R 50
0.2	-0.969690463657507	0.249501779744947	8.83905181687185E-06	5.36062011077973E-06	1.14771931381825E-06	-2.89644934734725E-06	1.00310701258535	-0.00486930479807312
0.3	-0.93194185268412	0.3694931810965	-7.69454217840819E-06	-8.45505345603366E-07	-2.54521304442595E-08	3.67602167824768E-06	1.00393581775418	-0.00771316660627244
0.4	-0.879277266345722	0.484477215365544	-2.23250327971922E-06	6.37281891972142E-06	2.91999819400101E-06	5.78220154759312E-06	1.00549950412555	-0.0103299280386871
0.5	-0.811281353950234	0.594077133269707	-2.67109839386306E-06	5.51819617497567E-07	1.06037409969553E-05	4.93148333488897E-06	1.00666709813571	-0.016500318131878
0.6	-0.728382822755727	0.690837767367562	-1.73584183662287E-06	-1.82724274572427E-08	4.18806388609251E-06	-1.03996757807834E-05	1.003664819711	-0.0195355797446716
0.7	-0.636331958058441	0.777092712654702	-2.06103069145885E-06	9.92818672075146E-07	3.79763268555782E-06	1.12352324637101E-05	1.0035450601268	-0.0207970599325466
0.8	-0.533587933918065	0.851936263421068	-5.64958561633899E-06	3.80324610729713E-06	-3.18837390357126E-06	-2.15768968410784E-06	1.00418219410955	-0.0222349290196968
0.9	-0.422038083469748	0.913018453538939	-6.80405930294514E-07	5.28929396222371E-06	3.29157461619563E-06	-2.92849334786516E-07	1.00508605025555	-0.0236002242366691
1	-0.303089326335681	0.959643792584342	1.584277639305E-05	-3.68921212717567E-06	-9.6910732019036E-06	5.11970653445115E-07	1.00864662433146	-0.0250145537995719
1.1	-0.179582936884671	0.99054400751037	1.35572560886237E-06	-3.01627296700029E-06	9.5080452817912E-06	1.2733807873297E-05	1.00865468383862	-0.0312878470126714
1.2	-0.0521142787388549	1.00515748266983	-7.99925242315581E-06	-3.27464735091311E-06	-3.1408128905327E-06	-4.51836578006905E-06	1.00627665321541	-0.0334345656231219
1.3	0.0765026533939136	1.0029181232311	1.94607741645924E-07	3.36450210447894E-06	1.94858930614558E-06	3.35943854344229E-07	1.00458310303044	-0.0353755578667663
1.4	0.202818190009599	0.984090093868165	4.41222045754898E-08	3.79560270522183E-06	-2.5785857206656E-06	-5.64263779250133E-06	1.00234414296051	-0.0373358343885484
1.5	0.326298004585427	0.950869102174883	3.2095305995268E-06	-2.87628820414035E-07	2.73519195495683E-06	2.09437206573145E-06	1.00404380894353	-0.0408057701452275
1.6	0.443589179060466	0.901184340299974	1.78645158946524E-06	-1.96508516661164E-06	-9.21127802069744E-07	-3.07830819445746E-06	1.00266812723255	-0.045032841112937
1.7	0.552957100616195	0.838192109344747	-1.08270768864537E-07	-3.54799486126909E-06	2.04972072333194E-06	4.94697429431297E-06	1.00369080700101	-0.0466823215720085
1.8	0.653406921847398	0.762430745990321	-2.08144023401575E-06	-1.81460455517914E-06	-4.56763049067003E-06	1.84667979802672E-05	1.00424941006139	-0.0488898984545567
1.9	0.742850352904515	0.676400155221269	-4.42385325491516E-06	-1.46353058965037E-06	-4.97697933006582E-06	-6.02856924756034E-06	1.00549340658159	-0.0487864002148303
2	0.827115746177634	0.581095741576709	-9.67509171980698E-08	-6.8322990099381E-07	-1.69243849619604E-06	-1.43546466228517E-06	1.01321188772507	-0.0527416569188227
2.1	0.895732124162122	0.465175260444788	-1.07508924255351E-06	9.59563467982454E-06	2.02018888193593E-06	-4.03232537520218E-07	1.0109531042592	-0.0633902318388345
2.2	0.944335928568501	0.347225432453073	-8.45720567964124E-08	-5.99815523467954E-06	-7.16969267207288E-07	2.77678492658961E-06	1.00745352038707	-0.0663824704574457
2.3	0.978974252785225	0.225550033019233	-1.29924991486239E-06	2.80902514468121E-06	-1.44000067659023E-07	1.21014938432573E-05	1.00584536041451	-0.0680604008496995
2.4	0.998780788487604	0.10004147091925	-5.97459628493842E-06	-3.67341952902245E-06	-1.75901026158693E-05	1.48787697915662E-05	1.00520316560394	-0.0710153226934011
2.5	1.00417606931699	-0.0267546046369839	1.7949043476443E-06	-3.00581172736286E-06	-1.71005184342209E-06	7.62216412700924E-06	1.00542514044775	-0.0739608442456749
2.6	0.99228018173932	-0.152826985256096	2.89271676920603E-06	8.97818009268802E-07	-1.72008238336765E-06	4.55362600588792E-06	1.00437147559836	-0.0782324836500609
2.7	0.964847399574297	-0.276856468739324	3.97047807151366E-06	1.05019429415806E-05	2.38585062632648E-06	3.87958145582051E-06	1.0034495685133	-0.0820326265950858
2.8	0.921287948912353	-0.396921015401794	-8.50244319606379E-07	-2.30529774108323E-06	1.97952246384579E-07	-1.90934050936497E-06	1.00268083967854	-0.0851983885998905
2.9	0.862729077331631	-0.509227612331627	3.68352018995943E-06	-8.44841092355342E-06	-1.48864501685329E-06	-1.4339676526843E-05	1.00111649148388	-0.0878504111642657
3	0.791266147283402	-0.613182079542898	8.96404521036707E-08	6.70330709254195E-06	-1.48083262414775E-05	5.57310661542939E-06	1.00016696860225	-0.0908899284607828
3.1	0.707779222895936	-0.70712021943129	-4.89245469384783E-06	7.96393775774384E-06	5.85053036278229E-06	-1.81617628811409E-07	0.998425869072641	-0.0939449602888941
3.2	0.610842515369405	-0.789682949813424	1.00369502460683E-06	2.12087404776388E-06	-4.57876835330257E-06	5.62276424561223E-07	0.996448923828977	-0.0960845195267868
3.3	0.504657506281421	-0.858542592126871	6.942589110104E-07	-1.47850251367688E-06	-4.58389732616452E-06	8.21131278904172E-07	0.994137539649556	-0.0996716634014795
3.4	0.390822929267264	-0.910573484798713	6.47169185955326E-06	1.07384855588175E-07	-8.27390465810965E-06	-7.01733187253492E-06	0.991121778431432	-0.101053009404627
3.5	0.279767430787263	-0.949582875328669	-7.640190689579E-06	2.06595208254049E-06	-5.99547588439164E-06	-7.86536802071288E-06	0.990636225172601	-0.100353662767821
3.6	0.155830123937494	-0.982797285990264	-9.17402209834364E-07	-4.36895962408442E-06	-7.90285063545588E-06	-6.22279953238069E-06	0.991292830867905	-0.104275523608449
3.7	0.0274141908582258	-0.993044089503586	-6.81648457562876E-06	-6.65786021571993E-06	4.52238026154692E-07	-4.76810014514721E-06	0.989158081771438	-0.107305281558204
3.8	-0.0986803656859637	-0.985721135376143	-3.61732767375788E-06	1.13813000995697E-06	-3.32751217668291E-06	-2.407025773781E-06	0.987110157874883	-0.108057016342425
3.9	-0.220139808679379	-0.963303181819692	-4.28177564879837E-07	3.50481218098141E-06	2.03030936653365E-06	-1.24518158913761E-06	0.987345802884758	-0.107847499706246
4	-0.33844660449576	-0.929217280729549	1.18157071454633E-05	7.93342622427271E-06	7.2038432169041E-06	-4.15997827066966E-06	0.99385092752416	-0.110650880181672
4.1	-0.453513684339878	-0.878170519047749	5.22714704353277E-06	1.21676203839527E-06	-3.31630588578722E-06	6.69881170276399E-06	0.989825515365738	-0.119194285574363
4.2	-0.559015496137449	-0.81329952634938	-7.0787392065391E-06	-1.06107793889309E-06	-8.21805897125038E-06	1.14052151599519E-07	0.985334509520162	-0.121123944560834
4.3	-0.655456507122827	-0.736034876566151	6.54861846196733E-07	-2.36332588734381E-06	5.19074965545821E-06	7.80766967558118E-07	0.983529856322733	-0.122079700649624
4.4	-0.742083006075806	-0.647256364485889	4.40691170158025E-06	-1.83829377515449E-06	-8.38018716954951E-07	1.35127952264687E-06	0.982380687324197	-0.123855982581008
4.5	-0.816601966761576	-0.546563938356706	6.75581981959488E-06	1.72032802123948E-06	-8.58967058108699E-07	-3.21087789955759E-06	0.980931377251739	-0.127822975100863
4.6	-0.876318752665228	-0.439651426222584	2.47584582912538E-06	2.87008244072665E-06	-6.3315767216087E-06	9.73636210333922E-06	0.976171364839215	-0.129353845590169
4.7	-0.923789063291367	-0.325579881690671	-1.37607381957428E-05	6.05865061088406E-06	-3.4144448714885E-06	2.12435284057474E-08	0.974585620348061	-0.129235714426263
4.8	-0.956818631061641	-0.205967716900161	-3.19343639930491E-06	-5.0190804365064E-06	-5.406666345734E-06	2.41476129883198E-06	0.973189681580998	-0.130230706229511
4.9	-0.973120122706306	-0.081380532050409	-1.13917385307999E-06	-8.39883033797959E-06	-4.14184720362172E-06	7.94430361392282E-07	0.971633278058567	-0.130617325244282
5	-0.9667162592426	0.0390362872931774	7.37107510552023E-06	-1.64517662965562E-06	-1.75454992058766E-06	-2.64016548973926E-06	0.970575752118755	-0.130797654885372
5.1	-0.956909893685332	0.153420848749315	-2.60910047471955E-06	-6.23790535330768E-06	-1.00677575629745E-06	-1.90336442656857E-06	0.969491415487089	-0.130774119794523
5.2	-0.932405137157374	0.272596431280595	3.91420274873953E-06	-4.62237638592913E-07	-5.27643734532423E-06	6.22921118539951E-06	0.968641211356313	-0.131398255725922
5.3	-0.890990427411711	0.387347328708956	5.08267597994212E-06	5.84371688484834E-06	-9.69572136316628E-07	-3.50541355092341E-06	0.967691341062094	-0.132627098227872
5.4	-0.835186752809153	0.495073837839445	2.98167526877746E-06	-1.9937589738796E-06	-1.10525285273543E-05	2.2306180367782E-06	0.965745731829738	-0.133723699791953
5.5	-0.76690091851169	0.593722333477702	-4.30631615288776E-07	-2.14426039399028E-06	-5.63716054422914E-06	6.01092170354643E-06	0.966335846335652	-0.132400960354824
5.6	-0.687488500413834	0.68427210589256	2.35251665430926E-06	7.14395979049399E-06	-5.17729985036895E-07	2.86961863717369E-06	0.967037050752117	-0.135442880148536
5.7	-0.597270901675123	0.764663914247383	-2.51114743353454E-06	2.31585554321626E-06	7.74741031871047E-06	2.70189603574372E-06	0.965383111133574	-0.136406102992127
5.8	-0.497853855366854	0.832278617769068	-4.54522007578657E-06	4.99156349657189E-06	-3.58007943057617E-07	3.34669908452637E-06	0.964773232652502	-0.135562022045931
5.9	-0.392999592384244	0.888174973244179	6.2164165459093E-06	1.49485269769673E-06	-2.6650514642073E-06	2.4811937293977E-06	0.966905764635562	-0.132540709241434
6	-0.279217503223696	0.936305626200584	3.46200098123579E-06	3.27379350102879E-06	-3.17079847906652E-07	-1.41705803329054E-06	0.976937909313884	-0.136434377395642
6.1	-0.155180888848779	0.961865472271172	9.04870741746463E-06	1.48594236950957E-06	-1.29039319976034E-07	-1.78267285236443E-06	0.972920589466456	-0.145516945739487
6.2	-0.034104410649085	0.97115259292118	2.39513483313203E-06	-1.70432071967664E-06	1.44729324139228E-06	-4.76483056866944E-06	0.968979798236737	-0.145772067115785
6.3	0.0861090274326213	0.967295177535148	-4.28133729607843E-06	4.1687917826161E-06	-6.0420529866888E-07	-1.69406126425367E-06	0.967458043035433	-0.145617240135357
6.4	0.206453987355986	0.951806532976576	-4.19475775997677E-06	1.05006338052793E-06	-1.73676407789126E-06	8.6961161550387E-06	0.968368185106197	-0.145740896044017
6.5	0.331175430069738	0.914606655858294	2.398123467366E-06	-1.31705339618471E-06	1.44448640123842E-06	-2.88021204595165E-06	0.967356100923921	-0.15276253675307
6.6	0.434838711228004	0.860009410122009	-4.60433382356366E-06	-2.19832693758372E-06	-1.80809464045095E-06	-6.46137490982271E-06	0.960439574098077	-0.150369081562679
6.7	0.534520035466296	0.801991455793609	4.05471258050171E-06	-6.14929083273097E-07	-4.55641934524319E-06	9.52185529613031E-07	0.961267878663264	-0.147090293709009
6.8	0.628859324474211	0.731529979534339	3.67984554080698E-06	-1.98681168254416E-06	6.06069839479994E-06	-8.35380666017563E-07	0.962539709250896	-0.146171885613387
6.9	0.714235308685028	0.650303957230575	1.97301999722698E-06	1.62742007526152E-06	8.59669091739506E-06	-2.56438834624854E-06	0.964358206447549	-0.144748322843642
7	0.79194899860135	0.558574657278659	2.05725976687476E-06	4.04867973408306E-06	-1.83836109406254E-07	5.26930372141374E-06	0.969349947631005	-0.146794920196681
7.1	0.855260171507567	0.454704166227348	-1.56064305546678E-07	1.68240469531783E-06	8.1702676552253E-06	-4.43251058653042E-06	0.967017145466392	-0.150946465137646
7.2	0.904149313752803	0.345418519208161	4.77159080281816E-06	-1.29198564382177E-06	7.0538631687676E-06	3.81585315701303E-06	0.964998713250981	-0.15077918406919
7.3	0.938546269143085	0.230843838127012	4.77498641523153E-06	-1.00840903934809E-06	-7.06859462906387E-06	-7.33903783743073E-06	0.962839405194517	-0.150414751539203
7.4	0.956141707313122	0.115047935149566	-1.96797886050737E-06	9.60289264783228E-06	1.46817185737882E-06	-3.93661289968627E-06	0.958974361843017	-0.147032443352829
7.5	0.968011855587812	0.00452295910886762	7.92998308289167E-07	8.10572299038783E-07	1.59788268563149E-06	1.01791422505036E-06	0.966041975352682	-0.138677480639259
7.6	0.967972202551927	-0.121021509782488	1.51466681799343E-06	-2.52434925739554E-06	-5.21277356210152E-06	-3.74029564782862E-06	0.973274991099387	-0.146079699747273
7.7	0.945627355475188	-0.243162784632198	5.42045115985497E-06	2.5479750203988E-06	-7.10486363294392E-06	1.1669376973278E-05	0.973548267982543	-0.150428656032302
7.8	0.909248850143797	-0.359408601060714	-4.37526226904071E-07	-5.20034092448814E-06	3.84232310150468E-06	-4.56095113268448E-06	0.974746256929304	-0.152236226398132
7.9	0.861956534953553	-0.46905303830712	8.7286339223283E-06	1.83401406543856E-06	-9.15251710234148E-06	-8.91220900344302E-06	0.979135664934398	-0.151792860549847
8	0.80570974420675	-0.583251574134136	-6.63711913429592E-06	-1.86513765849415E-06	-1.21577542104875E-05	2.101282388636E-06	0.991239213965728	-0.159865123138425
8.1	0.717370572348062	-0.685683813975074	5.08352118249873E-06	8.54085348328745E-07	2.85280289241026E-06	2.34109494428736E-06	0.986324587894768	-0.171821855918006
8.2	0.624216082785952	-0.767448607462549	3.63105431048183E-06	-2.4994108171137E-06	-3.42375522775253E-06	-1.172488470494E-05	0.983395361335091	-0.172907556642302
8.3	0.52374083917223	-0.838867731680401	2.77667146755982E-06	-1.79948658645054E-06	1.52061763339962E-06	5.34202445737222E-06	0.983603283797281	-0.174299152280583
8.4	0.41522781058821	-0.896979542774995	-5.54390861343162E-06	-1.14197489884348E-06	9.94143755404541E-07	2.98109189271167E-06	0.985098485844383	-0.176603991305286
8.5	0.302949361245375	-0.942865706570725	-3.32407866547433E-06	1.54717449177099E-06	-4.67258381818185E-06	-5.1108088469263E-06	0.985853790966768	-0.181807139647371
8.6	0.180969690311804	-0.977420004596183	-8.19877009582292E-06	1.17056627401813E-06	-4.16805034758989E-06	-6.9967833694018E-06	0.984478456691297	-0.18381363068962
8.7	0.0546695770724605	-0.993929624820702	2.31695624301083E-07	-2.10040102981489E-07	6.1427897149483E-06	6.74640037947958E-07	0.98577773693572	-0.185534561739314
8.8	-0.0734721855069677	-0.994102805852906	1.08023833331013E-06	-1.80908259999255E-06	-2.3803039872269E-06	-1.35301306147128E-06	0.987364514148487	-0.187941691950114
8.9	-0.202069482969731	-0.975368467828168	-3.72184481240313E-07	3.06384478943188E-06	-1.21194409873121E-06	-1.68822114325748E-06	0.989032397047339	-0.190522171818358
9	-0.316688946072274	-0.936213735833446	2.96704730007928E-06	1.66103111420736E-06	-1.630732703347E-06	2.09811406783777E-06	0.990875540034273	-0.193028734092203
9.1	-0.428954413232107	-0.89692605785304	-9.45585154046853E-06	2.0557640477307E-06	-1.63857017452714E-06	2.39348665388442E-06	0.992904586592592	-0.196671721856282
9.2	-0.540867842684625	-0.838741993162607	7.60224471967365E-06	-5.14511446576963E-08	-9.26643820980247E-06	1.76802541751581E-06	0.993676113318883	-0.201225715232872
9.3	-0.643746340336162	-0.765054806332971	2.4760471685487E-07	-7.25760470824675E-06	1.63869871466227E-06	-1.28007314872799E-06	0.993116551769532	-0.205513354355866
9.4	-0.733395490026908	-0.676934719157888	5.48523182994623E-07	2.52763587917271E-06	1.7209451140074E-06	-3.60347400188862E-06	0.991181564306665	-0.207620947662293
9.5	-0.810998966720905	-0.589471756068173	-3.11128902020036E-06	6.66032189714502E-06	4.83585137781559E-06	-1.24960830540781E-06	0.99451576311526	-0.207629612565109
9.6	-0.889381417309116	-0.481826664155642	-5.00312123248039E-06	-5.44860037415969E-06	4.79323978114637E-06	3.06758476838107E-06	0.996761993782294	-0.215100277212147
9.7	-0.945131296588427	-0.36143446741131	-1.93602196970593E-06	-5.23574153766621E-06	2.14534102079404E-06	5.69717020312324E-08	0.995919646633846	-0.219439181302416
9.8	-0.984592417431681	-0.236293432240351	6.965047694438E-07	-4.37532686864091E-06	-2.95895969520377E-06	-2.6391990989992E-06	0.995811632694412	-0.221231120942623
9.9	-1.00783103217425	-0.106769467823815	-6.36579921072717E-06	4.18856917429201E-06	-3.20138564242246E-06	1.64255677598942E-06	0.99918969031815	-0.21982053751697
10	-1.01284193691726	0.0235326466221964	3.69041789050339E-06	1.93204074274956E-08	8.3062002305739E-06	1.16126489061276E-05	1.0101906053131	-0.229430543441183
10.1	-1.00289662407877	0.152734541473918	-2.91895770584918E-06	-2.63631595182841E-06	-2.04368898094023E-06	-2.6006739859529E-06	1.00300004517372	-0.239905358579497
10.2	-0.976591710008207	0.280908057014665	2.4409682388603E-06	-1.02866764188557E-06	-2.84379338041398E-06	-1.12868135030374E-06	0.9999658442876	-0.240973489697978
10.3	-0.934551505401284	0.405428877332504	8.06537412377922E-06	-6.07419131924269E-06	3.91189224463102E-06	8.53314150355807E-06	0.999701366888613	-0.243074150788027
10.4	-0.877229889875759	0.527420010283278	1.76451486667025E-06	2.68932687462633E-07	6.50418802261518E-06	-1.19439446938584E-06	1.00087834567276	-0.246951888996947
10.5	-0.792547313686821	0.640631640661775	8.60739343022434E-06	-4.29665436246999E-06	-5.05021797970989E-07	2.03721843817769E-06	0.999205012038633	-0.255805323696675
10.6	-0.702347563945101	0.727584986331077	9.17709366024656E-06	-1.30938498917563E-06	-1.50817953080236E-06	1.4011520522642E-05	0.994945381033787	-0.258200836815534
10.7	-0.606460956587497	0.809146999898168	8.24086061412779E-06	-1.95853263032046E-06	-3.14069449245989E-06	-5.42853312353622E-06	0.994477659432224	-0.262006046627753
10.8	-0.498542573037233	0.880597143401438	2.5348843822209E-06	5.39271843626385E-06	-3.73292651687214E-06	-2.01815155783475E-07	0.993090617912732	-0.26620843648503
10.9	-0.378206706236618	0.937181209339611	-5.70797501737768E-06	5.29240786425727E-07	1.66296508828974E-06	4.12977310028444E-06	0.99209590573934	-0.26952169264871
11	-0.254309760985093	0.970016847966743	-1.71704745107493E-08	-5.35375010510136E-06	-8.58303113590813E-06	2.32081095146639E-06	0.9919593888323	-0.273050451900485
11.1	-0.133575742030754	0.996100137477366	6.51630051568646E-06	4.1700557067276E-06	-1.89519460831644E-06	1.10816889154859E-05	0.989749207270923	-0.277578198666074
11.2	-0.00521550770922589	1.00615347143575	1.63722866460417E-06	1.378203351368E-06	5.37251200052894E-06	9.10648858708903E-06	0.986970172279086	-0.281208406706493
11.3	0.1232057663941	0.998266661322564	-4.98040095691689E-07	-1.77693678689722E-06	-7.76715385267645E-07	-4.50197699464175E-06	0.98289777850462	-0.283926445530447
11.4	0.248670079521725	0.974622258138043	4.21364624255993E-07	1.21156281789826E-05	2.55567132250052E-06	4.9975277718815E-06	0.977589010886004	-0.284718739204987
11.5	0.371391632954054	0.935471334851147	6.31037397762225E-06	-4.03992940342175E-07	3.00625258317759E-07	-1.92204994779739E-06	0.981982869673969	-0.283624287178188
11.6	0.485883923812888	0.879634655842314	-6.09630014098273E-06	3.2205240159811E-06	-4.95170615534811E-06	2.02284100016638E-06	0.981398128680178	-0.293959889704599
11.7	0.591486750378171	0.811882459312124	3.36838843414133E-06	-1.88532503181336E-06	-1.70746753734784E-06	2.31042970620603E-06	0.976905545943886	-0.299330793334292
11.8	0.687416033906218	0.73219754006202	-6.84898655380442E-07	9.99159149499856E-06	-2.60466282981389E-06	1.07793953452873E-05	0.973656391465816	-0.301923751970517
11.9	0.774987720409525	0.64551136768018	-7.45978893767471E-06	-9.7379648139466E-07	-3.86127995321864E-06	1.15285833030747E-05	0.976326098790547	-0.301072961313429
12	0.863580106904986	0.541265518734231	-6.43094093134328E-07	1.43662910167322E-06	-3.26806693689784E-06	-1.93659176877458E-06	0.984568361990146	-0.313500968942036
12.1	0.921416177112405	0.416358693445472	-3.85481714400933E-06	5.22160239798631E-06	-1.15867734049923E-06	8.67608063856137E-06	0.972860532615135	-0.322358216014098
12.2	0.962130013398131	0.295023265633378	-6.9405612663017E-07	-3.8735507364612E-06	-3.20859432748402E-06	-6.63687054245053E-07	0.967437230037505	-0.323602410041423
12.3	0.989893797363933	0.171532987253483	3.7815948187401E-06	3.40593958414319E-06	-3.33026333795821E-06	6.51347612545554E-06	0.964505916275391	-0.325821030191
