# GHZ S RI R 50
0.2	-0.966767398951227	0.251067328926931	8.82582439319926E-06	5.32958306153882E-06	1.13916299971708E-06	-2.89095578393705E-06	1.00032772959866	-0.00639256127600306
0.3	-0.927683285956004	0.370932648431766	-7.66878884028255E-06	-8.25342250216814E-07	-1.71786686406436E-08	3.66287575109436E-06	1.00042197253862	-0.00924657463083889
0.4	-0.873405449068018	0.484958510584982	-2.20611575402331E-06	6.34611102903382E-06	2.91908959615353E-06	5.74619652577817E-06	1.00074868815062	-0.0118809370997394
0.5	-0.805058770938279	0.591768948086455	-2.65332338007433E-06	5.49479642579069E-07	1.05365842418945E-05	4.89408182496167E-06	1.00070974434924	-0.0157182984908534
0.6	-0.723473232664993	0.688112135157544	-1.72712648774044E-06	-1.85124276860661E-08	4.1690320942751E-06	-1.03466814966681E-05	1.00006013135596	-0.0184210099258
0.7	-0.631086654096578	0.773700844762784	-2.0497285779445E-06	9.88718386595109E-07	3.78372268299569E-06	1.1174476160108E-05	0.999845478779486	-0.020964708214688
0.8	-0.528480636276561	0.847193403812917	-5.61432629023516E-06	3.78463004809067E-06	-3.17115938847291E-06	-2.14314087074853E-06	0.999846449831475	-0.0229567775994235
0.9	-0.417620224516949	0.90696271989368	-6.72256327627067E-07	5.25728596974945E-06	3.271118616369E-06	-2.93517311235997E-07	1.00007150468108	-0.0251102123256791
1	-0.299677821622517	0.952381077640522	1.5717503221548E-05	-3.68364551273276E-06	-9.6169090890225E-06	5.21787400489899E-07	1.00073648822667	-0.0268305980133188
1.1	-0.177879565383728	0.982359444528971	1.34575589763253E-06	-2.98865927031614E-06	9.41530213616509E-06	1.26274893343555E-05	1.00050822085385	-0.0297707844658163
1.2	-0.0523622188954931	0.996829177213657	-7.9263038274802E-06	-3.26583254624471E-06	-3.10488547724937E-06	-4.48840741872848E-06	0.999645186656282	-0.0309952218250026
1.3	0.0741414306922944	0.995173748764872	1.80006782115866E-07	3.34100396219277E-06	1.93322019962791E-06	3.41164915313985E-07	0.999550323539737	-0.0321068304139595
1.4	0.198929983272416	0.977312921253959	2.44775483241237E-08	3.7734454076986E-06	-2.5345623900874E-06	-5.62253226901474E-06	0.998892401147012	-0.0341025901806875
1.5	0.320592372576206	0.944429127075272	3.19127401267017E-06	-2.68746579135784E-07	2.70716261665276E-06	2.09603848517519E-06	0.999454533562815	-0.0375570330354018
1.6	0.43679711077765	0.89636781079594	1.78821350689071E-06	-1.94285697496098E-06	-8.96991549695268E-07	-3.06625577695357E-06	0.998542025830305	-0.0410502320397578
1.7	0.54574557869849	0.834068171512486	-8.80534183642908E-08	-3.52853822688959E-06	2.01079897819258E-06	4.93033795845964E-06	0.998916213928934	-0.0434074901924398
1.8	0.64579213687734	0.75905831698569	-2.06067185396567E-06	-1.81461621230228E-06	-4.63307699714741E-06	1.83395691546057E-05	0.998779990142553	-0.0460433945321171
1.9	0.735392008586313	0.672649971100842	-4.39434599621097E-06	-1.46821972737502E-06	-4.93088042711213E-06	-6.00888467583365E-06	0.998807450396425	-0.0477543449074582
2	0.814985849796167	0.575960529666612	-9.47415643783705E-08	-6.75816073376195E-07	-1.67176737775343E-06	-1.42193842286012E-06	1.00005347777703	-0.0507500990552105
2.1	0.881430222479397	0.46683374877553	-1.13078498643775E-06	9.47316416205187E-06	1.99890294040721E-06	-3.83975415374307E-07	0.999253314050676	-0.0547490022762634
2.2	0.932276771510476	0.352075855224576	-3.30023076583823E-08	-5.94004311312679E-06	-7.33427220673654E-07	2.74348624331377E-06	0.998502856604228	-0.0571622394205808
2.3	0.96852294924242	0.232096575445884	-1.31244434130446E-06	2.77233503611562E-06	-2.49758403236119E-07	1.19916697598149E-05	0.997965850023301	-0.0589182165106082
2.4	0.98957976737215	0.107856171656537	-5.88799708562662E-06	-3.70133709814699E-06	-1.75884308498054E-05	1.45798870780696E-05	0.997809278406275	-0.0619525150810665
2.5	0.995582546043613	-0.017205903181965	1.81498364419138E-06	-2.96887861080635E-06	-1.77835046119573E-06	7.55786953843593E-06	0.997533440756905	-0.0643294643730048
2.6	0.985528510278793	-0.141349200212084	2.86689548935594E-06	9.1631967583006E-07	-1.74726492305964E-06	4.51041407797054E-06	0.99722268660883	-0.0674076785007393
2.7	0.959886692125643	-0.263830827947478	3.8471909764499E-06	1.04561824588484E-05	2.33323339784979E-06	3.87079236974902E-06	0.996769305798566	-0.0705137476008693
2.8	0.918918034374738	-0.382388450333708	-8.20016880068901E-07	-2.29512950340035E-06	2.15644586431199E-07	-1.89179786021364E-06	0.996761248905162	-0.0727744232214188
2.9	0.863559266231534	-0.494228090064682	3.75095442071447E-06	-8.3407856782678E-06	-1.31396396877047E-06	-1.42450451915334E-05	0.99627500384763	-0.0749867513636481
3	0.79481941536137	-0.598579983399185	6.92583556879103E-09	6.65852863473856E-06	-1.47752390265798E-05	5.35359493672946E-06	0.996065347556106	-0.0776901172385216
3.1	0.714411094814101	-0.692765691192975	-4.96547272315471E-06	7.84936369890608E-06	5.81572132022138E-06	-1.03979587365004E-07	0.995488592808179	-0.079996181220686
3.2	0.620906966398234	-0.777082513936705	9.68514851250877E-07	2.12449341986664E-06	-4.56377722790869E-06	4.94379767057582E-07	0.994925087286969	-0.0818938829059612
3.3	0.517800567369501	-0.848718432944037	7.14514775299521E-07	-1.46314407761966E-06	-4.58154374849602E-06	7.48695766840537E-07	0.994315879959003	-0.0852892319373599
3.4	0.406167458103937	-0.905951553308221	6.46996939003228E-06	2.10610512316557E-07	-8.16196335903609E-06	-7.14929317732955E-06	0.993697967185448	-0.0872760909356258
3.5	0.290315464508512	-0.949030747455901	-7.68598080755614E-06	1.98137670510004E-06	-5.91922288853769E-06	-7.95825715980765E-06	0.993334648830463	-0.0894414420558102
3.6	0.167414404096879	-0.979330541140834	-8.68369841483454E-07	-4.37865213756282E-06	-7.83214029753209E-06	-6.31044974209284E-06	0.993130382516285	-0.0921159555255116
3.7	0.0416646221361906	-0.99254856686773	-6.73446715256752E-06	-6.74777461100554E-06	5.13300241087034E-07	-4.7644052338965E-06	0.992592161502687	-0.0947403806818143
3.8	-0.0843583681962287	-0.989056916608911	-3.63824130141731E-06	1.09349558460466E-06	-3.30225343312093E-06	-2.45405316972555E-06	0.991936177702389	-0.0964307832882698
3.9	-0.207593647928306	-0.969739456108743	-4.70005601208368E-07	3.50681711195669E-06	2.04892670804613E-06	-1.22393770529933E-06	0.992134989967356	-0.0988428565666441
4	-0.327385000608674	-0.936205542497062	1.17055084569846E-05	8.08505473184128E-06	7.25506845090234E-06	-4.06312917676567E-06	0.993400539657099	-0.10065876275117
4.1	-0.442399066285955	-0.887778708732842	5.22035628583222E-06	1.3033363832962E-06	-3.43151497942351E-06	6.66200099830768E-06	0.992397036355914	-0.104023288498979
4.2	-0.550071350191748	-0.825506177905162	-7.09600458707778E-06	-1.17485332419952E-06	-8.25877915561351E-06	-1.16533386389841E-08	0.991092099497419	-0.106542627099559
4.3	-0.649225277752268	-0.749796856386355	6.93390284618485E-07	-2.36785225386687E-06	5.21032266126481E-06	8.61461679229829E-07	0.99069413618237	-0.108382517616344
4.4	-0.738255097301987	-0.66182562556708	4.46172237890764E-06	-1.78762979151627E-06	-8.62677527126348E-07	1.34816556011347E-06	0.990123039920641	-0.110727368124814
4.5	-0.815336895633386	-0.562725877594594	6.78119239289318E-06	1.83766699108534E-06	-8.16075681197755E-07	-3.24877793081587E-06	0.989684575973846	-0.113296711627845
4.6	-0.879059872905028	-0.455493659519627	2.46034395129145E-06	2.93528544232048E-06	-6.53668467060887E-06	9.74642210838016E-06	0.988339895230398	-0.115787762369921
4.7	-0.929204627167291	-0.34042734929489	-1.39938000839411E-05	5.9453396281098E-06	-3.45279462313782E-06	-2.33973029737103E-08	0.987874752174578	-0.117343786060918
4.8	-0.964500086190886	-0.220222521859652	-3.16721439958108E-06	-5.1185367529885E-06	-5.50078839108936E-06	2.37447840078157E-06	0.987231821145689	-0.119454792101309
4.9	-0.983703307797811	-0.0964254823597362	-1.04287036898693E-06	-8.52170972780519E-06	-4.20551744797977E-06	7.49925750536762E-07	0.986633454255659	-0.120917237320829
5	-0.985814591029598	0.0270128906175247	7.51562098402227E-06	-1.58307179534622E-06	-1.75198463624697E-06	-2.70614917864514E-06	0.986302053541904	-0.122277064217433
5.1	-0.975210223170806	0.149781300302861	-2.60061807507737E-06	-6.36458157242722E-06	-1.00772662400403E-06	-1.94378373059872E-06	0.986031781600656	-0.123344565904224
5.2	-0.949493177389737	0.271353491187368	3.98180023835518E-06	-4.40178968314112E-07	-5.40999528694085E-06	6.29128061683172E-06	0.985776752825084	-0.125204897618821
5.3	-0.908198715272393	0.388792776467169	5.12800546235417E-06	5.97783074332808E-06	-9.61608640885972E-07	-3.5714158017193E-06	0.985527874110978	-0.127370616728472
5.4	-0.852163369627118	0.499910103237644	3.04748790258526E-06	-2.01245530026766E-06	-1.12662163827591E-05	2.20627013027688E-06	0.985144113320683	-0.130028030256055
5.5	-0.782166665323002	0.602303926499577	-4.32110701930801E-07	-2.18469444824855E-06	-5.75798478547321E-06	6.10389224247214E-06	0.984898331695117	-0.132196432278546
5.6	-0.700344436265614	0.694982256577436	2.3742358995798E-06	7.27250244229325E-06	-5.34070686552692E-07	2.91744523912927E-06	0.984682249677678	-0.134780628944062
5.7	-0.607925409521872	0.777388556191377	-2.56007097898628E-06	2.35187362563081E-06	7.87906523363279E-06	2.76482871578337E-06	0.984087341204776	-0.13684059988545
5.8	-0.505664276177517	0.847086515620731	-4.62954756145244E-06	5.08176144421007E-06	-3.65360116162401E-07	3.40782075958142E-06	0.983885034878791	-0.138356276456531
5.9	-0.396139555343111	0.904033552370297	6.33129468040689E-06	1.5001307903213E-06	-2.70369156141912E-06	2.5340746401525E-06	0.984263700890702	-0.139521956252954
6	-0.279656318931323	0.947937523706924	3.5136081280067E-06	3.29681998823675E-06	-3.2619762183465E-07	-1.43166861434524E-06	0.986353719875479	-0.141904775344108
6.1	-0.15743675378563	0.974799574242409	9.15773943429445E-06	1.51214667109865E-06	-1.29020960334548E-07	-1.80452979532777E-06	0.985456932859565	-0.145284287047404
6.2	-0.0337528328946698	0.985965451406233	2.43030977340494E-06	-1.72763665015507E-06	1.47032226571159E-06	-4.83250892150156E-06	0.984281599940288	-0.146730492391861
6.3	0.0900110214956509	0.98198298804757	-4.34134679991219E-06	4.23447628479836E-06	-6.14658802317063E-07	-1.71871508793148E-06	0.98347508747819	-0.148438029027821
6.4	0.212384634538125	0.963322080052873	-4.24989086297235E-06	1.06949391338377E-06	-1.7491582855454E-06	8.81535436802445E-06	0.983133496024789	-0.150121808801283
6.5	0.333124369104925	0.928229109874471	2.43938567133679E-06	-1.32968629548031E-06	1.47604492246849E-06	-2.92004639627182E-06	0.982535185360796	-0.153688450897106
6.6	0.444922690858346	0.877685981370437	-4.70561735408218E-06	-2.2403312470211E-06	-1.85415860796132E-06	-6.59801030402347E-06	0.980664900241822	-0.155049547656221
6.7	0.550182540223654	0.815606032883421	4.13705353162781E-06	-6.50919972541914E-07	-4.64746885704472E-06	9.98157826894368E-07	0.980604602607957	-0.156042604363388
6.8	0.64744532623821	0.740850188182673	3.73798222468898E-06	-2.05834710794879E-06	6.17703464771687E-06	-9.03585341682914E-07	0.980551529464522	-0.157588163256262
6.9	0.734669655173629	0.65470818568408	2.03059102614188E-06	1.63702367945921E-06	8.73720926647961E-06	-2.71327565683745E-06	0.980714828629892	-0.158960980055165
7	0.811072754442246	0.558123267156361	2.14751402382327E-06	4.08362083330923E-06	-1.117580978269E-07	5.35550230181874E-06	0.981314968334832	-0.160995732006972
7.1	0.874147056969434	0.452425351667918	-1.37751534717362E-07	1.70839094689309E-06	8.23307646056461E-06	-4.59573337397082E-06	0.980217383212432	-0.163264491496469
7.2	0.923366958695891	0.339840927810126	4.82700869471438E-06	-1.37006029248337E-06	7.20629991745327E-06	3.78602762023306E-06	0.979180271095781	-0.164544477640878
7.3	0.957798609897056	0.221903123566742	4.83811407690666E-06	-1.08488957298073E-06	-7.27385837801697E-06	-7.36619523994854E-06	0.97786177351935	-0.165787832014134
7.4	0.976817357181033	0.100636405218567	-1.86774157685604E-06	9.82139823402996E-06	1.44016608887774E-06	-4.03577288627146E-06	0.976144707370067	-0.166822778849709
7.5	0.982208485805631	-0.0204876523005814	8.2865233654764E-07	8.06394757876497E-07	1.65430901914319E-06	9.97586185546841E-07	0.976785640446306	-0.166603937803627
7.6	0.9731738077036	-0.144698394692102	1.46577957860341E-06	-2.59177294888219E-06	-5.36794293497992E-06	-3.64613931424989E-06	0.978005695004997	-0.170425158580729
7.7	0.94720828138185	-0.266361951393376	5.53151232715404E-06	2.43438172050147E-06	-6.87442579418434E-06	1.19490455157604E-05	0.977756048408221	-0.17374909764056
7.8	0.906625814659574	-0.383275044448356	-5.75328136665217E-07	-5.22514339064242E-06	3.75083369835969E-06	-4.69221777856104E-06	0.977953707578142	-0.176577280796338
7.9	0.852324116857549	-0.493751628796717	8.81130043664173E-06	1.59065399572423E-06	-9.4391405255866E-06	-8.68121210809166E-06	0.978861549805021	-0.178961454312384
8	0.785991171918258	-0.59866763960341	-6.64165211012891E-06	-1.67817582262259E-06	-1.20210204086815E-05	2.40676639537923E-06	0.981384944299163	-0.183009676007211
8.1	0.703314244788253	-0.694028717196053	5.07018091267772E-06	7.57398168927618E-07	2.87895688007939E-06	2.27629772418111E-06	0.980133990043268	-0.18780714069117
8.2	0.610710329207261	-0.776452597402114	3.57533536144463E-06	-2.55509975115011E-06	-3.61867505570447E-06	-1.16266270708089E-05	0.979402447886456	-0.190077895867015
8.3	0.508645326497418	-0.846971788679184	2.73617867358664E-06	-1.84281419183019E-06	1.61008752144154E-06	5.29837566618797E-06	0.979079988468835	-0.192599290585986
8.4	0.398341963000376	-0.903927185694135	-5.54656313943054E-06	-1.04596943385561E-06	1.04100367045592E-06	2.95565087191431E-06	0.978869771501739	-0.195264972512851
8.5	0.281943940109448	-0.946601334414519	-3.29366618757934E-06	1.60664761559135E-06	-4.76247544102435E-06	-5.02228883476942E-06	0.978526137101541	-0.198567777837803
8.6	0.160363747848789	-0.974931570320881	-8.14427471381584E-06	1.33784165219429E-06	-4.29920568003231E-06	-6.88396418137452E-06	0.977872173276311	-0.201137812137581
8.7	0.0359159799767854	-0.987672880651435	2.25947362532097E-07	-2.13380972093493E-07	6.11687953881982E-06	5.45839850061756E-07	0.977753341695848	-0.203536247319875
8.8	-0.089532328483677	-0.984600181653792	1.0365357203048E-06	-1.81394126055412E-06	-2.38539951692568E-06	-1.29610241556185E-06	0.977730854797937	-0.205827752967394
8.9	-0.213757270829167	-0.965610473585021	-3.19473146402004E-07	3.0387444294564E-06	-1.22663032699224E-06	-1.65175580533542E-06	0.977982004017281	-0.20800912879054
9	-0.332149714517231	-0.929656790720044	2.97261314653971E-06	1.6072993305276E-06	-1.58986733630519E-06	2.10870416229123E-06	0.978203338951359	-0.210296407752234
9.1	-0.445345476026635	-0.882239235091758	-9.34735634803848E-06	2.20841664049853E-06	-1.58351243560847E-06	2.40444662976444E-06	0.978493140678871	-0.212708156251819
9.2	-0.553151404792519	-0.819973775137749	7.52880335902607E-06	-1.84992352441928E-07	-9.14685428173454E-06	1.9145292351512E-06	0.978374664584575	-0.215738895146025
9.3	-0.651930826326168	-0.744379888113545	1.21504304929555E-07	-7.18690590250387E-06	1.59999349803875E-06	-1.29475531325551E-06	0.977985728139359	-0.218698317688546
9.4	-0.739925716621445	-0.6564952362855	5.87076782870455E-07	2.4945088887751E-06	1.64256616463156E-06	-3.59950549252363E-06	0.976994427509423	-0.221577375461576
9.5	-0.815488269049085	-0.55990696699771	-2.92362459223314E-06	6.64848506648807E-06	4.74849637991458E-06	-1.34283791847678E-06	0.976938774791168	-0.223703979884669
9.6	-0.880783012649923	-0.452962914005223	-5.01688216301352E-06	-5.25527738959584E-06	4.7654268409955E-06	2.92109840810847E-06	0.976915532229528	-0.227558496140391
9.7	-0.931132958519138	-0.337609997303862	-1.98489302392545E-06	-5.10649721668031E-06	2.10619245887197E-06	2.10645008365321E-08	0.976223202601204	-0.230512601837118
9.8	-0.966853684840485	-0.216496324005232	6.16706197787777E-07	-4.30187254947581E-06	-2.94219887552722E-06	-2.54359313492096E-06	0.975823654192067	-0.232547495132262
9.9	-0.986939315408802	-0.0913298281883258	-6.16693542402719E-06	4.19870857747737E-06	-3.10854622862714E-06	1.65742990982159E-06	0.975943478026293	-0.233622112788758
10	-0.990631570940025	0.035058316312321	3.59681614727626E-06	-2.58721824576008E-08	8.2356613919842E-06	1.12167641850934E-05	0.977970543541701	-0.236425154252919
10.1	-0.977993287634292	0.160496850352323	-2.87011886361017E-06	-2.54859037671204E-06	-2.01570694781324E-06	-2.5210126000513E-06	0.97633596803574	-0.239812996765356
10.2	-0.949867791809329	0.283430579438357	2.37501311390086E-06	-1.02189942309264E-06	-2.78397645427974E-06	-1.08086153918513E-06	0.975545038049524	-0.241168030774825
10.3	-0.906642856501562	0.401994852000606	7.82603980926757E-06	-5.97276958015284E-06	3.86739681592731E-06	8.29560802059188E-06	0.975053689562984	-0.243073897827542
10.4	-0.849276402640931	0.515053573763292	1.71740480754873E-06	2.5522227590808E-07	6.32262992764581E-06	-1.18537226921651E-06	0.974519273413297	-0.245499693956505
10.5	-0.775044079485301	0.62011156599458	8.40048319901903E-06	-4.16518448124299E-06	-4.97560969744241E-07	1.98425700485981E-06	0.973413931612183	-0.249069034675768
10.6	-0.689911921390509	0.71074228462179	8.97960039568127E-06	-1.26719481436098E-06	-1.49636758161234E-06	1.37047409467308E-05	0.972006983674213	-0.251270291301983
10.7	-0.595097625289547	0.791073597495212	8.05816685317529E-06	-1.9023566964329E-06	-3.06201993631586E-06	-5.31089803468851E-06	0.971525157433126	-0.254013636073442
10.8	-0.490145845498954	0.859581481416112	2.45894107174375E-06	5.27652351575645E-06	-3.6461578025213E-06	-2.09249670513731E-07	0.970908957697307	-0.256567067515484
10.9	-0.376417568956447	0.914716408003897	-5.58653583087977E-06	4.86600570667739E-07	1.60423395141511E-06	4.04888802155546E-06	0.970336318737091	-0.258884654175929
11	-0.256629789132012	0.953266170975572	5.05678735997102E-09	-5.24725058644672E-06	-8.42166777727412E-06	2.23952740061006E-06	0.969908238445871	-0.260761597314178
11.1	-0.13477710959016	0.977496561426453	6.3471384836065E-06	4.10894118825418E-06	-1.90909446426807E-06	1.0820679773014E-05	0.969413319382638	-0.262944711364874
11.2	-0.0107733880181807	0.986394949218071	1.58902666198269E-06	1.35999806345845E-06	5.1776808036464E-06	8.94264946919001E-06	0.968500774030218	-0.265365375355682
11.3	0.113128618708277	0.979421283071153	-4.68119577531306E-07	-1.74455625469128E-06	-7.11228540766218E-07	-4.41466282581292E-06	0.967409886276237	-0.267816631061494
11.4	0.235003935969639	0.957754828057236	2.56056656053713E-07	1.19021083845947E-05	2.44442911881002E-06	4.9404550566769E-06	0.965511476959564	-0.270579382694002
11.5	0.354198483034596	0.921224633357358	6.21141138779619E-06	-3.35965326090909E-07	3.14437106265331E-07	-1.88778228788492E-06	0.965068767090353	-0.272568381665132
11.6	0.466460524104753	0.869513192275857	-6.0184642673346E-06	3.09342506724356E-06	-4.88194520214903E-06	1.93063106870689E-06	0.964086142726381	-0.277270506893921
11.7	0.570995093079375	0.805277151839012	3.33303509766018E-06	-1.80814123701324E-06	-1.70712423628199E-06	2.24724726958853E-06	0.962227065620737	-0.281366648706395
11.8	0.667022136800628	0.728553837216761	-8.04593812620627E-07	9.82125241226555E-06	-2.70366128885508E-06	1.05712088983685E-05	0.960431239212246	-0.284837120944675
11.9	0.753207389409382	0.640929395922585	-7.31798157247482E-06	-1.03386661599144E-06	-3.9125069789017E-06	1.12850240082948E-05	0.959798591588898	-0.286245736729519
12	0.831466667526044	0.541247027901133	-6.46264135472968E-07	1.3912026337634E-06	-3.15827399852187E-06	-1.93171547667422E-06	0.960939360432304	-0.289820835046117
12.1	0.892770516788107	0.429330018740313	-3.88020036472056E-06	5.02873144945539E-06	-1.31409487406895E-06	8.46471473823199E-06	0.958357390217787	-0.292760984788744
12.2	0.938456137965491	0.312872988118023	-5.94971800469118E-07	-3.81490926551761E-06	-3.13257743332939E-06	-7.22093887235163E-07	0.957147846940577	-0.29462039302875
12.3	0.969711593880018	0.192957133175739	3.6309815221244E-06	3.43437117327776E-06	-3.42552263667648E-06	6.31481566332723E-06	0.95635348544011	-0.29702653395711
