# GHZ S RI R 50
0.2	-0.965673097493045	0.251701658231133	8.82238983730913E-06	5.31721728848176E-06	1.13566155398576E-06	-2.88931245145112E-06	0.999403996828783	-0.00719457059558961
0.3	-0.926057352441407	0.3715165337812	-7.66017336990137E-06	-8.15958639251185E-07	-1.31645441152657E-08	3.65834971355751E-06	0.999211611174441	-0.0102652278719645
0.4	-0.871106736304711	0.485149328653428	-2.19395180551603E-06	6.33717198481095E-06	2.92100194822346E-06	5.73184253323879E-06	0.998907668112027	-0.0131091459734982
0.5	-0.802722675025801	0.590753142125745	-2.64645385243488E-06	5.49257803877558E-07	1.05123753866928E-05	4.87727841473345E-06	0.998225148305729	-0.0159379454498465
0.6	-0.721723863690555	0.687092143026892	-1.72408674679936E-06	-1.80488586826286E-08	4.15910183781071E-06	-1.03294838967334E-05	0.998531647981883	-0.0185444893077572
0.7	-0.629156725515904	0.772488424683423	-2.04536277054347E-06	9.8809178321173E-07	3.78327461581621E-06	1.11516157044077E-05	0.998219466603649	-0.0215478384683308
0.8	-0.526540182153626	0.845514911526598	-5.60037467552281E-06	3.78051610203083E-06	-3.1660528102577E-06	-2.13669649889948E-06	0.99801259089255	-0.0236853533246659
0.9	-0.415810781112694	0.904816226642414	-6.66666336872546E-07	5.24675922814925E-06	3.2640034539457E-06	-2.95497901405619E-07	0.998094323639893	-0.0262163233746394
1	-0.29800999431012	0.949707826016332	1.56692431176253E-05	-3.69552467025321E-06	-9.58980313920903E-06	5.33806356070566E-07	0.997457180684442	-0.0284000836967992
1.1	-0.17655267639289	0.979068534500784	1.33814853272142E-06	-2.97907410346007E-06	9.3927856118071E-06	1.2573163809001E-05	0.996674807131013	-0.0302511586264556
1.2	-0.0515474014010172	0.99287128195231	-7.89701235329527E-06	-3.24714352478822E-06	-3.09570277876378E-06	-4.46828326144741E-06	0.99558198674045	-0.0314138598730834
1.3	0.0739630852044988	0.990771100520055	1.80416531463772E-07	3.32629345551033E-06	1.92486798677252E-06	3.38975663368596E-07	0.994995891424117	-0.0321890868602728
1.4	0.197754007101098	0.973225575749197	2.36593266222805E-08	3.75810270316957E-06	-2.5231829799162E-06	-5.60014700889523E-06	0.994674142921687	-0.0338125720431922
1.5	0.318473267619334	0.940796434709636	3.17906747194291E-06	-2.66237351131165E-07	2.69573665758525E-06	2.08918756038677E-06	0.995138528096467	-0.0370117134295149
1.6	0.434235867720979	0.893887085451616	1.78480147207259E-06	-1.93450709774598E-06	-8.904684921065E-07	-3.05750639099671E-06	0.995175408960762	-0.0397675156324598
1.7	0.543154217838252	0.832181148442917	-8.31383152437935E-08	-3.51909438504464E-06	1.99881634804064E-06	4.91964425010509E-06	0.996102955746269	-0.0421743485547591
1.8	0.64326867718826	0.75767286785321	-2.05343134078938E-06	-1.81341516681899E-06	-4.6485089848323E-06	1.82914197037287E-05	0.996433601400454	-0.0449384698638947
1.9	0.733401520637544	0.671094524237754	-4.38601607546976E-06	-1.46862861687905E-06	-4.91868348830388E-06	-6.00202823764884E-06	0.996668090226065	-0.0477572627488531
2	0.811159365122466	0.573018994601444	-9.47889095586749E-08	-6.73090647902578E-07	-1.66605762857086E-06	-1.41528648292708E-06	0.994879797612471	-0.0511681915261029
2.1	0.87617554561036	0.466774139953205	-1.14646348221444E-06	9.42595207793484E-06	1.99032195302763E-06	-3.77729210666232E-07	0.994302234228445	-0.0518765005796889
2.2	0.928020745759341	0.353404459234441	-1.53224551376056E-08	-5.91854384372002E-06	-7.38870874466387E-07	2.73134332001599E-06	0.994883723439474	-0.0538584626282814
2.3	0.965048408244548	0.234001142011	-1.31690371747037E-06	2.75944148613099E-06	-2.86290790647033E-07	1.19527919787306E-05	0.994982775746487	-0.0556255915212115
2.4	0.986756687685257	0.109978296388483	-5.85793628988925E-06	-3.71145858823157E-06	-1.7589194307439E-05	1.44756957359146E-05	0.995280832139723	-0.0588999460315167
2.5	0.992957045279288	-0.0148959600852536	1.82328868595118E-06	-2.95767108102257E-06	-1.80376451040007E-06	7.53990038370981E-06	0.994753941343511	-0.0615874791201701
2.6	0.983308496021058	-0.138743133250342	2.86074757923411E-06	9.21563793423509E-07	-1.75508280831633E-06	4.50004439340503E-06	0.994390357399921	-0.0644461397454153
2.7	0.957731273577315	-0.260739342490848	3.81509883987009E-06	1.04402678735081E-05	2.31923040524327E-06	3.86690990154217E-06	0.993660921864786	-0.0672642144113863
2.8	0.917366250056445	-0.378345140213397	-8.10909984135723E-07	-2.29097310375347E-06	2.20598427093888E-07	-1.88574628287374E-06	0.993665613567	-0.0687886928444772
2.9	0.863189828063194	-0.489590728126889	3.77223323296495E-06	-8.3018612763561E-06	-1.25502230302243E-06	-1.4208426006858E-05	0.993559841061689	-0.0704584613776852
3	0.795521703678272	-0.593781694109737	-2.40473643990696E-08	6.6410121047969E-06	-1.4761186913421E-05	5.27079653658696E-06	0.993499385522983	-0.0728045693546543
3.1	0.716448419615608	-0.687693860737881	-4.99457404902569E-06	7.80290658709024E-06	5.80143297122656E-06	-7.2763783173955E-08	0.993202707283379	-0.0743971022541572
3.2	0.62451156634591	-0.772423831875537	9.53515395945055E-07	2.12603546477583E-06	-4.55738351630132E-06	4.65431966343813E-07	0.993151260987125	-0.0757570352840901
3.3	0.5229876537382	-0.844921508472391	7.2354715899288E-07	-1.45620633712264E-06	-4.58028674414566E-06	7.16248746145423E-07	0.993309483708421	-0.0786360686284166
3.4	0.41296440202827	-0.904355404343318	6.46898834194943E-06	2.59895454470989E-07	-8.1083115081432E-06	-7.21212929152701E-06	0.994064386494751	-0.0805005768722268
3.5	0.294914652613339	-0.950331056515644	-7.71392516613922E-06	1.94214073453165E-06	-5.88700994475662E-06	-8.00910413434323E-06	0.994259216641273	-0.0842551056099194
3.6	0.17166608545253	-0.978815942034967	-8.48432621388375E-07	-4.38494016083879E-06	-7.80678222019351E-06	-6.35014487310391E-06	0.993380071237512	-0.0864839112455363
3.7	0.0472648315766031	-0.99302213016448	-6.70178898271698E-06	-6.78717022303187E-06	5.39026033773441E-07	-4.76406044494838E-06	0.993762179733587	-0.0887958722546773
3.8	-0.0786334365852882	-0.991278654956325	-3.64820562527813E-06	1.07515573031732E-06	-3.29276131130646E-06	-2.47456754132606E-06	0.994156878426839	-0.0910483131371073
3.9	-0.202869104454521	-0.973498938702453	-4.86498029726169E-07	3.50965005931858E-06	2.05734577641584E-06	-1.21641880253147E-06	0.994867573303712	-0.0953658329096675
4	-0.323793557312681	-0.939788882423878	1.16635637878749E-05	8.13585171548161E-06	7.2709359378621E-06	-4.02804546351038E-06	0.992733426979421	-0.098231983110119
4.1	-0.438459028273589	-0.892061289579174	5.21425657742016E-06	1.33756812555648E-06	-3.47598023736289E-06	6.64281652010983E-06	0.99176505946033	-0.0984413268072368
4.2	-0.546817855344982	-0.830801728046663	-7.09829557680621E-06	-1.22175212692806E-06	-8.27009612972564E-06	-6.43671951233372E-08	0.991681259431966	-0.100640778487113
4.3	-0.646924780174927	-0.755676148785673	7.09267826874809E-07	-2.36780585013507E-06	5.21432671482386E-06	8.95209887643282E-07	0.991799466372194	-0.102548409035003
4.4	-0.736792796420058	-0.667847050997296	4.48064817765544E-06	-1.76444176532854E-06	-8.7229451761917E-07	1.34554767026993E-06	0.991407294796377	-0.105015017480243
4.5	-0.814343019397721	-0.569362917722791	6.7820250517582E-06	1.88622075120648E-06	-7.96074826496704E-07	-3.26044012422543E-06	0.991036210777914	-0.106682231567002
4.6	-0.879454127112811	-0.462344148754279	2.44910678908113E-06	2.96026784281479E-06	-6.61979504113147E-06	9.73468735090058E-06	0.991445371921202	-0.109117778291025
4.7	-0.930476972754033	-0.34706526767807	-1.40766562861318E-05	5.88265211113973E-06	-3.46440720076623E-06	-4.39368597206136E-08	0.99172387323106	-0.111371591574961
4.8	-0.966350742336211	-0.226857959718457	-3.14864824518374E-06	-5.15477449910027E-06	-5.53377211821456E-06	2.35092688938716E-06	0.991613027632694	-0.113920206522127
4.9	-0.986150361909344	-0.104171494214154	-9.92563550446485E-07	-8.560070559679E-06	-4.22594480158759E-06	7.25974980577615E-07	0.991735347523552	-0.115792315677444
5	-0.992821252298721	0.018843542596134	7.57123857251901E-06	-1.542393983123E-06	-1.744422790323E-06	-2.73406509525968E-06	0.992058408398599	-0.117831422322443
5.1	-0.982984750363392	0.145749567447647	-2.58789227662713E-06	-6.41861260814119E-06	-1.00524364438392E-06	-1.9612855083895E-06	0.992329668149482	-0.119524801462412
5.2	-0.956977157639134	0.268308557574258	4.0094771882981E-06	-4.26267513462792E-07	-5.47157188180717E-06	6.30930207129975E-06	0.992481373552025	-0.122191418595716
5.3	-0.916445225088877	0.386851902224461	5.13998839480385E-06	6.0392003099494E-06	-9.54253479129727E-07	-3.59984351171876E-06	0.992380011438166	-0.125013929045968
5.4	-0.861065341790234	0.499983091905727	3.07786723388888E-06	-2.01769424691282E-06	-1.13607998924792E-05	2.18517178010976E-06	0.992574950073069	-0.128201661677513
5.5	-0.79041866550698	0.604943284388555	-4.32073139248155E-07	-2.20311443091419E-06	-5.81458283432419E-06	6.14406293171034E-06	0.99212653350141	-0.132255596264247
5.6	-0.707187868446912	0.698887832049692	2.38264340132864E-06	7.32789262638174E-06	-5.41436372847901E-07	2.9378783919236E-06	0.99097590416784	-0.13440105299972
5.7	-0.613616399037156	0.782427507020604	-2.5815464781549E-06	2.36665968658683E-06	7.93468571490583E-06	2.79361232291951E-06	0.991208656578665	-0.136467029780737
5.8	-0.509881736370859	0.853363394146554	-4.66785125282838E-06	5.12054968628058E-06	-3.69342377295901E-07	3.43470608442003E-06	0.991873542845719	-0.139004991694031
5.9	-0.39763008334958	0.911263505410601	6.38594152853832E-06	1.50130603178876E-06	-2.7214383588593E-06	2.55964985532787E-06	0.992372297064567	-0.142977562852205
6	-0.278293851188199	0.9522355094908	3.54083708281947E-06	3.29818292810749E-06	-3.32845935894081E-07	-1.43665184908417E-06	0.989195310631469	-0.146676217234836
6.1	-0.157777629942591	0.977968135047075	9.18687977390244E-06	1.5118226123847E-06	-1.30405023604482E-07	-1.81003878553663E-06	0.988017048488971	-0.14588251419921
6.2	-0.0340756744085609	0.98970785723883	2.43966226886917E-06	-1.73380758337408E-06	1.47647476984439E-06	-4.85046547530671E-06	0.987938016049573	-0.146781434894983
6.3	0.0905755429924403	0.986167609146614	-4.35870164846626E-06	4.25151532762025E-06	-6.17146434783931E-07	-1.72559974016575E-06	0.987637331151009	-0.148492657487491
6.4	0.214193264501232	0.96617917120071	-4.26332869934595E-06	1.07436767882454E-06	-1.75192365466664E-06	8.84453787852298E-06	0.987133905920017	-0.150887352191647
6.5	0.331401342870318	0.931194675919599	2.45128979252151E-06	-1.32677186495633E-06	1.48953467391625E-06	-2.92517949958149E-06	0.986187005656014	-0.152149170180678
6.6	0.446158985488738	0.88485553646861	-4.73676344239309E-06	-2.26802418217305E-06	-1.85369375398027E-06	-6.65281517135781E-06	0.988328916176912	-0.15448833232223
6.7	0.554538155088106	0.821973885141907	4.17330193812148E-06	-6.56261304768492E-07	-4.68821225629205E-06	1.00649337662736E-06	0.988786409806348	-0.158046235524702
6.8	0.653628650352417	0.746107807136738	3.76995023565423E-06	-2.08215052446797E-06	6.23304102328946E-06	-9.19807943056882E-07	0.988610492553346	-0.160993710419381
6.9	0.742579769690361	0.658344375977426	2.05520424525814E-06	1.64746387949118E-06	8.8157322089423E-06	-2.76454553488012E-06	0.988677599674741	-0.163965146566272
7	0.819029998973709	0.559308007461915	2.18621260815436E-06	4.10720535064989E-06	-8.56851636809477E-08	5.40120287346513E-06	0.98697834626296	-0.16668305813023
7.1	0.882089958058297	0.453202028218389	-1.31970088711678E-07	1.72104859036694E-06	8.27327008377184E-06	-4.66088647854717E-06	0.986314793805398	-0.167250676014177
7.2	0.932042092522936	0.339637876480284	4.85820130710663E-06	-1.39625720847534E-06	7.27225791693661E-06	3.79010461633786E-06	0.986357891043851	-0.168624686451638
7.3	0.967311887638205	0.220778691077769	4.87425142850364E-06	-1.10608001124448E-06	-7.35136143684092E-06	-7.40673599579698E-06	0.986245185481636	-0.169975492411588
7.4	0.988988776156497	0.0979286400168397	-1.87333252396646E-06	9.93200381109697E-06	1.44984489789156E-06	-4.0822433174606E-06	0.987596237211016	-0.172241233450521
7.5	0.994706705973303	-0.0306326334880158	8.46556837631017E-07	8.12878593167273E-07	1.68590160747657E-06	1.00134102023779E-06	0.987994032435176	-0.17856010964188
7.6	0.980686786342469	-0.156316289930536	1.45745972491825E-06	-2.63488609466497E-06	-5.46307104925432E-06	-3.6357600056297E-06	0.985189081060952	-0.1820189148442
7.7	0.953104705864103	-0.279118361677824	5.61427682988204E-06	2.40534717699319E-06	-6.82883185481142E-06	1.21438493069313E-05	0.984819446060212	-0.185439937588387
7.8	0.910244611122505	-0.397999654794835	-6.40939848616647E-07	-5.27234520857946E-06	3.73583241338868E-06	-4.7833560412288E-06	0.984671004982908	-0.189632594188556
7.9	0.851478311221407	-0.51086646923748	8.91240782058328E-06	1.47595715838913E-06	-9.64940530723166E-06	-8.61999941441212E-06	0.983815645588755	-0.195006801414792
8	0.775518736894823	-0.61216325595481	-6.67641125294447E-06	-1.56648678674523E-06	-1.19911079646985E-05	2.61395505165224E-06	0.97826481835861	-0.199436011498936
8.1	0.695087585375515	-0.700181245317301	5.06877856054309E-06	7.00765658334158E-07	2.89825772607115E-06	2.24062776377659E-06	0.976704033952739	-0.198044040949348
8.2	0.603887226803531	-0.781698233945257	3.5471778569131E-06	-2.58357082110854E-06	-3.71804256629727E-06	-1.15772581485328E-05	0.97699565233013	-0.199548290209926
8.3	0.501899525122916	-0.851431265153029	2.71672131271356E-06	-1.86187066875747E-06	1.650249735461E-06	5.27653370619174E-06	0.976436246678933	-0.201940042301235
8.4	0.391525138395635	-0.907954893614832	-5.54348046554117E-06	-1.00649677730022E-06	1.05910857160826E-06	2.94318555608156E-06	0.97536064162906	-0.204423905730655
8.5	0.273017297825082	-0.949792770220164	-3.28365598745472E-06	1.6284754563004E-06	-4.79612076024988E-06	-4.99187515770735E-06	0.974194242390608	-0.206090801970857
8.6	0.15154586202393	-0.974670971860179	-8.12750237043262E-06	1.40685378521281E-06	-4.355479149708E-06	-6.84260106609865E-06	0.974672312156925	-0.208240839334643
8.7	0.0283742082270536	-0.985562469693459	2.23603289959215E-07	-2.14897717303853E-07	6.10859707346696E-06	4.91293710050472E-07	0.974538018494634	-0.211045806696436
8.8	-0.0953997456462009	-0.980983054880969	1.01777455466132E-06	-1.81627582278558E-06	-2.38791018277913E-06	-1.2716642270103E-06	0.974208897019456	-0.213458249210404
8.9	-0.216328195656293	-0.961961296191184	-2.97786868655108E-07	3.02567623736059E-06	-1.23142297012059E-06	-1.63539456465196E-06	0.974167977330765	-0.215656833616724
9	-0.335411196200485	-0.930455209620846	2.9708377425525E-06	1.59073588676411E-06	-1.57686146087809E-06	2.10927118558615E-06	0.973900689033784	-0.218218249443212
9.1	-0.451242093395411	-0.880779478693764	-9.31683547779118E-06	2.2569107345952E-06	-1.56688206391574E-06	2.40874003473601E-06	0.973206027765474	-0.220383613497199
9.2	-0.558742067867387	-0.817099146058202	7.51088485354415E-06	-2.27194851186972E-07	-9.11551977178799E-06	1.9620150342432E-06	0.972301747852924	-0.222647552786014
9.3	-0.657321244297558	-0.740339316359473	8.14632022610648E-08	-7.17329949435195E-06	1.58964445348136E-06	-1.30104328777939E-06	0.971768294101405	-0.224426735364708
9.4	-0.745638974925162	-0.652088012522034	6.00806589478206E-07	2.48944878267414E-06	1.62102493510692E-06	-3.60631428491475E-06	0.971951431912552	-0.226801735279874
9.5	-0.822691843761311	-0.5494449635559	-2.85466589283172E-06	6.67355918701897E-06	4.73181701418891E-06	-1.38981951015219E-06	0.971330034349347	-0.231038607342909
9.6	-0.879881779619323	-0.439938413021141	-5.04275239585499E-06	-5.1778309560958E-06	4.76942508364869E-06	2.85840853918924E-06	0.96973786115143	-0.233398134697208
9.7	-0.926300291280676	-0.327290633665581	-2.01448565304751E-06	-5.05814276135203E-06	2.09316125300989E-06	3.59423054864931E-09	0.969611397392907	-0.235586792632426
9.8	-0.960039974036657	-0.208426618676932	5.80239522465182E-07	-4.27908806549714E-06	-2.94266138271751E-06	-2.50511410112918E-06	0.970010239882778	-0.23802234022874
9.9	-0.978851529344453	-0.0853966083541407	-6.09149533870779E-06	4.22126730004713E-06	-3.07427869785645E-06	1.67185645258815E-06	0.969867844157406	-0.24193678189218
10	-0.982538846989059	0.0395499561936655	3.56251619414677E-06	-5.38881102536512E-08	8.24572319613886E-06	1.10457229544983E-05	0.965096392659922	-0.244091198951147
10.1	-0.968450747434425	0.16426143928733	-2.85752719473098E-06	-2.50914958973147E-06	-2.01088872902088E-06	-2.48653139510416E-06	0.965282987387813	-0.242000179595274
10.2	-0.938909239010325	0.285386524931793	2.34819373853975E-06	-1.02553949522745E-06	-2.76482807648248E-06	-1.0561502554147E-06	0.966403571785396	-0.243612418547629
10.3	-0.894180805212743	0.401754692493167	7.71764909243934E-06	-5.9584292023287E-06	3.87593644046222E-06	8.19431774093432E-06	0.966145934331003	-0.246265633644421
10.4	-0.834622438537279	0.510534899678933	1.69866707334553E-06	2.43494974159261E-07	6.24282104727816E-06	-1.20375302331692E-06	0.964580402529691	-0.249522277772228
10.5	-0.76445166655434	0.607994491017124	8.29380738966701E-06	-4.11983324629353E-06	-4.89990491106905E-07	1.96012687051599E-06	0.96217179390438	-0.251118070298549
10.6	-0.684594526268114	0.699540288615679	8.89635306038142E-06	-1.2588059878988E-06	-1.47754622557812E-06	1.35789463019346E-05	0.96181590791381	-0.253544979583602
10.7	-0.591623514167884	0.780465480447608	7.98354156766856E-06	-1.89343845100262E-06	-3.03983296275331E-06	-5.25986571069513E-06	0.959886087303404	-0.255978621896064
10.8	-0.488177722518972	0.849137293304221	2.43909298740626E-06	5.22511167025193E-06	-3.61185290353097E-06	-2.04939562823945E-07	0.958397031543877	-0.256680163441725
10.9	-0.376515868504061	0.903347976378942	-5.53480678329666E-06	4.77286831483588E-07	1.58580163220754E-06	4.01246600830678E-06	0.958605415229155	-0.257166949937899
11	-0.259405424862059	0.945580617680291	7.38792704202628E-09	-5.20887332903896E-06	-8.36108789650557E-06	2.21934819488177E-06	0.95834279421673	-0.257508212101581
11.1	-0.134690635142718	0.969643506163574	6.29145048455345E-06	4.07041757435285E-06	-1.88903445819305E-06	1.07243431055259E-05	0.959442828178067	-0.257683796329039
11.2	-0.0118345110514779	0.976632652822053	1.57182527456454E-06	1.34834625909681E-06	5.11660063381798E-06	8.86015469940059E-06	0.960207481461526	-0.259155224806671
11.3	0.10978944583229	0.969239923952958	-4.58472933124941E-07	-1.72850520778069E-06	-6.91535282038297E-07	-4.37269353358711E-06	0.961099338261826	-0.260937614112247
11.4	0.229761086324517	0.948244775636472	1.95396969437544E-07	1.17985174500163E-05	2.39865280614168E-06	4.90892876147583E-06	0.962366800830509	-0.264160270154125
11.5	0.347354462038164	0.912769811378826	6.17188321195715E-06	-3.11611973968987E-07	3.19107467789751E-07	-1.87428338046272E-06	0.960829429124836	-0.270044329008308
11.6	0.458540958815162	0.862785014785541	-5.97885301312157E-06	3.04879114550497E-06	-4.84796799471323E-06	1.89918299083718E-06	0.958139036462354	-0.272221022233384
11.7	0.562709294508676	0.800311670386231	3.31397182497429E-06	-1.77842491951068E-06	-1.70329386493016E-06	2.22125189949399E-06	0.958170302693097	-0.275403567674107
11.8	0.659472112914566	0.725246799101387	-8.48866804697354E-07	9.74981714467658E-06	-2.73871215439546E-06	1.04850025200583E-05	0.958315328660177	-0.280039659524393
11.9	0.747664900781111	0.636539992449566	-7.27450017539697E-06	-1.04908556102971E-06	-3.92313934505215E-06	1.12113369698375E-05	0.957188445959645	-0.285830263379976
12	0.820875506183711	0.533786214232092	-6.41194584030454E-07	1.37603080233057E-06	-3.12328789479143E-06	-1.91539259943531E-06	0.950428610813133	-0.288779284153953
12.1	0.880607973358116	0.427882624237863	-3.86863900364857E-06	4.95912180189512E-06	-1.34570388446812E-06	8.37495377301222E-06	0.94950307414674	-0.286095167523418
12.2	0.927890363181105	0.313188143056147	-5.71072864326581E-07	-3.78420125286835E-06	-3.1014414258198E-06	-7.31049841601757E-07	0.949749942999873	-0.287505124290853
12.3	0.959108400868966	0.193866436701637	3.57852498203318E-06	3.41686009282097E-06	-3.42062537130608E-06	6.23547408471803E-06	0.94889164411203	-0.28955855659288
