# GHZ S RI R 50
0.2	-0.965820783881011	0.251633624379909	8.82164755642726E-06	5.31994649725024E-06	1.13650990614376E-06	-2.88922933722329E-06	0.999486286655382	-0.00677250006284817
0.3	-0.92627873014753	0.371479562499503	-7.66065726742478E-06	-8.19064420861116E-07	-1.46082080257391E-08	3.65872925460473E-06	0.999367056618447	-0.00960567665654666
0.4	-0.871436490972484	0.485206145726862	-2.19772643789345E-06	6.33749793966463E-06	2.9187164543198E-06	5.73466844581095E-06	0.999295785998696	-0.0122404558008494
0.5	-0.802955070828611	0.591086937566688	-2.64754261281686E-06	5.48582737691135E-07	1.05143960786276E-05	4.88238585987604E-06	0.998845337175059	-0.015274776629476
0.6	-0.721776223720591	0.68731277336037	-1.72428262145958E-06	-1.86845847527839E-08	4.16338646805175E-06	-1.03291686963722E-05	0.998991842605304	-0.0178402513093216
0.7	-0.629242985226355	0.772675124854007	-2.04608010543706E-06	9.87244811344419E-07	3.77846086390001E-06	1.11547678797156E-05	0.998769998794301	-0.020782000193601
0.8	-0.52665478362144	0.845708156601039	-5.60303756084485E-06	3.77810721503249E-06	-3.1653529612917E-06	-2.13860184496986E-06	0.998604883848626	-0.022943740685477
0.9	-0.416000091422748	0.905024662067548	-6.70034909303297E-07	5.24683043182347E-06	3.26449528812156E-06	-2.93468819729316E-07	0.998675559886398	-0.0253704747300077
1	-0.298384006878094	0.950017179814466	1.56774199901081E-05	-3.68094855400975E-06	-9.59308337885901E-06	5.24390493933783E-07	0.998439834654358	-0.0272696255058659
1.1	-0.177166423799619	0.979683362714015	1.34273787737265E-06	-2.97963763682914E-06	9.38444405541156E-06	1.25937589227742E-05	0.998118557788043	-0.0291364883902711
1.2	-0.0523596400003783	0.994084402280405	-7.90177214737655E-06	-3.26451072321817E-06	-3.0922350645733E-06	-4.47921042669089E-06	0.997784139938779	-0.0299276360931283
1.3	0.0732984889081093	0.992654689100244	1.73739026767588E-07	3.33331402368793E-06	1.92799258844698E-06	3.4372474728E-07	0.998290244260447	-0.0305228926650125
1.4	0.197500364260755	0.975234878370013	1.54315070963572E-08	3.76626882234615E-06	-2.51629387528146E-06	-5.61779654535605E-06	0.998334518082203	-0.0323159754621656
1.5	0.318628861758545	0.942503054242021	3.18564404839169E-06	-2.60306570368277E-07	2.69662647002561E-06	2.09861310001359E-06	0.998580285479695	-0.0358448975397991
1.6	0.434586309876339	0.89496739078605	1.79009670250453E-06	-1.93457172139948E-06	-8.87229337708151E-07	-3.0630344504843E-06	0.997767068814698	-0.039230716160544
1.7	0.543480658718161	0.832853199653271	-7.95594528624937E-08	-3.52245954310446E-06	1.9955671779513E-06	4.92630469626354E-06	0.997886149138105	-0.041958348485471
1.8	0.643473274850638	0.758053332178205	-2.05331422572745E-06	-1.81575746667508E-06	-4.66323090514045E-06	1.82980751722336E-05	0.997498782355853	-0.0448822812710765
1.9	0.73325147169488	0.671477883132169	-4.385286419854E-06	-1.47157216752245E-06	-4.91501898182166E-06	-6.0055578141918E-06	0.997150629008005	-0.0473785315339776
2	0.811367902173506	0.574069511399494	-9.41002149015541E-08	-6.73555919541637E-07	-1.66539646472797E-06	-1.41787636695073E-06	0.996059045915398	-0.0503876853427853
2.1	0.876925268410837	0.467162040889819	-1.14919112172526E-06	9.43384305594103E-06	1.9921027128094E-06	-3.77686068882817E-07	0.99549319716002	-0.0520861538452303
2.2	0.928525679634151	0.353478414546868	-1.61377089388205E-08	-5.92174095917066E-06	-7.38897854648688E-07	2.73292046026182E-06	0.995640831022686	-0.0542549370905781
2.3	0.965336994711434	0.234020714959329	-1.31676958374776E-06	2.76084184673709E-06	-2.83572669695272E-07	1.19575745104591E-05	0.995475282769027	-0.0560345443805507
2.4	0.98683432536042	0.110101754024371	-5.86110192346052E-06	-3.71019716786122E-06	-1.75885036431335E-05	1.44868683981685E-05	0.99551907727201	-0.0591581994706064
2.5	0.992987509357143	-0.0145501510318146	1.82131530322994E-06	-2.95786260285424E-06	-1.79944808832926E-06	7.53893120549765E-06	0.995024364766718	-0.0615139884074893
2.6	0.98336476230009	-0.138173465800422	2.85946829868178E-06	9.21236946670065E-07	-1.75443473955029E-06	4.49802379838886E-06	0.994786951661323	-0.0642575400668664
2.7	0.958046854379506	-0.260133544263646	3.8135996874121E-06	1.04388956074139E-05	2.31852811881745E-06	3.86647803105797E-06	0.994308567583902	-0.0671116536000808
2.8	0.917740598924208	-0.378014090750466	-8.11539055121881E-07	-2.29081240155264E-06	2.20101971062711E-07	-1.88585030397059E-06	0.9944500182276	-0.0689521592739584
2.9	0.863400084234171	-0.489488717941226	3.76645456362238E-06	-8.30530186274152E-06	-1.26553969290326E-06	-1.42086619672869E-05	0.994348179563046	-0.0709084354214436
3	0.795596085217231	-0.593824470257016	-1.62596560383678E-08	6.64144617564832E-06	-1.47559069786309E-05	5.28843191357015E-06	0.994440102098136	-0.0734730425929533
3.1	0.716288421043892	-0.687991307955867	-4.98323063902172E-06	7.81167712027735E-06	5.80211703418468E-06	-8.17172177689814E-08	0.994314166368996	-0.0754880886412937
3.2	0.624008124172781	-0.772824093576754	9.57710932731577E-07	2.12444577825324E-06	-4.55700998972969E-06	4.74245056710547E-07	0.994302636958518	-0.0772813729838997
3.3	0.522044584034241	-0.84532210592409	7.20307470905039E-07	-1.4578901779573E-06	-4.57886574873277E-06	7.26560878230911E-07	0.994335311012921	-0.0805807986898581
3.4	0.411377132905919	-0.904292981350037	6.46754720643536E-06	2.42901240293402E-07	-8.12450517871673E-06	-7.18857124950452E-06	0.994636069712494	-0.0827242401078226
3.5	0.293959054010016	-0.949128094299164	-7.70091740410411E-06	1.95531067219922E-06	-5.89611067361394E-06	-7.98783906180963E-06	0.994475346472054	-0.0859792281214969
3.6	0.171170143944322	-0.978301830969747	-8.5392859495797E-07	-4.38109121662715E-06	-7.81071337622841E-06	-6.33554674892279E-06	0.993842358283939	-0.0882937123060242
3.7	0.0464271062756152	-0.992401609932214	-6.70831125408258E-06	-6.77390098526135E-06	5.3177677994904E-07	-4.76242253004719E-06	0.993853815865025	-0.0907257558497996
3.8	-0.0794586836531345	-0.990224027340873	-3.64417851074687E-06	1.07946486187677E-06	-3.29390161620797E-06	-2.46828272473896E-06	0.993761571902324	-0.0927542169123778
3.9	-0.203271951450902	-0.972042736096681	-4.82728246796434E-07	3.50715347615557E-06	2.05444506858063E-06	-1.21736125194698E-06	0.994097968313828	-0.0962630091081358
4	-0.323662072785915	-0.938635989411092	1.16684878123825E-05	8.12719435980167E-06	7.26765924351709E-06	-4.03285724961641E-06	0.993273090718997	-0.0982396783719131
4.1	-0.438544209577154	-0.891027459327112	5.21598346348976E-06	1.33029989055124E-06	-3.46667684563764E-06	6.6474752299421E-06	0.992873955699562	-0.0996145922633504
4.2	-0.546890379096884	-0.829660529285357	-7.09888790863273E-06	-1.21110457218214E-06	-8.26878731049934E-06	-5.21925651784589E-08	0.992590611698611	-0.102173337092148
4.3	-0.646927902287135	-0.754500592053935	7.05658815109757E-07	-2.36845406326147E-06	5.21477147780592E-06	8.87374052731751E-07	0.992628130570925	-0.10422660741622
4.4	-0.736773516446377	-0.666779780781791	4.47793364972406E-06	-1.77051161112681E-06	-8.70383877195048E-07	1.34666656646571E-06	0.992203515064904	-0.106703767395036
4.5	-0.8146190014673	-0.568207545926875	6.78633252312454E-06	1.87564702737552E-06	-8.01476636825693E-07	-3.25976742989723E-06	0.991958482368277	-0.108665918114189
4.6	-0.879669211453529	-0.460959089753015	2.45382305124073E-06	2.95597649704311E-06	-6.60313980810291E-06	9.74490136705018E-06	0.991794976463728	-0.111226760379252
4.7	-0.930705473734382	-0.345574743477135	-1.40666230968326E-05	5.90358468931925E-06	-3.46420463981642E-06	-3.86691743090221E-08	0.991784700246724	-0.113230067672998
4.8	-0.966683791519621	-0.225180983377123	-3.15644436262496E-06	-5.15003207747801E-06	-5.53023587596823E-06	2.35929335308477E-06	0.99146630470703	-0.115621312925052
4.9	-0.986687123378579	-0.10180448127614	-1.00816995390845E-06	-8.55895570050854E-06	-4.22496640499747E-06	7.33698463685296E-07	0.991288688297035	-0.117367548666341
5	-0.991877604934057	0.0222034634754621	7.5623222557378E-06	-1.55840904569393E-06	-1.74935463808519E-06	-2.72816011975979E-06	0.991312822299314	-0.119139394157056
5.1	-0.981327952257367	0.147973489424267	-2.59538832254744E-06	-6.40705543543887E-06	-1.00728883387369E-06	-1.95740467943422E-06	0.991378854792275	-0.120586666219823
5.2	-0.955209516862303	0.270398927669194	4.00410281722582E-06	-4.31668283401167E-07	-5.45580175384018E-06	6.30989178995351E-06	0.991390372458454	-0.122901923518574
5.3	-0.914078293266687	0.388751302030546	5.14120891470145E-06	6.02358946619115E-06	-9.57932938978237E-07	-3.59347695712239E-06	0.991359029312719	-0.125415501520222
5.4	-0.858094085152941	0.50117298581194	3.06993865682562E-06	-2.01790933261647E-06	-1.1338007207914E-05	2.19527842459117E-06	0.991492911867005	-0.1285057656795
5.5	-0.787449874433866	0.60508588419184	-4.32412464554313E-07	-2.19836271953832E-06	-5.79926157899508E-06	6.13471168035519E-06	0.991064237699821	-0.131910941491027
5.6	-0.7046125557809	0.698517842998558	2.38104527532184E-06	7.31454158478574E-06	-5.39514957162274E-07	2.93303239134835E-06	0.990384102301174	-0.134275135738256
5.7	-0.611337467136282	0.781583763180082	-2.57610213842696E-06	2.36326468724745E-06	7.92133415604389E-06	2.78591549765347E-06	0.990259762344107	-0.136558329474728
5.8	-0.508022386035035	0.851974698971682	-4.6573661939213E-06	5.11062010187267E-06	-3.68049603833639E-07	3.42762342540627E-06	0.9903859767917	-0.138882501379356
5.9	-0.39674808087847	0.909315871544752	6.36947313730277E-06	1.50149610547634E-06	-2.71634857189554E-06	2.55177131077673E-06	0.990423957282078	-0.141767066670357
6	-0.278938092132504	0.951408005200038	3.53113106728109E-06	3.30142170851169E-06	-3.29841541955557E-07	-1.43581670440133E-06	0.989307322497431	-0.144248206195723
6.1	-0.157682340083435	0.978202236104287	9.18685197916698E-06	1.51833315350124E-06	-1.29169655623439E-07	-1.81032902046798E-06	0.989037181252043	-0.145236348031499
6.2	-0.0335153792196038	0.989952824810822	2.44034836053864E-06	-1.73373370904824E-06	1.47747123029108E-06	-4.85107667453819E-06	0.988846908850632	-0.146839526309412
6.3	0.0912027035568944	0.986091931859881	-4.3595485109539E-06	4.25218873143414E-06	-6.1722457341273E-07	-1.72591588145016E-06	0.988419971656207	-0.14899842657401
6.4	0.214307880173979	0.966384343831034	-4.26564095297579E-06	1.07400222478473E-06	-1.75463103824008E-06	8.8485023487366E-06	0.987814278283313	-0.151264113501705
6.5	0.33312889206796	0.931783171321771	2.45200090247963E-06	-1.3308653284497E-06	1.48748735567447E-06	-2.92962361043342E-06	0.987218428518974	-0.153463573226806
6.6	0.447464092870442	0.883282030630199	-4.73546957634039E-06	-2.25857236499864E-06	-1.86193251591455E-06	-6.6433542090494E-06	0.987507251730567	-0.155948182945056
6.7	0.554755819648651	0.820082909904127	4.16500217909392E-06	-6.59020014934374E-07	-4.67863258310626E-06	1.00909719790453E-06	0.987293079250876	-0.158620743963344
6.8	0.653110644163171	0.744075393129457	3.75964873173188E-06	-2.07949590912084E-06	6.2175652185821E-06	-9.21452850760082E-07	0.986783719204843	-0.161122349313504
6.9	0.741164187222664	0.656419694978005	2.04943847959141E-06	1.64208707635348E-06	8.78880158299748E-06	-2.75826562328258E-06	0.986417289296106	-0.163549431259723
7	0.817265289099317	0.558131537869039	2.17715762008887E-06	4.09736761010164E-06	-8.93597700589269E-08	5.38612084697166E-06	0.985354529813838	-0.165757842937658
7.1	0.880263526997063	0.451929145952859	-1.32116956175599E-07	1.71729366839017E-06	8.25654970759477E-06	-4.64872939667576E-06	0.984550519907389	-0.167172155793795
7.2	0.929725002333374	0.338373268760315	4.8466882462771E-06	-1.39454030508859E-06	7.25680382245651E-06	3.77925125134097E-06	0.983953781893222	-0.168779867112496
7.3	0.964340420669931	0.21945752603268	4.86049486322776E-06	-1.10809104322936E-06	-7.33970189278938E-06	-7.38015315305304E-06	0.983072886470106	-0.170388499728858
7.4	0.984318275907792	0.0966350272591226	-1.84458068703983E-06	9.89676474405574E-06	1.4353395452044E-06	-4.06922055859728E-06	0.982603560957994	-0.172644076225297
7.5	0.988329271314288	-0.0288184383830418	8.41283216890841E-07	8.06696545183819E-07	1.6749749215822E-06	9.9328373682605E-07	0.981740511064364	-0.175995878343397
7.6	0.97574013497662	-0.152851276394739	1.45093165370474E-06	-2.61664695056743E-06	-5.42461944531312E-06	-3.61832668907434E-06	0.980357277746458	-0.178679288535525
7.7	0.948557820451569	-0.274474231311094	5.57365305020036E-06	2.39838119600365E-06	-6.80309323364886E-06	1.20534245058691E-05	0.979978932459033	-0.181670312603865
7.8	0.906527168041904	-0.391892815875927	-6.23465098487443E-07	-5.23804643753785E-06	3.7222952695322E-06	-4.74150190081059E-06	0.979928437977122	-0.185046857268433
7.9	0.849571438545064	-0.503178049128476	8.84831025098141E-06	1.5027958972468E-06	-9.55128559897646E-06	-8.60331226758362E-06	0.9796747968596	-0.188961819585674
8	0.778495604809756	-0.604960779739435	-6.64558679204269E-06	-1.60373409250732E-06	-1.19700179286403E-05	2.53004058601684E-06	0.977939559917411	-0.192262574237744
8.1	0.697825466473327	-0.696788132834278	5.06223335484017E-06	7.18965391983984E-07	2.88771045668391E-06	2.24959902039779E-06	0.977511796793071	-0.193905048708049
8.2	0.605882412434945	-0.779098551108997	3.55178493030484E-06	-2.57333278379325E-06	-3.68710230831625E-06	-1.15804906870015E-05	0.977602626992465	-0.196264563638099
8.3	0.503643687900237	-0.849251336872345	2.71953131831875E-06	-1.85625481702858E-06	1.63985384765689E-06	5.27827803254446E-06	0.977161955462618	-0.199037687763222
8.4	0.39306469234186	-0.905892383670449	-5.54206721150375E-06	-1.01317895644196E-06	1.05550516114458E-06	2.94436613304343E-06	0.976376672157377	-0.20175376992059
8.5	0.275335644122363	-0.947697191985529	-3.28195308774518E-06	1.62429655697642E-06	-4.78762661786659E-06	-4.99117756353536E-06	0.975597285151257	-0.204199600599919
8.6	0.154014991775121	-0.973828300298955	-8.12251100805758E-06	1.39091799858138E-06	-4.33912698250014E-06	-6.84410816827896E-06	0.975399221412387	-0.206745579602093
8.7	0.0304413322047072	-0.98532505771362	2.23964699079391E-07	-2.14329139279035E-07	6.10492316972662E-06	5.04089848069368E-07	0.974963017230738	-0.20934581535899
8.8	-0.0938394138010616	-0.981264113930522	1.02192643950441E-06	-1.81417752023163E-06	-2.38529978553869E-06	-1.27711647581382E-06	0.974515795287073	-0.21158527207573
8.9	-0.216151787218504	-0.962347278560848	-3.03181710598334E-07	3.02796176272561E-06	-1.22979070551858E-06	-1.63898620309736E-06	0.974419500123402	-0.213637356974625
9	-0.33544080228418	-0.928374413285716	2.97110069722889E-06	1.59155468987869E-06	-1.57752490454073E-06	2.10937851825848E-06	0.97423103970651	-0.215932951395003
9.1	-0.449554736629951	-0.87879656154921	-9.31264054983254E-06	2.2497669973701E-06	-1.56743716293973E-06	2.40631961067355E-06	0.973978831793203	-0.218063991664649
9.2	-0.556459124013778	-0.815410397621287	7.50565240215887E-06	-2.22418822706129E-07	-9.11020524484589E-06	1.95501257128682E-06	0.97352003856768	-0.220635644200971
9.3	-0.65444103353622	-0.739212153262369	8.59125217332308E-08	-7.16610526757852E-06	1.58888327186498E-06	-1.29874380973557E-06	0.973121069553595	-0.223032395349995
9.4	-0.742350487538093	-0.651286733453616	5.98169398710847E-07	2.48581461967095E-06	1.62080657631261E-06	-3.59938516250683E-06	0.972660575624653	-0.2258551008841
9.5	-0.818018295949747	-0.551201386094403	-2.86682340907515E-06	6.65119421174442E-06	4.7253536062847E-06	-1.37377690244973E-06	0.971731391921654	-0.228964946744945
9.6	-0.878419218306961	-0.443634831196711	-5.02496166131965E-06	-5.19427395246633E-06	4.7594298517473E-06	2.87413885158064E-06	0.97080823973777	-0.231554772463287
9.7	-0.926610691556638	-0.330099426770472	-2.00159548276681E-06	-5.06636450561532E-06	2.09425428333915E-06	9.3696014077716E-09	0.970346018330827	-0.233919377173978
9.8	-0.961082298644079	-0.210452974327355	5.91344512225757E-07	-4.27988577388162E-06	-2.93789523195896E-06	-2.51386411554809E-06	0.970148536598652	-0.236047788479639
9.9	-0.980222309575057	-0.0867848186613907	-6.10599125389411E-06	4.20483398881631E-06	-3.08024797148734E-06	1.66340476827426E-06	0.96956005078265	-0.238365789330878
10	-0.98368748116138	0.0384581568285569	3.56782965217468E-06	-4.18227358314586E-08	8.2199467101985E-06	1.10897338920355E-05	0.967848100876392	-0.239535327370076
10.1	-0.970076216956055	0.162955859708789	-2.85553767285577E-06	-2.52050709328951E-06	-2.00762221023717E-06	-2.49566091480103E-06	0.967963377464656	-0.239804773304828
10.2	-0.941165150575569	0.284332895310191	2.35434732991611E-06	-1.0205917972709E-06	-2.76589219947719E-06	-1.06520826088707E-06	0.968303754135679	-0.24122460182979
10.3	-0.897253433120405	0.401091805970902	7.74913921278513E-06	-5.94474528364134E-06	3.85724447076813E-06	8.22019392036026E-06	0.967969389283257	-0.243246587422494
10.4	-0.839223963432917	0.511151005863624	1.70240624848803E-06	2.49877511880008E-07	6.2636407191618E-06	-1.18593051216424E-06	0.966922257484837	-0.245577300838848
10.5	-0.76821381202748	0.612437601188228	8.33010606558471E-06	-4.12177870478454E-06	-4.94805541874165E-07	1.9664286879777E-06	0.965673420426258	-0.247506444724707
10.6	-0.68554675930121	0.70405336791796	8.91626342683949E-06	-1.25197763346019E-06	-1.49506439822283E-06	1.3605723638093E-05	0.965207535944518	-0.249747624629198
10.7	-0.591426756008616	0.784287892290874	8.00039012810932E-06	-1.88474412611375E-06	-3.03724770871611E-06	-5.2736635287903E-06	0.964333318880256	-0.2522514514093
10.8	-0.487556686656536	0.852225937926379	2.4354683057975E-06	5.23888606131833E-06	-3.61838672844655E-06	-2.11035382610913E-07	0.963517243513762	-0.254076015474539
10.9	-0.375634633713752	0.906630029925265	-5.54641467848663E-06	4.72902551774593E-07	1.58512014525215E-06	4.02207856075481E-06	0.963298074062689	-0.255695951817597
11	-0.257590271970393	0.947285083306062	1.26281356793098E-08	-5.21380391716507E-06	-8.37124392087233E-06	2.21305199275771E-06	0.962785597329202	-0.256887563130192
11.1	-0.134799219011549	0.971142491908821	6.29470911364383E-06	4.08767970129874E-06	-1.91029719421364E-06	1.07384711858294E-05	0.963038054082472	-0.258146491318773
11.2	-0.0121008176804925	0.979246381354441	1.57369537770387E-06	1.3534640094704E-06	5.11693070685512E-06	8.88707234480864E-06	0.962921623427307	-0.260142397004549
11.3	0.11009105584277	0.972358000931504	-4.58618078229476E-07	-1.73346758801524E-06	-6.90636672557502E-07	-4.38495071789767E-06	0.962935814460256	-0.262417550683723
11.4	0.230609768020957	0.951348192422037	2.00713441685547E-07	1.18286385077356E-05	2.40679655962345E-06	4.92051504940517E-06	0.96259412482175	-0.265728955671493
11.5	0.348612878089742	0.915738858260713	6.18023127599324E-06	-3.12551738222567E-07	3.19383449436415E-07	-1.87685318350719E-06	0.960907555170621	-0.269488656785716
11.6	0.460065045640553	0.865356650654678	-5.99241013653068E-06	3.05251996820502E-06	-4.85871864720254E-06	1.90103086655123E-06	0.959225612690823	-0.272363241133607
11.7	0.564230794200131	0.802393785723816	3.32090514176664E-06	-1.78261533748566E-06	-1.70671356286164E-06	2.22621768713395E-06	0.958358628564472	-0.275903576427219
11.8	0.660438583885984	0.726814074935922	-8.45214998900987E-07	9.76496142646863E-06	-2.73754060604301E-06	1.05022125442317E-05	0.957326923504563	-0.279834851147608
11.9	0.7471204086184	0.638933464620496	-7.27764522410704E-06	-1.05324350069404E-06	-3.93071051662265E-06	1.12150335578837E-05	0.956094109635367	-0.283045706890147
12	0.821763689372422	0.539223882955535	-6.45874524742549E-07	1.37745089263583E-06	-3.12540750138828E-06	-1.92700407794138E-06	0.95323483080165	-0.284573310525964
12.1	0.883326427396281	0.431862100614847	-3.88398687834266E-06	4.96854389801944E-06	-1.35770971234311E-06	8.39606681300869E-06	0.953000294662595	-0.284516038018995
12.2	0.930719956548679	0.316972934230168	-5.671245137156E-07	-3.79523198099857E-06	-3.10874297978791E-06	-7.37518659714865E-07	0.953220703309373	-0.286401481145989
12.3	0.962878443010394	0.19786663709041	3.58613568581396E-06	3.43668013878972E-06	-3.44533548035255E-06	6.25338380455983E-06	0.952938977721703	-0.288839939564393
