# GHZ S RI R 50
0.2	-0.965881164543038	0.251652914838687	8.82173306028276E-06	5.31862935619152E-06	1.13611421895126E-06	-2.88918840942873E-06	0.999373182381948	-0.0070236261349458
0.3	-0.926352001429346	0.371495274257207	-7.66012947524518E-06	-8.18088225187969E-07	-1.41727013377289E-08	3.6584324789896E-06	0.999248469159346	-0.00993451615543664
0.4	-0.871528355911255	0.485213897216658	-2.19696098433062E-06	6.33690182795129E-06	2.91881357338886E-06	5.73374283033391E-06	0.999138907944792	-0.0125730729590162
0.5	-0.80315130315735	0.591073814441946	-2.64760079523033E-06	5.48367799276303E-07	1.05140466700407E-05	4.88327435807226E-06	0.998943009572054	-0.0154727463984323
0.6	-0.722035835846099	0.687406627455538	-1.72463160770601E-06	-1.85698846751852E-08	4.16351634550662E-06	-1.03315376266551E-05	0.999368298069217	-0.0184404156877457
0.7	-0.629541727804116	0.772842135193063	-2.04629101107178E-06	9.8782855485207E-07	3.78133012666925E-06	1.11562241353921E-05	0.99904908061809	-0.0217001697015637
0.8	-0.526978777689768	0.84598504853221	-5.60290986631607E-06	3.78026581694556E-06	-3.16645761885124E-06	-2.13807850193149E-06	0.9987152615691	-0.024072131893922
0.9	-0.416285249729109	0.905423073484397	-6.68094647500824E-07	5.24736200604968E-06	3.26455851054653E-06	-2.94713826186788E-07	0.998453840146491	-0.0266549680347155
1	-0.298556606983709	0.950481075425915	1.56722419274604E-05	-3.68560810126934E-06	-9.59052865432131E-06	5.27668323636368E-07	0.997663692103487	-0.0282891677398638
1.1	-0.177191619752598	0.980125817309246	1.34177041884807E-06	-2.97875284456994E-06	9.38298449944099E-06	1.25876299490888E-05	0.997332836612199	-0.0296945847804207
1.2	-0.0522334484492495	0.994347033421592	-7.89841411751925E-06	-3.26136041272555E-06	-3.09153114256439E-06	-4.47636487987007E-06	0.996889221612422	-0.0304001845756398
1.3	0.0734028438657647	0.992702259235111	1.74340458678708E-07	3.33113118877805E-06	1.92682508824004E-06	3.43090936279967E-07	0.997284508044189	-0.0308601461003715
1.4	0.197549853056851	0.975338537124865	1.62408813277166E-08	3.76468136196139E-06	-2.51645245599937E-06	-5.61488857292051E-06	0.997648636725066	-0.032620967944618
1.5	0.318722177752379	0.942701743703776	3.18570776064022E-06	-2.61188007337739E-07	2.69731401585412E-06	2.0979651222878E-06	0.998572826317902	-0.0362336070039862
1.6	0.434690405033366	0.895340125700084	1.7902444514064E-06	-1.93623280179306E-06	-8.88858549730646E-07	-3.06422468118354E-06	0.998456613727101	-0.0400393214941243
1.7	0.543687635000804	0.833328112051942	-8.1418192780789E-08	-3.52490177944276E-06	1.99949492945494E-06	4.92875595210757E-06	0.998792189398604	-0.0430882306572407
1.8	0.643791273090535	0.758545886036963	-2.05599343689394E-06	-1.81611638277389E-06	-4.6569966205417E-06	1.83156227792584E-05	0.998556777243527	-0.0461247443921172
1.9	0.733736109138149	0.671858125100106	-4.39048369911217E-06	-1.47007602106792E-06	-4.92373703721669E-06	-6.0080729805124E-06	0.998391184250026	-0.0487905218273619
2	0.811693249505787	0.574004823602502	-9.48217659192869E-08	-6.73964042310862E-07	-1.66800282499822E-06	-1.41731554958478E-06	0.997129733113747	-0.0520070473423493
2.1	0.876813367561841	0.467253639390845	-1.14311018501323E-06	9.43952878112803E-06	1.99286443652528E-06	-3.79290572571458E-07	0.996664920921515	-0.0534942087533589
2.2	0.928344989321232	0.353778836791983	-1.98965085208473E-08	-5.92515375314354E-06	-7.37594563801929E-07	2.73496804991989E-06	0.997018165469263	-0.0558200261531027
2.3	0.96521749248118	0.234454144585051	-1.31574810366273E-06	2.7633280710951E-06	-2.75951615320424E-07	1.19648127752357E-05	0.996892849713831	-0.0578087972827026
2.4	0.98688794081185	0.110438795001558	-5.86689303379103E-06	-3.70852203578689E-06	-1.75892139639547E-05	1.45066587979176E-05	0.996913334698191	-0.0610564158633454
2.5	0.992825648284607	-0.0146219464480039	1.82082511622448E-06	-2.96111639561191E-06	-1.79614164867059E-06	7.54548665429898E-06	0.99655956462473	-0.0634442936870731
2.6	0.982719482927503	-0.138193105649045	2.86259586904664E-06	9.1953460420277E-07	-1.75200638410131E-06	4.50320568616823E-06	0.996503159922695	-0.0664999050886864
2.7	0.957079999873661	-0.259902521057045	3.82612139781925E-06	1.04421338058166E-05	2.32376428508459E-06	3.86680920854287E-06	0.995878873105543	-0.0695733368824379
2.8	0.916693031857665	-0.377402239156888	-8.1391130970397E-07	-2.29129260239288E-06	2.18603995468748E-07	-1.88700421358501E-06	0.995849857834893	-0.0714072805784957
2.9	0.862544427015301	-0.488694393917377	3.76234035610969E-06	-8.31155160822136E-06	-1.27595339840206E-06	-1.4214004467545E-05	0.995549755625646	-0.073257281233049
3	0.794662298361101	-0.593227511252496	-1.22423519323804E-08	6.64428992523921E-06	-1.47589988949315E-05	5.29962950697451E-06	0.995499385259866	-0.0755799750094387
3.1	0.714974534395202	-0.68707975899481	-4.9799767600912E-06	7.81699686784029E-06	5.8037801883581E-06	-8.52506436449241E-08	0.995352162300938	-0.0775095537651146
3.2	0.622677100634993	-0.771410400687712	9.58948862536757E-07	2.12417713975566E-06	-4.55727382205716E-06	4.76721553360084E-07	0.995192013139178	-0.079250532839886
3.3	0.520938002369319	-0.843472995390598	7.19642163931172E-07	-1.45810352345866E-06	-4.5782657748901E-06	7.28460331439452E-07	0.995048360194729	-0.0824137733613192
3.4	0.41073624151252	-0.902280947259923	6.46653880930733E-06	2.41858057561135E-07	-8.12430688391157E-06	-7.18614743847195E-06	0.995331800071254	-0.0842404869017627
3.5	0.293170576781027	-0.947407396192326	-7.70249401002617E-06	1.95641828582837E-06	-5.89813617780333E-06	-7.98914066666961E-06	0.995666041891903	-0.0874691075555372
3.6	0.170348178006872	-0.975781215235691	-8.55886218873873E-07	-4.38150054825947E-06	-7.81468797370291E-06	-6.3334232877141E-06	0.995107389835708	-0.0902675599558555
3.7	0.0463738049680162	-0.98963494261142	-6.71203311611963E-06	-6.7713952297961E-06	5.29621684974073E-07	-4.76308725504597E-06	0.994875346924639	-0.0929837521697307
3.8	-0.0788518128199842	-0.987866780981908	-3.64413361055661E-06	1.08146579996645E-06	-3.29561106522077E-06	-2.46695007063754E-06	0.994478646645046	-0.0951073029395652
3.9	-0.202612491803174	-0.970697769163895	-4.80112389376118E-07	3.50863352740894E-06	2.05412845289625E-06	-1.21936374574365E-06	0.994498965540456	-0.0986642501045464
4	-0.324395125718862	-0.937767843050966	1.16785636246127E-05	8.1107498595811E-06	7.26162116984142E-06	-4.0423764555286E-06	0.99293300198605	-0.100466442681146
4.1	-0.439921001442261	-0.889003240968176	5.21501332964637E-06	1.32358205534138E-06	-3.45725972668811E-06	6.64830192554682E-06	0.992555234765713	-0.100980109040505
4.2	-0.547926923090135	-0.826855050539127	-7.09617061064799E-06	-1.20255252300009E-06	-8.26411810282537E-06	-4.30077463024879E-08	0.99256993248483	-0.10339587674109
4.3	-0.647403337457475	-0.751366639027797	7.02634701141982E-07	-2.36760513880641E-06	5.21218629275139E-06	8.81167844891823E-07	0.992692220107711	-0.105454522740048
4.4	-0.736613800065707	-0.663777357375026	4.47294670086574E-06	-1.77321102055056E-06	-8.68510147940122E-07	1.34643235677441E-06	0.992298485186224	-0.107879749679983
4.5	-0.814444651957845	-0.565889820880578	6.78396330283847E-06	1.87126304115851E-06	-8.02747896546498E-07	-3.25776027741286E-06	0.9922645449648	-0.109565304597475
4.6	-0.880066575074786	-0.45838788114477	2.45626983879641E-06	2.95467660349724E-06	-6.59722533676052E-06	9.75099147364721E-06	0.992784262280204	-0.112343233578137
4.7	-0.930947454111558	-0.342421346228836	-1.40643877449062E-05	5.92140429400387E-06	-3.46534637873773E-06	-3.4753746727206E-08	0.992977031543758	-0.114889537781503
4.8	-0.966380354916328	-0.221662653795107	-3.16495214802272E-06	-5.1468757970422E-06	-5.52836499679239E-06	2.36812995719049E-06	0.992600975097123	-0.117704315561446
4.9	-0.985621680308335	-0.0984333430075372	-1.0226688128861E-06	-8.55774297522425E-06	-4.22396951037675E-06	7.40869018005943E-07	0.992153346300899	-0.119663055162101
5	-0.991065540419434	0.0252232628906331	7.55915858041857E-06	-1.57088193276627E-06	-1.75376497232462E-06	-2.72504237228958E-06	0.992017934271766	-0.121217539882574
5.1	-0.979791744892941	0.151903563170565	-2.60664385369952E-06	-6.39984595891434E-06	-1.01065131434443E-06	-1.95479466744946E-06	0.992268627849407	-0.122738898104653
5.2	-0.952405774923025	0.273787045509393	3.99998234451528E-06	-4.38602221375811E-07	-5.43976540162617E-06	6.314575195826E-06	0.992020854048593	-0.125288941303686
5.3	-0.91082759898528	0.391020360042621	5.1437665294626E-06	6.0084968891812E-06	-9.62073894227389E-07	-3.58760083695763E-06	0.991481632163144	-0.127657168830432
5.4	-0.855241371743945	0.502333678684488	3.06423929420628E-06	-2.01758653230531E-06	-1.1321052048661E-05	2.20115553696357E-06	0.991409050073821	-0.130070215459209
5.5	-0.785851109195124	0.606255450547134	-4.33034318906797E-07	-2.19695769198502E-06	-5.79359065169052E-06	6.13354673931317E-06	0.99159025338553	-0.133120726463286
5.6	-0.702718153562424	0.700629478877619	2.38662320410426E-06	7.31010928226068E-06	-5.36794962163672E-07	2.93255194023619E-06	0.991174142069357	-0.135711452747631
5.7	-0.608590724830452	0.783490910667153	-2.57242742262761E-06	2.36467175297099E-06	7.92015963026532E-06	2.77653737428019E-06	0.991085754343383	-0.138173732394172
5.8	-0.504799638072816	0.853127762558151	-4.64897119727525E-06	5.11182145073816E-06	-3.64318838169651E-07	3.42563384447567E-06	0.99108728506304	-0.140656906791222
5.9	-0.393375494163973	0.909446841228943	6.36496729982804E-06	1.49282381433956E-06	-2.71081391386802E-06	2.55235987363329E-06	0.990766050032494	-0.143776019847752
6	-0.276141026766268	0.949965420500753	3.52672803648391E-06	3.29057591212107E-06	-3.30576668903828E-07	-1.43232595232938E-06	0.988219594988153	-0.14593118976005
6.1	-0.156655543191083	0.976516365096968	9.1624626417865E-06	1.51961946796113E-06	-1.27818833145834E-07	-1.80576428230617E-06	0.987940406246062	-0.145051208654727
6.2	-0.0332763776225315	0.988896445576514	2.43751812770112E-06	-1.72705186163245E-06	1.48059336465085E-06	-4.8391870344556E-06	0.988464642353857	-0.145974049456626
6.3	0.091345121810625	0.985617495568802	-4.35861094678617E-06	4.23912335969424E-06	-6.13766748935003E-07	-1.72402182953652E-06	0.988594792045062	-0.147980453892021
6.4	0.214751657747841	0.9658924853659	-4.26088406191002E-06	1.06725769750902E-06	-1.7629543577319E-06	8.83376487266722E-06	0.988222990448586	-0.150516463729827
6.5	0.33261612298098	0.931206796176772	2.4510955633899E-06	-1.32460937202661E-06	1.49079213552737E-06	-2.92295306818228E-06	0.987571709875449	-0.15227912575674
6.6	0.447326430311538	0.884008139886924	-4.73174246048307E-06	-2.26682140076207E-06	-1.85053936215108E-06	-6.64680283427433E-06	0.989122749266164	-0.154994711927754
6.7	0.55522945589179	0.82073518464629	4.168060536462E-06	-6.55197712231788E-07	-4.68233923125069E-06	1.00495801054093E-06	0.989125578764074	-0.158567389794611
6.8	0.65370537016572	0.744559221125239	3.76345431653401E-06	-2.07909917674914E-06	6.22257602687253E-06	-9.18957937612968E-07	0.988426532808936	-0.161507243846475
6.9	0.741760122590156	0.656734863111024	2.05062281274164E-06	1.64353750674825E-06	8.79534096703754E-06	-2.75887915696956E-06	0.987801270885088	-0.164150695233709
7	0.817498011999365	0.558276019064214	2.17812712943506E-06	4.09830194067592E-06	-8.88994978194068E-08	5.38761476628178E-06	0.986111960901087	-0.16608348577546
7.1	0.88029076108061	0.452457665721346	-1.32844382300212E-07	1.71730738483399E-06	8.25883747129754E-06	-4.64544515116949E-06	0.985711145913684	-0.166719804968083
7.2	0.929765867829849	0.339101084202808	4.84867031453063E-06	-1.39124191459857E-06	7.25544627404939E-06	3.78534476300624E-06	0.985641234512901	-0.168324739589546
7.3	0.964365836025927	0.220549528164391	4.86331969636267E-06	-1.10305143407746E-06	-7.33390400727801E-06	-7.39073074790523E-06	0.985118648847189	-0.16996824155874
7.4	0.984957205115409	0.0984379098987816	-1.86512336806074E-06	9.90236141476552E-06	1.44440904300922E-06	-4.07023278690066E-06	0.985444857837815	-0.17227361359169
7.5	0.990346791332566	-0.0278989823760187	8.42366615887604E-07	8.10120145555091E-07	1.67803696410909E-06	9.98443031780975E-07	0.985195709428931	-0.177242717207922
7.6	0.977299145351812	-0.152616735864361	1.45595352059189E-06	-2.6225349039482E-06	-5.43651240606894E-06	-3.63028488709304E-06	0.982744588582959	-0.180404528332484
7.7	0.950257988133832	-0.27446510047147	5.58721397781736E-06	2.40725337413874E-06	-6.82653254300635E-06	1.20820078711618E-05	0.982149317743336	-0.183372483685839
7.8	0.908434179345028	-0.392529729158045	-6.23937350634742E-07	-5.253631796368E-06	3.73448955547455E-06	-4.7544939885178E-06	0.982014281935195	-0.186854520137191
7.9	0.851297684842871	-0.505246442278941	8.87809732438551E-06	1.50317008793251E-06	-9.58703178530549E-06	-8.62660736770221E-06	0.981599731219273	-0.191326218302494
8	0.777446558631386	-0.608497714695844	-6.66322403495837E-06	-1.59180351515667E-06	-1.1989313985174E-05	2.5629011769998E-06	0.977971648627104	-0.195326011409189
8.1	0.695237909816762	-0.698443791887423	5.0658053002279E-06	7.11883628674495E-07	2.8924511702519E-06	2.24647331577036E-06	0.976691059152712	-0.195120581801473
8.2	0.602963022177694	-0.779749928698863	3.55002044227929E-06	-2.57737455903464E-06	-3.69926976602413E-06	-1.15793574094108E-05	0.977048928550125	-0.196776526125129
8.3	0.500550410957327	-0.84905019414014	2.71784545999067E-06	-1.85838984299873E-06	1.64411021440062E-06	5.27662382903077E-06	0.976749944227324	-0.199289771818269
8.4	0.390352365600959	-0.905019515842595	-5.53977961563194E-06	-1.0103383832156E-06	1.05623318938356E-06	2.94247669685493E-06	0.975968815016341	-0.201962437407291
8.5	0.272690806923443	-0.94748116072925	-3.28321928751612E-06	1.62318964413044E-06	-4.78635067400418E-06	-4.99408644180146E-06	0.974973171022796	-0.204139187582478
8.6	0.149993088961795	-0.97322992615111	-8.12991612814957E-06	1.39558122373282E-06	-4.34616390189538E-06	-6.84906167276235E-06	0.975109606362813	-0.206508092863979
8.7	0.0257243739734961	-0.983310627695118	2.23888625254736E-07	-2.14800819374418E-07	6.11090286887969E-06	4.96783808230929E-07	0.974792831514746	-0.209277027113274
8.8	-0.0983706838112664	-0.97741167786858	1.01860961035834E-06	-1.81700868725243E-06	-2.38888551397889E-06	-1.27272867339457E-06	0.974357880739664	-0.211635718366961
8.9	-0.218956507089421	-0.956946517103994	-2.95136656656379E-07	3.02678565830423E-06	-1.23324218700764E-06	-1.63473655314255E-06	0.974345536807484	-0.213788193184241
9	-0.336550172156149	-0.924215453250722	2.97010271618631E-06	1.58310960309126E-06	-1.57088283126458E-06	2.10959594338409E-06	0.97425913766839	-0.216495100415948
9.1	-0.450996620867687	-0.874824482947939	-9.2918618429583E-06	2.26400799095905E-06	-1.5599774208458E-06	2.40514962397433E-06	0.973633163077723	-0.218963772382475
9.2	-0.557443756019535	-0.811744854889761	7.48961078802112E-06	-2.32424550105917E-07	-9.0883832879861E-06	1.9636255848837E-06	0.972779673006973	-0.221525564403101
9.3	-0.655382713155443	-0.736257602934591	8.12262619168751E-08	-7.15209832910296E-06	1.58494685727365E-06	-1.29719712688317E-06	0.972183713139171	-0.223633191283035
9.4	-0.743483056640161	-0.649685308986425	5.96254193603097E-07	2.48258668476528E-06	1.62009126969147E-06	-3.59363457954047E-06	0.972063044893633	-0.226124358596939
9.5	-0.822413366268073	-0.550418680457833	-2.87111664028762E-06	6.65371698273368E-06	4.728532222949E-06	-1.37261789563449E-06	0.971582958854985	-0.230050016719359
9.6	-0.884088602229945	-0.439849689391228	-5.03223985035698E-06	-5.19628937265103E-06	4.76523943237001E-06	2.87420536475172E-06	0.970007210972623	-0.232809398269304
9.7	-0.931517786551469	-0.32432046069027	-2.00799416309282E-06	-5.06981824239172E-06	2.09640112512548E-06	7.57916674378539E-09	0.969467610540831	-0.234980046914103
9.8	-0.964541873050825	-0.203370245327451	5.86813959617639E-07	-4.28568542233238E-06	-2.94445323426592E-06	-2.51325456709211E-06	0.969564852326138	-0.237023329931235
9.9	-0.98138756991398	-0.0795401207033475	-6.10374949150715E-06	4.22201280888663E-06	-3.08006922731301E-06	1.67158323726958E-06	0.969716344360788	-0.240096106156052
10	-0.983895690344276	0.0439248374808974	3.56541529581087E-06	-5.09872461573566E-08	8.2432021943126E-06	1.10613878784267E-05	0.966538584490108	-0.242826924531233
10.1	-0.971018565697625	0.168217315750823	-2.85506994506337E-06	-2.51482614932419E-06	-2.00804369860515E-06	-2.49088603715604E-06	0.965814921381828	-0.241892905777353
10.2	-0.941854902957574	0.290198555002408	2.35286973933304E-06	-1.02157191408877E-06	-2.76546835926284E-06	-1.06320456035402E-06	0.966455439341535	-0.242958724326482
10.3	-0.89694378036515	0.407285527314173	7.74688528513508E-06	-5.95175192300398E-06	3.86405609929153E-06	8.219540861353E-06	0.966458137535678	-0.244904272863115
10.4	-0.837453029346014	0.516364206367365	1.70368706670396E-06	2.48265831951044E-07	6.26617456139957E-06	-1.19312450363248E-06	0.965873253978491	-0.247424071485364
10.5	-0.768008012547065	0.615076854014197	8.33718621043892E-06	-4.1311163378375E-06	-4.94257460899408E-07	1.96892589281264E-06	0.965006968091443	-0.249586332590852
10.6	-0.687709876901129	0.708329459611917	8.93734159558325E-06	-1.26688508788716E-06	-1.48099550261758E-06	1.36423628950084E-05	0.964986105099348	-0.252854272068313
10.7	-0.593903830969643	0.790392303365333	8.01728033187011E-06	-1.9084020983199E-06	-3.05761713939546E-06	-5.28061435026668E-06	0.963318533465386	-0.256175311129245
10.8	-0.48942043494687	0.859856016458242	2.45611285986813E-06	5.24351181916304E-06	-3.62707714084503E-06	-2.01002991138597E-07	0.961629303822825	-0.258051746888328
10.9	-0.376169197984338	0.914049487402352	-5.55374206125461E-06	4.89436636138879E-07	1.59905278444008E-06	4.02385476692382E-06	0.961375745292567	-0.259375573236956
11	-0.260161647591745	0.95490594105108	1.2001622821135E-09	-5.22050328679682E-06	-8.37709829433832E-06	2.23425845374573E-06	0.960559620277335	-0.261347304177133
11.1	-0.136519287968608	0.982357140031516	6.30962147839842E-06	4.08201348447585E-06	-1.89427582291123E-06	1.07552265143597E-05	0.95943162677501	-0.262537627065914
11.2	-0.0108548957719628	0.991996795340652	1.57762171254845E-06	1.3532804279259E-06	5.13553168345821E-06	8.89265061324366E-06	0.958312595908634	-0.263673328879877
11.3	0.11485225207611	0.984944697874088	-4.61090995968562E-07	-1.73579599075758E-06	-6.96137173251789E-07	-4.39131061337964E-06	0.957956544948246	-0.264340097841086
11.4	0.238311532216148	0.962424855498664	2.06256688128313E-07	1.18539652447514E-05	2.41409400516177E-06	4.93004647768763E-06	0.958443147794155	-0.265891766193395
11.5	0.357572611360336	0.924659856559718	6.20119866644343E-06	-3.2036688597339E-07	3.18438516792949E-07	-1.88367235916267E-06	0.958080671086511	-0.270416504599733
11.6	0.470196733226045	0.872844711083324	-6.0027174820796E-06	3.07408565109877E-06	-4.86831676207385E-06	1.91689722550989E-06	0.955661177144862	-0.273273887328615
11.7	0.575693892068579	0.807512758711496	3.32487823117399E-06	-1.79350086373111E-06	-1.70607488963438E-06	2.23481833807242E-06	0.955050479723613	-0.275844523217463
11.8	0.67220697408451	0.728638650535167	-8.29433939041118E-07	9.7883535095692E-06	-2.72466185828286E-06	1.05306801027435E-05	0.955369134461578	-0.279189427408302
11.9	0.757263413261356	0.636624548975883	-7.29853253302902E-06	-1.03940871690874E-06	-3.91525611046253E-06	1.12524570843144E-05	0.956460769048953	-0.283772981155797
12	0.825814241251765	0.534627979071204	-6.41891451058809E-07	1.38079674558371E-06	-3.13452412129354E-06	-1.9183725916732E-06	0.952682841668538	-0.288755888537545
12.1	0.883948753998453	0.431064583015573	-3.87454995385101E-06	4.97737094761606E-06	-1.34081977327095E-06	8.40035877516986E-06	0.951176323201289	-0.289309096570362
12.2	0.93130016793824	0.318543728136312	-5.74929278159416E-07	-3.79488304226149E-06	-3.1108913153427E-06	-7.3137885532179E-07	0.950568114818693	-0.292086728232841
12.3	0.963974791551798	0.200423645733273	3.59285298436728E-06	3.42763389217222E-06	-3.43028371713678E-06	6.25936380813812E-06	0.949280952685222	-0.295024423733822
