# GHZ S RI R 50
0.2	-0.965780578518941	0.251682730535139	8.8211438845215E-06	5.31886206918857E-06	1.13621304077965E-06	-2.88902505925218E-06	0.999384010132265	-0.00686856563582035
0.3	-0.926225360962446	0.371490497147049	-7.65967558906421E-06	-8.18772590348169E-07	-1.45180574681714E-08	3.65825132285323E-06	0.999267179377784	-0.00969211348537745
0.4	-0.87144880550169	0.485163609036542	-2.19805074789567E-06	6.3365755643258E-06	2.91786316800518E-06	5.73427907164418E-06	0.999253182493792	-0.0122301848624885
0.5	-0.803088310643498	0.591180015138128	-2.64799406849538E-06	5.48419908108266E-07	1.05155333784621E-05	4.88410070990174E-06	0.999202284986228	-0.015332285890149
0.6	-0.721758164161554	0.687439714809428	-1.72446885610855E-06	-1.842185815668E-08	4.16224347269171E-06	-1.03309063030656E-05	0.99931608547532	-0.0183496486988078
0.7	-0.629257365917044	0.77272339474029	-2.04592981841296E-06	9.87604903782168E-07	3.7804090910778E-06	1.11542236023954E-05	0.998916862324847	-0.0214446555512344
0.8	-0.526746118948902	0.845753414115388	-5.60203836246322E-06	3.77893615384337E-06	-3.16557627301815E-06	-2.13790274634362E-06	0.998562552653058	-0.0237108986139701
0.9	-0.416166259084557	0.90509485051494	-6.68958382091406E-07	5.24581486145889E-06	3.2637372836601E-06	-2.93985015254354E-07	0.998270506573717	-0.0261039441225823
1	-0.298671671157664	0.950135496086558	1.56720603914038E-05	-3.67643002626299E-06	-9.58946325237989E-06	5.22296295083401E-07	0.997885316685188	-0.0273815986211504
1.1	-0.177577576095678	0.979974266871454	1.34406664685381E-06	-2.97884018773896E-06	9.37799330520869E-06	1.25974803643357E-05	0.998003072581818	-0.0290491291831944
1.2	-0.0528085975384477	0.994687772112558	-7.9020853404719E-06	-3.26989211348665E-06	-3.09053984817719E-06	-4.48219424256956E-06	0.998001817648987	-0.0297213633676541
1.3	0.0731314763025187	0.993618502628553	1.72385058535083E-07	3.335957522598E-06	1.92932333070033E-06	3.44849837363281E-07	0.999092581240605	-0.0305067512979045
1.4	0.197823753786658	0.976138485707712	1.57184028717603E-08	3.77000494755765E-06	-2.51919586891554E-06	-5.62318959086593E-06	0.999258691333388	-0.0329148470251382
1.5	0.319173958900227	0.943101682660843	3.18838069787329E-06	-2.61648322866807E-07	2.6997515628447E-06	2.09953550228888E-06	0.999478221001157	-0.036600110063635
1.6	0.435123599545621	0.895104844333703	1.78986174127406E-06	-1.93719894735861E-06	-8.90098763082219E-07	-3.06443128168432E-06	0.998444886161601	-0.0404802980816348
1.7	0.543755457603909	0.832742342683179	-8.25264541595847E-08	-3.5234079245896E-06	2.00025954861488E-06	4.92605614501047E-06	0.998126199143283	-0.0432207713488012
1.8	0.643447254491198	0.757771775717017	-2.05470674127288E-06	-1.81388687394866E-06	-4.64738480850571E-06	1.83007200140738E-05	0.997373329787078	-0.0460126283554889
1.9	0.732618090534344	0.671169262423663	-4.38327661191127E-06	-1.46782074159483E-06	-4.91551363506299E-06	-5.99843484391507E-06	0.996553151941697	-0.0480066463985668
2	0.810515674259369	0.574768341976821	-9.37197702402961E-08	-6.73262326260778E-07	-1.66385470118673E-06	-1.41798360666351E-06	0.996250027073647	-0.0499069718464622
2.1	0.876775464664481	0.467583176705412	-1.14915184611443E-06	9.43653807270751E-06	1.99264799001234E-06	-3.77868681544046E-07	0.996444721659132	-0.0526015543035749
2.2	0.928016982653962	0.353627587588121	-1.8432942418053E-08	-5.92148736303764E-06	-7.37807416673899E-07	2.73309278833817E-06	0.99618703963557	-0.0552019535956721
2.3	0.964452251316048	0.234309294021683	-1.31530353030175E-06	2.7604650393921E-06	-2.78943807394215E-07	1.19538853768989E-05	0.995639405372424	-0.057046242148777
2.4	0.985658992666654	0.110709122803053	-5.85967396519951E-06	-3.70625931824878E-06	-1.75747503029633E-05	1.44864498137903E-05	0.995273204954671	-0.0599361506931625
2.5	0.991655884756104	-0.0134702562473669	1.81813066536575E-06	-2.95553995575761E-06	-1.79431617053967E-06	7.53178870778489E-06	0.994852692135824	-0.0616383734309436
2.6	0.982089910700551	-0.136430149148462	2.85493442062714E-06	9.21426006994946E-07	-1.75429946971013E-06	4.49073230269683E-06	0.995024775568116	-0.0641668001572128
2.7	0.957439827534627	-0.257954291671767	3.79801328619556E-06	1.04342111107495E-05	2.31196034132573E-06	3.86580536721672E-06	0.99504302972234	-0.0669610219759504
2.8	0.917727069400646	-0.376051140359624	-8.08508493544921E-07	-2.29121334381456E-06	2.22365081344324E-07	-1.88508746638355E-06	0.995513781879762	-0.0691354424136661
2.9	0.863582979327036	-0.487918235063161	3.77520789643138E-06	-8.30253279167776E-06	-1.25148884100229E-06	-1.4211630527927E-05	0.995324058641948	-0.0713756169931363
3	0.795745414669149	-0.592594067175419	-2.09296476047394E-08	6.64324630547004E-06	-1.47636469452801E-05	5.27950851861309E-06	0.995384768634972	-0.073896864696374
3.1	0.716189010955305	-0.687004946789542	-4.98854470410846E-06	7.81282585541339E-06	5.8045471475626E-06	-7.93324365933343E-08	0.995385885486757	-0.0761478751511287
3.2	0.623604991040856	-0.771846605997312	9.58047943623595E-07	2.12536057726573E-06	-4.55892566690688E-06	4.74308572549335E-07	0.995280616562178	-0.0782446972256258
3.3	0.521306235135394	-0.844281207086291	7.19982646834276E-07	-1.45861416747977E-06	-4.58001489861077E-06	7.28509646094302E-07	0.995083963357846	-0.081840554146417
3.4	0.40994806701459	-0.902823067552747	6.46710211452828E-06	2.36589480428542E-07	-8.13063646257445E-06	-7.17991745923197E-06	0.994840227858843	-0.0841798829128901
3.5	0.2930739669086	-0.945936530268045	-7.68900770750916E-06	1.95683271196006E-06	-5.89225216108773E-06	-7.97334060147199E-06	0.994277543489696	-0.0866764877762921
3.6	0.171527754499673	-0.975808700869054	-8.51544679627085E-07	-4.37808307285118E-06	-7.80224422187916E-06	-6.33379599576874E-06	0.994304464240506	-0.0891140320963214
3.7	0.0466362851792688	-0.990162978138055	-6.70472242204852E-06	-6.77168396250703E-06	5.32042589087157E-07	-4.76031886967469E-06	0.993959808699912	-0.0919818293936428
3.8	-0.0791686800823504	-0.987835670865967	-3.64193342440703E-06	1.0790756369519E-06	-3.29211195563041E-06	-2.46658376435409E-06	0.993139688165897	-0.0939219447674605
3.9	-0.202558290351705	-0.96958036640478	-4.8315803497801E-07	3.50386143640506E-06	2.05288726460473E-06	-1.2157523763093E-06	0.992606983049337	-0.0964131104455229
4	-0.322604245024	-0.936830830260438	1.16611275176253E-05	8.13503572979692E-06	7.26988083889325E-06	-4.02697678884281E-06	0.993117058475676	-0.0964015547147569
4.1	-0.437978169728744	-0.88936602103791	5.21619688499252E-06	1.32987664142182E-06	-3.46617106901777E-06	6.64789953101904E-06	0.994099319153588	-0.0989815573146523
4.2	-0.54628922612153	-0.827903032332927	-7.09714917772399E-06	-1.20996857035973E-06	-8.26660595101264E-06	-5.12287167658319E-08	0.993614245983589	-0.102094612402391
4.3	-0.646182425381841	-0.752832743221782	7.05442782167154E-07	-2.36770439673787E-06	5.21312278302571E-06	8.8710873998924E-07	0.993502342966378	-0.104242416657709
4.4	-0.735870870566261	-0.665577874774741	4.47770245307931E-06	-1.76875976076235E-06	-8.70660423817455E-07	1.34614718491755E-06	0.993116971027788	-0.106557107392034
4.5	-0.814414426438287	-0.567495434863206	6.78944614113791E-06	1.87818723713194E-06	-8.01145745266313E-07	-3.26165449114285E-06	0.993529281462444	-0.108724528586944
4.6	-0.879904329454965	-0.459891208105463	2.4554956184183E-06	2.95715138194941E-06	-6.60516889927653E-06	9.75082641472696E-06	0.993161417824419	-0.11189742261566
4.7	-0.931152567750604	-0.344283780441473	-1.40747259674724E-05	5.90988309712703E-06	-3.46646156463835E-06	-3.80875354063585E-08	0.993013288626754	-0.113978947724621
4.8	-0.967422300751774	-0.223671130880414	-3.1610439304908E-06	-5.15369109593477E-06	-5.53450775065243E-06	2.36329050456468E-06	0.992624567489738	-0.116549863963476
4.9	-0.988057059349676	-0.0995208284146783	-1.01695836459366E-06	-8.56861127626327E-06	-4.22952458742352E-06	7.38327486184143E-07	0.992145643393136	-0.118449751265042
5	-0.991928946597623	0.0264445903430433	7.56188029299275E-06	-1.57333563169696E-06	-1.75513615939852E-06	-2.72573921490729E-06	0.991838519791194	-0.119965455683614
5.1	-0.979933160412048	0.151093423533918	-2.60152292557318E-06	-6.40066725408559E-06	-1.00905081329509E-06	-1.95520233350644E-06	0.991813628367242	-0.121293863301682
5.2	-0.953643271986072	0.27320506148004	4.0013508920749E-06	-4.35001013270629E-07	-5.44692540273486E-06	6.3110530995335E-06	0.991570255484785	-0.123356414771747
5.3	-0.91189235512171	0.391260502687075	5.14132001296332E-06	6.01472324683817E-06	-9.59776081585859E-07	-3.58974313714617E-06	0.991565682302839	-0.125468408389154
5.4	-0.855433243846331	0.502691598380763	3.06552355440445E-06	-2.01671516558681E-06	-1.132374361985E-05	2.19708653069628E-06	0.991758348600217	-0.128424092962375
5.5	-0.785458609624957	0.605535411864505	-4.30631466397382E-07	-2.19601744815905E-06	-5.79596103643632E-06	6.12411795924894E-06	0.991539215937524	-0.130999587945363
5.6	-0.703237828171838	0.69914182097554	2.37549788488216E-06	7.31384538331302E-06	-5.41277226555481E-07	2.93177039488486E-06	0.991902487666891	-0.133891889383491
5.7	-0.609928260790666	0.782084493275907	-2.57620488292856E-06	2.36167188034954E-06	7.9180751979394E-06	2.78793467711419E-06	0.991409994172017	-0.136854347925476
5.8	-0.506672510835027	0.851883929677503	-4.655799172994E-06	5.10534058450911E-06	-3.68974399372828E-07	3.42503815292832E-06	0.99067738992219	-0.139180065501444
5.9	-0.396241557068993	0.908072254280641	6.35699657793853E-06	1.50663815563053E-06	-2.71486545806413E-06	2.54423037040365E-06	0.989537472388225	-0.140678369743093
6	-0.281066268422354	0.95093192327174	3.51697004018278E-06	3.31297990529645E-06	-3.2429407912185E-07	-1.43632482748146E-06	0.990658559259691	-0.140352147583377
6.1	-0.15948464023667	0.979664474099721	9.1956516643083E-06	1.54789682070546E-06	-1.23965117812785E-07	-1.81333889547985E-06	0.992371731492007	-0.143127762859822
6.2	-0.034849067934836	0.992037901924649	2.44919655532258E-06	-1.7308901452778E-06	1.49227953499193E-06	-4.85642358743869E-06	0.992270817197171	-0.145514797891439
6.3	0.0901713427157169	0.98854091012386	-4.3790238702496E-06	4.25211345320901E-06	-6.14763119190377E-07	-1.73123586522557E-06	0.991879717218674	-0.148239365434042
6.4	0.213079905502917	0.969833074030487	-4.28163075858051E-06	1.06785852999043E-06	-1.78005574505025E-06	8.87274248572401E-06	0.991348625386153	-0.150533286371659
6.5	0.334922725433192	0.936991326462799	2.46386923451793E-06	-1.33761111787616E-06	1.4944839102227E-06	-2.94409854422748E-06	0.99195674964889	-0.154246845875447
6.6	0.450622072722566	0.885552091084628	-4.75304843925724E-06	-2.25567777820372E-06	-1.88001177084179E-06	-6.65825448066639E-06	0.99011322743934	-0.158082530782135
6.7	0.55743557106975	0.821330439964772	4.17051632488297E-06	-6.67930398819132E-07	-4.6843206470641E-06	1.01954237201248E-06	0.988916580578864	-0.160102659969672
6.8	0.65550444795228	0.744511733579065	3.75892556989175E-06	-2.08809271337327E-06	6.22098242306815E-06	-9.33602594605367E-07	0.988027738555257	-0.162303689153869
6.9	0.742753279621006	0.656230392281999	2.05159065308421E-06	1.63862924927724E-06	8.78293892349968E-06	-2.77129330094246E-06	0.987035055765403	-0.16422766346165
7	0.818435763285436	0.55844870568845	2.1765353702721E-06	4.09611290865251E-06	-8.9287249751338E-08	5.38449646540226E-06	0.986839631712398	-0.165399109814833
7.1	0.881755918549611	0.45162949558135	-1.31663456196964E-07	1.71886449667719E-06	8.26234525564677E-06	-4.65560788897428E-06	0.986524218355718	-0.168123191749207
7.2	0.930743045627434	0.337334519722285	4.84976154050713E-06	-1.40161883509082E-06	7.26833061537222E-06	3.77436581732283E-06	0.985289841057589	-0.170524246146914
7.3	0.964556471409511	0.217604633309768	4.86180872235013E-06	-1.11997236360057E-06	-7.3621930093698E-06	-7.36933395347494E-06	0.983502738197251	-0.172979290804733
7.4	0.982318560044068	0.0938861759489031	-1.80179145936616E-06	9.89819986374982E-06	1.41731373640108E-06	-4.07265671479824E-06	0.980617286714957	-0.176031129902453
7.5	0.983411747150705	-0.0282122635209068	8.39465345209639E-07	8.00268609673515E-07	1.66957767848038E-06	9.83514903193319E-07	0.977245404022085	-0.175844511956492
7.6	0.972785921874238	-0.150389762567189	1.44433667656935E-06	-2.60591222899723E-06	-5.40247973519601E-06	-3.60208691147621E-06	0.977925243007081	-0.177405249496966
7.7	0.946003731238547	-0.271373966759162	5.54952281133783E-06	2.39119945343705E-06	-6.78090128508821E-06	1.20004576818409E-05	0.977542126745994	-0.180278227283564
7.8	0.904582978850045	-0.387734994733265	-6.11967741990258E-07	-5.21654589513789E-06	3.71424884506614E-06	-4.71482692661707E-06	0.977338520947178	-0.182885588095545
7.9	0.849020691646182	-0.497326310425807	8.80411685456468E-06	1.53150071400332E-06	-9.47581276219524E-06	-8.60414616496348E-06	0.977018252661604	-0.18471707110574
8	0.783666238098353	-0.599970133760953	-6.63389166456594E-06	-1.6518769950095E-06	-1.19882218236404E-05	2.44326625528457E-06	0.979899995652494	-0.185856064708987
8.1	0.701894386567178	-0.697706390210888	5.07787034971622E-06	7.39916309897832E-07	2.88995905351338E-06	2.26817984889687E-06	0.981381306454137	-0.191561498738065
8.2	0.60714709179065	-0.781118664843591	3.56763215641318E-06	-2.57773594672042E-06	-3.68492754413104E-06	-1.1626013530682E-05	0.980595102533634	-0.195479365306596
8.3	0.503072179048893	-0.851177851436027	2.72846365566728E-06	-1.86207659294529E-06	1.64479846183876E-06	5.29547914434977E-06	0.979575981498152	-0.198837774596173
8.4	0.391127240255758	-0.907066165023097	-5.55998410171072E-06	-1.01025449660166E-06	1.06189596352193E-06	2.95215962853635E-06	0.978553594373793	-0.201757724623539
8.5	0.273668921967529	-0.947974721314634	-3.28393540831195E-06	1.63331737804818E-06	-4.80500197175359E-06	-4.98963230022294E-06	0.978023402445171	-0.205093572806042
8.6	0.151602867642436	-0.97507226404567	-8.13188625872797E-06	1.40084625708117E-06	-4.35168811384687E-06	-6.84885506969721E-06	0.976631840306069	-0.208326970427789
8.7	0.0265301004090491	-0.986166234889374	2.24161992176511E-07	-2.14959281891946E-07	6.11682883678702E-06	4.98750669968041E-07	0.975491338566083	-0.210685744693616
8.8	-0.0989152735696381	-0.98131185988025	1.02182738022313E-06	-1.81988905338864E-06	-2.39271705542738E-06	-1.27682879878791E-06	0.974661572743927	-0.212679013307555
8.9	-0.223135790180436	-0.961267739862499	-2.9652761372205E-07	3.0386745129803E-06	-1.23797137648936E-06	-1.64126320463246E-06	0.974312567433507	-0.214476343382771
9	-0.343026736729907	-0.922558119937567	2.98530264725348E-06	1.57887314088248E-06	-1.56938866670616E-06	2.12183635255389E-06	0.974013598225745	-0.21636858680123
9.1	-0.454043215580892	-0.871412170248916	-9.30060627665213E-06	2.29461428484558E-06	-1.55558733630244E-06	2.41362112157456E-06	0.974089837767497	-0.218294820144631
9.2	-0.559001884726208	-0.807392088025258	7.49749864720744E-06	-2.57174722773279E-07	-9.09245821310795E-06	1.99560064381693E-06	0.974078478283749	-0.22111302109924
9.3	-0.654830186935857	-0.73146622963859	5.45925037621158E-08	-7.15280902129345E-06	1.58020582410177E-06	-1.30317438014271E-06	0.973826567055477	-0.224378903397474
9.4	-0.741016538119435	-0.644125704460165	6.06100365952153E-07	2.47538785311465E-06	1.60126707041523E-06	-3.59416053722986E-06	0.972263815386395	-0.22826831223421
9.5	-0.814023979641611	-0.547735290503321	-2.849864640568E-06	6.6236109135535E-06	4.70356470438874E-06	-1.37073653932872E-06	0.970323372932285	-0.229955265513575
9.6	-0.878841929918956	-0.442938516056316	-5.01563492930238E-06	-5.19086186860633E-06	4.7518218558496E-06	2.8734367774123E-06	0.97008812961658	-0.232907696284588
9.7	-0.928957625719644	-0.327432972879408	-2.00306748301939E-06	-5.06402226108942E-06	2.09362857209654E-06	8.50959478714609E-09	0.968848957030955	-0.235684279330053
9.8	-0.963236970308203	-0.206225317577127	5.86978630056543E-07	-4.27846085187029E-06	-2.9389319668426E-06	-2.50988699270654E-06	0.967504021344094	-0.237525511803274
9.9	-0.98129490678918	-0.0817891753964804	-6.09591145501344E-06	4.20405892087304E-06	-3.07547667319479E-06	1.66355352864885E-06	0.965806246615692	-0.237789387203322
10	-0.983391739899217	0.0428037218451999	3.56657357983456E-06	-4.08693635321956E-08	8.21411033175955E-06	1.10879577623783E-05	0.968139415802587	-0.237261175910274
10.1	-0.970284962823605	0.166230630235979	-2.85628800499208E-06	-2.51833368637569E-06	-2.00855362782781E-06	-2.49396650498671E-06	0.96799641058762	-0.241474500723309
10.2	-0.941937622633689	0.287564446024852	2.3528040946493E-06	-1.02085816837302E-06	-2.76483644397651E-06	-1.06373943982499E-06	0.966317142453551	-0.242948592202116
10.3	-0.898658777161165	0.404232859011793	7.74835696378929E-06	-5.9420751862148E-06	3.85497518169524E-06	8.21895231842289E-06	0.965026960914055	-0.244015981758214
10.4	-0.842658901974161	0.514776864667826	1.70422802083092E-06	2.51487751499405E-07	6.27196916339517E-06	-1.1824975025959E-06	0.964114648436352	-0.244729481984945
10.5	-0.771913697745761	0.620987902173632	8.35011168809019E-06	-4.15031082869289E-06	-4.92900309455942E-07	1.97378879022233E-06	0.964559321596628	-0.246835486904541
10.6	-0.685152263718502	0.713397422644105	8.92259213354984E-06	-1.28329876078209E-06	-1.45128785984925E-06	1.36267796545444E-05	0.963719618745611	-0.249000295850802
10.7	-0.589050159552775	0.792435836532471	7.99746871321115E-06	-1.90770652034621E-06	-3.05291281403373E-06	-5.26671082659988E-06	0.964158515346483	-0.251333836787845
10.8	-0.484466740648172	0.859011615584022	2.44900304194966E-06	5.23466299172081E-06	-3.62007514373343E-06	-2.0230202819063E-07	0.964240395190868	-0.254445156956782
10.9	-0.372159190527496	0.913139588366732	-5.54670047331311E-06	4.89918577587376E-07	1.59784574309608E-06	4.01850778729335E-06	0.963488829600976	-0.257330446695331
11	-0.253169809899009	0.951085355218852	-1.63873772034154E-09	-5.20449644225545E-06	-8.35019840057186E-06	2.2319571512889E-06	0.962645046443588	-0.259553718842436
11.1	-0.13367290148426	0.974922603533916	6.29082116468443E-06	4.07870311183043E-06	-1.900481164611E-06	1.07281883500389E-05	0.961300240664224	-0.262071504990541
11.2	-0.0107722913720769	0.98506270322888	1.57474013726454E-06	1.35233632484094E-06	5.12364808777038E-06	8.88352835247635E-06	0.959544954732206	-0.264119286360422
11.3	0.113092312001882	0.978744501076459	-4.61335694847869E-07	-1.73409118672416E-06	-6.97171282283233E-07	-4.38717426910797E-06	0.958105828332248	-0.266189637940244
11.4	0.235046778417679	0.956962714044132	2.3276634005019E-07	1.18377496904447E-05	2.42202586634904E-06	4.91804169913045E-06	0.955512353957021	-0.268888754756159
11.5	0.353486601163502	0.920164536581812	6.17315401265098E-06	-3.27660661905234E-07	3.14372939528614E-07	-1.87573811193785E-06	0.953673239964059	-0.268798947876317
11.6	0.465212478378385	0.868748508399062	-5.98632174042766E-06	3.06112905256213E-06	-4.85467270528071E-06	1.90814072838991E-06	0.953896226480867	-0.272264243884659
11.7	0.569289400415677	0.804314275792508	3.31703447464374E-06	-1.78950833679043E-06	-1.70197701646953E-06	2.22970796083298E-06	0.951966477762371	-0.275969969151953
11.8	0.664192917162576	0.726844570034319	-8.19121554428745E-07	9.75764900514352E-06	-2.70769825847414E-06	1.04990801259331E-05	0.949620956247997	-0.278498021480803
11.9	0.746667284186351	0.63851997784528	-7.25488225436961E-06	-1.04028327789507E-06	-3.90308621846586E-06	1.11829572901303E-05	0.948128524767119	-0.277742977345539
12	0.820685770650648	0.544472222889517	-6.48424063954755E-07	1.37453087099278E-06	-3.11770567745347E-06	-1.93231524201767E-06	0.952577656808415	-0.277133402725749
12.1	0.884470943956544	0.436425347845149	-3.88474317305215E-06	4.96579840527221E-06	-1.36038870733937E-06	8.39331490255406E-06	0.953719628172031	-0.282310374827601
12.2	0.931389774348228	0.321801976973762	-5.62621671766043E-07	-3.7918935248216E-06	-3.10476791418311E-06	-7.39964267169038E-07	0.953121774470589	-0.285786839459472
12.3	0.963961671672792	0.203744840673091	3.57813023720226E-06	3.44330127640584E-06	-3.4574959719647E-06	6.24471668594936E-06	0.952558334825583	-0.28897003577312
