# GHZ S RI R 50
0.2	-0.965470902030173	0.251909062193008	8.82087712418124E-06	5.31647504629089E-06	1.13551718525248E-06	-2.88882557601708E-06	0.999320792563572	-0.00693822836013718
0.3	-0.925740392543578	0.37171312358765	-7.65831157880593E-06	-8.164576215584E-07	-1.34907512605502E-08	3.6574944482895E-06	0.99916636878627	-0.00985575493402118
0.4	-0.870733603139192	0.485272708583111	-2.19476430095165E-06	6.33495158541271E-06	2.91892671409703E-06	5.73092718563362E-06	0.998948666907174	-0.0125182883319749
0.5	-0.802364525059654	0.590900025032474	-2.64623558602401E-06	5.4843665908832E-07	1.05095243749073E-05	4.87954624040514E-06	0.998579425127771	-0.0153105867626637
0.6	-0.721210965649854	0.687188454450266	-1.72371659848415E-06	-1.83293282138627E-08	4.15991949078397E-06	-1.03265982039068E-05	0.998908152914429	-0.0181602576524827
0.7	-0.628634594062963	0.772425233703084	-2.04491097054334E-06	9.8736475863838E-07	3.77982133462363E-06	1.11488289494817E-05	0.998522127151023	-0.0212385382408301
0.8	-0.52609530036232	0.845326709328877	-5.5991609420759E-06	3.7776418906284E-06	-3.16428936992356E-06	-2.13666789565442E-06	0.998229856097486	-0.0234369912627916
0.9	-0.415516784908424	0.904536856297514	-6.68113248158616E-07	5.24394265828141E-06	3.2624916937232E-06	-2.94247061831464E-07	0.998119411618347	-0.0259274930490869
1	-0.297998844759436	0.94941409582273	1.56634400349466E-05	-3.68174451474786E-06	-9.58495502037066E-06	5.26318415419545E-07	0.997514600210223	-0.0276112447699456
1.1	-0.176931476600615	0.979003596869264	1.3415827217727E-06	-2.97713431755276E-06	9.37662294277681E-06	1.25830646731491E-05	0.997323313310009	-0.0291931274930937
1.2	-0.0522957353164863	0.993387729366345	-7.89542786781556E-06	-3.26239519915143E-06	-3.08957736012607E-06	-4.47588421632457E-06	0.997029340892763	-0.0299606392525891
1.3	0.0732498163106123	0.992091946516528	1.73430142670538E-07	3.33138623400567E-06	1.92684985493985E-06	3.43645054741176E-07	0.9977135471301	-0.0305870954037165
1.4	0.197534185412372	0.974786155452261	1.60034239682939E-08	3.76519042083802E-06	-2.51643461076808E-06	-5.6158064644743E-06	0.997951299077773	-0.0327203682555626
1.5	0.31861089596834	0.942028339769939	3.18475632524619E-06	-2.61235957111823E-07	2.69659952292805E-06	2.09723937122801E-06	0.998105478437858	-0.036353078453727
1.6	0.434515908214136	0.894500202382609	1.78896309309408E-06	-1.93487800102178E-06	-8.88254530273235E-07	-3.06205086312364E-06	0.99733516737301	-0.0398218235861633
1.7	0.543260758699502	0.832375520490925	-8.09775781690247E-08	-3.52133173897301E-06	1.99696461162598E-06	4.92395557286642E-06	0.997318128977328	-0.0424929999731386
1.8	0.643119222969285	0.757600378839274	-2.05322787867309E-06	-1.81421239716684E-06	-4.65403475541573E-06	1.82926824534359E-05	0.996843858670485	-0.045322226536169
1.9	0.732710516460954	0.670934673911436	-4.38335328400465E-06	-1.46841298585162E-06	-4.91509376541681E-06	-5.99934452643231E-06	0.996255959970028	-0.0477876692699167
2	0.810224296951031	0.573783511329514	-9.40874638327373E-08	-6.72754883318119E-07	-1.66365420410272E-06	-1.41597825901868E-06	0.994830403218367	-0.0501388523905087
2.1	0.875965281082576	0.467392644235031	-1.1504819084139E-06	9.42539178352839E-06	1.99046844271032E-06	-3.76876070656578E-07	0.994848578830306	-0.0515885110179305
2.2	0.927615140856155	0.35377328864212	-1.49516209595427E-08	-5.91667593288458E-06	-7.38806469394705E-07	2.73043517137788E-06	0.995081081107092	-0.0538903987165468
2.3	0.964368219955864	0.234452974045484	-1.31627125615979E-06	2.75783200595274E-06	-2.86607824841915E-07	1.19460372747258E-05	0.994872843902014	-0.0556879161289874
2.4	0.98579963917126	0.110718849881061	-5.85369230553305E-06	-3.70905656886008E-06	-1.7577346481145E-05	1.44649141645422E-05	0.994816956842094	-0.0587645007875702
2.5	0.991881595543228	-0.0136133501353767	1.82079263372053E-06	-2.95416594855438E-06	-1.80091619217837E-06	7.53073122149693E-06	0.994255815117585	-0.0608686182785553
2.6	0.982378359633232	-0.136820729438272	2.85528470885614E-06	9.22008625217212E-07	-1.75526798398577E-06	4.49123787573654E-06	0.994158632608256	-0.0634086442091862
2.7	0.957439733825434	-0.258417187563638	3.79759617797844E-06	1.0430945659274E-05	2.31154413899573E-06	3.86453646401123E-06	0.993875779335155	-0.0660919351888237
2.8	0.917611493530606	-0.376217189809028	-8.07658508109551E-07	-2.28980455188333E-06	2.22475777582849E-07	-1.88380683402364E-06	0.994225689717553	-0.0679169810138661
2.9	0.863621470534575	-0.487784541380323	3.77612573745342E-06	-8.2936644331616E-06	-1.24341143659442E-06	-1.42002615530294E-05	0.99417257323957	-0.0699113643548957
3	0.796027352104413	-0.592221894981914	-2.65241196343321E-08	6.63754703815807E-06	-1.47554807034546E-05	5.2625205803986E-06	0.994251804433291	-0.0723906734813633
3.1	0.716940585796714	-0.686474070228994	-4.99332691959403E-06	7.80001191566585E-06	5.79948928671854E-06	-7.24198901607785E-08	0.994214760146335	-0.0743561943768857
3.2	0.624850761061724	-0.771448605704255	9.54010484143027E-07	2.12523960189869E-06	-4.55620417123715E-06	4.66847940133114E-07	0.994251567099564	-0.0761643445766164
3.3	0.523046815687205	-0.844153346110369	7.22396388980708E-07	-1.45645008911312E-06	-4.57895753401321E-06	7.19327772352648E-07	0.994335594811171	-0.0794969635922038
3.4	0.41231044388894	-0.903454672673361	6.46680728796277E-06	2.51720895007689E-07	-8.11417258515846E-06	-7.19921611551731E-06	0.994653532622151	-0.0817603272135905
3.5	0.294597057529393	-0.947959220686269	-7.70025281747021E-06	1.94644547932369E-06	-5.88553949020684E-06	-7.9912531484628E-06	0.994271265467295	-0.0849967762868784
3.6	0.172438710070944	-0.977165319713928	-8.47297756432522E-07	-4.38051688315608E-06	-7.79842505761571E-06	-6.34414267035692E-06	0.993790367621177	-0.0871463109116056
3.7	0.0477881150634883	-0.99167857511002	-6.69729086537918E-06	-6.78246136184652E-06	5.38604233184996E-07	-4.7608144554734E-06	0.993846957059152	-0.0896534820356517
3.8	-0.0781649781745763	-0.989769332995027	-3.64539915208821E-06	1.07439314225514E-06	-3.29028431415231E-06	-2.47262221658177E-06	0.993660116925306	-0.0916922448359244
3.9	-0.202072767702207	-0.97174614553223	-4.87412273436912E-07	3.50601781398824E-06	2.05581170778775E-06	-1.2144113179696E-06	0.993703740156294	-0.095042098058518
4	-0.322415521316695	-0.938498398128301	1.16541431077145E-05	8.14734909756978E-06	7.27454618339287E-06	-4.0201429702982E-06	0.99291480947769	-0.0960660814022994
4.1	-0.437435598558244	-0.891182160389221	5.21597529020138E-06	1.33924009906691E-06	-3.47879504542109E-06	6.64461358249025E-06	0.993442841729241	-0.0973975961930586
4.2	-0.545944120533116	-0.829960566250127	-7.10069368492059E-06	-1.22214190157569E-06	-8.27288584791759E-06	-6.43628967843688E-08	0.993439862878507	-0.100204664071452
4.3	-0.646109094358848	-0.754910381806529	7.09337715132365E-07	-2.36881610646184E-06	5.21649134168795E-06	8.95097341025363E-07	0.993644581478589	-0.102397615158117
4.4	-0.736009973882692	-0.667385522751592	4.48309479994202E-06	-1.76530240504395E-06	-8.72790734460482E-07	1.34625453952988E-06	0.993350889095361	-0.104959447564687
4.5	-0.814207973189637	-0.569130799717015	6.78969384541735E-06	1.886975393894E-06	-7.9754822631525E-07	-3.26380567314611E-06	0.993461285629938	-0.106992932661094
4.6	-0.879620399105793	-0.461811371729685	2.45275031464249E-06	2.96178817868589E-06	-6.62115767695223E-06	9.74670725847597E-06	0.993436569543189	-0.109971503049947
4.7	-0.930900292747732	-0.346401409796016	-1.40877518811279E-05	5.89384536871856E-06	-3.46772942768252E-06	-4.26050810073792E-08	0.993415609497084	-0.11215697375883
4.8	-0.967171149702524	-0.226028324178942	-3.15442224144431E-06	-5.15941765724431E-06	-5.53918385312807E-06	2.35593740052309E-06	0.993124962386265	-0.114703534487558
4.9	-0.987735602032994	-0.102601392337228	-1.00079132726511E-06	-8.57182890100567E-06	-4.23156296079614E-06	7.30382655928488E-07	0.992936384784359	-0.116590406321546
5	-0.99329323404005	0.0223646505099719	7.57420554496189E-06	-1.55639747521146E-06	-1.75035599444224E-06	-2.73311878026337E-06	0.992912243231422	-0.118395948426914
5.1	-0.982238174035593	0.148279892014947	-2.59465388406951E-06	-6.41591354859292E-06	-1.00731051575368E-06	-1.96023514919511E-06	0.992992975072897	-0.11989388779075
5.2	-0.956207971157699	0.270777462938181	4.00910345321579E-06	-4.29597403328375E-07	-5.46630210716526E-06	6.31381838528918E-06	0.992973456199636	-0.122205450296805
5.3	-0.915047132912195	0.389357742382912	5.14366940140422E-06	6.03426186256843E-06	-9.56813406286634E-07	-3.59849693361385E-06	0.99305857204986	-0.124653970329087
5.4	-0.858956475125105	0.501847713760921	3.0751575142869E-06	-2.01861073015813E-06	-1.1354018190004E-05	2.19107657715323E-06	0.993421141908877	-0.127893872373371
5.5	-0.788401703936869	0.605743122834901	-4.31466583474051E-07	-2.20151942021996E-06	-5.81101563303447E-06	6.13871349390472E-06	0.992975021190458	-0.131382523005932
5.6	-0.705732886832681	0.699390131768647	2.379397369774E-06	7.32794324713463E-06	-5.42552157376616E-07	2.9372960527427E-06	0.992611179589154	-0.133906080736633
5.7	-0.612470927587388	0.782708004107728	-2.58207810041209E-06	2.3659064732257E-06	7.93369091758403E-06	2.79559071672899E-06	0.992477936497913	-0.136543710862033
5.8	-0.509100372276833	0.853320285334831	-4.66808992290202E-06	5.1178790189116E-06	-3.70225053400496E-07	3.43370210766544E-06	0.99238268755251	-0.139073752415395
5.9	-0.397773827517322	0.910685765092584	6.37895131738148E-06	1.50628885460242E-06	-2.72160534476818E-06	2.55476377105319E-06	0.991896328780288	-0.141826831363299
6	-0.280622829320938	0.953083112609843	3.53279609992263E-06	3.31110982988584E-06	-3.28611774124855E-07	-1.43854846635203E-06	0.991026974166317	-0.143044543361824
6.1	-0.159019259348972	0.981095234007074	9.20938884158216E-06	1.53252776475234E-06	-1.27501909768278E-07	-1.81524526861228E-06	0.99200290028009	-0.144342638527928
6.2	-0.0339235978455289	0.993325115800131	2.44861955552929E-06	-1.73741393201089E-06	1.48475225602447E-06	-4.86457403652332E-06	0.992155096500785	-0.146547513027526
6.3	0.0916881612776371	0.98937690906842	-4.37334890614475E-06	4.26444446086036E-06	-6.18848736434383E-07	-1.73122836532213E-06	0.991753313264782	-0.149323855942419
6.4	0.215098448170057	0.969352940104706	-4.27836145494977E-06	1.07727546915768E-06	-1.75973287661929E-06	8.87495120915683E-06	0.990839940973606	-0.15188597047436
6.5	0.334680259620813	0.935374968337422	2.46028845324885E-06	-1.33694757848874E-06	1.49145589783632E-06	-2.94106124056814E-06	0.990574734519058	-0.154327230466949
6.6	0.450160593126275	0.885851878316828	-4.75376417529161E-06	-2.2584012825393E-06	-1.87793457082175E-06	-6.66132014832999E-06	0.990293921962727	-0.157586219900417
6.7	0.557594334094979	0.821881802486703	4.17458687867895E-06	-6.67852116950534E-07	-4.68893866550361E-06	1.01970995091991E-06	0.989589503074728	-0.160169862345052
6.8	0.65605958311467	0.745218491611924	3.76418200347448E-06	-2.09080805110431E-06	6.229576843406E-06	-9.34627765806854E-07	0.988905551950696	-0.162638576106034
6.9	0.743974130432618	0.656873342487107	2.05610989277657E-06	1.64120852836735E-06	8.79928548456587E-06	-2.77941209480076E-06	0.988235896354264	-0.165075217656338
7	0.819795494849775	0.558342937088806	2.18601673424034E-06	4.10005136089495E-06	-8.18657722315194E-08	5.39382390729465E-06	0.987196785282487	-0.166850357558655
7.1	0.88290892510591	0.451695915662907	-1.3003352282574E-07	1.72049713322484E-06	8.26482496184982E-06	-4.66805475398372E-06	0.986704841965273	-0.168655337542003
7.2	0.932206744038318	0.337545319754035	4.85331281421135E-06	-1.40507834433461E-06	7.27637320800648E-06	3.77426923504869E-06	0.985933997385018	-0.170670817129715
7.3	0.966559686285204	0.217997603438659	4.8674104002683E-06	-1.12012748749322E-06	-7.36866540558451E-06	-7.37908083815834E-06	0.984822262271299	-0.172728273249307
7.4	0.985907611613762	0.0942352288227304	-1.81868736592074E-06	9.92011945281777E-06	1.42591783146805E-06	-4.08082253769388E-06	0.983705844454767	-0.175747057340637
7.5	0.988137133669765	-0.0311020315093927	8.44307783883608E-07	8.03867374569615E-07	1.67882243120994E-06	9.87532630339832E-07	0.981246736002765	-0.178610557583917
7.6	0.975436563881889	-0.154316086695369	1.443729948459E-06	-2.61977292083404E-06	-5.43269405316656E-06	-3.60324195142432E-06	0.980133370890849	-0.180505489909741
7.7	0.948034239803304	-0.275738044846605	5.57716689119213E-06	2.38455244315855E-06	-6.77259128376361E-06	1.20647773490325E-05	0.979735912865972	-0.183405182561235
7.8	0.905829773296165	-0.392849918210823	-6.33110061030006E-07	-5.23398872861047E-06	3.71121665796838E-06	-4.74600145837861E-06	0.979587055085682	-0.186592423328145
7.9	0.848697889195292	-0.503614503934967	8.84295340645824E-06	1.4905810005248E-06	-9.55417256254493E-06	-8.5844280868096E-06	0.978996038572423	-0.190012456714555
8	0.778919558065827	-0.604586413759329	-6.64375018386837E-06	-1.60646445697001E-06	-1.19691551050079E-05	2.524215224654E-06	0.978083499947624	-0.191881114706546
8.1	0.698479954542613	-0.698249140447022	5.07021927467482E-06	7.19222596858913E-07	2.89257833573099E-06	2.25260323079211E-06	0.978856006907393	-0.194508719532007
8.2	0.60548535518922	-0.781079865819834	3.55551207879201E-06	-2.58161183258493E-06	-3.7056507804581E-06	-1.1597487183416E-05	0.978795221091936	-0.19750866074039
8.3	0.502376681445284	-0.85118089443437	2.72137278665936E-06	-1.86378546853777E-06	1.65103228466556E-06	5.28494118124519E-06	0.978153125874478	-0.200577904022054
8.4	0.391009304540841	-0.907523260950551	-5.55371564116803E-06	-1.00364150634362E-06	1.06332847922921E-06	2.94730799429488E-06	0.977191387837696	-0.203447491280351
8.5	0.272860856992826	-0.948642043729813	-3.28191967287286E-06	1.63533301049844E-06	-4.80748985483523E-06	-4.98485772583429E-06	0.976474567752478	-0.206163483902068
8.6	0.151270160816749	-0.97458928293044	-8.12579910988362E-06	1.41330098242582E-06	-4.36068462784447E-06	-6.83861312276655E-06	0.975839044670431	-0.209143467997863
8.7	0.0272103044026515	-0.985623590236805	2.23579226739668E-07	-2.15070755111455E-07	6.11084113255764E-06	4.88670326574857E-07	0.97495665293578	-0.211768359576004
8.8	-0.0973642348837517	-0.981009557356541	1.01794208643439E-06	-1.81809212706033E-06	-2.39027446257528E-06	-1.27183131406409E-06	0.974165048858506	-0.213935273184791
8.9	-0.220168402876032	-0.961727255943412	-2.95397956375493E-07	3.03156284503427E-06	-1.23528998539405E-06	-1.63722345116253E-06	0.97378128603596	-0.215866414980838
9	-0.340262535836923	-0.926108589438292	2.97923308292122E-06	1.58222010336537E-06	-1.57126429150906E-06	2.1167548129678E-06	0.97331743431869	-0.217958484765743
9.1	-0.453353748993158	-0.875118403786474	-9.30399978881709E-06	2.28406917897209E-06	-1.55849655533522E-06	2.4120202887151E-06	0.972992722339385	-0.219842310091302
9.2	-0.559276757032268	-0.810944277531412	7.50106822979234E-06	-2.50079410201578E-07	-9.09840615031505E-06	1.98774201872825E-06	0.972619218191691	-0.222353439556089
9.3	-0.656071926426513	-0.734415928820413	5.95628820863926E-08	-7.15936307965955E-06	1.58255843941722E-06	-1.30328836267325E-06	0.972306112399662	-0.225002026915921
9.4	-0.74312376960457	-0.646450572006011	6.06547456940861E-07	2.47998005028737E-06	1.60506424359276E-06	-3.6001876885968E-06	0.971550113929895	-0.228390679450789
9.5	-0.817245325931695	-0.546716213069807	-2.83963742085132E-06	6.64421374649861E-06	4.70993935474397E-06	-1.38500554326425E-06	0.969870050146108	-0.231243605415097
9.6	-0.877936717344826	-0.4403569336129	-5.02804408496496E-06	-5.17323000941411E-06	4.75758072619617E-06	2.85788141483892E-06	0.969030180402127	-0.233752558540582
9.7	-0.92630217025469	-0.326538462138962	-2.01121086834916E-06	-5.05328518622413E-06	2.09095963099593E-06	4.06911986295856E-09	0.968260537745288	-0.236277031539894
9.8	-0.960319696367577	-0.206652417264063	5.78803219038819E-07	-4.27390874986853E-06	-2.93945438457052E-06	-2.50152910663894E-06	0.967543422870029	-0.238432608075789
9.9	-0.97878337957362	-0.0830206154663605	-6.08113498923837E-06	4.21127093795204E-06	-3.06890674446941E-06	1.66769061529075E-06	0.966094984487117	-0.240241034958661
10	-0.981510423723087	0.0418447311219801	3.55938499601943E-06	-4.86613738260823E-08	8.22223932027913E-06	1.1047757016153E-05	0.96506174659023	-0.24001443811621
10.1	-0.9675665323853	0.16560469733925	-2.85423472882082E-06	-2.50918454201068E-06	-2.00815501662645E-06	-2.4860914195625E-06	0.965590630210353	-0.241199934348764
10.2	-0.938532518127762	0.286362025549555	2.3467635727678E-06	-1.02245839640677E-06	-2.7611554344512E-06	-1.05753080568908E-06	0.965317362185586	-0.242667765704085
10.3	-0.894686437308136	0.402385392124292	7.72071821675429E-06	-5.941795404805E-06	3.86021952107018E-06	8.19379592052547E-06	0.964566570840182	-0.244370121592247
10.4	-0.837449848981743	0.511705203381229	1.69884010377898E-06	2.47564131274536E-07	6.24835297607488E-06	-1.18971393422647E-06	0.963294872658295	-0.246047624441076
10.5	-0.767406455619752	0.614176799297263	8.31331059424653E-06	-4.12822870435581E-06	-4.91357306551078E-07	1.96455323344562E-06	0.962569688856361	-0.247608977925681
10.6	-0.683515650895479	0.706206541503334	8.89674760784109E-06	-1.26779903060718E-06	-1.46444410230985E-06	1.35828960384917E-05	0.961995041682967	-0.249671292610858
10.7	-0.588726796874633	0.78577299771992	7.97859066993035E-06	-1.89443268632575E-06	-3.03948580417426E-06	-5.25614296681086E-06	0.961599280625792	-0.251796708258658
10.8	-0.484669885143413	0.852726096798739	2.43714686840864E-06	5.22307773619743E-06	-3.61015078897836E-06	-2.05410488886926E-07	0.961393797312045	-0.253781330435241
10.9	-0.373318028343156	0.906812546627741	-5.53335134431804E-06	4.79538888323919E-07	1.58715383408553E-06	4.01088224472784E-06	0.960954656511932	-0.255790126852777
11	-0.25512183734335	0.946829247516813	5.19364076543094E-09	-5.19899856822186E-06	-8.34430338527269E-06	2.21863922972707E-06	0.960315343432542	-0.257102175655711
11.1	-0.133501466861091	0.970161479853254	6.27950707376918E-06	4.07206048679162E-06	-1.89799069333474E-06	1.07092856656665E-05	0.960207575540626	-0.258591057197749
11.2	-0.0113092353846174	0.978677191275053	1.57037484049765E-06	1.34939127292346E-06	5.10812792436762E-06	8.86264861164183E-06	0.959689312673996	-0.260503247956711
11.3	0.110859568116727	0.971930192449965	-4.58435984168871E-07	-1.72942958936649E-06	-6.91210317236921E-07	-4.37496057988283E-06	0.959437040733104	-0.262697101323672
11.4	0.231319087437891	0.950786422008119	2.10171115886543E-07	1.1805365257707E-05	2.40619244259961E-06	4.90889914541513E-06	0.958493052706398	-0.266087018457636
11.5	0.348990273110482	0.915032692569251	6.16390899688394E-06	-3.17967139776832E-07	3.16665779901816E-07	-1.87231362531767E-06	0.956180766014262	-0.268672729715778
11.6	0.460131685021924	0.864579235678984	-5.97593211096312E-06	3.04756687687436E-06	-4.84561974159924E-06	1.898459907422E-06	0.955175688981349	-0.271254173141894
11.7	0.563907205691558	0.801454550278468	3.31219096928536E-06	-1.77980657875218E-06	-1.70166273726778E-06	2.22164371957498E-06	0.954122981445348	-0.27475799117026
11.8	0.659421420067221	0.725586091835091	-8.37789290908447E-07	9.73961437455994E-06	-2.72472379933687E-06	1.04759241754023E-05	0.952654176322207	-0.278253301659498
11.9	0.744323507176802	0.637662877105459	-7.25084781215514E-06	-1.04800642798892E-06	-3.91408190676868E-06	1.11741601124907E-05	0.950866316563578	-0.280126922082466
12	0.817844557935044	0.540636418702271	-6.45998943520238E-07	1.37127586795706E-06	-3.11056703842854E-06	-1.92560630666353E-06	0.949943177223226	-0.279638813592076
12.1	0.880304513315272	0.434172550636465	-3.88173440025055E-06	4.94566564897389E-06	-1.36992663105096E-06	8.36757179560126E-06	0.950986201107838	-0.280534610803591
12.2	0.927783391403272	0.320161625506316	-5.55108985535196E-07	-3.7850451268772E-06	-3.09714780242645E-06	-7.43648531299723E-07	0.951491315840135	-0.282582118872504
12.3	0.96054522818024	0.202181943987787	3.56501445481571E-06	3.44104389316242E-06	-3.4592172926692E-06	6.22566415817857E-06	0.951713840532684	-0.285004413523815
