# GHZ S RI R 50
0.2	-0.965270230662763	0.251985722018547	8.81905604655899E-06	5.31289082734744E-06	1.13454386933571E-06	-2.88810394220699E-06	0.998873590436928	-0.00722001174840458
0.3	-0.92546730608881	0.371783790154548	-7.65512455622766E-06	-8.14581754207213E-07	-1.27594795515956E-08	3.65589771738137E-06	0.998617308887387	-0.0100893958856581
0.4	-0.870368121620829	0.485288958211998	-2.19257538305835E-06	6.33180508782294E-06	2.91820781606991E-06	5.72732118688215E-06	0.998330174782106	-0.0126715548514509
0.5	-0.801960996499394	0.59074031751087	-2.64461399556979E-06	5.48050325907486E-07	1.05029557134136E-05	4.87672905274388E-06	0.998026355318651	-0.0152639469340268
0.6	-0.720914017612329	0.686981898442208	-1.72294723620623E-06	-1.83871061400361E-08	4.15845955689446E-06	-1.03218340761422E-05	0.998670051455009	-0.018249692397285
0.7	-0.628328703940232	0.772181263463483	-2.04387503570802E-06	9.87081951888555E-07	3.77902494824841E-06	1.11433192598688E-05	0.998252853239407	-0.0216296373097047
0.8	-0.525812171798185	0.84499045153212	-5.59544739949997E-06	3.77634811953808E-06	-3.16282594142471E-06	-2.13499460037123E-06	0.997783771882449	-0.024023026043439
0.9	-0.415304486917979	0.904110379442446	-6.66695035090631E-07	5.24037022266455E-06	3.26014082755571E-06	-2.94629423863822E-07	0.997373359651472	-0.0266218044270002
1	-0.297905672572258	0.948911256249903	1.56481862853956E-05	-3.67955530659114E-06	-9.57576662373242E-06	5.26625981142422E-07	0.996328351089879	-0.0280571505092466
1.1	-0.177021893348206	0.97850426525162	1.34111842144746E-06	-2.97379707822769E-06	9.36368640252575E-06	1.2573326843289E-05	0.996262194285706	-0.0290709517332403
1.2	-0.0525426183919237	0.992985143993453	-7.887239103716E-06	-3.26428673611302E-06	-3.08454720807266E-06	-4.47406068427796E-06	0.996344776314573	-0.0295768052499039
1.3	0.0728884819393197	0.991795040214494	1.70698313786452E-07	3.32960524341048E-06	1.92546899329312E-06	3.44969522139544E-07	0.99744810802573	-0.0300748293087936
1.4	0.197097377910619	0.974514898158874	1.26442870491746E-08	3.76356451747726E-06	-2.51033865157523E-06	-5.61560056087419E-06	0.997950831328047	-0.0322384354958089
1.5	0.318025660801573	0.941672456099209	3.18354366898285E-06	-2.58157908369996E-07	2.69341889351945E-06	2.0987861582151E-06	0.998202701293199	-0.0358500351630237
1.6	0.433791633534621	0.894191390477107	1.78994521996669E-06	-1.93255804889975E-06	-8.85237048158885E-07	-3.06162020623526E-06	0.997606118486033	-0.0395741873986219
1.7	0.542456971509266	0.832078439285983	-7.84290488661735E-08	-3.51981962637929E-06	1.99256113693653E-06	4.92318517259045E-06	0.997435050205377	-0.0425351140842986
1.8	0.642212295221826	0.757304235555572	-2.05102276150396E-06	-1.81448661853351E-06	-4.66265644952532E-06	1.82800330249092E-05	0.9967743515029	-0.0455111351021673
1.9	0.731654340397581	0.670591802083127	-4.37978167330651E-06	-1.4695641614105E-06	-4.90899282089093E-06	-5.9977908115715E-06	0.995965340813391	-0.0480983481477232
2	0.808688765239703	0.573479094046956	-9.36387060277498E-08	-6.72118876214258E-07	-1.66121659248225E-06	-1.41540844803844E-06	0.994166436801289	-0.0502666902741577
2.1	0.874210157768124	0.467675106424945	-1.15814111464248E-06	9.4155270831972E-06	1.98895951639686E-06	-3.74679963515645E-07	0.994425357765091	-0.0514085904915523
2.2	0.925939263890444	0.354430457671528	-9.39642445883586E-09	-5.91248798286456E-06	-7.40840495712022E-07	2.72780370171967E-06	0.994815646797194	-0.0538440182666362
2.3	0.96278905937496	0.235412278104267	-1.31787241254017E-06	2.75493037487486E-06	-2.969617184987E-07	1.19382437019409E-05	0.994565484514414	-0.0557423446454201
2.4	0.984361142759556	0.111898547270771	-5.84691283442816E-06	-3.71192895500051E-06	-1.75793590877369E-05	1.44408116811537E-05	0.994398768907822	-0.0587628424684301
2.5	0.990436860542305	-0.0122646323810916	1.82237290356807E-06	-2.95106403691929E-06	-1.80642743222032E-06	7.52525733425127E-06	0.993896855750369	-0.060595826929365
2.6	0.981007174936369	-0.135078545299639	2.8529127353067E-06	9.23803831964121E-07	-1.75791839982514E-06	4.48725912703602E-06	0.994108899011409	-0.0630708919347583
2.7	0.956348982559947	-0.256385728172893	3.78630200417618E-06	1.04283682584689E-05	2.306847578692E-06	3.86437453065535E-06	0.994010127149688	-0.0658176490920702
2.8	0.916857681345989	-0.37403190469445	-8.0520002496534E-07	-2.28938947191304E-06	2.24056648572961E-07	-1.88266888213548E-06	0.994462245722867	-0.0677236788097136
2.9	0.863236800862315	-0.485610324736058	3.78182917839011E-06	-8.28691188527917E-06	-1.23044664932697E-06	-1.41954579396962E-05	0.994418033147507	-0.0697533310034162
3	0.795824018583356	-0.590243421280207	-3.18252940269903E-08	6.63533032142242E-06	-1.47548099861874E-05	5.24897571459824E-06	0.994545124214503	-0.0721317729254334
3.1	0.716794124708129	-0.684447586809198	-4.99744363851111E-06	7.79377145997339E-06	5.79764143523988E-06	-6.81181369209441E-08	0.994689715409006	-0.074092438903897
3.2	0.624951555691652	-0.769370643547875	9.52161898869214E-07	2.12538181780227E-06	-4.55532691712038E-06	4.63309878313069E-07	0.994838719349067	-0.0759765972620944
3.3	0.523444042381926	-0.842144231300215	7.23372297088769E-07	-1.4556421481191E-06	-4.57868596558896E-06	7.15725866421811E-07	0.995003599158157	-0.0793511315809994
3.4	0.412907972642919	-0.9016912004412	6.46631246880265E-06	2.56493251502489E-07	-8.10845915809098E-06	-7.20487572489097E-06	0.995414036543552	-0.0816146392285704
3.5	0.294999645250487	-0.946196592548435	-7.70129636015843E-06	1.94186448598828E-06	-5.88073138430407E-06	-7.994622143677E-06	0.995214643254182	-0.0848627712158371
3.6	0.173298349602851	-0.975075853626772	-8.44282446859441E-07	-4.38068538145134E-06	-7.7934583778501E-06	-6.34879403612787E-06	0.994940437314573	-0.0872014897857421
3.7	0.0492013236816226	-0.989832435345025	-6.69243777140873E-06	-6.78699777155025E-06	5.41910734436553E-07	-4.76034832783159E-06	0.994968092130023	-0.0899995386243417
3.8	-0.0763878718890416	-0.988380976010815	-3.64601853176801E-06	1.07207207606013E-06	-3.28866813937759E-06	-2.47466096521694E-06	0.994555820634358	-0.0922482455841914
3.9	-0.200173302291119	-0.971027715154012	-4.8925457559955E-07	3.50529977990972E-06	2.05620594853122E-06	-1.2131371495168E-06	0.994168490447545	-0.095656381669571
4	-0.320950667393233	-0.938339965591339	1.16446482326808E-05	8.15188559992086E-06	7.27448406615963E-06	-4.01399255311903E-06	0.992968042038841	-0.0961215551026118
4.1	-0.436291654228597	-0.891059041805099	5.21316808137555E-06	1.34314727008226E-06	-3.48319717163406E-06	6.6395618788953E-06	0.993966526735689	-0.0971479894529334
4.2	-0.544914657100967	-0.829984493884705	-7.09773583852676E-06	-1.22842942753905E-06	-8.27070358761551E-06	-7.20371668241036E-08	0.994065007179906	-0.100138679330566
4.3	-0.645235636369283	-0.755164652089686	7.11737329943223E-07	-2.36770291025414E-06	5.21474609376233E-06	9.00483627052192E-07	0.994157653286832	-0.102331145949466
4.4	-0.735318015199275	-0.667990999415566	4.48552038289784E-06	-1.75958460785377E-06	-8.74554931045319E-07	1.34517507790016E-06	0.993823268281856	-0.104655764192164
4.5	-0.814208717833335	-0.570242522342846	6.79086568550538E-06	1.8985550690304E-06	-7.93005011856707E-07	-3.26699181704193E-06	0.994307253511739	-0.10630801151172
4.6	-0.880515651942831	-0.462580561314119	2.45198175038493E-06	2.96836712864751E-06	-6.64117362978077E-06	9.75006339979908E-06	0.99486193145569	-0.109458321987453
4.7	-0.932164515464601	-0.346647308423078	-1.41137758718994E-05	5.88943344570175E-06	-3.4727550344221E-06	-4.58723346322296E-08	0.99509244020847	-0.111924835004273
4.8	-0.968604074524294	-0.225849961553017	-3.15627452665176E-06	-5.17002627758524E-06	-5.54989954247663E-06	2.35621874720914E-06	0.994935714956397	-0.114729316213456
4.9	-0.989372328188722	-0.10211053839947	-9.99492263466308E-07	-8.58776618909737E-06	-4.23951649792663E-06	7.30170731211367E-07	0.994736815572321	-0.116823516057716
5	-0.995298854047663	0.0237608030020528	7.58795085924187E-06	-1.56010512591036E-06	-1.75387847648325E-06	-2.73794572217144E-06	0.994710719281024	-0.118583539359536
5.1	-0.983389121913203	0.150575398480935	-2.60081896869958E-06	-6.42436970917375E-06	-1.00950883513082E-06	-1.96273982547975E-06	0.994986250322024	-0.120193515477112
5.2	-0.956570014753493	0.27310009835815	4.01375680995423E-06	-4.31642378813381E-07	-5.47046254808067E-06	6.32348927283024E-06	0.99490697002116	-0.122651289388051
5.3	-0.914911850041243	0.391471353130751	5.15051417533544E-06	6.0386044219179E-06	-9.58833618323955E-07	-3.60172331295643E-06	0.994907332035514	-0.12502763671843
5.4	-0.85865418146815	0.503592387213846	3.07773721215364E-06	-2.02055634193822E-06	-1.1363844516606E-05	2.19364792482413E-06	0.995346004307021	-0.128104104542183
5.5	-0.788449848900801	0.607548893184978	-4.31706406346655E-07	-2.20404949160441E-06	-5.81825384632201E-06	6.14498277810102E-06	0.995158825708758	-0.131483265443198
5.6	-0.705385640951912	0.701811633316749	2.38353785596295E-06	7.33708288895776E-06	-5.42829078822502E-07	2.94117618074753E-06	0.99514499479027	-0.134239181295437
5.7	-0.611271671335938	0.785093463874005	-2.58406689985494E-06	2.36966253760763E-06	7.9438993589182E-06	2.79555688035053E-06	0.995031080724173	-0.13731048943257
5.8	-0.507142125768701	0.85515188343865	-4.66857982731861E-06	5.12477338259685E-06	-3.68391318379494E-07	3.43661967904528E-06	0.994616131625886	-0.140225455550481
5.9	-0.395374465079245	0.911362369140288	6.38031360415377E-06	1.50190050728662E-06	-2.71995037203837E-06	2.55679087612819E-06	0.993334693312162	-0.143147082021831
6	-0.27905587225752	0.952363742196491	3.52902350023821E-06	3.30866904873666E-06	-3.28074293589283E-07	-1.43728898809306E-06	0.991629663743817	-0.143383478000025
6.1	-0.15865967803054	0.980340838581239	9.20125347535022E-06	1.54264935729159E-06	-1.25214058835207E-07	-1.81416257262268E-06	0.993058152789402	-0.143943791517832
6.2	-0.0343631801501408	0.992914619400531	2.4508829271733E-06	-1.73262157032865E-06	1.49274838583241E-06	-4.86049103437799E-06	0.993411290693833	-0.145875831368298
6.3	0.0907865847672092	0.989684832736192	-4.38307596816237E-06	4.25625866521883E-06	-6.1538960264389E-07	-1.73286424007456E-06	0.993306176528177	-0.14837142601791
6.4	0.214076208431342	0.97048118114378	-4.28465246717572E-06	1.06879295740408E-06	-1.7809769195629E-06	8.87916305158448E-06	0.992823343189439	-0.150858387595622
6.5	0.334084252147083	0.937892359128854	2.46827989772843E-06	-1.33483880924637E-06	1.50061360049466E-06	-2.94435956223377E-06	0.993458696137559	-0.153372281034401
6.6	0.451283303456582	0.888642698355126	-4.76572588565665E-06	-2.26864011122887E-06	-1.87814881834346E-06	-6.68202474611988E-06	0.993754540117294	-0.1577936492922
6.7	0.559661156543551	0.823990202763336	4.18642864225553E-06	-6.70391445412019E-07	-4.70219885197823E-06	1.02333332146808E-06	0.992818025333622	-0.161224603426407
6.8	0.658555444762738	0.746555046924447	3.77252723647258E-06	-2.09931498212419E-06	6.24537305581525E-06	-9.42004512732521E-07	0.991778904296861	-0.164203495116059
6.9	0.746494148221495	0.657454203858616	2.06283975278131E-06	1.64242737678774E-06	8.81599182407737E-06	-2.79662841462281E-06	0.990600862344243	-0.166908873492271
7	0.82205137589095	0.558545467125051	2.19477463558511E-06	4.10486838922515E-06	-7.56728806963266E-08	5.40363767202435E-06	0.98923318692565	-0.168306932093772
7.1	0.885274487026068	0.451616498949059	-1.28569533475268E-07	1.72403657366357E-06	8.27653123482334E-06	-4.68557534417099E-06	0.989184631604661	-0.170126560849146
7.2	0.934546543598128	0.336934882120445	4.86212650220267E-06	-1.41395375473428E-06	7.2966572517419E-06	3.77368924022485E-06	0.988547695819725	-0.17257705009386
7.3	0.968704921704637	0.216879399167178	4.87682436499478E-06	-1.12976824044624E-06	-7.39615130357731E-06	-7.38508292783973E-06	0.987400518467318	-0.175106870416757
7.4	0.987761690492422	0.0925501752580217	-1.80434282611589E-06	9.94760114645196E-06	1.42165967068597E-06	-4.09340885656448E-06	0.986068053658437	-0.178798827513351
7.5	0.989150821953492	-0.0331169548116162	8.47900943003329E-07	8.03294230144743E-07	1.6844512547388E-06	9.85236461235514E-07	0.982618624338771	-0.18194939239699
7.6	0.976077646955415	-0.155965420678664	1.44010488790759E-06	-2.62620799954315E-06	-5.44731809143818E-06	-3.59651623057044E-06	0.981207683738827	-0.183349776560726
7.7	0.94842277954822	-0.277505746661158	5.58880698380368E-06	2.37616597170295E-06	-6.75642021637934E-06	1.20932277278689E-05	0.980607049140604	-0.186306692024593
7.8	0.905785687158257	-0.394703761638478	-6.44609913326193E-07	-5.23773089349858E-06	3.70493116006053E-06	-4.75830912251278E-06	0.980056775126075	-0.189476855347004
7.9	0.848073463282469	-0.505428873802073	8.85056834786266E-06	1.47267351671491E-06	-9.57711677528699E-06	-8.56860515127956E-06	0.978847511160755	-0.192691242806845
8	0.778051658765214	-0.606353063285276	-6.64890448502274E-06	-1.59498216594835E-06	-1.19686334180282E-05	2.54673350306072E-06	0.977863518428478	-0.193831020265838
8.1	0.69700712595096	-0.700372276373295	5.07444103512175E-06	7.09364656795914E-07	2.89871144093211E-06	2.24798489393814E-06	0.979089787932356	-0.19655389570089
8.2	0.602932975475009	-0.783083851634539	3.55022074895116E-06	-2.59122895413061E-06	-3.73555137632088E-06	-1.15919149644237E-05	0.978845869096191	-0.200020859265041
8.3	0.498966151533428	-0.852556309324683	2.71619901495266E-06	-1.8708519943129E-06	1.66492008599765E-06	5.28011778508714E-06	0.977750799497733	-0.203282867042058
8.4	0.387169636406897	-0.908057490858943	-5.55411862902168E-06	-9.88895552266024E-07	1.07052460793047E-06	2.94339810792891E-06	0.976336947370623	-0.206070053018739
8.5	0.268922895933754	-0.948632958962856	-3.2764865311244E-06	1.64280995219567E-06	-4.81787801562967E-06	-4.97082915040203E-06	0.975441952801632	-0.208574352355725
8.6	0.14683115107865	-0.974069593362592	-8.118802485283E-06	1.43383590088944E-06	-4.37666922320088E-06	-6.82448497780214E-06	0.974643021237045	-0.211559102178499
8.7	0.0223960038756285	-0.984067782853087	2.22872359031068E-07	-2.15598428889841E-07	6.10938317733519E-06	4.71300557965628E-07	0.973539644976556	-0.214100638502597
8.8	-0.102062344225561	-0.978258283855595	1.01173147634457E-06	-1.82011692262176E-06	-2.39273205799785E-06	-1.26370655850876E-06	0.972611036679828	-0.216175747289445
8.9	-0.224337655818024	-0.958029309149026	-2.8480330098947E-07	3.03013962804671E-06	-1.23989254549368E-06	-1.63168928161913E-06	0.972155607168078	-0.218058221452444
9	-0.344093031820764	-0.921631897649724	2.98178936329586E-06	1.56837369565105E-06	-1.56086482759702E-06	2.1203507531408E-06	0.971595301480736	-0.220211130430269
9.1	-0.456249862748752	-0.86969211669316	-9.27501483077672E-06	2.31651013841498E-06	-1.54550356193298E-06	2.4131298881042E-06	0.971073047601547	-0.222104031961138
9.2	-0.560999204569124	-0.805289427425725	7.48037079240412E-06	-2.76500585956367E-07	-9.06722001226853E-06	2.01534454502558E-06	0.970550258471047	-0.224499477978785
9.3	-0.656832719656724	-0.729103741472109	3.74546746438014E-08	-7.13895591068013E-06	1.57401375709294E-06	-1.30438932074225E-06	0.970149615312044	-0.227055962673991
9.4	-0.743324129372272	-0.641880922873246	6.10826517677477E-07	2.47121671802198E-06	1.59155464044593E-06	-3.59353954720283E-06	0.96922635081129	-0.230472086802955
9.5	-0.8176576450705	-0.542949363651832	-2.82046800427087E-06	6.63099982853604E-06	4.69472498075092E-06	-1.38933745295489E-06	0.967167439416013	-0.233082861593223
9.6	-0.879092299436419	-0.436502246337125	-5.02435228927314E-06	-5.15622136233274E-06	4.75148765287697E-06	2.845958318291E-06	0.966219911796269	-0.235237666471345
9.7	-0.927369151355565	-0.321903014305848	-2.01465638166234E-06	-5.04206519902374E-06	2.08744718400686E-06	1.23643669349172E-09	0.965339818347944	-0.237555142799698
9.8	-0.960558799348988	-0.201504895816926	5.71508814956463E-07	-4.2678187351612E-06	-2.93839262947927E-06	-2.49309154500368E-06	0.964493428020681	-0.239520198296462
9.9	-0.977657465346873	-0.0780582840949033	-6.06196948428491E-06	4.21326844906052E-06	-3.06001123172665E-06	1.66960299800934E-06	0.962861965506838	-0.241140140064275
10	-0.979646344119428	0.0455545150799051	3.54996534223821E-06	-5.3225606064622E-08	8.21519157095237E-06	1.10078801254444E-05	0.961992236536828	-0.240494626696803
10.1	-0.966086238974867	0.168616520056442	-2.84885330911644E-06	-2.50076149516252E-06	-2.00489468481076E-06	-2.47834408520804E-06	0.962698361985454	-0.242069609638789
10.2	-0.937095216626156	0.289292982840126	2.34078426078165E-06	-1.02140831546865E-06	-2.75537921976637E-06	-1.05355519902605E-06	0.962011943740908	-0.243629661002952
10.3	-0.892936836465968	0.405082956052226	7.70147966221221E-06	-5.93259434547435E-06	3.85569067724355E-06	8.17449355302628E-06	0.960962367537229	-0.244994895324389
10.4	-0.835636436588894	0.513518741327566	1.69573926027852E-06	2.46804318920063E-07	6.2365752519116E-06	-1.1886206687328E-06	0.959791155385029	-0.246043169329213
10.5	-0.766919441163147	0.615797948557169	8.30502028858687E-06	-4.12650352154823E-06	-4.9047024299931E-07	1.96293264854302E-06	0.95992734490382	-0.247335957703196
10.6	-0.68305431312029	0.708704137392438	8.88915552672085E-06	-1.27603340417943E-06	-1.44946829828867E-06	1.3574794498302E-05	0.959722139222665	-0.249881396148433
10.7	-0.588086004758834	0.788308402735836	7.96863797375768E-06	-1.90202508239745E-06	-3.04275524316919E-06	-5.24747025178634E-06	0.959405213565852	-0.252308633141389
10.8	-0.48408981092595	0.855275166106371	2.44010005993427E-06	5.21489366361466E-06	-3.60650630321649E-06	-2.01346848800353E-07	0.959115154555583	-0.254575419271749
10.9	-0.372796391735415	0.909157144517435	-5.52614156912594E-06	4.8471411434591E-07	1.58940178704667E-06	4.00436658057648E-06	0.958528513293266	-0.256771881426583
11	-0.255475764481715	0.949006929345362	1.22094205090664E-09	-5.18983445969816E-06	-8.32789737823453E-06	2.22108822921001E-06	0.957714148908394	-0.258492109801281
11.1	-0.134480737572099	0.973663688892227	6.26802163827998E-06	4.06619828200272E-06	-1.89664179869526E-06	1.06905951568985E-05	0.9568501241333	-0.260154317937781
11.2	-0.0114944615761536	0.983391486388492	1.56754997024749E-06	1.34875755764617E-06	5.09600000406745E-06	8.8550659496925E-06	0.955709977577833	-0.261674649382262
11.3	0.112113643576109	0.976910110958505	-4.56603584894977E-07	-1.72855339286189E-06	-6.86919595404747E-07	-4.37233903738333E-06	0.955233542922171	-0.263192360485839
11.4	0.233847004777752	0.955255038004537	1.99748247801544E-07	1.18034849907366E-05	2.40145277345831E-06	4.91015732282702E-06	0.954244502311967	-0.265877918447696
11.5	0.351952083855014	0.918707447701144	6.16411708265248E-06	-3.15045553765841E-07	3.17557060528937E-07	-1.87218076119262E-06	0.952138268375782	-0.267797966114442
11.6	0.463567614876825	0.867815373349488	-5.97679742572587E-06	3.04449423801368E-06	-4.84605414715185E-06	1.89602180171299E-06	0.951489590827364	-0.270187076210811
11.7	0.567919027938837	0.80372901867882	3.31289219202701E-06	-1.77845847856635E-06	-1.7025512491399E-06	2.2209440243983E-06	0.950446185051497	-0.273434403126221
11.8	0.663413745950363	0.726320259115682	-8.38648703628836E-07	9.73906985128117E-06	-2.72556071825311E-06	1.04751700504382E-05	0.949124465400149	-0.276516479716456
11.9	0.746726418640238	0.63673481714177	-7.24635511401869E-06	-1.04513481485759E-06	-3.90813226147869E-06	1.1167926680475E-05	0.947669392256857	-0.27804206215617
12	0.817530956583296	0.540563047397696	-6.45531631572171E-07	1.36966259108834E-06	-3.10682712861414E-06	-1.92404268019983E-06	0.948347162814668	-0.277850024129222
12.1	0.879999637226727	0.435661976560702	-3.87817476015257E-06	4.94168244280614E-06	-1.36831134604357E-06	8.36055081447738E-06	0.950004492916272	-0.280746145608424
12.2	0.927569135356207	0.321969886795989	-5.56095314356068E-07	-3.77985701541431E-06	-3.09344388778851E-06	-7.41278938992643E-07	0.949757290840527	-0.284332485446484
12.3	0.96002900967349	0.204162367562433	3.55976507584612E-06	3.43269726622118E-06	-3.44956836159736E-06	6.21528258180624E-06	0.948785724694499	-0.287490684823459
