# GHZ S RI R 50
0.2	-0.965672584967602	0.251814013903056	8.82179892980367E-06	5.31856501831381E-06	1.13609178394974E-06	-2.88920474195375E-06	0.999517694808228	-0.00683558712660929
0.3	-0.926035317689607	0.371620602477634	-7.66005295093827E-06	-8.17907578332678E-07	-1.40910823397936E-08	3.65838754890102E-06	0.999420377157767	-0.00974191832047849
0.4	-0.871177129022642	0.485245010283226	-2.19692246974712E-06	6.33690329031541E-06	2.9188402032231E-06	5.73371718108513E-06	0.999340181823807	-0.0123697615881634
0.5	-0.802840563024237	0.591176103185366	-2.64780044829431E-06	5.48787143767565E-07	1.0515806133294E-05	4.8823417349138E-06	0.999189265286625	-0.0154436270037224
0.6	-0.721478639883315	0.687471095992471	-1.72438279951245E-06	-1.80824598872547E-08	4.15999951663432E-06	-1.03311859705096E-05	0.9992318608976	-0.018445072017813
0.7	-0.628923204191805	0.772699752883357	-2.04555424949488E-06	9.87875968772254E-07	3.78204250800856E-06	1.11524636466917E-05	0.998785204281607	-0.0214344004192758
0.8	-0.526387892487757	0.84566985874756	-5.60094925667869E-06	3.77942865027188E-06	-3.16560419406991E-06	-2.13722764819868E-06	0.998477287112943	-0.0236043621645503
0.9	-0.415786026779034	0.904950933570406	-6.68108734709411E-07	5.24569119152271E-06	3.2635492564217E-06	-2.94482723743239E-07	0.998307344389338	-0.0259866104053344
1	-0.298259285169947	0.949913273540138	1.56707029308979E-05	-3.68054792471507E-06	-9.58909608018092E-06	5.2485685975403E-07	0.997978711205471	-0.0274209136050139
1.1	-0.177138116788082	0.979632601447381	1.34276056937139E-06	-2.97909343157455E-06	9.3821048630278E-06	1.25925843783977E-05	0.997999082641674	-0.0292854734012192
1.2	-0.052389169074845	0.994188587086445	-7.90198356849467E-06	-3.2649434754616E-06	-3.09219825164761E-06	-4.47951483270091E-06	0.997752294784328	-0.0301192103144044
1.3	0.0734746593883868	0.993018955486601	1.74399293324905E-07	3.33464561596741E-06	1.92884131096782E-06	3.43524396621667E-07	0.998581960073985	-0.0309732044382397
1.4	0.198104221809409	0.97553733595363	1.8269443863494E-08	3.76859157293306E-06	-2.52207230076661E-06	-5.61938879144778E-06	0.99862979387932	-0.0334209163305299
1.5	0.319381705027957	0.942551856650206	3.18698039348072E-06	-2.63773769202159E-07	2.70018589218654E-06	2.09684933484725E-06	0.998685308546486	-0.0371078776137072
1.6	0.435306464783727	0.894612921539128	1.78802623696559E-06	-1.93753277340918E-06	-8.91590738056809E-07	-3.06273748452912E-06	0.997589719189407	-0.0407551690115807
1.7	0.543882931804473	0.832282017421681	-8.42170727995038E-08	-3.52211516315012E-06	2.00195316901611E-06	4.92332863703874E-06	0.997333771164359	-0.0432892671578544
1.8	0.643545140209109	0.757363165399193	-2.05482173222545E-06	-1.81246969752351E-06	-4.63833859315434E-06	1.82969636483809E-05	0.996669616567849	-0.045962102370854
1.9	0.732736549136227	0.670763584002248	-4.38268758615788E-06	-1.46550040431949E-06	-4.91674865277161E-06	-5.99461312142791E-06	0.995892029847097	-0.0479522239939504
2	0.810526376383081	0.57434115129456	-9.39721969882496E-08	-6.72918295791231E-07	-1.66372632242436E-06	-1.41661732997741E-06	0.995417525617572	-0.0497660381174921
2.1	0.876832535941587	0.46725539844781	-1.14582547268396E-06	9.43239770608519E-06	1.99159082932819E-06	-3.78276557638143E-07	0.995654126556627	-0.0522547491586374
2.2	0.928104645258562	0.353244236372301	-1.98484369806967E-08	-5.91841377963309E-06	-7.36767267633685E-07	2.73185376632922E-06	0.99542883215657	-0.0547503348430399
2.3	0.964500457974109	0.233876414098709	-1.31413727555813E-06	2.75910059171873E-06	-2.76964195532127E-07	1.19471513949032E-05	0.994941366493138	-0.0565072327039775
2.4	0.985630642527211	0.110284471835867	-5.85647802529358E-06	-3.70389252673836E-06	-1.7564087049293E-05	1.44789028347611E-05	0.994650625662819	-0.0594102319714294
2.5	0.99163773892212	-0.0137929701706747	1.8172127191004E-06	-2.95404725051336E-06	-1.79341059522672E-06	7.52798496666952E-06	0.994140394390457	-0.0612074439880255
2.6	0.982146529623171	-0.136787596368044	2.85333910476347E-06	9.20908164172603E-07	-1.75331443695233E-06	4.48822320132543E-06	0.994152892853077	-0.06365681519838
2.7	0.957481602496625	-0.258308108577775	3.79463092480879E-06	1.04282125571506E-05	2.31015360766446E-06	3.86367474582942E-06	0.994102434198902	-0.0663140515659559
2.8	0.917775293210524	-0.376374594449744	-8.07489836702766E-07	-2.28995881570624E-06	2.22647188999217E-07	-1.88385689772946E-06	0.994576920624439	-0.0683684086913236
2.9	0.863606329624241	-0.488173403490284	3.7756139292199E-06	-8.29589529332909E-06	-1.24582584885789E-06	-1.42029051717775E-05	0.994422715177249	-0.0705554171270071
3	0.795822437848139	-0.592655358333188	-2.40924773086612E-08	6.63872754084783E-06	-1.4756151740754E-05	5.26886483227177E-06	0.99443431564251	-0.0730836664786454
3.1	0.716492143474969	-0.687025999257386	-4.99017995433033E-06	7.80437367300774E-06	5.80068804549311E-06	-7.55676371111993E-08	0.994334088047496	-0.075222755054075
3.2	0.624046986400969	-0.77192871149796	9.55798471923913E-07	2.12475170096406E-06	-4.55639878991496E-06	4.70486585669123E-07	0.994218421498721	-0.0771700184697544
3.3	0.521853599296787	-0.844446644364729	7.20848441608618E-07	-1.45714657914579E-06	-4.57802715760651E-06	7.24076915076996E-07	0.994072834439276	-0.0806491685628025
3.4	0.410582907335493	-0.903136692703789	6.46402198067664E-06	2.42548596629389E-07	-8.12031088488329E-06	-7.18436755499247E-06	0.993922676474055	-0.0829789893543996
3.5	0.293652519456628	-0.946402069216662	-7.68771196396892E-06	1.95004728900158E-06	-5.88378959249048E-06	-7.97504305618986E-06	0.993219142622392	-0.085566880340241
3.6	0.172113828390265	-0.976399072460539	-8.47488701775986E-07	-4.37669891003912E-06	-7.79323412570261E-06	-6.33726925681392E-06	0.993120319983351	-0.0877124947079587
3.7	0.0470925166338654	-0.990902597330754	-6.6955594223255E-06	-6.77511739535319E-06	5.36278293547845E-07	-4.75781873917062E-06	0.992942484997333	-0.0903361497710571
3.8	-0.0788987614500229	-0.988592089501777	-3.64188259946356E-06	1.07511027464317E-06	-3.28863386511685E-06	-2.46910328596101E-06	0.99238400915564	-0.0921612255507027
3.9	-0.202413346408533	-0.970146194558517	-4.86638992735885E-07	3.50260982594213E-06	2.05368765367387E-06	-1.21338899864967E-06	0.992132896947824	-0.0947092875064963
4	-0.322132098468668	-0.937166868458174	1.16499750084917E-05	8.14750133979315E-06	7.27355364369731E-06	-4.01791625880376E-06	0.992679346787922	-0.0948229939785147
4.1	-0.437244016749219	-0.890048686901492	5.21523783952618E-06	1.33630772675049E-06	-3.47458430833482E-06	6.64454875461646E-06	0.993723733706753	-0.0973150144588967
4.2	-0.545629317154856	-0.828829283039167	-7.09759364715698E-06	-1.21816419145662E-06	-8.26863359264563E-06	-6.04323216852161E-08	0.993409714707329	-0.100362953156108
4.3	-0.645637827717841	-0.753868108846332	7.08047759023891E-07	-2.36772182005524E-06	5.21383291232261E-06	8.92639229779287E-07	0.993508711352298	-0.102553369643728
4.4	-0.735432238833949	-0.666573826068579	4.48043334171541E-06	-1.76543610531824E-06	-8.72043794879085E-07	1.34577546564984E-06	0.993254061142392	-0.105042866847981
4.5	-0.813798803994038	-0.568370887684484	6.78845453792534E-06	1.88332518501514E-06	-7.98777622600648E-07	-3.26243949711394E-06	0.993595147114888	-0.107396866009086
4.6	-0.879030886508633	-0.461059216674036	2.45261317760912E-06	2.95869011619746E-06	-6.61215820456439E-06	9.74365827088283E-06	0.993072965884739	-0.110591023270578
4.7	-0.930318545075856	-0.34584219103436	-1.40767100304567E-05	5.89414427649316E-06	-3.46545517400443E-06	-4.15466389137944E-08	0.992850200004016	-0.112586904746921
4.8	-0.966782288197659	-0.225559163804421	-3.15393978268062E-06	-5.15581889844722E-06	-5.53556998750345E-06	2.35598561910233E-06	0.992472057328036	-0.115041864835329
4.9	-0.987701251047399	-0.101692359343477	-1.00451192166585E-06	-8.56781148597358E-06	-4.22946576794663E-06	7.32121903388499E-07	0.99211831990463	-0.116860019792179
5	-0.991992199804466	0.0240193268891799	7.56448867857765E-06	-1.56118501373032E-06	-1.75076846733079E-06	-2.72859087632484E-06	0.991921765158833	-0.118471914675353
5.1	-0.980589623886316	0.148515511611613	-2.59188268086473E-06	-6.40652169346422E-06	-1.00616167459528E-06	-1.95733616568038E-06	0.991877869093854	-0.119790491056927
5.2	-0.954984116033306	0.270803946343819	4.00407070062559E-06	-4.28816300415963E-07	-5.45978166412006E-06	6.30552614107711E-06	0.991778624688427	-0.121817850003655
5.3	-0.913738545935589	0.389309095571702	5.13628034681579E-06	6.02713233992471E-06	-9.55127169384962E-07	-3.5939795519138E-06	0.991973272802601	-0.124029170720031
5.4	-0.857474652493028	0.501344739532611	3.07110103423266E-06	-2.01490126785843E-06	-1.13377892825243E-05	2.18514338060269E-06	0.992324296886204	-0.127236958317149
5.5	-0.787233558191542	0.604494364487092	-4.28887881983421E-07	-2.19836988133226E-06	-5.80699208927024E-06	6.12391327618985E-06	0.991949771460277	-0.130129540640948
5.6	-0.705254855778745	0.697957632037149	2.36919994968695E-06	7.32258326471551E-06	-5.45037949550752E-07	2.93358543781361E-06	0.992157637241104	-0.132904347623632
5.7	-0.612477154316555	0.781245191036364	-2.58188722416441E-06	2.36105058814187E-06	7.92318540356315E-06	2.80067825336964E-06	0.991791093280782	-0.13576201282503
5.8	-0.509583775151809	0.851777939348079	-4.66873639348403E-06	5.10710747076779E-06	-3.7365795760689E-07	3.42955966435751E-06	0.991329539361961	-0.13806935485824
5.9	-0.399139640051071	0.909017187562571	6.36789754848673E-06	1.51593177030871E-06	-2.72270665278934E-06	2.54648261472152E-06	0.990584962908214	-0.139755036713636
6	-0.283278536411822	0.952828748960667	3.52364744045058E-06	3.32231873150599E-06	-3.24390398272832E-07	-1.43982225236786E-06	0.991900074546401	-0.139868025041682
6.1	-0.160752299021329	0.982015943444199	9.21827243527678E-06	1.55037889470012E-06	-1.24521350874138E-07	-1.81773943449017E-06	0.993674902507003	-0.143006136215563
6.2	-0.0351416347660061	0.994408235079787	2.45368170672208E-06	-1.73655030249385E-06	1.49243416502686E-06	-4.86865645000168E-06	0.993558146147476	-0.14577204825978
6.3	0.0906523369362343	0.990503206618504	-4.38313651716493E-06	4.26521462031763E-06	-6.1783280488418E-07	-1.73400326261045E-06	0.992985019223321	-0.148838165044638
6.4	0.213947247441262	0.971145603353457	-4.28661203966867E-06	1.07466930598081E-06	-1.77180665228905E-06	8.88795399139061E-06	0.992107747900894	-0.151293888187924
6.5	0.335668316794624	0.937730331986061	2.46490407771054E-06	-1.34139574855222E-06	1.4929569321782E-06	-2.94845967374261E-06	0.992324826183189	-0.154864494542546
6.6	0.451127623845609	0.88611138692034	-4.75801295924378E-06	-2.25403346473931E-06	-1.88593628768212E-06	-6.66174695682474E-06	0.990313270209153	-0.158374124876706
6.7	0.557840585439052	0.821947915095759	4.17299283568753E-06	-6.69935609616968E-07	-4.68700098078423E-06	1.02197077211521E-06	0.989184793150948	-0.160097820483153
6.8	0.656012089789463	0.745225495858911	3.76133269487513E-06	-2.09019949939868E-06	6.22536081657704E-06	-9.35254951339545E-07	0.988497181735918	-0.162148194084954
6.9	0.743508345731317	0.656947038487935	2.05354614363133E-06	1.63997861763573E-06	8.79069158426731E-06	-2.77435022402386E-06	0.987760138732677	-0.164114283709985
7	0.819429892906279	0.558971349711904	2.17954688425051E-06	4.09979825940379E-06	-8.82974154364441E-08	5.38993260889385E-06	0.987639139305521	-0.165535661458999
7.1	0.882840107685977	0.451960883947339	-1.31324849993073E-07	1.72047725220066E-06	8.26868395461316E-06	-4.66208926883829E-06	0.98718948467438	-0.168350942992117
7.2	0.931934210184686	0.337526933531684	4.8536404211453E-06	-1.4039660275555E-06	7.27551475523738E-06	3.77594312573776E-06	0.985901835833149	-0.170699315324467
7.3	0.965917780436874	0.217626683281181	4.86599048836684E-06	-1.12180442783912E-06	-7.37006365246823E-06	-7.37471131906728E-06	0.984179361090685	-0.173083443974233
7.4	0.983942619785463	0.0935586041112213	-1.80227081261561E-06	9.90962376839116E-06	1.41827186536871E-06	-4.07746290154455E-06	0.981524083348927	-0.176182973506733
7.5	0.984966146734459	-0.0292005203816121	8.41001802010594E-07	8.00925635786909E-07	1.6723269513914E-06	9.84000840444599E-07	0.97823191958976	-0.176324876750254
7.6	0.97403452282712	-0.151704744026242	1.44422373322629E-06	-2.61041992092864E-06	-5.41229080336543E-06	-3.60264580919247E-06	0.978840107357591	-0.178006769007675
7.7	0.946980937193076	-0.27298177597644	5.55934179256817E-06	2.38890842253776E-06	-6.7781082463251E-06	1.20232864573314E-05	0.978478429112577	-0.181009755050797
7.8	0.905256242618019	-0.38949161043525	-6.18746103321055E-07	-5.22276747300164E-06	3.71378450852203E-06	-4.72533087763732E-06	0.97832974325815	-0.183737348656456
7.9	0.849362575397876	-0.499093957843607	8.8173033563032E-06	1.522580421575E-06	-9.4986049415627E-06	-8.60346754252245E-06	0.978070133439272	-0.185745819117872
8	0.783622219144276	-0.601095139519643	-6.64114926609856E-06	-1.64611292148839E-06	-1.19955034424991E-05	2.45816875723566E-06	0.98057969226259	-0.18685746859827
8.1	0.702438160705726	-0.698668375082421	5.08372547579313E-06	7.37281327960934E-07	2.894533805251E-06	2.26862896545647E-06	0.982210638108695	-0.192418392478117
8.2	0.607964407415265	-0.782319995535827	3.57076697650872E-06	-2.58319282140417E-06	-3.69656428146251E-06	-1.16390007746252E-05	0.981556246117507	-0.196293239085813
8.3	0.503930346321956	-0.852705737665971	2.73130776499147E-06	-1.86662135569054E-06	1.65069147755234E-06	5.30228112222672E-06	0.98069253480626	-0.199698593837033
8.4	0.391741575799756	-0.908944707718966	-5.56989706917948E-06	-1.00733536258807E-06	1.06605688743053E-06	2.95610950558547E-06	0.979780499935271	-0.202770061594535
8.5	0.273800164240289	-0.949735955180561	-3.28723564465003E-06	1.63989521996624E-06	-4.81872378834783E-06	-4.99184686995424E-06	0.979284891949329	-0.206269601439183
8.6	0.151861525759915	-0.976628202757615	-8.14018763387134E-06	1.41335583389545E-06	-4.36618493972811E-06	-6.85164961970266E-06	0.977884128516514	-0.209701406566239
8.7	0.0268617287442361	-0.987941154520958	2.24133068390767E-07	-2.15458685928017E-07	6.12383644595859E-06	4.91778729201519E-07	0.976658540480499	-0.212239214452736
8.8	-0.0987243151430592	-0.983384578216377	1.02083744996296E-06	-1.82263045774173E-06	-2.39625094194376E-06	-1.27546644046861E-06	0.975688453007166	-0.214370697506221
8.9	-0.223285506197775	-0.963635151425455	-2.94529262947074E-07	3.04156906903798E-06	-1.2402811153067E-06	-1.64178709290293E-06	0.975140136767682	-0.21627017090219
9	-0.343778116108153	-0.924966876713066	2.98966895873963E-06	1.57933212390557E-06	-1.57025440426476E-06	2.12515633938529E-06	0.974580956277772	-0.218165718420137
9.1	-0.455220964567995	-0.873553357391433	-9.31271750333504E-06	2.30363921169426E-06	-1.55637108018603E-06	2.41808024856743E-06	0.97446468670837	-0.219994668645412
9.2	-0.560596642686792	-0.809083163387484	7.50890522206155E-06	-2.63970265781443E-07	-9.1048548118974E-06	2.00645267206024E-06	0.974315981251819	-0.222742465294238
9.3	-0.656596238432982	-0.732421260903182	4.59818214118805E-08	-7.16376282070144E-06	1.58102716510594E-06	-1.30707860856236E-06	0.974001159209427	-0.225953680778858
9.4	-0.742739446919403	-0.644213190949685	6.11255890118005E-07	2.47790274125425E-06	1.59735355226219E-06	-3.60210525891322E-06	0.972467476664984	-0.229908028174645
9.5	-0.814866846992769	-0.546577096281777	-2.8363589559224E-06	6.63599253805299E-06	4.70421320642929E-06	-1.38316857244806E-06	0.970383275001424	-0.231706182725808
9.6	-0.878213755576086	-0.442015456629921	-5.02826666406437E-06	-5.17928496766275E-06	4.75893791682511E-06	2.86234080032244E-06	0.970089814573345	-0.234660526055205
9.7	-0.927865485506989	-0.3271813740946	-2.01374357718668E-06	-5.05820713557636E-06	2.09307821496367E-06	3.86829150556325E-09	0.968819450738901	-0.237537681958935
9.8	-0.96214943249232	-0.206443916332218	5.77688891065256E-07	-4.27769775857997E-06	-2.94284688593617E-06	-2.5025209876687E-06	0.967371450024707	-0.239526489494842
9.9	-0.980565653544651	-0.0820798163087513	-6.0844926071879E-06	4.21389748026893E-06	-3.07061652637228E-06	1.66875287213942E-06	0.965383827966341	-0.239918913927488
10	-0.982656984123892	0.0431288714640628	3.56518963238702E-06	-4.77154942840034E-08	8.23243418353917E-06	1.10680980458363E-05	0.967246555215201	-0.239009647321992
10.1	-0.968732472312642	0.166620252737906	-2.86061287859528E-06	-2.51101864176566E-06	-2.01317987795524E-06	-2.48851992161174E-06	0.967302919886882	-0.242829255868182
10.2	-0.93992166476646	0.287477335436363	2.34875573484408E-06	-1.02547067323022E-06	-2.76523536329952E-06	-1.05666193517457E-06	0.965764369190549	-0.24429208263155
10.3	-0.896500189982219	0.403659450519841	7.72671422576155E-06	-5.95308522629532E-06	3.86927977977251E-06	8.20148731609706E-06	0.964445503787158	-0.245496039210016
10.4	-0.840401386598931	0.513938362826959	1.70219184511107E-06	2.47403430930052E-07	6.25989488991517E-06	-1.19433419800217E-06	0.963214057536373	-0.246396554892665
10.5	-0.769182028646762	0.61973218504213	8.32537772859885E-06	-4.15699084505657E-06	-4.88290200672881E-07	1.97062791689357E-06	0.96309230896622	-0.248319098405413
10.6	-0.682296606354883	0.711253159417345	8.90073984569314E-06	-1.29233204180846E-06	-1.42979369690676E-06	1.35979670648355E-05	0.96197074758668	-0.250053117277843
10.7	-0.586349242827112	0.789616906967196	7.97735548596633E-06	-1.91172262280762E-06	-3.0514861343176E-06	-5.25159191176003E-06	0.96232352476395	-0.251931813569604
10.8	-0.482024354148206	0.8555301200203	2.44802248856851E-06	5.22065149420534E-06	-3.61204186971418E-06	-1.98680326085E-07	0.96250992148088	-0.254671531148692
10.9	-0.370276650911722	0.909355063476072	-5.53438152685403E-06	4.92622613134346E-07	1.59711881901965E-06	4.00873971930338E-06	0.96179708809617	-0.25732652505993
11	-0.250974429428869	0.947338843012846	-6.17433348279628E-09	-5.19482892327662E-06	-8.33274352909737E-06	2.23509371608706E-06	0.961001953290868	-0.25904151076272
11.1	-0.131381375482311	0.969730182143109	6.2827762757316E-06	4.06233322071517E-06	-1.88312061147433E-06	1.07081583806188E-05	0.960219422929921	-0.261245228874851
11.2	-0.00965460616382196	0.978762981285915	1.57268111955609E-06	1.34700724429659E-06	5.12278380578496E-06	8.85531615786983E-06	0.958908654399406	-0.263388534579135
11.3	0.112652946563071	0.972059047126698	-4.62182377887495E-07	-1.72878113396403E-06	-7.00600386170326E-07	-4.37431194557481E-06	0.957783906225542	-0.265741674283539
11.4	0.23311854885871	0.950604848709106	2.44952023200354E-07	1.18020575524495E-05	2.42012711081593E-06	4.9006827047749E-06	0.955256349565153	-0.268948732062576
11.5	0.350641754270334	0.914535672946419	6.15308454650836E-06	-3.32040513439157E-07	3.11715693268384E-07	-1.87000401220321E-06	0.952831762934746	-0.26915235779255
11.6	0.461502415683854	0.863617615761501	-5.96507431705513E-06	3.05447841200461E-06	-4.83776238185315E-06	1.90462186060685E-06	0.952946151313511	-0.272313642009878
11.7	0.564688511826473	0.800108023947756	3.30573640341343E-06	-1.78475564150923E-06	-1.69576880943601E-06	2.22302405706032E-06	0.951118519036386	-0.276078385573307
11.8	0.659181029606478	0.723982812058923	-8.15892416365375E-07	9.72686401804742E-06	-2.69845167792043E-06	1.04660758040864E-05	0.948623979128945	-0.278821245942455
11.9	0.742105572048532	0.636948652987275	-7.23209274350856E-06	-1.03786388856234E-06	-3.89217115419411E-06	1.11475651508761E-05	0.946387584628275	-0.278099193216456
12	0.8172773528839	0.543282831408174	-6.4700592205451E-07	1.37000889639909E-06	-3.10725254470097E-06	-1.92767280958093E-06	0.949903513768173	-0.27635778105234
12.1	0.8810592036441	0.434968180576283	-3.87708650907525E-06	4.94636461337737E-06	-1.36398069174841E-06	8.36537499284716E-06	0.95115519236785	-0.279893163355182
12.2	0.927816350989033	0.320710890433942	-5.55180689970833E-07	-3.7816102881888E-06	-3.09451549593249E-06	-7.42528965012364E-07	0.951223745779489	-0.282196735713149
12.3	0.960540879078495	0.20331879383589	3.5622149698166E-06	3.44190396002565E-06	-3.46144846548526E-06	6.22209439761029E-06	0.951601941479963	-0.284616840369551
