# GHZ S RI R 50
0.2	-0.966399463417773	0.251252651356472	8.82498678110485E-06	5.32494000595241E-06	1.13782552652433E-06	-2.89047305544813E-06	1.00000475278335	-0.00679998556714932
0.3	-0.927148200412637	0.371078732178573	-7.66600369261227E-06	-8.21582069920711E-07	-1.55377090954779E-08	3.66137728654516E-06	0.999981543998858	-0.00979202334568789
0.4	-0.872674253878574	0.484947405817888	-2.20151035211062E-06	6.34337425976212E-06	2.92026130014975E-06	5.74119275112625E-06	1.00006495079025	-0.0125307753983757
0.5	-0.804387337119473	0.591378480688805	-2.65118107966977E-06	5.4970685553253E-07	1.05297925209444E-05	4.88782154234323E-06	0.999846936109685	-0.0160591443887944
0.6	-0.722969768580185	0.687771763914617	-1.72624375874615E-06	-1.80304547968234E-08	4.16405874715544E-06	-1.03425034448492E-05	0.999456209985571	-0.0188335648688901
0.7	-0.630517802521456	0.773288725144749	-2.04816430585538E-06	9.88965186482532E-07	3.78598703997125E-06	1.11665849045842E-05	0.999132181730042	-0.0215170763382614
0.8	-0.527912769755046	0.846635735940313	-5.60910816222612E-06	3.78456347426921E-06	-3.17002120517204E-06	-2.14041932071923E-06	0.999025985511342	-0.0235293003827921
0.9	-0.417081147658111	0.906262430129021	-6.69214389024168E-07	5.25402721149548E-06	3.26874127478072E-06	-2.9492409357922E-07	0.999156559258405	-0.0257793253412559
1	-0.299150964429221	0.951501991647152	1.57002175719927E-05	-3.69090842140184E-06	-9.6075145996361E-06	5.27859183326094E-07	0.999367937140738	-0.027571117554841
1.1	-0.17740021762284	0.981249946657192	1.34235062507345E-06	-2.98581701344071E-06	9.41130765492995E-06	1.26065513032688E-05	0.998968636776312	-0.0302447923260481
1.2	-0.0519509166764645	0.995418591872986	-7.91737538466174E-06	-3.25548268160935E-06	-3.10369699130138E-06	-4.47978697748886E-06	0.997844449185779	-0.0316124042194536
1.3	0.0743447616273206	0.993484172427001	1.82642096826803E-07	3.33525718584665E-06	1.93028631196094E-06	3.38895129983821E-07	0.997326717400628	-0.0328207999044736
1.4	0.198843572394006	0.975574423456076	2.79586835637438E-08	3.76703552096168E-06	-2.53552103710004E-06	-5.61064936651719E-06	0.996519736710916	-0.0348222833863471
1.5	0.320092279222088	0.942830344110394	3.18569420155055E-06	-2.70832361901786E-07	2.70427729590126E-06	2.09036129418042E-06	0.997018780720781	-0.0380177195694581
1.6	0.436078056538914	0.895188592483791	1.78488493783675E-06	-1.9408407542205E-06	-8.96980263223588E-07	-3.06154736869591E-06	0.99659126391692	-0.0410934639139267
1.7	0.544929300655262	0.833145046837153	-8.85311055194647E-08	-3.52419497431399E-06	2.00915062286912E-06	4.92395588817815E-06	0.997330831153754	-0.0432677312756442
1.8	0.644934740606463	0.7583430280208	-2.05839853121792E-06	-1.81280752638732E-06	-4.62914964577584E-06	1.83199451607851E-05	0.997519228706284	-0.0458171349368305
1.9	0.734584601214708	0.67190823472703	-4.39039771318175E-06	-1.46688219023234E-06	-4.92646645973463E-06	-6.00345967310027E-06	0.997679651724355	-0.0477737849916723
2	0.813504876086378	0.575060106939394	-9.46016764421646E-08	-6.74781246826676E-07	-1.66921998268481E-06	-1.41975004083668E-06	0.998182459792928	-0.0506200517617424
2.1	0.8797523503193	0.466854311824619	-1.13745016828636E-06	9.45870126969677E-06	1.99639491945404E-06	-3.81683416799031E-07	0.997729945440428	-0.053790681693182
2.2	0.930893117002912	0.352427849918303	-2.70206162456068E-08	-5.93378153751341E-06	-7.35396583468985E-07	2.73984474193268E-06	0.997309743415407	-0.0561807814541875
2.3	0.967319111104459	0.232619465926224	-1.31406602068119E-06	2.76837615313962E-06	-2.61876304949318E-07	1.19801363148322E-05	0.996890395989487	-0.0579262723441078
2.4	0.98852477953057	0.10849840070039	-5.87871454437023E-06	-3.70498251078322E-06	-1.75902893251346E-05	1.45471804303175E-05	0.996820065585768	-0.0609760608641241
2.5	0.994629305961457	-0.0163856389995613	1.8175801216665E-06	-2.9653301812227E-06	-1.78632690167574E-06	7.55215731229761E-06	0.99649020363999	-0.0633298890785943
2.6	0.984847299637113	-0.140390070341767	2.86460413475623E-06	9.18508090120338E-07	-1.75055391730833E-06	4.50652662282116E-06	0.996275798842133	-0.0662837767321629
2.7	0.959443573926658	-0.262773488349631	3.83359900337025E-06	1.04542983733201E-05	2.32767456275806E-06	3.87108257527689E-06	0.995898348673905	-0.069292776544713
2.8	0.918793866786453	-0.381259151371728	-8.16533462545983E-07	-2.2950695197307E-06	2.18066453240703E-07	-1.89055582625736E-06	0.996001749966391	-0.0714284425140895
2.9	0.86373099311178	-0.493119065705511	3.7625000237295E-06	-8.3315438371026E-06	-1.29112772413297E-06	-1.4241349828954E-05	0.995590867378822	-0.0735653222512995
3	0.795190199643547	-0.597455592353876	-4.8203036123524E-09	6.65630085159756E-06	-1.47797107481486E-05	5.32573448217907E-06	0.995315290451537	-0.0761468107902072
3.1	0.715127689787209	-0.691547318256379	-4.97936802720831E-06	7.83664788011681E-06	5.81385155953204E-06	-9.2333083127117E-08	0.994731196741094	-0.0781675679334482
3.2	0.622045744839924	-0.775985920164205	9.63511217689666E-07	2.1262529258334E-06	-4.56396818522962E-06	4.83953493398132E-07	0.994261717548901	-0.0798133268465739
3.3	0.519352309760975	-0.84788351524139	7.18093925811831E-07	-1.46141731101013E-06	-4.58342426331057E-06	7.37523113282299E-07	0.993882119317781	-0.0829902132850747
3.4	0.408033192600274	-0.905740165363168	6.47229335168686E-06	2.26903287521052E-07	-8.14765942266291E-06	-7.17288034870513E-06	0.993664468100597	-0.0849529824629224
3.5	0.291551408832723	-0.949309038028979	-7.69553411536892E-06	1.96876870915842E-06	-5.90914237231736E-06	-7.97526005399946E-06	0.993384916910367	-0.0874867515695649
3.6	0.16886070035442	-0.979263691518709	-8.61137177129521E-07	-4.38158162142772E-06	-7.82387864952319E-06	-6.32597037140985E-06	0.993193347879283	-0.0899774356132029
3.7	0.0433547513959382	-0.99294166896041	-6.72520614049641E-06	-6.76269356045277E-06	5.22059384135696E-07	-4.76549271538649E-06	0.993024809411049	-0.0926588070564708
3.8	-0.082794333533486	-0.989904943576794	-3.64202820664772E-06	1.08808193618933E-06	-3.29999818956619E-06	-2.46084337546542E-06	0.992651991005024	-0.0946552636429299
3.9	-0.20631519032656	-0.970844080890145	-4.75069874557329E-07	3.50771327917995E-06	2.05152578992976E-06	-1.22163992678026E-06	0.99284509984549	-0.0976421160294745
4	-0.326127660586184	-0.937253995540653	1.16914520504689E-05	8.10355657223174E-06	7.26116208040155E-06	-4.05099149077802E-06	0.993248381099219	-0.0995064046823628
4.1	-0.440964684602358	-0.88932857629295	5.21867581016419E-06	1.31448837766711E-06	-3.44609862709362E-06	6.65616688161263E-06	0.992410380767327	-0.102306119564162
4.2	-0.54892581489767	-0.827579987913757	-7.09611721420839E-06	-1.19054059506005E-06	-8.26182391154001E-06	-2.94072556663593E-08	0.991171618286805	-0.104871231188328
4.3	-0.648536699824946	-0.752184793014228	6.98975247434881E-07	-2.36749258334613E-06	5.21100155921914E-06	8.73421409713143E-07	0.99069538518222	-0.10663591254689
4.4	-0.738019752641704	-0.664293647035184	4.46835656502283E-06	-1.77878848913523E-06	-8.66186691363716E-07	1.34705471150057E-06	0.990105816100591	-0.108836117591238
4.5	-0.815457782303784	-0.5652749029813	6.7821126306756E-06	1.85499054261912E-06	-8.09084784376064E-07	-3.25319808528242E-06	0.989837735597469	-0.111085869147007
4.6	-0.879602234220277	-0.457942672105275	2.456637563704E-06	2.94371639504884E-06	-6.56465906570865E-06	9.74271463377905E-06	0.988998487497127	-0.113652759862778
4.7	-0.93002049092966	-0.342786069417545	-1.40216715299005E-05	5.92414804214541E-06	-3.45669146878925E-06	-3.03282567435951E-08	0.988766978522902	-0.11539353080565
4.8	-0.965584612893756	-0.222566960709357	-3.16116765411861E-06	-5.13100779616884E-06	-5.51218941261027E-06	2.36671072695848E-06	0.988354101831093	-0.11764838430427
4.9	-0.985183826439354	-0.0989296450042137	-1.0271135706505E-06	-8.53602650088783E-06	-4.21305910817599E-06	7.4248663920349E-07	0.988051242432082	-0.119272068906311
5	-0.988431035444127	0.024892037660188	7.53391259696797E-06	-1.5722915451857E-06	-1.75051552838576E-06	-2.71493899959992E-06	0.987969517599866	-0.12087263072929
5.1	-0.977776997113785	0.148626227710825	-2.59724954643365E-06	-6.38143852847248E-06	-1.00714281316805E-06	-1.94922675360121E-06	0.987885649402549	-0.12215832847685
5.2	-0.952125918112843	0.270506278008219	3.99087468593176E-06	-4.36089226315778E-07	-5.42951852977393E-06	6.29790342282744E-06	0.987773001041198	-0.124241780273041
5.3	-0.911028243685252	0.38845415731854	5.13320774800274E-06	5.99737799958148E-06	-9.59852894056468E-07	-3.58075118439089E-06	0.987657249480422	-0.126598898065067
5.4	-0.855007789889929	0.500260883659406	3.05695861372521E-06	-2.01498008582093E-06	-1.12967688083777E-05	2.20228466325518E-06	0.987510086004031	-0.129537951810153
5.5	-0.78464269539168	0.603315377619678	-4.32424980980766E-07	-2.19038119402769E-06	-5.7747454151074E-06	6.11729386510916E-06	0.987141684992977	-0.132240536649259
5.6	-0.702420985785482	0.696303749106586	2.3778818858231E-06	7.29048376654221E-06	-5.36149360839576E-07	2.92424777808068E-06	0.986834830598606	-0.134774387615238
5.7	-0.609546477869963	0.779068891014788	-2.56661649975215E-06	2.35734957782096E-06	7.89807177206687E-06	2.77250539041793E-06	0.986487145114011	-0.137019291266782
5.8	-0.50665798226403	0.849040205458781	-4.63990886536648E-06	5.09528691771883E-06	-3.65543906533827E-07	3.41631341577126E-06	0.986400081889634	-0.13896949137764
5.9	-0.396214034293139	0.905907806697807	6.3465497651688E-06	1.49857919372113E-06	-2.70775329560603E-06	2.54180539694027E-06	0.986498776198111	-0.140895541616068
6	-0.279207570703849	0.948726289989041	3.52018750397486E-06	3.29733728810587E-06	-3.27772041391991E-07	-1.43292021990455E-06	0.987226640030828	-0.143245674078611
6.1	-0.157496781132405	0.975089509237656	9.16518821148298E-06	1.51254949112724E-06	-1.29282692842678E-07	-1.80596003231888E-06	0.986201898329367	-0.145847261981059
6.2	-0.0342678582757574	0.986176330491291	2.43255956504961E-06	-1.72830974979928E-06	1.47264221143054E-06	-4.83574052161731E-06	0.984816777280647	-0.146960293601853
6.3	0.0891907197396277	0.982609272304247	-4.347199383681E-06	4.23600215388448E-06	-6.14342848972242E-07	-1.72050788123186E-06	0.984000218206211	-0.148214415661055
6.4	0.211627412922157	0.964337438080987	-4.25510951399621E-06	1.06814488687764E-06	-1.75624025557242E-06	8.82384175644952E-06	0.983890335312417	-0.149745212200444
6.5	0.332177300001354	0.93025503700988	2.44526664146531E-06	-1.3297244633629E-06	1.48172111161225E-06	-2.92401522022911E-06	0.983901413507671	-0.152954095192812
6.6	0.445573075176581	0.880511784805525	-4.71925523881352E-06	-2.24745701960799E-06	-1.85890578931862E-06	-6.61768040293971E-06	0.983014582401027	-0.155154769908264
6.7	0.551914180572413	0.818028321082736	4.14954200136248E-06	-6.55582302199798E-07	-4.66132827419131E-06	1.00422787768135E-06	0.983051079741201	-0.156883594140527
6.8	0.649885096385359	0.742781635180446	3.74770109317327E-06	-2.06891321786835E-06	6.19576880385631E-06	-9.13079142513319E-07	0.983064786044211	-0.158846165825183
6.9	0.737646621257438	0.655987071806145	2.0395732032919E-06	1.63937045122043E-06	8.76160364946121E-06	-2.73484625817532E-06	0.98326176826743	-0.160650932160967
7	0.8141355866426	0.558715902251301	2.16090078530899E-06	4.09151615847831E-06	-1.02591053729153E-07	5.37104386882762E-06	0.983546843070868	-0.162743587645142
7.1	0.877413671103559	0.452676075576326	-1.3564054494812E-07	1.71336053083647E-06	8.24934311428759E-06	-4.62058692368783E-06	0.982809288272642	-0.16487852871285
7.2	0.9268743351105	0.339567966103257	4.83949065114603E-06	-1.38071306712708E-06	7.23288343428419E-06	3.78745934833336E-06	0.982062169443173	-0.166374849732882
7.3	0.961574449842177	0.221107766452877	4.85258458532574E-06	-1.09435822955425E-06	-7.30663414567974E-06	-7.38134102010789E-06	0.981097702759288	-0.167827063303422
7.4	0.981188569794966	0.098968830315582	-1.86342259225498E-06	9.86411385754852E-06	1.44116059290685E-06	-4.05414787552232E-06	0.98004991342841	-0.169492692905177
7.5	0.986183909047601	-0.0240061212400492	8.3455884531099E-07	8.0804163716242E-07	1.66454434246429E-06	9.98024231414706E-07	0.980265850808183	-0.170640793012002
7.6	0.976277993294317	-0.148739962541063	1.46455078816264E-06	-2.60669365572864E-06	-5.40057063715112E-06	-3.64613232263651E-06	0.98099528968044	-0.174434427726945
7.7	0.949684861981403	-0.271266762169174	5.56288480405039E-06	2.42696627351819E-06	-6.8652854232588E-06	1.20220087342441E-05	0.980623694111443	-0.178192419365091
7.8	0.907970195879195	-0.388853703771691	-5.97497098003464E-07	-5.24390698348519E-06	3.74803656638217E-06	-4.72528944893771E-06	0.980364151540117	-0.181443760875444
7.9	0.851967972461372	-0.499529287085887	8.84614765321804E-06	1.55625872184067E-06	-9.50767114876129E-06	-8.66632732967337E-06	0.98035281142293	-0.184231866276122
8	0.783921080637821	-0.603095284184654	-6.65833706674783E-06	-1.65176375986864E-06	-1.20276201683127E-05	2.46228455398359E-06	0.981420768962449	-0.187686975362884
8.1	0.701616605151766	-0.697410275843695	5.07796887258443E-06	7.41272318842524E-07	2.88953724673943E-06	2.26905706302777E-06	0.980343209296843	-0.191630303823391
8.2	0.60866809719217	-0.779736234865238	3.56997602523187E-06	-2.56889254965636E-06	-3.65962230753645E-06	-1.16245018585761E-05	0.979442809570631	-0.194106377314448
8.3	0.506075164688921	-0.849849710341196	2.73161864959985E-06	-1.85222470723323E-06	1.62743474439502E-06	5.29569135138861E-06	0.978595209905476	-0.19666060119354
8.4	0.395296710994975	-0.906332845760169	-5.55103110934671E-06	-1.03018669791221E-06	1.04982906850741E-06	2.95340529691926E-06	0.977834732809889	-0.19912743613311
8.5	0.278222202243855	-0.948167894599446	-3.29009925368701E-06	1.6176021142366E-06	-4.78018689958205E-06	-5.00964983978495E-06	0.977250104973195	-0.201927508890185
8.6	0.156799661392	-0.975414636303542	-8.13914927774296E-06	1.36587702183658E-06	-4.32270560039004E-06	-6.86869284404326E-06	0.976709973071515	-0.204425355642102
8.7	0.0326130952900442	-0.987549238438747	2.25124243099899E-07	-2.14065267423841E-07	6.11621480439644E-06	5.24698265986942E-07	0.976513509312963	-0.206839910689261
8.8	-0.0925192218891919	-0.98399205957239	1.02976028879369E-06	-1.81617245329724E-06	-2.38810952687943E-06	-1.28723813796935E-06	0.976422852883992	-0.209153810261858
8.9	-0.216265987956907	-0.964913860234047	-3.10076626490271E-07	3.03701554038784E-06	-1.23049971623372E-06	-1.64661620733079E-06	0.976557574177459	-0.211390407070918
9	-0.335197956131249	-0.929224632753325	2.97585879384133E-06	1.5983821661642E-06	-1.58335723844734E-06	2.11225576551321E-06	0.976487716387225	-0.213711786887521
9.1	-0.448481110045077	-0.880786147260058	-9.33516055332899E-06	2.23570183199075E-06	-1.57524035689213E-06	2.40788615826802E-06	0.976388195116334	-0.21591836231075
9.2	-0.555928338609639	-0.817949647487087	7.52253803112594E-06	-2.06832413652372E-07	-9.13430904276881E-06	1.93977806518685E-06	0.975988207293345	-0.218549327390156
9.3	-0.65425644633636	-0.741826743099572	1.00987378867082E-07	-7.18121528042521E-06	1.59497194067256E-06	-1.2982128295151E-06	0.975555283214746	-0.221097664325332
9.4	-0.741896977241343	-0.653613528913904	5.93939192829235E-07	2.49088539376835E-06	1.63076453311553E-06	-3.60157308837392E-06	0.974724098175547	-0.223887003982327
9.5	-0.816683135772062	-0.555598184734974	-2.89549581435187E-06	6.6502106648995E-06	4.73723697496946E-06	-1.35832540525259E-06	0.97428850953231	-0.226147452220439
9.6	-0.879874759910627	-0.449004300458723	-5.0219927645364E-06	-5.22816515686368E-06	4.76389183336793E-06	2.899928706697E-06	0.974151058308597	-0.229480743582539
9.7	-0.929456740792339	-0.33453218543693	-1.99391962195531E-06	-5.08952451772802E-06	2.10142405367418E-06	1.54179591296847E-08	0.973646703998244	-0.232308510005464
9.8	-0.964724546246692	-0.21407735369337	6.04526203103674E-07	-4.29348041507871E-06	-2.94176430862525E-06	-2.5303630493324E-06	0.973374436285461	-0.234476877414562
9.9	-0.984544763641638	-0.0895040420071622	-6.14114240454499E-06	4.20416359318698E-06	-3.09671531282503E-06	1.66130243545449E-06	0.973205938656147	-0.236055538315545
10	-0.988169149062916	0.0365569819349564	3.58662630984054E-06	-3.38112423219916E-08	8.23744703656335E-06	1.11668216236903E-05	0.974204154710795	-0.238218703155373
10.1	-0.975120748833223	0.161626979085689	-2.86805922360997E-06	-2.53618561265203E-06	-2.01576675773016E-06	-2.51043841175421E-06	0.973283789320906	-0.241202714640861
10.2	-0.946705531977577	0.284012006571615	2.36639254001176E-06	-1.02462022531656E-06	-2.77907704621806E-06	-1.07164095904999E-06	0.97240629586527	-0.243021755563274
10.3	-0.903133350175089	0.40191819990971	7.78813854792761E-06	-5.97333464130658E-06	3.87545003275545E-06	8.2612995677455E-06	0.971472841602325	-0.245118916801384
10.4	-0.84545558692387	0.513778529097488	1.71176984882992E-06	2.5062165748344E-07	6.29732913987883E-06	-1.19466021328968E-06	0.970401552459856	-0.247512395367975
10.5	-0.772353386935616	0.617409950705598	8.36499827479625E-06	-4.16058584480633E-06	-4.93301595664938E-07	1.97771473438646E-06	0.969045210171946	-0.250647100094954
10.6	-0.687687629444036	0.70800402846643	8.94915919136098E-06	-1.27468341236475E-06	-1.47393222224599E-06	1.36626952945453E-05	0.967764506471614	-0.252795709965647
10.7	-0.593357536628295	0.787867882302653	8.02990115545443E-06	-1.90507753906966E-06	-3.05794177522968E-06	-5.29027229755981E-06	0.967065361941563	-0.255231199156253
10.8	-0.489053284529694	0.85601085667205	2.45512263573961E-06	5.25782461970269E-06	-3.6346912834527E-06	-2.05803156385957E-07	0.966533082623238	-0.257270454339503
10.9	-0.376224224136509	0.911107208057504	-5.57005365491427E-06	4.87239998845796E-07	1.60104502501007E-06	4.03648104643392E-06	0.966159199170981	-0.259119744662615
11	-0.2566733481746	0.950474695997795	2.40507778711615E-09	-5.23368374515507E-06	-8.39876318502248E-06	2.23797090563702E-06	0.965943262083544	-0.260383908047393
11.1	-0.134531713612869	0.974122008420617	6.32985327873402E-06	4.09479992716467E-06	-1.89994485950766E-06	1.07895419855857E-05	0.966085967261001	-0.262031529300525
11.2	-0.0112239627203798	0.982616496733044	1.58413814483576E-06	1.3561607742741E-06	5.16118404784577E-06	8.91675374418598E-06	0.965755888090996	-0.26419901794701
11.3	0.111905010029834	0.97568706866213	-4.65876112489709E-07	-1.73982580936988E-06	-7.06901084295322E-07	-4.40244569505282E-06	0.965251338184648	-0.26656673380309
11.4	0.233132604714576	0.95433128451478	2.45405185463116E-07	1.18725975001624E-05	2.4341681317563E-06	4.93017218710951E-06	0.963952778061995	-0.269634703290067
11.5	0.351844824771529	0.918246984407996	6.19733071303909E-06	-3.31661791124132E-07	3.14787967818536E-07	-1.88326603303423E-06	0.96303161474704	-0.272033067348895
11.6	0.463825632329665	0.867090351192786	-6.00616567757992E-06	3.08084804976151E-06	-4.87149330751411E-06	1.92185603999292E-06	0.9622190976565	-0.276110749703351
11.7	0.56824802471588	0.803454733531801	3.32779915167411E-06	-1.80097283531594E-06	-1.70576791272788E-06	2.24078127315026E-06	0.960856596042624	-0.280342818832523
11.8	0.664503453039934	0.727281422918572	-8.11043282950324E-07	9.80414503352224E-06	-2.7075218701236E-06	1.0551336009439E-05	0.959243839324392	-0.284279627342034
11.9	0.751435187352321	0.639725927159193	-7.30857035426968E-06	-1.03166303206349E-06	-3.90608921314144E-06	1.12707824583394E-05	0.958306707254428	-0.286644266149771
12	0.828941979626692	0.539872228420181	-6.4420999456726E-07	1.38780793553515E-06	-3.15069850559813E-06	-1.92585769484291E-06	0.958081341744359	-0.289197133842355
12.1	0.891017793314096	0.428105527493372	-3.86968656537208E-06	5.01852660231492E-06	-1.30830944672577E-06	8.44582058793862E-06	0.956295035252915	-0.292039705820187
12.2	0.936446531070572	0.310758208291724	-5.96506042060877E-07	-3.80326125854701E-06	-3.12405091425619E-06	-7.17299507551694E-07	0.95473437536457	-0.294363257964649
12.3	0.96639399829253	0.19048791369423	3.61913101173565E-06	3.41762194279588E-06	-3.40664756648532E-06	6.2921543203036E-06	0.953033903320232	-0.296745123004237
