# GHZ S RI R 50
0.2	-0.968009526698048	0.250284366842942	8.83068599870842E-06	5.34069050165844E-06	1.1422186688893E-06	-2.89295978307109E-06	1.00122282560281	-0.00613704998444767
0.3	-0.929547291276672	0.370132153876429	-7.67825772888572E-06	-8.3289089863186E-07	-2.02844728729262E-08	3.66771576415497E-06	1.00155769718762	-0.00904382792095619
0.4	-0.876055762849943	0.484497143357331	-2.21670815769272E-06	6.35614259196076E-06	2.91897776890155E-06	5.76019095649789E-06	1.00236789165711	-0.0116282959129939
0.5	-0.808034950117931	0.592497151836057	-2.66083559857607E-06	5.50194187145028E-07	1.05642648814021E-05	4.91083308169424E-06	1.00310380722549	-0.0163843009149107
0.6	-0.725984171731139	0.689094565741554	-1.73103595652983E-06	-1.83363311839381E-08	4.17715751905575E-06	-1.03706140818039E-05	1.00162603315086	-0.019597541846555
0.7	-0.633844781656401	0.775020172968164	-2.05463956972265E-06	9.90853870846921E-07	3.7915873036308E-06	1.12011009416925E-05	1.00132161355393	-0.0218527586660091
0.8	-0.531279615206104	0.849188573323175	-5.62906799578501E-06	3.79397979250645E-06	-3.17917790725005E-06	-2.14889243339459E-06	1.00138595202452	-0.0237611893989554
0.9	-0.420173393377172	0.909644090068905	-6.74302939805256E-07	5.27085082793619E-06	3.27960033258005E-06	-2.94085797837298E-07	1.00151029541844	-0.0256279649795985
1	-0.301800150045002	0.955679658866457	1.57652808080732E-05	-3.68662548419107E-06	-9.64528385244283E-06	5.18546763703154E-07	1.00295278550816	-0.0267536761251455
1.1	-0.17922146497176	0.986157219547026	1.34989790211796E-06	-2.99950095427106E-06	9.45118360846674E-06	1.26701886721825E-05	1.00298861239847	-0.0307391528137897
1.2	-0.0526764514727436	1.00073920462438	-7.9558907888896E-06	-3.26808546660684E-06	-3.11991479352179E-06	-4.49985161408217E-06	1.00145842507455	-0.0324248923968935
1.3	0.0750265217080099	0.998768235894389	1.87956941373998E-07	3.35032293792798E-06	1.93960236203819E-06	3.37860139705764E-07	1.00061180632986	-0.0342240676437555
1.4	0.200684713941391	0.980342177018923	3.67292251771197E-08	3.78247307422808E-06	-2.55884654978717E-06	-5.62791200069945E-06	0.999174280020687	-0.0366138567066903
1.5	0.3230862919985	0.947271472686679	3.19893146296029E-06	-2.80317615555585E-07	2.72155930448729E-06	2.09246458135967E-06	1.00054313464986	-0.0399418895826515
1.6	0.439631564701686	0.898610742569175	1.78597999950561E-06	-1.95480073678968E-06	-9.10763976676207E-07	-3.0713982820433E-06	0.999998551573514	-0.0438470568776278
1.7	0.548677571763243	0.836139089949433	-9.99682553875746E-08	-3.53802282233393E-06	2.03267734432911E-06	4.93734663518108E-06	1.00086328915202	-0.0458588139112706
1.8	0.648843553902866	0.760860077695909	-2.07161168449488E-06	-1.81365765188962E-06	-4.59276649052993E-06	1.84035894237153E-05	1.0011825362886	-0.0481779683587481
1.9	0.738182671514715	0.674598067777012	-4.40843933774833E-06	-1.46396859077639E-06	-4.95469424838394E-06	-6.01542933482091E-06	1.00173998977794	-0.0488851556882826
2	0.819528427109325	0.578922697912579	-9.5543612816742E-08	-6.79068483680647E-07	-1.68064474530883E-06	-1.42804207243314E-06	1.00615830729716	-0.0516615745453123
2.1	0.887191721236076	0.467009009855179	-1.1092708186389E-06	9.53091889467515E-06	2.00924882180455E-06	-3.92090982448004E-07	1.00541920822752	-0.0588328011341672
2.2	0.937036139606061	0.350876810881089	-5.46471960811714E-08	-5.96853110230815E-06	-7.27035855203513E-07	2.7593518330159E-06	1.00351357040034	-0.0618380213641188
2.3	0.972570804439517	0.23029214160592	-1.30777656745327E-06	2.78950350043698E-06	-2.05645859449494E-07	1.20454688532021E-05	1.0023995588767	-0.0637239169824446
2.4	0.993150028007697	0.105602779171881	-5.92797428053315E-06	-3.69216861133556E-06	-1.76008094902469E-05	1.4714048116142E-05	1.00186072166567	-0.0666574413703554
2.5	0.998872011028803	-0.0201567665103469	1.80755624501964E-06	-2.98585601598201E-06	-1.75077602365625E-06	7.58868062615193E-06	1.0019900563457	-0.0688960491705392
2.6	0.988086664641883	-0.14483753671171	2.87868235883865E-06	9.10291553645178E-07	-1.73873479707327E-06	4.52990556849804E-06	1.00186876270368	-0.0725240715060708
2.7	0.962137781725812	-0.267857341857147	3.89385316728203E-06	1.04878019806527E-05	2.35424314352451E-06	3.87981548373249E-06	1.00159498158745	-0.076095707167424
2.8	0.920480705507782	-0.387337157793087	-8.31782001074436E-07	-2.30322274996053E-06	2.10183003071746E-07	-1.9015256170674E-06	1.00145381357512	-0.07906325722607
2.9	0.863914935478437	-0.499845795055903	3.73533654925237E-06	-8.39678114369048E-06	-1.37834018202619E-06	-1.43092674834522E-05	1.00034873458981	-0.081683282276826
3	0.793814405250149	-0.604550338844209	3.7700568093407E-08	6.68897328961097E-06	-1.4818148473579E-05	5.44631740263024E-06	0.999634766171858	-0.0844401678233521
3.1	0.711608839510324	-0.698705253308417	-4.94642387511917E-06	7.90893840747312E-06	5.840332563246E-06	-1.34451331334772E-07	0.998537975190205	-0.087155590994131
3.2	0.616329990931041	-0.782196889019355	9.84395023118147E-07	2.12661403081977E-06	-4.57755123257346E-06	5.22707285146068E-07	0.997157105754789	-0.089240349893173
3.3	0.511661258380156	-0.852537546940512	7.07025956025643E-07	-1.47180671793203E-06	-4.58935745640628E-06	7.80393974637506E-07	0.995604442231561	-0.0927977244562853
3.4	0.398667377671946	-0.907382540695246	6.47893406193725E-06	1.64875580722269E-07	-8.22218990567114E-06	-7.09954331103842E-06	0.993683852287058	-0.0945339407921891
3.5	0.284725269768374	-0.947838902285552	-7.67084644885288E-06	2.02108760085712E-06	-5.95802977125448E-06	-7.92200808289318E-06	0.993255509542928	-0.0951195842893402
3.6	0.161945918065836	-0.979289157821314	-8.90234944014388E-07	-4.37837278609637E-06	-7.8695183558526E-06	-6.2783495887712E-06	0.993899476115182	-0.098666641757774
3.7	0.0351171657794493	-0.99128597777141	-6.77909269596407E-06	-6.71379992269831E-06	4.85923056717811E-07	-4.77113454409048E-06	0.992449022786101	-0.10199908943622
3.8	-0.0908598881866278	-0.986177457876574	-3.63186115281726E-06	1.11613248044611E-06	-3.31779619497825E-06	-2.43387472543106E-06	0.990653888199934	-0.103487899572823
3.9	-0.213285465466787	-0.965752838391189	-4.49592234468574E-07	3.50864160641724E-06	2.04132085885848E-06	-1.23548201082161E-06	0.990113349952542	-0.104422887966556
4	-0.332915710256547	-0.932351753664017	1.17674008685756E-05	8.01747644414279E-06	7.23552614707617E-06	-4.11299983147125E-06	0.993855037844316	-0.10545771193676
4.1	-0.448548690932835	-0.882304895279142	5.22780723805698E-06	1.26124281574196E-06	-3.37682178911003E-06	6.68552416939254E-06	0.992323058740197	-0.111394085656685
4.2	-0.555231586953039	-0.818435939929616	-7.09215174422556E-06	-1.1186479662722E-06	-8.24396187508298E-06	5.13151107162893E-08	0.989499728018492	-0.114013381295506
4.3	-0.653026453340411	-0.741804280385404	6.74572280013997E-07	-2.36703996506894E-06	5.20373428270433E-06	8.21687527967973E-07	0.988254372031169	-0.115510494722008
4.4	-0.740736550700179	-0.653582947212587	4.43763523941101E-06	-1.81317296856926E-06	-8.51206213822439E-07	1.3504222075371E-06	0.987359242278262	-0.117431064490988
4.5	-0.817115302310489	-0.554129786603106	6.77641616569234E-06	1.78391454814907E-06	-8.37319736266631E-07	-3.23426389609322E-06	0.986980151780179	-0.120538763334141
4.6	-0.879534722398476	-0.446415474045778	2.47273618864792E-06	2.9074248049504E-06	-6.44411828081235E-06	9.75909814088401E-06	0.9844517933704	-0.123184144531352
4.7	-0.928403114954438	-0.331168258714697	-1.39001380563263E-05	6.02075841312521E-06	-3.44007857435001E-06	7.70417073628904E-10	0.983513497910278	-0.124445081875191
4.8	-0.962494845555266	-0.210784157577189	-3.19136640857045E-06	-5.0760762486038E-06	-5.4624893332187E-06	2.40443517855828E-06	0.982444860574845	-0.126479122732464
4.9	-0.980338973757702	-0.0861855608403482	-1.10486852401263E-06	-8.47707096513689E-06	-4.18165299323222E-06	7.79514425345026E-07	0.981125518752833	-0.127779105709727
5	-0.97808380361344	0.0371721495312858	7.45388438006534E-06	-1.63345383081195E-06	-1.7624270482661E-06	-2.67437456883819E-06	0.980174075593491	-0.128478902782877
5.1	-0.966266453003121	0.156295074916294	-2.62199238026087E-06	-6.30225906091935E-06	-1.01271416360619E-06	-1.92340371767167E-06	0.979542147786101	-0.129125080730452
5.2	-0.940101839654136	0.276412810045569	3.94984228280253E-06	-4.60130489941332E-07	-5.33340179466307E-06	6.27636174088591E-06	0.978695308744293	-0.13049678240595
5.3	-0.897916720112216	0.392006914730226	5.1191591560707E-06	5.90235968446649E-06	-9.73149297095304E-07	-3.53764915484761E-06	0.977866284976249	-0.132046108179076
5.4	-0.841591068697249	0.500523450892131	3.01148579216704E-06	-2.00839272167969E-06	-1.11566931300057E-05	2.23751238100464E-06	0.976665541857512	-0.133795228441386
5.5	-0.773019431691748	0.600541045438067	-4.34165428428897E-07	-2.16462344850647E-06	-5.69190941778411E-06	6.06629968045854E-06	0.976951892994897	-0.133920103472692
5.6	-0.69221734502788	0.692665441825919	2.37555629276936E-06	7.21022276204944E-06	-5.2211657591097E-07	2.896460647557E-06	0.977744341305458	-0.137093249267894
5.7	-0.600048739285212	0.773821415591545	-2.53293872050001E-06	2.33988867350777E-06	7.8229825186777E-06	2.72089036746918E-06	0.976417072708705	-0.139221612322182
5.8	-0.498536338527881	0.841622271516227	-4.57772905886146E-06	5.04661359437292E-06	-3.54869194722001E-07	3.37841887303878E-06	0.975326605806703	-0.139878210234782
5.9	-0.391162649095558	0.896456748523248	6.27075172218311E-06	1.48401900326176E-06	-2.67699870209544E-06	2.5103983061287E-06	0.975287908483746	-0.138644025332019
6	-0.277644569936701	0.941125397628998	3.48247368108015E-06	3.27863609738294E-06	-3.21428109333106E-07	-1.42176952332347E-06	0.980962935122517	-0.139701794458379
6.1	-0.155627286441546	0.967770511256048	9.09287979005756E-06	1.50314182353055E-06	-1.27783993568159E-07	-1.79182660633445E-06	0.979553715960554	-0.145491230424626
6.2	-0.0337724845285158	0.978319541877812	2.41257448677476E-06	-1.71255050534453E-06	1.46215847802601E-06	-4.79391986317351E-06	0.977147050212816	-0.146219315588903
6.3	0.0879183889196419	0.974823081549633	-4.31430948536393E-06	4.19566340993944E-06	-6.07426283671355E-07	-1.70645191292516E-06	0.97609037078258	-0.146882138638313
6.4	0.20890608203109	0.958347016690588	-4.22469849441814E-06	1.05510345376747E-06	-1.75371022679722E-06	8.75603069815943E-06	0.976496852113543	-0.14763459212807
6.5	0.332451413875648	0.923877925203829	2.42373140596024E-06	-1.32462428043472E-06	1.46425212212316E-06	-2.90467276428489E-06	0.976729584532131	-0.15315553490917
6.6	0.441963837144237	0.870701774568848	-4.66639245364145E-06	-2.21769305298201E-06	-1.84262698943606E-06	-6.53958089255097E-06	0.972317608061846	-0.153973891394175
6.7	0.544843948162329	0.809712921341884	4.10038464122213E-06	-6.41838270664542E-07	-4.60648443558514E-06	9.85556905275212E-07	0.972260854679237	-0.153237149057297
6.8	0.640643305095759	0.736224834996449	3.70757590666604E-06	-2.0331169349843E-06	6.12243645581657E-06	-8.84607101492351E-07	0.972559164128695	-0.153758781727068
6.9	0.726430396428743	0.651746628102466	2.00635923303444E-06	1.62764558601181E-06	8.66252514006375E-06	-2.66104019843184E-06	0.972994852618452	-0.15375006938039
7	0.802697904569567	0.557569040982624	2.10844011867187E-06	4.06076106675518E-06	-1.38619477991313E-07	5.31032730774424E-06	0.975677547413697	-0.15487607875504
7.1	0.865827280031445	0.452704954508237	-1.44826391318229E-07	1.69570801535962E-06	8.19672347896937E-06	-4.52458871856165E-06	0.974725920713528	-0.158215508521306
7.2	0.914550653209045	0.341407263817189	4.79889642451222E-06	-1.33806481214319E-06	7.13748026130345E-06	3.79221118415962E-06	0.973273907868235	-0.15928126841209
7.3	0.948511519355972	0.224833862407529	4.80696575099638E-06	-1.05500872727159E-06	-7.18648768552867E-06	-7.34410333354114E-06	0.971409380286897	-0.160309320788486
7.4	0.965992040954322	0.105802450816108	-1.89464888783134E-06	9.72033284706904E-06	1.44488047608247E-06	-3.99119443856982E-06	0.96785492024235	-0.160070157728265
7.5	0.973053099220482	-0.00910843375480643	8.11802743168771E-07	8.05386663608054E-07	1.6265109130398E-06	1.0023404423956E-06	0.970051020991345	-0.155027235725358
7.6	0.96892229286146	-0.133083855456427	1.48496653135192E-06	-2.55691080051402E-06	-5.28879757761537E-06	-3.68159452891177E-06	0.97466105622494	-0.160034830903075
7.7	0.94478475284268	-0.254716482877542	5.47200530482227E-06	2.48306451849237E-06	-6.97027052532684E-06	1.18021786751674E-05	0.974473706031536	-0.16383495867015
7.8	0.906232932758413	-0.370909757925007	-5.08254086522315E-07	-5.20559672444787E-06	3.78933422751347E-06	-4.62227687309536E-06	0.974704183532592	-0.165809553707633
7.9	0.855429621207476	-0.480206070456732	8.75383680481103E-06	1.71299405673531E-06	-9.27580990812037E-06	-8.78513928171623E-06	0.976616444889376	-0.165726369755555
8	0.795737824728823	-0.589713085538679	-6.63136424075096E-06	-1.78325070996088E-06	-1.20853639756981E-05	2.22911661407169E-06	0.984959905591482	-0.170142333685785
8.1	0.709657303799614	-0.690431813485121	5.07899985174037E-06	8.11284792670572E-07	2.86524000196452E-06	2.31290409752295E-06	0.98294849960305	-0.179251206090075
8.2	0.615174543095367	-0.772620221569921	3.60443423479655E-06	-2.52832012424874E-06	-3.52294085866189E-06	-1.16799418158956E-05	0.980743638425596	-0.181587712014947
8.3	0.512846283850222	-0.84286444321625	2.75519690060215E-06	-1.82235188882558E-06	1.56788546820828E-06	5.31882070066913E-06	0.980154611211998	-0.183687459778266
8.4	0.402947508462971	-0.899387038679695	-5.54346514964408E-06	-1.08949660746436E-06	1.019231025112E-06	2.96627526964344E-06	0.980380229692978	-0.18600534547946
8.5	0.288843107935319	-0.942971896950153	-3.3047227764649E-06	1.57865892953874E-06	-4.71832483885365E-06	-5.05808188211427E-06	0.980613551030532	-0.190166411831218
8.6	0.166599530832888	-0.974371659880003	-8.16331455615663E-06	1.2596769275427E-06	-4.23548538438773E-06	-6.93085210816869E-06	0.979259104822147	-0.192636439859836
8.7	0.0405837294732709	-0.988048077074152	2.28435112764161E-07	-2.1179441246008E-07	6.12601212311602E-06	6.0342594870289E-07	0.979571613659383	-0.194508328153294
8.8	-0.0862501169808206	-0.985378908740397	1.05510020005381E-06	-1.81174797756456E-06	-2.38306691632443E-06	-1.32028115081427E-06	0.980234190262145	-0.196663222250145
8.9	-0.212429412803453	-0.965619998734887	-3.39662161472284E-07	3.05024704524211E-06	-1.22186625281566E-06	-1.66665865924886E-06	0.981161169750584	-0.198862579458877
9	-0.328938994269607	-0.926484305581204	2.97164785084197E-06	1.62246556320518E-06	-1.6014728193383E-06	2.10618303516413E-06	0.982147983569234	-0.201137592092163
9.1	-0.439882316438405	-0.881894913431536	-9.36947065601722E-06	2.15517571545331E-06	-1.59928661498709E-06	2.39738891736525E-06	0.983223632578595	-0.203944477695444
9.2	-0.547967465254665	-0.821523838871962	7.53931212490832E-06	-1.36629446566967E-07	-9.1705275711101E-06	1.85786306035596E-06	0.983671215253123	-0.20751758144804
9.3	-0.64714355198631	-0.747653385849137	1.71151434304692E-07	-7.19460532696803E-06	1.61081207697889E-06	-1.28527255263668E-06	0.983426604546697	-0.211257918159197
9.4	-0.73502409275075	-0.661048928059389	5.68014000186216E-07	2.50001695475759E-06	1.6710394177077E-06	-3.58820003908401E-06	0.981700847026779	-0.214223690942949
9.5	-0.81111245100242	-0.571119164653268	-3.00850396937708E-06	6.62329976835397E-06	4.77200205980242E-06	-1.28746479370714E-06	0.982736614952883	-0.214890719212543
9.6	-0.885271848856349	-0.464995184381658	-4.98863688053826E-06	-5.34552682887156E-06	4.76218194050411E-06	2.99377755145303E-06	0.984086943685104	-0.220395882513171
9.7	-0.939183486119505	-0.345984623820183	-1.95098003963805E-06	-5.16385130094872E-06	2.12181863366328E-06	4.13625036927261E-08	0.983140939933458	-0.224093574102706
9.8	-0.976269152280558	-0.222041295023537	6.58963329381949E-07	-4.33079160459608E-06	-2.94355853766703E-06	-2.5893984638933E-06	0.982572810966613	-0.225906390399461
9.9	-0.996688963850086	-0.0946162009320106	-6.25545189617435E-06	4.1817100702456E-06	-3.14923513368344E-06	1.64494856482223E-06	0.983817397042554	-0.22517381177668
10	-1.00027708689308	0.0321537467419834	3.63455655931478E-06	1.19868991375604E-09	8.23636224744808E-06	1.1396448092212E-05	0.991639530438808	-0.230345649229317
10.1	-0.990036454675807	0.158412850416042	-2.88393617351697E-06	-2.59156664459263E-06	-2.02103739970051E-06	-2.55859851244764E-06	0.987544607582586	-0.238887313367974
10.2	-0.963581569291599	0.283958086225416	2.40550796427704E-06	-1.0187928389E-06	-2.80658479465164E-06	-1.10810889118725E-06	0.984722184235658	-0.24035629598528
10.3	-0.921340327446245	0.405400359156596	7.94752801034145E-06	-5.99816433209067E-06	3.86629086365612E-06	8.41099221742857E-06	0.983813166237927	-0.241922277551199
10.4	-0.865082602166835	0.522298390816762	1.73941605472507E-06	2.66464648297335E-07	6.41331429094091E-06	-1.17265239815342E-06	0.984249976200182	-0.244102285206397
10.5	-0.787975409839438	0.6330859876523	8.52476201548961E-06	-4.22137454860533E-06	-5.05823633531011E-07	2.01284388160041E-06	0.984385441900799	-0.250065227389711
10.6	-0.699528085735161	0.723937638982259	9.09169363401236E-06	-1.28662931685194E-06	-1.50971927142083E-06	1.38771729810169E-05	0.982019552534743	-0.253018706759058
10.7	-0.60360610973918	0.805309827114361	8.15917502019083E-06	-1.92979362300372E-06	-3.10294898562295E-06	-5.37670621655515E-06	0.982166935027591	-0.256608669766397
10.8	-0.497186512190385	0.875741030832413	2.4971417372122E-06	5.34299917921338E-06	-3.69423949703888E-06	-2.07895447008297E-07	0.981500298071946	-0.260696596522072
10.9	-0.379682121581448	0.932298266752642	-5.65606458625676E-06	5.07815315882967E-07	1.63547979635296E-06	4.0959091065825E-06	0.98077416818686	-0.263936244415757
11	-0.257953148667833	0.967647827686298	-4.68663292773925E-09	-5.30275663259504E-06	-8.5065567170499E-06	2.2789370718231E-06	0.980478326861768	-0.267398871566081
11.1	-0.137982000211394	0.994713889346138	6.42859393302385E-06	4.15447280558881E-06	-1.92395688889877E-06	1.09554724876847E-05	0.978135829045335	-0.271358701509362
11.2	-0.0102767190313824	1.00667936144941	1.61278565011303E-06	1.37498761650116E-06	5.26385569401121E-06	9.05144672505187E-06	0.975415977781889	-0.274093679734526
11.3	0.118825391260534	1.00052509015171	-4.80675727776123E-07	-1.7666454312336E-06	-7.36558467219893E-07	-4.47223815929974E-06	0.972063134548733	-0.276141616214187
11.4	0.245272012652565	0.977250138302227	3.21977065385093E-07	1.20534113975203E-05	2.50177992600418E-06	4.99095476709126E-06	0.96791869593513	-0.277285486088554
11.5	0.367431674670487	0.937900292488606	6.28136090862612E-06	-3.66905850770487E-07	3.09822722641479E-07	-1.91085733145795E-06	0.970209391435763	-0.276183816525316
11.6	0.482220836510415	0.883344733583866	-6.0805898485853E-06	3.16333106622005E-06	-4.93522706502952E-06	1.97987874555779E-06	0.970549272551453	-0.283858963483642
11.7	0.588653337824969	0.815619912120062	3.36365555243898E-06	-1.85251436499681E-06	-1.71430542785299E-06	2.28672407166927E-06	0.967202950808527	-0.288660141676841
11.8	0.684923887163001	0.734750942418337	-7.43521491106964E-07	9.94111263914289E-06	-2.65927275454929E-06	1.07133976507972E-05	0.964555328979632	-0.291186078279223
11.9	0.769435749650389	0.644853301853488	-7.40605809639994E-06	-1.00084466107547E-06	-3.8874898918603E-06	1.1434966991671E-05	0.966159985687359	-0.290318572157535
12	0.849262645478897	0.545136608344191	-6.47252160771294E-07	1.41566430645439E-06	-3.21665608087079E-06	-1.9408034413549E-06	0.974078864065061	-0.297700319045194
12.1	0.910147541266203	0.427637319802403	-3.8777896492567E-06	5.13657101393138E-06	-1.24111647138415E-06	8.59055725754022E-06	0.968060839943881	-0.307616136152357
12.2	0.953305180033616	0.308823237767345	-6.44918083999034E-07	-3.85043451060237E-06	-3.17550606727123E-06	-6.9450038389895E-07	0.963632026740666	-0.311224722029042
12.3	0.982784873547807	0.187348438702591	3.70893697974898E-06	3.42663732088049E-06	-3.38591499987727E-06	6.42022504151363E-06	0.960516589040985	-0.314552909604761
