# GHZ S RI R 50
0.2	-0.967235815172169	0.250834514502041	8.82691777627439E-06	5.33379355568182E-06	1.14035905841669E-06	-2.8914927283588E-06	1.00059284009271	-0.00616589495441289
0.3	-0.928376805692811	0.370727095334513	-7.67162954558597E-06	-8.28850390193204E-07	-1.86978632602519E-08	3.66438821168728E-06	1.0007937950717	-0.00891509157193871
0.4	-0.874404041399422	0.484924889995462	-2.21105666890513E-06	6.34914217701935E-06	2.91789819649255E-06	5.75162802716112E-06	1.00141213824225	-0.0113967437221541
0.5	-0.806099214983136	0.592313142384528	-2.65625049439956E-06	5.49490322257707E-07	1.05466852528593E-05	4.90153033634141E-06	1.0018743561784	-0.0156566361081646
0.6	-0.724201175101607	0.68867616092541	-1.72845193546436E-06	-1.85586395935551E-08	4.17242406973905E-06	-1.03545466531874E-05	1.00090132845588	-0.0186666939480129
0.7	-0.631894061378315	0.774329421406833	-2.05139905681024E-06	9.89250757120158E-07	3.78539962722402E-06	1.1183409249727E-05	1.00065246038222	-0.021192978835921
0.8	-0.529308458183304	0.848025976349541	-5.61914635652129E-06	3.78711339075323E-06	-3.17348040999166E-06	-2.14514275177264E-06	1.00060979942069	-0.0232549484955151
0.9	-0.418409909664492	0.908004019451691	-6.73441766656078E-07	5.26086979505785E-06	3.27344536633184E-06	-2.93277334853757E-07	1.0006344855278	-0.0252865600661618
1	-0.300454480532253	0.953656013254971	1.5732404778135E-05	-3.67740784118068E-06	-9.62501031616141E-06	5.16566868817532E-07	1.00163358910311	-0.026460192072434
1.1	-0.178581149026628	0.983963594794478	1.3493358782898E-06	-2.99169472227912E-06	9.41970057045701E-06	1.26496121360219E-05	1.00183797660956	-0.0295722440778139
1.2	-0.0529066018354647	0.99884900487075	-7.93669582228303E-06	-3.2766764003074E-06	-3.1066850012082E-06	-4.4977983640839E-06	1.00131321498394	-0.0306029049231316
1.3	0.0740561732905371	0.99756212063396	1.78084971685144E-07	3.34783517291908E-06	1.93686864105271E-06	3.43171077667012E-07	1.00182531524702	-0.031732940885753
1.4	0.199454244857694	0.979614578515554	2.31893768002767E-08	3.78115836464098E-06	-2.5377433534103E-06	-5.63491065459836E-06	1.001287539022	-0.0340326510721598
1.5	0.321673901068743	0.946380447295118	3.19755721176506E-06	-2.68926884743154E-07	2.71224042695165E-06	2.10043997332197E-06	1.00206636829046	-0.0376985147322745
1.6	0.438112518353188	0.897587720828499	1.79013938183009E-06	-1.94685390963593E-06	-8.99931333967478E-07	-3.07074718085281E-06	1.00076226824762	-0.0419526960157455
1.7	0.546991145299054	0.834871124836052	-9.04705183898903E-08	-3.5327559244511E-06	2.01646364052356E-06	4.93499517461873E-06	1.00070916603674	-0.0444838934079235
1.8	0.64688937753741	0.759512862071175	-2.06379458775497E-06	-1.81472919780195E-06	-4.62393955940073E-06	1.8359060456983E-05	1.0002231827465	-0.0471588766283527
1.9	0.736008726542788	0.673089056196226	-4.39678950923127E-06	-1.46733808359917E-06	-4.93513836813725E-06	-6.00981403266575E-06	0.999966616273001	-0.0483599709747704
2	0.816197038346846	0.577222414622003	-9.45403289709004E-08	-6.76857084147019E-07	-1.67350807013121E-06	-1.42487056373006E-06	1.00269548716964	-0.0509458633857666
2.1	0.883274807651676	0.466814796208486	-1.12461664754069E-06	9.49364179942335E-06	2.00266578610715E-06	-3.86556157067436E-07	1.001975207393	-0.0567423575655079
2.2	0.93346630422937	0.351492309842352	-4.12749768969468E-08	-5.94906712757748E-06	-7.30749504972741E-07	2.74869041951221E-06	1.00045554326233	-0.05956488716004
2.3	0.969211132035061	0.231426685851465	-1.30980563752667E-06	2.77780616329125E-06	-2.31592951149501E-07	1.20069730485801E-05	0.999420148771438	-0.0613952163338049
2.4	0.989891676777555	0.107240497864215	-5.90074915115406E-06	-3.69447797792783E-06	-1.75801006562546E-05	1.46267165816106E-05	0.998825630885943	-0.0642413255419532
2.5	0.995624948132364	-0.0177884762730069	1.80950019161742E-06	-2.9730818762523E-06	-1.76379820648898E-06	7.56295803483754E-06	0.99867270779947	-0.0661948604908568
2.6	0.985188503480305	-0.141673052334234	2.86786225137645E-06	9.13104668939798E-07	-1.74220095094198E-06	4.51227593467605E-06	0.998549515981189	-0.0693244238028485
2.7	0.959647681774326	-0.263954269720246	3.85816077663927E-06	1.04576206741617E-05	2.33771350977987E-06	3.87052532917379E-06	0.998331042987257	-0.0725188113244858
2.8	0.918669257523631	-0.382705225354992	-8.23266128317589E-07	-2.29614758776357E-06	2.13716964584697E-07	-1.89363103568843E-06	0.998406455245351	-0.0751190840391336
2.9	0.863068924595435	-0.494746601732772	3.74216237308396E-06	-8.35493049312364E-06	-1.33682556330386E-06	-1.42575366161862E-05	0.997746167604562	-0.0775276294170238
3	0.794042629186688	-0.599330162552681	1.96372540372325E-08	6.66569003403828E-06	-1.47809452109104E-05	5.38755348386374E-06	0.997593016296237	-0.0802137562477419
3.1	0.71300101438459	-0.693686270678613	-4.95286200962176E-06	7.87059492623799E-06	5.82248828350713E-06	-1.17885068872479E-07	0.997169857593814	-0.0829109494490106
3.2	0.618781678505163	-0.777770603526037	9.75785821391104E-07	2.12381909397217E-06	-4.56701315183426E-06	5.08366948315359E-07	0.996472576120297	-0.0852296777208388
3.3	0.514987338653273	-0.848944220188416	7.09930677474573E-07	-1.46660586179093E-06	-4.58204386423677E-06	7.65065588751561E-07	0.995504660324759	-0.0890208401484466
3.4	0.402576175987283	-0.905065463617133	6.46981880549064E-06	1.84870378534266E-07	-8.18912493818493E-06	-7.11577105336402E-06	0.99414678820356	-0.0911225822847963
3.5	0.287882277870288	-0.946374601647216	-7.6692673464881E-06	2.00114235438379E-06	-5.93420673876589E-06	-7.92959215808927E-06	0.993616941387968	-0.0923584220483881
3.6	0.16561945393971	-0.977491667366023	-8.77857780598542E-07	-4.37461801263168E-06	-7.84270163191944E-06	-6.28975915833584E-06	0.994028742455995	-0.0955371992327414
3.7	0.0395290039701077	-0.990312497644147	-6.74993068917577E-06	-6.72673148995014E-06	5.0018754064103E-07	-4.76381044986706E-06	0.992871335924459	-0.0986688046003799
3.8	-0.0862395940694482	-0.986158609747517	-3.6321870388596E-06	1.10285841021396E-06	-3.30647395743237E-06	-2.44273979685192E-06	0.991335417891211	-0.100243964440642
3.9	-0.208774271007643	-0.966504629669002	-4.61014333679813E-07	3.5039602360667E-06	2.04364386943045E-06	-1.22748589329978E-06	0.990767672148134	-0.101598532958547
4	-0.328292708351323	-0.933525460242041	1.17208252912091E-05	8.05420147915477E-06	7.24281674478222E-06	-4.07910635724844E-06	0.993593061343356	-0.102280427796893
4.1	-0.443763373369803	-0.884622931122348	5.21977668319337E-06	1.28489452380906E-06	-3.40632737965268E-06	6.66709534188904E-06	0.992847647540954	-0.1072460753691
4.2	-0.551021839040431	-0.821809777709741	-7.08873480877948E-06	-1.15112946060874E-06	-8.24613035579516E-06	1.38757292438028E-08	0.990752395650355	-0.110019406818509
4.3	-0.649608325350331	-0.745918538463708	6.8556896854511E-07	-2.36560017512981E-06	5.20351652286686E-06	8.45425058021013E-07	0.98985859835187	-0.111683705206431
4.4	-0.738126992570854	-0.658221624062828	4.44990589012041E-06	-1.79503783930702E-06	-8.58041850647844E-07	1.34788473728525E-06	0.989104245590394	-0.113624371627874
4.5	-0.815424374577073	-0.55936434050327	6.77709581290084E-06	1.81903641604795E-06	-8.22869933340539E-07	-3.24273203086373E-06	0.988956280650597	-0.116272481481271
4.6	-0.879084443719504	-0.451810654454315	2.46405043061039E-06	2.92515939195018E-06	-6.50372208525115E-06	9.74868240749604E-06	0.987126751764687	-0.11881800020599
4.7	-0.929035447245472	-0.336511035913417	-1.3962168685719E-05	5.97086101384254E-06	-3.44850478550802E-06	-1.52247741365468E-08	0.986545593644878	-0.120108918844873
4.8	-0.96412238449639	-0.216038188000459	-3.17667718257547E-06	-5.10505651271088E-06	-5.488890337444E-06	2.38575660730752E-06	0.985831186823333	-0.122186167770657
4.9	-0.983154477844515	-0.0914521698886199	-1.06814785402735E-06	-8.50981431464452E-06	-4.19891984061756E-06	7.62160933443391E-07	0.984897034867558	-0.123621124479546
5	-0.982969993531243	0.0329219876431364	7.49247238377319E-06	-1.60729923109739E-06	-1.75799080735626E-06	-2.69343147229932E-06	0.984232576981286	-0.124574641504071
5.1	-0.971273329230524	0.153891392091048	-2.61023343529114E-06	-6.33883438841364E-06	-1.01003609104231E-06	-1.93534160921236E-06	0.983854187165774	-0.125412047652094
5.2	-0.945203021950926	0.274870039016397	3.96857823185338E-06	-4.48540969330297E-07	-5.37815440898923E-06	6.28527095262069E-06	0.983307332293948	-0.126949801081151
5.3	-0.903170808990656	0.391480950610551	5.12342547174342E-06	5.94596923908332E-06	-9.66122591764756E-07	-3.55698933834605E-06	0.98289132372602	-0.128649537272767
5.4	-0.846745829728453	0.501122785807717	3.0320458391926E-06	-2.00948715239919E-06	-1.12177738986292E-05	2.21610747018705E-06	0.982242819615117	-0.13081261723837
5.5	-0.777610243144602	0.602162089369674	-4.31390343796518E-07	-2.17599242066145E-06	-5.73286084303146E-06	6.08265003835697E-06	0.98239184459922	-0.131690163447976
5.6	-0.696301237549468	0.694823167211326	2.37025164003333E-06	7.2483708125486E-06	-5.30971256161695E-07	2.90848383875867E-06	0.983106747205199	-0.134745576758244
5.7	-0.603716113574773	0.776668334150636	-2.54967588476706E-06	2.34549590370193E-06	7.8537939775207E-06	2.75001468649928E-06	0.982057269955073	-0.137096554745834
5.8	-0.501565724042794	0.845159481320282	-4.60836001146402E-06	5.06268790056914E-06	-3.62455692375465E-07	3.39390741419056E-06	0.981094393973157	-0.138246529805343
5.9	-0.393216635218151	0.900417079255005	6.29800047040527E-06	1.49797283555307E-06	-2.69219453655554E-06	2.518946200218E-06	0.980765984401531	-0.137758818159064
6	-0.279288373308293	0.944662803772822	3.4908204033214E-06	3.29532792792874E-06	-3.20693563980099E-07	-1.42740937765736E-06	0.985383978820311	-0.138301141737418
6.1	-0.157443927776774	0.972179605484002	9.13028045583036E-06	1.53040785744813E-06	-1.24313138645873E-07	-1.80015365492224E-06	0.985324792198879	-0.143353506925488
6.2	-0.0346990654772625	0.983610011513782	2.42925381871254E-06	-1.71706088285028E-06	1.47985461473229E-06	-4.81723468186086E-06	0.984026832032858	-0.144878188437643
6.3	0.0881648818174677	0.980385345821102	-4.34687654389803E-06	4.21431914869881E-06	-6.08449770888898E-07	-1.71770199659532E-06	0.983452770631575	-0.146561592144917
6.4	0.209943047382001	0.963430076671901	-4.25170775855272E-06	1.05578751586612E-06	-1.77615569304761E-06	8.80668787562669E-06	0.98370261475579	-0.148085961246082
6.5	0.333338416914784	0.929561747506107	2.44255550354871E-06	-1.32878089027797E-06	1.47972345602211E-06	-2.92128783297601E-06	0.984051687507837	-0.153347123175908
6.6	0.445007798593346	0.876787140261316	-4.70043455543118E-06	-2.23820511558237E-06	-1.85177841031507E-06	-6.59103865472617E-06	0.9802007974139	-0.155266137694855
6.7	0.549351469557015	0.814688896229835	4.13059415094541E-06	-6.48017147818327E-07	-4.64033132078694E-06	9.94461402584937E-07	0.979592994546776	-0.15550969770779
6.8	0.646090777908319	0.73999620061725	3.73172559483632E-06	-2.05196599723574E-06	6.16519016486163E-06	-8.98050354156222E-07	0.979308715363164	-0.156701449197053
6.9	0.732539278183813	0.654137266663595	2.02365021687167E-06	1.63476147449425E-06	8.71705199401294E-06	-2.69748473531183E-06	0.979089398168056	-0.157418396096961
7	0.808841572489448	0.558632324324534	2.13342355454604E-06	4.07964279186773E-06	-1.23840504860477E-07	5.34354568919568E-06	0.980738459284403	-0.158698175228355
7.1	0.872219019255415	0.452851910260629	-1.40501166860686E-07	1.70627114759633E-06	8.23179409685519E-06	-4.57667648823986E-06	0.97981198276438	-0.162039240479099
7.2	0.921137627539806	0.34024094403873	4.8231263553066E-06	-1.36388336364145E-06	7.19483002356863E-06	3.7889486238572E-06	0.978246600015221	-0.163686290200908
7.3	0.955005250808884	0.222200984938137	4.83156141425573E-06	-1.08305824571389E-06	-7.26336586589283E-06	-7.356619071432E-06	0.976154455545218	-0.165338493383898
7.4	0.972175327740544	0.101200579874697	-1.85062104084747E-06	9.79289018648244E-06	1.43103136403287E-06	-4.02483178667499E-06	0.972344601539823	-0.16624358639864
7.5	0.976577041991135	-0.0158737727669564	8.22416101997792E-07	8.02432973217293E-07	1.64265869012465E-06	9.93506750616265E-07	0.972207564700699	-0.162280919126611
7.6	0.970101566289714	-0.138861639154973	1.46715180244339E-06	-2.57399932068576E-06	-5.32909296411307E-06	-3.64594886109329E-06	0.975557721812534	-0.165731482435526
7.7	0.945140282912087	-0.25984290923911	5.49502806314367E-06	2.44477544683067E-06	-6.88906964958781E-06	1.18637606479148E-05	0.975476807391369	-0.168901869348486
7.8	0.905888229342836	-0.37599754228178	-5.4603494334798E-07	-5.20358197972212E-06	3.75713779128621E-06	-4.65113342196255E-06	0.975859435742159	-0.17114336750462
7.9	0.853715797555293	-0.485491895617628	8.76412881463024E-06	1.64546871318399E-06	-9.34004238056143E-06	-8.71134702711643E-06	0.977284356804126	-0.171911331401666
8	0.792486006462519	-0.593052815160762	-6.63074503317836E-06	-1.73441852863325E-06	-1.20467381764143E-05	2.30751600464338E-06	0.984260958025215	-0.17559270607022
8.1	0.707630342760297	-0.693339771558413	5.07891489711003E-06	7.81841315899912E-07	2.87567461799181E-06	2.29458856941375E-06	0.983467164113562	-0.184231014383573
8.2	0.612801796165812	-0.776201833160939	3.58882105290723E-06	-2.5495323660365E-06	-3.59231508666906E-06	-1.16572779893385E-05	0.981681908088707	-0.187474062052232
8.3	0.509621234639718	-0.846559598483059	2.74394176062362E-06	-1.8397246790252E-06	1.60130707068006E-06	5.30931259750469E-06	0.980868420794858	-0.190268159186812
8.4	0.398727803569146	-0.90292910067977	-5.55164656170593E-06	-1.05482593682107E-06	1.03816359603292E-06	2.96055753283562E-06	0.980561014958736	-0.192964058631189
8.5	0.283295792336429	-0.945506502429343	-3.29570132360515E-06	1.602150048578E-06	-4.7555273523438E-06	-5.02850605960893E-06	0.980377606747631	-0.196968106335853
8.6	0.160993755179345	-0.975397877553859	-8.15175765132588E-06	1.31812091986314E-06	-4.28414416199769E-06	-6.89822522189341E-06	0.978783075984255	-0.199680936469334
8.7	0.035204159148611	-0.988153966436886	2.26777893617355E-07	-2.13149135747763E-07	6.1243336592632E-06	5.6116208885551E-07	0.978431707825806	-0.201619512502117
8.8	-0.0913130430667328	-0.984737652461975	1.04232206246128E-06	-1.81597243706627E-06	-2.38819934886606E-06	-1.30356308978357E-06	0.97847360896195	-0.203570736143111
8.9	-0.217205323155636	-0.964785618989264	-3.22278543242929E-07	3.04821104220786E-06	-1.22955446015057E-06	-1.65772653958613E-06	0.97895747738941	-0.205454005039942
9	-0.335172966857971	-0.925196120564953	2.98043911123152E-06	1.60509670282828E-06	-1.58908149777313E-06	2.11500886830062E-06	0.979695173046856	-0.207440455824498
9.1	-0.446075673244318	-0.877862216051555	-9.35013710843547E-06	2.21916699630014E-06	-1.58190705903565E-06	2.40736241167325E-06	0.980822059165518	-0.210030448075875
9.2	-0.552891086450669	-0.815789575439203	7.53028507893107E-06	-1.92486328951839E-07	-9.14698166388104E-06	1.92400744017754E-06	0.981400151527272	-0.213712248627317
9.3	-0.650671090644182	-0.740990384777218	1.16013749156845E-07	-7.18473615472314E-06	1.59850767358612E-06	-1.29556164463774E-06	0.981147723167713	-0.217724718302405
9.4	-0.737826236967642	-0.653936027328989	5.86820010515712E-07	2.49118852243478E-06	1.6397394859699E-06	-3.59521047327314E-06	0.979144202234347	-0.221283499187804
9.5	-0.812525378742713	-0.561700894278492	-2.94083116735266E-06	6.630713165259E-06	4.74662340189766E-06	-1.32613546528891E-06	0.978903208076402	-0.222177068915569
9.6	-0.883491318300539	-0.455996590926383	-5.00964926246116E-06	-5.28328693299162E-06	4.76556004787925E-06	2.94335313856704E-06	0.979518838576978	-0.226778870661706
9.7	-0.935938965495886	-0.337996917045877	-1.97945088061428E-06	-5.12590876319503E-06	2.1123434246041E-06	2.57800832241326E-08	0.978213538482198	-0.230059380439794
9.8	-0.971819238095434	-0.214878274772782	6.25597740748718E-07	-4.31366953041409E-06	-2.94678733221399E-06	-2.55599184749102E-06	0.977124949621021	-0.231735125625547
9.9	-0.991176807718354	-0.0883889830180046	-6.1913446357161E-06	4.19987418451056E-06	-3.12006422070801E-06	1.65673575806567E-06	0.977136656467679	-0.231047919969433
10	-0.993881342564926	0.0377217804675301	3.61044940360979E-06	-1.96639098116994E-08	8.2471082584205E-06	1.12735773227068E-05	0.983244213509429	-0.234058856485932
10.1	-0.982233783039033	0.16291722368146	-2.8781543547864E-06	-2.56014497186731E-06	-2.02072089994831E-06	-2.53173331961555E-06	0.980324841225633	-0.241146959943265
10.2	-0.954776362300889	0.286812496892142	2.38428765881143E-06	-1.02312623360359E-06	-2.79261054217285E-06	-1.08735929644104E-06	0.977782608328262	-0.242377906068374
10.3	-0.911967855513642	0.406363663493661	7.86420034577884E-06	-5.98741552130142E-06	3.87310622510594E-06	8.33317800554811E-06	0.976724943957174	-0.243518851735708
10.4	-0.855770246881592	0.52101360812229	1.72651103592972E-06	2.58605115762266E-07	6.35861149089903E-06	-1.18455075278203E-06	0.976723058504862	-0.244929337154538
10.5	-0.780411440843266	0.630522670620472	8.45135325869668E-06	-4.20738624025546E-06	-4.97755085516062E-07	1.99867625774789E-06	0.976965548796534	-0.249392293513817
10.6	-0.691779971412648	0.721653521538022	9.02118517602751E-06	-1.29877149702513E-06	-1.46542000272875E-06	1.37778372485192E-05	0.975106458605352	-0.251791673168264
10.7	-0.59515214001868	0.8014996437559	8.08864976934771E-06	-1.93244009970882E-06	-3.08983574954395E-06	-5.32612374037418E-06	0.97554175227709	-0.254924276293306
10.8	-0.489123209603841	0.869743829224576	2.48430285327087E-06	5.29295389487012E-06	-3.66277245105977E-06	-2.00118551228652E-07	0.975069040999632	-0.258808507375776
10.9	-0.373648257798182	0.924670529811668	-5.60714037778236E-06	5.08845732556885E-07	1.62536846752681E-06	4.05927426596287E-06	0.974034317523939	-0.262181608052308
11	-0.253037864833807	0.960136020670007	-1.09138898843477E-08	-5.25795213070284E-06	-8.43199800961194E-06	2.2697371981965E-06	0.973270000831978	-0.265304080327148
11.1	-0.133890911990921	0.985356867081739	6.37261439578266E-06	4.11147322458505E-06	-1.89807048673404E-06	1.0856213253266E-05	0.971012203185126	-0.268809642742273
11.2	-0.00857257475398565	0.996314475589072	1.59782244225027E-06	1.36229006935274E-06	5.2149210081314E-06	8.96774549025325E-06	0.968411280947558	-0.271322473895228
11.3	0.117998666015729	0.989789506263155	-4.74787030388672E-07	-1.75096460574611E-06	-7.26025887351045E-07	-4.43213176895869E-06	0.965712326975308	-0.273339150284668
11.4	0.24212401619997	0.966982411682834	3.02451043687309E-07	1.19505978923672E-05	2.4734042330902E-06	4.95167758275514E-06	0.961827841077097	-0.275015046779247
11.5	0.362318127261331	0.928657916615887	6.22782891783881E-06	-3.5729567220379E-07	3.09129263455658E-07	-1.89413881834156E-06	0.962388583053063	-0.273920246473483
11.6	0.475420243860689	0.875330564574134	-6.03108384231868E-06	3.12338525920109E-06	-4.89396694019363E-06	1.95280274027015E-06	0.962654959924303	-0.279976539170673
11.7	0.580385664707171	0.809013574913283	3.33795276954151E-06	-1.82733071359623E-06	-1.70458319898742E-06	2.26176994879991E-06	0.959581814041404	-0.284167332254225
11.8	0.675580394328191	0.729799010814903	-7.65150533745384E-07	9.85008768740569E-06	-2.6659648446407E-06	1.06100160323744E-05	0.956814211085583	-0.286304773123228
11.9	0.758559731586753	0.641200497717243	-7.32930876280582E-06	-1.01350674234494E-06	-3.88373476951674E-06	1.13093120092284E-05	0.95696772977729	-0.284590281541959
12	0.837008086191702	0.544611267413235	-6.47028980409985E-07	1.39749230406209E-06	-3.17314510054277E-06	-1.93527698771472E-06	0.96463887290897	-0.288837045690737
12.1	0.899279498630951	0.430700380882315	-3.87592563456821E-06	5.06423410178794E-06	-1.28595629371126E-06	8.50388045969067E-06	0.961574599046106	-0.297127870522023
12.2	0.944160661990504	0.313579763387917	-6.12988725641043E-07	-3.8244933124384E-06	-3.14556604754901E-06	-7.11139243425884E-07	0.958918281275378	-0.300814553111816
12.3	0.975052772241033	0.193267099855484	3.65785077631457E-06	3.42961578884373E-06	-3.40896845847893E-06	6.35037378192586E-06	0.956955650756069	-0.304391247742153
