# GHZ S RI R 50
0.2	-0.966153662295104	0.251399465831516	8.82310602927386E-06	5.32082321603618E-06	1.1366969655195E-06	-2.88970686807032E-06	0.999563486329053	-0.00710705793693202
0.3	-0.926792236951654	0.371199853639019	-7.66245925858671E-06	-8.19369124194671E-07	-1.4664571168139E-08	3.65959533063428E-06	0.999460252695076	-0.0100836551711945
0.4	-0.872210114543254	0.484969319916019	-2.19908602116473E-06	6.33972823872636E-06	2.91935371381812E-06	5.73709175887672E-06	0.999461253885832	-0.0127465424223076
0.5	-0.80394463571598	0.591181321222718	-2.64954627009209E-06	5.49101495181318E-07	1.05226182656519E-05	4.88572433520616E-06	0.999428182354445	-0.0160168687140058
0.6	-0.722653456126947	0.687551769964769	-1.72555225214061E-06	-1.8102277340864E-08	4.1628662157995E-06	-1.03381746908175E-05	0.999443488872121	-0.0191136943403469
0.7	-0.630225073775323	0.773021523442433	-2.0471630831582E-06	9.88745460570077E-07	3.78549313407031E-06	1.1161293915718E-05	0.999027003695096	-0.0222078791682268
0.8	-0.527685996695685	0.846293872424452	-5.60535325332372E-06	3.78347316451134E-06	-3.16865569593473E-06	-2.13868132055962E-06	0.998671620623841	-0.0244824357725314
0.9	-0.416950868438139	0.905863080996762	-6.67511315169833E-07	5.25033810359552E-06	3.26628185403434E-06	-2.95463303051877E-07	0.998364236667887	-0.026893397930521
1	-0.29914674983666	0.95104863926878	1.56826080262704E-05	-3.68832849184188E-06	-9.59690164566275E-06	5.28183342514555E-07	0.997914190415296	-0.028298899666339
1.1	-0.177582831944867	0.980813027256696	1.34198292265118E-06	-2.9818912686691E-06	9.39567335837886E-06	1.25958460404657E-05	0.997675393143862	-0.0302234455389132
1.2	-0.0522902113699724	0.99508078953368	-7.90776641316621E-06	-3.25786291836197E-06	-3.09773884080597E-06	-4.47773301955218E-06	0.996935388109058	-0.0312921060308254
1.3	0.0738964055812784	0.993299701013832	1.79587398962509E-07	3.33337403246913E-06	1.92880415623307E-06	3.40390530687395E-07	0.996926041577686	-0.0323827252504072
1.4	0.198413559281727	0.975504035922104	2.47322977919744E-08	3.76614474563133E-06	-2.53011009842547E-06	-5.61145409963244E-06	0.99657571323081	-0.034605879080699
1.5	0.319614350256724	0.942667961686127	3.18567700947368E-06	-2.68542234106312E-07	2.70260773795782E-06	2.09215212289173E-06	0.997329133920208	-0.0379766054177142
1.6	0.435467732893476	0.895047397936296	1.7859955725853E-06	-1.94014216123089E-06	-8.95562841231999E-07	-3.0622622017058E-06	0.997134252515156	-0.0415220032005179
1.7	0.544212802942407	0.833002672615111	-8.77711875926273E-08	-3.52424558969792E-06	2.00810573177088E-06	4.92443358935423E-06	0.997609274804546	-0.0440498065180975
1.8	0.644088957674371	0.758202634922446	-2.05805473218231E-06	-1.81260926798868E-06	-4.62901696474822E-06	1.83172143304049E-05	0.997516049721175	-0.0466888353804994
1.9	0.73357657472001	0.671693442052743	-4.38906492684678E-06	-1.46548516105005E-06	-4.92582067559863E-06	-6.00028536901721E-06	0.997390368837094	-0.0486718151269095
2	0.811895740023203	0.574833551511532	-9.46304622016418E-08	-6.74094309407602E-07	-1.66782135943767E-06	-1.4180374246325E-06	0.997460593744657	-0.0511467043252081
2.1	0.877829304177255	0.467296777125071	-1.13947106420504E-06	9.44813337723452E-06	1.99437770808647E-06	-3.80587856954103E-07	0.997409928486438	-0.0538664997946874
2.2	0.928990492664082	0.353315887337098	-2.42099704025927E-08	-5.92795461007351E-06	-7.35958358514577E-07	2.73680334323996E-06	0.997265936372632	-0.0564077603833913
2.3	0.965482203985461	0.233896941219941	-1.31429168398025E-06	2.76488170197656E-06	-2.68269942608708E-07	1.19680276152632E-05	0.996848542321676	-0.058309054817835
2.4	0.986832864457909	0.110043979080775	-5.8701085798102E-06	-3.70533877594643E-06	-1.75825768445521E-05	1.45199578239305E-05	0.996647752348045	-0.0613256840083226
2.5	0.992827090536701	-0.0146776427279515	1.81829579024909E-06	-2.96105927269186E-06	-1.79082006626166E-06	7.54360301885586E-06	0.996401402368082	-0.0633502481290092
2.6	0.982972820789235	-0.138100400807955	2.86088267781785E-06	9.20083177592137E-07	-1.75272068512671E-06	4.50040433654685E-06	0.996553026278486	-0.0662687525737765
2.7	0.957858927921554	-0.259938625189914	3.81814009159904E-06	1.04473901787669E-05	2.3209873003955E-06	3.86951430567291E-06	0.996330984683383	-0.0693323234287348
2.8	0.917692700010024	-0.378050754524229	-8.12758280297143E-07	-2.29380738988659E-06	2.20278784341603E-07	-1.88837035436071E-06	0.996509661928383	-0.0715073555533303
2.9	0.863244711766731	-0.489841890327421	3.77101432214533E-06	-8.31875037859393E-06	-1.26968471779286E-06	-1.42304846445496E-05	0.996055971550737	-0.0736318792250708
3	0.79502879283845	-0.594498251861998	-1.43901154894223E-08	6.65147174405794E-06	-1.47766631883864E-05	5.30061958879618E-06	0.995798652856834	-0.0760236746107878
3.1	0.714993356674154	-0.688560370045832	-4.98671776036784E-06	7.82448689784819E-06	5.81001906015186E-06	-8.43020289897386E-08	0.995413602373292	-0.0780685064606224
3.2	0.622175627075552	-0.772891399833908	9.60025127093109E-07	2.12616000540799E-06	-4.56163987308708E-06	4.77504580047499E-07	0.994960030358782	-0.0798428383430768
3.3	0.519850796330386	-0.844794317199669	7.19620459490237E-07	-1.45952198157135E-06	-4.58153016069848E-06	7.30848261220563E-07	0.994514865770312	-0.0830728001218402
3.4	0.408843728728677	-0.902901234753134	6.46836907315609E-06	2.35855986999628E-07	-8.13305814290274E-06	-7.18031330047108E-06	0.99424872102623	-0.0849526170518334
3.5	0.292121433494714	-0.946485978402166	-7.69431540270434E-06	1.95761241097844E-06	-5.8956587677249E-06	-7.97911404316016E-06	0.994151192731901	-0.0873913631520234
3.6	0.169978562290391	-0.975919153083033	-8.54370370674497E-07	-4.3804431591216E-06	-7.81053964048816E-06	-6.33378811397589E-06	0.994118421745682	-0.0901063145111328
3.7	0.0453002634972902	-0.9898310049971	-6.71201151718507E-06	-6.77016711581871E-06	5.2914813371084E-07	-4.76269109421827E-06	0.993750100156534	-0.0929957819333047
3.8	-0.0802507483919383	-0.987476709324661	-3.64268706209158E-06	1.08211025145717E-06	-3.2952357646256E-06	-2.46527661414317E-06	0.993018734289085	-0.0949671672085714
3.9	-0.203673763789978	-0.969523301092859	-4.80140208461007E-07	3.50646211423636E-06	2.052993608241E-06	-1.21843753346527E-06	0.992731499386489	-0.0976767024173435
4	-0.324483067016037	-0.936723248012161	1.16774042559399E-05	8.11841348362779E-06	7.26534496073317E-06	-4.03979615509187E-06	0.992799553079015	-0.0984775592009307
4.1	-0.44000550609547	-0.88838022443092	5.21647933135958E-06	1.32213690210026E-06	-3.45576787258438E-06	6.6507502607751E-06	0.992951998025889	-0.100561379504911
4.2	-0.547951856616056	-0.826351214384228	-7.09523580551432E-06	-1.20039376395924E-06	-8.26265746410517E-06	-4.07355420803501E-08	0.992392115297117	-0.103295813142784
4.3	-0.647369945871161	-0.750981639220744	7.02166178592656E-07	-2.36698018844547E-06	5.21073735023577E-06	8.80333822512585E-07	0.992242327796054	-0.105278865143522
4.4	-0.736588628334221	-0.66356676507727	4.47199427153211E-06	-1.77260911192553E-06	-8.68368649992612E-07	1.34608488120856E-06	0.991847068408229	-0.107560781087513
4.5	-0.814596657383988	-0.565511187639853	6.78415868212589E-06	1.86887475389621E-06	-8.0378678907581E-07	-3.25728493067188E-06	0.992091401943645	-0.109670276205563
4.6	-0.879814086663768	-0.457981440011276	2.45597006170703E-06	2.95182103100699E-06	-6.58907831086574E-06	9.74767095258272E-06	0.991953017357422	-0.112748362839734
4.7	-0.930629852210416	-0.342321850097837	-1.40532103173354E-05	5.91953529697521E-06	-3.46284829083451E-06	-3.41348841239295E-08	0.991901405002349	-0.115081668992382
4.8	-0.966321556753519	-0.221744305299548	-3.16343785335582E-06	-5.14341956062E-06	-5.52474143366136E-06	2.3671413989084E-06	0.991450983462724	-0.117816069871881
4.9	-0.986083738467295	-0.0979726751812993	-1.02536226260893E-06	-8.553821856104E-06	-4.22194809912983E-06	7.42100563301474E-07	0.99088437836484	-0.119744850166859
5	-0.989933033051479	0.0266611503216373	7.54861316110824E-06	-1.57554896192773E-06	-1.75400546173619E-06	-2.72020799741462E-06	0.990586347826016	-0.121191931764217
5.1	-0.978311153711535	0.151467871529903	-2.60259275331142E-06	-6.38993202661338E-06	-1.00908154635844E-06	-1.95176689485893E-06	0.990649314747438	-0.122559927925075
5.2	-0.951658864616932	0.273158199161873	3.99489561259751E-06	-4.37220612599779E-07	-5.4340114319081E-06	6.30529703618166E-06	0.990320205816503	-0.124810438871966
5.3	-0.910087554336938	0.390500128677955	5.13624266419375E-06	6.0019315957173E-06	-9.60216243816684E-07	-3.58329519136379E-06	0.989942828498738	-0.127004386881499
5.4	-0.854233092237829	0.501501502354777	3.06005346368961E-06	-2.01423912391189E-06	-1.1304880055013E-05	2.19642958391272E-06	0.989816914311753	-0.129574019637099
5.5	-0.78496708736524	0.604554841931478	-4.30624784553238E-07	-2.19341884154302E-06	-5.78800264659153E-06	6.11841410314718E-06	0.989889344482215	-0.132028623300618
5.6	-0.702681256762183	0.698552624105003	2.3762911965855E-06	7.30394055079639E-06	-5.3917724050563E-07	2.92854079691979E-06	0.990060093370604	-0.134884274589682
5.7	-0.609180401178659	0.781437092073206	-2.57191603642531E-06	2.35979748106874E-06	7.9092526587472E-06	2.78096654431621E-06	0.989680534146323	-0.137592767023778
5.8	-0.505900791111999	0.85106950239183	-4.64860615267621E-06	5.10086302723862E-06	-3.67399904603855E-07	3.42111827941054E-06	0.989233868208485	-0.139816787401988
5.9	-0.39539472965414	0.90724116719031	6.35231452976062E-06	1.50220835309232E-06	-2.71128959515473E-06	2.54340082534734E-06	0.9885647035904	-0.141674217925059
6	-0.27953493448657	0.949387894167935	3.51683122482744E-06	3.30270614686458E-06	-3.26009280125356E-07	-1.43370509277783E-06	0.988645186362089	-0.142545804854704
6.1	-0.158780771004709	0.976976161155832	9.17167054169577E-06	1.53591612181019E-06	-1.25147653167572E-07	-1.80824936683929E-06	0.989009894001639	-0.14408826007407
6.2	-0.0350677123273629	0.989173801693324	2.44138408966797E-06	-1.72602830266504E-06	1.48683686067289E-06	-4.84181667508981E-06	0.988714280814499	-0.145489220044642
6.3	0.0893311510012516	0.985958143998612	-4.36605913876807E-06	4.23782626909712E-06	-6.12478316339844E-07	-1.72589745716705E-06	0.988388883120764	-0.147441092591314
6.4	0.212326860064003	0.967385870291708	-4.26776669439243E-06	1.06380289912971E-06	-1.77539990148627E-06	8.84348733911655E-06	0.988126549479747	-0.149523642707592
6.5	0.332990984760453	0.933807135022543	2.45521822519771E-06	-1.32998051351713E-06	1.49119816573535E-06	-2.93091676061509E-06	0.988341511116847	-0.152664854928702
6.6	0.447859462743307	0.884054993067598	-4.73544154916188E-06	-2.25840197629051E-06	-1.86207696763281E-06	-6.64317899939694E-06	0.987810733903039	-0.155787816881217
6.7	0.554933338315784	0.820625602803284	4.16370807355145E-06	-6.58986356478637E-07	-4.67716811452631E-06	1.0089775728982E-06	0.987414611385217	-0.158236039843916
6.8	0.653114187665402	0.744443807461154	3.75750922726418E-06	-2.07840365779028E-06	6.21407371328685E-06	-9.21053338999794E-07	0.986901639862712	-0.160605184132572
6.9	0.740693829361352	0.656752430110951	2.04676899703056E-06	1.64095592382137E-06	8.78028858636113E-06	-2.75270275890675E-06	0.986388065370359	-0.162623683599342
7	0.81662349148572	0.559053254747766	2.16930976554568E-06	4.09643000094063E-06	-9.68070706113714E-08	5.38076001353725E-06	0.986063702421983	-0.164133191663085
7.1	0.879835288048268	0.452793939860165	-1.3454748181508E-07	1.71668161931461E-06	8.26118554521479E-06	-4.63574353779353E-06	0.985786494445311	-0.166092378734824
7.2	0.929101227261624	0.339139851845121	4.84780195043218E-06	-1.38831096318533E-06	7.25114860235138E-06	3.78781950362488E-06	0.985121828786827	-0.168075595271691
7.3	0.963359917979208	0.220197479376902	4.86077077888682E-06	-1.10298280443851E-06	-7.33096235238438E-06	-7.38629348325855E-06	0.983944452880196	-0.170082705193753
7.4	0.982433296798724	0.0976652647356179	-1.84918382923352E-06	9.8869455299514E-06	1.43663985709325E-06	-4.06475798004234E-06	0.98244376426935	-0.172474628129486
7.5	0.986390293608169	-0.0255186705788963	8.37721910333922E-07	8.06870956750245E-07	1.66924660348989E-06	9.94919049999709E-07	0.981271109600351	-0.17402267489127
7.6	0.97583872710144	-0.149514413531451	1.45904987362344E-06	-2.61071961861486E-06	-5.41029663357402E-06	-3.63490234944957E-06	0.981286489500185	-0.177062167643462
7.7	0.949252091768711	-0.271494218742877	5.56685502137689E-06	2.41764751676915E-06	-6.84512322682873E-06	1.20332929768112E-05	0.980771338415957	-0.180381357276823
7.8	0.907791053131653	-0.38892932524953	-6.03666459440197E-07	-5.24316474138153E-06	3.7424456383293E-06	-4.72966714800787E-06	0.980461701915241	-0.183357426709728
7.9	0.85195750721433	-0.500056381014326	8.84933308857726E-06	1.54816517638053E-06	-9.51773113669469E-06	-8.65897942070261E-06	0.980258468238448	-0.186010550163198
8	0.783493133398393	-0.60405859697997	-6.66091691282978E-06	-1.64823147505795E-06	-1.20290656250852E-05	2.46997789363672E-06	0.980994365144987	-0.188655392887913
8.1	0.700465115079011	-0.698988654761505	5.08341153771625E-06	7.38661397491674E-07	2.89384727798054E-06	2.26937420879458E-06	0.980647792880441	-0.192298501084217
8.2	0.606388612439753	-0.78130117072355	3.57128502579465E-06	-2.57636848492366E-06	-3.67815732112093E-06	-1.16344380144482E-05	0.979994023035889	-0.195009934454243
8.3	0.50287742381844	-0.850919581372847	2.73159038351333E-06	-1.85899468471064E-06	1.63831308304375E-06	5.29897941745526E-06	0.979171185450259	-0.197797339962407
8.4	0.391663162459405	-0.906724465862447	-5.55781505163263E-06	-1.02049031746094E-06	1.05637505460926E-06	2.95396602179557E-06	0.978301651246717	-0.200484282113017
8.5	0.274338910078656	-0.948518870699241	-3.29029191273372E-06	1.62536760826169E-06	-4.79428572196958E-06	-5.00559249301886E-06	0.977619499411988	-0.203430254511042
8.6	0.151637842067948	-0.975452277970642	-8.14533302308504E-06	1.38665395433645E-06	-4.34390269126948E-06	-6.86643392293611E-06	0.976864466968967	-0.206257803290502
8.7	0.0264642445905704	-0.986168739326026	2.24717923985466E-07	-2.14931697388057E-07	6.12370570381805E-06	5.0733485248333E-07	0.976240875116455	-0.208837680812009
8.8	-0.0988419221500562	-0.980767883510427	1.02407908064426E-06	-1.82081866709152E-06	-2.39398742326434E-06	-1.27972817492207E-06	0.975731562764914	-0.211136634606493
8.9	-0.221855754729855	-0.960112104223882	-2.97902723933054E-07	3.03846029711015E-06	-1.23719217162637E-06	-1.64178376653583E-06	0.975596451396661	-0.213267787438846
9	-0.340201166752138	-0.923570312075339	2.98117313298468E-06	1.58331375995823E-06	-1.57233641713334E-06	2.11812581193194E-06	0.975377073193839	-0.21565245318384
9.1	-0.452555809018478	-0.873787368662491	-9.30649212287208E-06	2.27616126759588E-06	-1.56066676968492E-06	2.41080900192483E-06	0.975016189543318	-0.217914455034732
9.2	-0.558390498420725	-0.810470192116987	7.5007302290946E-06	-2.39336161310998E-07	-9.10040342615062E-06	1.97455485999828E-06	0.974463999767944	-0.220595496817239
9.3	-0.655363090363803	-0.734831891107153	7.40003340493413E-08	-7.15831997924338E-06	1.58498401696596E-06	-1.29992729583063E-06	0.973913125120629	-0.223292857229428
9.4	-0.742267722525439	-0.647841322416551	5.99028756492306E-07	2.48088909638537E-06	1.6150997823008E-06	-3.59418671629573E-06	0.972888820614355	-0.226368271240005
9.5	-0.818068669069888	-0.551135188503086	-2.87422103919472E-06	6.63779822341839E-06	4.72153220543997E-06	-1.36410724068645E-06	0.971958818308985	-0.228875065570626
9.6	-0.882677779441702	-0.443622732845226	-5.0224151077977E-06	-5.20891935232256E-06	4.76041823878907E-06	2.88553210253688E-06	0.971305494057025	-0.232134525725399
9.7	-0.931971243100211	-0.327541232658595	-2.00197289668937E-06	-5.07714257010961E-06	2.09815514505969E-06	1.07746590111814E-08	0.970329905485529	-0.234834030774813
9.8	-0.965835275879092	-0.206014791036482	5.92726491753623E-07	-4.28793329732441E-06	-2.94328887114112E-06	-2.51879438612089E-06	0.969627380506231	-0.236783640106517
9.9	-0.983369079287297	-0.081483381403841	-6.11476601915192E-06	4.21280023016822E-06	-3.08477234270024E-06	1.66669821523354E-06	0.969079511390223	-0.23814324787557
10	-0.985623887672644	0.0426712576037675	3.57343941712533E-06	-4.27768391098714E-08	8.23565590019173E-06	1.11051564687503E-05	0.969733680287681	-0.239878242659005
10.1	-0.972998358748204	0.166684133659837	-2.86017796960304E-06	-2.52288951644514E-06	-2.01112867457423E-06	-2.49829633616505E-06	0.968693424711863	-0.24261746311159
10.2	-0.944523173065709	0.288797490247693	2.35770739677556E-06	-1.02247109420885E-06	-2.77018184897833E-06	-1.06638022872585E-06	0.967605471113127	-0.244036799972331
10.3	-0.900589459477002	0.406213803866994	7.76412621144791E-06	-5.95774385697753E-06	3.86606791134791E-06	8.23639061862969E-06	0.966653302898414	-0.245568340025847
10.4	-0.84293175823145	0.516804058715547	1.7078830737884E-06	2.50238198086799E-07	6.28325500455202E-06	-1.19129767667326E-06	0.965883272768297	-0.247207159423217
10.5	-0.77197352580169	0.620082329523029	8.35819907577174E-06	-4.1574805811342E-06	-4.92854722957189E-07	1.97614635933829E-06	0.965604304712016	-0.249911876651163
10.6	-0.687890772043372	0.712462477042462	8.94459076611145E-06	-1.28529950105764E-06	-1.45657985407333E-06	1.36599407533995E-05	0.964853216618132	-0.252702019667418
10.7	-0.593115193458911	0.792989394962189	8.02022453691967E-06	-1.91801456973286E-06	-3.06506057185248E-06	-5.28065938046325E-06	0.96413874796912	-0.255660849062404
10.8	-0.488220766834193	0.861463528784186	2.46205589170099E-06	5.24733092169229E-06	-3.63095330932819E-06	-1.9885407201869E-07	0.963424969496616	-0.258005323409769
10.9	-0.374881267624624	0.915947361561975	-5.56008404787123E-06	4.96994348502982E-07	1.60608678230597E-06	4.02689357370976E-06	0.962841249257292	-0.260141135634967
11	-0.256892209358559	0.954692746257947	-5.14480084517988E-09	-5.22030647954829E-06	-8.37406466367213E-06	2.24435499611391E-06	0.962161089976869	-0.262281624421103
11.1	-0.135582216748928	0.980598359813471	6.31429334140019E-06	4.0824489908019E-06	-1.89221561873059E-06	1.07617264601828E-05	0.960733373946033	-0.264272301783405
11.2	-0.0107636170812165	0.990791348077758	1.58026368885232E-06	1.35368435111914E-06	5.14718370877304E-06	8.8988625423444E-06	0.959075833323505	-0.265814262389344
11.3	0.114679636527377	0.984117025556363	-4.64117836101181E-07	-1.73719449548412E-06	-7.03237143050858E-07	-4.39552073069682E-06	0.957755837799156	-0.267059053031132
11.4	0.237947565418476	0.961659078354517	2.37281194516298E-07	1.18605476158395E-05	2.42839554229867E-06	4.92671469030302E-06	0.956273229245173	-0.268752970010214
11.5	0.357170637019357	0.923909626953074	6.19279387999882E-06	-3.3124445287313E-07	3.14609938940139E-07	-1.88187569392873E-06	0.955775680169471	-0.270307969783081
11.6	0.469577819700836	0.871881625545877	-5.99846534868654E-06	3.07806601069648E-06	-4.86533652393107E-06	1.92029372982476E-06	0.954987763802512	-0.273948094353535
11.7	0.574517924397665	0.806569568494508	3.32271984029203E-06	-1.79799209102618E-06	-1.70323536270764E-06	2.23720382467286E-06	0.953543109653513	-0.277220306049267
11.8	0.670184040665819	0.727945539330076	-8.12103100452138E-07	9.7848246999665E-06	-2.70508787751012E-06	1.05300492085144E-05	0.952439118327133	-0.280012054060841
11.9	0.753834413885362	0.637710800890297	-7.28626763724376E-06	-1.03330684826818E-06	-3.9017694732486E-06	1.12349004092074E-05	0.952735554444915	-0.281538499415291
12	0.825843522782924	0.5394867320005	-6.44626167547526E-07	1.38107646926019E-06	-3.1344436873686E-06	-1.92500664468373E-06	0.954217743753683	-0.284573518668406
12.1	0.88657541517896	0.43227718770252	-3.8741452503865E-06	4.98720299115245E-06	-1.33394765343976E-06	8.41171194813682E-06	0.953246735958157	-0.288738730036955
12.2	0.932831956707928	0.318133064285097	-5.77837541307754E-07	-3.79483265596156E-06	-3.11175338819621E-06	-7.2911567340601E-07	0.951794367761935	-0.29204428501615
12.3	0.964661546710987	0.199914037959116	3.59414274406098E-06	3.42866124539389E-06	-3.4312330354557E-06	6.26153558574553E-06	0.95023056398876	-0.295018111025671
