# GHZ S RI R 50
0.2	-0.96535194411935	0.25187225571705	8.82005871166091E-06	5.31327763135914E-06	1.13460830902544E-06	-2.8884213589378E-06	0.998981389687346	-0.00739038702778361
0.3	-0.925607872905501	0.371619550044421	-7.65628958859706E-06	-8.14308269969343E-07	-1.25736621151478E-08	3.6564347909555E-06	0.998726428975868	-0.0103962419634304
0.4	-0.870595696116357	0.485093643203713	-2.19248280840089E-06	6.33316272906599E-06	2.91920782104886E-06	5.72816026968189E-06	0.998395646721654	-0.0130873223214957
0.5	-0.802317965554589	0.590572042380876	-2.64525752338953E-06	5.48459678837096E-07	1.05062172265799E-05	4.87696589944404E-06	0.998064486973839	-0.0157450759058319
0.6	-0.721323548061406	0.686886715549921	-1.72344000892994E-06	-1.81140487972519E-08	4.15797458504783E-06	-1.03254400478025E-05	0.998607304653762	-0.0187871519552472
0.7	-0.628804884939471	0.772151243169501	-2.04436406444436E-06	9.87698579208166E-07	3.78188656590809E-06	1.11462273651229E-05	0.998130349668475	-0.0221015713163315
0.8	-0.526321798287671	0.845070722226364	-5.59691116337658E-06	3.77860836820032E-06	-3.16432037369316E-06	-2.13528409473557E-06	0.997662128262039	-0.0244296558020607
0.9	-0.415774539274766	0.904308694551454	-6.6590100818663E-07	5.24266694794085E-06	3.26142496599549E-06	-2.95415904905679E-07	0.997267646472842	-0.0270041226962071
1	-0.298237772732352	0.949187536897977	1.56533862629885E-05	-3.68624988691625E-06	-9.57952030964566E-06	5.30015018757682E-07	0.99619782394472	-0.0285060624002003
1.1	-0.177103730396223	0.978736417463796	1.33967374177976E-06	-2.97554274117293E-06	9.37439113164067E-06	1.25713310623349E-05	0.995924078363943	-0.0297808126657398
1.2	-0.0523144702534123	0.992974319873578	-7.89101934511579E-06	-3.25560107489218E-06	-3.08957330015268E-06	-4.47072809743744E-06	0.995481683726599	-0.0306846350624228
1.3	0.073358061725177	0.991412006782218	1.76430873827421E-07	3.32815935803373E-06	1.9254045899399E-06	3.41501349250745E-07	0.995844736242813	-0.0316421652042378
1.4	0.197590066465145	0.973916179173333	2.08147871075079E-08	3.76166326388473E-06	-2.52128938413289E-06	-5.60735068532836E-06	0.995872687884582	-0.0340221934602451
1.5	0.318385042125486	0.941178839293135	3.18187008231137E-06	-2.64953021352331E-07	2.69701473462718E-06	2.09222545294869E-06	0.996198461937581	-0.0374435244580737
1.6	0.434038684702354	0.893940143727054	1.78615186386466E-06	-1.93572750039704E-06	-8.90890126322767E-07	-3.05966783913543E-06	0.995996499075091	-0.0407484544177884
1.7	0.542664919680425	0.832064777885214	-8.38796776589637E-08	-3.52014164872252E-06	2.00042206286407E-06	4.92072515707843E-06	0.996283467120174	-0.0432966612791816
1.8	0.64246304312218	0.757460709193149	-2.05392801896039E-06	-1.81236713727628E-06	-4.64052336476879E-06	1.82911642668402E-05	0.996025126387729	-0.0459595710868037
1.9	0.732000612223451	0.670835405977149	-4.38297862884154E-06	-1.46535145988596E-06	-4.91729503425533E-06	-5.99466141205866E-06	0.995551616079952	-0.0483251290440012
2	0.809152304323754	0.573731211957829	-9.4294741776374E-08	-6.72289926651564E-07	-1.6631589178504E-06	-1.41441779823511E-06	0.994029090844257	-0.0503469192962827
2.1	0.874768172066191	0.467817293214329	-1.15087020709171E-06	9.41959844508193E-06	1.98931597830958E-06	-3.76421749369599E-07	0.99447325074419	-0.0514403017494372
2.2	0.92650071114515	0.354464969144857	-1.31855537073115E-08	-5.91384565159732E-06	-7.39264202552239E-07	2.728907366678E-06	0.994987725310305	-0.0538155701300612
2.3	0.963348804533442	0.235362308316277	-1.31689591803079E-06	2.75603406870175E-06	-2.91712155183977E-07	1.19406204926391E-05	0.994863028400909	-0.0556937390275493
2.4	0.984934988410068	0.111771462294763	-5.84913122070727E-06	-3.71120985702895E-06	-1.75793896115594E-05	1.44484721137364E-05	0.994813279801499	-0.0587536641561226
2.5	0.991072866644199	-0.0124829140014126	1.822611284048E-06	-2.95213201337677E-06	-1.80618850931047E-06	7.52768722865951E-06	0.994387892983304	-0.0606784504467692
2.6	0.981712185295836	-0.135448954435743	2.85408820117782E-06	9.24367983389861E-07	-1.75893710875536E-06	4.48909022934768E-06	0.994627267034307	-0.063222070212232
2.7	0.957104672394941	-0.256925020996999	3.78625647514026E-06	1.04353540406697E-05	2.30736435416185E-06	3.86716090872014E-06	0.994553299519565	-0.0660065661708433
2.8	0.917616746580835	-0.374773256551698	-8.04934514494109E-07	-2.29134647564E-06	2.24916973600607E-07	-1.88394964586585E-06	0.994984790497482	-0.0679529792177963
2.9	0.863885842036196	-0.486525933411242	3.78887915479065E-06	-8.29141111993359E-06	-1.22431094053904E-06	-1.42070120047864E-05	0.994812619197485	-0.0700176570514871
3	0.796289273034671	-0.59123194162911	-3.59674616176333E-08	6.64009019810355E-06	-1.47686969207817E-05	5.24359686186202E-06	0.994691995892718	-0.0723897922080895
3.1	0.717076449880468	-0.68544018000028	-5.00633371199344E-06	7.79493435160787E-06	5.80130983302504E-06	-6.38673535769694E-08	0.994534364363583	-0.074256777039268
3.2	0.62504306240635	-0.770296913594975	9.50929969667256E-07	2.12725600453123E-06	-4.55806334847303E-06	4.59852129354379E-07	0.994403538321521	-0.075969491682344
3.3	0.52338978116492	-0.842973840157073	7.24911342692989E-07	-1.45564366994793E-06	-4.58122565132199E-06	7.12147666233573E-07	0.994370105234427	-0.0791701045921825
3.4	0.41275046852667	-0.902423827794749	6.46837262841448E-06	2.62032117443753E-07	-8.10524261781528E-06	-7.21424426117536E-06	0.994658669491646	-0.0812885347994243
3.5	0.294766808181863	-0.946895057526841	-7.70539790175504E-06	1.93637903447901E-06	-5.8763196840798E-06	-8.00195620997745E-06	0.994383325956065	-0.0844328946639684
3.6	0.172886846190658	-0.97577604207556	-8.41530353959E-07	-4.38279314827286E-06	-7.79175075303829E-06	-6.35641576158116E-06	0.994066155985618	-0.0866620818787103
3.7	0.0485921684012409	-0.990454494075594	-6.6908581215216E-06	-6.79357296064135E-06	5.44981274842064E-07	-4.76180622732058E-06	0.99412432107847	-0.0893249673502111
3.8	-0.077181799277526	-0.988910093540379	-3.64828168213296E-06	1.07060276114055E-06	-3.28885472092872E-06	-2.47757720050716E-06	0.993816036790429	-0.0914274192726339
3.9	-0.201168836424702	-0.971418433456473	-4.9119161846022E-07	3.50720267093051E-06	2.05802382822798E-06	-1.21291317857018E-06	0.993601758232964	-0.0946980712399394
4	-0.322093910557064	-0.938502015089154	1.16506178477115E-05	8.16201320548662E-06	7.28133529479872E-06	-4.01451977531553E-06	0.992580589372301	-0.0950930106420813
4.1	-0.437499732615389	-0.890936199457778	5.21714766450473E-06	1.34517190385079E-06	-3.48721097720789E-06	6.64431170114787E-06	0.993707071474387	-0.0960117901179117
4.2	-0.54603892315869	-0.829533302586688	-7.10332917521494E-06	-1.22947538971487E-06	-8.27723576266742E-06	-7.21822067638696E-08	0.994057661606907	-0.098932534663244
4.3	-0.64612539319659	-0.754439348155512	7.11826998593606E-07	-2.36944465678063E-06	5.21847008446409E-06	9.00224097141902E-07	0.994426630418137	-0.101249428562228
4.4	-0.735891364368163	-0.667094702201359	4.48719570568168E-06	-1.76199233333102E-06	-8.74542646226533E-07	1.34615175539755E-06	0.994259701867496	-0.103872023368906
4.5	-0.814381378263352	-0.569272929182644	6.79341485669759E-06	1.89584846623553E-06	-7.94724872234761E-07	-3.26742129427011E-06	0.994734558769059	-0.105893985757451
4.6	-0.880295682273649	-0.461752083092974	2.45337479611745E-06	2.96715778130816E-06	-6.63642539718615E-06	9.75313000997513E-06	0.995158088759977	-0.109331219891893
4.7	-0.931685556500652	-0.346046434666992	-1.41082998279043E-05	5.89455124493282E-06	-3.47207548343674E-06	-4.43117152577316E-08	0.995240512403152	-0.112008502675768
4.8	-0.967960372050406	-0.225497798484501	-3.1571441494278E-06	-5.16699568580794E-06	-5.54704175989282E-06	2.35751574798271E-06	0.994921340120239	-0.11494095401418
4.9	-0.988620598573792	-0.102026642702149	-1.00138658591805E-06	-8.58350778870837E-06	-4.2373492498241E-06	7.30996068040302E-07	0.994585957881851	-0.117084395720042
5	-0.994532059862223	0.0234801739482136	7.58398287770227E-06	-1.56021444773848E-06	-1.75332378146595E-06	-2.7363746474267E-06	0.994444642569561	-0.118875546321181
5.1	-0.982846797711408	0.149996409003006	-2.5997667489889E-06	-6.42148275907029E-06	-1.00909214261598E-06	-1.96185447034674E-06	0.994599909999336	-0.120482972615971
5.2	-0.956264353287741	0.272367521222831	4.01220002794779E-06	-4.31354096464029E-07	-5.46851149321925E-06	6.32085354408108E-06	0.994445138998535	-0.122959538073794
5.3	-0.914853251256845	0.390626920671479	5.14851372518054E-06	6.03690984431702E-06	-9.58329372330557E-07	-3.60060013502379E-06	0.994367266150551	-0.125409228231134
5.4	-0.858855168842964	0.502696266957377	3.07708258798608E-06	-2.01990665924299E-06	-1.13611644787E-05	2.19254200192435E-06	0.994713568257185	-0.128573979207185
5.5	-0.788885743189664	0.60660181123437	-4.31529019552647E-07	-2.20367523532213E-06	-5.81749351761515E-06	6.14361999534606E-06	0.994416017150847	-0.132040418885666
5.6	-0.706199892488284	0.70080951744378	2.38252523095649E-06	7.3367632828285E-06	-5.43115203016256E-07	2.94088019276572E-06	0.994271882519263	-0.134786067205237
5.7	-0.612573051780118	0.784240330184716	-2.58483361047337E-06	2.36941770109663E-06	7.94424769949908E-06	2.79745845127686E-06	0.994106234344448	-0.137749182845332
5.8	-0.508917525054196	0.854721191610249	-4.67189950858172E-06	5.12574161646375E-06	-3.69441461008479E-07	3.43798699555229E-06	0.993773470808086	-0.140512505127366
5.9	-0.397413249341145	0.91169551251966	6.38552379451934E-06	1.50440800993907E-06	-2.72277970050345E-06	2.55847581807481E-06	0.992730346855736	-0.143322133661385
6	-0.280773395781968	0.953598540558305	3.53414766840684E-06	3.31209022799488E-06	-3.28786279004249E-07	-1.43902646251538E-06	0.991277320215348	-0.143675733445852
6.1	-0.159584906248151	0.982100262370625	9.21434674498538E-06	1.53781704939572E-06	-1.26724331184302E-07	-1.81642513687724E-06	0.992776730227823	-0.144362182497381
6.2	-0.0342660484409889	0.994669124242707	2.45129617587921E-06	-1.73765924746839E-06	1.48808739046265E-06	-4.86767388157998E-06	0.993143480487166	-0.146536525124576
6.3	0.0916980283328042	0.990791536640024	-4.37816629988621E-06	4.26642022674418E-06	-6.18785637679508E-07	-1.73279426526829E-06	0.992760809857229	-0.149373670775702
6.4	0.215254650173288	0.970658804445553	-4.28199443747484E-06	1.07710381164725E-06	-1.76324065018132E-06	8.88153355014711E-06	0.991716629532955	-0.151962764920047
6.5	0.334915517977785	0.937226442210181	2.46375078764449E-06	-1.33814936831331E-06	1.49400921722581E-06	-2.94454119837102E-06	0.991773095356154	-0.154215980188325
6.6	0.451421495589673	0.887736962081858	-4.76273591839191E-06	-2.25965871795753E-06	-1.88445394803695E-06	-6.67129154440763E-06	0.991871828881746	-0.158044146469545
6.7	0.55933613611484	0.823212341877723	4.18030723998004E-06	-6.72960290483082E-07	-4.69509982829439E-06	1.02585912870478E-06	0.991093492708107	-0.161010626833819
6.8	0.657949470519651	0.74598834584666	3.76664023493116E-06	-2.09819219598045E-06	6.23673124809419E-06	-9.43484708205058E-07	0.990309345239853	-0.16368333602935
6.9	0.745739456173202	0.6570915365557	2.06040011608103E-06	1.64010030555903E-06	8.80444533768103E-06	-2.79407291748832E-06	0.989400996342283	-0.166218104115737
7	0.82118554359873	0.55832482275734	2.19168977647764E-06	4.1000171015143E-06	-7.60823289945851E-08	5.39697565873645E-06	0.988184374998519	-0.167595789522718
7.1	0.884236121654328	0.451570399063147	-1.28916946325817E-07	1.7217060252614E-06	8.26693732145446E-06	-4.67685811714746E-06	0.988123737298026	-0.169307202632824
7.2	0.933398977779932	0.3371544907662	4.85611669811781E-06	-1.40908607324247E-06	7.28415009637138E-06	3.77269258399874E-06	0.987521780047837	-0.17159102139376
7.3	0.967565113122599	0.217409977692429	4.87101526885614E-06	-1.12371340038479E-06	-7.37900318783452E-06	-7.38149626192742E-06	0.986463449843686	-0.173963678557013
7.4	0.986792327161212	0.0933997100975389	-1.8146533708801E-06	9.93259708140681E-06	1.42503426921265E-06	-4.08637329845531E-06	0.98530736324085	-0.177511363965001
7.5	0.988595160383174	-0.0322235552776137	8.46061576537181E-07	8.03888219770569E-07	1.68168389188915E-06	9.86900974406038E-07	0.982187760027807	-0.180808069693779
7.6	0.975766883600636	-0.155361366337561	1.44318328928072E-06	-2.62378290977541E-06	-5.44150146624308E-06	-3.60277000300115E-06	0.980865028946446	-0.182575318674818
7.7	0.948203853417653	-0.276951813302623	5.58616613710187E-06	2.38306901659571E-06	-6.77142919502456E-06	1.2085549450835E-05	0.980245315373969	-0.185555242288733
7.8	0.905748708088285	-0.394126657112231	-6.37735400245077E-07	-5.24010754808061E-06	3.71241153575417E-06	-4.75468490713113E-06	0.97976365488789	-0.188602558717832
7.9	0.848332081388037	-0.504914718466807	8.85353530998498E-06	1.48727158783528E-06	-9.56951123829691E-06	-8.58853953572219E-06	0.978723398444891	-0.191676715203833
8	0.778270537311472	-0.605754029061172	-6.65008700176337E-06	-1.60710496682159E-06	-1.19798842093015E-05	2.52806321025612E-06	0.977529073217403	-0.192682575437785
8.1	0.697487778890305	-0.699668297583341	5.07674218547397E-06	7.19747519825596E-07	2.89644228532994E-06	2.25525259763683E-06	0.978723922631343	-0.194987254856486
8.2	0.603765076121898	-0.782368906897781	3.55888896079993E-06	-2.58618475399598E-06	-3.71475134631396E-06	-1.16103437912544E-05	0.978663629012692	-0.198020010692977
8.3	0.500086580378367	-0.852020369405322	2.72291021208141E-06	-1.86740729889798E-06	1.65608757378659E-06	5.2891917633481E-06	0.977902131213808	-0.201079201905505
8.4	0.388445291525707	-0.907821536808513	-5.55866677196004E-06	-1.00019918267176E-06	1.06635997184138E-06	2.94872860263102E-06	0.976809714551633	-0.203912394815403
8.5	0.270167573034178	-0.948706586320539	-3.28293887916686E-06	1.63931448423652E-06	-4.8152405583601E-06	-4.98443562077755E-06	0.976094525276723	-0.206590438222145
8.6	0.147983396333625	-0.974375472437954	-8.13003773959361E-06	1.42380327352017E-06	-4.37182087138639E-06	-6.8384812013895E-06	0.975417653049727	-0.209748831747787
8.7	0.0234396065153821	-0.984594635685037	2.23377600318818E-07	-2.15545753321462E-07	6.11522468286128E-06	4.79463773661932E-07	0.974389187652719	-0.212499349051262
8.8	-0.101185282106737	-0.978958512448479	1.01478079543565E-06	-1.82069598331767E-06	-2.39356921421262E-06	-1.26765190341323E-06	0.973444041627266	-0.214745668113814
8.9	-0.223564528921705	-0.958858471414972	-2.88530279830554E-07	3.03223434747967E-06	-1.2389999904243E-06	-1.63442618095392E-06	0.972901180784249	-0.216742015948074
9	-0.343360219612596	-0.922732284411962	2.98178028257019E-06	1.57353757467996E-06	-1.56485373301629E-06	2.11973928233428E-06	0.972186237125236	-0.21893437848705
9.1	-0.455792403016675	-0.871058090890909	-9.28557501969169E-06	2.30431561056758E-06	-1.55031453211054E-06	2.41264382527711E-06	0.971462690026852	-0.22074405717516
9.2	-0.560811402895036	-0.806719466668442	7.48659162759998E-06	-2.65197123883943E-07	-9.07734752313092E-06	2.00294487708134E-06	0.970824857247007	-0.223019995580727
9.3	-0.65681319926055	-0.730462158251442	4.80422819394174E-08	-7.14437612954753E-06	1.57715029203282E-06	-1.30306174760761E-06	0.97044743201304	-0.225497335653283
9.4	-0.743374843554559	-0.643164134365477	6.07940358425754E-07	2.47392570294815E-06	1.59763879009625E-06	-3.59411618789436E-06	0.969669337359239	-0.228952822311039
9.5	-0.817748937736223	-0.544120389643988	-2.82974654357431E-06	6.63282073100866E-06	4.69969156998479E-06	-1.38526231544201E-06	0.967785356367122	-0.231865172129526
9.6	-0.879059537702437	-0.437586305762261	-5.02277943948853E-06	-5.16324538108239E-06	4.75170026576545E-06	2.85149176643438E-06	0.966843190779535	-0.234326716915148
9.7	-0.927304730609618	-0.323109017076077	-2.01168591030893E-06	-5.04563482968676E-06	2.08829690431304E-06	2.8066286643521E-09	0.965947769197093	-0.236875480954624
9.8	-0.960632695159564	-0.202814814917052	5.7472704494778E-07	-4.26892134049702E-06	-2.93766777418013E-06	-2.496048460806E-06	0.965074238270588	-0.239021437450865
9.9	-0.977993514339837	-0.0793767844273349	-6.06720624049615E-06	4.21069619570119E-06	-3.0623387736031E-06	1.66812915727342E-06	0.963413631146679	-0.240790676256379
10	-0.980160109004356	0.0443844948805779	3.55135758496609E-06	-5.10802722127144E-08	8.21162274319431E-06	1.10171083890713E-05	0.962316740975363	-0.240268712279809
10.1	-0.966623484348973	0.167512664223071	-2.8481664837303E-06	-2.50335133446832E-06	-2.00395658822557E-06	-2.48039267142638E-06	0.962910851046146	-0.241604966681367
10.2	-0.93775321329317	0.288105016152181	2.34232392140157E-06	-1.0200989941572E-06	-2.75558768012346E-06	-1.0558803671479E-06	0.962391398658637	-0.243097223005843
10.3	-0.89387781503334	0.403853135441976	7.70921199402371E-06	-5.92968352755866E-06	3.85150889105644E-06	8.18093676481332E-06	0.961454951529835	-0.244641216214542
10.4	-0.836849276194799	0.512419895947342	1.69643406053805E-06	2.48002321029569E-07	6.24045844248165E-06	-1.18526685874666E-06	0.960201433639345	-0.245974892790967
10.5	-0.768269596828491	0.614717470732439	8.31118077709759E-06	-4.1227456821016E-06	-4.9196614437463E-07	1.96342351686967E-06	0.960047342948849	-0.247383724296213
10.6	-0.684832934711494	0.707717139164835	8.89515363829651E-06	-1.2695656260722E-06	-1.46124425093076E-06	1.35812092557229E-05	0.959715417897454	-0.249823404976187
10.7	-0.590160832708051	0.787753003809273	7.97628995463485E-06	-1.89721190324137E-06	-3.0409679406349E-06	-5.25392045975383E-06	0.959364445385346	-0.25212643274904
10.8	-0.486171335103461	0.855210566524139	2.43865676277819E-06	5.22134117463536E-06	-3.60963993322157E-06	-2.04060195846188E-07	0.959143860370673	-0.254213073576036
10.9	-0.374687141836828	0.909476427879574	-5.53203395776599E-06	4.81523649079828E-07	1.58833782930758E-06	4.00946064109698E-06	0.958772013193466	-0.256249586754839
11	-0.257058756190867	0.949687685655007	4.08825399775816E-09	-5.19582470075936E-06	-8.33873725184106E-06	2.21905336864319E-06	0.958087657505048	-0.25785454885114
11.1	-0.135608645274801	0.974443644619517	6.27397495846953E-06	4.07248797891294E-06	-1.9016927650036E-06	1.07021224728988E-05	0.95738838526209	-0.259427901044279
11.2	-0.012338744878048	0.984078323040003	1.56894268990721E-06	1.35018339875794E-06	5.10015482874676E-06	8.86399380526733E-06	0.956370275094167	-0.260966803980914
11.3	0.111357035335988	0.977600744946475	-4.57112202369873E-07	-1.72983519168855E-06	-6.87847685065722E-07	-4.37562435609019E-06	0.955822769155796	-0.262575492651487
11.4	0.233192858676323	0.955950836068766	2.01893677486379E-07	1.18104762312085E-05	2.40372516259622E-06	4.91266758554137E-06	0.954860746388092	-0.265350192240921
11.5	0.351442184365449	0.919358163061174	6.16743528262431E-06	-3.16339241488481E-07	3.17390432750572E-07	-1.8732637362441E-06	0.952774580823648	-0.267463007399787
11.6	0.463120373676218	0.868431836619924	-5.97879112020585E-06	3.04757262421325E-06	-4.84782753835565E-06	1.89824691227176E-06	0.952008823279492	-0.269879954623782
11.7	0.567481143442384	0.804359806422882	3.31370953533664E-06	-1.77976857231674E-06	-1.70270445292075E-06	2.22208300166737E-06	0.951048036423073	-0.27309701034814
11.8	0.662998280756684	0.727021567314315	-8.39089317995186E-07	9.74201115227964E-06	-2.72658835681324E-06	1.0478298843608E-05	0.949881742744963	-0.276234859283322
11.9	0.74655942381588	0.637395436438388	-7.24932819749284E-06	-1.04736309907032E-06	-3.91258964176178E-06	1.11719498496378E-05	0.948690190745458	-0.27797201693657
12	0.817109245490511	0.540934103131789	-6.46309608977094E-07	1.36943227157902E-06	-3.10606118766222E-06	-1.92584482891574E-06	0.948614925575923	-0.277599219697001
12.1	0.879028212106407	0.436247605989194	-3.88338193899263E-06	4.9361331721455E-06	-1.37807232200005E-06	8.35738079471942E-06	0.949942249742766	-0.279623247780355
12.2	0.926483540993161	0.323426575806419	-5.48333962737729E-07	-3.78116335708817E-06	-3.09204890465229E-06	-7.4768180703893E-07	0.950075938175556	-0.282256416246246
12.3	0.959650130207887	0.206449433340359	3.55308440635156E-06	3.44449989973362E-06	-3.46843493549972E-06	6.21037411090585E-06	0.949994369605311	-0.284823811996642
