# GHZ S RI R 50
0.2	-0.965545520722673	0.251700694418053	8.81978641729538E-06	5.31456974473696E-06	1.13500596665824E-06	-2.88840552253232E-06	0.998919488480042	-0.00734671215141013
0.3	-0.925914768262007	0.371486944072508	-7.65671100176503E-06	-8.15705674274305E-07	-1.3213319430487E-08	3.65670178419406E-06	0.998657698947786	-0.0102487067971287
0.4	-0.87098009453647	0.485078017800348	-2.1939927192587E-06	6.33369124156802E-06	2.918568780089E-06	5.72955550215664E-06	0.998419603026169	-0.0128751238235386
0.5	-0.802577966143068	0.590661662785956	-2.64552307137909E-06	5.48273327762295E-07	1.05066545732524E-05	4.87828629279974E-06	0.998050092580975	-0.0156102752727587
0.6	-0.721633565111887	0.686898343105907	-1.72353794896822E-06	-1.85433194184079E-08	4.16078712039232E-06	-1.03250207260314E-05	0.998638742617695	-0.0184722272068158
0.7	-0.62914954800766	0.772258309636101	-2.04491476978807E-06	9.87355986574947E-07	3.77977378695966E-06	1.11488429192216E-05	0.998303824965551	-0.0218402804316625
0.8	-0.526636906783912	0.845248570372377	-5.59863982358055E-06	3.77811798078687E-06	-3.16442878089038E-06	-2.13629403608659E-06	0.997865822944443	-0.0242505545059082
0.9	-0.416060593533877	0.904537891037354	-6.67111706861769E-07	5.24343856200522E-06	3.26205320847137E-06	-2.94786013920628E-07	0.997485753994081	-0.0268497521633948
1	-0.298498224540219	0.949481131795382	1.56581245154383E-05	-3.68404997956221E-06	-9.58207364166498E-06	5.28227869770655E-07	0.996476578814296	-0.028441884720843
1.1	-0.177335383885667	0.97909779295903	1.3406102463594E-06	-2.97592858834549E-06	9.37382681621571E-06	1.25761657337711E-05	0.996141035729082	-0.0296214968559045
1.2	-0.0524997640980749	0.993397729622613	-7.8920068193854E-06	-3.25921135094201E-06	-3.08885137344585E-06	-4.47299893800891E-06	0.995878701624269	-0.0303738193248466
1.3	0.0731581523288182	0.991799851985417	1.74671408006707E-07	3.32902695794962E-06	1.92566655990133E-06	3.42622145860086E-07	0.996356364284188	-0.0311557750477452
1.4	0.197264739749455	0.974296897973012	1.75993038744396E-08	3.76217180868378E-06	-2.51682107397318E-06	-5.61023923359072E-06	0.996478952156822	-0.0332152824847865
1.5	0.318080632080151	0.941568399194582	3.18265498872929E-06	-2.61892811042828E-07	2.6954198973482E-06	2.09520265703872E-06	0.996989009008037	-0.0366204144479593
1.6	0.433756245464428	0.894357726018918	1.78833537183512E-06	-1.93440210435101E-06	-8.8815325858243E-07	-3.06110319374425E-06	0.996835336544473	-0.0400697145623644
1.7	0.542523067748384	0.832484735556886	-8.10706458335898E-08	-3.5211641646761E-06	1.99700629833891E-06	4.92366942951453E-06	0.997124883181569	-0.0428912962761363
1.8	0.642431046038554	0.757849442221231	-2.05334682200911E-06	-1.81432205416554E-06	-4.65433230465522E-06	1.82937565007373E-05	0.996815774060385	-0.0457518284136959
1.9	0.732140206168384	0.671248141416091	-4.38418624850086E-06	-1.4687422117914E-06	-4.91598296956068E-06	-6.00055585885338E-06	0.996444296788817	-0.0482727833359556
2	0.80957732142168	0.5737654631379	-9.42816879655854E-08	-6.72760597396005E-07	-1.66413324667005E-06	-1.41557698520436E-06	0.994882119220569	-0.0508919397720725
2.1	0.874796854323339	0.467732047251706	-1.15171038130381E-06	9.42238736490217E-06	1.98993732909756E-06	-3.76431678889904E-07	0.994865789573011	-0.0518943107337427
2.2	0.926551872700246	0.354553312500553	-1.2301602705686E-08	-5.91626938707622E-06	-7.39977320637304E-07	2.72991369550016E-06	0.995464369713664	-0.0541854751618453
2.3	0.963536136491149	0.235473110360186	-1.31780636548337E-06	2.75745552174376E-06	-2.92687781578083E-07	1.19471488012745E-05	0.995410675147602	-0.0561232419487435
2.4	0.985282742806262	0.111780949522019	-5.85281811445302E-06	-3.71309142248944E-06	-1.75890419923843E-05	1.44580487872887E-05	0.995429965686862	-0.0592494979975757
2.5	0.991441032776026	-0.0127588685482452	1.82375823633307E-06	-2.95425939735336E-06	-1.80713723261053E-06	7.53299587446098E-06	0.995082089150696	-0.0613313134787816
2.6	0.981917214149559	-0.135925949405784	2.85708344308438E-06	9.24086504977798E-07	-1.75877529108322E-06	4.49392239772371E-06	0.995306885329457	-0.0640661777261103
2.7	0.956994108955645	-0.257542147572478	3.79753295865731E-06	1.04399999306243E-05	2.31221225476383E-06	3.86814821035642E-06	0.995068166318254	-0.067038232373364
2.8	0.917198845757178	-0.37526513903054	-8.075938084156E-07	-2.29158377934765E-06	2.23134055820324E-07	-1.88503211880207E-06	0.995317575174856	-0.0689791864860746
2.9	0.863391634080384	-0.486852083420279	3.78112434456535E-06	-8.2976982840326E-06	-1.23971068413011E-06	-1.42096026069977E-05	0.995116091181881	-0.0709790464936063
3	0.79574880983932	-0.591572043295788	-2.86671924564519E-08	6.64156186620972E-06	-1.47661110597499E-05	5.26098206098652E-06	0.995064456888448	-0.0733620734265973
3.1	0.716379586238023	-0.685668082491809	-4.99790012594234E-06	7.80190266713331E-06	5.80205259685854E-06	-7.06781123328449E-08	0.994959742904965	-0.075279814321479
3.2	0.624326088028321	-0.770370808410407	9.53446393608688E-07	2.12629010289513E-06	-4.55781611339729E-06	4.65145780442426E-07	0.994856639427188	-0.0770444879123771
3.3	0.522720128386592	-0.842892044987672	7.23336992057372E-07	-1.45642945856591E-06	-4.58045952582362E-06	7.1710539052732E-07	0.994817155116902	-0.0802470074208423
3.4	0.412337764744229	-0.902226773270434	6.4683350131674E-06	2.56539496086618E-07	-8.11103145196705E-06	-7.20708523410339E-06	0.995165127934362	-0.0822434558088794
3.5	0.29439857974511	-0.947204808217606	-7.70724124416788E-06	1.94248026108345E-06	-5.88424897902324E-06	-8.00121020149232E-06	0.995228244472819	-0.0855037270098151
3.6	0.172034945154839	-0.975709923974718	-8.46607401746142E-07	-4.38338589390369E-06	-7.8013808089014E-06	-6.35009847304028E-06	0.994767160947054	-0.088000454146705
3.7	0.0480321030371622	-0.990073101581777	-6.69882258832179E-06	-6.78755982535769E-06	5.40114907888889E-07	-4.76302315265991E-06	0.994737862339298	-0.0906840512998666
3.8	-0.077437166746635	-0.988580442121651	-3.64762686680764E-06	1.07416944099381E-06	-3.29153021414942E-06	-2.47470235205002E-06	0.994424293462466	-0.0928370857983463
3.9	-0.201344029961973	-0.971411663512241	-4.87694851442756E-07	3.50843041641347E-06	2.0572042018011E-06	-1.21527488551053E-06	0.994320808956127	-0.0963180882323269
4	-0.322777558499733	-0.938597257213503	1.16614606660535E-05	8.14458337739148E-06	7.27497744097306E-06	-4.02469505063604E-06	0.992887227894302	-0.0973829148853487
4.1	-0.438286612012773	-0.89056989879879	5.21650193636015E-06	1.33849588072695E-06	-3.47795398159886E-06	6.64556488240244E-06	0.993400144599393	-0.097910336853365
4.2	-0.546695186153876	-0.828936240698723	-7.10166248737895E-06	-1.22140124726886E-06	-8.27384584509934E-06	-6.33435250653192E-08	0.993744172289571	-0.100641133249114
4.3	-0.646642330084705	-0.753732718538025	7.09119082673542E-07	-2.36913903630221E-06	5.21712100203676E-06	8.94549353143213E-07	0.994043732775414	-0.102897761948438
4.4	-0.736303749688167	-0.666330078166658	4.48354661152353E-06	-1.76557334706457E-06	-8.72860682861784E-07	1.346415421472E-06	0.99378547277697	-0.105444130896875
4.5	-0.8146870834052	-0.568540025169974	6.79164801512585E-06	1.88943006419105E-06	-7.96982693815247E-07	-3.26519055061872E-06	0.994074385287661	-0.107242994167949
4.6	-0.880725648466736	-0.460950726139703	2.45494078124692E-06	2.96473650118964E-06	-6.62796317391959E-06	9.75567065313315E-06	0.99472239740497	-0.110406349152086
4.7	-0.932035637371133	-0.344981740949999	-1.41012795990915E-05	5.90580505949707E-06	-3.47162767488632E-06	-4.13329862037705E-08	0.994929254784213	-0.113138925529173
4.8	-0.968029440143941	-0.224207670314039	-3.16158625324266E-06	-5.16290524305139E-06	-5.54365981465525E-06	2.36248469753195E-06	0.994600506206767	-0.116114685051287
4.9	-0.988135174454153	-0.100747380598568	-1.00967372380294E-06	-8.57907317057517E-06	-4.23492056546212E-06	7.349927861556E-07	0.994212562154878	-0.118249165288122
5	-0.994086575857939	0.0241150981249629	7.57991955915163E-06	-1.5651453056169E-06	-1.75464375566136E-06	-2.7340401604398E-06	0.994073237891816	-0.119981259530209
5.1	-0.98247555925527	0.151173526141121	-2.60528627320105E-06	-6.41728515461679E-06	-1.01072201316538E-06	-1.96036454743411E-06	0.994298204456802	-0.121607760143617
5.2	-0.955273526690729	0.273455049912549	4.00979817419354E-06	-4.35316552988356E-07	-5.45927592356713E-06	6.32346327787826E-06	0.994106058550601	-0.124196044100948
5.3	-0.913633171584257	0.391283463925064	5.15082731849949E-06	6.02791479025026E-06	-9.6113173831085E-07	-3.59725790231949E-06	0.9938055275777	-0.12667647693069
5.4	-0.857737278304565	0.503038590991292	3.07321481429033E-06	-2.02069484741869E-06	-1.1350862669857E-05	2.19945867399557E-06	0.9939494282189	-0.129557608429403
5.5	-0.787966028470208	0.607058115108449	-4.32975875434039E-07	-2.20213209950064E-06	-5.80959450643614E-06	6.14468425691036E-06	0.993827309597134	-0.132938666004713
5.6	-0.704884860814036	0.701440469909974	2.38786974306769E-06	7.32872358224634E-06	-5.39808426450062E-07	2.93912701752499E-06	0.993475768366634	-0.135618530039943
5.7	-0.610813551188542	0.784613687471343	-2.58000255714487E-06	2.36944182474176E-06	7.93883489819432E-06	2.7871941537268E-06	0.993342196933283	-0.138397898985136
5.8	-0.506885763790968	0.854650077715876	-4.66206425821781E-06	5.123860578766E-06	-3.66039298168552E-07	3.43433328082292E-06	0.993115456845616	-0.141130802561051
5.9	-0.395206524486528	0.911179609264815	6.37960898421156E-06	1.49672934913198E-06	-2.71727360873607E-06	2.55808289699406E-06	0.992266912872984	-0.144227771503544
6	-0.278215405577366	0.952107618751213	3.53280272754691E-06	3.30090143629125E-06	-3.30352591237032E-07	-1.43597002694694E-06	0.989929786471693	-0.145370995625464
6.1	-0.157994687833542	0.9795933435003	9.19143657775356E-06	1.52748381952876E-06	-1.27643189006688E-07	-1.81161338924939E-06	0.990629691479265	-0.145044369849414
6.2	-0.0336277827594452	0.99204282642418	2.44495857016757E-06	-1.73334406045124E-06	1.48405645213332E-06	-4.85532679090626E-06	0.991114263079295	-0.146627853261748
6.3	0.0916560550036662	0.988419697054803	-4.36927069031745E-06	4.25479814162859E-06	-6.16720152342794E-07	-1.72890338743671E-06	0.990951175116183	-0.149039840178051
6.4	0.215080835143232	0.968457258345023	-4.27279163205281E-06	1.07286421901375E-06	-1.76301817824489E-06	8.86075565711434E-06	0.99020894196702	-0.151551085242229
6.5	0.333731545155257	0.934628896441892	2.45877991750096E-06	-1.33191083381765E-06	1.49336074352689E-06	-2.93516946905479E-06	0.990037013823433	-0.153396432941767
6.6	0.449783946702696	0.886442520168578	-4.7513449929526E-06	-2.26404362825273E-06	-1.87025429678598E-06	-6.66380789240252E-06	0.991115030423918	-0.156889746827825
6.7	0.557980832774387	0.822271690541185	4.17687533870701E-06	-6.66478271245377E-07	-4.69161863983464E-06	1.01829708327072E-06	0.990671936866135	-0.160416914802341
6.8	0.656609060108409	0.745270765969584	3.76607429324738E-06	-2.09226887702438E-06	6.23291861483667E-06	-9.3565904206766E-07	0.989807879273977	-0.163382681441187
6.9	0.744500389036178	0.656627684752542	2.05777213135078E-06	1.64108908123332E-06	8.80218726243721E-06	-2.78448649223513E-06	0.988876658590875	-0.166081154089276
7	0.819941461473756	0.557815607528228	2.18890329026275E-06	4.09860782897137E-06	-7.81219982153709E-08	5.39397856511617E-06	0.98723191153812	-0.167690185842984
7.1	0.88278564193418	0.451436220950452	-1.2964128830556E-07	1.71999884066482E-06	8.26134672479424E-06	-4.66832409765421E-06	0.987044941435964	-0.168815878372932
7.2	0.932027316385483	0.337394611597226	4.8524639664414E-06	-1.40414269705801E-06	7.27432925144075E-06	3.77442014639268E-06	0.986713002238633	-0.170860187329583
7.3	0.966285437097178	0.218094602670793	4.86737634409786E-06	-1.11749434124748E-06	-7.36396539052604E-06	-7.3819338654228E-06	0.985875810439908	-0.172980038842035
7.4	0.986046337506559	0.0948625520820374	-1.83166624310701E-06	9.92153613723837E-06	1.43150785809019E-06	-4.0805645706326E-06	0.985385473132834	-0.176069066435536
7.5	0.989241148174889	-0.031333999753144	8.45251639736602E-07	8.06111734462929E-07	1.6812098994301E-06	9.90826171437344E-07	0.983341329895944	-0.180388526442928
7.6	0.975915000057674	-0.155009780476715	1.44638245381298E-06	-2.6241069445757E-06	-5.44163452302088E-06	-3.60977654911808E-06	0.981191313466794	-0.1825928149852
7.7	0.948462530720951	-0.276551206284249	5.58702115689293E-06	2.38887215788027E-06	-6.78479918015704E-06	1.20860684867583E-05	0.980525839829636	-0.18545747669154
7.8	0.906144035874166	-0.394019874759048	-6.35526911334816E-07	-5.2437908591095E-06	3.71717075328218E-06	-4.75588317301264E-06	0.980105874416377	-0.188667138001957
7.9	0.848708038175289	-0.505608227071964	8.86200530164915E-06	1.48588040112421E-06	-9.58082414824684E-06	-8.5933519083925E-06	0.979249228304719	-0.192394229283272
8	0.77658094343807	-0.607148124618486	-6.65174464899847E-06	-1.59298983321605E-06	-1.19716859014518E-05	2.55214000236075E-06	0.976593254422137	-0.194559665087143
8.1	0.695426569771753	-0.698914042367727	5.06776723992028E-06	7.12804082828978E-07	2.8933417391814E-06	2.24774376184248E-06	0.976839393611908	-0.195406895173067
8.2	0.602475876177076	-0.780952245896196	3.55081891498022E-06	-2.58186252318925E-06	-3.7103857458654E-06	-1.15853555873515E-05	0.977088768139791	-0.197846992071997
8.3	0.499400334264332	-0.850361633622164	2.71764162180457E-06	-1.86304134756737E-06	1.65167528878508E-06	5.27858703623267E-06	0.976516465185613	-0.200682575114377
8.4	0.388471685747555	-0.906136996417316	-5.54604426807262E-06	-1.00207920171183E-06	1.06194423501266E-06	2.94318789546459E-06	0.975499124441841	-0.203405078193774
8.5	0.270486915030768	-0.947639113528832	-3.28035034061031E-06	1.63188261546419E-06	-4.80038387076469E-06	-4.98398756156454E-06	0.974634711886718	-0.205718067177335
8.6	0.148178862595275	-0.973150771703753	-8.12361247235968E-06	1.41305268461723E-06	-4.35963097995553E-06	-6.83672285437086E-06	0.974406896225968	-0.208482346360499
8.7	0.0239236751151201	-0.983192414811553	2.23357557355435E-07	-2.15115550333571E-07	6.10859896318897E-06	4.84804650816371E-07	0.973696713945545	-0.211243683977795
8.8	-0.100276211109768	-0.977349392446916	1.01508941630445E-06	-1.8178108026762E-06	-2.3898295786137E-06	-1.26813315403528E-06	0.972964920493896	-0.213526749962913
8.9	-0.221600565295579	-0.957070843974453	-2.90463232917539E-07	3.02712081293474E-06	-1.23571131610759E-06	-1.63277265316255E-06	0.972647382173921	-0.21558123152894
9	-0.340354541938923	-0.922617088004394	2.9743279867489E-06	1.57583936066314E-06	-1.56575992779132E-06	2.11371169164227E-06	0.972185039719351	-0.218009689215849
9.1	-0.453595884635965	-0.8717883753347	-9.27885727899389E-06	2.28681405956057E-06	-1.55245048787838E-06	2.40744626448358E-06	0.971450029909091	-0.220089167654487
9.2	-0.55896864669904	-0.808052562038465	7.47994689897643E-06	-2.51694986935772E-07	-9.07226673929332E-06	1.98497605865018E-06	0.970675401349648	-0.222420099054375
9.3	-0.655664973725338	-0.732324505210799	6.24782597647782E-08	-7.14019445524159E-06	1.57888662610488E-06	-1.29912392732465E-06	0.970187510328992	-0.22464102325449
9.4	-0.742909146578187	-0.645573071642507	6.01922934586818E-07	2.47543992643114E-06	1.60641447484553E-06	-3.59027352301144E-06	0.969736943267784	-0.227566905208932
9.5	-0.81941031601872	-0.546381561571805	-2.84555679979103E-06	6.63585323728352E-06	4.708117628793E-06	-1.37828807254441E-06	0.968413217434449	-0.230958014304558
9.6	-0.880560697106588	-0.438095746291487	-5.02070804516281E-06	-5.17306175050254E-06	4.75209165449233E-06	2.85920005824396E-06	0.967127784403286	-0.233350360177267
9.7	-0.928330600014144	-0.323430145353685	-2.00626814417001E-06	-5.05168235481905E-06	2.08968142052433E-06	5.60431208543592E-09	0.966447264201685	-0.235611080581396
9.8	-0.96149631137753	-0.203080558375839	5.81295929931218E-07	-4.27179231931362E-06	-2.93665553233743E-06	-2.50238380066483E-06	0.96604225446108	-0.23765372681864
9.9	-0.97861333110646	-0.079747422242134	-6.07911778502548E-06	4.20863440173712E-06	-3.0678257021382E-06	1.6665554997001E-06	0.965161996251102	-0.24002150873559
10	-0.98104957184407	0.0435866474613892	3.55341850141739E-06	-4.88654588312268E-08	8.20935209699832E-06	1.10285903550448E-05	0.962886724215786	-0.240747246536703
10.1	-0.96798153427094	0.167062074199614	-2.84603039138957E-06	-2.50820898704525E-06	-2.00149436339247E-06	-2.48411436083565E-06	0.963161491385709	-0.240756131642052
10.2	-0.939146498403233	0.288152960001407	2.34575413834298E-06	-1.0176432883854E-06	-2.75642559827826E-06	-1.0606805447315E-06	0.963333210416189	-0.24208133645622
10.3	-0.894949287385965	0.404410251236519	7.72489406634313E-06	-5.92696986809569E-06	3.84592464376152E-06	8.19463893127655E-06	0.96286904962616	-0.243782312728539
10.4	-0.836939379920651	0.513031125978871	1.69794474122874E-06	2.49662692831037E-07	6.24775825524442E-06	-1.18128170483731E-06	0.961961946017802	-0.245545026540497
10.5	-0.768454452020127	0.613532887303384	8.32210531719485E-06	-4.11315261630966E-06	-4.95105178569082E-07	1.96387936000632E-06	0.961684232024751	-0.247106785437583
10.6	-0.686743381750499	0.706929556756117	8.9114041165975E-06	-1.25733612586049E-06	-1.48534935860683E-06	1.36005712415346E-05	0.961761257557484	-0.250027044067817
10.7	-0.592796329806273	0.78801662814955	7.99300412508152E-06	-1.89261496811223E-06	-3.04126019038482E-06	-5.26675205376537E-06	0.9607113860988	-0.25301260968333
10.8	-0.488474848925679	0.85651016101891	2.43954368920113E-06	5.23226251465907E-06	-3.61593795230026E-06	-2.06815394790662E-07	0.960100028960046	-0.254843865272131
10.9	-0.376490079899084	0.910947668146772	-5.5406138594922E-06	4.78535162096164E-07	1.58802172518855E-06	4.01650963847812E-06	0.959698854062477	-0.256650524083285
11	-0.259784105257781	0.951830449711606	8.55581325234206E-09	-5.20571639586111E-06	-8.35652268296683E-06	2.21612199676257E-06	0.95897408342962	-0.258445907019471
11.1	-0.1372035138332	0.978084086502415	6.2836729967729E-06	4.08278544548716E-06	-1.90998974751703E-06	1.07209297420675E-05	0.958122613516296	-0.259847545208086
11.2	-0.0127865574887202	0.987879805570744	1.57084035731279E-06	1.35322972022065E-06	5.10400773808626E-06	8.88130195108501E-06	0.957104623215206	-0.261212224294815
11.3	0.111816983879586	0.981321553923092	-4.56584945849055E-07	-1.73292917388234E-06	-6.8576612446541E-07	-4.38311019598126E-06	0.956667230555322	-0.262461966560867
11.4	0.23450694464211	0.959410435563662	1.87860204479824E-07	1.18309346428714E-05	2.40185786531997E-06	4.92400167486708E-06	0.956448929551213	-0.264700421986052
11.5	0.353328006478129	0.922354062997172	6.18423708906733E-06	-3.10729826425319E-07	3.20198429346954E-07	-1.87793432607104E-06	0.95511299468394	-0.267964665550086
11.6	0.465550343900514	0.871171809047226	-5.99379714714885E-06	3.05277194573418E-06	-4.85980868194425E-06	1.90111992669123E-06	0.953566956579537	-0.270419087436011
11.7	0.570605244884374	0.806605047765621	3.32138959822275E-06	-1.78219575897578E-06	-1.70717067657492E-06	2.22608144333686E-06	0.952866477281805	-0.273294952558339
11.8	0.666744706632426	0.728557659535913	-8.46169760011713E-07	9.7640465923113E-06	-2.73841277982427E-06	1.05010364714084E-05	0.952449520311933	-0.276544713991849
11.9	0.751059491057322	0.637743176135972	-7.27214226858797E-06	-1.05130211509789E-06	-3.92592242053234E-06	1.12069089742413E-05	0.952335712958522	-0.279673623944462
12	0.820371592596602	0.538787903656984	-6.45635961120106E-07	1.37381087185903E-06	-3.11674509531725E-06	-1.9254322498158E-06	0.950464050978858	-0.281639011569431
12.1	0.880778551813636	0.43512185283216	-3.8859190821397E-06	4.9504537247655E-06	-1.37175696769571E-06	8.37595019076575E-06	0.950861875176326	-0.282991418281496
12.2	0.928540866862643	0.322483044446124	-5.56091998606765E-07	-3.78892319377455E-06	-3.10044940899773E-06	-7.4409030501795E-07	0.950766953092141	-0.285975186493651
12.3	0.96168577899971	0.204923140239637	3.5681772393505E-06	3.44168567542939E-06	-3.45893752788476E-06	6.23029462657693E-06	0.950076752801098	-0.2888933589019
