# GHZ S RI R 50
0.2	-0.96524775641933	0.2519909339116	8.8203662981959E-06	5.31222178428771E-06	1.13427907917604E-06	-2.88845958122074E-06	0.998999347315355	-0.0074635328697443
0.3	-0.925434940032905	0.371732424684433	-7.65603229580706E-06	-8.13137403245374E-07	-1.20330454260021E-08	3.65625633886567E-06	0.998738261741995	-0.010539505837623
0.4	-0.870371184285033	0.485158274362787	-2.19123662817343E-06	6.33295681338411E-06	2.9198944191833E-06	5.72716191672679E-06	0.998357166124506	-0.0132716972088557
0.5	-0.802138862544665	0.590609469471373	-2.64506992106891E-06	5.48815854033289E-07	1.05064824080002E-05	4.87526037823845E-06	0.998067951569749	-0.0159198766592029
0.6	-0.721065254520263	0.686965451237196	-1.72334973541796E-06	-1.76485196931099E-08	4.15496193482399E-06	-1.03259906751203E-05	0.998559455229138	-0.0191060213890434
0.7	-0.628494512223719	0.772157948811063	-2.04381720705506E-06	9.88146341531254E-07	3.78453799581707E-06	1.11436984762265E-05	0.99797763069681	-0.0224115694516306
0.8	-0.526000769288865	0.845013616209582	-5.5949379278587E-06	3.77953128339328E-06	-3.16438700986378E-06	-2.1340544833297E-06	0.997463548758557	-0.0247119388139342
0.9	-0.415450343169202	0.904190197311184	-6.64262152354098E-07	5.24180453362117E-06	3.26068473685294E-06	-2.96292808809628E-07	0.997019500136278	-0.0272725135462206
1	-0.29792455254355	0.948995939275293	1.56481782545893E-05	-3.68921168840109E-06	-9.57677064366512E-06	5.3229875918183E-07	0.995905828681977	-0.0286798289072694
1.1	-0.176818182493561	0.978477330835227	1.33862851920105E-06	-2.97512623252358E-06	9.37508032394249E-06	1.25659681125748E-05	0.995687368075034	-0.0299969506964193
1.2	-0.0520765027124508	0.992665700962614	-7.88984725621319E-06	-3.25242575160528E-06	-3.09004604011662E-06	-4.46862576606117E-06	0.995159043533361	-0.030957544423001
1.3	0.0735942873485012	0.991111844634968	1.77629025531993E-07	3.32726257704523E-06	1.92505134264761E-06	3.40697450713026E-07	0.995488775655534	-0.0319776111380066
1.4	0.197895192254566	0.973574307366541	2.28661699573053E-08	3.76075409444736E-06	-2.52375294568826E-06	-5.60463409896149E-06	0.995448724089016	-0.0345178586105903
1.5	0.318667664304827	0.940775563921895	3.18068744890185E-06	-2.66784117089225E-07	2.69740761073897E-06	2.08992845966519E-06	0.995662641328973	-0.0379196232347839
1.6	0.434283295029411	0.893434279033037	1.78424056058839E-06	-1.93603049173545E-06	-8.92397471545987E-07	-3.05787623583369E-06	0.995399164507752	-0.0411888002120026
1.7	0.542769012901264	0.831495885612045	-8.5638016735444E-08	-3.51827782513827E-06	2.00190588342042E-06	4.91715589122005E-06	0.99565259277452	-0.0436005214699515
1.8	0.642423095772286	0.75686478426912	-2.0534479037392E-06	-1.81048544190403E-06	-4.63050393262462E-06	1.82822989590713E-05	0.995399865230771	-0.0461713920099415
1.9	0.73174225502042	0.670218492571897	-4.38027945418533E-06	-1.46300755294114E-06	-4.91555382774944E-06	-5.98892220076302E-06	0.994829212132825	-0.0484488294990536
2	0.80866619084956	0.573426789337393	-9.4155832308528E-08	-6.7179731748149E-07	-1.66177245641448E-06	-1.41353058772753E-06	0.993391069955466	-0.0501099688181783
2.1	0.874498895805185	0.467560802015997	-1.15096128849203E-06	9.41557468699883E-06	1.98850396172408E-06	-3.76142507603432E-07	0.994085001227906	-0.0514001807365964
2.2	0.926120143395373	0.354121329434072	-1.35692738507859E-08	-5.91098977902226E-06	-7.38727308400764E-07	2.72763870626539E-06	0.994435331794845	-0.0538675932321606
2.3	0.96280216145395	0.235066944652836	-1.31594046433211E-06	2.75451535887119E-06	-2.90731463268961E-07	1.19336731585583E-05	0.994171045271084	-0.0556955769710562
2.4	0.98422845271229	0.111620764613988	-5.84553651237989E-06	-3.70854552618753E-06	-1.75673889180798E-05	1.44399857551624E-05	0.994001460745069	-0.0586638329230021
2.5	0.990310083065135	-0.0123688404508079	1.82091729929732E-06	-2.94996299135867E-06	-1.80410926170114E-06	7.52190912529294E-06	0.993509518706059	-0.0604154397285316
2.6	0.981018483485729	-0.135104349900023	2.85114682023547E-06	9.23983494934413E-07	-1.75803579799685E-06	4.48440888272158E-06	0.993762988806422	-0.0628052889344775
2.7	0.956617142820379	-0.256387945578371	3.77823651360837E-06	1.042823305754E-05	2.3036242162963E-06	3.86493825914941E-06	0.993798574150104	-0.0654416818442162
2.8	0.917348317388909	-0.374222429608594	-8.0307187707574E-07	-2.29031906743213E-06	2.25869108852505E-07	-1.88258759493323E-06	0.994351056866737	-0.0673611622346967
2.9	0.863715877839334	-0.485995277279923	3.79212137451968E-06	-8.28479872322549E-06	-1.21480537756089E-06	-1.42005043688753E-05	0.994213743567295	-0.0694170927314159
3	0.796220161681581	-0.59063330994685	-4.02616797325934E-08	6.63712732521214E-06	-1.47655625763514E-05	5.23168906404912E-06	0.994103919746476	-0.0717213026500428
3.1	0.717169676891746	-0.684873598794115	-5.00983167306798E-06	7.78876072235163E-06	5.79928396423103E-06	-5.99123203103949E-08	0.993987010469223	-0.0735346288341704
3.2	0.625209426222263	-0.769787644626209	9.49282313821086E-07	2.12726684499058E-06	-4.55706510084603E-06	4.5677028536283E-07	0.993901517179358	-0.0752184559812516
3.3	0.523586166375918	-0.842519717012836	7.25573170597559E-07	-1.45486009240193E-06	-4.5804932033977E-06	7.09316639802569E-07	0.993910876481496	-0.0784242910796514
3.4	0.412841898846027	-0.90196799664125	6.46652170963416E-06	2.64625382617692E-07	-8.10008748454519E-06	-7.2156382553414E-06	0.994172945651594	-0.0806125687800629
3.5	0.295016474686891	-0.946011438650372	-7.70124638553984E-06	1.93210366757261E-06	-5.8694139103247E-06	-7.99916997829473E-06	0.993736085230792	-0.0836186376694754
3.6	0.173620606445037	-0.975222629387114	-8.37914246315189E-07	-4.38104858666428E-06	-7.78297958966003E-06	-6.35863020565834E-06	0.993615991611037	-0.0857283195720881
3.7	0.0492265174039011	-0.990152332620693	-6.68361177831848E-06	-6.79531633879213E-06	5.47950840062745E-07	-4.75952224036887E-06	0.993735390821863	-0.0884646699429995
3.8	-0.0766338657383318	-0.98860500011596	-3.64733304534275E-06	1.06792178491413E-06	-3.28591209343666E-06	-2.47848629569382E-06	0.993379098978455	-0.0906008185403076
3.9	-0.20052034278553	-0.970967767871734	-4.93351633365109E-07	3.50477341183107E-06	2.05764789975352E-06	-1.21075291121572E-06	0.993007108457287	-0.0937442678905405
4	-0.320990692261987	-0.938151208280045	1.16370699283149E-05	8.17028321305793E-06	7.28218979248701E-06	-4.00528158139735E-06	0.992271137079377	-0.093699563379302
4.1	-0.43627607571279	-0.891043493745156	5.21424010830876E-06	1.34941619957272E-06	-3.4920381691379E-06	6.63901645878479E-06	0.993695161070825	-0.0950124831684645
4.2	-0.544873943222148	-0.829990009969684	-7.09935230697993E-06	-1.23595142944389E-06	-8.27393392903186E-06	-8.02595702515791E-08	0.993833558153063	-0.0980499494563986
4.3	-0.645110166979101	-0.755172308558597	7.14193859302966E-07	-2.36781470172625E-06	5.21561837639151E-06	9.05674315087612E-07	0.994070347090025	-0.100267142629456
4.4	-0.73506158913049	-0.668039072152089	4.48815703791203E-06	-1.75605920975451E-06	-8.75951832219549E-07	1.34473045669362E-06	0.993894266089407	-0.102720904041548
4.5	-0.81380864535213	-0.570314084555845	6.79058943439464E-06	1.90374453870648E-06	-7.90782178663647E-07	-3.26808636623256E-06	0.994550058095414	-0.104700796475576
4.6	-0.879820232356083	-0.462854298805899	2.44963004164306E-06	2.96956239195182E-06	-6.64669902101919E-06	9.74416373477498E-06	0.994914489289783	-0.108178991932231
4.7	-0.931407669465141	-0.347309558765973	-1.41145412423924E-05	5.87652912168283E-06	-3.47175037322149E-06	-4.8630758806969E-08	0.995041588922707	-0.110721400064135
4.8	-0.967997184848441	-0.226875552521767	-3.15065706886081E-06	-5.17144841124413E-06	-5.55048308504322E-06	2.35048042257679E-06	0.994867460851398	-0.113593612218941
4.9	-0.989141021373713	-0.103297602617419	-9.90982637571865E-07	-8.58726203472983E-06	-4.23949747896047E-06	7.25929138233881E-07	0.994679672411226	-0.115743666022435
5	-0.994999760472541	0.0227591984908898	7.58757362613524E-06	-1.55318047214479E-06	-1.75110866559597E-06	-2.73884068856933E-06	0.994637032006729	-0.117566971130109
5.1	-0.983271967356314	0.14889956482525	-2.59281550875742E-06	-6.42578052258167E-06	-1.00701108074008E-06	-1.96341731079267E-06	0.994845138779479	-0.119181740661607
5.2	-0.957153977803095	0.271369515704393	4.01426348267726E-06	-4.26676542533818E-07	-5.47824455340751E-06	6.31668255122233E-06	0.994772158222587	-0.121594268822509
5.3	-0.915924455532746	0.38997345261457	5.14430662889429E-06	6.04596811298238E-06	-9.54711985678576E-07	-3.60358557342274E-06	0.994888599383026	-0.124003558008088
5.4	-0.859882101394519	0.502299531330389	3.08094133294198E-06	-2.01793877327375E-06	-1.13700293035091E-05	2.18220651906371E-06	0.995410198991575	-0.127311505982058
5.5	-0.789843736622193	0.606218659795965	-4.29377559878767E-07	-2.20520577272212E-06	-5.82689489803262E-06	6.14036632586458E-06	0.995100486430583	-0.13074095743417
5.6	-0.70736333987318	0.700495907086918	2.3757170109095E-06	7.34459687631541E-06	-5.46882824067776E-07	2.94229274481804E-06	0.995239810661337	-0.133572017224097
5.7	-0.613816666808868	0.784183848437233	-2.58934417061156E-06	2.3686039918582E-06	7.94762488935139E-06	2.8079366441153E-06	0.99510767677301	-0.136715641247283
5.8	-0.510102731789369	0.854860180604687	-4.68028609748754E-06	5.12510674263927E-06	-3.73001983555407E-07	3.44020196534442E-06	0.994694149020507	-0.139551059622078
5.9	-0.398590442427485	0.911805910915806	6.38720480357862E-06	1.51212993020672E-06	-2.72697461503711E-06	2.55684503526178E-06	0.993454015091794	-0.142149491613573
6	-0.282370482508274	0.954009430493023	3.53139851934461E-06	3.32095579404966E-06	-3.26581221288963E-07	-1.4407983547133E-06	0.992636702896044	-0.141906630834286
6.1	-0.16091511999679	0.982946601576694	9.22458814441114E-06	1.55296458173356E-06	-1.24317881724925E-07	-1.81905396952659E-06	0.994587808453368	-0.14329561216577
6.2	-0.0355665738424856	0.995665654590003	2.45703757049472E-06	-1.73683456727151E-06	1.49663977833197E-06	-4.87251169135138E-06	0.99479678990213	-0.145663668692949
6.3	0.0903793496338194	0.992163213702637	-4.39089189681542E-06	4.26738954133267E-06	-6.17455985956994E-07	-1.73639810058537E-06	0.994420637171689	-0.148520709124654
6.4	0.214004093276658	0.972691741468753	-4.29217638476504E-06	1.07354896976294E-06	-1.77876829579642E-06	8.89728284165761E-06	0.993576322048607	-0.151096042990159
6.5	0.334876866977031	0.940106805711339	2.47133755330139E-06	-1.34043479696533E-06	1.49983676296271E-06	-2.95182921992929E-06	0.994192788948415	-0.153921996539611
6.6	0.45220758001292	0.889845305944019	-4.77387066973234E-06	-2.26407629342336E-06	-1.88971630936748E-06	-6.68613947017891E-06	0.993731576274873	-0.158346230127426
6.7	0.560330635322143	0.82507883864507	4.18859775543749E-06	-6.75200677922093E-07	-4.70435426762342E-06	1.02892011746194E-06	0.99274294428651	-0.161191949619126
6.8	0.659261109919525	0.747619742901239	3.77327833743774E-06	-2.10318749995905E-06	6.248387828884E-06	-9.46925326104961E-07	0.991994185631663	-0.163852935327495
6.9	0.747233363499056	0.658435509442323	2.0644782756396E-06	1.642472450376E-06	8.81932636688892E-06	-2.80131211150967E-06	0.99108137901755	-0.16637290408224
7	0.822941209468829	0.559584507189988	2.1956484124341E-06	4.10767431055143E-06	-7.63611560758408E-08	5.40697948305737E-06	0.990233589005751	-0.167661578180417
7.1	0.886380837845762	0.452359396424885	-1.28861135200766E-07	1.72562282077541E-06	8.28467639676943E-06	-4.68909397573392E-06	0.990322824615527	-0.169936113567884
7.2	0.935657305046832	0.337418886060609	4.86668573435316E-06	-1.41505799135717E-06	7.30325156394086E-06	3.77748838895857E-06	0.989545891620692	-0.172531227740711
7.3	0.969837419994956	0.217066869072409	4.88145834455267E-06	-1.13106082468525E-06	-7.40356705733691E-06	-7.39185788127251E-06	0.988304202878929	-0.175213778704401
7.4	0.988648275601956	0.092253782481458	-1.8016880132511E-06	9.95669735620441E-06	1.42113665932552E-06	-4.09743646615856E-06	0.986593399741282	-0.179150878315456
7.5	0.989445093760525	-0.0330109631797247	8.48065054361389E-07	8.03169572711763E-07	1.68467096792449E-06	9.84971353410231E-07	0.982707007994009	-0.181592876663435
7.6	0.977101723798194	-0.155948918988333	1.44237790147518E-06	-2.62754490684029E-06	-5.4498163890597E-06	-3.60169183971394E-06	0.982134046622736	-0.18307900996369
7.7	0.94946253717015	-0.277905247607587	5.59417741374155E-06	2.38080720260257E-06	-6.76826006861673E-06	1.21042714408272E-05	0.981587656353144	-0.186310728048923
7.8	0.90677513345882	-0.395218540468956	-6.42350186341003E-07	-5.24469622183913E-06	3.71238022053812E-06	-4.76212171134295E-06	0.981016054820512	-0.189434021115221
7.9	0.849072212993642	-0.505631515180151	8.85970312128907E-06	1.48535782442143E-06	-9.57843996469027E-06	-8.59095430779327E-06	0.979674180100049	-0.192148114314811
8	0.780407326515705	-0.606506132552391	-6.66024949933135E-06	-1.61419029203621E-06	-1.20017585536563E-05	2.52444888582058E-06	0.979741209148643	-0.192604625089657
8.1	0.699220153776668	-0.702112173549239	5.0900320891337E-06	7.1956654718722E-07	2.90476016795105E-06	2.25987389545333E-06	0.981324353520226	-0.196281363878464
8.2	0.604399138318223	-0.785258337449223	3.5643786573668E-06	-2.59637684051607E-06	-3.73680314967449E-06	-1.16336393298071E-05	0.980747287937948	-0.199971456544143
8.3	0.499838504872195	-0.854903576833237	2.72594426705286E-06	-1.87548370205964E-06	1.66755461954464E-06	5.29803748748737E-06	0.979517353317853	-0.203279724766579
8.4	0.387367167085608	-0.910432028413811	-5.5718638943652E-06	-9.91931525972171E-07	1.07400424658139E-06	2.95276781521863E-06	0.978096064083797	-0.206145004243403
8.5	0.268733056415368	-0.950638206614483	-3.28407181872115E-06	1.64941237497514E-06	-4.83407450424123E-06	-4.98074930527704E-06	0.977311749736501	-0.209008539927263
8.6	0.146408335371643	-0.97622334943054	-8.13651431440283E-06	1.44196688588913E-06	-4.39075735769353E-06	-6.83747797191659E-06	0.97618831621596	-0.212347437237506
8.7	0.0214618790287633	-0.986271541756987	2.232305775023E-07	-2.16237819026543E-07	6.12353437082767E-06	4.68220428577092E-07	0.974882954004226	-0.21499455203694
8.8	-0.103616527749371	-0.980462336706554	1.01264646122441E-06	-1.82510965851513E-06	-2.39924374329019E-06	-1.2647562656554E-06	0.973789521905174	-0.21716119451207
8.9	-0.226874661802875	-0.960092567801406	-2.82653205756649E-07	3.03807355324489E-06	-1.2445743029302E-06	-1.6346417639405E-06	0.973118671736276	-0.219088961585884
9	-0.347342505776688	-0.922297251517456	2.9911978400822E-06	1.5674336747083E-06	-1.56123980569143E-06	2.12773042338716E-06	0.972289343279836	-0.221117265403011
9.1	-0.459017591489838	-0.869715665911997	-9.28943603054534E-06	2.33433088017982E-06	-1.5449813896757E-06	2.41998183028925E-06	0.971644823841174	-0.222807647827907
9.2	-0.563596902541303	-0.804715733989708	7.49273901783487E-06	-2.88586385015035E-07	-9.07960359571444E-06	2.03286864514288E-06	0.971102050377909	-0.225137571877728
9.3	-0.658909225651583	-0.727925788751485	2.4889652730308E-08	-7.14849341055823E-06	1.57379712669194E-06	-1.30890118732886E-06	0.970708466050412	-0.227869015145948
9.4	-0.744732745492103	-0.640122249933077	6.16484788845465E-07	2.47180777167418E-06	1.5852082118019E-06	-3.59961185533059E-06	0.969531468728245	-0.231705477170251
9.5	-0.817449717719313	-0.541314836922051	-2.80878720170395E-06	6.63473481488008E-06	4.69163122283214E-06	-1.39707406441742E-06	0.967137496746404	-0.234122184454747
9.6	-0.878979435350907	-0.435914231844038	-5.03211218148522E-06	-5.14980661144363E-06	4.75599637279954E-06	2.83966034390891E-06	0.966379594833181	-0.236588085020486
9.7	-0.927426188434273	-0.321308900985571	-2.02299754955138E-06	-5.03908000277822E-06	2.08757332500714E-06	-2.16718995177459E-09	0.965243874552493	-0.239278065669167
9.8	-0.960587713962943	-0.200874521946621	5.63975965307902E-07	-4.26807790803321E-06	-2.94222844060956E-06	-2.48754291946047E-06	0.963979596763229	-0.241419240619147
9.9	-0.97774525718093	-0.0772842890512951	-6.0528479106064E-06	4.22114130292533E-06	-3.05612955637838E-06	1.6737627281384E-06	0.96178713683541	-0.242679540625186
10	-0.979413676104914	0.0466453559828664	3.54989648720845E-06	-5.7976061338978E-08	8.22992735416625E-06	1.09968942354801E-05	0.961707614284273	-0.24143187601439
10.1	-0.965436687348341	0.169454374850906	-2.85350314985099E-06	-2.49529982856111E-06	-2.00952628650596E-06	-2.47447983151193E-06	0.962320718904369	-0.244023891846922
10.2	-0.936358133387504	0.289741665270494	2.33789111683017E-06	-1.02559303508862E-06	-2.7563835448759E-06	-1.04776536570987E-06	0.960993672776801	-0.245709813744924
10.3	-0.89241533768081	0.405137277033372	7.68607812124955E-06	-5.9434354837681E-06	3.86860026535757E-06	8.16266303063327E-06	0.959473814682246	-0.247060303414884
10.4	-0.835774208637457	0.513566763704934	1.69529701713511E-06	2.43787831848065E-07	6.23137499068783E-06	-1.19864782535185E-06	0.957890200040786	-0.247959003557854
10.5	-0.7668225344671	0.616998828864876	8.29282196818052E-06	-4.14369585094845E-06	-4.85889248460222E-07	1.96334099587285E-06	0.957822494944049	-0.249282408667214
10.6	-0.681849807992497	0.709444425587329	8.87650803566751E-06	-1.29491467653419E-06	-1.41691232786838E-06	1.3563232456353E-05	0.957097869195049	-0.251421795774152
10.7	-0.586588332996009	0.788368448921206	7.95495953583582E-06	-1.91460978716175E-06	-3.04877356019482E-06	-5.23509393542839E-06	0.957028054097638	-0.253310070695285
10.8	-0.482766164482561	0.854721464765306	2.44540199049761E-06	5.20471156429125E-06	-3.60245575360199E-06	-1.95391727016537E-07	0.957014028113092	-0.255523694982437
10.9	-0.371490954647834	0.908487401086415	-5.51971252717537E-06	4.93312945678353E-07	1.59437092374936E-06	3.99767065581508E-06	0.956594856092369	-0.257644066876829
11	-0.253379636505948	0.947715909245176	-7.70243794213137E-09	-5.18272281566415E-06	-8.31266405641945E-06	2.2323600350904E-06	0.955878608566084	-0.259075153897073
11.1	-0.133064667183172	0.971251678754177	6.2653616024116E-06	4.05148726188505E-06	-1.87845520413245E-06	1.06787116420168E-05	0.955151186896526	-0.26071158527667
11.2	-0.010740124883931	0.980686376727671	1.56746114218111E-06	1.34446267235145E-06	5.10262383459137E-06	8.83490247439037E-06	0.954015121177678	-0.262234120948138
11.3	0.112276287526003	0.974077618333174	-4.58927890634254E-07	-1.72505230671334E-06	-6.93529645064535E-07	-4.36430551380806E-06	0.953337201438296	-0.263860768188151
11.4	0.233385175405245	0.952404800823654	2.23934801799506E-07	1.17811980255913E-05	2.40721836173343E-06	4.89606286629005E-06	0.951781796674995	-0.266747834040661
11.5	0.351011838902277	0.915976074796953	6.1473638355161E-06	-3.25478773759267E-07	3.13303698185984E-07	-1.86784730010244E-06	0.949276738448438	-0.267776763289836
11.6	0.462095954783814	0.865123052947415	-5.95824755997185E-06	3.04491479914371E-06	-4.83176430801726E-06	1.89775725370265E-06	0.949155766067584	-0.270149879560019
11.7	0.565771258515186	0.801303586664915	3.30279282588905E-06	-1.77846152791809E-06	-1.69569969709786E-06	2.21785314975645E-06	0.947963775199825	-0.27353587774444
11.8	0.66062047248201	0.724369081575354	-8.25178042923405E-07	9.71496340034251E-06	-2.70637589799054E-06	1.04513594197019E-05	0.94624031357595	-0.276447828638898
11.9	0.743321723402748	0.635670375545818	-7.22550631744245E-06	-1.03794103955106E-06	-3.89024789756584E-06	1.11370952934132E-05	0.944541569413011	-0.277032228545862
12	0.814783413851641	0.541107843541495	-6.44813071192321E-07	1.36573335110802E-06	-3.0976030826712E-06	-1.92124049024653E-06	0.946144169833929	-0.275371167605025
12.1	0.877799871920478	0.43552433329308	-3.87108323279415E-06	4.92710398741477E-06	-1.36941350696217E-06	8.33871490579153E-06	0.948159381541903	-0.278495711210523
12.2	0.924812335003687	0.322094657304457	-5.49494807235185E-07	-3.770121193005E-06	-3.08387491215297E-06	-7.43363693985754E-07	0.948037800938121	-0.281466586205013
12.3	0.957257093182567	0.205147597720921	3.54388865339964E-06	3.43245867779896E-06	-3.45511584045054E-06	6.19314330921582E-06	0.947639944198227	-0.284088242704632
