# GHZ S RI R 50
0.2	-0.965567596437027	0.251804852383244	8.82131422843112E-06	5.31651952917871E-06	1.1355083893382E-06	-2.8889576993395E-06	0.999335412723701	-0.00711519102728302
0.3	-0.925909456508981	0.371552029588464	-7.65878353363526E-06	-8.16507173112249E-07	-1.34912217922732E-08	3.65771980968973E-06	0.999184174870302	-0.0101045657613639
0.4	-0.871048987760495	0.485083721266613	-2.19548042123338E-06	6.33565918101365E-06	2.91893947014127E-06	5.73189285755511E-06	0.999005611973742	-0.0127605541678055
0.5	-0.802843640906737	0.590888617411028	-2.64727957827732E-06	5.48639774450742E-07	1.05136366973514E-05	4.88151693069975E-06	0.998914254298944	-0.015695427856032
0.6	-0.72159764517056	0.687250306559796	-1.72431470635677E-06	-1.7976457182511E-08	4.15920184151324E-06	-1.03310253706329E-05	0.999114382432353	-0.0188886950744081
0.7	-0.6290904583286	0.772492740792158	-2.04532573624972E-06	9.88087402240585E-07	3.7832756223237E-06	1.11514223776954E-05	0.99857366715243	-0.0220178289004672
0.8	-0.52661956977908	0.845485938795922	-5.59999678259426E-06	3.78001349921098E-06	-3.16570941973317E-06	-2.13660465347697E-06	0.998153434627593	-0.0242425867378403
0.9	-0.416057786749493	0.904808054684038	-6.67002618238855E-07	5.24521065659325E-06	3.26311109889765E-06	-2.95088100572054E-07	0.997802196921363	-0.0266687056813091
1	-0.298529761462723	0.949788320857683	1.56651559219004E-05	-3.68261169020074E-06	-9.58605348118264E-06	5.26648527612441E-07	0.997134100966591	-0.0279357919981494
1.1	-0.177382253153548	0.979494138313245	1.34190426981615E-06	-2.97808763238554E-06	9.37987756540235E-06	1.25866400277288E-05	0.997129135396314	-0.0295630488611143
1.2	-0.0525644431531132	0.993971045892784	-7.89906902166512E-06	-3.26146736286381E-06	-3.09184405812283E-06	-4.47664869623485E-06	0.996731610446519	-0.0304672199015167
1.3	0.0733589042870779	0.992707287630767	1.75968224201124E-07	3.33272986356607E-06	1.92795502631564E-06	3.42373181673252E-07	0.997347890057958	-0.0314706526875391
1.4	0.19803600971536	0.975218077552237	2.11794189186201E-08	3.76681054780381E-06	-2.5252417140138E-06	-5.61480099348941E-06	0.997343416791194	-0.0341081399122643
1.5	0.319257770435665	0.942310598243508	3.18569648939751E-06	-2.66311638234939E-07	2.70101010405723E-06	2.09392259381133E-06	0.997573494378925	-0.0377013575891369
1.6	0.435140716997321	0.894548069829802	1.78638828416485E-06	-1.93855602691654E-06	-8.93673858010593E-07	-3.06167887040002E-06	0.996895676979591	-0.0412646794870009
1.7	0.543703799338964	0.832348243744265	-8.6205526166335E-08	-3.52191386050615E-06	2.00465048632417E-06	4.92198151767425E-06	0.996916804814389	-0.043694806252452
1.8	0.643385469705167	0.757512672316719	-2.05560574410072E-06	-1.81172778426999E-06	-4.63132433277549E-06	1.82994325483619E-05	0.996508180211642	-0.046277477684617
1.9	0.732586423586664	0.67087396905495	-4.38342789957536E-06	-1.4641916847716E-06	-4.91896866643214E-06	-5.99341518433921E-06	0.995858739771622	-0.0482827451605198
2	0.810104572118773	0.574463599278214	-9.40338192055134E-08	-6.72802876190772E-07	-1.66362781372311E-06	-1.41620823867975E-06	0.99530450528548	-0.0498754973925389
2.1	0.876430543826561	0.467673847209289	-1.14791915016171E-06	9.43237925064155E-06	1.99172274186598E-06	-3.77849775262196E-07	0.99590445341572	-0.0522106875683914
2.2	0.927781769618705	0.353730468398422	-1.84655474408613E-08	-5.91927776418289E-06	-7.37513896123732E-07	2.73207791292994E-06	0.995809608233516	-0.0548433905395787
2.3	0.964227840351471	0.234416888042252	-1.3150250152262E-06	2.75922144833436E-06	-2.79938725923735E-07	1.19490023464545E-05	0.995319433026416	-0.0566861339512836
2.4	0.985423587183181	0.110832247506993	-5.85641896875133E-06	-3.70625570325932E-06	-1.75714014430228E-05	1.44762954001681E-05	0.994982072340807	-0.0596037555895608
2.5	0.991406033951477	-0.0132552394753703	1.81855224817879E-06	-2.95427136749977E-06	-1.79609380729326E-06	7.52939347175951E-06	0.994504386280839	-0.0612923916267028
2.6	0.981935928094027	-0.136122980407766	2.85365895444192E-06	9.22123879770591E-07	-1.75529561630908E-06	4.48861870609203E-06	0.994691315262037	-0.0637323721307138
2.7	0.957447597305333	-0.25752799965275	3.78987106036138E-06	1.04336138040756E-05	2.30867102604616E-06	3.86619088457581E-06	0.994758199649275	-0.0663868362941335
2.8	0.9180067523577	-0.375589211626226	-8.06090581069078E-07	-2.29171908014926E-06	2.2423470922923E-07	-1.88460915558985E-06	0.995331765788383	-0.0684315228816398
2.9	0.864099998473795	-0.487531563551849	3.78619668424186E-06	-8.29812268546183E-06	-1.23313066940274E-06	-1.42140856171059E-05	0.995194568485949	-0.0705833749847517
3	0.796417545696442	-0.592286537552421	-3.09515245734138E-08	6.64476145200102E-06	-1.4775044967466E-05	5.25847638112015E-06	0.995215499663604	-0.0729856657488126
3.1	0.717034797205249	-0.686815840629809	-5.00311183059712E-06	7.80750496940492E-06	5.80677746809211E-06	-6.98798211789024E-08	0.995203950437099	-0.0750872449553922
3.2	0.624515654243296	-0.771830613954773	9.54972759634857E-07	2.12793931743534E-06	-4.56183767162959E-06	4.66975107802162E-07	0.995093670293112	-0.0770739130853686
3.3	0.522250715530471	-0.844440697069145	7.22744135167314E-07	-1.45821867745445E-06	-4.58364533084048E-06	7.21433115485018E-07	0.994936816145159	-0.0805945162167727
3.4	0.410842269633691	-0.903286182245763	6.47116501103906E-06	2.46640861216052E-07	-8.12521976729804E-06	-7.19726323724706E-06	0.994797444922497	-0.0829706150523703
3.5	0.293517735342544	-0.946462242699472	-7.69636622069334E-06	1.949661819834E-06	-5.88742710540931E-06	-7.98523847090047E-06	0.994131270305437	-0.0856258376268152
3.6	0.172073551485684	-0.976218623852978	-8.47124622666084E-07	-4.38105724679965E-06	-7.79890726787245E-06	-6.34532675217786E-06	0.994154221414154	-0.0879224826325361
3.7	0.0470835320364685	-0.990800128168399	-6.70138908254872E-06	-6.78257793489806E-06	5.37356033140276E-07	-4.76245425228592E-06	0.993959874662764	-0.0908057639156025
3.8	-0.0789842788278003	-0.988593873902227	-3.64531136005901E-06	1.07647574152279E-06	-3.29203698259746E-06	-2.47119950124945E-06	0.993249642595094	-0.0928341922290474
3.9	-0.202676443269559	-0.970283896388849	-4.86050599391018E-07	3.50570582280201E-06	2.05507536566733E-06	-1.21499932343101E-06	0.992681839155937	-0.0954810464511435
4	-0.322768597102637	-0.937302353673425	1.16596700538781E-05	8.14926094824502E-06	7.27697164681116E-06	-4.02255175869404E-06	0.992900048588826	-0.0952213454481142
4.1	-0.438106188360765	-0.889893960478942	5.21859127595352E-06	1.33557944585665E-06	-3.47466616794936E-06	6.64932743119442E-06	0.994187147069961	-0.0975594215267597
4.2	-0.546492754707935	-0.828428059779295	-7.10114010461503E-06	-1.21666906708851E-06	-8.27237396912214E-06	-5.80787482884197E-08	0.993825583627099	-0.100712921488009
4.3	-0.646420375028132	-0.753298215885035	7.0769613973936E-07	-2.36873045291106E-06	5.21588517495571E-06	8.91631493617203E-07	0.99379325685361	-0.102898391866652
4.4	-0.736050889909663	-0.665983301540023	4.48142630057697E-06	-1.76660577262925E-06	-8.72086347029084E-07	1.34628460785057E-06	0.993458866231671	-0.105295720941757
4.5	-0.814521237033484	-0.567960589697189	6.79157625358936E-06	1.88406304458191E-06	-7.99198267833919E-07	-3.26390987337832E-06	0.993970263180597	-0.107509807847184
4.6	-0.879990949516689	-0.460415816478399	2.45481487248754E-06	2.96013654027048E-06	-6.61453452309279E-06	9.75137223405875E-06	0.993706713369549	-0.110911931792452
4.7	-0.931246990012483	-0.34490807732404	-1.40844635737095E-05	5.90383591708396E-06	-3.46794541839729E-06	-4.02263053621655E-08	0.993578533178923	-0.113149750051941
4.8	-0.967575243132228	-0.224422870605821	-3.1592034441944E-06	-5.15790596785915E-06	-5.53839052439844E-06	2.36086528405252E-06	0.993249486738593	-0.115854410818963
4.9	-0.988419576820639	-0.100472403608271	-1.01161785797653E-06	-8.57375951307575E-06	-4.23222767387647E-06	7.35814168098638E-07	0.992842003383882	-0.117903314813671
5	-0.992766532727054	0.025688775454715	7.56845021019821E-06	-1.57024620900327E-06	-1.75491510057053E-06	-2.72877846411115E-06	0.99255573357765	-0.119593600970333
5.1	-0.980721012425214	0.150510624265451	-2.60058413755328E-06	-6.40631876150983E-06	-1.00891551766225E-06	-1.95702169859903E-06	0.992498745747434	-0.12105630758295
5.2	-0.954649147690753	0.272665254158876	4.00461756914801E-06	-4.33664041759979E-07	-5.45376241419208E-06	6.3136421455242E-06	0.992217139233867	-0.123222572127967
5.3	-0.913105882318312	0.390954419629178	5.1437906211251E-06	6.02182915979984E-06	-9.59383317182349E-07	-3.59325416217294E-06	0.99221454036758	-0.125421648892884
5.4	-0.856716141522175	0.502687822801804	3.0690540486796E-06	-2.01815265199542E-06	-1.13357264546185E-05	2.19704365548206E-06	0.992480110922165	-0.128559317740443
5.5	-0.786646519067247	0.605745718319832	-4.31059274026649E-07	-2.19819664631033E-06	-5.80171156849405E-06	6.13019662833496E-06	0.992098811604711	-0.131383494329145
5.6	-0.70446895409939	0.699438026185893	2.37767856361147E-06	7.32136103361962E-06	-5.41922185689987E-07	2.93473496593747E-06	0.992409802111025	-0.134233888012982
5.7	-0.611205606188385	0.782621794987969	-2.57909406363909E-06	2.36441269957406E-06	7.92715066371994E-06	2.79095699186149E-06	0.99195079394849	-0.137240254828915
5.8	-0.507878058106848	0.852726560843788	-4.66097014069602E-06	5.11220493732052E-06	-3.69032466602795E-07	3.42932250368825E-06	0.991241310295387	-0.139602511048881
5.9	-0.397192892300455	0.909138917243472	6.36513940705282E-06	1.50674529510214E-06	-2.7174776003837E-06	2.54806267117939E-06	0.990018856750654	-0.141158955805425
6	-0.281934837137087	0.951971583905318	3.52065036022973E-06	3.31598057171997E-06	-3.24712857511751E-07	-1.43771006243911E-06	0.990958690402718	-0.140382720257187
6.1	-0.160225987354844	0.981067293154772	9.20746539962613E-06	1.5508129810891E-06	-1.2394855287489E-07	-1.81571060886655E-06	0.99322691061307	-0.142964884434985
6.2	-0.0351381622969504	0.993626088709438	2.45261499615277E-06	-1.73364694838869E-06	1.49400942824818E-06	-4.8636590469807E-06	0.993374129517507	-0.145571216999954
6.3	0.0904054036594145	0.990063008051727	-4.38378011281139E-06	4.26000573458392E-06	-6.16326735034394E-07	-1.73352655042403E-06	0.993001150463062	-0.148617886130034
6.4	0.213619313165487	0.970990423236046	-4.28645932527537E-06	1.07181358369244E-06	-1.77696511762519E-06	8.88516373423073E-06	0.992224414526273	-0.151193602311413
6.5	0.33548216759501	0.938234390712224	2.46650356516029E-06	-1.34102131320527E-06	1.49475799886624E-06	-2.94916601559721E-06	0.992776766005397	-0.154886569408481
6.6	0.451713832799127	0.886596348637128	-4.76213827807443E-06	-2.25384427826422E-06	-1.88969377401733E-06	-6.66566782387689E-06	0.990868389764367	-0.159036850311337
6.7	0.558652647799574	0.822063532399014	4.17488419888862E-06	-6.7359352309907E-07	-4.68891411739306E-06	1.02623530956962E-06	0.989518590084917	-0.161049229708653
6.8	0.65681934153189	0.745014761651749	3.7608304072379E-06	-2.09481000352301E-06	6.227036660377E-06	-9.41829599001365E-07	0.988657838068226	-0.163197263747593
6.9	0.744119835130599	0.656439508505936	2.05569466049785E-06	1.63803840784724E-06	8.78924148069772E-06	-2.78440034425957E-06	0.987689017871177	-0.165161769730277
7	0.819691559858707	0.558429373138501	2.18284428709307E-06	4.09737309799936E-06	-8.3584809264319E-08	5.3893206377159E-06	0.987430973033045	-0.16621796964191
7.1	0.883017450765175	0.451450269359734	-1.30232190307392E-07	1.72055234544509E-06	8.26568510551801E-06	-4.66731521744134E-06	0.987265725733801	-0.168956358117116
7.2	0.931962765664316	0.336920586114058	4.85308728156133E-06	-1.40733111700584E-06	7.27862670026921E-06	3.77136876200578E-06	0.986020186717007	-0.171454352712533
7.3	0.965731563787203	0.216946216418026	4.86556011321595E-06	-1.12573508498073E-06	-7.37654723316015E-06	-7.36960038086572E-06	0.984220594651835	-0.174005768407223
7.4	0.983467627860983	0.0927729094206235	-1.79177548578065E-06	9.91202849531673E-06	1.41398618784669E-06	-4.07917502095461E-06	0.981324619216679	-0.177379890921556
7.5	0.983833075344238	-0.0297835016165058	8.41594982892955E-07	7.99309641250518E-07	1.67267882283292E-06	9.81146383355594E-07	0.97730635024662	-0.177398758259485
7.6	0.972985322731794	-0.15154729986979	1.44111552807114E-06	-2.60868827770451E-06	-5.40908412711453E-06	-3.59558570008009E-06	0.978037119548373	-0.178458393424156
7.7	0.946233692672	-0.272502000155365	5.55414730913955E-06	2.3857509220578E-06	-6.76967635377344E-06	1.20122786971307E-05	0.97785795268843	-0.181281001112211
7.8	0.904849837738912	-0.38900751250432	-6.16808064342981E-07	-5.21863293479167E-06	3.7120163728338E-06	-4.72042150856631E-06	0.977818754989287	-0.18400078875325
7.9	0.848954604501265	-0.498721927274574	8.80919311125031E-06	1.5256317833614E-06	-9.48645409566413E-06	-8.60093934210301E-06	0.977265863030039	-0.185988579324754
8	0.78344460124383	-0.600792934585628	-6.63541005052162E-06	-1.65109242562649E-06	-1.19900698887839E-05	2.44570346558834E-06	0.979805036998164	-0.18663350832714
8.1	0.702028034023528	-0.698686738502819	5.08102253364187E-06	7.41133373823161E-07	2.89148315078373E-06	2.27005844757469E-06	0.981565249193907	-0.192212191607261
8.2	0.607031733226941	-0.782279091517031	3.57030730188008E-06	-2.57971752595086E-06	-3.68781877587512E-06	-1.16347734397985E-05	0.980658030668788	-0.196223387232191
8.3	0.502670461662531	-0.852306066982135	2.73013363061112E-06	-1.86374541887329E-06	1.64665431544346E-06	5.29898081338567E-06	0.979455812199256	-0.199567766563462
8.4	0.39041881538163	-0.908122351231977	-5.56404645904533E-06	-1.00967079933337E-06	1.06330683970517E-06	2.95394876270067E-06	0.978264287287299	-0.202429291074539
8.5	0.27259710334826	-0.948691159672132	-3.28520465360397E-06	1.63628986887299E-06	-4.81107680768646E-06	-4.99023291439125E-06	0.977706573477303	-0.205673069631725
8.6	0.150548560519022	-0.975494744065606	-8.13391110902286E-06	1.40708590437961E-06	-4.35811749538457E-06	-6.84832892879739E-06	0.976255569180018	-0.208993300534355
8.7	0.0254380107469862	-0.986460711347294	2.24073300842298E-07	-2.1516482233026E-07	6.11870675891495E-06	4.94745469370349E-07	0.97498538136968	-0.211332573356696
8.8	-0.100076042613197	-0.981522296628137	1.02097417837761E-06	-1.82093468887285E-06	-2.39405172274223E-06	-1.27569127191395E-06	0.974064689278079	-0.213222102602203
8.9	-0.224454324663699	-0.961544476910856	-2.95353807419406E-07	3.03997079043919E-06	-1.23914397948943E-06	-1.64137071357768E-06	0.97367150939198	-0.214843069931986
9	-0.344994222367216	-0.922567047848495	2.98853924663992E-06	1.57843839013468E-06	-1.56943160635271E-06	2.12438806147247E-06	0.973381631700016	-0.216498765995095
9.1	-0.455923717742062	-0.870622528530109	-9.30514881419868E-06	2.30403729281253E-06	-1.55463911745636E-06	2.41660996683628E-06	0.973604615396962	-0.218193044890773
9.2	-0.560486212733415	-0.806109405696517	7.50112200913992E-06	-2.64750173428376E-07	-9.09518103609959E-06	2.00565866640525E-06	0.973801320670368	-0.220973993524929
9.3	-0.655741863473769	-0.729922113999735	4.67486391697108E-08	-7.15475206819054E-06	1.57919013727037E-06	-1.30525350743184E-06	0.973715172408863	-0.224395408266709
9.4	-0.741483878335871	-0.642543711273683	6.09244277483218E-07	2.47475808086048E-06	1.59683465385096E-06	-3.59636513285373E-06	0.972209379864296	-0.228686208269554
9.5	-0.813804673793392	-0.545791419847187	-2.83880979370672E-06	6.62455960089135E-06	4.69928142941898E-06	-1.37694023038908E-06	0.969923073010713	-0.230592454153759
9.6	-0.877887335028598	-0.441629298743023	-5.01750898340529E-06	-5.18116263691345E-06	4.751306755556E-06	2.86585444089615E-06	0.9696235517845	-0.233559312508266
9.7	-0.927894167206134	-0.326581866637336	-2.00659213951776E-06	-5.05783459763425E-06	2.09192358583172E-06	6.36758607215105E-09	0.968320654334168	-0.236498887730562
9.8	-0.962127320224151	-0.205689343675853	5.82185373401173E-07	-4.2752886099605E-06	-2.9388591378777E-06	-2.50474348967076E-06	0.966843444085982	-0.238524923368321
9.9	-0.980234604997415	-0.0815003865405889	-6.08556125483896E-06	4.20580044237092E-06	-3.07070641770793E-06	1.66489743466364E-06	0.964756488209369	-0.238952670465576
10	-0.982372588779947	0.0430349152782813	3.56266174363713E-06	-4.33962226638077E-08	8.21316285830497E-06	1.1069966013328E-05	0.966770277731695	-0.237874811844092
10.1	-0.969138315865215	0.16622065827254	-2.85542992908822E-06	-2.51388462144069E-06	-2.00847614766511E-06	-2.49015698847405E-06	0.966930602498024	-0.242130151270567
10.2	-0.940853677751077	0.287195122300497	2.3496618747838E-06	-1.02161215522515E-06	-2.76285811912644E-06	-1.06057438949701E-06	0.965079881505607	-0.243786762756758
10.3	-0.897787718968148	0.403498315317525	7.73571013993105E-06	-5.94116695833535E-06	3.85666630327041E-06	8.20728614394282E-06	0.963525111549427	-0.244953286679056
10.4	-0.842230079727614	0.513686601628366	1.70243749256486E-06	2.50228223130129E-07	6.26417468942243E-06	-1.18474028565368E-06	0.962254642996371	-0.245663280799013
10.5	-0.772247968365101	0.620144268158841	8.34120957736098E-06	-4.15066071104019E-06	-4.91582135583029E-07	1.97236035429268E-06	0.962524257399981	-0.247548675021942
10.6	-0.685376716763119	0.713061025445415	8.91455860891337E-06	-1.28867141736964E-06	-1.44036302342435E-06	1.36169558307207E-05	0.961555290369949	-0.249556617728578
10.7	-0.58897552891651	0.792149639882244	7.9888227350125E-06	-1.91173724812963E-06	-3.05393388812601E-06	-5.25972193802385E-06	0.962081538622171	-0.25154157079093
10.8	-0.484237534470429	0.858469312362348	2.44979382709868E-06	5.22822644827436E-06	-3.61675368075639E-06	-1.99952478550824E-07	0.962441727266465	-0.254458479940372
10.9	-0.372115210576436	0.91245919248595	-5.54177383403792E-06	4.91996949626918E-07	1.59829689488971E-06	4.01437963421969E-06	0.961898460315007	-0.257271285725852
11	-0.252870153373863	0.95054224587411	-4.59390489991843E-09	-5.20013920948745E-06	-8.34194114592996E-06	2.23483247402259E-06	0.961156768191575	-0.259285599636657
11.1	-0.133342104594247	0.973807715176471	6.2863578761953E-06	4.07181750100822E-06	-1.8937895333532E-06	1.07183183822611E-05	0.96006009080084	-0.261671428264456
11.2	-0.010800744790153	0.983712572986401	1.57358782772007E-06	1.35042374648239E-06	5.12141138029082E-06	8.87272582624405E-06	0.958464851300362	-0.263681333844934
11.3	0.112735702515401	0.977362820668024	-4.61409149247219E-07	-1.73215259829797E-06	-6.97842855753737E-07	-4.38241885904029E-06	0.957126802528369	-0.26576081721976
11.4	0.234372698600029	0.955661454206925	2.36753136187284E-07	1.18263257361469E-05	2.42145441841184E-06	4.91246862786685E-06	0.954563693742031	-0.26870442173498
11.5	0.352565345191137	0.919036868413003	6.16606698255032E-06	-3.30464765281936E-07	3.13056975473059E-07	-1.87379733923547E-06	0.952276374349595	-0.26858527979711
11.6	0.464095027731039	0.867783623160833	-5.97813385633947E-06	3.05916799144212E-06	-4.84820193093063E-06	1.90724935136315E-06	0.952654579601086	-0.271726373514621
11.7	0.567962008651706	0.803578781290537	3.31295686837513E-06	-1.78802764195209E-06	-1.69966455261409E-06	2.22745480172111E-06	0.950879637618178	-0.275426180504685
11.8	0.662731895993816	0.726383537544855	-8.17430957956387E-07	9.74695417065681E-06	-2.7038650840244E-06	1.0487719998451E-05	0.948560430178178	-0.277976475691785
11.9	0.745027107010464	0.638287243923116	-7.24559060447057E-06	-1.03924938344143E-06	-3.89856068450451E-06	1.11685420893382E-05	0.946816624189344	-0.277084905935032
12	0.818799326278754	0.544949559593011	-6.48555353097122E-07	1.37192143597978E-06	-3.11141279131182E-06	-1.9319133075725E-06	0.951289293272486	-0.275420179849456
12.1	0.883150224839186	0.437292472527749	-3.88659917293291E-06	4.95578853204384E-06	-1.36909115105514E-06	8.38269543393702E-06	0.953258421478145	-0.280351253836171
12.2	0.930357647606637	0.32271087339113	-5.56810119410785E-07	-3.78933840899096E-06	-3.10099277866423E-06	-7.43663963303767E-07	0.953050254065169	-0.283853378105311
12.3	0.963115930661871	0.204709334496839	3.57002851219585E-06	3.44661469052942E-06	-3.46509798250442E-06	6.23469103611559E-06	0.952744287627529	-0.28709722391273
