# GHZ S RI R 50
0.2	-0.967203243420786	0.250789852316164	8.82774345892396E-06	5.33226516364698E-06	1.13986332179645E-06	-2.89166110132028E-06	1.00057570661845	-0.0065460055304842
0.3	-0.928342251023757	0.370610701450283	-7.67177217599196E-06	-8.26984091371709E-07	-1.78092850788241E-08	3.66436488556017E-06	1.00073783840692	-0.0095115145310241
0.4	-0.874386957507256	0.484709857464092	-2.20911214226099E-06	6.34944940157818E-06	2.91940401069909E-06	5.75048829367601E-06	1.00120956815504	-0.0121527979646414
0.5	-0.806271081100965	0.591971704328226	-2.65617898927815E-06	5.49925591430945E-07	1.05475522446828E-05	4.89984949803733E-06	1.0016401264221	-0.0163301093009576
0.6	-0.724498253593651	0.688467759640405	-1.72875157642299E-06	-1.80585298572041E-08	4.17011944136005E-06	-1.03575241994347E-05	1.00072668277258	-0.0195426946035523
0.7	-0.632230486523151	0.774169514504275	-2.05137227279798E-06	9.90149573189693E-07	3.790041060919E-06	1.11838429185451E-05	1.0003340544227	-0.0221334360291439
0.8	-0.529680099212267	0.847938836507892	-5.61862492463526E-06	3.78997566760609E-06	-3.17487072330344E-06	-2.14426421069939E-06	1.00020260566048	-0.0241809554013743
0.9	-0.418737086326417	0.908000470623171	-6.70979283128501E-07	5.26209258806877E-06	3.27385732772418E-06	-2.9493045590413E-07	1.00012565726284	-0.0262573814687362
1	-0.300618776318491	0.953658688554408	1.57296605974499E-05	-3.68806607475763E-06	-9.62451184122849E-06	5.23113938282651E-07	1.00078833418487	-0.0274601881285216
1.1	-0.1784893235119	0.983823034832565	1.3463692729694E-06	-2.9921402500847E-06	9.42849468079337E-06	1.26381888498343E-05	1.00072638437187	-0.0306227540536597
1.2	-0.05249412765819	0.99828885414803	-7.93597980068229E-06	-3.26309136106757E-06	-3.11100435712227E-06	-4.49029170285718E-06	0.999500133965382	-0.032078553161193
1.3	0.0746074977646211	0.996445440272554	1.84968750937386E-07	3.34336973277621E-06	1.93523164322723E-06	3.38643701010586E-07	0.999024998349557	-0.0336476750744519
1.4	0.199882589034874	0.978274193926749	3.28378667699898E-08	3.77596307577019E-06	-2.54872205648092E-06	-5.6207600200652E-06	0.998010164626318	-0.0361185912998148
1.5	0.321838045855128	0.945241194130012	3.19343098360329E-06	-2.76707532841315E-07	2.71461769651715E-06	2.09132971522836E-06	0.999028806559447	-0.0395339005754073
1.6	0.438080653708617	0.896889023138398	1.78492507919043E-06	-1.9493896535608E-06	-9.05814850921076E-07	-3.06692655485397E-06	0.998472907909881	-0.0432904860575459
1.7	0.546904756680182	0.834523172744208	-9.64572870713023E-08	-3.53155746208451E-06	2.02426790347833E-06	4.93010368133046E-06	0.999079142884496	-0.045419629742998
1.8	0.646843155269545	0.759414155111628	-2.06613141891273E-06	-1.81185757539976E-06	-4.59898676828131E-06	1.83643408649885E-05	0.999168804475344	-0.0477809575175387
1.9	0.736100105091397	0.673059986629349	-4.39908946403362E-06	-1.46246147039215E-06	-4.94275923854188E-06	-6.00494073727557E-06	0.999366245257951	-0.048886981016202
2	0.816111331681213	0.577065253744795	-9.52267020493166E-08	-6.76687611967311E-07	-1.67479570270837E-06	-1.42299661777275E-06	1.00207303943396	-0.0513214360620267
2.1	0.883136361778297	0.466945514966286	-1.11957552025343E-06	9.49312652147397E-06	2.00223439451331E-06	-3.87547489968387E-07	1.00172034200563	-0.056731563976211
2.2	0.933432493908095	0.351670902225032	-4.31028931881957E-08	-5.94877850320358E-06	-7.29870161527054E-07	2.74878769611892E-06	1.00047944576785	-0.059552896769372
2.3	0.969246594598593	0.231611817789276	-1.30940058423974E-06	2.77784491648198E-06	-2.30085586016767E-07	1.20064635677693E-05	0.999596883432784	-0.0614103634314497
2.4	0.990029966550089	0.107382940838437	-5.90038793733307E-06	-3.69504212764967E-06	-1.75814908641106E-05	1.46250108510941E-05	0.999130354046809	-0.064318077850267
2.5	0.995820805967105	-0.0177559737381853	1.81072384139455E-06	-2.97333316075929E-06	-1.76621685864992E-06	7.5643433766048E-06	0.999060472051299	-0.0663619863622937
2.6	0.985453458669992	-0.141734732873694	2.86871581945968E-06	9.14237549235876E-07	-1.74410087281015E-06	4.51353563850423E-06	0.999037098434773	-0.0695909167832618
2.7	0.959972785240469	-0.264092449555837	3.85501533670565E-06	1.04644673071284E-05	2.33698473404009E-06	3.87349364013966E-06	0.998822391344002	-0.0728377918594038
2.8	0.919101833151486	-0.382917336418166	-8.22021792602816E-07	-2.29818958063108E-06	2.15292907206161E-07	-1.89463420518199E-06	0.998870923849618	-0.075410517576188
2.9	0.863574576036489	-0.495089325623857	3.75356878285007E-06	-8.35705256895364E-06	-1.32292777178751E-06	-1.42692077777917E-05	0.998084894745788	-0.0777712538667281
3	0.794449902984506	-0.59977748665064	1.11875658179171E-08	6.67049077860241E-06	-1.47983762550463E-05	5.3726454382953E-06	0.997642349513397	-0.0803264575609962
3.1	0.713287783529783	-0.694029585167307	-4.96727237269082E-06	7.86803384368042E-06	5.82610850291394E-06	-1.09464404675892E-07	0.996919831315147	-0.0827899863908781
3.2	0.61904682080072	-0.777996785260646	9.72752215726599E-07	2.12653810372979E-06	-4.57021265333901E-06	5.0102437822197E-07	0.995955907932799	-0.0848053493794748
3.3	0.515315480863018	-0.849064657994744	7.12860448631947E-07	-1.46600249576361E-06	-4.58546796497063E-06	7.57254982852383E-07	0.994844238091638	-0.0882945153089974
3.4	0.403053751152925	-0.905257913097028	6.47264524540269E-06	1.97035018756319E-07	-8.17985967382172E-06	-7.13454173837291E-06	0.993521338749957	-0.0901477251501117
3.5	0.288064751269652	-0.946802801300553	-7.67773524459956E-06	1.9901814357288E-06	-5.92551984433003E-06	-7.9445619873951E-06	0.993085041261734	-0.0914021885917903
3.6	0.165744637349679	-0.977615943579873	-8.72159085082555E-07	-4.37797427546228E-06	-7.8377077518505E-06	-6.30379908986463E-06	0.993482173749728	-0.094512116262382
3.7	0.0397473567341485	-0.99052027453399	-6.74447817711511E-06	-6.73934767021396E-06	5.06843634281436E-07	-4.76566062660651E-06	0.992454956611875	-0.0976026186593598
3.8	-0.0860925791194882	-0.986562951432601	-3.63596997990085E-06	1.09914748704331E-06	-3.30569553209576E-06	-2.44842571506424E-06	0.991065548592474	-0.0991720968150554
3.9	-0.208898668145598	-0.967116721571203	-4.64907280088491E-07	3.50635070467919E-06	2.04654024997881E-06	-1.2264338674633E-06	0.990614979238253	-0.100612742490329
4	-0.32885481741178	-0.934026048916099	1.17217973177422E-05	8.06952377539547E-06	7.25110843242956E-06	-4.0756741193422E-06	0.993141929630999	-0.101226167299533
4.1	-0.444440921773432	-0.884833392603124	5.22243398195534E-06	1.2906317777986E-06	-3.41495301159783E-06	6.66886869861911E-06	0.992600285080646	-0.105697977820366
4.2	-0.55164515562639	-0.821790605090769	-7.09311699032312E-06	-1.15772227389963E-06	-8.25232167054533E-06	7.22046728864961E-09	0.990823541587884	-0.108411387619487
4.3	-0.650072040106865	-0.74575145190623	6.87683009864441E-07	-2.36670274556721E-06	5.20640549205748E-06	8.49632025079587E-07	0.990152193049839	-0.110160367666211
4.4	-0.738354270719622	-0.658003924157804	4.45333911119537E-06	-1.79333551314243E-06	-8.59301587909397E-07	1.34808825689755E-06	0.989551785015037	-0.112307180146275
4.5	-0.815430141214602	-0.559289012000322	6.77874769667093E-06	1.82388989517203E-06	-8.2123621654784E-07	-3.24455024164288E-06	0.98950194226359	-0.115131785130706
4.6	-0.87902983115956	-0.451839627956231	2.46363841715676E-06	2.92754623699604E-06	-6.51109759998282E-06	9.74950811726388E-06	0.987872709159739	-0.118060594242311
4.7	-0.928855301830515	-0.336619106257971	-1.39684378144681E-05	5.96757913086129E-06	-3.44951525062149E-06	-1.64743208907047E-08	0.987269452360004	-0.119745982405233
4.8	-0.963829005109352	-0.216281267579923	-3.17564580452991E-06	-5.10700283758484E-06	-5.49065691742972E-06	2.38445798933209E-06	0.986465492636522	-0.122076897599782
4.9	-0.982761612813834	-0.0920159274316265	-1.06496088730252E-06	-8.51099416029407E-06	-4.19959271499204E-06	7.60609628736334E-07	0.985448713026858	-0.123668779376932
5	-0.983043371906332	0.0320502840647463	7.4950384839708E-06	-1.60400230272626E-06	-1.75708552757376E-06	-2.69493331691487E-06	0.984729100058949	-0.124701795378096
5.1	-0.971409356576866	0.153281190907153	-2.60859778719826E-06	-6.34124813372466E-06	-1.00958672214745E-06	-1.93615414466069E-06	0.984333872696159	-0.125643038487372
5.2	-0.945363689774224	0.274077622257418	3.96950851010216E-06	-4.47094473401956E-07	-5.38160687096603E-06	6.28439381278896E-06	0.983684961160145	-0.127336690348658
5.3	-0.90361616745234	0.390533161173035	5.12198078741946E-06	5.94953102517436E-06	-9.64788997949167E-07	-3.55820569318122E-06	0.983092036494112	-0.129129559736126
5.4	-0.847584216966415	0.500177675874191	3.03413052759015E-06	-2.0086662503611E-06	-1.12228528158732E-05	2.21122798664578E-06	0.982370709082551	-0.131275460239276
5.5	-0.778843066612239	0.601453845553231	-4.30734535649051E-07	-2.17746458726649E-06	-5.73881202444905E-06	6.08385764172959E-06	0.982531377176165	-0.132308719167405
5.6	-0.697706838800743	0.694423721302726	2.36929551384444E-06	7.25421517818117E-06	-5.32376705666579E-07	2.91029932257715E-06	0.983170773640471	-0.13535543118156
5.7	-0.605263516008768	0.776515230848314	-2.55275364089904E-06	2.34664421600294E-06	7.85970819629845E-06	2.75523771748629E-06	0.982203477399224	-0.137726605764257
5.8	-0.503233522672776	0.845370455462158	-4.61517943170505E-06	5.06699977632614E-06	-3.63928707370806E-07	3.39765059547878E-06	0.981364261555958	-0.138901092738007
5.9	-0.394777124405685	0.901115489816182	6.30678805126647E-06	1.50041556707174E-06	-2.69611835896821E-06	2.52234996620042E-06	0.981142682478037	-0.138608945648804
6	-0.280513830293548	0.945466440995559	3.49559936654871E-06	3.29791762571553E-06	-3.214599736803E-07	-1.42887793393623E-06	0.985228987241418	-0.139187727824253
6.1	-0.15856243234592	0.973287240650674	9.13955857157983E-06	1.53095912439334E-06	-1.24629763209096E-07	-1.80193739023972E-06	0.985247747153669	-0.143650702534383
6.2	-0.0352532501689706	0.984901820135064	2.43099723710168E-06	-1.7194337642956E-06	1.47973590842035E-06	-4.82222131762092E-06	0.984081812463679	-0.145142762854894
6.3	0.0882294065004741	0.981498817149542	-4.34719125718423E-06	4.21977541534308E-06	-6.09903431817005E-07	-1.71847195397711E-06	0.983409769029648	-0.14690871209428
6.4	0.210435074775249	0.963970296044358	-4.25161707136213E-06	1.05966576451655E-06	-1.7688884654436E-06	8.80992478007558E-06	0.983353358134075	-0.148561655603833
6.5	0.333372908299564	0.929704511870036	2.44147156268919E-06	-1.32979711518846E-06	1.47799314148282E-06	-2.92154839511409E-06	0.983405198598413	-0.153444186487742
6.6	0.44520899816377	0.877279075741163	-4.70242725911877E-06	-2.2364190794149E-06	-1.85527135785648E-06	-6.5914660010963E-06	0.980012543173165	-0.1552996594209
6.7	0.549719259008484	0.815072183790627	4.13131954941593E-06	-6.50390865391941E-07	-4.64100394635926E-06	9.97197170274089E-07	0.979567167997615	-0.155654876138455
6.8	0.646511234832934	0.740331853391082	3.73189994888633E-06	-2.05429178793679E-06	6.1666216155826E-06	-9.01147643646295E-07	0.979452981605557	-0.156824003003996
6.9	0.73303692570132	0.654392547649911	2.02496870144818E-06	1.63461692298941E-06	8.71920863022877E-06	-2.70160710843965E-06	0.979433798428383	-0.157582681563183
7	0.809247711520111	0.558704621126267	2.13526443938255E-06	4.07963760455664E-06	-1.21967126030366E-07	5.34457444805604E-06	0.980977897176945	-0.158845039523971
7.1	0.87252381956677	0.453002573371143	-1.40593695787633E-07	1.70625707914149E-06	8.23201279499181E-06	-4.57621036154881E-06	0.980239523731929	-0.161888771399077
7.2	0.921433240574762	0.34043642912792	4.82371372936977E-06	-1.36194077383359E-06	7.19334869458262E-06	3.79188899355272E-06	0.978877388189129	-0.163491675900493
7.3	0.955355669520157	0.222541445567951	4.83286177092677E-06	-1.07922299105333E-06	-7.25801376051009E-06	-7.36316487374517E-06	0.976985862939317	-0.165071880590526
7.4	0.972995119511703	0.101708179452429	-1.8647615446667E-06	9.7961602899487E-06	1.43723583655154E-06	-4.02528193368625E-06	0.973698505366769	-0.166011818957174
7.5	0.977994925273332	-0.0161388673421044	8.22952922069749E-07	8.04581326611003E-07	1.64434744620612E-06	9.9679855408336E-07	0.973899852332166	-0.162966994956491
7.6	0.971354815484741	-0.139621871928398	1.4715017036056E-06	-2.57790714673799E-06	-5.33680488077381E-06	-3.65609424418313E-06	0.976924576588037	-0.166730727880343
7.7	0.946425247790977	-0.261046964772007	5.50635134885855E-06	2.45292558969933E-06	-6.91032392406432E-06	1.18874460188701E-05	0.976838157724717	-0.170086034576438
7.8	0.907078230083008	-0.377623510907604	-5.45566222339393E-07	-5.21713246914292E-06	3.76845146004054E-06	-4.66171967322862E-06	0.977162730220556	-0.172404010786287
7.9	0.854668004015336	-0.487680536301823	8.78809358499145E-06	1.65108413608667E-06	-9.36472610360297E-06	-8.73651751801355E-06	0.978494393980805	-0.173364109916691
8	0.792198151250554	-0.595143928955354	-6.64358075153326E-06	-1.73679811924201E-06	-1.20693046483482E-05	2.31356238817984E-06	0.98436950194938	-0.176913746293429
8.1	0.707348909685134	-0.694634788066682	5.0862371941067E-06	7.86199782511436E-07	2.87866955269793E-06	2.29990341078421E-06	0.983381343283013	-0.184508734036592
8.2	0.612609265005618	-0.777329835957511	3.59676037442565E-06	-2.55046996591211E-06	-3.58788810581248E-06	-1.16789831653495E-05	0.98174151578164	-0.187300182398586
8.3	0.509395667888653	-0.847568627298847	2.74972000934489E-06	-1.8402234513985E-06	1.59926238156921E-06	5.31883108522056E-06	0.981036390671503	-0.189868010151847
8.4	0.398513996036874	-0.903906694156209	-5.5585326328769E-06	-1.06089855521542E-06	1.03716254382213E-06	2.96555549456948E-06	0.980812026709284	-0.1925153373523
8.5	0.282794709207818	-0.946664759019897	-3.30217747433125E-06	1.60223404324446E-06	-4.75935180350388E-06	-5.0401252155829E-06	0.980658645592404	-0.196462971549861
8.6	0.1600937183982	-0.976327473797198	-8.16481690799971E-06	1.31850888288888E-06	-4.28944322354609E-06	-6.90992925093731E-06	0.979278237665796	-0.199300802259782
8.7	0.0340331511686853	-0.988795220989143	2.27049724453032E-07	-2.13475937350298E-07	6.13272938105263E-06	5.60900334743307E-07	0.978958124898002	-0.201493607679557
8.8	-0.0926196488053572	-0.984934673400748	1.04257686554233E-06	-1.81841608661152E-06	-2.39138106139158E-06	-1.30382609085993E-06	0.978934555534704	-0.20364373394126
8.9	-0.218155482149089	-0.96458013718596	-3.20788325546546E-07	3.05018810134419E-06	-1.23119417351853E-06	-1.65802726518648E-06	0.979295219743285	-0.205662412645002
9	-0.33590841719925	-0.925525646702633	2.98200263884637E-06	1.6052877950545E-06	-1.58941216629336E-06	2.11619458927063E-06	0.979813390735843	-0.207772654075399
9.1	-0.447120121684295	-0.878053479219131	-9.35268056337844E-06	2.22104721961384E-06	-1.58207475471814E-06	2.40829557569617E-06	0.980544745898663	-0.210288481931555
9.2	-0.553878516210046	-0.815908632397969	7.53115662578337E-06	-1.91757399706796E-07	-9.14820882632201E-06	1.92331332958031E-06	0.980811264796392	-0.213722008613463
9.3	-0.651588592291208	-0.741015765367428	1.17922237197986E-07	-7.18498991269774E-06	1.59891428391547E-06	-1.29518935528488E-06	0.98047056179257	-0.217446187098802
9.4	-0.738559051620442	-0.654094146075353	5.85852234437123E-07	2.49167888987073E-06	1.64138430130276E-06	-3.59489370166406E-06	0.978734543856364	-0.220894081764035
9.5	-0.813756516490057	-0.561547224775123	-2.94149695992527E-06	6.63293065502948E-06	4.74807341730329E-06	-1.32674545589941E-06	0.978613347691159	-0.222275261858406
9.6	-0.884065278180362	-0.455373650211044	-5.00991948344151E-06	-5.28141304205448E-06	4.76539222291519E-06	2.9419063080803E-06	0.979020762734714	-0.227016921468268
9.7	-0.936134078905002	-0.337525943846895	-1.97960563043881E-06	-5.12424210893207E-06	2.11177066450719E-06	2.54867493264451E-08	0.977725175345929	-0.230433934130428
9.8	-0.971793001912072	-0.214520284597411	6.24730273514928E-07	-4.31261956210394E-06	-2.94641572060751E-06	-2.55483100905458E-06	0.976695786913358	-0.232285583982444
9.9	-0.990897260923372	-0.0882201636496984	-6.18804650449316E-06	4.20103170573239E-06	-3.11857480454704E-06	1.65744687487502E-06	0.976772598772609	-0.23208289823241
10	-0.993636925155727	0.0375300071329493	3.60768993578554E-06	-2.13312993299905E-08	8.24607909314671E-06	1.12611466121119E-05	0.98194514493756	-0.23537678655108
10.1	-0.982124595354386	0.162640461570738	-2.87607842676511E-06	-2.55798640245191E-06	-2.01930785359929E-06	-2.52964866559788E-06	0.979020734665469	-0.241831920178425
10.2	-0.954735576377116	0.286455521927412	2.38281488326577E-06	-1.02255941112221E-06	-2.79093830052948E-06	-1.0866339486428E-06	0.976618336124204	-0.243154132341067
10.3	-0.911943960829655	0.405931728410846	7.85940737856399E-06	-5.98534496751016E-06	3.87217931620789E-06	8.32841325090082E-06	0.975498651224422	-0.24451719272512
10.4	-0.855563459307002	0.520253032866532	1.72554230378853E-06	2.57981515082354E-07	6.35446445851168E-06	-1.1855616225265E-06	0.975282522072232	-0.246211693998859
10.5	-0.780901647241503	0.628776374086639	8.44667110800478E-06	-4.20380608418957E-06	-4.97686722523822E-07	1.9973921422132E-06	0.975236482750195	-0.250656268023188
10.6	-0.693410999018872	0.720345421271461	9.02097545612331E-06	-1.29842385278868E-06	-1.46585365230011E-06	1.37773980442211E-05	0.973348707847606	-0.253266402129288
10.7	-0.597229775450787	0.800975035612867	8.08945340268613E-06	-1.93429346991997E-06	-3.09132106400152E-06	-5.32629977989932E-06	0.973361951115023	-0.256321006064581
10.8	-0.491124673264337	0.869698528457215	2.48632678307915E-06	5.29242387288683E-06	-3.66308100095483E-06	-1.98842755002974E-07	0.972918714676802	-0.259875330433375
10.9	-0.3753778551113	0.92496556445356	-5.60713004393172E-06	5.10126156138126E-07	1.62631896524788E-06	4.05898187964646E-06	0.972029492802535	-0.262747904561001
11	-0.255002782657601	0.960932374361035	-1.18268850699683E-08	-5.25879561453467E-06	-8.43296034751067E-06	2.27156345208738E-06	0.971436419394496	-0.265685030414922
11.1	-0.135133449526531	0.986661248332257	6.37317172581187E-06	4.1096478811956E-06	-1.89531184699825E-06	1.08559265663936E-05	0.969289679528982	-0.2689135034667
11.2	-0.00927913480209482	0.997580002665387	1.59753331460284E-06	1.36175572356439E-06	5.21444903173504E-06	8.964781191743E-06	0.966759979872182	-0.271174070183956
11.3	0.117680947188125	0.990978892972487	-4.74678013776123E-07	-1.75027253163146E-06	-7.25932594932072E-07	-4.43039986130246E-06	0.963998450942522	-0.272937317286529
11.4	0.242168337257032	0.967960709521482	2.99905847377916E-07	1.19459991895918E-05	2.47143400682591E-06	4.95024904339262E-06	0.960489228256585	-0.274273855938822
11.5	0.362540481496852	0.929345463835669	6.22721684056496E-06	-3.57150805820459E-07	3.09131840724045E-07	-1.89394532195257E-06	0.961263122982521	-0.273589286785387
11.6	0.475722111936057	0.875947858765386	-6.02824260497588E-06	3.12293593240736E-06	-4.89173912961391E-06	1.95267190876375E-06	0.961311336120882	-0.279369673133837
11.7	0.580848599114836	0.809472913215376	3.33655150926579E-06	-1.82607924591062E-06	-1.7040159572983E-06	2.26049191362016E-06	0.958594721016778	-0.283321814210847
11.8	0.676157517959028	0.729998687552635	-7.68772356924726E-07	9.84648977657082E-06	-2.66924967139407E-06	1.06054154479417E-05	0.956392890144991	-0.285501729292739
11.9	0.759203728829234	0.640732826427694	-7.32853501154678E-06	-1.0159252465587E-06	-3.88733014005152E-06	1.13073337195077E-05	0.957053933847104	-0.284454808060583
12	0.836196961084006	0.543350757784597	-6.46846630270497E-07	1.39619217210453E-06	-3.17007776939839E-06	-1.93448264574437E-06	0.963756115066632	-0.289241058231961
12.1	0.897491815096186	0.430665623602437	-3.87790527471085E-06	5.05413943598529E-06	-1.29485995818999E-06	8.49324121600592E-06	0.960483985651071	-0.296669001440458
12.2	0.942353437163941	0.314496141810546	-6.05893862279541E-07	-3.82184073222824E-06	-3.14131800520851E-06	-7.15800515892822E-07	0.957920087003147	-0.299992839851451
12.3	0.973597713400958	0.19494864599342	3.64734917908425E-06	3.43430579651106E-06	-3.41937107906009E-06	6.33752466164198E-06	0.956182872836906	-0.303213670148335
