# GHZ S RI R 50
0.2	-0.965321700355145	0.251870114596027	8.82045180671588E-06	5.31364629246978E-06	1.13469805725239E-06	-2.88855673167006E-06	0.999052456796747	-0.00734224351234406
0.3	-0.925560039804811	0.37163642222045	-7.65683696866226E-06	-8.14068157799711E-07	-1.24336287005392E-08	3.65668170536738E-06	0.998783162119585	-0.0103797625773768
0.4	-0.870476613475666	0.485118183949291	-2.19171220467032E-06	6.33365344530105E-06	2.92005960118421E-06	5.72795402762732E-06	0.998371919108343	-0.0131549884235802
0.5	-0.802149067150327	0.590468045309659	-2.64479522594321E-06	5.48666176985829E-07	1.05051542846393E-05	4.87507303870791E-06	0.997734493401822	-0.0157313424146505
0.6	-0.721241193434159	0.686793119799456	-1.72323250190175E-06	-1.81514858135415E-08	4.15771229005851E-06	-1.03241037583195E-05	0.998271306999673	-0.0184634733139166
0.7	-0.628670269204072	0.772082800643617	-2.04423516602898E-06	9.87528510786784E-07	3.78109351902825E-06	1.11454560529692E-05	0.997884995016501	-0.0216157175107974
0.8	-0.526128068287389	0.844971282143609	-5.5969346273225E-06	3.77804668092028E-06	-3.16403086777739E-06	-2.13541515474008E-06	0.997564098824255	-0.0238133340147387
0.9	-0.415530018579436	0.9041615636007	-6.66331651088551E-07	5.2430564719677E-06	3.26171806317396E-06	-2.95207182091067E-07	0.997468403925222	-0.0263849037232495
1	-0.29791398508403	0.948974388278453	1.56558110111054E-05	-3.69018999868192E-06	-9.58135614849094E-06	5.32076053501421E-07	0.996542755251271	-0.0283288566002702
1.1	-0.176701184373865	0.97836792222903	1.33837666798425E-06	-2.97603625698012E-06	9.37949107798652E-06	1.25670335637635E-05	0.995982569743288	-0.0298212152112209
1.2	-0.0519070676018929	0.992349308060835	-7.8904691609244E-06	-3.25039423538402E-06	-3.09108147196381E-06	-4.46775552304957E-06	0.995232563391857	-0.0308715639918408
1.3	0.073546015627673	0.990517768967096	1.77942898541413E-07	3.32577868686563E-06	1.92424505326472E-06	3.40320864969089E-07	0.99509372165984	-0.0317177222707745
1.4	0.197415307755739	0.973046545823564	2.1364729856317E-08	3.75824621913731E-06	-2.51984912353556E-06	-5.60188046903358E-06	0.994940920636191	-0.0336578010544698
1.5	0.31798985311405	0.940544202291072	3.17894225543989E-06	-2.64363664292921E-07	2.69428317436055E-06	2.09057236711537E-06	0.995186895931724	-0.0368544339941873
1.6	0.433655590516731	0.893669257748244	1.7856844493089E-06	-1.93335815386336E-06	-8.8872648916854E-07	-3.05770411037296E-06	0.995175802615648	-0.0396860058745318
1.7	0.542446500371939	0.831994322072903	-8.14927850227392E-08	-3.51842378307003E-06	1.99613658654314E-06	4.91957809634459E-06	0.995861885657922	-0.0421153957670142
1.8	0.642454670130057	0.757533294335331	-2.05209422802754E-06	-1.81359091297671E-06	-4.65379491810056E-06	1.82837792938699E-05	0.995967033251396	-0.0448515138864796
1.9	0.732389164725635	0.670918421665169	-4.38302853746502E-06	-1.46873510881233E-06	-4.91434489190378E-06	-5.99951212722158E-06	0.995839734957916	-0.0476109025297721
2	0.809622468811321	0.573251202948493	-9.42466625766106E-08	-6.72415322158187E-07	-1.66331129429279E-06	-1.41482192932077E-06	0.993771486406985	-0.0503033692838574
2.1	0.874947263170389	0.467579679063373	-1.15509892385283E-06	9.41811795635203E-06	1.98928904418185E-06	-3.75466237350773E-07	0.99380433649682	-0.0507986853806516
2.2	0.926982590059716	0.354322824949667	-9.77866915382284E-09	-5.91502547831513E-06	-7.40984029041809E-07	2.72902207598864E-06	0.9945156944657	-0.0529303959263785
2.3	0.964087657553909	0.235066441414632	-1.31878037609761E-06	2.75650396276886E-06	-2.97685184846292E-07	1.19453109157099E-05	0.99460033270654	-0.0547328865976808
2.4	0.98584784927852	0.111240736515867	-5.85069472369581E-06	-3.71563167548178E-06	-1.75947922943948E-05	1.44488174554818E-05	0.99481900648515	-0.0579312159769528
2.5	0.992143042721736	-0.0132812373319045	1.82532685934895E-06	-2.95421751662239E-06	-1.81049141250023E-06	7.53400018998796E-06	0.994309029022868	-0.0602867736830219
2.6	0.982855692042405	-0.136757814322901	2.85749185789496E-06	9.24551986080373E-07	-1.75956151765416E-06	4.49453254753973E-06	0.99425878243985	-0.0629225578837912
2.7	0.957880100591003	-0.25862319943335	3.79638341992936E-06	1.04410899492888E-05	2.31183778310004E-06	3.8686704578956E-06	0.993912043933138	-0.0657022410176008
2.8	0.91801937460646	-0.376489870276861	-8.07041714383309E-07	-2.2918575202733E-06	2.23615476276652E-07	-1.885033876271E-06	0.994199802947733	-0.0674500785524446
2.9	0.864039388358663	-0.488092521477188	3.78431086979806E-06	-8.29611566257128E-06	-1.23415331103714E-06	-1.42099008905955E-05	0.994110202426762	-0.0693778602872572
3	0.796383079899197	-0.59251315225197	-3.26531925121455E-08	6.64092123239508E-06	-1.47678845858999E-05	5.25162022071695E-06	0.993982745203338	-0.0718037207334658
3.1	0.717387399895071	-0.686551987408616	-5.0043306454776E-06	7.79629976657574E-06	5.80133471827038E-06	-6.53852879223034E-08	0.993718319283869	-0.0734592720024043
3.2	0.625562670077284	-0.77146920931697	9.5092146857623E-07	2.12738648164792E-06	-4.55830161280403E-06	4.59755610164995E-07	0.993691595796949	-0.0748935854701213
3.3	0.524110086736412	-0.844268637104364	7.25472249495733E-07	-1.45570127240335E-06	-4.58228396863167E-06	7.10937594707758E-07	0.993913504601617	-0.0778653601717796
3.4	0.413821194762517	-0.904081411886306	6.47168484236965E-06	2.6600006388938E-07	-8.10531846126197E-06	-7.22290740087885E-06	0.994664988210779	-0.0799269737810049
3.5	0.295412183082292	-0.94956982610554	-7.71557389997618E-06	1.93754048276211E-06	-5.88246511603732E-06	-8.01318246168487E-06	0.994591898484605	-0.0836334387096133
3.6	0.172814724383004	-0.978149207784953	-8.43888937150297E-07	-4.38604929001224E-06	-7.80053474527762E-06	-6.35863167597272E-06	0.993929526308459	-0.0857110902960736
3.7	0.0484024040078395	-0.992783334982319	-6.69682734320025E-06	-6.79610638599602E-06	5.44087741755651E-07	-4.76494085145791E-06	0.994363480877701	-0.0881772978161522
3.8	-0.0776548132273837	-0.99123241041635	-3.65044627999674E-06	1.07224820767443E-06	-3.29168378899425E-06	-2.47839405952615E-06	0.994611308749525	-0.0905199045218767
3.9	-0.201970070402871	-0.973482819332131	-4.89790026524379E-07	3.50981257579463E-06	2.05881351254473E-06	-1.21474882496099E-06	0.994928212905351	-0.0946779230306906
4	-0.322714422625687	-0.939955580181423	1.16561576560975E-05	8.15501538171999E-06	7.27908801073645E-06	-4.0192277495999E-06	0.992963979118133	-0.0964984448860114
4.1	-0.4375647286857	-0.892669152071572	5.21696439266181E-06	1.34496179936907E-06	-3.48686768944721E-06	6.64413021929146E-06	0.993036687631347	-0.0969188130978368
4.2	-0.546254285732698	-0.831642435931069	-7.10376828347875E-06	-1.23026667899419E-06	-8.27788045037055E-06	-7.29971424009853E-08	0.99314386287274	-0.099547508843384
4.3	-0.646708342819431	-0.756621072279485	7.12235107848246E-07	-2.36964965210301E-06	5.21901110629029E-06	9.01038268399495E-07	0.993315088567407	-0.101664949048227
4.4	-0.736881302254364	-0.668888015708076	4.48759452084512E-06	-1.76236733376532E-06	-8.74578089420048E-07	1.34633056841304E-06	0.992978396569996	-0.104188715054368
4.5	-0.815029513947826	-0.570470816734237	6.79132686359903E-06	1.89488018521623E-06	-7.94640983777625E-07	-3.2663271714554E-06	0.993001725889549	-0.105931778513585
4.6	-0.880540741386492	-0.463046625122815	2.4518944626476E-06	2.9663052889286E-06	-6.63518085215873E-06	9.74804593387594E-06	0.993497355208147	-0.108854730133101
4.7	-0.931769779883703	-0.347490930111198	-1.41021284655226E-05	5.88812405152568E-06	-3.47020948365081E-06	-4.50944463934062E-08	0.993691657699356	-0.111308009212905
4.8	-0.967908150736002	-0.227078465556503	-3.15305833764935E-06	-5.16464719884841E-06	-5.54413507600054E-06	2.3538339288929E-06	0.993526179911457	-0.113999863880267
4.9	-0.988279011125233	-0.104040191998037	-9.94078922758769E-07	-8.57746934222151E-06	-4.23454790737854E-06	7.27201118976783E-07	0.993561646117735	-0.116000917992942
5	-0.994985139941337	0.020426368102523	7.58520222906476E-06	-1.54995718422952E-06	-1.74948871483651E-06	-2.73839698584527E-06	0.993771064886603	-0.118039637617861
5.1	-0.984202293667987	0.147518877407185	-2.59548091308428E-06	-6.42670225606538E-06	-1.00788290996549E-06	-1.96363302748621E-06	0.994017974610675	-0.119749872578486
5.2	-0.957955432762827	0.270217088423184	4.01500133845472E-06	-4.29032832186661E-07	-5.47603391169261E-06	6.32129419685114E-06	0.994125316943623	-0.122368890940328
5.3	-0.91697473066836	0.388990618285429	5.1505456977866E-06	6.04451417341605E-06	-9.57649805808362E-07	-3.60423346604121E-06	0.994176484172159	-0.125122551349851
5.4	-0.861057474622258	0.502029117490948	3.08054303701319E-06	-2.02227227613487E-06	-1.13740535788076E-05	2.19528114301107E-06	0.994576624215335	-0.128558426732416
5.5	-0.790167856650022	0.606659605637621	-4.33710669713218E-07	-2.20531320850224E-06	-5.81774768174975E-06	6.15389607457153E-06	0.993990225312269	-0.132683641665417
5.6	-0.706925248025445	0.70050435651389	2.38892447642417E-06	7.33655102366356E-06	-5.40894765254483E-07	2.94198988482212E-06	0.993153219797666	-0.135049719498748
5.7	-0.613208993069161	0.783986216760605	-2.58370143869091E-06	2.37153269100979E-06	7.94744888281022E-06	2.79266732371769E-06	0.993256593870744	-0.137611473581065
5.8	-0.509281134286274	0.854778672836819	-4.6695475227888E-06	5.1309681559314E-06	-3.66955845833968E-07	3.43939657747053E-06	0.99347409128441	-0.140496759929793
5.9	-0.396950541426583	0.912221361229912	6.39213592498101E-06	1.4967052094032E-06	-2.72120241856349E-06	2.5640379508619E-06	0.993066109573233	-0.144367673814247
6	-0.278510042079585	0.953175442287103	3.54297912029394E-06	3.30102057477884E-06	-3.32903776590922E-07	-1.43773382258163E-06	0.990037777349992	-0.146623032595209
6.1	-0.157638833061788	0.979789933970888	9.20215100628576E-06	1.51239808167084E-06	-1.30989078697792E-07	-1.81295964439685E-06	0.989823205679651	-0.146434273818521
6.2	-0.0333427452153522	0.991495123051434	2.44232612568637E-06	-1.73818661791387E-06	1.47551346688836E-06	-4.85909502788654E-06	0.989514868305597	-0.147794202167751
6.3	0.0915978951947645	0.987621628199892	-4.36122303586002E-06	4.26105434260857E-06	-6.19440773114023E-07	-1.72748524452266E-06	0.988935941404495	-0.149661152724242
6.4	0.21485304133347	0.967556731916799	-4.26881126886214E-06	1.07849734273329E-06	-1.74908361427228E-06	8.85832449947702E-06	0.988173696908925	-0.151824966055712
6.5	0.332881559714934	0.933758820844336	2.45585360273264E-06	-1.33291651492369E-06	1.48985126366249E-06	-2.93418805931711E-06	0.988001971989027	-0.153207045238385
6.6	0.448888791130404	0.886182739175128	-4.75074962038132E-06	-2.26071573613145E-06	-1.87303408472591E-06	-6.66033834575599E-06	0.98952564553651	-0.156462332270389
6.7	0.55724120291221	0.822411992403361	4.17608458673574E-06	-6.6772217467402E-07	-4.69064417423805E-06	1.01965698999922E-06	0.989452356596183	-0.159867719648338
6.8	0.656209467761668	0.745778152013404	3.76650975359412E-06	-2.09313084114396E-06	6.23395723806089E-06	-9.36616781106413E-07	0.989058909726174	-0.162756115769148
6.9	0.744662749872556	0.65730413179129	2.05929703163893E-06	1.64198715996151E-06	8.80778385336246E-06	-2.78717168334273E-06	0.988696218098025	-0.165644189257586
7	0.820531311463894	0.558250496291753	2.19267839773679E-06	4.10095128234294E-06	-7.56025536426184E-08	5.39848016124543E-06	0.987140755118635	-0.167713321387488
7.1	0.883550891739792	0.451830837446072	-1.29035371378879E-07	1.72113186731978E-06	8.26467418618995E-06	-4.67456038207659E-06	0.98687399400903	-0.168767470804054
7.2	0.933143201476233	0.337850356112644	4.85552314266085E-06	-1.4055081477102E-06	7.2794521611024E-06	3.77623513668784E-06	0.986723938752299	-0.170555255765217
7.3	0.968025310593342	0.218559972430365	4.87231751485581E-06	-1.11685256237263E-06	-7.36829597569906E-06	-7.39139293218098E-06	0.986398354534477	-0.172381116935875
7.4	0.988873815186536	0.0948673868682784	-1.84237048320827E-06	9.93839782819601E-06	1.4371555332755E-06	-4.08699771465609E-06	0.986952447739746	-0.175531038975712
7.5	0.992487832970514	-0.0330565875002617	8.47853555730864E-07	8.0845225286072E-07	1.68633164623819E-06	9.93646927834767E-07	0.985502334700002	-0.181021200077585
7.6	0.978627037400526	-0.157640362844219	1.44877025516211E-06	-2.63311545410575E-06	-5.46077542069196E-06	-3.61657017092487E-06	0.983211501218987	-0.183663664154142
7.7	0.950553695975362	-0.280161082153473	5.60875778826408E-06	2.3880023983071E-06	-6.78814566262956E-06	1.21355771373083E-05	0.982497405660851	-0.187109975746579
7.8	0.907150127740574	-0.398149860321577	-6.49641939951141E-07	-5.25785294347719E-06	3.71709669720757E-06	-4.77865156134727E-06	0.981797264638177	-0.190795995793107
7.9	0.84825091303662	-0.509568774439108	8.88552561703814E-06	1.46192727615156E-06	-9.62764508573318E-06	-8.58241277667074E-06	0.980399925838153	-0.195047506338453
8	0.774856256880723	-0.609239494945014	-6.65898520003588E-06	-1.57312915793572E-06	-1.19680784252722E-05	2.58979899349383E-06	0.976452666044228	-0.197140405290047
8.1	0.695054998847018	-0.699574875274791	5.06782491342194E-06	7.03357800207948E-07	2.89674219654506E-06	2.24189788397849E-06	0.976551273431719	-0.197224135334638
8.2	0.602983685570083	-0.781618494640886	3.54628219940988E-06	-2.58537590758584E-06	-3.72357009779628E-06	-1.15764688231947E-05	0.976710047271716	-0.19952226040254
8.3	0.500388965458972	-0.851242122950853	2.7149769849953E-06	-1.86441835661797E-06	1.65519712902183E-06	5.2749888593816E-06	0.97594178035796	-0.202202623988133
8.4	0.389500470915201	-0.907385929739847	-5.54505547395969E-06	-9.99091419515661E-07	1.06310441137263E-06	2.94188144113193E-06	0.974731281886818	-0.204704989053966
8.5	0.271088940653773	-0.94837446809017	-3.27867931951862E-06	1.63431730345813E-06	-4.80382219770736E-06	-4.97959631128636E-06	0.973830560861187	-0.206587071892474
8.6	0.14991921137288	-0.973312325180731	-8.11663199704182E-06	1.41848454560956E-06	-4.36191599381626E-06	-6.82833057324628E-06	0.973897305466625	-0.209170404846131
8.7	0.026667645182244	-0.984028675519179	2.230658985769E-07	-2.14978328414391E-07	6.10274746798166E-06	4.82288902162715E-07	0.973398548211105	-0.211923280005567
8.8	-0.0970659280882967	-0.979299291491867	1.01446134932321E-06	-1.81569039705012E-06	-2.38705741202256E-06	-1.26737623657766E-06	0.972841051003821	-0.214276502307751
8.9	-0.218437406226776	-0.960376496469198	-2.93672245339433E-07	3.02410776124967E-06	-1.23274750781123E-06	-1.63274181917632E-06	0.972541053462028	-0.216465140210367
9	-0.338248683464614	-0.9271298218505	2.97191526274023E-06	1.5821307778579E-06	-1.57033868992722E-06	2.11111101728196E-06	0.971853953819128	-0.218881310717857
9.1	-0.452519917721105	-0.876537237344803	-9.29324021045828E-06	2.27240709976044E-06	-1.55855001556519E-06	2.40726429775938E-06	0.970908944084749	-0.22071141601459
9.2	-0.559005997066171	-0.812659914061964	7.49271998944647E-06	-2.40405655469357E-07	-9.09038762500362E-06	1.97406334942617E-06	0.969993087264525	-0.222643522443722
9.3	-0.656495065617937	-0.736042040741163	6.98114860562733E-08	-7.15430764767914E-06	1.58333305258182E-06	-1.30010909068221E-06	0.969597202657269	-0.224402205128874
9.4	-0.744168232468465	-0.648008903089906	6.029503272112E-07	2.481009615701E-06	1.61042785163498E-06	-3.5980423979275E-06	0.969517312943485	-0.227099177367247
9.5	-0.819307172105945	-0.546271461900513	-2.83974399299258E-06	6.64796020268382E-06	4.71194882380523E-06	-1.38656977284519E-06	0.968226592546395	-0.230565084962551
9.6	-0.877391998928588	-0.438872838144629	-5.02466997969513E-06	-5.16554206122029E-06	4.75355829993636E-06	2.85282778266356E-06	0.96718614557904	-0.232601263651844
9.7	-0.924647767080964	-0.326213043896973	-2.00745625049458E-06	-5.04679286541674E-06	2.08810598127537E-06	4.48173154386273E-09	0.96701512583317	-0.23489123273957
9.8	-0.958485588844736	-0.207269800706256	5.8005375235792E-07	-4.26858830933754E-06	-2.93484255233888E-06	-2.49989968354368E-06	0.967024291779295	-0.237284656410397
9.9	-0.977152617569873	-0.0843753634576339	-6.07636409652972E-06	4.20624102956412E-06	-3.06641128893857E-06	1.66557198975101E-06	0.966042219437636	-0.240358630525503
10	-0.980533688114948	0.0402370057510604	3.55374451199694E-06	-4.87326632545847E-08	8.20967492395289E-06	1.10299134122576E-05	0.96281926037147	-0.240665319900828
10.1	-0.966597747677509	0.164178500993967	-2.84887277315548E-06	-2.50723809426991E-06	-2.00398835963643E-06	-2.48371454120068E-06	0.963886265071592	-0.240130574080761
10.2	-0.937452010690901	0.284831812287868	2.34436686431994E-06	-1.02054845450322E-06	-2.75763464427398E-06	-1.05716399908045E-06	0.964379612980455	-0.241986125119258
10.3	-0.893238191794489	0.400698021235773	7.71008345467164E-06	-5.93401137610069E-06	3.85526595474663E-06	8.18258917928133E-06	0.963754468048911	-0.244280457406502
10.4	-0.835012897269126	0.509067375519622	1.69522268197727E-06	2.46730886862431E-07	6.2346775060832E-06	-1.18825243909986E-06	0.962186129800852	-0.246656273412399
10.5	-0.766192410020355	0.60849934063733	8.29631094858168E-06	-4.10437946709441E-06	-4.92910561155321E-07	1.95835505297661E-06	0.960714561628984	-0.248100528037272
10.6	-0.684553393689362	0.700524854846796	8.88651622356995E-06	-1.24867103761629E-06	-1.48879408929619E-06	1.35606570558958E-05	0.960607840914317	-0.250339446747173
10.7	-0.591333597662325	0.78073189265897	7.97493956655394E-06	-1.87835164941708E-06	-3.02730429680378E-06	-5.25697147315527E-06	0.959525885340037	-0.252543443981156
10.8	-0.488317158491791	0.848861879657229	2.42605157448711E-06	5.22424701099495E-06	-3.60749990834131E-06	-2.11888524059255E-07	0.95884374778878	-0.253737651708589
10.9	-0.377470000037691	0.903586683432216	-5.53270770006258E-06	4.67047706178935E-07	1.57771572015172E-06	4.01318065335907E-06	0.958989536429029	-0.254867254190023
11	-0.25983653282661	0.945779498296099	1.56723638589926E-08	-5.20306890646017E-06	-8.35532299069262E-06	2.20356905788835E-06	0.958749837523485	-0.255459022356597
11.1	-0.136396378334973	0.969764426444411	6.27646955304034E-06	4.08249912673305E-06	-1.91368191339831E-06	1.07111255360035E-05	0.959648546994464	-0.256142909879662
11.2	-0.0138684029616206	0.97788919347279	1.56829122032841E-06	1.3521585491447E-06	5.09388181624859E-06	8.87213219550435E-06	0.960151065974764	-0.257798335980107
11.3	0.108146105294636	0.971269667386472	-4.5481466537288E-07	-1.73046100631268E-06	-6.82031327227171E-07	-4.37658396026736E-06	0.960855278593895	-0.259854111990365
11.4	0.228599024774856	0.950562250302319	1.77721243741817E-07	1.18105852335574E-05	2.39361069994417E-06	4.91745971520568E-06	0.961363380581983	-0.263525476321538
11.5	0.346486896591064	0.915268356635576	6.17359162027977E-06	-3.04265745827397E-07	3.21427810292951E-07	-1.87430521472423E-06	0.959170791057005	-0.268003044109804
11.6	0.458036357897358	0.865348258755257	-5.9879287591899E-06	3.03998635901775E-06	-4.85430550106387E-06	1.89169483990146E-06	0.957595152035393	-0.270203458931323
11.7	0.562491138202287	0.802723754137635	3.3200031466247E-06	-1.77558854198883E-06	-1.70825368467935E-06	2.22117502291841E-06	0.957371532401775	-0.27386324191522
11.8	0.659206121113923	0.727200352562288	-8.56894242166213E-07	9.75793213641093E-06	-2.74898305181739E-06	1.04923687599393E-05	0.956715266877935	-0.278401568475661
11.9	0.74654428538572	0.638485985906031	-7.2746310106091E-06	-1.05290721104899E-06	-3.929241014287E-06	1.12103575410502E-05	0.955104892970802	-0.282942497369578
12	0.819118798143467	0.538371651822249	-6.44489971198359E-07	1.37398214404444E-06	-3.11747053660795E-06	-1.92273147306875E-06	0.950354230091641	-0.283296261346843
12.1	0.880839724682918	0.431998418484738	-3.8779833407069E-06	4.9537294506576E-06	-1.36025078139562E-06	8.37465962563315E-06	0.950788579166964	-0.282690414501529
12.2	0.927993472256226	0.317091103924443	-5.6249303639962E-07	-3.78409216229656E-06	-3.09869899139396E-06	-7.37646730028664E-07	0.95081544745004	-0.284630547291664
12.3	0.959414105804819	0.198362881132882	3.56769714312954E-06	3.42814948677999E-06	-3.44031475072285E-06	6.22461552099725E-06	0.950061011553258	-0.286734797984597
