# GHZ S RI R 50
0.2	-0.966966663603028	0.250947688649184	8.82747022300811E-06	5.33116845212081E-06	1.13955120109325E-06	-2.8915246774669E-06	1.00055539677837	-0.00646393308602212
0.3	-0.927970672506306	0.37080784552952	-7.67101225160114E-06	-8.25634316565311E-07	-1.7208580316926E-08	3.66394029331067E-06	1.00067907799497	-0.00945146629296746
0.4	-0.873774267769579	0.484871134983501	-2.20652969431511E-06	6.34839579629691E-06	2.92039352528452E-06	5.74800242420948E-06	1.00096941121372	-0.0122083477611862
0.5	-0.805521331616813	0.591744314187997	-2.65430838237951E-06	5.49908881261818E-07	1.05410717960504E-05	4.89512345904237E-06	1.00087071581045	-0.016086675852042
0.6	-0.72396885630386	0.688205706609106	-1.7278478994234E-06	-1.82934659611608E-08	4.16940971317332E-06	-1.03515358406728E-05	1.00014947303609	-0.0187965323883252
0.7	-0.631602954220413	0.773903430586205	-2.05053452539086E-06	9.89421653437546E-07	3.78682856172296E-06	1.11790698968213E-05	0.999920970216832	-0.021252225076875
0.8	-0.528971035734495	0.847537428621996	-5.61674489815823E-06	3.78734968600256E-06	-3.17309654257277E-06	-2.14383381655503E-06	0.999985594413098	-0.0231702160019282
0.9	-0.418002178249303	0.907440272031223	-6.71675399016683E-07	5.26056169668362E-06	3.27302360751308E-06	-2.94305248448697E-07	1.00032442067388	-0.025326771185072
1	-0.299845112562908	0.952925547630428	1.57258422674078E-05	-3.69207234985307E-06	-9.62268754986539E-06	5.25866008413985E-07	1.00098830298715	-0.0272539639319132
1.1	-0.177748370698219	0.982800494252502	1.34427083223261E-06	-2.99083403674325E-06	9.42790379523111E-06	1.26263251818517E-05	1.00045888857674	-0.0304218698761125
1.2	-0.0519590276198192	0.996913519102016	-7.92965415154457E-06	-3.25737087649151E-06	-3.10960432730112E-06	-4.48504571702381E-06	0.998979845296832	-0.0318954201548441
1.3	0.0745687719414863	0.994819695985899	1.84490370416406E-07	3.33883840079276E-06	1.93257852644982E-06	3.38314849075784E-07	0.998072082694342	-0.0330477884119124
1.4	0.199205821712963	0.976904834895192	2.9778673738133E-08	3.7705701347927E-06	-2.54058056627731E-06	-5.61472639555607E-06	0.997164935730913	-0.0348023930887576
1.5	0.320853122507385	0.944269976840762	3.18934590646928E-06	-2.72823812089001E-07	2.70859271369141E-06	2.09143380887437E-06	0.998072093056945	-0.03808482439496
1.6	0.437123907420165	0.896502747190904	1.78583981889948E-06	-1.94435366091677E-06	-9.00024674483293E-07	-3.0647302758496E-06	0.99770073018229	-0.0412660214742541
1.7	0.546245432808666	0.834400976954956	-9.07225762224538E-08	-3.52893432213871E-06	2.01477591739784E-06	4.92946958948297E-06	0.998717440412154	-0.0434425993056884
1.8	0.646514101127602	0.759494448511536	-2.06247904721927E-06	-1.81445214089457E-06	-4.62638287675453E-06	1.83501268978504E-05	0.999172747630416	-0.0460398435268094
1.9	0.736472363750577	0.673071477711008	-4.39878496687208E-06	-1.46802385937443E-06	-4.9373604452316E-06	-6.01256972269785E-06	0.999761308754702	-0.0479605923444426
2	0.816314167512481	0.575856363291258	-9.53210132385802E-08	-6.76484199869907E-07	-1.67458774674343E-06	-1.42230618149028E-06	1.0009977015597	-0.0515591466557742
2.1	0.882492631245118	0.466542119264753	-1.12589852630598E-06	9.48212909727417E-06	2.00040863508683E-06	-3.85549598141601E-07	0.999906402271159	-0.0554328130058259
2.2	0.933356117577878	0.351715616008558	-3.62444268606251E-08	-5.9457024087234E-06	-7.32645338854864E-07	2.74650471671811E-06	0.99921359544452	-0.0577610713000575
2.3	0.96967316875328	0.231561134123662	-1.31217083936545E-06	2.77595400941623E-06	-2.42994920566025E-07	1.20041462993409E-05	0.998773737116311	-0.0595306384034961
2.4	0.990807145066467	0.107025690397814	-5.89660962932076E-06	-3.70142465307603E-06	-1.75975351403272E-05	1.46066751364117E-05	0.998760227373879	-0.0627103883721044
2.5	0.996760722636528	-0.0184975735539444	1.81530349789656E-06	-2.97379159949059E-06	-1.77560485200335E-06	7.5685064434438E-06	0.998477150658656	-0.0654604011888442
2.6	0.986423836337149	-0.143090243621501	2.87197980171639E-06	9.14657953681851E-07	-1.74509100468132E-06	4.51873102523398E-06	0.997940901946948	-0.0687814659499341
2.7	0.960267340774262	-0.265780186702882	3.8653067260156E-06	1.0464405801434E-05	2.34107975455996E-06	3.87268111000324E-06	0.997167267399238	-0.0719350814160653
2.8	0.918908755362478	-0.384194553800058	-8.23540760290768E-07	-2.29656382548719E-06	2.1366778240023E-07	-1.89401750219722E-06	0.996941695984479	-0.0739717092999461
2.9	0.863408325881974	-0.495836591663662	3.74703498209654E-06	-8.35209852014092E-06	-1.32801047400891E-06	-1.42574318112398E-05	0.996424619840052	-0.0759283997132843
3	0.794587168552719	-0.600086371819355	1.12367333990761E-08	6.6649340306607E-06	-1.47860018094698E-05	5.36829967162384E-06	0.996175523470322	-0.0784887112602341
3.1	0.714054153130299	-0.694136051384185	-4.96590630143403E-06	7.85935294964778E-06	5.82109667657943E-06	-1.0719109517321E-07	0.995496955813126	-0.0805922871878753
3.2	0.620455453164119	-0.778306730777316	9.70259300591726E-07	2.12591292281837E-06	-4.56750486400784E-06	4.96758113217078E-07	0.994885532674357	-0.0822892328193349
3.3	0.517320961946014	-0.849737977978122	7.1455294581607E-07	-1.46448552844726E-06	-4.58472763699944E-06	7.50817495036026E-07	0.994279067234286	-0.0854903546242599
3.4	0.40593672477168	-0.906880388803894	6.47467745857174E-06	2.1000281495315E-07	-8.16871140458308E-06	-7.15350929454589E-06	0.993839731535865	-0.0872915733084394
3.5	0.289904881916871	-0.950606245090198	-7.69499505573517E-06	1.98563754672023E-06	-5.92840634379499E-06	-7.96667673822273E-06	0.993791998589324	-0.089730717231088
3.6	0.166314832028559	-0.980531556133886	-8.72827099056537E-07	-4.3823771711048E-06	-7.84522874209251E-06	-6.31044115061744E-06	0.993408860141337	-0.0925835514192589
3.7	0.0405281602865207	-0.993429179165255	-6.7459405902503E-06	-6.74695452146319E-06	5.09357331908953E-07	-4.76863410540578E-06	0.992959155472958	-0.0952293067780658
3.8	-0.0855416713794226	-0.989833430802406	-3.63987456079433E-06	1.09794605508793E-06	-3.30717607390564E-06	-2.4525948854368E-06	0.99250719917718	-0.0971072186079553
3.9	-0.208987845320824	-0.970481950656373	-4.65900377842096E-07	3.51017595428139E-06	2.0489768969556E-06	-1.22751528126802E-06	0.992949215014332	-0.100066404686731
4	-0.329171145505488	-0.936545530754747	1.17223585012397E-05	8.06684771518284E-06	7.24984834901281E-06	-4.07665718792726E-06	0.993457337651174	-0.10292047592498
4.1	-0.444030986490897	-0.887574924037084	5.2209136500461E-06	1.2957838125303E-06	-3.42145319621332E-06	6.66516477325842E-06	0.991413176333371	-0.105834292040919
4.2	-0.551468559505474	-0.824995250752882	-7.09445235476065E-06	-1.16580338778956E-06	-8.25533747014442E-06	-1.68772514569204E-09	0.989794595645478	-0.107963612298878
4.3	-0.650376759590391	-0.749050677589758	6.90412316374149E-07	-2.36722973217402E-06	5.20823045510713E-06	8.55295019757816E-07	0.989177207774025	-0.109543175200822
4.4	-0.739142524605798	-0.660793616577882	4.45640624809839E-06	-1.79113337584546E-06	-8.60558914738726E-07	1.34808548647801E-06	0.988443529108144	-0.111736598814775
4.5	-0.815649002168875	-0.561506398307936	6.77527479647833E-06	1.82911957426377E-06	-8.18251652887596E-07	-3.24432458322792E-06	0.9876687898925	-0.114065043880342
4.6	-0.879000125598608	-0.454412106635566	2.45973645573479E-06	2.93018661721979E-06	-6.52219925487603E-06	9.74028055809355E-06	0.986453233809561	-0.116168552654819
4.7	-0.928789302570239	-0.339395510625177	-1.39729642395896E-05	5.9487854803284E-06	-3.44876311760764E-06	-2.07994387598572E-08	0.986143458614863	-0.11767673897907
4.8	-0.963616914552163	-0.219292186204788	-3.16684227762679E-06	-5.10949230530914E-06	-5.49182817969886E-06	2.37542712911989E-06	0.985621256065734	-0.11977469205595
4.9	-0.982136619811205	-0.0959311085605342	-1.04610388081708E-06	-8.5079498713683E-06	-4.19859311795414E-06	7.51158003070647E-07	0.985176617709301	-0.12123235038736
5	-0.984492998911759	0.0262627044581575	7.50570575115013E-06	-1.58131780682557E-06	-1.74980433812421E-06	-2.70252862528239E-06	0.98499797583485	-0.122704876144953
5.1	-0.974465602980994	0.149246741424094	-2.59993183997502E-06	-6.35787321886522E-06	-1.00731616484143E-06	-1.94167589389322E-06	0.984785047168517	-0.123878101005017
5.2	-0.94871731550118	0.270671829514002	3.97782509811169E-06	-4.41222278884039E-07	-5.4024998808706E-06	6.28724598518042E-06	0.984529677271734	-0.1259142036319
5.3	-0.907715433358001	0.387903615670921	5.1255141549622E-06	5.97037285589364E-06	-9.62063936977769E-07	-3.56775146350443E-06	0.98406455372542	-0.12821508090513
5.4	-0.852052921710737	0.499161668897495	3.04420824961954E-06	-2.01196626135529E-06	-1.1256096987998E-05	2.2087703573389E-06	0.983498701450961	-0.130705121371219
5.5	-0.782078364584761	0.601959409455256	-4.33321264639704E-07	-2.18295312765429E-06	-5.74999449836755E-06	6.1037980679534E-06	0.98329169972954	-0.133016422652435
5.6	-0.699951841231423	0.694727219205358	2.37812800894408E-06	7.26328590003469E-06	-5.31041590675046E-07	2.91502264707015E-06	0.982682994833438	-0.135382742659584
5.7	-0.607270476417409	0.777074981565557	-2.55532866640914E-06	2.35116680730416E-06	7.87220393128913E-06	2.75557915436241E-06	0.982239462816429	-0.13705902807377
5.8	-0.504783644080959	0.846659263791263	-4.62056996598509E-06	5.07912474057001E-06	-3.62525533855573E-07	3.40411570815324E-06	0.982393059848359	-0.138441259689139
5.9	-0.394867506198091	0.903516233812668	6.32637029118627E-06	1.4929761399385E-06	-2.6987457865772E-06	2.53398712150316E-06	0.983294088328984	-0.140049038285661
6	-0.277482954438676	0.946349832335415	3.51312725609232E-06	3.2846126699247E-06	-3.28155796990492E-07	-1.42850201276297E-06	0.98430262196601	-0.143614097778588
6.1	-0.156234141939887	0.971703070353676	9.13139208077539E-06	1.49950420668896E-06	-1.30221536905985E-07	-1.7989616993426E-06	0.982199429658859	-0.14580594427831
6.2	-0.0338203572356331	0.982612063921693	2.42257941621731E-06	-1.7222711062743E-06	1.46551113470995E-06	-4.81731159492557E-06	0.980961469546339	-0.14634168572331
6.3	0.089086727634443	0.979081428311376	-4.33013191554781E-06	4.22000494481177E-06	-6.12104296270801E-07	-1.71383244405714E-06	0.980367900958257	-0.147399672513967
6.4	0.211460431877229	0.960690117786704	-4.23781211976961E-06	1.06483139730361E-06	-1.74719464323686E-06	8.78887515285032E-06	0.980383626238129	-0.14906129600875
6.5	0.330985361597925	0.92506895761829	2.4324113776759E-06	-1.32223971750485E-06	1.47426175064665E-06	-2.90816402543477E-06	0.979402495658454	-0.152223621078588
6.6	0.442053699021503	0.876218992664589	-4.69049297978157E-06	-2.24462006010067E-06	-1.83682307417104E-06	-6.58674689410603E-06	0.978642578475658	-0.153030588228534
6.7	0.547577466931723	0.8149785768834	4.13238435505265E-06	-6.42172908285893E-07	-4.64272809970582E-06	9.87950942251432E-07	0.979206539640932	-0.15441431408639
6.8	0.645036003417406	0.740919536609134	3.7385595074654E-06	-2.04977704911566E-06	6.1734312807675E-06	-8.91547043717086E-07	0.979457421580526	-0.15610141531756
6.9	0.732729447133939	0.655373542066181	2.02723725232234E-06	1.6401551180195E-06	8.73977229379701E-06	-2.69738668245846E-06	0.980073802587642	-0.15761955627035
7	0.809490859325557	0.558792000722527	2.14309410654131E-06	4.08590968402331E-06	-1.17534689159421E-07	5.35534525285311E-06	0.980445212773908	-0.160108245612732
7.1	0.872529333728089	0.453586921723229	-1.39852716231526E-07	1.70739291533457E-06	8.23493997412226E-06	-4.58307282148775E-06	0.979228593945493	-0.161659859594445
7.2	0.922120585803868	0.341563263357718	4.82723666549149E-06	-1.3610513449304E-06	7.1964958125392E-06	3.7968732744233E-06	0.97863931322097	-0.162474426244989
7.3	0.957093684709638	0.224229214461895	4.8390797395109E-06	-1.07330564751586E-06	-7.25441591452422E-06	-7.38072159589585E-06	0.977865484650266	-0.163224713923742
7.4	0.977406327195073	0.10376000943474	-1.90242735942804E-06	9.81804654070601E-06	1.45463350889087E-06	-4.03206073063178E-06	0.977463764393206	-0.163648478226604
7.5	0.984892199031029	-0.0186807203274921	8.2824609170979E-07	8.11199173864461E-07	1.6554713274821E-06	1.00555749609476E-06	0.979782438339719	-0.164995853182387
7.6	0.975597230789319	-0.144055717215014	1.47494490394613E-06	-2.59591882971298E-06	-5.37531279939876E-06	-3.66678649546661E-06	0.980398124523078	-0.16961516438193
7.7	0.950003713403835	-0.266290560516423	5.54327615130721E-06	2.45174636614861E-06	-6.9166851486317E-06	1.19714751687998E-05	0.980419044224055	-0.173114635754266
7.8	0.909597505642026	-0.384285131168946	-5.70329869054398E-07	-5.24379369372886E-06	3.76992771514869E-06	-4.70327552065707E-06	0.980892043273075	-0.176564516769469
7.9	0.854702101376829	-0.496193882084507	8.84282719791339E-06	1.59741159599179E-06	-9.47209602914296E-06	-8.71356325069364E-06	0.981733950319674	-0.180167649102627
8	0.785300137331406	-0.601966174083284	-6.6572868459114E-06	-1.66666054028127E-06	-1.20374018911818E-05	2.43741322919699E-06	0.982002414990763	-0.185963030892103
8.1	0.702086752394116	-0.694318301022208	5.06690899767182E-06	7.52997870457141E-07	2.87849225212156E-06	2.2723995962417E-06	0.978961244748189	-0.188779629146402
8.2	0.610423369066251	-0.775859790080775	3.57203220889685E-06	-2.550405700375E-06	-3.60919173488178E-06	-1.16138592869646E-05	0.978196098072672	-0.190099777506526
8.3	0.509082557858922	-0.846103825354357	2.73440476947447E-06	-1.83698230117602E-06	1.601601978546E-06	5.29265738651485E-06	0.977816090654416	-0.192121331229912
8.4	0.399509217634532	-0.903146240781956	-5.53583615470454E-06	-1.05477048935741E-06	1.03379053615411E-06	2.952946751832E-06	0.977508252659537	-0.194451323397816
8.5	0.283166260895093	-0.946404155091883	-3.29501654791182E-06	1.59649213891841E-06	-4.74494622852477E-06	-5.03048148071831E-06	0.976883785699421	-0.197114524936783
8.6	0.16162780654938	-0.97439459576842	-8.143974696374E-06	1.31954633627136E-06	-4.28248942527275E-06	-6.8906223943253E-06	0.976812510606306	-0.199031891711479
8.7	0.0376614247621779	-0.98717968071165	2.26276601748655E-07	-2.12840210538773E-07	6.11319551434722E-06	5.5779566324143E-07	0.977214345428217	-0.201328716460167
8.8	-0.0873493251348561	-0.984272294567642	1.03952086979981E-06	-1.81104930345762E-06	-2.38172558160832E-06	-1.30006101495691E-06	0.977609583436896	-0.203584834797617
8.9	-0.21058032467306	-0.9655351319827	-3.2587294287684E-07	3.03540123345144E-06	-1.2219345410276E-06	-1.65301560807307E-06	0.978278950793402	-0.205738335052836
9	-0.328269662094278	-0.932016331129166	2.96602539999215E-06	1.61728339792993E-06	-1.59681058964777E-06	2.10244533758455E-06	0.97895931407075	-0.20814399715114
9.1	-0.443085472813623	-0.885666989862387	-9.36236311902272E-06	2.1792153996633E-06	-1.59279152089763E-06	2.40116766681241E-06	0.979425439227485	-0.210749653400694
9.2	-0.551865746932888	-0.823873751571033	7.53877942401433E-06	-1.61079935170003E-07	-9.16439304424858E-06	1.887583589499E-06	0.979315724336958	-0.213828618326754
9.3	-0.651731346914223	-0.748406282997733	1.4430232016823E-07	-7.19862493977639E-06	1.60675781402836E-06	-1.29190547801762E-06	0.978938011084522	-0.216518867085636
9.4	-0.740516960527399	-0.660644681635759	5.80407708456605E-07	2.50210454132629E-06	1.65788828750936E-06	-3.60246837417454E-06	0.978566918780889	-0.218981249305282
9.5	-0.81821890910225	-0.563035752570957	-2.94595935592924E-06	6.66555073176389E-06	4.76709810906773E-06	-1.33851277480309E-06	0.979243316534712	-0.222012675493311
9.6	-0.882356082205799	-0.454173912987124	-5.02301008864944E-06	-5.27159067680378E-06	4.77319486183629E-06	2.93202490596249E-06	0.978859157010214	-0.226015430208479
9.7	-0.931955051990023	-0.339120913347401	-1.98235586967815E-06	-5.11828946195142E-06	2.11003892763527E-06	2.365472261626E-08	0.97853944349117	-0.228880565846841
9.8	-0.96770400929719	-0.218304375773676	6.23694554383715E-07	-4.30975500543678E-06	-2.94475864298296E-06	-2.5526664561209E-06	0.978851850688324	-0.231122620884435
9.9	-0.98805778671003	-0.0932942877423088	-6.1864365084346E-06	4.20309117802146E-06	-3.11792373915011E-06	1.65849555511604E-06	0.979918256532605	-0.233448364690187
10	-0.992429978281078	0.0331814936799661	3.60407164212295E-06	-2.52903281287745E-08	8.25028674148207E-06	1.12408281116985E-05	0.980101069174148	-0.238050182276537
10.1	-0.98006333643988	0.159348533535425	-2.87400954965926E-06	-2.55486256095235E-06	-2.01803813342242E-06	-2.52676501605684E-06	0.977935808965287	-0.239963741762648
10.2	-0.95186748267214	0.282850083002019	2.38033301272727E-06	-1.0232429108828E-06	-2.78944694357156E-06	-1.08406157418899E-06	0.977764189512454	-0.241427441427369
10.3	-0.908261405544458	0.401974913546882	7.8418450944746E-06	-5.98623800660959E-06	3.87648417523198E-06	8.31264133555155E-06	0.977528206905421	-0.243931574839983
10.4	-0.849677038486186	0.515126612028716	1.72035186857772E-06	2.54434513628469E-07	6.33199570250836E-06	-1.19169835431043E-06	0.976876118492252	-0.247392704797511
10.5	-0.775280633565191	0.617765308255586	8.40696275500806E-06	-4.16605866378984E-06	-4.98333009446288E-07	1.98545650429232E-06	0.974750778078465	-0.251292707454868
10.6	-0.692457875449291	0.70855112760669	8.9972533515247E-06	-1.26320163403001E-06	-1.5088630093931E-06	1.37292542612613E-05	0.973300529413233	-0.25372617227853
10.7	-0.598366847981628	0.790212715083909	8.07692549227763E-06	-1.90598391767451E-06	-3.068579715731E-06	-5.32343160871479E-06	0.971959108474	-0.256658023264158
10.8	-0.493041869011295	0.859863102469037	2.46570258697077E-06	5.28709037284681E-06	-3.65400558142119E-06	-2.08653593686905E-07	0.970846170272243	-0.258465258691153
10.9	-0.378855587671717	0.915132384128238	-5.59729824940685E-06	4.87470845725704E-07	1.60727452246491E-06	4.05670310534134E-06	0.970541197441724	-0.260095135526612
11	-0.259624246096433	0.954792122952069	5.74734743024609E-09	-5.26201472478948E-06	-8.44565344672868E-06	2.24474352573917E-06	0.970346271546595	-0.2615870437704
11.1	-0.135900509910313	0.979862271893861	6.36629033431609E-06	4.11487117768831E-06	-1.9061967420545E-06	1.08496705637161E-05	0.970353437278394	-0.263110143021985
11.2	-0.0109938399331044	0.988182277367661	1.59320124250779E-06	1.36163465271847E-06	5.19445618543348E-06	8.95711811292856E-06	0.970046285747865	-0.265241986105127
11.3	0.113236895355416	0.98085692013626	-4.69708127223848E-07	-1.74720350643007E-06	-7.14470475947704E-07	-4.4215840788516E-06	0.969535122282253	-0.26740579747697
11.4	0.235393959677961	0.959111634005129	2.53821858941654E-07	1.19205821285419E-05	2.44711948113021E-06	4.94864019381261E-06	0.968885640498905	-0.269962040543295
11.5	0.355006942814701	0.92244261479738	6.22784849045718E-06	-3.36127991285614E-07	3.15487332293077E-07	-1.89272930842299E-06	0.969126893907613	-0.273855023361383
11.6	0.467635742685739	0.870691381944032	-6.03010656287768E-06	3.10439470506775E-06	-4.8917681467464E-06	1.93821499762473E-06	0.967166323517874	-0.27857626367956
11.7	0.572726681328487	0.806422725611402	3.33904428609862E-06	-1.81360587944684E-06	-1.70952684519276E-06	2.25279437577833E-06	0.965834285886488	-0.282519209552501
11.8	0.669641815933552	0.729662276056064	-8.04022315605671E-07	9.84605182299538E-06	-2.70764666662741E-06	1.05983858291255E-05	0.965008237384134	-0.286583549669412
11.9	0.757873560816151	0.641260196143202	-7.34777487746097E-06	-1.03075772129537E-06	-3.91682957395043E-06	1.13332409542202E-05	0.96525848546674	-0.290376860033658
12	0.835864687749022	0.537831522930501	-6.43535451038598E-07	1.39756885691994E-06	-3.17428822717007E-06	-1.92692133476988E-06	0.963168280909296	-0.296348537023604
12.1	0.895597627365419	0.425808644427964	-3.8745374180341E-06	5.05267609558852E-06	-1.29183254280704E-06	8.48932212580473E-06	0.959289204247455	-0.297810614307008
12.2	0.94117751792826	0.30845167559322	-6.11842154479701E-07	-3.82150515654312E-06	-3.14290151225709E-06	-7.11099575435003E-07	0.957683476534362	-0.299716194571662
12.3	0.971312120995993	0.187090124764739	3.65267376002595E-06	3.41941086007376E-06	-3.39671171784488E-06	6.33940460304744E-06	0.955862615032786	-0.302294958839363
