# GHZ S RI R 50
0.2	-0.965882006743727	0.251644752979273	8.82247145370095E-06	5.32080503159125E-06	1.13672352105472E-06	-2.88951739172512E-06	0.999658905220967	-0.00673559671063355
0.3	-0.926356104641403	0.371466779751607	-7.66171801049893E-06	-8.19408461565128E-07	-1.47191801751489E-08	3.65924707430004E-06	0.999585517694841	-0.00962595935585689
0.4	-0.871588767403788	0.485170562422453	-2.19857220592436E-06	6.33855373284209E-06	2.91888365214241E-06	5.735955345749E-06	0.99954761357144	-0.012262977401266
0.5	-0.80324699393195	0.591209136976595	-2.6486478280484E-06	5.48774384217E-07	1.05186897724156E-05	4.88455258072886E-06	0.999326302154844	-0.0154041133228746
0.6	-0.721898602812507	0.687534485254712	-1.72483838759551E-06	-1.83166010480682E-08	4.16247842633082E-06	-1.03333766458558E-05	0.999292291973365	-0.018249579431174
0.7	-0.62936069888399	0.772854180734693	-2.04638969855042E-06	9.8783671019812E-07	3.78130933979389E-06	1.11567370671989E-05	0.99892794556137	-0.0211217975704076
0.8	-0.526797635116754	0.845922804673848	-5.60380987746682E-06	3.77982686629259E-06	-3.16641778865989E-06	-2.13864314506405E-06	0.998727525894915	-0.0232220156556457
0.9	-0.416135474054678	0.905293149848195	-6.69455488805965E-07	5.24799385582222E-06	3.26512217275507E-06	-2.93974454360291E-07	0.998727486013894	-0.0255668039965369
1	-0.298505704513062	0.950331451666458	1.56804364728789E-05	-3.68112110065774E-06	-9.59487321681985E-06	5.24176732497535E-07	0.998594039226952	-0.0271874992449962
1.1	-0.177239234348664	0.980055379589219	1.34325297554622E-06	-2.98078722884174E-06	9.38807161217837E-06	1.25986053965703E-05	0.998485169457395	-0.0292428849530216
1.2	-0.0523645818296989	0.994510743471199	-7.90544150366946E-06	-3.2647416369971E-06	-3.09411577458677E-06	-4.4806038179106E-06	0.99804077637128	-0.0301378450547772
1.3	0.0734885801323607	0.993166594802651	1.74998144406399E-07	3.33484893318085E-06	1.92903709138378E-06	3.43209190615089E-07	0.998541057932356	-0.0308843770923959
1.4	0.197975218391349	0.975679029333617	1.81137768673577E-08	3.76807219133838E-06	-2.52149585875002E-06	-5.61871571906794E-06	0.99846966439127	-0.0329697678805907
1.5	0.319262617868827	0.942855551595655	3.18677975300681E-06	-2.63051018846695E-07	2.69950527665047E-06	2.09727334715471E-06	0.99870151058155	-0.0365013719165433
1.6	0.435295511331653	0.895081775470402	1.78885007268797E-06	-1.9368960312219E-06	-8.90416480880908E-07	-3.06319371057619E-06	0.997825541868101	-0.0399939803677344
1.7	0.544079626981007	0.832848255170752	-8.24706573476554E-08	-3.52299630545535E-06	1.99996076206767E-06	4.92550534053613E-06	0.997904011377014	-0.0425461538660442
1.8	0.643961415844436	0.757963726239572	-2.05466848123208E-06	-1.81450688976513E-06	-4.65130460757628E-06	1.83024372591038E-05	0.99753599495234	-0.0453311858098429
1.9	0.733451107204756	0.671379112057405	-4.38518958507166E-06	-1.46958647637856E-06	-4.9166543276071E-06	-6.00265086931365E-06	0.997089435395269	-0.047541226805848
2	0.811621640930542	0.5746166941113	-9.38589420635889E-08	-6.73728696315257E-07	-1.66518572687347E-06	-1.41880718875486E-06	0.996677693265719	-0.0499643093514001
2.1	0.877832269987654	0.467275036718484	-1.14883015806008E-06	9.4423095482635E-06	1.99380032644287E-06	-3.78308046133517E-07	0.996544025838942	-0.0525321001008328
2.2	0.929198539230856	0.353165763888191	-1.9101800399968E-08	-5.9256300417452E-06	-7.38021082092109E-07	2.73508753635575E-06	0.996283448813733	-0.0549861093199677
2.3	0.965726106175338	0.233599916361477	-1.31580469862586E-06	2.76288647645401E-06	-2.76859773624863E-07	1.19633274984006E-05	0.995836949553131	-0.0567563143920916
2.4	0.986969403801116	0.109730876262401	-5.86562497090763E-06	-3.70770773303273E-06	-1.75853724711882E-05	1.45035364176493E-05	0.995655651239378	-0.0597550207326141
2.5	0.993039220738991	-0.0147431777634223	1.81891824062842E-06	-2.95919540711319E-06	-1.79343829709178E-06	7.54008595294067E-06	0.995166931147818	-0.0618454318923829
2.6	0.983430164799507	-0.138224729981875	2.85885926697977E-06	9.20347617151496E-07	-1.75294917365902E-06	4.49713281926398E-06	0.995032528099696	-0.0645029309497392
2.7	0.95837992553387	-0.260129911098765	3.81234586559609E-06	1.04403964140679E-05	2.31814355920337E-06	3.86717190726304E-06	0.994787245537645	-0.067292744497807
2.8	0.918242555979749	-0.378311710354199	-8.1161783003713E-07	-2.29207351530711E-06	2.20481165854356E-07	-1.88676171816357E-06	0.995106769854159	-0.0693198809924471
2.9	0.863742384455509	-0.49008103790298	3.768813346295E-06	-8.31136589139221E-06	-1.26699646531601E-06	-1.42187350508372E-05	0.994935800205682	-0.0714476629034707
3	0.795720214418952	-0.594482158967292	-1.4920317443943E-08	6.6462010108643E-06	-1.47653881337739E-05	5.29521702282163E-06	0.994941304610054	-0.0740101158112191
3.1	0.716206026052827	-0.688749234323258	-4.98461559407972E-06	7.81910552007816E-06	5.80648008791663E-06	-8.35495336231897E-08	0.99476700575252	-0.0760949962746945
3.2	0.623618412171217	-0.773553313178417	9.59453176426082E-07	2.12550229917573E-06	-4.56005880197292E-06	4.76843659586507E-07	0.994664892888469	-0.0779426748369443
3.3	0.52131324951125	-0.845944744196656	7.19680629639365E-07	-1.45933366653162E-06	-4.58119118378804E-06	7.30397952289948E-07	0.99458319855044	-0.0813381009547418
3.4	0.410113367363995	-0.9045119494305	6.46989091170509E-06	2.35627203266338E-07	-8.13527376785794E-06	-7.18163418950552E-06	0.994593542521419	-0.0835974167199672
3.5	0.293136881253801	-0.948191968483881	-7.69482318465981E-06	1.96095568123493E-06	-5.89976674374263E-06	-7.9781240518185E-06	0.99414323127279	-0.0864056740574188
3.6	0.17100984569954	-0.978023455898361	-8.55117296214901E-07	-4.38015446352808E-06	-7.81141283689772E-06	-6.33220918808501E-06	0.993937594389394	-0.0887303115524198
3.7	0.0458298107498143	-0.992238043949427	-6.71237504894062E-06	-6.77019349122893E-06	5.29043684237538E-07	-4.76284161430757E-06	0.993838413139026	-0.0914409429319604
3.8	-0.0802694992589601	-0.989695214710334	-3.64276691687985E-06	1.08206362734191E-06	-3.29524688372675E-06	-2.46537613784121E-06	0.993420114744873	-0.0935128620551651
3.9	-0.203864909786668	-0.971012617072044	-4.80473822827602E-07	3.50576709159195E-06	2.05276667683742E-06	-1.21796962345477E-06	0.993339764544362	-0.0965763762989554
4	-0.323624974909143	-0.937692409787753	1.16698572860229E-05	8.12419796737463E-06	7.26643901128522E-06	-4.03434695305866E-06	0.993391923827724	-0.0977311694554283
4.1	-0.438524809438717	-0.89035397962395	5.21647583803429E-06	1.32619795308108E-06	-3.46127258227719E-06	6.64945066721763E-06	0.993403947867385	-0.100213703028079
4.2	-0.546840633852762	-0.829068503275123	-7.09668177487982E-06	-1.20585974565229E-06	-8.26531228807261E-06	-4.66600249009525E-08	0.992543598582246	-0.103058372308552
4.3	-0.646882733180725	-0.753992682502754	7.04172292849673E-07	-2.3676014600742E-06	5.21257577972612E-06	8.84435833142373E-07	0.992215826937832	-0.10499325050642
4.4	-0.736765538621624	-0.666369927766454	4.47547817776871E-06	-1.77109377570182E-06	-8.69605915143468E-07	1.34634887429432E-06	0.99167767567912	-0.107217763047303
4.5	-0.814849191237758	-0.567698485230822	6.78600552462307E-06	1.8719837194831E-06	-8.02924102735713E-07	-3.25877765673154E-06	0.991668290677418	-0.10927742023119
4.6	-0.879727787086333	-0.460247070025668	2.45449849397902E-06	2.95305421928673E-06	-6.59396374945589E-06	9.74439363592889E-06	0.991125622078646	-0.112019187203891
4.7	-0.930684770976358	-0.344897278784404	-1.40564891845839E-05	5.90753473223829E-06	-3.46244899790436E-06	-3.69317134022755E-08	0.990972905688866	-0.113820988586534
4.8	-0.966742545486156	-0.224500107139404	-3.15758800359189E-06	-5.14641870392134E-06	-5.52684407122603E-06	2.3609449232195E-06	0.990661605740687	-0.116114858525751
4.9	-0.98702916078637	-0.100710763809131	-1.01395267933711E-06	-8.55619032272267E-06	-4.22343517792468E-06	7.36496305543022E-07	0.990440970253055	-0.117831391213847
5	-0.991108950304317	0.0242119245879603	7.55455773356698E-06	-1.56611785644232E-06	-1.75120563138205E-06	-2.72395721779997E-06	0.990385858889781	-0.119495268650574
5.1	-0.979953638623657	0.148764387612776	-2.59624059721321E-06	-6.39814893316767E-06	-1.00730313301938E-06	-1.95455547602214E-06	0.990372484673504	-0.120846136570861
5.2	-0.95416175610237	0.270985471514475	3.99984646770554E-06	-4.3294971393209E-07	-5.44754400643139E-06	6.30582064920291E-06	0.990307494310339	-0.122941067502828
5.3	-0.912876480031984	0.389370553514104	5.13842989302634E-06	6.01520502185755E-06	-9.58454037226569E-07	-3.58936178349875E-06	0.990381555680902	-0.125241269603097
5.4	-0.856553893699046	0.501489208156666	3.06541782483733E-06	-2.01672479471038E-06	-1.13234477586545E-05	2.19724096066566E-06	0.990554805922965	-0.128344214155119
5.5	-0.78591154578249	0.604741278365625	-4.31700012069213E-07	-2.19525962349334E-06	-5.79129889811597E-06	6.12573903248171E-06	0.990129549047645	-0.131287761679193
5.6	-0.703464625797499	0.697907666089383	2.37711084658225E-06	7.30759044599642E-06	-5.39572050413121E-07	2.92993629295248E-06	0.989994273554913	-0.133864764263344
5.7	-0.610334772826121	0.780832538708836	-2.57365270615469E-06	2.36068330180807E-06	7.91309388726651E-06	2.78364468945622E-06	0.989688840871577	-0.1364446185912
5.8	-0.507114377737544	0.850893649792584	-4.65181423691627E-06	5.1036349817979E-06	-3.67873855179415E-07	3.4231782722278E-06	0.989416940953761	-0.138716318257024
5.9	-0.39632541614754	0.907578355654455	6.35687698867515E-06	1.5028243548335E-06	-2.71301714955621E-06	2.54537320023363E-06	0.988949520012546	-0.140818730002023
6	-0.279810295997951	0.950111879128274	3.52122905008913E-06	3.30511588362369E-06	-3.26710038194113E-07	-1.43506324217369E-06	0.98934696337961	-0.142099066600657
6.1	-0.158238620054468	0.977391718290463	9.18312241935076E-06	1.5288884980973E-06	-1.26999558006913E-07	-1.81010115464135E-06	0.989583055891497	-0.14457953108694
6.2	-0.0344218181635634	0.989027144091882	2.44130403659609E-06	-1.73033637348125E-06	1.48226970122282E-06	-4.84751051150231E-06	0.988799668782108	-0.146309442754368
6.3	0.089729762849612	0.985538054356016	-4.36409934206697E-06	4.24541451272763E-06	-6.14800455819765E-07	-1.72631219759916E-06	0.988214137366392	-0.148215735235192
6.4	0.212383310699008	0.967010196136435	-4.26940001938411E-06	1.06812619165358E-06	-1.76882149756616E-06	8.85031010772881E-06	0.987936321716616	-0.150132806655628
6.5	0.333214542979941	0.933700422215097	2.45588086737257E-06	-1.33310122355997E-06	1.48975420745833E-06	-2.93438536563115E-06	0.988291992224383	-0.153381315612995
6.6	0.448061937285355	0.883483281104626	-4.73871216843822E-06	-2.25451742736945E-06	-1.86875365463098E-06	-6.64305553378324E-06	0.987220495987693	-0.156551383575368
6.7	0.554883303855279	0.820099068687841	4.16315774847929E-06	-6.61666848784916E-07	-4.67637566865194E-06	1.01198067899566E-06	0.986611550906647	-0.15861113011359
6.8	0.653091411059308	0.744028955467089	3.75628914135443E-06	-2.07999631066785E-06	6.21321864786286E-06	-9.23861121339715E-07	0.986145471583909	-0.160789407048274
6.9	0.740812451062637	0.656388547280035	2.04760678942612E-06	1.64018057476502E-06	8.77966842955963E-06	-2.756658423245E-06	0.985749066598852	-0.162822757116687
7	0.81697015120493	0.558642199541401	2.172111785839E-06	4.09611672229413E-06	-9.37840567413371E-08	5.38201560241828E-06	0.985576565955857	-0.164583732018584
7.1	0.880318840189497	0.452166085103258	-1.33075017071356E-07	1.71729946740918E-06	8.25950673207473E-06	-4.64436634213658E-06	0.98501753195964	-0.166913788217985
7.2	0.929666030781145	0.338381194720761	4.84743696451521E-06	-1.39395387126606E-06	7.25702836464417E-06	3.78077772921782E-06	0.984070358277855	-0.168836179611063
7.3	0.964091366933475	0.219177430132723	4.86054720818535E-06	-1.10971130370416E-06	-7.34262869387069E-06	-7.37845317114656E-06	0.982818207951686	-0.170748174681235
7.4	0.983100053731111	0.0959338342284316	-1.83077828437213E-06	9.89271956265308E-06	1.42922702070279E-06	-4.06841982763768E-06	0.981164978776055	-0.173256408176898
7.5	0.9859377607553	-0.0274306131431677	8.38946691149482E-07	8.04286000570452E-07	1.67025840898351E-06	9.90248325767417E-07	0.979436239410981	-0.174312621777486
7.6	0.975093689123711	-0.150858691820233	1.45217993996455E-06	-2.6099647081506E-06	-5.40988259546711E-06	-3.61984584846231E-06	0.979798260649312	-0.176779708215112
7.7	0.948161623262001	-0.272682544351075	5.56244558378508E-06	2.40290768048245E-06	-6.8106162227733E-06	1.20268998102558E-05	0.979436016414383	-0.18010740963663
7.8	0.906250398832052	-0.389730214936993	-6.13159525177531E-07	-5.23111582383604E-06	3.7250415283598E-06	-4.72757798810506E-06	0.979166986817812	-0.183199486249803
7.9	0.849912464648714	-0.499851638689935	8.82824040578674E-06	1.52685945219549E-06	-9.50855397814713E-06	-8.61703100501625E-06	0.978808393991182	-0.185863458886027
8	0.782554539032724	-0.602105725711862	-6.64350774282358E-06	-1.63773693154532E-06	-1.19928592141432E-05	2.47351535575226E-06	0.980115506251346	-0.188065815170477
8.1	0.701201147010516	-0.697442458227657	5.07369537829194E-06	7.33519166385585E-07	2.88964485053374E-06	2.26271996452707E-06	0.980442681236697	-0.192488627091397
8.2	0.607737357035881	-0.78038020524154	3.56288526708028E-06	-2.57463729170121E-06	-3.68089591369825E-06	-1.1610832156393E-05	0.979694572416106	-0.195761576868171
8.3	0.504579046630781	-0.850550375043924	2.72604619366788E-06	-1.85785074081008E-06	1.63920715779725E-06	5.28951887404469E-06	0.978699697004383	-0.198764447326868
8.4	0.393257131144614	-0.906859413785914	-5.55183957927766E-06	-1.01575147197995E-06	1.05698875975175E-06	2.94977667393525E-06	0.977685079696833	-0.201423125774399
8.5	0.275797082308929	-0.948035444802769	-3.28389499742209E-06	1.6268656271582E-06	-4.79335621172634E-06	-4.9932187952597E-06	0.977063839967439	-0.204276103548031
8.6	0.154485367529621	-0.974864140604799	-8.12761851083856E-06	1.38830888042981E-06	-4.33869404376599E-06	-6.84973148035692E-06	0.976199597520709	-0.207071697934755
8.7	0.0303044088195992	-0.986612338969189	2.24310833067238E-07	-2.14415349041466E-07	6.1107339873102E-06	5.0807979017352E-07	0.975526654358998	-0.209424727436033
8.8	-0.0946627012960192	-0.982702571112928	1.02430504974575E-06	-1.81634762759448E-06	-2.38818524927704E-06	-1.2801461940299E-06	0.975061038187207	-0.211525976204568
8.9	-0.218433337014111	-0.963629991108007	-3.03610206474226E-07	3.03468738364512E-06	-1.23264367645597E-06	-1.64251504274873E-06	0.974946834124382	-0.213503640607113
9	-0.338266357505535	-0.927019453405765	2.97832339978711E-06	1.58945308537637E-06	-1.57674650887908E-06	2.11520527728398E-06	0.974724327314018	-0.215565802903938
9.1	-0.450774372108464	-0.877076050868065	-9.31692466516739E-06	2.26188643067863E-06	-1.56587788284602E-06	2.40984314598575E-06	0.974710481350016	-0.217538686378736
9.2	-0.557175208229505	-0.813556398107949	7.50980916665741E-06	-2.30549974785521E-07	-9.11345439891073E-06	1.96586843220814E-06	0.97452149252146	-0.22016247908947
9.3	-0.654406783438788	-0.737315290621067	7.80970563647989E-08	-7.16759129537465E-06	1.58777248285795E-06	-1.30073267266883E-06	0.974234330727449	-0.222940644485749
9.4	-0.741495666636486	-0.649255788013718	6.00696598075693E-07	2.48360950528232E-06	1.61563700938046E-06	-3.5990839823927E-06	0.973186964920092	-0.226229245547512
9.5	-0.815093757021986	-0.551034649822863	-2.86695193897133E-06	6.63877831977483E-06	4.71890246135387E-06	-1.36834053959882E-06	0.971875873302952	-0.228262231659623
9.6	-0.877823681348617	-0.445619035734293	-5.01827866121514E-06	-5.20263510491752E-06	4.75610510143731E-06	2.88167246283802E-06	0.97166689664195	-0.231096529527679
9.7	-0.927431456328792	-0.33140934102603	-1.99834125517886E-06	-5.07192152496239E-06	2.09577281144902E-06	1.13249930629899E-08	0.970967001740236	-0.233786238339048
9.8	-0.962359277574943	-0.211119609875855	5.94648758915217E-07	-4.28250803706523E-06	-2.93827343937371E-06	-2.51762026568565E-06	0.970300854818243	-0.235846315904848
9.9	-0.98171406803254	-0.0868714914625581	-6.11332530947492E-06	4.20141220622427E-06	-3.0835168716E-06	1.66142546354363E-06	0.969269846163233	-0.237047095129253
10	-0.984874196046772	0.0387282673739527	3.57380821410142E-06	-3.7267016034138E-08	8.21921964247309E-06	1.11188042341389E-05	0.970335665231394	-0.237487293388471
10.1	-0.971489900022709	0.163043261049379	-2.86045025937629E-06	-2.52557549076454E-06	-2.01097178201093E-06	-2.50056120309131E-06	0.970294121041997	-0.240611957855714
10.2	-0.942968510076997	0.284664272441205	2.35770276783365E-06	-1.02237118273296E-06	-2.77009714903462E-06	-1.066458793853E-06	0.969254935354527	-0.242386975473047
10.3	-0.899482900658486	0.401708735002299	7.75957042198251E-06	-5.95335207691868E-06	3.86298574373216E-06	8.23137948089115E-06	0.968165320010099	-0.244082273258418
10.4	-0.842530915104053	0.512590815294876	1.70568578968215E-06	2.50580230989099E-07	6.27597505585491E-06	-1.18744002288994E-06	0.96701416363137	-0.24572465207234
10.5	-0.770705538859857	0.617021889914723	8.34610109914753E-06	-4.14525463746506E-06	-4.93172062478972E-07	1.97240723827262E-06	0.966383878152689	-0.248033472915444
10.6	-0.685298383566958	0.708246129811568	8.92348114055198E-06	-1.27092672977688E-06	-1.46984918916589E-06	1.36234554187551E-05	0.965338359110463	-0.250111409938615
10.7	-0.590284805627139	0.787433826259591	8.00343653025514E-06	-1.8970108760529E-06	-3.04659540715867E-06	-5.27321687022021E-06	0.965150392494366	-0.252304986224907
10.8	-0.486146406477614	0.854491904608875	2.44342641759208E-06	5.24096278601958E-06	-3.62189894212039E-06	-2.07255307732364E-07	0.965019130765652	-0.254656998083601
10.9	-0.374173575314508	0.909058637280844	-5.55177342022577E-06	4.81499922341865E-07	1.59270915817294E-06	4.02415454636024E-06	0.964525540512006	-0.256903555278923
11	-0.254904318606235	0.948244108137456	5.48105172885762E-09	-5.21436189716075E-06	-8.36907780151558E-06	2.22475889086628E-06	0.964064304648939	-0.258338105784563
11.1	-0.133843160332862	0.971285424337646	6.30049862463406E-06	4.08706224770197E-06	-1.90619522373025E-06	1.07458714442549E-05	0.96396714956884	-0.260205083332983
11.2	-0.011520120092178	0.980086530823817	1.57644239783153E-06	1.35397200273519E-06	5.12890179266968E-06	8.89394146243148E-06	0.963376259137743	-0.262405534900255
11.3	0.110987698828081	0.973508221987249	-4.61257044337812E-07	-1.73537564094349E-06	-6.96652483218058E-07	-4.39031748149184E-06	0.962836061028439	-0.264858313853443
11.4	0.23176290014401	0.952418698681335	2.2452062529645E-07	1.1842649514236E-05	2.41953042800753E-06	4.9217153717755E-06	0.961228116342325	-0.268219989272825
11.5	0.349944875778559	0.916679898053585	6.17963715972801E-06	-3.22403946611718E-07	3.1638505626403E-07	-1.87733354034817E-06	0.959410328259481	-0.269890453088336
11.6	0.461528678469573	0.865941454552862	-5.99398715185428E-06	3.06033856514243E-06	-4.86053083336803E-06	1.90694744805203E-06	0.959039907852709	-0.273381231474678
11.7	0.565576396607754	0.802640339316001	3.32200371790425E-06	-1.78926578278186E-06	-1.70542204387153E-06	2.23106526801517E-06	0.95759134046019	-0.277517319176414
11.8	0.661352157126091	0.726715201689273	-8.26923814680912E-07	9.77400110021558E-06	-2.71925430197524E-06	1.05154797316702E-05	0.955567919290247	-0.281135703140178
11.9	0.746866243211363	0.639410976748957	-7.27790549088672E-06	-1.04217716835542E-06	-3.91324044437183E-06	1.12188833206794E-05	0.953829009613701	-0.282366141509998
12	0.823412645920468	0.542316981462486	-6.46724710795009E-07	1.37975009808343E-06	-3.13068694590495E-06	-1.92967415328657E-06	0.954840225824507	-0.282696478084778
12.1	0.886941171161836	0.432217187156642	-3.87886942543034E-06	4.98670092127783E-06	-1.33985567621003E-06	8.41419098690645E-06	0.95493973049228	-0.285861488790687
12.2	0.933367515279608	0.315664478531154	-5.77639466165722E-07	-3.79605700925517E-06	-3.11263823035628E-06	-7.29648068726822E-07	0.954129279787123	-0.288651467006755
12.3	0.964372469308129	0.196072796516307	3.59520587034853E-06	3.42898859421316E-06	-3.43129403014134E-06	6.26313338633435E-06	0.95301464465387	-0.291379821980602
