# GHZ S RI R 50
0.2	-0.965439405479997	0.251908196806361	8.82078135380662E-06	5.31632067351199E-06	1.13547613751197E-06	-2.88878934376428E-06	0.99931614920084	-0.00694865528649347
0.3	-0.925699440411088	0.371692225264506	-7.65816137260223E-06	-8.16378674813848E-07	-1.34607568113886E-08	3.65741965340834E-06	0.999159366059619	-0.00987937612436208
0.4	-0.870692152946146	0.48521950322823	-2.19469344583106E-06	6.33474013176241E-06	2.91882768469979E-06	5.73073755510671E-06	0.99892113164059	-0.0125455338318131
0.5	-0.80236953355667	0.590817913146662	-2.64621834684665E-06	5.4832930603929E-07	1.05091905210554E-05	4.87987161293547E-06	0.998563288844015	-0.0153048822079563
0.6	-0.721228110797148	0.687131095599675	-1.72372756087062E-06	-1.83483081505595E-08	4.16005942637544E-06	-1.03266195613001E-05	0.998898150394174	-0.0181883243373216
0.7	-0.628658334318659	0.772357231236304	-2.04491147277279E-06	9.87326130525753E-07	3.77962227390024E-06	1.11488069734632E-05	0.998484636649858	-0.0212542665963946
0.8	-0.526139160643881	0.845255221213836	-5.59923879725052E-06	3.77745107193258E-06	-3.16420579353015E-06	-2.13674905681124E-06	0.998187662788056	-0.0234282598932953
0.9	-0.415577836951706	0.90447053436273	-6.68295216784441E-07	5.24391278054179E-06	3.26249785344872E-06	-2.94132959317321E-07	0.998077243592187	-0.0259052007556465
1	-0.298070113009003	0.949353033952321	1.56633199042083E-05	-3.68105131499444E-06	-9.58481204435916E-06	5.2592379500824E-07	0.997458111768188	-0.027559551663405
1.1	-0.177004993175248	0.978946268851917	1.34170117530363E-06	-2.97705055397176E-06	9.37599464139223E-06	1.2583366846144E-05	0.997289320932008	-0.0291494806976297
1.2	-0.0523661938183278	0.993324723243966	-7.8952351749212E-06	-3.26237936320659E-06	-3.08947988035118E-06	-4.47580906142835E-06	0.996950779413339	-0.0299561809144457
1.3	0.0731894749826858	0.992028946620462	1.73584802567884E-07	3.33125027474124E-06	1.9267927127489E-06	3.43538601058712E-07	0.997576419906915	-0.0306244758092378
1.4	0.197487140737021	0.97472899613004	1.63972611466143E-08	3.76504088078865E-06	-2.51692413559697E-06	-5.61532228724746E-06	0.997772425222728	-0.0327979117621109
1.5	0.318548693376854	0.942003552936586	3.18460760014422E-06	-2.61541424542062E-07	2.69670330331121E-06	2.09689129927485E-06	0.997916485817487	-0.0363962032610167
1.6	0.434461543417361	0.894522145169049	1.78884563533069E-06	-1.93496858493519E-06	-8.88421742779928E-07	-3.06198569270384E-06	0.997202767342077	-0.0398088185225077
1.7	0.543208920008333	0.832433596385898	-8.09964563675002E-08	-3.52137874653616E-06	1.99701637492706E-06	4.92401178900292E-06	0.997239542511122	-0.0424222266843474
1.8	0.643083048055348	0.757688963007936	-2.05322380278044E-06	-1.81436345334213E-06	-4.65497323502362E-06	1.82931329743101E-05	0.996823937867881	-0.0452170750258018
1.9	0.732680099701307	0.671031418603274	-4.38340136220989E-06	-1.46879544223227E-06	-4.91482058639773E-06	-5.99993069551973E-06	0.996255675937725	-0.0476656974795781
2	0.810168956745845	0.573964267227592	-9.39595661121083E-08	-6.72791461985939E-07	-1.66342495123669E-06	-1.41633946390298E-06	0.994859446408871	-0.0499084786142189
2.1	0.876048900310986	0.467611878782122	-1.15275222573519E-06	9.42671456455081E-06	1.99088443714576E-06	-3.76500290380762E-07	0.995011839374743	-0.0513908346563353
2.2	0.927754081464323	0.353933612893696	-1.39430402315263E-08	-5.91783978721327E-06	-7.3941827435932E-07	2.73084478234462E-06	0.995241626767795	-0.0537442422111211
2.3	0.964525779888904	0.234575495528649	-1.31695301467592E-06	2.75816917882598E-06	-2.88501396672002E-07	1.19483307199201E-05	0.995021844838557	-0.0555482193141007
2.4	0.985965985615792	0.110822253051435	-5.85432819350064E-06	-3.71068944222763E-06	-1.75830943369381E-05	1.44652243288241E-05	0.994961077472547	-0.0586195181195863
2.5	0.99208450773417	-0.0135009172540593	1.82151564287878E-06	-2.95455722570988E-06	-1.80217608772422E-06	7.53206443455882E-06	0.99440574520681	-0.0607024758542553
2.6	0.982652869747287	-0.13673604821399	2.85563963669601E-06	9.226264230409E-07	-1.75629338187238E-06	4.49174748877304E-06	0.994344229652911	-0.0632313424884951
2.7	0.957795807778842	-0.258391200055178	3.79621456820335E-06	1.0434258288382E-05	2.31124740727482E-06	3.86596189190521E-06	0.994117053770605	-0.0659168991103366
2.8	0.918019286236629	-0.376311645075949	-8.07414323860674E-07	-2.29072299059781E-06	2.22963382086436E-07	-1.88436671505413E-06	0.994514853481729	-0.067786443801108
2.9	0.86399922905448	-0.487998301768843	3.77907244119582E-06	-8.2960366303215E-06	-1.24122537633365E-06	-1.42057602832959E-05	0.994460543175603	-0.0698342511075373
3	0.796345126195384	-0.592483620001632	-2.7593521595439E-08	6.63996484120964E-06	-1.47617051636889E-05	5.26208507258209E-06	0.994502941317321	-0.0723345314205251
3.1	0.717229403094758	-0.686778075985327	-4.99640528685952E-06	7.80196651448575E-06	5.80157146987297E-06	-7.14821499266529E-08	0.994433005021478	-0.074296267023676
3.2	0.625092435857136	-0.771795022592906	9.54015451811574E-07	2.12616159509154E-06	-4.55792802665168E-06	4.66287291906729E-07	0.994452210842056	-0.0760858038962808
3.3	0.523228437877423	-0.844542159361688	7.22860923053175E-07	-1.45690152828512E-06	-4.58077333311953E-06	7.18990910594575E-07	0.994539561877524	-0.0794155344363277
3.4	0.412385610254304	-0.903869394567968	6.46926378496658E-06	2.52207497569488E-07	-8.11683931519459E-06	-7.20245758496702E-06	0.994856357671295	-0.0817094110365714
3.5	0.294606147245683	-0.948256110378095	-7.70238150464541E-06	1.94703449585916E-06	-5.88722544473733E-06	-7.99343824769432E-06	0.994419894160435	-0.0849408758856327
3.6	0.172520862101616	-0.977520842441381	-8.47276523073242E-07	-4.38174921349467E-06	-7.8001703454863E-06	-6.34630279095113E-06	0.993988446793623	-0.087063733687485
3.7	0.0477605472378003	-0.992099587368209	-6.69924744898929E-06	-6.78462946377519E-06	5.38834585699424E-07	-4.76226422671241E-06	0.994075791390754	-0.0896222828755672
3.8	-0.0783144025857008	-0.990149574302336	-3.6464015430761E-06	1.07487593913129E-06	-3.29135184750371E-06	-2.47318098824566E-06	0.993879037902596	-0.0917135221090867
3.9	-0.202275337150705	-0.972009084199907	-4.87291571668757E-07	3.5068310637984E-06	2.05619044124467E-06	-1.21481643833347E-06	0.993869840050537	-0.0950794171434936
4	-0.322521321561817	-0.938694222947052	1.1656698348852E-05	8.14932714692987E-06	7.276241778069E-06	-4.02097508853069E-06	0.993119563784636	-0.0960103324191998
4.1	-0.437523376480038	-0.89145859481267	5.21740367069774E-06	1.33938209951606E-06	-3.47944300048605E-06	6.64650485167651E-06	0.993735188992007	-0.0974729551183439
4.2	-0.546088526788367	-0.83027488856775	-7.1023709968073E-06	-1.22205001288548E-06	-8.27476928150639E-06	-6.39468738996676E-08	0.993646242456736	-0.10036303914992
4.3	-0.646329970479568	-0.755221520372251	7.09387823093156E-07	-2.36936317967904E-06	5.21766669719961E-06	8.95062449137285E-07	0.993775890023848	-0.102561678206732
4.4	-0.736302523948774	-0.667644142358118	4.4839948989446E-06	-1.76592437441281E-06	-8.72914170814893E-07	1.34659731813425E-06	0.993444542481615	-0.105104224081122
4.5	-0.814547394448219	-0.569288111638462	6.79151717700911E-06	1.88671053621675E-06	-7.98083331207326E-07	-3.26450232215168E-06	0.993576916993411	-0.107156269425171
4.6	-0.879911365921687	-0.461875089404076	2.45367671072921E-06	2.96188971548417E-06	-6.62066541566385E-06	9.74952003830865E-06	0.993499701161846	-0.110207323917982
4.7	-0.931151599251639	-0.346430423002911	-1.40885056958521E-05	5.89703614983275E-06	-3.46817438757008E-06	-4.200809970796E-08	0.993426933682538	-0.112397451352018
4.8	-0.967413481781202	-0.226023968962089	-3.15567017470713E-06	-5.15941504244094E-06	-5.53936274099739E-06	2.35716662521866E-06	0.993112024159909	-0.114936207512249
4.9	-0.988006890655184	-0.102530895311627	-1.00260606767783E-06	-8.57265179866926E-06	-4.23192244406093E-06	7.31306665362606E-07	0.992910379970722	-0.116831449332922
5	-0.993449057752056	0.0226242274164005	7.57435142037354E-06	-1.55868958938103E-06	-1.75127598694085E-06	-2.73283077025831E-06	0.992864171125676	-0.118653281013099
5.1	-0.982225991086513	0.148434125432337	-2.59626546924052E-06	-6.41521125643043E-06	-1.00780144558739E-06	-1.95996609452684E-06	0.992905886684867	-0.120155460677045
5.2	-0.956210662980207	0.270906079673697	4.00896528085827E-06	-4.30543701585046E-07	-5.46475610756815E-06	6.31505669567232E-06	0.992855907217317	-0.122447309067277
5.3	-0.915000984991771	0.389529186694338	5.14512204244818E-06	6.03284647790472E-06	-9.57715564030198E-07	-3.5981915503253E-06	0.992942212872008	-0.124881655725444
5.4	-0.858794429766714	0.502025605788832	3.07440658206E-06	-2.01942104230417E-06	-1.13528040937796E-05	2.1943303086187E-06	0.993302987666634	-0.128160623184188
5.5	-0.788108180020995	0.605821442381957	-4.32044966785474E-07	-2.20107371440771E-06	-5.80838315608206E-06	6.13951328709026E-06	0.992786878101424	-0.131643484939857
5.6	-0.705436522166862	0.69933445999811	2.3808049489276E-06	7.32627753917916E-06	-5.41764690851052E-07	2.93698828608209E-06	0.992447182997171	-0.134163910805147
5.7	-0.612190497982205	0.782580110770137	-2.58107156700531E-06	2.36619626363194E-06	7.93316659542913E-06	2.7931301167606E-06	0.992280168979928	-0.136855496338743
5.8	-0.508806988256703	0.853119219924927	-4.66574280239934E-06	5.11810489725271E-06	-3.69214386818458E-07	3.43310160112331E-06	0.992116213205569	-0.139408416058353
5.9	-0.397486807207358	0.910355723193798	6.37735167400853E-06	1.50424506529641E-06	-2.72013184960261E-06	2.55464716392836E-06	0.991510850449122	-0.142119789333286
6	-0.280467131213814	0.952685408004984	3.5319906152348E-06	3.30979187220797E-06	-3.28632768008089E-07	-1.43807820480573E-06	0.990698627086742	-0.143166134477263
6.1	-0.15884559798111	0.98065735769764	9.20729408686228E-06	1.53061820225331E-06	-1.27768799296154E-07	-1.81476152505878E-06	0.991691832990308	-0.144626396636284
6.2	-0.0338642362806135	0.992753827348797	2.44743371919676E-06	-1.73717383878116E-06	1.48341071320837E-06	-4.86302448880116E-06	0.991649608516165	-0.146807191376624
6.3	0.0915626925702179	0.988798407668747	-4.3711371768462E-06	4.26301075113591E-06	-6.18733599681339E-07	-1.73044343971328E-06	0.991156180251195	-0.149439685863907
6.4	0.214802619771101	0.968930603820597	-4.2768303530295E-06	1.07690727037751E-06	-1.7590710066759E-06	8.87179033307592E-06	0.990273965249455	-0.151865279405866
6.5	0.334556828902682	0.935224732974891	2.45970190724036E-06	-1.33709294947155E-06	1.49079004067499E-06	-2.9408100353777E-06	0.990196133061712	-0.154367644171302
6.6	0.450176529922297	0.885498182387892	-4.7530696456265E-06	-2.25605865938734E-06	-1.87965300261398E-06	-6.65860510283772E-06	0.98978431419391	-0.157779112454859
6.7	0.557515187255253	0.821458306162068	4.17254752826467E-06	-6.68917820524533E-07	-4.68656040433725E-06	1.02078929116074E-06	0.988998635789477	-0.160288206188903
6.8	0.655900621012628	0.744777937703535	3.76166983806183E-06	-2.09076012035139E-06	6.22611021499654E-06	-9.35850216485189E-07	0.9883150892157	-0.162688663138557
6.9	0.743706235880476	0.656443489597723	2.05522574962143E-06	1.63983657549989E-06	8.79356151251551E-06	-2.77951937261546E-06	0.987644669578375	-0.16505695129361
7	0.819449143505751	0.558012305939945	2.1847910456856E-06	4.09747474148457E-06	-8.16638625607111E-08	5.3905174132872E-06	0.98670845349805	-0.166731769495256
7.1	0.882553138694838	0.451396155311078	-1.30009936262144E-07	1.71958937827697E-06	8.26060204985054E-06	-4.66538597239492E-06	0.986280534482121	-0.168622827334052
7.2	0.931791979258535	0.337285521145905	4.85085684000036E-06	-1.40413913513549E-06	7.2724359561341E-06	3.77262754845967E-06	0.985469562044253	-0.17065715047327
7.3	0.966107019127415	0.217790547994058	4.86502097573765E-06	-1.11923305868391E-06	-7.36443802753264E-06	-7.37583964599355E-06	0.984331526955331	-0.172716596577477
7.4	0.985370258223917	0.0940208083839774	-1.81768955963924E-06	9.9150069630692E-06	1.42515733406587E-06	-4.07872342177684E-06	0.983109949929908	-0.175778979307263
7.5	0.987407282772722	-0.031058947448426	8.43592632417467E-07	8.03330921765696E-07	1.67745524071524E-06	9.86931185483019E-07	0.980493681398214	-0.178392227003907
7.6	0.974951454189284	-0.154096383998962	1.44380239479092E-06	-2.61767731614601E-06	-5.42812937651634E-06	-3.60302543205514E-06	0.979626405775392	-0.180202315186835
7.7	0.947564737985306	-0.275540330587942	5.57367101630629E-06	2.38508649276939E-06	-6.77294699275461E-06	1.20567184822282E-05	0.979208519178869	-0.183173489424908
7.8	0.905314490366505	-0.392514019335498	-6.31060447672683E-07	-5.23128546396632E-06	3.71069375201654E-06	-4.74216018144874E-06	0.978963951178821	-0.186282662406614
7.9	0.848227970578863	-0.502936324589601	8.83602189715233E-06	1.49412282583567E-06	-9.54307150628263E-06	-8.58339711797483E-06	0.978284647551698	-0.189445985689946
8	0.779048538904769	-0.603688616420697	-6.63920906245245E-06	-1.61181914153937E-06	-1.19659458604179E-05	2.51206706237323E-06	0.977753230548901	-0.190987033107668
8.1	0.698851644522478	-0.697725898868712	5.06882961287157E-06	7.23040510010885E-07	2.89035542476403E-06	2.25447928851049E-06	0.978762787701829	-0.193870889133981
8.2	0.605812537323985	-0.780688897062906	3.5565123285598E-06	-2.57887125231065E-06	-3.69757082909494E-06	-1.15977393887872E-05	0.978624183009152	-0.196999552994694
8.3	0.502704488357408	-0.850815510828609	2.72189941557431E-06	-1.86170475090515E-06	1.64743385742991E-06	5.28476180061366E-06	0.977902305495409	-0.200068086299561
8.4	0.391345489279654	-0.907148655675346	-5.55191410179136E-06	-1.0066358485591E-06	1.06138866149595E-06	2.94727579234593E-06	0.976912026569372	-0.202871741709998
8.5	0.273319546820482	-0.94816571149878	-3.28162493733949E-06	1.6332020067474E-06	-4.80348368037215E-06	-4.9855354191046E-06	0.976264390381888	-0.205571601905706
8.6	0.151941423172317	-0.974232458835174	-8.12320966917743E-06	1.40770670719683E-06	-4.35462703431131E-06	-6.83838243578316E-06	0.975599765658477	-0.208578535301914
8.7	0.0279623889393353	-0.985440054446796	2.23645266127277E-07	-2.14833642315167E-07	6.10819939910624E-06	4.92754205578296E-07	0.974717753572816	-0.211164246819129
8.8	-0.0965988786163889	-0.981017564089676	1.0189843448625E-06	-1.8167857872363E-06	-2.38860636885878E-06	-1.27322170708657E-06	0.97395483443487	-0.213309380376883
8.9	-0.219538267201139	-0.96191578749394	-2.97601798367176E-07	3.03078257374404E-06	-1.23384202840714E-06	-1.63784116193363E-06	0.973580894895799	-0.215233668892849
9	-0.339760809152004	-0.926118110891919	2.9777082958447E-06	1.5837075264119E-06	-1.57223509399567E-06	2.11540254821402E-06	0.973088394714333	-0.217279375259822
9.1	-0.452610966434309	-0.875181807519698	-9.30275825095349E-06	2.27686517111067E-06	-1.55970792906752E-06	2.41019431088307E-06	0.972762272190958	-0.219076152067872
9.2	-0.558489567539165	-0.811154020005467	7.49914960637672E-06	-2.44128043075337E-07	-9.09739954240029E-06	1.98004845429639E-06	0.972421757812305	-0.221487728145847
9.3	-0.655226263607242	-0.734734635583582	6.53931893940181E-08	-7.15729917442489E-06	1.58317737100281E-06	-1.30162902507271E-06	0.972175240214431	-0.224082246547617
9.4	-0.742224145544011	-0.646842036985129	6.04366201646884E-07	2.47961235633638E-06	1.60737853349613E-06	-3.59767615679536E-06	0.971419938390974	-0.227489730058947
9.5	-0.815991870681246	-0.547342092723193	-2.84473349490376E-06	6.63773555385304E-06	4.70874806148833E-06	-1.37953350782249E-06	0.969715208416773	-0.23015818860917
9.6	-0.876881661232604	-0.441602818498348	-5.01981749570548E-06	-5.17766496996218E-06	4.75233527861498E-06	2.86279882851651E-06	0.969067661984095	-0.232624547130428
9.7	-0.925616608372177	-0.327996777284914	-2.0044414908312E-06	-5.05475748430626E-06	2.0905180485656E-06	6.69560347599967E-09	0.968366962151296	-0.235191789376583
9.8	-0.959951353059823	-0.208211396125182	5.84120685153387E-07	-4.27258265386272E-06	-2.93588563332979E-06	-2.50489342419045E-06	0.967660800032345	-0.237357442371138
9.9	-0.978752487976517	-0.0845965732596315	-6.08615411403836E-06	4.20282094474278E-06	-3.07083320698892E-06	1.66346858290887E-06	0.966173818944948	-0.239052512804562
10	-0.981718218591452	0.0403723655193508	3.56001012948474E-06	-4.35844286201695E-08	8.20774121909164E-06	1.10612269508712E-05	0.965537283325256	-0.238609623973146
10.1	-0.967977086415512	0.164149482019064	-2.8520675686395E-06	-2.51348575534219E-06	-2.00574629662129E-06	-2.48934751751009E-06	0.966258599294128	-0.240211910354006
10.2	-0.939204562865888	0.284980116464091	2.34864226459861E-06	-1.02013980792833E-06	-2.76082612661417E-06	-1.06096193702058E-06	0.965843840684446	-0.241842629945334
10.3	-0.89561529039163	0.401131252314941	7.72958924605047E-06	-5.9351359928491E-06	3.85240683464205E-06	8.2005275236432E-06	0.96498489896609	-0.243559824723952
10.4	-0.838690228746621	0.510673940218052	1.699186247762E-06	2.49564043035037E-07	6.25198608936649E-06	-1.18313008110613E-06	0.963685746927551	-0.245167358043273
10.5	-0.768697478926401	0.613719337332443	8.32147899212213E-06	-4.12238517514856E-06	-4.93483699573756E-07	1.96508223509245E-06	0.963078517564526	-0.246758111184981
10.6	-0.684496415866424	0.705833606206342	8.90093938315682E-06	-1.2603797766725E-06	-1.4769453332249E-06	1.35862930457328E-05	0.962475712344741	-0.248837673027096
10.7	-0.589698500059418	0.785367946331948	7.98326407557324E-06	-1.88717015797908E-06	-3.03532820255316E-06	-5.26100123621242E-06	0.962215437939795	-0.250916145980358
10.8	-0.485747516185	0.852385881477191	2.43284388752223E-06	5.22809834863258E-06	-3.61164625036584E-06	-2.09279923008174E-07	0.962165406166978	-0.252979366909642
10.9	-0.374436645532819	0.906736240858988	-5.53725211152856E-06	4.74364855782411E-07	1.58417102543733E-06	4.01493532741485E-06	0.961819802524086	-0.255065354922464
11	-0.25591979910205	0.946873212099072	9.91190573627079E-09	-5.20204057951682E-06	-8.35120551153831E-06	2.21237154932881E-06	0.961278392071955	-0.256382660367724
11.1	-0.134386136208752	0.970081260367882	6.27962405780171E-06	4.08091175075178E-06	-1.909772428047E-06	1.07144499460345E-05	0.961293733359106	-0.257976008228388
11.2	-0.0122807902203059	0.978753152024601	1.57031293281462E-06	1.35192414040739E-06	5.10368887778485E-06	8.8743525407185E-06	0.960840212953371	-0.2600015719565
11.3	0.109881071947867	0.972231102393633	-4.57344204835348E-07	-1.7313061093952E-06	-6.88046709058206E-07	-4.37930538727014E-06	0.960571320632479	-0.262340120769566
11.4	0.23041292496805	0.951274298163331	2.0203835243592E-07	1.18159455702542E-05	2.40485976924612E-06	4.91493255396134E-06	0.95951655944416	-0.265877767438664
11.5	0.348240576999811	0.915696233163003	6.16858406441433E-06	-3.13930992550748E-07	3.18190455788878E-07	-1.87344769236782E-06	0.957126209308171	-0.268261715482613
11.6	0.459567754022752	0.865345049171081	-5.9835221588487E-06	3.04542120153365E-06	-4.85131661933097E-06	1.89622605655836E-06	0.956380651306977	-0.27092302657644
11.7	0.563505575076651	0.80231981093317	3.31679580703373E-06	-1.77933934076274E-06	-1.70492939033841E-06	2.22273701907535E-06	0.955326732769813	-0.274652884706943
11.8	0.659213154778341	0.7265417913419	-8.43693474955551E-07	9.74968748352787E-06	-2.73304091667515E-06	1.04858224981076E-05	0.953714902501539	-0.278279554471731
11.9	0.744333781094856	0.638753826353063	-7.25779251959613E-06	-1.05201559941507E-06	-3.92259723598641E-06	1.11839290620516E-05	0.95174086149259	-0.280015614339428
12	0.81844171553105	0.542000856968658	-6.47489194095369E-07	1.37257974145558E-06	-3.11328409883343E-06	-1.92953772075952E-06	0.95120305630807	-0.279237208196666
12.1	0.881553252187887	0.434867707267816	-3.88705701374109E-06	4.9517202386001E-06	-1.37227777199738E-06	8.37818657062589E-06	0.952409635734305	-0.280622354296752
12.2	0.928980730010472	0.320247490329019	-5.56033671370801E-07	-3.78891449947285E-06	-3.10042461946054E-06	-7.44132688051998E-07	0.952724983014171	-0.282877587514723
12.3	0.961508875866287	0.201948988441183	3.56844103310554E-06	3.44376736191888E-06	-3.46173112383033E-06	6.23143183709207E-06	0.952752425835842	-0.285357580764818
