# GHZ S RI R 50
0.2	-0.96584971535957	0.251644050344132	8.82213066769058E-06	5.31884296132432E-06	1.13615766592032E-06	-2.8893173139428E-06	0.99946868251334	-0.00703367291052804
0.3	-0.926318880214828	0.37143688552154	-7.66057952267371E-06	-8.18059723344768E-07	-1.41373639099995E-08	3.65864369773563E-06	0.999352649658411	-0.00999989525710897
0.4	-0.871549969508128	0.485094260739404	-2.19721880732388E-06	6.33743149446736E-06	2.91900819055488E-06	5.73427336443395E-06	0.999239187975071	-0.012657956339618
0.5	-0.803293518517674	0.5910281986395	-2.6481680673948E-06	5.48603151311E-07	1.05166007904892E-05	4.88391502891949E-06	0.999122717945542	-0.0156543154927812
0.6	-0.722081818980993	0.68740511827769	-1.72485257038223E-06	-1.82686088289091E-08	4.16222303180483E-06	-1.03335747193675E-05	0.99933744145918	-0.0187338790829231
0.7	-0.629605410761882	0.772783698039019	-2.04631527416437E-06	9.88131627968927E-07	3.78287400987014E-06	1.11565416644235E-05	0.998908757912256	-0.0218573236138862
0.8	-0.527089095613141	0.845921511887514	-5.60308261450481E-06	3.78094789014515E-06	-3.16685172325152E-06	-2.13802485346092E-06	0.998564829094161	-0.0241140273213167
0.9	-0.416429937181351	0.905370927427996	-6.67927703838613E-07	5.24779169679099E-06	3.26479630815275E-06	-2.9487209707712E-07	0.998300510540789	-0.0265826875382593
1	-0.298740229055998	0.950447949674801	1.56742058005855E-05	-3.68491447750087E-06	-9.59160973048959E-06	5.27055752341275E-07	0.997674611331169	-0.0280455413328302
1.1	-0.177380987648467	0.980143510512316	1.34204204487309E-06	-2.97961910731341E-06	9.3859899009772E-06	1.2590792446678E-05	0.997472544476247	-0.0297200790856591
1.2	-0.0523792589401988	0.994449978973506	-7.90165354769142E-06	-3.26052463970969E-06	-3.09355132500404E-06	-4.47703951024245E-06	0.996899103019205	-0.0306182549301455
1.3	0.0734951482822645	0.992907561323	1.76407480609011E-07	3.33238793444814E-06	1.92781800185744E-06	3.42076714228832E-07	0.99721086249025	-0.0314269549715053
1.4	0.197936187498122	0.975421504701675	2.03672569631978E-08	3.76599222563003E-06	-2.52348636236326E-06	-5.61411580155635E-06	0.997257383576021	-0.0336130823821075
1.5	0.319154572675569	0.942681456129388	3.18590332602302E-06	-2.65068817040823E-07	2.70027426852747E-06	2.09505076498218E-06	0.997900823508719	-0.03714835249752
1.6	0.435097504847728	0.89514116928482	1.78789667587553E-06	-1.9382755518837E-06	-8.92441409210107E-07	-3.06306697465907E-06	0.997586127213911	-0.0407568184139494
1.7	0.543906633231937	0.833077825445001	-8.46980886158483E-08	-3.5240845797404E-06	2.00368467853056E-06	4.92584954736875E-06	0.997904278443724	-0.0434062892522772
1.8	0.643845340766415	0.758286810277821	-2.05662014966706E-06	-1.81403357437582E-06	-4.64226070512523E-06	1.83129068803993E-05	0.997706612872239	-0.0461692537310422
1.9	0.733458006544951	0.671652545455608	-4.38838110198323E-06	-1.46730130425464E-06	-4.92322785421683E-06	-6.00225448834936E-06	0.997415354919307	-0.0484478837382503
2	0.811387301881153	0.574555821538558	-9.44761126834266E-08	-6.73732363894975E-07	-1.66667698185896E-06	-1.417497266049E-06	0.996751662712572	-0.0509059313099085
2.1	0.877201663968788	0.467543018082776	-1.14436492702049E-06	9.44143680562129E-06	1.99333358849744E-06	-3.79159152626918E-07	0.996766444840616	-0.053038763181596
2.2	0.92858770049902	0.35371862936169	-2.04966344481955E-08	-5.92512041602583E-06	-7.37313606432646E-07	2.73502831229164E-06	0.996807748061144	-0.0555177631790448
2.3	0.965221210280993	0.23432658298506	-1.31538698053293E-06	2.76287952065936E-06	-2.75380314077622E-07	1.19626346560382E-05	0.99648307423873	-0.0574174777173899
2.4	0.986641856517636	0.110456656533431	-5.86535763826076E-06	-3.70763705101155E-06	-1.75848777733404E-05	1.45027746072446E-05	0.996334913429429	-0.0605026172892065
2.5	0.992614254995855	-0.0142136215889826	1.819657830472E-06	-2.9594086198583E-06	-1.79485742211326E-06	7.5410532787665E-06	0.995947240180842	-0.0625877808665701
2.6	0.982788959654729	-0.137560232750483	2.85963348898755E-06	9.20653111528184E-07	-1.75351413507166E-06	4.49834526925118E-06	0.995985469103251	-0.0653923029946262
2.7	0.957665462470366	-0.259235498993387	3.81250743002546E-06	1.04424995427181E-05	2.31836896074498E-06	3.86799734904234E-06	0.995690835225047	-0.0682919119610992
2.8	0.917639479865655	-0.377124145492545	-8.11116103398894E-07	-2.29253464892345E-06	2.20991822669397E-07	-1.88691222371747E-06	0.995926203748324	-0.0702704453419789
2.9	0.863457827639458	-0.488782601786145	3.77348648009643E-06	-8.31040570112516E-06	-1.2598940514279E-06	-1.42210253872569E-05	0.995645156914248	-0.072286999097012
3	0.795538651564132	-0.593404630376565	-1.93237190222762E-08	6.64751755888149E-06	-1.47718409034532E-05	5.28649771839052E-06	0.995557394244237	-0.0746549664563772
3.1	0.715868258724786	-0.68755919711337	-4.99078549314635E-06	7.81692486166685E-06	5.80746293083947E-06	-7.95710101062552E-08	0.995376047582692	-0.076658165216868
3.2	0.623342399205447	-0.772147193478399	9.57956230739841E-07	2.12639285506879E-06	-4.560795592703E-06	4.73499310967795E-07	0.995157615033747	-0.0784695488279119
3.3	0.521246465027924	-0.844376920650144	7.20879415044049E-07	-1.45874355014204E-06	-4.58179367357513E-06	7.26636451522135E-07	0.994945597547763	-0.0817654243633742
3.4	0.410383093322838	-0.903038617327751	6.46979707105033E-06	2.42096026304327E-07	-8.12827703976827E-06	-7.18991877069688E-06	0.994957428966529	-0.0838178892339499
3.5	0.293090736536904	-0.947093261137976	-7.69948044177486E-06	1.95484694174834E-06	-5.89489607465444E-06	-7.98639521612241E-06	0.994804978686784	-0.0866708509176352
3.6	0.170868563004426	-0.976276423969355	-8.52736436953253E-07	-4.38176896851007E-06	-7.80963342065241E-06	-6.33844176469758E-06	0.99457479404846	-0.0892610946143222
3.7	0.0462543393938156	-0.99038943734097	-6.70982933771407E-06	-6.77558897449414E-06	5.319577723839E-07	-4.76354921405535E-06	0.994337874651046	-0.0920820915430912
3.8	-0.0794324427426106	-0.988259402596927	-3.64456864143284E-06	1.08038915992125E-06	-3.29495690204393E-06	-2.46802410677707E-06	0.993769928518113	-0.0941611654641507
3.9	-0.203126487173095	-0.97038487162875	-4.81841870446516E-07	3.50745531905114E-06	2.0542323576841E-06	-1.21795597408046E-06	0.993512032848568	-0.0972412274265088
4	-0.324000440007202	-0.937377119285295	1.1673289143285E-05	8.12562200863707E-06	7.26806939735454E-06	-4.03578168979653E-06	0.992960520173589	-0.0981357730979605
4.1	-0.439418538159984	-0.889208390618067	5.21700191187749E-06	1.32689596112331E-06	-3.46238665342694E-06	6.64994134041068E-06	0.993194730246706	-0.0997497925235872
4.2	-0.547545512892899	-0.827320695072666	-7.0977992200026E-06	-1.20626687139011E-06	-8.26665414508995E-06	-4.69135335224128E-08	0.9928326175962	-0.102473990171833
4.3	-0.647170870458032	-0.75195479159476	7.04069390165091E-07	-2.36783721661226E-06	5.21305012014798E-06	8.84156270089722E-07	0.992777331459873	-0.10451272379784
4.4	-0.736528263276836	-0.66444211317774	4.47525800172139E-06	-1.77107993805999E-06	-8.69548943303133E-07	1.34630249609689E-06	0.992370130882831	-0.106866094179605
4.5	-0.81455752865088	-0.566374340904779	6.78611607355568E-06	1.8740989089078E-06	-8.02070098646528E-07	-3.25931660009607E-06	0.992551427349012	-0.108837527101246
4.6	-0.879900167951374	-0.458861563808956	2.45546231283385E-06	2.95505379758873E-06	-6.59902484154258E-06	9.74893727805218E-06	0.992560486437551	-0.111859442221094
4.7	-0.930830750351517	-0.343182522356676	-1.40650013309506E-05	5.91402679568433E-06	-3.4648086901652E-06	-3.6346637982568E-08	0.9925679313486	-0.114172602258825
4.8	-0.966602253457402	-0.22261874565021	-3.1617628996276E-06	-5.14851552742779E-06	-5.52951589496826E-06	2.3647510584332E-06	0.992204735637783	-0.116873530912812
4.9	-0.986518160364574	-0.0990575098202304	-1.01886117551606E-06	-8.56015417272379E-06	-4.22527104576538E-06	7.39042835285849E-07	0.991778972496712	-0.118824418818034
5	-0.991139221172166	0.0256474107090766	7.55798955179276E-06	-1.57084744467289E-06	-1.75357541987067E-06	-2.72458955296622E-06	0.991576427963049	-0.12040916748772
5.1	-0.979598387887282	0.151078306904488	-2.60222922364057E-06	-6.39858462903817E-06	-1.0092149553232E-06	-1.95452152561203E-06	0.991664819935894	-0.12185880218059
5.2	-0.952971542420521	0.273017905881767	3.99971914425462E-06	-4.3600762958882E-07	-5.44303168107608E-06	6.31027303539783E-06	0.991406698261776	-0.124179000964742
5.3	-0.911463533704947	0.390701633265849	5.14066938210304E-06	6.01119328607417E-06	-9.60215512294098E-07	-3.58811580726297E-06	0.991126569042473	-0.126451961188183
5.4	-0.855523242590506	0.502151552186535	3.06459223457055E-06	-2.01658450646982E-06	-1.13208798463935E-05	2.19782039399994E-06	0.991171331563347	-0.129198060586607
5.5	-0.785840575309747	0.605544377779008	-4.31664581639485E-07	-2.1961198533492E-06	-5.79401573060785E-06	6.12751171527792E-06	0.991082674949849	-0.132052513755863
5.6	-0.703274184982221	0.699493985382916	2.38020237296355E-06	7.31102102924577E-06	-5.3915196385518E-07	2.93167668662593E-06	0.99102768071956	-0.134778750059539
5.7	-0.609666768488229	0.782458125175287	-2.57417080696388E-06	2.36274275792965E-06	7.91804385210716E-06	2.78241330207982E-06	0.990729685953747	-0.137465718056388
5.8	-0.506199107129212	0.852277074464839	-4.65228188371771E-06	5.10787754074719E-06	-3.66812280883233E-07	3.42502259616177E-06	0.990383841917722	-0.139823119333606
5.9	-0.395262873695441	0.908614261417085	6.3603717547191E-06	1.4999490468101E-06	-2.71275128599813E-06	2.54793683328072E-06	0.989675280213257	-0.142092410917293
6	-0.279018183311239	0.950356436027901	3.52135845908126E-06	3.30179291741925E-06	-3.27308852390085E-07	-1.43424560545659E-06	0.989011524219616	-0.142964176133209
6.1	-0.158402172376769	0.977935267756749	9.17774925444112E-06	1.53344199109376E-06	-1.25892540638651E-07	-1.80928932044193E-06	0.989634446882882	-0.143972843103923
6.2	-0.0344508839978433	0.990233533339936	2.44266909136306E-06	-1.7284696666838E-06	1.48603256748333E-06	-4.84642057400936E-06	0.98969112689104	-0.145523758945748
6.3	0.0903020124863362	0.986861710032261	-4.36727930001119E-06	4.24399480927139E-06	-6.14013409725833E-07	-1.72700445899869E-06	0.989479611130376	-0.147778919550868
6.4	0.213419484793735	0.967695631522973	-4.26949864552423E-06	1.06712894414459E-06	-1.77075629840957E-06	8.84961734301377E-06	0.98899059379549	-0.150138909852648
6.5	0.333315528281761	0.934008604486972	2.45638690736369E-06	-1.33074982614436E-06	1.49181688766027E-06	-2.93244396480919E-06	0.988980830323334	-0.152894599218505
6.6	0.448421668570914	0.88467199994774	-4.74013158209734E-06	-2.2599173127752E-06	-1.86463547670581E-06	-6.64913414823775E-06	0.988755576678924	-0.156103345457698
6.7	0.555686475950766	0.8211120229041	4.16741216317492E-06	-6.60860987315507E-07	-4.68124786422254E-06	1.01133528075723E-06	0.988257774227796	-0.158724947832087
6.8	0.6539735160469	0.74480299512779	3.76016407836561E-06	-2.08192350954661E-06	6.21951608474405E-06	-9.24514789626473E-07	0.987641371584622	-0.16117593407905
6.9	0.741670730526766	0.656898302379026	2.04982844569799E-06	1.64126996922287E-06	8.78718432515309E-06	-2.76099873508585E-06	0.987008165085472	-0.1633821078302
7	0.817462448464747	0.558917349790442	2.1747750764781E-06	4.09726456035445E-06	-9.17227142655338E-08	5.3846778611348E-06	0.98624592710377	-0.164905409524245
7.1	0.8805962562057	0.45268112555514	-1.33182170491865E-07	1.71768163223152E-06	8.26158196424939E-06	-4.64504533869324E-06	0.985949922733955	-0.166599414352781
7.2	0.929914472524093	0.338972555268148	4.84931107846723E-06	-1.39300144713674E-06	7.25816672335805E-06	3.78399266471949E-06	0.985356723891551	-0.168531586577343
7.3	0.964287952556176	0.21993307485737	4.86296242947602E-06	-1.10766033621384E-06	-7.34166939831634E-06	-7.38499884344987E-06	0.984318700746228	-0.170523964753666
7.4	0.983671553497477	0.0970279298299388	-1.84156207643352E-06	9.89888232130875E-06	1.43420117713607E-06	-4.07031685706175E-06	0.983158756155631	-0.173202543592101
7.5	0.987092784081587	-0.0272125085407363	8.4028033901133E-07	8.05980618905584E-07	1.6730714679726E-06	9.92499468946335E-07	0.981468171647826	-0.175584997093888
7.6	0.975584406963193	-0.150827491159243	1.4532582792964E-06	-2.61388008142954E-06	-5.41819458340029E-06	-3.62288659254936E-06	0.980844477063907	-0.178090777407045
7.7	0.948809460675961	-0.272462055774539	5.56927643506988E-06	2.40572226449817E-06	-6.81867084730525E-06	1.20417025495071E-05	0.980425398276531	-0.181137103481582
7.8	0.907237783712993	-0.389871412192955	-6.13481245499263E-07	-5.2391649156295E-06	3.73127632090785E-06	-4.73435057916685E-06	0.98026236735524	-0.184263116409402
7.9	0.850883416175379	-0.501125176853108	8.84581810917688E-06	1.52700974559955E-06	-9.52970230387092E-06	-8.63069240991054E-06	0.979844329754232	-0.187444186309627
8	0.781349306935148	-0.604083873277981	-6.65149555834073E-06	-1.63031843246875E-06	-1.20000455665096E-05	2.49165281548169E-06	0.979440580359127	-0.18991650097902
8.1	0.699244740833665	-0.698015627521601	5.07413594982612E-06	7.31268501011063E-07	2.89072011556837E-06	2.26147916059639E-06	0.979321810996425	-0.19275762243152
8.2	0.605703027546585	-0.780310068529984	3.56288840582408E-06	-2.57500472022144E-06	-3.68186001547277E-06	-1.16111594724683E-05	0.978903515351714	-0.195416457827788
8.3	0.502495955799173	-0.849973126580869	2.72596114253223E-06	-1.85789060011708E-06	1.6393130015846E-06	5.2894020105478E-06	0.978135900362756	-0.198217818494071
8.4	0.391438307805438	-0.905933611063864	-5.55027991749341E-06	-1.01655905170039E-06	1.05616677643771E-06	2.94925214139701E-06	0.977186846544808	-0.200894370121469
8.5	0.273900062579801	-0.947595052192552	-3.28589274798125E-06	1.62524554583247E-06	-4.79157071400821E-06	-4.99773662170298E-06	0.976440696736714	-0.203579234913175
8.6	0.151606559037708	-0.97410407432612	-8.13374115021988E-06	1.38992828651927E-06	-4.34248294480186E-06	-6.85467419425958E-06	0.975819998697466	-0.206320146398056
8.7	0.0269629096037039	-0.984837883512641	2.24296125500385E-07	-2.14691311494311E-07	6.11462298743033E-06	5.04246072361745E-07	0.975168489824794	-0.208825452742836
8.8	-0.0978312522868939	-0.979665455174668	1.02241770163029E-06	-1.81786842076336E-06	-2.39010842198851E-06	-1.2776519496461E-06	0.974631147365755	-0.21096993537677
8.9	-0.220368558576165	-0.959639295995503	-2.99277343049115E-07	3.03355787543999E-06	-1.23427645410613E-06	-1.6399804031288E-06	0.974527694212347	-0.212921810512247
9	-0.339277624696832	-0.923996996514816	2.97738465165136E-06	1.58506524819512E-06	-1.57324627934172E-06	2.11499355121834E-06	0.974382338584451	-0.21516564327541
9.1	-0.452127492257156	-0.873862931926443	-9.30426083483457E-06	2.27006903169088E-06	-1.5614336464361E-06	2.40902178775916E-06	0.974174805416751	-0.217296366620385
9.2	-0.55798787764807	-0.810350365924223	7.49864377479004E-06	-2.36755707924889E-07	-9.0984358751191E-06	1.97093760161965E-06	0.973815130375335	-0.219955706039851
9.3	-0.654944176707917	-0.734617431796444	7.52225001786887E-08	-7.15683341845914E-06	1.58488240539656E-06	-1.29938568077688E-06	0.973455525813822	-0.222673142464059
9.4	-0.742109516994947	-0.647608156239377	5.99233240031787E-07	2.48099604977507E-06	1.61495137451226E-06	-3.59451062136977E-06	0.972685682111458	-0.225916226263598
9.5	-0.817932936544278	-0.549776090717835	-2.8675826572466E-06	6.6391976527085E-06	4.71939496032297E-06	-1.36819133468925E-06	0.971526773192084	-0.228791203029149
9.6	-0.881204435245323	-0.442281190694991	-5.02173220454641E-06	-5.2001250086871E-06	4.75817956653474E-06	2.87912597530029E-06	0.970716334510499	-0.231767220629445
9.7	-0.930092562069491	-0.326866252013355	-2.00231910416028E-06	-5.07066842235903E-06	2.09589382937137E-06	9.72618598704242E-09	0.969885558508519	-0.234369046570466
9.8	-0.96391264031375	-0.205864287103976	5.90452305022022E-07	-4.28344306281441E-06	-2.94100584846832E-06	-2.51491131285842E-06	0.969314935091109	-0.236443673227435
9.9	-0.981631572441326	-0.0817307319050433	-6.10588422363183E-06	4.21028854110281E-06	-3.08047512015574E-06	1.66597080830349E-06	0.968529953463703	-0.238238382755972
10	-0.984123707838782	0.0424541391183722	3.56815044452465E-06	-4.33738804714141E-08	8.22553657982115E-06	1.10872228309775E-05	0.968163892505903	-0.239428301416926
10.1	-0.971218956438554	0.166388803668739	-2.85609394468784E-06	-2.51967253310384E-06	-2.0082021037097E-06	-2.49504847636711E-06	0.967663359056956	-0.241310551625043
10.2	-0.942597770731374	0.288097524440682	2.3546106524435E-06	-1.0207520145144E-06	-2.76623884780975E-06	-1.06528944526877E-06	0.967004982192486	-0.242706892031048
10.3	-0.898652974995476	0.405036145834541	7.75387545870139E-06	-5.94703456527045E-06	3.85838130777451E-06	8.22495067456412E-06	0.966237675146801	-0.244346441805614
10.4	-0.841079501970171	0.514955559451851	1.70469764869015E-06	2.50582414698764E-07	6.27251762609141E-06	-1.18623615180185E-06	0.96534128572072	-0.246101089946804
10.5	-0.770979514862272	0.617598024032618	8.34858247964312E-06	-4.14026842188872E-06	-4.94351129260851E-07	1.97211341215902E-06	0.96496288467719	-0.248358277896245
10.6	-0.687552263643018	0.71037148413109	8.9341084391969E-06	-1.27241190597967E-06	-1.47164155346109E-06	1.3639669443704E-05	0.96433565186311	-0.251019738906768
10.7	-0.592757837638792	0.791093796160863	8.01222419129381E-06	-1.90571286589982E-06	-3.05463511523893E-06	-5.27759988889812E-06	0.963709643632616	-0.253696034833658
10.8	-0.488081249557805	0.859307532139021	2.45159764303735E-06	5.24343972379022E-06	-3.62569561565732E-06	-2.03476402363609E-07	0.96312983960368	-0.255921238814474
10.9	-0.375409593694286	0.913713154191398	-5.5542119106025E-06	4.87434325438979E-07	1.59766728448833E-06	4.02464959905806E-06	0.962650498039486	-0.258010019854205
11	-0.257648918797383	0.953290696436098	2.10508477624015E-09	-5.21640723515568E-06	-8.37091357488843E-06	2.23105192857491E-06	0.96196361171054	-0.259937727492344
11.1	-0.135952015855119	0.978911778000613	6.3036740709974E-06	4.0859093626184E-06	-1.90285548120989E-06	1.07494697033179E-05	0.960919918939137	-0.261696155603387
11.2	-0.01160699226677	0.988833652268741	1.57697074642232E-06	1.35430802796913E-06	5.13081372821602E-06	8.89637341600497E-06	0.959662476318331	-0.263257569933086
11.3	0.11318693426843	0.98225542956641	-4.61169774222113E-07	-1.73626433215853E-06	-6.96212630365977E-07	-4.39248389908998E-06	0.958842682689317	-0.264703291117583
11.4	0.235952773108838	0.960220718233027	2.18083119631412E-07	1.18535653574103E-05	2.41897448560937E-06	4.92755659786396E-06	0.957840536795888	-0.266961943901691
11.5	0.35496494309927	0.923025904126533	6.19094050328362E-06	-3.23314020992965E-07	3.16867560184674E-07	-1.88078884332172E-06	0.956781390539882	-0.269232059489219
11.6	0.467255800107784	0.871451402065399	-5.99894596235622E-06	3.06882393371891E-06	-4.86500471648351E-06	1.91312163372229E-06	0.955762000499717	-0.272497980029113
11.7	0.572154240184644	0.806656986333933	3.32348472887395E-06	-1.79255620894679E-06	-1.70541894860418E-06	2.23375079655206E-06	0.954534196474762	-0.275786285511522
11.8	0.668048579369782	0.728581079548182	-8.2495541789439E-07	9.78040341527617E-06	-2.71829555939039E-06	1.05228342613177E-05	0.953507636622235	-0.278895111383283
11.9	0.752119063866416	0.638499222163164	-7.28233710522648E-06	-1.04055437397036E-06	-3.91204310830237E-06	1.12264157506793E-05	0.953197309379153	-0.280879314123349
12	0.82391844718808	0.540226777595078	-6.45495260689615E-07	1.37884311643169E-06	-3.12884990651621E-06	-1.92647709328183E-06	0.953444600492447	-0.283081059724251
12.1	0.884976523656346	0.433834031835021	-3.88069107181336E-06	4.97600199023773E-06	-1.34896563984984E-06	8.4027350695701E-06	0.953125812600308	-0.28594898084531
12.2	0.931921102068344	0.319853551216991	-5.70288363591317E-07	-3.79479512427237E-06	-3.10938556307406E-06	-7.34938221623998E-07	0.952373967081643	-0.289010501992351
12.3	0.964225435701416	0.201512562388792	3.5873170887076E-06	3.43504725216702E-06	-3.44263008749028E-06	6.25442002792104E-06	0.951293483108444	-0.292014815923693
