# GHZ S RI R 50
0.2	-0.968585652849396	0.24998665947617	8.83453090889879E-06	5.34805251105156E-06	1.14421260810761E-06	-2.89447304696998E-06	1.00201688030384	-0.00572754126428938
0.3	-0.930365434983154	0.369875549597447	-7.68498475158016E-06	-8.36817056639711E-07	-2.18122591610344E-08	3.67108445107732E-06	1.00251729394462	-0.00870944969565498
0.4	-0.877137662786052	0.484441430518568	-2.22143163472721E-06	6.36313351986391E-06	2.92066807610715E-06	5.76810611655872E-06	1.00351995732985	-0.0114314160647792
0.5	-0.809131046449021	0.592940991667605	-2.66440443332713E-06	5.51342936434352E-07	1.05794846716852E-05	4.9160059303839E-06	1.00416747347319	-0.0167143757994571
0.6	-0.726803410777887	0.689622312420065	-1.73273461781669E-06	-1.80011388421253E-08	4.17913183269077E-06	-1.03816205043745E-05	1.00201854042465	-0.0196842161237113
0.7	-0.63464935852116	0.775659961238335	-2.05673585996809E-06	9.91865065013588E-07	3.79545705980551E-06	1.1212529267415E-05	1.0017761351913	-0.0214102303590985
0.8	-0.531976088089297	0.850035356335304	-5.63595791635573E-06	3.79807403352609E-06	-3.18278108346967E-06	-2.15163884817016E-06	1.00213127203902	-0.023001141330213
0.9	-0.42066064922553	0.910667719194386	-6.75828037538518E-07	5.27805381215758E-06	3.28416254496853E-06	-2.94122394886122E-07	1.00275294096905	-0.0246403560600688
1	-0.301997279367849	0.956840484252297	1.57946816210367E-05	-3.69378905393007E-06	-9.66330154933026E-06	5.19683175901253E-07	1.00511085677457	-0.0261890546459377
1.1	-0.178981777923085	0.987310744352256	1.35012918848912E-06	-3.00642789816635E-06	9.47974445696388E-06	1.26873239840191E-05	1.00488734618686	-0.0313292380021231
1.2	-0.0520200260257377	1.00163603315082	-7.97233401592971E-06	-3.2622105362234E-06	-3.13073421853766E-06	-4.50240368462507E-06	1.00260275169555	-0.0334735947460536
1.3	0.075965924194775	0.999245829002892	1.94194925965812E-07	3.3529273025747E-06	1.94191974398665E-06	3.34641425973625E-07	1.00079353448243	-0.0354873601949804
1.4	0.201644051214767	0.980537642611011	4.39362062297296E-08	3.78351113476205E-06	-2.57030327437185E-06	-5.62469224259468E-06	0.998633457675768	-0.0375772092595955
1.5	0.324210963497235	0.947555362718025	3.19910984039321E-06	-2.86068804269379E-07	2.72585851835466E-06	2.08806504750587E-06	0.999924699969194	-0.0407290231533591
1.6	0.440929783113767	0.898768796421813	1.78305011161704E-06	-1.95776801613526E-06	-9.15668419237391E-07	-3.07021454207066E-06	0.999195781136109	-0.0441617056984576
1.7	0.550075073763573	0.836271909669529	-1.04178220595117E-07	-3.53861805573814E-06	2.03893424530135E-06	4.93593535665754E-06	1.00048529322593	-0.0456959640213225
1.8	0.650363337519693	0.760962402385672	-2.07398573494652E-06	-1.81254224643109E-06	-4.57845837509679E-06	1.8414626156405E-05	1.00123741109246	-0.0478224417039815
1.9	0.739861762894255	0.674872578594351	-4.41201514173945E-06	-1.46326356301273E-06	-4.96040281374557E-06	-6.01762050462477E-06	1.00233326982495	-0.0482925612063506
2	0.822281740322175	0.579224659212887	-9.596006833359E-08	-6.80274605833085E-07	-1.68422290792448E-06	-1.43005122181511E-06	1.00780274537435	-0.0516638869145798
2.1	0.890297525327576	0.465998166060314	-1.09840445437109E-06	9.54992502141213E-06	2.01240813235632E-06	-3.95531352906242E-07	1.00643196783858	-0.0598072293449986
2.2	0.939844483368584	0.349175067023969	-6.37221149739773E-08	-5.97741595237455E-06	-7.23970632360021E-07	2.76459294247753E-06	1.00402229929141	-0.062654360941996
2.3	0.975115730026799	0.228091473153616	-1.30526720837293E-06	2.79547398149105E-06	-1.87143385688851E-07	1.20627608842817E-05	1.00282833600132	-0.0643497593715772
2.4	0.995420695553913	0.103056182854626	-5.94235776490401E-06	-3.68686436800433E-06	-1.75990045312984E-05	1.47643745902355E-05	1.00240347143242	-0.06730623201895
2.5	1.00117533154488	-0.0230424291361446	1.80414961040951E-06	-2.99232102241078E-06	-1.73904989366985E-06	7.60001053742194E-06	1.00249468280234	-0.0700058666120249
2.6	0.990221665475517	-0.148491413409684	2.88377911599608E-06	9.06501311190377E-07	-1.73314752854981E-06	4.53844836991322E-06	1.00185113960407	-0.073823555617931
2.7	0.963685825354773	-0.272141926972656	3.91970780000102E-06	1.04940046610851E-05	2.3650176757847E-06	3.88030668394973E-06	1.00125054371113	-0.0773880653647228
2.8	0.921234813022158	-0.391956901318033	-8.37855486781354E-07	-2.30421447708876E-06	2.06265980682087E-07	-1.90431320969808E-06	1.00086299085442	-0.0802874756837203
2.9	0.863811168545993	-0.504391418641169	3.71982211916018E-06	-8.41407910309756E-06	-1.41278287576723E-06	-1.43208769219014E-05	0.999663530345279	-0.0828429148537031
3	0.793210737512417	-0.608599904109683	5.28415400239079E-08	6.69393589238695E-06	-1.4817025905305E-05	5.4839063405411E-06	0.998824649092108	-0.0857305793580527
3.1	0.710768858360387	-0.702654111360138	-4.9323034451915E-06	7.92459203116418E-06	5.84366181790034E-06	-1.47226821126E-07	0.99733052288514	-0.0883589582289573
3.2	0.615029913345821	-0.78593739792282	9.89344242583062E-07	2.12545916856939E-06	-4.57845513148156E-06	5.32658247976148E-07	0.995760295880808	-0.0902257722264552
3.3	0.509871727541564	-0.855874415786666	7.04053342046658E-07	-1.47358582703042E-06	-4.58859821298541E-06	7.90241727858503E-07	0.994065376795562	-0.0935960506228352
3.4	0.396670213861888	-0.909882551670489	6.4777721290135E-06	1.51648592275835E-07	-8.23474162602557E-06	-7.08116475140234E-06	0.991985413363341	-0.0951703109611635
3.5	0.283656492703222	-0.950213487891243	-7.66525210125097E-06	2.03142109744879E-06	-5.96734658813701E-06	-7.91065918573743E-06	0.991479413009735	-0.0955306231227651
3.6	0.160225045232719	-0.982421727857799	-8.97075549137167E-07	-4.37662527401452E-06	-7.87881169972455E-06	-6.26543828534443E-06	0.991969900420544	-0.0989078746465938
3.7	0.0325526862393052	-0.993940018644738	-6.78866397263054E-06	-6.70036252756859E-06	4.77645465735315E-07	-4.7706361438657E-06	0.990611310295035	-0.101915001159507
3.8	-0.0938300534460155	-0.987970177074657	-3.62842523083012E-06	1.1215122237524E-06	-3.32024889784719E-06	-2.42741138523448E-06	0.989161364986509	-0.103201939919546
3.9	-0.216109066033435	-0.966430578070849	-4.44527639610496E-07	3.50782674782089E-06	2.0387645735807E-06	-1.23781409112381E-06	0.989330085317898	-0.104118901019602
4	-0.334740087322538	-0.932357955006328	1.17791011814375E-05	7.99756706962455E-06	7.22808758608377E-06	-4.12426312555572E-06	0.993864430641227	-0.106496833089461
4.1	-0.449667255966514	-0.882499100109823	5.22723460516728E-06	1.25102855511113E-06	-3.36279108734013E-06	6.68800460989513E-06	0.990996621212752	-0.113335833578144
4.2	-0.556079101583525	-0.81875981543472	-7.08796736480652E-06	-1.10610433723406E-06	-8.23688809551987E-06	6.47498779131625E-08	0.987414668595066	-0.115587904344456
4.3	-0.653713838228228	-0.742123103054367	6.70399565828496E-07	-2.3657077492375E-06	5.19982542116947E-06	8.13165681531023E-07	0.985913051198749	-0.11679228702252
4.4	-0.741411035703099	-0.653553959218241	4.42984614760722E-06	-1.81838584195677E-06	-8.48086673722208E-07	1.35032642082251E-06	0.984895844654848	-0.118660388335623
4.5	-0.816935116614221	-0.553244301928544	6.7675190623132E-06	1.76681860418314E-06	-8.4235688813675E-07	-3.22657897848465E-06	0.983894888588249	-0.122091463562537
4.6	-0.878028014623821	-0.446075885361098	2.47033255271386E-06	2.89563195804343E-06	-6.41146829788235E-06	9.74195511136494E-06	0.980408848427591	-0.124127456090745
4.7	-0.926409415393893	-0.331637094200728	-1.38511607092894E-05	6.01585237468053E-06	-3.4294286588485E-06	4.16647528003227E-09	0.979225704444948	-0.124704661074836
4.8	-0.960294105340094	-0.21182467202919	-3.1836752280201E-06	-5.05742347181618E-06	-5.4430034964127E-06	2.39957395544284E-06	0.978148546701756	-0.126185662262783
4.9	-0.977774853903347	-0.0874646052844661	-1.10294588945057E-06	-8.44667638706439E-06	-4.16660419900073E-06	7.77732458004042E-07	0.977016928735215	-0.127061946327817
5	-0.974459391328964	0.0343534938537042	7.42668679731382E-06	-1.62303729355497E-06	-1.75425036132536E-06	-2.66528744408383E-06	0.976267826698615	-0.127802866693527
5.1	-0.964157954085587	0.151696142674268	-2.60683395622101E-06	-6.28591867086041E-06	-1.0074369800372E-06	-1.91865704650724E-06	0.975452363036705	-0.128272445784448
5.2	-0.939376978802676	0.271736347140906	3.94021781717769E-06	-4.54397465032593E-07	-5.32692049094202E-06	6.25408214048771E-06	0.97479637466642	-0.129401397807907
5.3	-0.898075773405222	0.387660473779448	5.10190720790495E-06	5.89454854094492E-06	-9.67422555677278E-07	-3.53084501769618E-06	0.974113109252252	-0.131048991281205
5.4	-0.842086644923953	0.496824891416855	3.00644349212101E-06	-2.00225069042292E-06	-1.1134689279273E-05	2.22568612795599E-06	0.972728803817554	-0.132893018279431
5.5	-0.772939603027239	0.596847750784974	-4.32110795043884E-07	-2.15944145321809E-06	-5.68050374609755E-06	6.04866225942956E-06	0.97281859518716	-0.132946449920672
5.6	-0.692635439302575	0.688086364288359	2.36345924848288E-06	7.19209798030353E-06	-5.22892008238196E-07	2.88804816581781E-06	0.973197764797383	-0.135788550231901
5.7	-0.601522855718608	0.769244617255138	-2.52881389026768E-06	2.33069597212859E-06	7.79883798056533E-06	2.72254678324792E-06	0.971972656769439	-0.137240286067521
5.8	-0.50089240875641	0.837621787226507	-4.57446703690851E-06	5.0278816505306E-06	-3.5907471244845E-07	3.36992306900992E-06	0.971452434992058	-0.137346556095654
5.9	-0.394117456114636	0.893701101726165	6.25909340049116E-06	1.49334603083216E-06	-2.67775987625464E-06	2.50192948505879E-06	0.972754655047169	-0.135893667053081
6	-0.279340433807463	0.939954382865879	3.48113802060733E-06	3.2803482401472E-06	-3.20798912601862E-07	-1.42197461797762E-06	0.979787292705301	-0.139037188959378
6.1	-0.156027521325146	0.965594380468801	9.08572306501577E-06	1.49209281719726E-06	-1.29553555552655E-07	-1.78996851554646E-06	0.976695738200367	-0.146187276643245
6.2	-0.0344928113855971	0.975239506639966	2.40612483574235E-06	-1.7119785251109E-06	1.45410224169228E-06	-4.78647606283014E-06	0.973220446684997	-0.146603598764166
6.3	0.0864509806765052	0.971565057530194	-4.30068169739318E-06	4.18903459779925E-06	-6.07320289994087E-07	-1.70189188669554E-06	0.971751018068722	-0.146586657047863
6.4	0.207270558933931	0.955543257736533	-4.21320826091161E-06	1.05543552572633E-06	-1.74300674681089E-06	8.73502725840139E-06	0.972406172876519	-0.146909881277017
6.5	0.331004602964138	0.919890077990512	2.41337611047877E-06	-1.32180467221755E-06	1.45609757109591E-06	-2.8950158998303E-06	0.972082874449078	-0.152780321832051
6.6	0.438293499903801	0.866687661132248	-4.64316188233873E-06	-2.21135851716344E-06	-1.82879460156273E-06	-6.51109756283671E-06	0.967103069475642	-0.152202758832253
6.7	0.540202846503108	0.807070036395692	4.08454670176466E-06	-6.3091853662404E-07	-4.58922310614934E-06	9.7218455179176E-07	0.967637989939792	-0.150536124261163
6.8	0.635749259370592	0.734963243659392	3.69979286299699E-06	-2.0154579986192E-06	6.10271780071893E-06	-8.64402439275452E-07	0.96859039653428	-0.150505194646347
6.9	0.721873024850793	0.651860319298251	1.99501166325394E-06	1.62980454119055E-06	8.6466283415598E-06	-2.6237723475715E-06	0.969990049915597	-0.150099598474126
7	0.799139495138126	0.558345348903367	2.09159170447869E-06	4.06071664285339E-06	-1.5571366834145E-07	5.30081837607984E-06	0.973619263040131	-0.152071120989244
7.1	0.862477297003603	0.453737137008916	-1.49133552069572E-07	1.69218566460736E-06	8.19379201662367E-06	-4.49411982536811E-06	0.971974994389777	-0.155682666884384
7.2	0.911522742095537	0.343150889222909	4.79285282070261E-06	-1.32114024404544E-06	7.1114536380218E-06	3.80535062990702E-06	0.970359830410589	-0.156133277358739
7.3	0.946003794584324	0.227271050354304	4.79972433737458E-06	-1.03646147090323E-06	-7.14563536374444E-06	-7.35180224083805E-06	0.968586441763309	-0.15640077444563
7.4	0.964177707249657	0.109261004313913	-1.93262386477835E-06	9.6873684135546E-06	1.45878340050033E-06	-3.97472426122032E-06	0.965534850649814	-0.154768421355611
7.5	0.973552819685842	-0.00504286513411579	8.06116607161168E-07	8.09502867842161E-07	1.61882126995203E-06	1.01119572538346E-06	0.97020329805256	-0.149146779725147
7.6	0.970690127720826	-0.130335589289147	1.49951799826425E-06	-2.55067606199769E-06	-5.27265931077991E-06	-3.71208865878674E-06	0.975736801568992	-0.155433215319598
7.7	0.94700731677094	-0.252860234157185	5.46768801328244E-06	2.51138165124517E-06	-7.03343360868864E-06	1.17854583860681E-05	0.975842921513921	-0.159798149780385
7.8	0.908708834302923	-0.369601374235987	-4.88070205046819E-07	-5.21653313936181E-06	3.81449117082236E-06	-4.61483902179501E-06	0.97639879620752	-0.162090672494232
7.9	0.858389750867608	-0.47911816132123	8.76649762479977E-06	1.74913617179798E-06	-9.26340972309876E-06	-8.83856909885695E-06	0.97906291367121	-0.162286763733393
8	0.798983084283321	-0.58974735367355	-6.64531439033055E-06	-1.80365372166613E-06	-1.21236177426356E-05	2.20690922954473E-06	0.98807982225071	-0.168541322209629
8.1	0.712810961300092	-0.689814471309717	5.08401951524196E-06	8.2282981439988E-07	2.86424517781806E-06	2.32186183437083E-06	0.984540694210377	-0.178061040253689
8.2	0.619493240735729	-0.772004958024749	3.61490120321797E-06	-2.52072325819948E-06	-3.49386195847895E-06	-1.17008871622588E-05	0.982057459138301	-0.179829914511635
8.3	0.518122278248317	-0.842989932526044	2.76416099064602E-06	-1.81549830786429E-06	1.55247310809868E-06	5.32983162846031E-06	0.981644763648931	-0.181595701637673
8.4	0.408684245747632	-0.900475535122151	-5.54719890757157E-06	-1.10907218874956E-06	1.01086590141615E-06	2.97351643858883E-06	0.982227342863067	-0.183814288897496
8.5	0.294779581482303	-0.944722410823696	-3.31386932088782E-06	1.56918747478183E-06	-4.70644972198327E-06	-5.0799314021502E-06	0.982558975673633	-0.188136213660243
8.6	0.173250829051776	-0.976812337508035	-8.17842388071736E-06	1.23078966120064E-06	-4.21499439514485E-06	-6.95550631773994E-06	0.981422768226155	-0.190329916761451
8.7	0.0477378936657251	-0.992066217887193	2.29626605354995E-07	-2.11208142400785E-07	6.13295385646302E-06	6.28731582747626E-07	0.982237563509263	-0.192220686253772
8.8	-0.0794935941426199	-0.99121615341438	1.06464620218334E-06	-1.81076791924556E-06	-2.38205941488079E-06	-1.33270993483534E-06	0.983314065647868	-0.194589934968495
8.9	-0.206802020759905	-0.972547279584292	-3.53481836429132E-07	3.05527682387407E-06	-1.21730898931213E-06	-1.67545029092671E-06	0.984474755315922	-0.19705791904949
9	-0.323260458767661	-0.934162863122865	2.97015767117161E-06	1.64175664204261E-06	-1.61620400271274E-06	2.10277351517634E-06	0.985615849717904	-0.19941063710538
9.1	-0.435490711783882	-0.891563390285287	-9.41688051307887E-06	2.11168186366014E-06	-1.61857031914824E-06	2.39766011332172E-06	0.986905000512084	-0.202386422258164
9.2	-0.545713536174592	-0.831849251131701	7.57555182329746E-06	-9.90266231302106E-08	-9.22319000792446E-06	1.82010038888023E-06	0.98732254345779	-0.206108665508693
9.3	-0.646793423767704	-0.757371467824659	2.02988313505347E-07	-7.23110120396436E-06	1.62467728710515E-06	-1.28499414516172E-06	0.986907401144112	-0.209745636437472
9.4	-0.73546856768365	-0.669260787139691	5.62042604497058E-07	2.51478197850891E-06	1.69229010843359E-06	-3.60057224724699E-06	0.985281824021888	-0.212169928941197
9.5	-0.811325467175474	-0.578423278157196	-3.04203107174625E-06	6.64905221474362E-06	4.79999612330157E-06	-1.28103056986589E-06	0.987249882974458	-0.212695958549859
9.6	-0.884558032579082	-0.472253977174876	-4.99920089079889E-06	-5.3775130155305E-06	4.77633369352732E-06	3.01548724411841E-06	0.988949314921268	-0.218734578883591
9.7	-0.93868722963525	-0.354370459550836	-1.94737951001891E-06	-5.18671701917844E-06	2.12946556969124E-06	4.59142365447703E-08	0.988285928915195	-0.222671531853855
9.8	-0.977186731234542	-0.231106688001134	6.71505826000585E-07	-4.34502020802964E-06	-2.94821404673693E-06	-2.60572233523409E-06	0.988093870824642	-0.224642443503289
9.9	-0.999783148171716	-0.103416183121013	-6.29446160529489E-06	4.18241191483121E-06	-3.1675836301792E-06	1.64329419122352E-06	0.990170211256864	-0.224114311310096
10	-1.00475662082788	0.0255609842648834	3.655641455795E-06	7.8457048524366E-09	8.26332778679285E-06	1.14776155815247E-05	0.998348483016537	-0.230874387669726
10.1	-0.994073434007811	0.153355694326238	-2.89909912411949E-06	-2.60748919353784E-06	-2.03133633308329E-06	-2.57395446914825E-06	0.993553193674137	-0.239532822825758
10.2	-0.967500030845704	0.279608735102383	2.41773534817628E-06	-1.02473545571026E-06	-2.82146941236127E-06	-1.11311205732561E-06	0.990902347625063	-0.241229194779042
10.3	-0.925411087736224	0.402034972436462	7.98029218699622E-06	-6.03273362983321E-06	3.8911676568577E-06	8.44762491149001E-06	0.990053766249372	-0.243422342790892
10.4	-0.868528400509272	0.520925581391821	1.74687171494568E-06	2.64781850583039E-07	6.43738385798989E-06	-1.18757056383205E-06	0.990241887435076	-0.246707033638726
10.5	-0.787832582783642	0.63180676107576	8.53327699263224E-06	-4.24494313157455E-06	-5.03115977263813E-07	2.01759367946152E-06	0.988764374201508	-0.253581677102514
10.6	-0.699016609467293	0.720072529173591	9.10312549241999E-06	-1.29063670573267E-06	-1.50809688718355E-06	1.38955171226843E-05	0.9854326730546	-0.255940374290677
10.7	-0.60366394450962	0.800883739610614	8.17339740604333E-06	-1.9326276636353E-06	-3.10798201537739E-06	-5.38619104994369E-06	0.985060674234223	-0.259150395939973
10.8	-0.49724255112481	0.87126327360334	2.50292497929332E-06	5.35242713747744E-06	-3.70116729726911E-06	-2.07501482395965E-07	0.984212963909197	-0.262630612170343
10.9	-0.379531101427968	0.927916644667056	-5.6657921069266E-06	5.09388381080448E-07	1.63881322604519E-06	4.10279783464249E-06	0.983581543239525	-0.265360964194374
11	-0.256436143110207	0.963218073374766	-5.61037589319518E-09	-5.31657855586172E-06	-8.52833906948794E-06	2.28633983792193E-06	0.983663443958106	-0.267944459789738
11.1	-0.135269480929204	0.988045279672332	6.45295934126675E-06	4.15471717962183E-06	-1.91049902604453E-06	1.09882252304668E-05	0.982641182904261	-0.271480701819265
11.2	-0.00883063114136112	0.997686957915894	1.61906509787565E-06	1.37372174250221E-06	5.29519774012861E-06	9.05583651223313E-06	0.980953653788833	-0.274718763313351
11.3	0.117608060417528	0.990371129199517	-4.85974432732351E-07	-1.76660813440743E-06	-7.49616593011391E-07	-4.47348748614519E-06	0.978103289114723	-0.277728007892455
11.4	0.241585269995025	0.967807547596318	3.53569590202038E-07	1.20460409882633E-05	2.51357991771662E-06	4.981660834095E-06	0.973983357772877	-0.27958347727323
11.5	0.363168113540596	0.930006829273058	6.27632184823674E-06	-3.74986730161049E-07	3.0705905495472E-07	-1.90988440860437E-06	0.976394630698436	-0.279188236674903
11.6	0.477049062142801	0.876002646762761	-6.07426829491244E-06	3.16989616630937E-06	-4.93084566031785E-06	1.98542823735897E-06	0.976265645835063	-0.287452505634662
11.7	0.58244428465247	0.809893545060182	3.36017479490762E-06	-1.85604598271593E-06	-1.71086279264663E-06	2.28805365806006E-06	0.97291105667319	-0.292830300225352
11.8	0.678774758713503	0.73165506861993	-7.34490692021338E-07	9.94068099734787E-06	-2.64933462711925E-06	1.07146049398754E-05	0.970029449642295	-0.296125537784587
11.9	0.766694583743012	0.645164580092926	-7.41856533649916E-06	-9.98185809841873E-07	-3.88715752933356E-06	1.14556289263734E-05	0.971358530768762	-0.296207461603937
12	0.852458739858283	0.542823487089555	-6.45382401224457E-07	1.42177504753489E-06	-3.23182180062998E-06	-1.93799863022454E-06	0.977199254622783	-0.304567973369191
12.1	0.913180397515461	0.420974181491728	-3.86642806236013E-06	5.16305002414161E-06	-1.21047316568815E-06	8.61445300672052E-06	0.96941777553634	-0.312536755322275
12.2	0.9552448070865	0.299660221481219	-6.63881122741415E-07	-3.85469083948077E-06	-3.18467041663574E-06	-6.81163975282874E-07	0.964840739865957	-0.314609070048852
12.3	0.982997203465793	0.176584343695322	3.73172886811946E-06	3.41113178524362E-06	-3.35593962799552E-06	6.44613940754812E-06	0.961765536981788	-0.316991057826639
