# GHZ S RI R 50
0.2	-0.967859530649363	0.250379627648215	8.83034112792818E-06	5.34057571976456E-06	1.14220193072672E-06	-2.89285152594996E-06	1.00122956120405	-0.00596571395760914
0.3	-0.929315502773323	0.37026811294332	-7.67787105147406E-06	-8.32671204336051E-07	-2.01994816884317E-08	3.66752241888494E-06	1.00154653477484	-0.00880889951058832
0.4	-0.875693946472237	0.48464396024569	-2.21586171404484E-06	6.35578160589465E-06	2.91929128385593E-06	5.75936575948887E-06	1.00233657658234	-0.0114128635213903
0.5	-0.807491952421191	0.592535204437693	-2.65987540750166E-06	5.50467584510313E-07	1.05616595081851E-05	4.90743676457247E-06	1.00275485297186	-0.0161776709351348
0.6	-0.72542380704985	0.689009423070345	-1.73029782350138E-06	-1.83482306918319E-08	4.17549495541557E-06	-1.03661456107604E-05	1.00117425008523	-0.018995840733595
0.7	-0.633187713952399	0.774847916404991	-2.05381593023905E-06	9.90302572460964E-07	3.78927455072784E-06	1.1196512802067E-05	1.00097742269423	-0.0210619924268027
0.8	-0.53054952171382	0.84884540891908	-5.62698425065969E-06	3.79169991616409E-06	-3.17754210100167E-06	-2.14828206097549E-06	1.00117345418675	-0.0228448464290824
0.9	-0.419454115904861	0.909107219439593	-6.74956792724734E-07	5.26882647167229E-06	3.27846235105226E-06	-2.93420429973345E-07	1.00158761344794	-0.0246579197931604
1	-0.301162084489945	0.954992215427036	1.57628425385911E-05	-3.68531620012584E-06	-9.64371489680613E-06	5.18032429844653E-07	1.003363353839	-0.0261539214910424
1.1	-0.178728416002209	0.985353793616285	1.34940997044957E-06	-2.99890535745646E-06	9.44982003150208E-06	1.26667490448573E-05	1.00329511180756	-0.0303822404372686
1.2	-0.0524021279123691	0.999937937918491	-7.95428007232957E-06	-3.26815941163342E-06	-3.11902855293626E-06	-4.49933363634248E-06	1.00188389296137	-0.0320788149194869
1.3	0.0750807705337168	0.998015934731585	1.86816401140772E-07	3.3498583725207E-06	1.93918529219259E-06	3.38450185823317E-07	1.00111324468915	-0.0337896272141726
1.4	0.20049217419207	0.979574052392646	3.4175054410439E-08	3.78118473249771E-06	-2.55417693037141E-06	-5.62767764216243E-06	0.999546038174343	-0.0359365308775713
1.5	0.322676420103427	0.946486203175495	3.19698358223893E-06	-2.77421258541533E-07	2.71793113839313E-06	2.09333665288365E-06	1.00039191589598	-0.0391876498868013
1.6	0.439126938288723	0.897841022444219	1.78628744435031E-06	-1.95114565156183E-06	-9.06784073583163E-07	-3.06943481553171E-06	0.99936644118306	-0.0427478225845403
1.7	0.548112537003369	0.835347096307771	-9.63043137943766E-08	-3.5345625768593E-06	2.02565884921922E-06	4.93442453777709E-06	1.00003536410281	-0.044677431392979
1.8	0.64820040005504	0.76010859558616	-2.06775040235067E-06	-1.81370058413042E-06	-4.60518418511611E-06	1.83800632078247E-05	1.000175036418	-0.0470186838513411
1.9	0.737535617420846	0.673935086304644	-4.40275515679965E-06	-1.46616207930875E-06	-4.94466198502067E-06	-6.01346995533326E-06	1.0005996414226	-0.0478236316756106
2	0.818849818229825	0.578243341168734	-9.50252993964837E-08	-6.78374490100951E-07	-1.67791604879707E-06	-1.42748150916636E-06	1.00462466777772	-0.0507609600118401
2.1	0.886460836578284	0.466573945119132	-1.11506424928499E-06	9.51819637492734E-06	2.00703808337424E-06	-3.90088957573147E-07	1.00358970049064	-0.0575485113554354
2.2	0.936480969928103	0.350553538437132	-4.96096509711702E-08	-5.96179885723744E-06	-7.28510492619331E-07	2.75561227074603E-06	1.00172623650843	-0.0602900661769949
2.3	0.972098412180763	0.229975326600429	-1.30876798696867E-06	2.78546698282873E-06	-2.15638899401502E-07	1.20326504555429E-05	1.00070743842671	-0.0619975273841341
2.4	0.99267263798201	0.105391010569376	-5.91885709613016E-06	-3.69369206257156E-06	-1.75962153479137E-05	1.46840333076E-05	1.00030482675292	-0.0648834494259053
2.5	0.998597432183817	-0.020090263303958	1.80864337868136E-06	-2.98163856267328E-06	-1.75601932921481E-06	7.58049849548315E-06	1.00030514386054	-0.0672392602349147
2.6	0.988183053908131	-0.14486192530799	2.87558864949371E-06	9.11517699029427E-07	-1.74040251659209E-06	4.52482406244311E-06	0.999963635071222	-0.0706722677845383
2.7	0.962295838822597	-0.268066218613243	3.88430051175665E-06	1.04794889395834E-05	2.34980115607744E-06	3.87723532074282E-06	0.999640644472365	-0.0740996391110697
2.8	0.92057247278463	-0.387616603530286	-8.29844468192479E-07	-2.3009346395688E-06	2.10753365079431E-07	-1.89925377695771E-06	0.999517608950045	-0.0769653264997294
2.9	0.863889762876206	-0.500024421347149	3.73341520339934E-06	-8.38468178161828E-06	-1.37164125477751E-06	-1.42913131596819E-05	0.998561984179156	-0.0795987193595444
3	0.793904500959459	-0.60435818630929	3.5187663033918E-08	6.67941562805863E-06	-1.47989467297495E-05	5.43307669475178E-06	0.997921986405903	-0.0825289182544003
3.1	0.712189045057223	-0.698492831145229	-4.94351788237292E-06	7.89443325020063E-06	5.83174358566349E-06	-1.30978931383607E-07	0.996768067999395	-0.0851457534339375
3.2	0.61728798385464	-0.782183323355422	9.81371641019474E-07	2.12450428364893E-06	-4.57174478422569E-06	5.18368638047382E-07	0.995560364417339	-0.0871070284102732
3.3	0.512874740309226	-0.852825338637098	7.07700900581345E-07	-1.46942465841266E-06	-4.58492763176736E-06	7.74898342891606E-07	0.994260465881877	-0.0905689521726485
3.4	0.400071527534701	-0.908021730155718	6.47345638530983E-06	1.72177520608002E-07	-8.20732968509461E-06	-7.10318573450356E-06	0.992620709564726	-0.0923835646103035
3.5	0.286169449494873	-0.948917447754165	-7.66838456951425E-06	2.01248815861966E-06	-5.9469180226292E-06	-7.92321719175398E-06	0.992025335263821	-0.0932163393491911
3.6	0.163312586025059	-0.98068753308051	-8.85178058903482E-07	-4.37590625559228E-06	-7.85721360411336E-06	-6.28139989765691E-06	0.992441249072775	-0.0962862461707138
3.7	0.0363269662839794	-0.992982902566318	-6.7654273524121E-06	-6.71745438277669E-06	4.91666593450207E-07	-4.76694312444897E-06	0.991350066608694	-0.0992197856758929
3.8	-0.0899087000865262	-0.987926113401818	-3.63115198754963E-06	1.11008837015363E-06	-3.31208639380103E-06	-2.43716620922357E-06	0.990056274835001	-0.100635495731663
3.9	-0.212380414342505	-0.967162664355034	-4.54967423053204E-07	3.50582499561511E-06	2.04209008285315E-06	-1.23146150345696E-06	0.990041743045848	-0.101853893645568
4	-0.331146829956097	-0.933531673875091	1.17451714833612E-05	8.03567544958099E-06	7.23935795443168E-06	-4.0966506466023E-06	0.993806549034179	-0.103514553658181
4.1	-0.446175436300769	-0.884542861752288	5.22415168679309E-06	1.27253429141576E-06	-3.39096479179152E-06	6.67696784452723E-06	0.992060431838914	-0.109483162267972
4.2	-0.553198753202536	-0.821570016060175	-7.09073290330473E-06	-1.13437327917869E-06	-8.24527843641474E-06	3.32333036563801E-08	0.989291758226488	-0.112061143949369
4.3	-0.651599235017841	-0.745438701114025	6.79950084795341E-07	-2.36651394172448E-06	5.20400618995311E-06	8.33250078491674E-07	0.988159110277805	-0.113569310543725
4.4	-0.740027437008675	-0.657222873356766	4.44362477290173E-06	-1.80546821074945E-06	-8.54320674747365E-07	1.34949446228787E-06	0.987319100770818	-0.115570158002656
4.5	-0.81651355718617	-0.557364131465624	6.77547523323272E-06	1.79642020728731E-06	-8.31898978695085E-07	-3.23678708524882E-06	0.986719198857995	-0.118723946033044
4.6	-0.87877304923314	-0.449961887601594	2.46732793746691E-06	2.91236861961305E-06	-6.46328440415054E-06	9.74740497367665E-06	0.983974609955101	-0.121068978187151
4.7	-0.927952312646875	-0.335185059740386	-1.39129877035771E-05	5.99036162331606E-06	-3.44001429074396E-06	-6.72378255866728E-09	0.98300131338855	-0.12199238489158
4.8	-0.962574242871861	-0.215118327148074	-3.1787629742107E-06	-5.08389038612278E-06	-5.46835127081743E-06	2.39088827227127E-06	0.982042911980352	-0.123694412337852
4.9	-0.981018404205564	-0.0906394135502825	-1.081216617875E-06	-8.4811884324008E-06	-4.18434202899811E-06	7.67875326149112E-07	0.981054304723111	-0.124772045480919
5	-0.979402751171398	0.0325386639962795	7.46368465242072E-06	-1.61138802360271E-06	-1.75525769628255E-06	-2.6815370315809E-06	0.980409755659741	-0.125655466689789
5.1	-0.968574101666508	0.151705097583856	-2.6063540602579E-06	-6.31712947957264E-06	-1.0081818765028E-06	-1.92856938034908E-06	0.979801998580036	-0.126276378992149
5.2	-0.94338948819157	0.272395366909778	3.95711885824808E-06	-4.49653923306649E-07	-5.3592232521427E-06	6.27076998356701E-06	0.979323406799864	-0.127569642452826
5.3	-0.901818765784704	0.388972901361974	5.11391863697916E-06	5.92696413797211E-06	-9.65944815666946E-07	-3.54701165519202E-06	0.978948479897293	-0.129336335126
5.4	-0.845502249753059	0.498715947080866	3.02219356324767E-06	-2.00684293599393E-06	-1.11859693701586E-05	2.22020202178804E-06	0.978031121348608	-0.131594918452829
5.5	-0.775964888548185	0.599304269920576	-4.31963914561985E-07	-2.16908613571404E-06	-5.71041664578223E-06	6.06930527563025E-06	0.977965068536075	-0.132317701129527
5.6	-0.69519550946715	0.690978618069007	2.36694350146877E-06	7.22436062372769E-06	-5.27663796729562E-07	2.89968872297745E-06	0.978373415745352	-0.135217752839563
5.7	-0.603601288134781	0.77255151108949	-2.5413285808737E-06	2.33906369092897E-06	7.83072330648312E-06	2.73960155729754E-06	0.977274420981288	-0.137138445581365
5.8	-0.502352247921644	0.841291238077994	-4.59577325198519E-06	5.04883090409361E-06	-3.61474361920139E-07	3.38462587426661E-06	0.976613519829913	-0.137902301823695
5.9	-0.394703037560605	0.897424316427701	6.28516807211274E-06	1.49647177584035E-06	-2.68744552190033E-06	2.51332586615158E-06	0.977152419826434	-0.137215816915547
6	-0.279859493543789	0.943062654591344	3.49186859945647E-06	3.28958500186712E-06	-3.2193682142243E-07	-1.42613676728983E-06	0.982850602331029	-0.139483223573335
6.1	-0.156625158325488	0.969551588729968	9.11814658496616E-06	1.50219257172392E-06	-1.29110750882264E-07	-1.79657296937172E-06	0.980836941855504	-0.145954544910402
6.2	-0.0341435773795227	0.979641370321263	2.41623827965458E-06	-1.71871774379394E-06	1.4606868023686E-06	-4.80598238208937E-06	0.977867962837068	-0.14694733625086
6.3	0.0877177332509931	0.975756339521128	-4.31762211042666E-06	4.20749582730861E-06	-6.10249043639532E-07	-1.70884137167146E-06	0.976425887804707	-0.147500126526566
6.4	0.208778951068415	0.959089969241667	-4.22969021349098E-06	1.06020932619743E-06	-1.74863001788153E-06	8.76976469832533E-06	0.976735220511238	-0.148018246034956
6.5	0.332189149899282	0.92436627348686	2.42559206594671E-06	-1.32695414402275E-06	1.46449839710839E-06	-2.90817558402286E-06	0.976838111397729	-0.153262754430631
6.6	0.441627282854071	0.871376486251906	-4.67097777603274E-06	-2.21986060688038E-06	-1.84444910004048E-06	-6.54599681170684E-06	0.972541768200001	-0.153753679132883
6.7	0.544712900500627	0.81054183722097	4.10468103738292E-06	-6.41602393428293E-07	-4.61136832009398E-06	9.8556010337151E-07	0.972662392474775	-0.152898548537783
6.8	0.640861600260933	0.737164319474744	3.71257315687939E-06	-2.03419060426007E-06	6.12983398300235E-06	-8.83515832276095E-07	0.973179185181154	-0.153420700666137
6.9	0.727180292162471	0.652695847296971	2.00880988324794E-06	1.63068236233776E-06	8.67616000777942E-06	-2.6622403123023E-06	0.97394995866795	-0.153598142611817
7	0.803991973867547	0.558145857549459	2.11267138875896E-06	4.06732972870573E-06	-1.38009850630294E-07	5.31937823278451E-06	0.976702474021407	-0.155326153947114
7.1	0.867330214423117	0.452934111438251	-1.44346793422352E-07	1.69827276194749E-06	8.20698395181817E-06	-4.5346267332058E-06	0.975420433718277	-0.158864146983777
7.2	0.916322456619382	0.341383555817884	4.80505097258335E-06	-1.34192550998205E-06	7.14903175675933E-06	3.79455346040697E-06	0.973869624899533	-0.159864581524163
7.3	0.950625389293483	0.224484735629223	4.81353330343856E-06	-1.05817566350002E-06	-7.19936154474061E-06	-7.35222814054903E-06	0.972103641192677	-0.160766469324934
7.4	0.968540688619083	0.104852642879875	-1.89531979441115E-06	9.73782371256755E-06	1.44632075627644E-06	-3.99855724096229E-06	0.968926244049119	-0.160491559010837
7.5	0.975534817256184	-0.0111546440499051	8.14165321592277E-07	8.06526042141918E-07	1.63078740169742E-06	1.00329768548078E-06	0.971385419183637	-0.155944083558877
7.6	0.970860963648305	-0.135744011232899	1.48491848401679E-06	-2.56411432863061E-06	-5.30445255020851E-06	-3.68277534712076E-06	0.975884802679318	-0.16120141945036
7.7	0.946009854940633	-0.25799069534343	5.48803463502774E-06	2.47754610267545E-06	-6.96167788297177E-06	1.18398814502154E-05	0.975548270426736	-0.16534975728842
7.8	0.906486009938756	-0.374303063171104	-5.22592033460348E-07	-5.21287135028379E-06	3.78360273974877E-06	-4.63973301977562E-06	0.975555111700529	-0.167540366901203
7.9	0.854779314935711	-0.483152373537178	8.7684206637553E-06	1.68839078232889E-06	-9.31231907195024E-06	-8.76656068031476E-06	0.977357965357169	-0.167668631173285
8	0.794608243855443	-0.591248169040796	-6.63751330650146E-06	-1.76427280195075E-06	-1.20806736506677E-05	2.26450871083914E-06	0.98536135355283	-0.172143365761701
8.1	0.709887804986023	-0.691202689459665	5.08131830144178E-06	8.00592741795943E-07	2.87048819420042E-06	2.30708981923748E-06	0.98356435279509	-0.181086396927073
8.2	0.616211918764376	-0.773852381006048	3.60123312751787E-06	-2.5360996491108E-06	-3.54619107577236E-06	-1.1678273992181E-05	0.981591381042263	-0.183610130947746
8.3	0.514167383431218	-0.844681034551554	2.75384043654965E-06	-1.82833022957442E-06	1.57814737598287E-06	5.31958749318094E-06	0.981086789273984	-0.185893821824771
8.4	0.404043565249439	-0.901781486663172	-5.55060597048401E-06	-1.08076035848403E-06	1.02541507378121E-06	2.96727462366585E-06	0.981324823153823	-0.188351546042525
8.5	0.289335211403061	-0.945010257863231	-3.30435292214136E-06	1.58739983578574E-06	-4.7338618218267E-06	-5.05245793395517E-06	0.981540487041709	-0.192529345933734
8.6	0.167901330328196	-0.975905004501029	-8.16276394677555E-06	1.27779924220773E-06	-4.25172241756424E-06	-6.9234875048032E-06	0.980287275122547	-0.195110540207028
8.7	0.0426317043690095	-0.990223831826549	2.28059130195509E-07	-2.12167548720709E-07	6.1266043032495E-06	5.92975302769409E-07	0.980575425725002	-0.197176942293273
8.8	-0.0840634383075778	-0.988520155379854	1.05273696723081E-06	-1.81265335169299E-06	-2.38417733264274E-06	-1.31718580083777E-06	0.98113406690553	-0.199553153646623
8.9	-0.210701256670525	-0.969696453305875	-3.37992173100689E-07	3.04996390752609E-06	-1.2225649333787E-06	-1.66575718744594E-06	0.981797857795048	-0.202016210063694
9	-0.328187922448971	-0.930917554877578	2.97320177243966E-06	1.62344821884517E-06	-1.6024139800588E-06	2.10726867783052E-06	0.982314118529294	-0.204377677509197
9.1	-0.439793173713094	-0.886194192755591	-9.37941551068444E-06	2.15923527631593E-06	-1.60061956273152E-06	2.40031985658119E-06	0.983018578762189	-0.207051376931822
9.2	-0.548716983959428	-0.825481333532858	7.55008853940506E-06	-1.40238419341175E-07	-9.18286987369046E-06	1.86468476544754E-06	0.983136702363061	-0.210369475024579
9.3	-0.648495728493465	-0.750610870863623	1.64312329249615E-07	-7.20641479701301E-06	1.61214698566897E-06	-1.28894521706538E-06	0.982734233669617	-0.213743647967079
9.4	-0.736600241655789	-0.662527817052061	5.73404117769901E-07	2.50294051563519E-06	1.66722607953676E-06	-3.59686536003569E-06	0.980995510394876	-0.21645567406269
9.5	-0.811127138692628	-0.570211288389057	-2.99016282896664E-06	6.63611891233573E-06	4.7707888544854E-06	-1.30262011196525E-06	0.981883847712337	-0.21686570582742
9.6	-0.88231846478052	-0.464922783274574	-4.99842937320977E-06	-5.32725861810245E-06	4.76586950875292E-06	2.97826389701427E-06	0.983316028617531	-0.22194496744533
9.7	-0.935596344765331	-0.347733493889187	-1.95914039630724E-06	-5.15255963344438E-06	2.11895416953766E-06	3.68367417735367E-08	0.98255656494786	-0.225531297749227
9.8	-0.973120406984058	-0.225058544579378	6.50554732080495E-07	-4.32499787245711E-06	-2.94325843336466E-06	-2.580264862882E-06	0.982011750682964	-0.227400833646814
9.9	-0.9947034163104	-0.0981869567785042	-6.24084507987554E-06	4.18255678151883E-06	-3.14242113724738E-06	1.64608888027434E-06	0.982944709291633	-0.226759405965098
10	-0.998895650537778	0.0297879920360313	3.63118567238826E-06	-2.49435028123924E-09	8.24029697598356E-06	1.13775082105444E-05	0.990176807842185	-0.231153989326293
10.1	-0.987471942987059	0.156358506640932	-2.88602549229545E-06	-2.58479428691412E-06	-2.02373356945108E-06	-2.5532832893813E-06	0.986821720110582	-0.23901780150726
10.2	-0.960433609441914	0.281213666307977	2.40034609821657E-06	-1.02232156037757E-06	-2.80518893738575E-06	-1.10102279728625E-06	0.984390189750706	-0.240653254384077
10.3	-0.918091989705856	0.402026175163488	7.91929696384662E-06	-6.00230660532287E-06	3.87566901969909E-06	8.38617763034691E-06	0.983450230486404	-0.24243629858728
10.4	-0.861640775015025	0.51873718601962	1.73478293426748E-06	2.62381934639042E-07	6.39214850486725E-06	-1.18133965373123E-06	0.983450109819769	-0.244809620569551
10.5	-0.783340965831936	0.628833100756097	8.4846293691742E-06	-4.21349966648425E-06	-5.01450313315614E-07	2.00506622980215E-06	0.982772796797937	-0.250331178305009
10.6	-0.694540269207192	0.71754646295987	9.04984573766216E-06	-1.28097509039033E-06	-1.50237542477956E-06	1.38133985065013E-05	0.980258180539298	-0.252581971207742
10.7	-0.59923677269372	0.797307004322795	8.1234445348518E-06	-1.91549494860678E-06	-3.08521309723107E-06	-5.35440361003624E-06	0.980424890180522	-0.255590597391079
10.8	-0.493919380479849	0.866607294628371	2.48072319581272E-06	5.32260257503891E-06	-3.67809082401196E-06	-2.10906515765578E-07	0.979820966562002	-0.259158020834421
10.9	-0.378088596657988	0.923008225101393	-5.63452895819143E-06	4.97533182895474E-07	1.62304024858441E-06	4.08217009313041E-06	0.979072276101085	-0.262090928416843
11	-0.255779928536544	0.959129111801211	8.03639157739945E-10	-5.28631917701731E-06	-8.48253365577441E-06	2.26308670289476E-06	0.978917355928403	-0.264575876350164
11.1	-0.135446915634571	0.98347630881397	6.40551653968285E-06	4.14173052473696E-06	-1.91995688633015E-06	1.09173730129778E-05	0.977911289415647	-0.267957116206475
11.2	-0.0102609008335843	0.993463985925504	1.60622301098655E-06	1.36996008451837E-06	5.24150646770167E-06	9.01726011582903E-06	0.97629378207074	-0.271047724692058
11.3	0.115338247737662	0.986695506165312	-4.77892874361575E-07	-1.75904194966027E-06	-7.31629908007345E-07	-4.4528093115434E-06	0.973899110087896	-0.274018991127051
11.4	0.238668376040761	0.964596115562732	3.12623481702602E-07	1.19958627446673E-05	2.48655775414742E-06	4.96866038960904E-06	0.969973428206199	-0.276404207054222
11.5	0.359369903963304	0.927359908863592	6.2500853975278E-06	-3.57679769305436E-07	3.10502108002927E-07	-1.90084823298496E-06	0.971047940602061	-0.275770350997747
11.6	0.472770298310095	0.874223602939331	-6.05613898457212E-06	3.13652520842737E-06	-4.91431061788096E-06	1.96104223518369E-06	0.971356782443538	-0.282914544304449
11.7	0.577854152947331	0.808745643685165	3.35194014232076E-06	-1.83681985361679E-06	-1.71116507526379E-06	2.27249028720748E-06	0.968257054492655	-0.288149985324442
11.8	0.673904798718834	0.730898871346836	-7.61989326357443E-07	9.89703120159366E-06	-2.6712390293298E-06	1.06618464996889E-05	0.965140302843773	-0.291395997304168
11.9	0.760578335783024	0.644245864805429	-7.37758754875519E-06	-1.01163816499103E-06	-3.8957657038727E-06	1.13864612138742E-05	0.965313792018436	-0.290954907032908
12	0.84380078994112	0.544618485483188	-6.47163936714138E-07	1.40938733635107E-06	-3.20162958307434E-06	-1.93886779994178E-06	0.971107866726704	-0.296246250645657
12.1	0.905948569221644	0.425542562343616	-3.87227131582036E-06	5.11207914256493E-06	-1.25052421852869E-06	8.55803192815517E-06	0.965703426051526	-0.303936348518871
12.2	0.948956278253071	0.305717601208413	-6.36344020936074E-07	-3.83783959829399E-06	-3.16311609232112E-06	-6.97224569669336E-07	0.962002285784613	-0.306184494576298
12.3	0.977829610226534	0.184177663721432	3.68928276521824E-06	3.42140312964293E-06	-3.38592290764133E-06	6.39098894052709E-06	0.959684438578224	-0.308509787455279
