# GHZ S RI R 50
0.2	-0.965231551645893	0.252050875777825	8.82020520123634E-06	5.3136716363059E-06	1.13471800774876E-06	-2.88848473063723E-06	0.999123227083042	-0.00713790111730514
0.3	-0.925382767847572	0.371839429626731	-7.65645514993324E-06	-8.14274005676366E-07	-1.25494289899659E-08	3.65651133741409E-06	0.998907989621039	-0.0101210107489203
0.4	-0.870227063082348	0.48530526165953	-2.19196158476415E-06	6.33301210749831E-06	2.91945041480253E-06	5.72769980036363E-06	0.998540151422223	-0.0128447654257309
0.5	-0.801864808429251	0.590648381498439	-2.64471734629855E-06	5.48381937305543E-07	1.05041593984153E-05	4.875852098062E-06	0.998025550818121	-0.0153981899736546
0.6	-0.720866289869121	0.686945162083798	-1.72308720692946E-06	-1.82319940056508E-08	4.1578552651855E-06	-1.03230405384387E-05	0.998588971064491	-0.0182390632356626
0.7	-0.628263848400873	0.772154796483817	-2.04401413656351E-06	9.87269104459854E-07	3.77989940638457E-06	1.11441539255446E-05	0.998180935409779	-0.0214341527864058
0.8	-0.525728535360647	0.844973576782422	-5.59628155936442E-06	3.77695603713278E-06	-3.16332101331543E-06	-2.13530337862692E-06	0.997840157646468	-0.0236747637981246
0.9	-0.415171774328153	0.904102244862908	-6.66774218359669E-07	5.24189403258958E-06	3.26107354351505E-06	-2.94784498445609E-07	0.997689735972883	-0.0262683811220996
1	-0.297658122123382	0.948875769137025	1.56530799623111E-05	-3.68544626259939E-06	-9.57925644645481E-06	5.29574985160677E-07	0.996749360042317	-0.0280783210841184
1.1	-0.176621930632891	0.978318886132177	1.33962198995183E-06	-2.9751352655516E-06	9.37280006002212E-06	1.25701628265418E-05	0.996388275540655	-0.0294209191476375
1.2	-0.0520492847373371	0.992503528887849	-7.88906373993773E-06	-3.25689913734604E-06	-3.08807909474683E-06	-4.47074482747112E-06	0.995974893490414	-0.0302225512930465
1.3	0.0732918217376255	0.991038677420194	1.74245310554179E-07	3.32776259871474E-06	1.92488738140144E-06	3.42697610537978E-07	0.996453330050444	-0.0308286383160127
1.4	0.197331391501881	0.973789108132803	1.67720671629296E-08	3.76149546482008E-06	-2.5151371841083E-06	-5.60977618207678E-06	0.996748771447441	-0.03290431039444
1.5	0.318165442884303	0.941160808147277	3.18198304447266E-06	-2.61483387468199E-07	2.69459474491528E-06	2.09503914814329E-06	0.996931900963204	-0.0364838382014817
1.6	0.433945800429247	0.89396139745815	1.7879446811171E-06	-1.93360762829247E-06	-8.87573834867401E-07	-3.06020226288558E-06	0.99646334741124	-0.0397637888883293
1.7	0.5426943449928	0.832028335633617	-8.06785902361106E-08	-3.51979046419486E-06	1.99571878697389E-06	4.92194128261758E-06	0.996621806861877	-0.0424275746187218
1.8	0.642597497420619	0.757404199047452	-2.05245198147572E-06	-1.81381905772703E-06	-4.65406681289188E-06	1.82866897109022E-05	0.996283603562003	-0.0452495452052166
1.9	0.73237166846005	0.6707077633347	-4.38287680595294E-06	-1.46761196746467E-06	-4.91513214872987E-06	-5.99778133976333E-06	0.995788914719301	-0.0479454938059917
2	0.809486958282599	0.573149412652323	-9.43635864327231E-08	-6.72203647446266E-07	-1.66314003447063E-06	-1.414063315733E-06	0.993641191948098	-0.0504078890996396
2.1	0.8748324506532	0.467427009654099	-1.15120723780375E-06	9.41520548159933E-06	1.98844484930099E-06	-3.7606858949254E-07	0.993707132567413	-0.0509895408972891
2.2	0.926722337721125	0.354153986740099	-1.22124524751409E-08	-5.91172697207424E-06	-7.39445935255947E-07	2.72780766680828E-06	0.994331573102229	-0.0531475201218577
2.3	0.963683584599277	0.234967272197897	-1.31685873266538E-06	2.75505983154575E-06	-2.93137478631641E-07	1.19370845617238E-05	0.994341054888193	-0.0549558506030729
2.4	0.985302699396947	0.111255281806346	-5.84719055837391E-06	-3.71088596707213E-06	-1.7576388924532E-05	1.44427478453215E-05	0.994444313505558	-0.0581230980628196
2.5	0.991431591373329	-0.0131010370695288	1.82272435481397E-06	-2.95186256888182E-06	-1.80661594574336E-06	7.52719488272295E-06	0.993854722858091	-0.0603510297828241
2.6	0.981989228705989	-0.136276680688698	2.85427713409501E-06	9.23161425438297E-07	-1.75701983419244E-06	4.48951002337036E-06	0.993748053726116	-0.0628870645723604
2.7	0.957022637387761	-0.257781317687973	3.79141115697964E-06	1.0428120368336E-05	2.30886390541496E-06	3.86388456384718E-06	0.993373809715589	-0.0655396485950552
2.8	0.91729447991399	-0.375354492620293	-8.05764416044074E-07	-2.28895383161356E-06	2.2351083426139E-07	-1.8825578389596E-06	0.993685853582974	-0.0672082421814023
2.9	0.86355016243666	-0.486773600327912	3.78074546322841E-06	-8.28496032257622E-06	-1.23041980996256E-06	-1.41919662557872E-05	0.993665413588044	-0.0690879245565928
3	0.796148338314615	-0.591176078951775	-3.35830739853066E-08	6.63321953849475E-06	-1.47515336432266E-05	5.24338150492056E-06	0.993698348194359	-0.0714919293511447
3.1	0.717308112555742	-0.685305901400462	-4.99971209565036E-06	7.78832197439056E-06	5.7955712189069E-06	-6.50556016626243E-08	0.993632422174233	-0.0732786004388557
3.2	0.625573421785144	-0.770287996258701	9.50203249288879E-07	2.12532225179895E-06	-4.55400502737413E-06	4.59691124451189E-07	0.993702165092303	-0.0749143515323132
3.3	0.524172429267728	-0.84312792502583	7.24564332709685E-07	-1.45445055373346E-06	-4.57787794781074E-06	7.10988912774756E-07	0.993898241372846	-0.0780660825586826
3.4	0.413888246035649	-0.902928734178489	6.46530564999247E-06	2.6458402048506E-07	-8.09855529562527E-06	-7.21429221064515E-06	0.994509263306408	-0.0802256775589544
3.5	0.295636113428127	-0.948217715319136	-7.70661445145329E-06	1.93531111470535E-06	-5.87565806337515E-06	-8.00386773579769E-06	0.994282588509796	-0.0838180760795497
3.6	0.173305219982582	-0.976896997888065	-8.41831340410343E-07	-4.38172636766427E-06	-7.79072825587305E-06	-6.35413717471826E-06	0.993578729661027	-0.0858485514303732
3.7	0.0490407093269397	-0.991580333090318	-6.68766931250996E-06	-6.79230599425624E-06	5.4549240700279E-07	-4.76015896417106E-06	0.993825432393293	-0.0881995232350754
3.8	-0.0768222635757039	-0.990126267937456	-3.64784558278491E-06	1.06922050238351E-06	-3.28737182485598E-06	-2.47809195950009E-06	0.993913014781878	-0.0902767404906493
3.9	-0.201002776620311	-0.972575467404095	-4.92049166256147E-07	3.50686962406944E-06	2.05820796143689E-06	-1.21232057921696E-06	0.994157089537405	-0.0940151719577386
4	-0.321812903936504	-0.939291528836614	1.16448692608678E-05	8.16146456527028E-06	7.27956825642043E-06	-4.01164391299564E-06	0.992557989034329	-0.0952805257301466
4.1	-0.436838339405292	-0.891953196363446	5.21524207411921E-06	1.34796283306962E-06	-3.49038722293376E-06	6.64083828999727E-06	0.993160029605992	-0.0956733301600248
4.2	-0.545462877578875	-0.83080056881556	-7.10274125364219E-06	-1.23346583973995E-06	-8.27731165099707E-06	-7.681301500402E-08	0.993670301772244	-0.098353095053861
4.3	-0.645731204728315	-0.755771204439237	7.12981339987697E-07	-2.36935819840187E-06	5.21858465391069E-06	9.026991541021E-07	0.994188652741843	-0.10064696477995
4.4	-0.735676824140593	-0.668245330347536	4.48790504812575E-06	-1.76089857365884E-06	-8.74946591791132E-07	1.34599276837409E-06	0.994035400529627	-0.103394772327661
4.5	-0.81385515193829	-0.570189277531296	6.79075207223759E-06	1.89728191596362E-06	-7.9350807449089E-07	-3.26664784285271E-06	0.994158931965779	-0.105342273296983
4.6	-0.87954236292922	-0.462978429861903	2.45081878642095E-06	2.96737869490651E-06	-6.63925805207145E-06	9.74579715669016E-06	0.99455465703111	-0.10841382704761
4.7	-0.930958218819919	-0.347548696540898	-1.41062021928099E-05	5.88215976897299E-06	-3.47052041333858E-06	-4.6704969581235E-08	0.994663345660674	-0.110876513292413
4.8	-0.967281531554282	-0.227224430384368	-3.15095021293618E-06	-5.16706306517346E-06	-5.54620744483934E-06	2.35140675826011E-06	0.994415322712148	-0.113576626419219
4.9	-0.987891292919587	-0.104186456163369	-9.90122924974361E-07	-8.57971713932557E-06	-4.23577229509956E-06	7.25296781112866E-07	0.994311978533041	-0.115559940265533
5	-0.994621475072828	0.0204755766987094	7.58642745527275E-06	-1.54702725969057E-06	-1.74852530507231E-06	-2.73931822454741E-06	0.994387917481654	-0.117489957493085
5.1	-0.983829047350025	0.147430208952701	-2.59183205675846E-06	-6.42800467519583E-06	-1.00676310700136E-06	-1.96415097057123E-06	0.994580990582028	-0.119112467960135
5.2	-0.957674569578304	0.270101351393869	4.0151858821215E-06	-4.26442740037107E-07	-5.47997209324949E-06	6.31763131216994E-06	0.994638129569585	-0.121625448017999
5.3	-0.916730571469795	0.388808786241103	5.14586102293467E-06	6.0480480237227E-06	-9.54949193505398E-07	-3.6047816445331E-06	0.994714334919555	-0.124239226580744
5.4	-0.860927956217831	0.501668241141003	3.08220605660545E-06	-2.0194333087513E-06	-1.13754933305638E-05	2.18503900651096E-06	0.995190149875621	-0.127572601314848
5.5	-0.790411263536369	0.606175755030399	-4.31252208396502E-07	-2.20595082783923E-06	-5.82508086199061E-06	6.14774758571518E-06	0.994736887762333	-0.13153640873218
5.6	-0.707510344799739	0.700182624576086	2.38091984468063E-06	7.3416091599933E-06	-5.44557521354447E-07	2.94223540545889E-06	0.99410446552343	-0.133975614895362
5.7	-0.614122971562069	0.783794920034307	-2.58778361551556E-06	2.36937687378686E-06	7.94749764035897E-06	2.80375569563336E-06	0.994168514513142	-0.136599719299828
5.8	-0.510592118715757	0.854838820847562	-4.67923931025754E-06	5.127784296662E-06	-3.71792214096791E-07	3.44097067315634E-06	0.9943275698116	-0.139356859716941
5.9	-0.398730299992141	0.912752803445229	6.3950671301554E-06	1.50772592657416E-06	-2.72735675641077E-06	2.56196311119403E-06	0.993963278375818	-0.142832463567803
6	-0.280743829873258	0.95478291387226	3.54205774756714E-06	3.31255252852844E-06	-3.30706324580665E-07	-1.44049087402803E-06	0.991744668663681	-0.144495000302764
6.1	-0.15929079552247	0.982795032903872	9.22200746291093E-06	1.53002850341466E-06	-1.28548397650592E-07	-1.81752375435294E-06	0.992670449051383	-0.144664796188786
6.2	-0.0336767060211792	0.995237925518723	2.4511036265999E-06	-1.74127461522898E-06	1.48408648691407E-06	-4.87232241153662E-06	0.99320909083547	-0.146849236773411
6.3	0.0926138113433159	0.991066192541833	-4.37533912872396E-06	4.2734370542943E-06	-6.21060118063653E-07	-1.73290003360354E-06	0.992872249866767	-0.149825269343153
6.4	0.21647564801062	0.970152831488846	-4.28028580980777E-06	1.08226610278935E-06	-1.75217319517551E-06	8.88289925149428E-06	0.991647092240946	-0.152647482429266
6.5	0.334812013603434	0.935700616489176	2.46110486732663E-06	-1.33718432171956E-06	1.49208914738335E-06	-2.94183659458525E-06	0.990970406698087	-0.154288499789982
6.6	0.450647605426199	0.887254726727208	-4.75964502730404E-06	-2.26242912864056E-06	-1.87903594191536E-06	-6.67062875735233E-06	0.991723769608945	-0.157469482564539
6.7	0.558678333758464	0.823136029813003	4.18122021882143E-06	-6.69543093732963E-07	-4.69634964863909E-06	1.02204396131337E-06	0.991225867301527	-0.160565956340365
6.8	0.657458695313489	0.746262385805072	3.77000682315267E-06	-2.09583680638107E-06	6.24013625430623E-06	-9.38531231364954E-07	0.990558151601789	-0.163306520463412
6.9	0.745715492308029	0.657582782958145	2.06114716533865E-06	1.64297173959832E-06	8.81426818203563E-06	-2.79063493292107E-06	0.989897118512976	-0.166105982790863
7	0.821449070403589	0.558477503897476	2.1943430388302E-06	4.10371102003207E-06	-7.54613154534103E-08	5.40221927673507E-06	0.988233419770441	-0.16803584504529
7.1	0.884437082072436	0.451841552638734	-1.28708074604528E-07	1.72250890729998E-06	8.26996965430394E-06	-4.68026904429528E-06	0.987823703619869	-0.169283824442026
7.2	0.933859346222172	0.337591822611111	4.85808070895116E-06	-1.40940762723914E-06	7.28681845827985E-06	3.77451035603856E-06	0.987371771676686	-0.171237129374109
7.3	0.968413439362248	0.217989542949846	4.87353542989954E-06	-1.12262975728385E-06	-7.3798727745894E-06	-7.38715749066164E-06	0.986627077505731	-0.173254811523711
7.4	0.988560282669078	0.0940395079854454	-1.82538021579967E-06	9.94101531964411E-06	1.43013339828408E-06	-4.08922925787922E-06	0.986443144492536	-0.176531365550649
7.5	0.991186277689201	-0.0332861137983938	8.48189188273614E-07	8.05913919551944E-07	1.68591443559227E-06	9.89389498416772E-07	0.984134699621824	-0.181329127480689
7.6	0.977122815017479	-0.157012971045793	1.44250978233282E-06	-2.62991298125331E-06	-5.4549364287304E-06	-3.60240077854862E-06	0.981787639161317	-0.183294607183052
7.7	0.949268974507865	-0.278685948913274	5.59715490626037E-06	2.37873839006198E-06	-6.76429687045147E-06	1.21115302431399E-05	0.981261594866375	-0.186185396871817
7.8	0.906544934066575	-0.396225637800511	-6.48159690997175E-07	-5.24613781138027E-06	3.70884268922222E-06	-4.76797609214073E-06	0.981027458182349	-0.189621787540155
7.9	0.84844181474	-0.507657296134216	8.86937128796076E-06	1.464527959145E-06	-9.60610899495325E-06	-8.57317072696772E-06	0.980098399171154	-0.193760507558466
8	0.775964146147681	-0.607777381653694	-6.65256848812253E-06	-1.57938533129333E-06	-1.19625342259343E-05	2.57474953688608E-06	0.976915009302641	-0.195761699914039
8.1	0.696131987707011	-0.699275355124029	5.06938836034592E-06	7.06802898901239E-07	2.89648604484697E-06	2.24459427100939E-06	0.977564117031315	-0.196450945479587
8.2	0.603742610050133	-0.781762494146708	3.55010030760863E-06	-2.5871648664593E-06	-3.72496198789301E-06	-1.15880689874057E-05	0.97798504104608	-0.198986660255642
8.3	0.500864060015352	-0.851711737502177	2.71804508181245E-06	-1.86761262808651E-06	1.65881259628381E-06	5.28148533106429E-06	0.977564181424016	-0.201948635157736
8.4	0.389645686808196	-0.908079541438554	-5.55395353724044E-06	-9.96609007143482E-07	1.0667731072835E-06	2.94546528644875E-06	0.97660685523933	-0.204855615987753
8.5	0.270986784820854	-0.949243792486134	-3.28139879275821E-06	1.63981577691117E-06	-4.81527013381872E-06	-4.98137683007436E-06	0.975769794905588	-0.207272603986256
8.6	0.149276876202238	-0.974409200940988	-8.12567702679985E-06	1.42853053262905E-06	-4.37445886984234E-06	-6.83273320941482E-06	0.975507154273372	-0.210239883633552
8.7	0.0254657065524928	-0.98495259249117	2.23120154145488E-07	-2.15488763218223E-07	6.11100820447754E-06	4.76402711003956E-07	0.974650603699456	-0.213102021734969
8.8	-0.0986752211010054	-0.979883982215576	1.01372086159799E-06	-1.81901902091732E-06	-2.39136111681305E-06	-1.26632159086041E-06	0.973747968018343	-0.215412554211391
8.9	-0.220461848188708	-0.960545920252797	-2.90337639130793E-07	3.02839417973922E-06	-1.23635393226172E-06	-1.63334655310883E-06	0.973225935401829	-0.217446702418119
9	-0.340512775925943	-0.926362413394802	2.97799299376446E-06	1.5788379436767E-06	-1.56850584435133E-06	2.11619253117519E-06	0.97253460564588	-0.219715418425918
9.1	-0.454467853758492	-0.875044123257036	-9.29661178810969E-06	2.29228885423868E-06	-1.55519488770644E-06	2.4122923830093E-06	0.97178308146769	-0.221578495822787
9.2	-0.560468830757606	-0.810618468561315	7.49623133180195E-06	-2.57102867566344E-07	-9.090927665718E-06	1.99522868266951E-06	0.971069974294691	-0.223857825409524
9.3	-0.65740177818823	-0.733839921639858	5.31536325479394E-08	-7.15596233540257E-06	1.58063347281063E-06	-1.30407002505859E-06	0.970669646915698	-0.226128847345079
9.4	-0.744702793636456	-0.645821266946262	6.08721359163053E-07	2.47935984136286E-06	1.60182467544739E-06	-3.60148662484426E-06	0.970298955721623	-0.229303050740007
9.5	-0.819624611563348	-0.544512613447431	-2.82592945012058E-06	6.65189617070746E-06	4.70803769964137E-06	-1.39551151147782E-06	0.968613213547775	-0.232852076817708
9.6	-0.878347675340806	-0.437022438394646	-5.03549480556517E-06	-5.15602273582943E-06	4.75973547108974E-06	2.84361767644156E-06	0.967310250837389	-0.235090219065678
9.7	-0.925577637229249	-0.323676704127083	-2.01890391227373E-06	-5.04246023506451E-06	2.08819498825116E-06	-2.23171493577554E-10	0.966674231974939	-0.237455045611025
9.8	-0.958969981540703	-0.204238057608576	5.6972775318413E-07	-4.26912101919549E-06	-2.94023431480193E-06	-2.49237940461272E-06	0.9661743618704	-0.239746532476778
9.9	-0.976944318164568	-0.0810972119865153	-6.06297794925027E-06	4.21832433095625E-06	-3.06074176533293E-06	1.67192515702549E-06	0.96471725213884	-0.242363009611473
10	-0.97958293195563	0.0433363531373387	3.55073828701134E-06	-5.634142909429E-08	8.22671154613989E-06	1.10032391105403E-05	0.961705789387026	-0.242137161689507
10.1	-0.965246900326912	0.166928169510525	-2.8506468849303E-06	-2.49905548965195E-06	-2.00662415190163E-06	-2.4771856374486E-06	0.96258357512589	-0.241573979060608
10.2	-0.935779709243046	0.287217290982874	2.34009021242157E-06	-1.02293426120545E-06	-2.75604279679917E-06	-1.05173615279493E-06	0.963019636925684	-0.242938600260693
10.3	-0.891494753836844	0.402652661974914	7.69516417242203E-06	-5.93696170269455E-06	3.86091338750259E-06	8.1696268396468E-06	0.962538005597061	-0.244851206438373
10.4	-0.833592689049819	0.510807108737836	1.69425544335645E-06	2.44928734749555E-07	6.22910897255937E-06	-1.1933919313994E-06	0.961110923575535	-0.246856026223476
10.5	-0.764957350250898	0.610907254211801	8.28789975072558E-06	-4.11387451237622E-06	-4.90143562103713E-07	1.95830260937706E-06	0.959832315587519	-0.248095461097499
10.6	-0.68253686914728	0.703289450436048	8.8784628541708E-06	-1.26274239018417E-06	-1.46504558926476E-06	1.35540621703924E-05	0.959766474920034	-0.250136104286476
10.7	-0.588444358309965	0.7832760703591	7.96328381607752E-06	-1.89059875694526E-06	-3.03351309876212E-06	-5.24610150345431E-06	0.958923474819742	-0.252255412308357
10.8	-0.484683770863065	0.850528426479108	2.43201160266392E-06	5.21254895656253E-06	-3.60280728682074E-06	-2.05119313633789E-07	0.95849282673448	-0.253692598548583
10.9	-0.373826772880727	0.904544967466156	-5.5222749593214E-06	4.764212900894E-07	1.5823711642707E-06	4.00333321314559E-06	0.95816576346476	-0.25524561525353
11	-0.256478770058155	0.945642023316234	6.7489911294097E-09	-5.19140263924568E-06	-8.33278152916849E-06	2.21288989525618E-06	0.957532781989077	-0.25623720690698
11.1	-0.133907804474917	0.969368240974203	6.26789557129961E-06	4.06434621021022E-06	-1.89423401885405E-06	1.06893785813354E-05	0.957712412544659	-0.25721150037801
11.2	-0.0116383475419675	0.97750150049901	1.56662425135805E-06	1.34689349507197E-06	5.09473990617425E-06	8.84486085372489E-06	0.957540199249788	-0.258839593701149
11.3	0.110264670689621	0.970589895031789	-4.56255309206928E-07	-1.72586176169199E-06	-6.86743214231176E-07	-4.3656224251144E-06	0.957741845931113	-0.260775062737044
11.4	0.230494713134834	0.949487608794819	1.95412340320392E-07	1.17825100327585E-05	2.39551608509652E-06	4.90221359183406E-06	0.957670362859071	-0.264177619542144
11.5	0.347901313781752	0.913827020815674	6.15654160432344E-06	-3.12529476397766E-07	3.17806112875875E-07	-1.86973756848587E-06	0.955208315752654	-0.267959792082974
11.6	0.458852672236113	0.863654355749231	-5.96706111530181E-06	3.03888631069157E-06	-4.83811052653794E-06	1.89243254353789E-06	0.953563429867206	-0.269940509274584
11.7	0.562612647301344	0.800770953541081	3.30759039138372E-06	-1.77339786910721E-06	-1.70050474100145E-06	2.21588762090973E-06	0.952991334435807	-0.273084238429105
11.8	0.658300792896303	0.725059463196867	-8.4796460140831E-07	9.72293893233839E-06	-2.73273173864461E-06	1.04558302985095E-05	0.952158546897344	-0.276833409445698
11.9	0.743617628443676	0.636528004391646	-7.24127787791221E-06	-1.05190315986913E-06	-3.9172897841391E-06	1.1157772204444E-05	0.950499176200724	-0.279965652929736
12	0.815124480005145	0.538312608365025	-6.44574853727358E-07	1.36726019349047E-06	-3.10132953072571E-06	-1.92108867826763E-06	0.947064303293142	-0.27961981401443
12.1	0.876362061026117	0.434005082664856	-3.87961162125402E-06	4.92380514080968E-06	-1.38163492939158E-06	8.34036356420433E-06	0.948162200399929	-0.278488891803922
12.2	0.924223856321121	0.321349722514076	-5.45003113272193E-07	-3.77694007002869E-06	-3.08775311805795E-06	-7.48947541473263E-07	0.949240162597802	-0.279889131170492
12.3	0.95755704359871	0.204202810819412	3.54777884145832E-06	3.44198263198982E-06	-3.46690326615201E-06	6.2020730421289E-06	0.949962170168521	-0.281903128517939
