# GHZ S RI R 50
0.2	-0.967528940467669	0.250605195550797	8.82970567418187E-06	5.33683843379387E-06	1.14112342059111E-06	-2.89247448466929E-06	1.00101756721871	-0.00622704315945197
0.3	-0.928811366844004	0.370472702426196	-7.67559932663147E-06	-8.29586944087058E-07	-1.88528759375908E-08	3.66629934791916E-06	1.00126690409369	-0.00918488479736445
0.4	-0.874983149726991	0.484716859812991	-2.21196860845843E-06	6.35340120084975E-06	2.92023550995882E-06	5.75509138244042E-06	1.00185274797267	-0.0118910024803575
0.5	-0.80680083465184	0.592234373434116	-2.65794674662266E-06	5.50508651463223E-07	1.05551270146296E-05	4.9023634282693E-06	1.00209998731265	-0.016349855345524
0.6	-0.724914826508363	0.688732287411509	-1.72952357738379E-06	-1.80926026750723E-08	4.1721381370429E-06	-1.03620884096451E-05	1.00081213107994	-0.0192090184410071
0.7	-0.632633518650003	0.774520359845965	-2.05258414987882E-06	9.9034655660425E-07	3.79028402155633E-06	1.11902032634024E-05	1.00055601753612	-0.0214307850355244
0.8	-0.529999310465715	0.848399860187851	-5.62295050089569E-06	3.79124258879529E-06	-3.17644947944867E-06	-2.14626404427655E-06	1.00067665147044	-0.0232648086147938
0.9	-0.418931412962383	0.908546455046089	-6.72796842358694E-07	5.26619376969978E-06	3.27658137524614E-06	-2.94376857356879E-07	1.00102587762652	-0.0252132632246305
1	-0.300646634688409	0.954281936538245	1.57486649772302E-05	-3.69121490161258E-06	-9.63600351782166E-06	5.22978227393067E-07	1.00233204227909	-0.0268526131933339
1.1	-0.178274059706672	0.984431961888666	1.34669323738892E-06	-2.99626500833792E-06	9.44506710637794E-06	1.26491747541508E-05	1.00204968044778	-0.0307356564850353
1.2	-0.052065768612673	0.99875708997594	-7.94580316558192E-06	-3.26062696700864E-06	-3.11710619143524E-06	-4.49237489751109E-06	1.00045517586892	-0.032456693199225
1.3	0.0751311298021247	0.996666625635715	1.87917080365343E-07	3.34511057839262E-06	1.93661833695745E-06	3.37190173756251E-07	0.999447695669545	-0.0340958525764467
1.4	0.200291825332349	0.978352805126446	3.54467841541828E-08	3.77660011035643E-06	-2.5530423256192E-06	-5.61998487519441E-06	0.998020797982447	-0.0362228402269685
1.5	0.322258629615684	0.9454246902517	3.19357956112576E-06	-2.78314175595503E-07	2.71589647134535E-06	2.09017207327843E-06	0.998911447158212	-0.0394844517397282
1.6	0.438597413458621	0.897113648373098	1.78446427961121E-06	-1.94993200072673E-06	-9.06664616872008E-07	-3.06678762483302E-06	0.99820881175422	-0.0428396132153304
1.7	0.547574841027105	0.834791724374095	-9.67803153453912E-08	-3.5322622797093E-06	2.02510041476401E-06	4.93092519702366E-06	0.999082992947221	-0.0447455179944704
1.8	0.64768696168161	0.759697855111265	-2.0669083885665E-06	-1.81255772435335E-06	-4.6008314173037E-06	1.8371305959736E-05	0.999410227031725	-0.0470745166434564
1.9	0.73720904625808	0.67344102333042	-4.40184524566896E-06	-1.46410772884699E-06	-4.94520373354736E-06	-6.00973954507095E-06	0.999945584507108	-0.0481902759123497
2	0.817932657362495	0.57722991306793	-9.54579638881951E-08	-6.77545832825859E-07	-1.67718536038436E-06	-1.42456527108672E-06	1.00302166133373	-0.0512374983884635
2.1	0.885027081124394	0.466414070911926	-1.11459273445058E-06	9.5041483012546E-06	2.00415194698613E-06	-3.89274530385967E-07	1.00207436121767	-0.0569464428807969
2.2	0.935296534629658	0.350810731878053	-4.70613494338837E-08	-5.95461261892242E-06	-7.2877996501654E-07	2.7519770727579E-06	1.00066382901364	-0.0595345577129423
2.3	0.971108248806339	0.230404017253381	-1.30880314656867E-06	2.7816473742624E-06	-2.21872741348695E-07	1.20190768093106E-05	0.999870369752995	-0.0612593974517419
2.4	0.991840180835034	0.105870217652089	-5.90982796984956E-06	-3.69414521323603E-06	-1.75883713276258E-05	1.46553907642144E-05	0.999610141095418	-0.0642491418486297
2.5	0.997740983768133	-0.0195846792473838	1.81009720371695E-06	-2.97814275242093E-06	-1.76153703243628E-06	7.57410155249952E-06	0.999515182675882	-0.0667281997547876
2.6	0.987340086949683	-0.144229122284577	2.8734432394613E-06	9.12298226579817E-07	-1.74144710814626E-06	4.52130691426373E-06	0.999116876154034	-0.0701128925506117
2.7	0.961389217404666	-0.267179258887009	3.87547860989739E-06	1.04716877347766E-05	2.3456894674654E-06	3.87480310042965E-06	0.998640077902839	-0.0734179665750632
2.8	0.919857513109176	-0.386284024154529	-8.26937680322441E-07	-2.29904947734671E-06	2.12142165268358E-07	-1.89693058842313E-06	0.998481062012852	-0.0759653231680483
2.9	0.863651989193448	-0.498407874213888	3.74019488429238E-06	-8.3704584079497E-06	-1.3514593199494E-06	-1.42771654724102E-05	0.997649844219147	-0.0783301440137179
3	0.794110085068205	-0.602717846484463	2.41033665395795E-08	6.67330453758843E-06	-1.47942675680168E-05	5.40357212440624E-06	0.997096547905973	-0.0810818862681866
3.1	0.712816064693186	-0.696811559469817	-4.95408745937915E-06	7.87880244244126E-06	5.82720404827745E-06	-1.20069009034623E-07	0.996057989989661	-0.0834791393594415
3.2	0.618370687291131	-0.780649731704874	9.76361032308008E-07	2.12511974389025E-06	-4.56979621201715E-06	5.08636525188581E-07	0.994992288243612	-0.0853065228243981
3.3	0.514417950583191	-0.851534266295926	7.10651724123441E-07	-1.46710385925214E-06	-4.58439068382362E-06	7.64208652697327E-07	0.993873191292161	-0.0886304985254085
3.4	0.402133936695542	-0.907396702190326	6.4725167663461E-06	1.88409844576479E-07	-8.18886003244393E-06	-7.12322600319798E-06	0.992607879780375	-0.0903901723106308
3.5	0.287474485469502	-0.949254807882075	-7.67696127850787E-06	1.99918829540209E-06	-5.93557616180251E-06	-7.9394165571483E-06	0.992171100255798	-0.0917363359439818
3.6	0.164416094350526	-0.980352902694669	-8.78595953373493E-07	-4.37765063089714E-06	-7.84836240073186E-06	-6.29393198441562E-06	0.992299841942482	-0.094677083584843
3.7	0.0378848642993302	-0.992881893108387	-6.75420238507875E-06	-6.729840269148E-06	5.0005495868011E-07	-4.76646273398091E-06	0.991429176444282	-0.0974488669206591
3.8	-0.0882771333617904	-0.988384946272592	-3.63433175351457E-06	1.10394207470353E-06	-3.30880207676459E-06	-2.44390258314969E-06	0.990443741094275	-0.0989350262110663
3.9	-0.211122892499433	-0.96817988320137	-4.60480429551917E-07	3.50702150399393E-06	2.04503611795696E-06	-1.2290528687122E-06	0.990624064894191	-0.100646999596056
4	-0.330475273585013	-0.934454432818155	1.17340870139043E-05	8.05260545694507E-06	7.24539131157231E-06	-4.08647714826308E-06	0.993329416799147	-0.102548612493533
4.1	-0.445502460484451	-0.885388190226582	5.2232385002011E-06	1.28300030379046E-06	-3.40486305878533E-06	6.67239271403723E-06	0.99167945237367	-0.107342563351258
4.2	-0.552621557157831	-0.822454991063853	-7.09286003350822E-06	-1.14795262026617E-06	-8.25021379417816E-06	1.82424388071924E-08	0.989509253580902	-0.109751624886343
4.3	-0.651083765732729	-0.746343986975384	6.84350069699336E-07	-2.36694490531098E-06	5.20605881771865E-06	8.42487701932373E-07	0.988727593244828	-0.111350510496554
4.4	-0.739483687595371	-0.658157464632931	4.44897899029959E-06	-1.79961891470081E-06	-8.56903769171859E-07	1.34894640009815E-06	0.988036562691953	-0.113547965796386
4.5	-0.815891242119605	-0.558625727273177	6.77548206879222E-06	1.80951486716367E-06	-8.26454124060183E-07	-3.23984175012396E-06	0.987434598400063	-0.116553604803805
4.6	-0.878513500168392	-0.451451685199974	2.46414942997712E-06	2.91927566808707E-06	-6.48632369524626E-06	9.74394961220032E-06	0.985230854253849	-0.118960744600942
4.7	-0.927914608116784	-0.336696734800753	-1.39357476866687E-05	5.97288370760726E-06	-3.44318089299164E-06	-1.24196408102565E-08	0.984466860564209	-0.120194633684261
4.8	-0.962642587304481	-0.216718293558023	-3.17347846428939E-06	-5.09374033423154E-06	-5.47728212741202E-06	2.3842523094226E-06	0.983625408675021	-0.122111082326414
4.9	-0.981179309245345	-0.0927312648213908	-1.06679210192621E-06	-8.49109124956386E-06	-4.18965444322983E-06	7.60978079319359E-07	0.982782375544949	-0.123366215533121
5	-0.981066707771209	0.030049648534818	7.47911796152466E-06	-1.5989048999799E-06	-1.75269099782607E-06	-2.68946343044378E-06	0.982260337096392	-0.124462469798266
5.1	-0.970598650725757	0.15052284560871	-2.60233935031517E-06	-6.33244722886775E-06	-1.00734888698958E-06	-1.93354281560755E-06	0.981773411368345	-0.125286575840973
5.2	-0.945321426541287	0.2714300195748	3.96478817155555E-06	-4.45451646964603E-07	-5.37677690901425E-06	6.27523749960022E-06	0.981346909432777	-0.126857788152
5.3	-0.904079207988149	0.388211918757674	5.11644920294139E-06	5.94456427202025E-06	-9.63451587158146E-07	-3.55498088272176E-06	0.980919544231734	-0.128820621118763
5.4	-0.848148797766962	0.498477085379222	3.03116153599445E-06	-2.00780289654534E-06	-1.12131889506079E-05	2.21226850542659E-06	0.98012990714044	-0.131164720314731
5.5	-0.778662876309573	0.599886332623729	-4.31655743474416E-07	-2.17468602517023E-06	-5.72827213129392E-06	6.08060714489401E-06	0.980039728724324	-0.132458088550452
5.6	-0.697596628092283	0.692072423160747	2.36872608563231E-06	7.24169057841992E-06	-5.30257307257344E-07	2.90592503772815E-06	0.980125155512734	-0.135196268457149
5.7	-0.605788210430108	0.774073806219158	-2.54848028499352E-06	2.34336283017597E-06	7.8479217678061E-06	2.74989371161369E-06	0.979267100935379	-0.13703509028208
5.8	-0.504266775381459	0.843347358371011	-4.60960469124209E-06	5.06063434787425E-06	-3.63561258506969E-07	3.39344800278666E-06	0.978926126231281	-0.137969961108205
5.9	-0.395920330642264	0.900078138981383	6.30404881182601E-06	1.49913290695381E-06	-2.69464777517525E-06	2.52145290041383E-06	0.979672888933786	-0.138004334803809
6	-0.280173094893826	0.9451809810818	3.50149492373846E-06	3.29255855814203E-06	-3.23862719373213E-07	-1.42852813656853E-06	0.98391733638341	-0.140593755353614
6.1	-0.157305964515596	0.971781237518708	9.13386448163236E-06	1.5054385960415E-06	-1.29208862079179E-07	-1.7996997083548E-06	0.982212299386658	-0.145605476800584
6.2	-0.0342272951920019	0.982387015867219	2.42170864670674E-06	-1.72243941926487E-06	1.46416927452803E-06	-4.81663584529564E-06	0.980096158525884	-0.146694381255177
6.3	0.0886090675830671	0.978447578640297	-4.32608922896255E-06	4.21891585197271E-06	-6.12312938275735E-07	-1.7125896691742E-06	0.978959659373605	-0.147784763273669
6.4	0.210456034902066	0.960751978659592	-4.23640221507797E-06	1.06530515726843E-06	-1.74507876832817E-06	8.78667810467766E-06	0.978930893996729	-0.148928043751661
6.5	0.332553950910913	0.925356240714555	2.42918222273777E-06	-1.327812584935E-06	1.46740519422402E-06	-2.91140811654863E-06	0.978407545673418	-0.153449254222129
6.6	0.442511422476607	0.873584156079929	-4.68203280291104E-06	-2.22744532786314E-06	-1.84650658566735E-06	-6.56350673713702E-06	0.975201073803262	-0.153965007920403
6.7	0.546397681391022	0.812490660084946	4.11639106907183E-06	-6.44030037793944E-07	-4.62448624907434E-06	9.89048610386828E-07	0.975442117026432	-0.153788068216785
6.8	0.642988586182006	0.73878796671045	3.72282447206884E-06	-2.04213423182193E-06	6.14795298415853E-06	-8.89143416031489E-07	0.975887270352749	-0.154657560842635
6.9	0.72977736266791	0.653845176669821	2.01678583840663E-06	1.63414546230419E-06	8.70183829342768E-06	-2.67869813048023E-06	0.976625469677096	-0.155287812419258
7	0.806555860291679	0.558493328259862	2.12551254637916E-06	4.07517073866698E-06	-1.29366668357699E-07	5.3345581448833E-06	0.978548986417701	-0.157281265645748
7.1	0.869766859814924	0.453177618690939	-1.4236954879298E-07	1.70229049648842E-06	8.21930731348259E-06	-4.55595721664869E-06	0.977284727279139	-0.160144608076389
7.2	0.918919712210578	0.341347849624541	4.81453408787337E-06	-1.35061450059478E-06	7.16989434955372E-06	3.79494104504399E-06	0.976035411689639	-0.16112229110526
7.3	0.953380352626094	0.224190302772008	4.82408471761088E-06	-1.06548579726008E-06	-7.22397925265752E-06	-7.36282284613094E-06	0.974556138634864	-0.162018214824144
7.4	0.972044203467404	0.104168565492809	-1.89470818349949E-06	9.77033721460952E-06	1.44821091557837E-06	-4.01236670650138E-06	0.972277764583231	-0.162046782453111
7.5	0.979055815663263	-0.0141558226387477	8.19708245336783E-07	8.07996899573437E-07	1.64036434427786E-06	1.00358731306404E-06	0.974547673088725	-0.159587708770961
7.6	0.972680849240743	-0.139003601629567	1.4805996189756E-06	-2.57655150984476E-06	-5.33223721764029E-06	-3.67561348369129E-06	0.977648850501887	-0.164581155564293
7.7	0.947594016081847	-0.261184247228478	5.5095449677502E-06	2.46738765221666E-06	-6.94390346135678E-06	1.18911498402499E-05	0.977493890892386	-0.16842134208367
7.8	0.907873183371973	-0.378107686648467	-5.40289522226282E-07	-5.22558297925496E-06	3.77954017593665E-06	-4.66429949888388E-06	0.977780222480956	-0.171017827942036
7.9	0.855169828308733	-0.488287180206634	8.80027844688602E-06	1.65675847112214E-06	-9.37511460704248E-06	-8.75272576144046E-06	0.979400885811505	-0.172454862201126
8	0.791722767983653	-0.595560204036494	-6.64893920772888E-06	-1.73204205876704E-06	-1.20742953433379E-05	2.32537338258063E-06	0.984633669359169	-0.1772360425723
8.1	0.707353275803931	-0.693117651620981	5.08109287292188E-06	7.84697811203715E-07	2.87600975959054E-06	2.29713830338344E-06	0.982443064510164	-0.184091279586175
8.2	0.614228684094403	-0.775434283449896	3.59473001328938E-06	-2.5441247979187E-06	-3.57295491343052E-06	-1.16681307717191E-05	0.980954711394831	-0.186129102212755
8.3	0.51226153569294	-0.846101969326718	2.74981130404936E-06	-1.83412294135615E-06	1.58942736613401E-06	5.31597380204679E-06	0.980599809480312	-0.188337266880361
8.4	0.402145618751368	-0.903210163930149	-5.55233484256972E-06	-1.070658347E-06	1.03074920830434E-06	2.96529400429544E-06	0.980734668352237	-0.190859682249779
8.5	0.286643446983138	-0.946487352072079	-3.30393856243964E-06	1.59422892924214E-06	-4.74592942886222E-06	-5.04783814830575E-06	0.980673054016049	-0.194680621516729
8.6	0.164847083399951	-0.976322221686153	-8.16420931891962E-06	1.29965147816423E-06	-4.27210037379837E-06	-6.91652127492403E-06	0.979766490915424	-0.197184180653171
8.7	0.0397460353952141	-0.989931033757092	2.27487660422586E-07	-2.1281192041978E-07	6.12864665130162E-06	5.76078992230639E-07	0.979988017706327	-0.199446181564282
8.8	-0.0865932774379252	-0.987550478862028	1.04736582612456E-06	-1.81479096275029E-06	-2.38680485756147E-06	-1.31014848477758E-06	0.980364563337808	-0.201840663413664
8.9	-0.212178679364937	-0.968453442371212	-3.30866672135805E-07	3.04779883740424E-06	-1.2251098964092E-06	-1.66143646539547E-06	0.98091616130086	-0.204201852343221
9	-0.32978985754199	-0.931235617653552	2.97471495372598E-06	1.61924303706558E-06	-1.59934189167701E-06	2.10893010056338E-06	0.981413560042938	-0.206561587509218
9.1	-0.442512116780948	-0.885619805757771	-9.37693840506787E-06	2.1784707405294E-06	-1.59612230785615E-06	2.40400382233963E-06	0.981985481553531	-0.209204499091567
9.2	-0.551232486980768	-0.824211536409359	7.54961301566376E-06	-1.56844871370126E-07	-9.17856459633791E-06	1.88484505230508E-06	0.981990483274238	-0.212496377786473
9.3	-0.650815931334537	-0.748914300687355	1.48272069695431E-07	-7.20622713001619E-06	1.60915653106155E-06	-1.29243183216583E-06	0.981544483966268	-0.21573540075709
9.4	-0.738922223008246	-0.660844647458777	5.79170014446532E-07	2.50242972724744E-06	1.65970630096294E-06	-3.60169475493913E-06	0.980242164618954	-0.218497023073336
9.5	-0.814473549500895	-0.566615150387103	-2.96643280506869E-06	6.65133226530517E-06	4.76850005310537E-06	-1.32163487978663E-06	0.980965477485377	-0.219994344040542
9.6	-0.883078593598232	-0.459884793324462	-5.01480047026633E-06	-5.30124075344629E-06	4.77292453266107E-06	2.95569195921611E-06	0.981612865653745	-0.224837600611659
9.7	-0.934844587740348	-0.343265622761846	-1.97472668797309E-06	-5.13758797604343E-06	2.11583710718267E-06	2.91347622203369E-08	0.980841142834405	-0.228264473532768
9.8	-0.971466035137349	-0.221124952585284	6.34555573912055E-07	-4.32006663518258E-06	-2.94727646530116E-06	-2.56583075009526E-06	0.980424423382061	-0.230307378850704
9.9	-0.992293768194006	-0.0948627153824018	-6.21379779325958E-06	4.19823829741182E-06	-3.1305214867801E-06	1.6548259425961E-06	0.981237768203242	-0.230687465705863
10	-0.996228860999975	0.0324830344346844	3.62011108312736E-06	-1.59048724500753E-08	8.25722887154235E-06	1.13123874197745E-05	0.985815739112285	-0.235083409575323
10.1	-0.984258719099682	0.158760836193328	-2.88381223988128E-06	-2.56894043173829E-06	-2.02415731924069E-06	-2.53982868027356E-06	0.982752424795896	-0.2407262352143
10.2	-0.956635990097319	0.28294967618567	2.39067655257635E-06	-1.02508234951854E-06	-2.7994577002489E-06	-1.09092004880529E-06	0.981079281331079	-0.242177502704229
10.3	-0.913768115768309	0.402949606492817	7.88072527005926E-06	-6.00277452669706E-06	3.88376739205309E-06	8.35124098446296E-06	0.980364304491215	-0.244170017041617
10.4	-0.856570812292964	0.518226712162482	1.72915629187428E-06	2.57451864444823E-07	6.36647800930414E-06	-1.19179127303042E-06	0.98006404671942	-0.246899426109366
10.5	-0.779710025104439	0.625600562644419	8.4484825866911E-06	-4.20502857547328E-06	-4.97740173072769E-07	1.99786593301448E-06	0.978789736335299	-0.251811385396621
10.6	-0.693050292773389	0.715011728685295	9.02529811572519E-06	-1.28532596469566E-06	-1.48677052778567E-06	1.37788609063026E-05	0.97658278575432	-0.254096882781463
10.7	-0.598003274916706	0.79559367780489	8.10072317230018E-06	-1.92190823561108E-06	-3.08493225519011E-06	-5.3369253526421E-06	0.976092208343414	-0.256910355887321
10.8	-0.492461721209001	0.864788534502751	2.48101891531905E-06	5.30348758820655E-06	-3.66761691385511E-06	-2.05063128113089E-07	0.975376413504187	-0.259808675714932
10.9	-0.377100830795129	0.920473348885166	-5.61659265124198E-06	5.00960037313502E-07	1.62160219616967E-06	4.06806129046068E-06	0.974760395932417	-0.262255417712304
11	-0.255972766975505	0.957534172174556	-4.06278232539945E-09	-5.27322995490822E-06	-8.45944676554614E-06	2.26528842163662E-06	0.97452254296476	-0.264391707617717
11.1	-0.134527216005079	0.982009944950775	6.39059321532612E-06	4.12061419604965E-06	-1.9001345010871E-06	1.08854505213409E-05	0.973712755552619	-0.267074104079295
11.2	-0.00946604861923429	0.991246579974544	1.60157288108419E-06	1.36370810870891E-06	5.23007764859731E-06	8.98050047818806E-06	0.972404503881985	-0.269725023606139
11.3	0.11561726664219	0.984064159403662	-4.76522032441782E-07	-1.75233810877419E-06	-7.29950882302278E-07	-4.43595333482083E-06	0.97055443198152	-0.272291801882924
11.4	0.238416381107794	0.961864643186528	3.05101016755589E-07	1.19545782421192E-05	2.47529697565897E-06	4.95282626227201E-06	0.967690542161584	-0.274586735735473
11.5	0.358494030871351	0.924614367300879	6.23394982821374E-06	-3.56637878446443E-07	3.09736080001016E-07	-1.89593297455092E-06	0.968401782833266	-0.275461021251958
11.6	0.471325785557421	0.871861343826409	-6.03528633154068E-06	3.12722634091948E-06	-4.89750368327971E-06	1.95544872375986E-06	0.967835799140571	-0.281579717279372
11.7	0.576109782878413	0.806720761554144	3.34068819302971E-06	-1.82887492101566E-06	-1.70596578032322E-06	2.26365514484296E-06	0.965355695852884	-0.286128151613017
11.8	0.672080062772472	0.729217986674444	-7.69103595152342E-07	9.86355939830072E-06	-2.67278380490414E-06	1.06239868598584E-05	0.963132102113054	-0.289417251771548
11.9	0.758598329061035	0.641867885032972	-7.3531438202414E-06	-1.0142292311504E-06	-3.89228332016283E-06	1.13468893800406E-05	0.963281967706041	-0.290141341157514
12	0.839436918148968	0.54134442371322	-6.4490537354318E-07	1.40248985682221E-06	-3.18571137518024E-06	-1.93155774876131E-06	0.966548622477666	-0.295518829318629
12.1	0.900285015013651	0.425603160738878	-3.87005488466286E-06	5.07900747520045E-06	-1.26941270634522E-06	8.51751703610639E-06	0.961839552600657	-0.300601216550128
12.2	0.944283960861713	0.307580488082188	-6.21789749950147E-07	-3.8272535802114E-06	-3.1504259010532E-06	-7.0519277382557E-07	0.95924126763369	-0.302374353184179
12.3	0.97418843944313	0.186828282933487	3.66725983486897E-06	3.42341417338566E-06	-3.39687090489919E-06	6.36114573294402E-06	0.957655141991403	-0.304613000040548
