# GHZ S RI R 50
0.2	-0.965700387204779	0.251645431032954	8.81991633683688E-06	5.31664237688943E-06	1.13561529443531E-06	-2.88854851073562E-06	0.999041709894424	-0.00711166150104751
0.3	-0.926128679363504	0.371469196259438	-7.65770815983846E-06	-8.17475535605959E-07	-1.40009445965721E-08	3.6572588633745E-06	0.99883538910698	-0.00992532161967367
0.4	-0.871234679850233	0.485142007686875	-2.19594100608242E-06	6.33446781451187E-06	2.9178096052647E-06	5.73141875228124E-06	0.998684519465957	-0.0124943921381212
0.5	-0.802775197284043	0.590815984507602	-2.64615103327246E-06	5.47861382522708E-07	1.0507762278721E-05	4.8813098422634E-06	0.998348419224102	-0.0152526048370892
0.6	-0.721821474226467	0.687039105771092	-1.72382263125871E-06	-1.9010770617192E-08	4.16426807247646E-06	-1.03256351215463E-05	0.998962109654021	-0.018027616822549
0.7	-0.629351976987026	0.772456373218955	-2.04564982640714E-06	9.86952066608946E-07	3.77722826749731E-06	1.11523679675335E-05	0.998728027512706	-0.0213812400700698
0.8	-0.526823470795396	0.845510486034622	-5.60119234922135E-06	3.77732306737911E-06	-3.16455173090791E-06	-2.13780027915276E-06	0.998365587692889	-0.0238128453725328
0.9	-0.416225956067741	0.904859989173813	-6.69052426817637E-07	5.24471743261553E-06	3.2630856782279E-06	-2.93781908249312E-07	0.998068257724588	-0.0264272001266925
1	-0.298643811682073	0.949871399774002	1.56652893240829E-05	-3.68001753236594E-06	-9.58586084444024E-06	5.25110842343648E-07	0.997162783376332	-0.0280917132566942
1.1	-0.177478550793067	0.979556829855492	1.3423122712181E-06	-2.9765930369491E-06	9.37264662185385E-06	1.25848665082724E-05	0.996846729645732	-0.0292191083273825
1.2	-0.0526836377445219	0.993944358098106	-7.89363913943376E-06	-3.26535999471211E-06	-3.08759544504818E-06	-4.47684928303987E-06	0.996748275235131	-0.0297711435730532
1.3	0.0728657728011993	0.992463844276593	1.71605764305048E-07	3.33085650076798E-06	1.92630465834451E-06	3.44617235468559E-07	0.997466276023097	-0.0302124991195448
1.4	0.196931205378386	0.975149597877466	1.2685627188374E-08	3.76439181732369E-06	-2.51094809163102E-06	-5.61680944507414E-06	0.997914290034238	-0.0319680674548947
1.5	0.317956675182931	0.942490393514785	3.18526614026344E-06	-2.57916182125495E-07	2.69460038249612E-06	2.10022203599857E-06	0.998643691573796	-0.0355396737309977
1.6	0.433827517641054	0.89523001659023	1.79179790933866E-06	-1.93377692826536E-06	-8.85343489523389E-07	-3.06430125931888E-06	0.998423390081534	-0.0392819163339104
1.7	0.542813231059003	0.833273796368532	-7.797302653088E-08	-3.52387922837471E-06	1.99408839494664E-06	4.92915553704939E-06	0.99861722744068	-0.0424234957310889
1.8	0.642901943040409	0.758547882731818	-2.05370120650407E-06	-1.8172115036738E-06	-4.67092288082748E-06	1.83050235757512E-05	0.998217284743782	-0.0455273759421975
1.9	0.732853497834055	0.671885304174379	-4.3876206815455E-06	-1.4725345153218E-06	-4.9174753653264E-06	-6.00900884425481E-06	0.997893268998508	-0.0482749752438438
2	0.810586509942655	0.573988534468896	-9.43728868912035E-08	-6.73516201945779E-07	-1.66596698685581E-06	-1.41719827127297E-06	0.996225229460119	-0.0514511763895126
2.1	0.875557915280812	0.467725898775018	-1.15119984307931E-06	9.43023836284349E-06	1.99150013782837E-06	-3.77044178246755E-07	0.995793082691483	-0.0524502661437596
2.2	0.927329667804673	0.354544619138358	-1.33282915454379E-08	-5.92126044490935E-06	-7.40132892332056E-07	2.73234478320238E-06	0.996396392802341	-0.0547000348672703
2.3	0.964407658900003	0.235358959165888	-1.31819249521505E-06	2.76036543753961E-06	-2.89412061771802E-07	1.19581500365832E-05	0.996385174208137	-0.0567024103790273
2.4	0.986244271191608	0.111450990022974	-5.85987291280254E-06	-3.71387726719036E-06	-1.75987282235038E-05	1.4479259462636E-05	0.99645906557303	-0.0599404550603305
2.5	0.992331414973873	-0.0134595128699907	1.82400193699333E-06	-2.95808140433896E-06	-1.80499044946609E-06	7.54126716890099E-06	0.99611386621942	-0.0622503693768359
2.6	0.982503331729116	-0.136900334452584	2.86096715826372E-06	9.22512892858537E-07	-1.75662658500453E-06	4.50030483452126E-06	0.996190457587112	-0.0651894849649128
2.7	0.957123063712745	-0.258615379335785	3.81395355851653E-06	1.04435888299773E-05	2.31902845628575E-06	3.86832055049577E-06	0.995695503586869	-0.0682705019433801
2.8	0.91695734182868	-0.376153263333364	-8.11266214403294E-07	-2.29154425008823E-06	2.20545392213254E-07	-1.88626947855143E-06	0.995759828417715	-0.0701319525551034
2.9	0.863040304620313	-0.487533377927956	3.7701711721659E-06	-8.30572333865545E-06	-1.26080345799893E-06	-1.42120972350378E-05	0.995570916981847	-0.0720344649165423
3	0.795348870484495	-0.592221080175154	-1.88876042569692E-08	6.64336954550388E-06	-1.47622833866949E-05	5.28414030738794E-06	0.995632306442802	-0.0744314843315467
3.1	0.715845127969226	-0.686238800823511	-4.98709596489249E-06	7.81158666265129E-06	5.80340017149981E-06	-7.96638436379146E-08	0.995625416357548	-0.0764203925991318
3.2	0.623721247423715	-0.770834178507967	9.56982907070533E-07	2.12519732078647E-06	-4.55796262873247E-06	4.72421730489171E-07	0.995593794702485	-0.0782720967518397
3.3	0.522090797698181	-0.843217469851057	7.21181888258314E-07	-1.45772922556881E-06	-4.57993220560408E-06	7.24261250613227E-07	0.995573423275205	-0.0815343663084636
3.4	0.411886376694113	-0.902445553016717	6.46921637609654E-06	2.47928164497068E-07	-8.1213259663542E-06	-7.19686070600794E-06	0.995984690470678	-0.083490484183984
3.5	0.293916019294878	-0.947869307237694	-7.70856597055997E-06	1.95274949977388E-06	-5.89675622159176E-06	-7.99789743756468E-06	0.99629307535682	-0.0869338272942646
3.6	0.171036146183102	-0.976045585327744	-8.53771340940358E-07	-4.38383132848864E-06	-7.81440391300525E-06	-6.34050894363622E-06	0.995631548150798	-0.089673327057982
3.7	0.0471682925051906	-0.990062283912643	-6.7104227414827E-06	-6.77885094480992E-06	5.33046337949498E-07	-4.76481111656427E-06	0.995477766360341	-0.0923624529174374
3.8	-0.0781158378935163	-0.988508602663126	-3.64670185345207E-06	1.07952588231465E-06	-3.29558602030255E-06	-2.47043563324398E-06	0.995146869567609	-0.0945501091020681
3.9	-0.202023422791692	-0.97148666162775	-4.82548024385005E-07	3.51009205213225E-06	2.05592100460816E-06	-1.21868997668271E-06	0.995147737938829	-0.0982555485988684
4	-0.323905973726154	-0.938577031440983	1.16769619123539E-05	8.12244040639736E-06	7.26734459338875E-06	-4.03852788380629E-06	0.993298635299926	-0.0999852635322554
4.1	-0.439472177511356	-0.890001987959705	5.21707856397025E-06	1.32911346281207E-06	-3.4654175010436E-06	6.64933821683686E-06	0.993178012020543	-0.100192053843716
4.2	-0.547711983489731	-0.828010320388039	-7.10106228679197E-06	-1.20917809355678E-06	-8.27089280480711E-06	-4.96053811678247E-08	0.993465940119251	-0.102724402366266
4.3	-0.647444672204567	-0.752566870149915	7.04897400055682E-07	-2.36929121119349E-06	5.2163534849219E-06	8.85539902990376E-07	0.993696683281768	-0.104932297894069
4.4	-0.736885793584617	-0.664971656185214	4.47832708233933E-06	-1.77211794458942E-06	-8.70179458375407E-07	1.34717793518214E-06	0.993319775943803	-0.107454049798058
4.5	-0.814969566430771	-0.567102074042771	6.78988700843765E-06	1.87772945910612E-06	-8.01438896262412E-07	-3.26173117153966E-06	0.993331705428634	-0.109087508097325
4.6	-0.880906569950258	-0.459466828735008	2.457647185788E-06	2.95964004683026E-06	-6.61065499185398E-06	9.75928283970816E-06	0.994035518130932	-0.111951261779327
4.7	-0.931993337399562	-0.343308487451896	-1.4084791416628E-05	5.92281338890853E-06	-3.46972580758649E-06	-3.63008080910154E-08	0.994269399101555	-0.114633277265454
4.8	-0.967586368491611	-0.222382373428105	-3.16716499526348E-06	-5.15469220409778E-06	-5.53638361294369E-06	2.36917236791272E-06	0.993890284362774	-0.117553591438451
4.9	-0.987035350132793	-0.0990383526379263	-1.02116985730428E-06	-8.56970826637314E-06	-4.2299550574712E-06	7.40449741380559E-07	0.993436328257487	-0.119613363132322
5	-0.992923495191214	0.0250532258845469	7.57119190080001E-06	-1.57205682497701E-06	-1.75603734303507E-06	-2.72957997380306E-06	0.99327282684785	-0.121271918262134
5.1	-0.981413771398621	0.152404508035705	-2.61127907600538E-06	-6.40890514725116E-06	-1.01238176919887E-06	-1.95753456762918E-06	0.993502518608986	-0.122875645849965
5.2	-0.953727107175335	0.274527058134193	4.00530566567585E-06	-4.40089057966205E-07	-5.44572912565363E-06	6.32434695180579E-06	0.993247224029715	-0.125507133449389
5.3	-0.911910877585016	0.391939119945531	5.15224630279469E-06	6.01481257583905E-06	-9.64387095573625E-07	-3.59199437540185E-06	0.992729457578331	-0.127961932539781
5.4	-0.856080467792271	0.503399318009996	3.06736799224385E-06	-2.0213996173139E-06	-1.13347076326517E-05	2.20849946801364E-06	0.992692961129838	-0.130542484363649
5.5	-0.786387472174852	0.607428680285566	-4.34813294077019E-07	-2.19926816074045E-06	-5.79678883784481E-06	6.14405813758376E-06	0.992700587452512	-0.13383144445863
5.6	-0.70297563224081	0.701772463741719	2.39329815715863E-06	7.31599515892243E-06	-5.356069700069E-07	2.93579115451931E-06	0.992117023938651	-0.136387192952069
5.7	-0.608637027506554	0.784598079998688	-2.5734090983385E-06	2.36849337644279E-06	7.92936793462477E-06	2.77429529359396E-06	0.991992103200998	-0.138914635916512
5.8	-0.504612659869974	0.854200395921956	-4.6494431839527E-06	5.11969557204512E-06	-3.6218929935688E-07	3.42894024649753E-06	0.991897649115917	-0.141531521495385
5.9	-0.392895557163835	0.91040129136433	6.37102929147907E-06	1.48820493628697E-06	-2.71052775439322E-06	2.55669078590925E-06	0.991329153702051	-0.144842717311935
6	-0.27558257643055	0.950550098040127	3.53061848772867E-06	3.28873760370606E-06	-3.31872931865486E-07	-1.43252422117312E-06	0.988287059661573	-0.146751358635247
6.1	-0.156192923482841	0.977152198156412	9.16747287644624E-06	1.51533684857721E-06	-1.2885803211017E-07	-1.80651961602592E-06	0.98831537342426	-0.145542066571941
6.2	-0.0325983082899141	0.989506426954642	2.43785063400588E-06	-1.72958807743543E-06	1.47841367378649E-06	-4.84293207502722E-06	0.989023328492764	-0.146657470211237
6.3	0.0921890910346444	0.985982026038516	-4.3579197411782E-06	4.24447434605435E-06	-6.15317671644001E-07	-1.72450332284441E-06	0.989111280796345	-0.148847638752337
6.4	0.215497842497418	0.965890777157015	-4.26176678392827E-06	1.07040041502649E-06	-1.75790492253148E-06	8.83816003444572E-06	0.988535261907194	-0.151421859832072
6.5	0.332971890204576	0.931366378501472	2.4518990442924E-06	-1.32609932941972E-06	1.49057498931529E-06	-2.92493478914048E-06	0.987899908899835	-0.152883276477498
6.6	0.448145259026621	0.884284503719942	-4.73676315844753E-06	-2.26542245641175E-06	-1.8562695496156E-06	-6.65056328315629E-06	0.989667515577339	-0.155846006350041
6.7	0.556246365577993	0.820600003683916	4.16981289455137E-06	-6.59440990749969E-07	-4.68405797948391E-06	1.00987717978164E-06	0.98947774358918	-0.15965806548271
6.8	0.654684775653614	0.744030157920133	3.7625850811297E-06	-2.08392779078935E-06	6.22386093274745E-06	-9.26019582957331E-07	0.988547130857523	-0.162728048828165
6.9	0.742577654037521	0.655845075300201	2.05302197717732E-06	1.64126502627291E-06	8.79341321336085E-06	-2.77030881114262E-06	0.987634967700976	-0.165485764529688
7	0.817966199786851	0.557158978144838	2.18316710482376E-06	4.09469204416162E-06	-8.17508501891574E-08	5.38677783013174E-06	0.985588018748974	-0.167293932429672
7.1	0.880553202523476	0.451305969369908	-1.30768518305684E-07	1.71694520863299E-06	8.2508317642216E-06	-4.65382934638607E-06	0.985202346822439	-0.167808969713176
7.2	0.929848594439042	0.337832015088147	4.84542734606014E-06	-1.39662613501591E-06	7.25765350849706E-06	3.77538948135064E-06	0.985087193518456	-0.169495797827869
7.3	0.964234563614143	0.219159696742433	4.86021238798034E-06	-1.10886318207348E-06	-7.34075653480517E-06	-7.37879869430389E-06	0.98447216481298	-0.171243937780813
7.4	0.984580730902851	0.0968205055049465	-1.84978458469984E-06	9.90196559040669E-06	1.43788710706852E-06	-4.07107906635768E-06	0.984654634745733	-0.173798929971371
7.5	0.989130766517318	-0.0297769628868218	8.43439664567401E-07	8.07771932629537E-07	1.67889173544904E-06	9.94215089321148E-07	0.983665238300193	-0.178991110260944
7.6	0.975415235645013	-0.153774482127234	1.44896668523257E-06	-2.62121852784486E-06	-5.43489969468932E-06	-3.61487429920342E-06	0.980796561609609	-0.181515135422932
7.7	0.948215118898753	-0.275047490872986	5.58069214586583E-06	2.3944873347223E-06	-6.79598494474063E-06	1.20703410814664E-05	0.980183627968769	-0.18415524304482
7.8	0.906308624496341	-0.392680782263985	-6.29636438462511E-07	-5.24232994375418E-06	3.72075820588658E-06	-4.74994781829037E-06	0.980016103129926	-0.18750158204589
7.9	0.849077105589694	-0.505014049545186	8.86076300305016E-06	1.48905625226235E-06	-9.57688592582568E-06	-8.59624103884745E-06	0.979468352946002	-0.191923815507288
8	0.775133053248585	-0.607235854111802	-6.64642458883748E-06	-1.58245393914413E-06	-1.19549746420127E-05	2.56505902058677E-06	0.975442151581989	-0.195342220646243
8.1	0.693883292583683	-0.696924545327035	5.05467280523598E-06	7.09470397018473E-07	2.88639712323332E-06	2.24100938080325E-06	0.974787630221662	-0.194771056994078
8.2	0.60195947574773	-0.778368312150419	3.54291237983697E-06	-2.57298258409519E-06	-3.69388530599396E-06	-1.15568399430991E-05	0.975405949177403	-0.196560639014735
8.3	0.499737923878418	-0.847692702848014	2.71280029725564E-06	-1.85540850005055E-06	1.64180992886433E-06	5.26705941589982E-06	0.975152860421092	-0.199146011050211
8.4	0.38968810883942	-0.90366957685259	-5.53062129468373E-06	-1.00855188755869E-06	1.05454286131264E-06	2.93757987774035E-06	0.974331333892958	-0.20179041198823
8.5	0.272088671953703	-0.945957775973102	-3.278140586543E-06	1.62110415326169E-06	-4.77971312801107E-06	-4.9861199995891E-06	0.97338172851103	-0.203801252669174
8.6	0.149809892633765	-0.971513125058953	-8.11603166160067E-06	1.39412539745304E-06	-4.33958317823333E-06	-6.8370133021665E-06	0.973598234227202	-0.206177321650955
8.7	0.0259575574886809	-0.981640711728913	2.23506747080911E-07	-2.14392642208147E-07	6.09986148372379E-06	4.96484201871647E-07	0.973224531988109	-0.208901369333239
8.8	-0.0977593688994344	-0.975905488234711	1.0173672882727E-06	-1.81334891116003E-06	-2.38409640574873E-06	-1.27121660823287E-06	0.972736758828896	-0.211153308181565
8.9	-0.218075020582854	-0.955806912215479	-2.96500006594657E-07	3.02139630775582E-06	-1.2301101261546E-06	-1.63268670805974E-06	0.972704495060128	-0.213181749711347
9	-0.335963450752293	-0.923292326611494	2.96507603087848E-06	1.58270420554035E-06	-1.56998119792741E-06	2.10575943392052E-06	0.972607765867262	-0.21576637878194
9.1	-0.450207314877555	-0.873543265741536	-9.2789985220989E-06	2.25699725804708E-06	-1.55861534115973E-06	2.40097489154343E-06	0.972033393695226	-0.218089979915097
9.2	-0.556206670055371	-0.810507624819969	7.47777560549867E-06	-2.28761954310279E-07	-9.07476086463704E-06	1.95650094826595E-06	0.97129428626615	-0.220549548630103
9.3	-0.653803689813215	-0.735319699216612	8.50152202811217E-08	-7.14049264657031E-06	1.58309586525095E-06	-1.2942314930549E-06	0.970827246547576	-0.222620044232174
9.4	-0.741922102953283	-0.649085661268003	5.93945089657242E-07	2.47922256723221E-06	1.6197278921704E-06	-3.5873452914492E-06	0.970795251564605	-0.225164944850311
9.5	-0.820620873254876	-0.549659571055191	-2.86871629680914E-06	6.64081762596929E-06	4.7207341508071E-06	-1.36829775986743E-06	0.970064991519127	-0.229118274442848
9.6	-0.881727069311487	-0.439702830065863	-5.01798822696045E-06	-5.19002346640235E-06	4.75340704811595E-06	2.87235009869135E-06	0.968495874729685	-0.231542863556601
9.7	-0.92920743544916	-0.324863561857947	-1.99863874477515E-06	-5.06236451911732E-06	2.0924041918768E-06	9.85348848595214E-09	0.968060666899227	-0.233586604784837
9.8	-0.962432920835688	-0.204437190098833	5.91053932488803E-07	-4.27708048138154E-06	-2.9359226695618E-06	-2.51228945863198E-06	0.968166348025563	-0.235593741422182
9.9	-0.979591352924227	-0.0810801536590652	-6.09803727249254E-06	4.20564987544059E-06	-3.07655552907357E-06	1.66419228188575E-06	0.968072886060076	-0.238628203709336
10	-0.982450382470371	0.0421254191893809	3.55845026328776E-06	-4.45980410833198E-08	8.20738225694539E-06	1.10540390085114E-05	0.96463927805033	-0.240609160665052
10.1	-0.969808735603887	0.166130017220968	-2.84507301855259E-06	-2.51639440115585E-06	-1.99953506869652E-06	-2.49076192064971E-06	0.9645769638324	-0.239298963851291
10.2	-0.941010349319756	0.287794080781719	2.35143376630061E-06	-1.01492511122053E-06	-2.75890421588347E-06	-1.06751803565705E-06	0.965515079263601	-0.240402843044692
10.3	-0.896558017397014	0.404630241426826	7.74919413849518E-06	-5.9252508097158E-06	3.83952920800017E-06	8.21636558921979E-06	0.965641191043203	-0.242308268444189
10.4	-0.837662572469731	0.513468234345276	1.70064515095854E-06	2.52264694935798E-07	6.2603639419023E-06	-1.17543960324864E-06	0.965105071824832	-0.244632377092145
10.5	-0.769213754272798	0.612418556016984	8.34066092675993E-06	-4.10306429340227E-06	-4.99406607492634E-07	1.96553203821294E-06	0.964575806759814	-0.246414175919032
10.6	-0.689303662752927	0.70623224815389	8.93406339388497E-06	-1.24235480709032E-06	-1.51590933399347E-06	1.3628344916021E-05	0.964854356431495	-0.249905897600686
10.7	-0.595381740697741	0.788583903744848	8.01672080716111E-06	-1.88560511229388E-06	-3.04132947182417E-06	-5.28506304175951E-06	0.963581538655498	-0.253086176518904
10.8	-0.490865646128486	0.858098010935142	2.43977391409559E-06	5.24754062418245E-06	-3.62444812002715E-06	-2.11228055565163E-07	0.962369444216058	-0.254846731256406
10.9	-0.378346970241521	0.912701310814702	-5.55317814459087E-06	4.73624265247621E-07	1.58716101765738E-06	4.0269509553223E-06	0.961989324256249	-0.256521073237114
11	-0.262370102391985	0.954285118156781	1.47206844146555E-08	-5.21957480191408E-06	-8.38139995815602E-06	2.21216632018558E-06	0.961211120867959	-0.258535258978729
11.1	-0.138605479554624	0.981840885042064	6.29762860841993E-06	4.09753991213725E-06	-1.92184391376154E-06	1.07479576077636E-05	0.960281237518176	-0.259811397651303
11.2	-0.0131243717215041	0.991714371359528	1.57388541333596E-06	1.35743014089137E-06	5.11131730707836E-06	8.90586938459271E-06	0.959326056075065	-0.261108117903737
11.3	0.112307616237747	0.985109166886912	-4.56430882700871E-07	-1.73732233074496E-06	-6.84274757640943E-07	-4.3938898669752E-06	0.959043150720701	-0.262112717852458
11.4	0.235778080820434	0.963032624378442	1.74928518271092E-07	1.18600547260142E-05	2.40215334254141E-06	4.93875139027059E-06	0.959594631605204	-0.264027300303541
11.5	0.355207122181387	0.925631202995779	6.20526926187243E-06	-3.06001402524188E-07	3.23024725497332E-07	-1.88393422392544E-06	0.958899213184945	-0.268611254789984
11.6	0.468016252535818	0.874196633406608	-6.01281333789426E-06	3.06104661373147E-06	-4.87511984421239E-06	1.90606234889083E-06	0.956530344106459	-0.271206291596795
11.7	0.573757215800375	0.809189996088984	3.3311165525653E-06	-1.78652021004851E-06	-1.71244431136799E-06	2.23199370341746E-06	0.956034751063883	-0.273829753708114
11.8	0.670565942435728	0.730555139177647	-8.52226839395216E-07	9.79294646280579E-06	-2.75039593606242E-06	1.05314574237182E-05	0.95630257091941	-0.277276261178391
11.9	0.755824986854742	0.638630360117105	-7.29989266122926E-06	-1.05490729794198E-06	-3.94025887418457E-06	1.12498006545267E-05	0.957041597505635	-0.28184532295629
12	0.824236132271092	0.537173473939617	-6.45426858272905E-07	1.3792918018642E-06	-3.12994453928671E-06	-1.92643632072217E-06	0.953224124098036	-0.285943677727937
12.1	0.883209710148061	0.434289509263061	-3.89144981221433E-06	4.96871887865304E-06	-1.36641322344544E-06	8.40112684183095E-06	0.952596272769219	-0.286272923191898
12.2	0.931382335126178	0.321804378319939	-5.64121339750457E-07	-3.80029105143064E-06	-3.11172232729559E-06	-7.41406937347369E-07	0.952496840598087	-0.289313050959167
12.3	0.964743298111932	0.203572934392733	3.58726122166553E-06	3.44301542960602E-06	-3.45371785773998E-06	6.25729295808846E-06	0.951539301395455	-0.292507252257592
