# GHZ S RI R 50
0.2	-0.96680761480189	0.250991910283193	8.82543762714108E-06	5.32851146446056E-06	1.13886405931379E-06	-2.89078689007807E-06	1.00017132895202	-0.00663008005255757
0.3	-0.927769925808695	0.370812469279712	-7.66803086376085E-06	-8.24927320194053E-07	-1.7019493163908E-08	3.66249751403806E-06	1.00023953126622	-0.00952243648621607
0.4	-0.873570746876213	0.4848051883333	-2.20605029533674E-06	6.34539221109405E-06	2.9186362777109E-06	5.74567313816162E-06	1.00055489453104	-0.0121274231382251
0.5	-0.805345836715704	0.591629745196244	-2.65347566031042E-06	5.49172863722359E-07	1.05363238162388E-05	4.8955270218332E-06	1.00073474970662	-0.015908650448003
0.6	-0.723835630213816	0.688029591260596	-1.72739915619453E-06	-1.85585445000488E-08	4.16995012700373E-06	-1.0348213490004E-05	1.00024571277222	-0.0189035678833626
0.7	-0.631539625782996	0.773676938212771	-2.05003633063478E-06	9.88975864276626E-07	3.78485173360721E-06	1.11762232520044E-05	0.999951451490117	-0.0216677866059317
0.8	-0.529009591712327	0.847270444576518	-5.61485567237959E-06	3.78574573431647E-06	-3.17185622035805E-06	-2.14318250932193E-06	0.999801446257133	-0.0238027711082954
0.9	-0.418179858955059	0.907158372013669	-6.71544753723556E-07	5.25771251292201E-06	3.27128195637152E-06	-2.94004757956881E-07	0.999726482619401	-0.0260171103363919
1	-0.300228862701937	0.952674179538314	1.5715127101431E-05	-3.68361898572607E-06	-9.61551063921506E-06	5.22020036411525E-07	1.00001690838897	-0.0274054936884861
1.1	-0.17838778524056	0.982743487896804	1.34600225731612E-06	-2.98807993577044E-06	9.4122934464634E-06	1.26271724608344E-05	0.99986088830981	-0.0299966150284357
1.2	-0.0527579365640222	0.997255580277434	-7.92505302465539E-06	-3.26625065499689E-06	-3.10407242857129E-06	-4.48819790729886E-06	0.999003135461144	-0.031148583267489
1.3	0.0738985817598326	0.995610925013242	1.80264424705343E-07	3.34081283898956E-06	1.9331452195702E-06	3.40992278179602E-07	0.998948155547257	-0.0323391515830972
1.4	0.198878547526062	0.977771353875522	2.59041422211669E-08	3.7739262606927E-06	-2.53701249857484E-06	-5.62230642580149E-06	0.998421797255753	-0.0345801416099389
1.5	0.320672026381671	0.944879099005807	3.19227266081653E-06	-2.70550712562089E-07	2.70925355034729E-06	2.09534003483311E-06	0.999357515092052	-0.0380901623799502
1.6	0.43689500708216	0.896815645310555	1.78785439672101E-06	-1.94505139323879E-06	-8.99489948574454E-07	-3.06725371891352E-06	0.99881595099925	-0.0418371702301839
1.7	0.545851505411585	0.834542679439276	-9.04321134250626E-08	-3.53036582418602E-06	2.01513156085724E-06	4.93164419158521E-06	0.999316284194103	-0.0442741363194103
1.8	0.645912548623351	0.759515770733426	-2.06285341130025E-06	-1.8143367351772E-06	-4.62449725820318E-06	1.83520576683014E-05	0.99928802984066	-0.0468957103650016
1.9	0.735462336142702	0.673041818448969	-4.39714411159951E-06	-1.4665568913214E-06	-4.93633952176873E-06	-6.00902102296774E-06	0.999368886924952	-0.0485380972050464
2	0.814927726575448	0.576375436315244	-9.50064673551441E-08	-6.76051526715232E-07	-1.67290719741092E-06	-1.4219383226671E-06	1.00079154564665	-0.0513440044037794
2.1	0.881318403040331	0.467270638739864	-1.12875584079697E-06	9.47801636738076E-06	1.99975777659747E-06	-3.84702292772575E-07	1.0002777843507	-0.0554767913965213
2.2	0.932064656963696	0.352569876379642	-3.46323973005158E-08	-5.9427512661144E-06	-7.3301680299084E-07	2.74494058922283E-06	0.999571875610783	-0.0580938549615203
2.3	0.968278968871467	0.232690529904325	-1.31227268610874E-06	2.77382457415731E-06	-2.46763776713305E-07	1.19967105070164E-05	0.998965080018107	-0.0600021745471151
2.4	0.989372538340283	0.108463839437988	-5.8910773822314E-06	-3.70129494354693E-06	-1.75914577409538E-05	1.45895432232052E-05	0.998671859034276	-0.0630429246693926
2.5	0.995229599403772	-0.0167024818245565	1.81491656185534E-06	-2.97017529394057E-06	-1.77730467801186E-06	7.56057135940415E-06	0.998490177154492	-0.0652373410628919
2.6	0.98496255967569	-0.140615253585564	2.86775915774295E-06	9.16462610729473E-07	-1.74757776003817E-06	4.51178574135044E-06	0.998419761956506	-0.0683951492174941
2.7	0.959408068146108	-0.262833370752479	3.84712617010644E-06	1.0460812481063E-05	2.33356210953948E-06	3.87264177126319E-06	0.998062943078882	-0.0715762339257641
2.8	0.918667635893653	-0.381248566092825	-8.19697782162972E-07	-2.29663432750967E-06	2.16386718615797E-07	-1.89274310114444E-06	0.998091540491075	-0.0738732038028539
2.9	0.863633069861543	-0.493148987569657	3.75778592759386E-06	-8.34508930965587E-06	-1.30797514711639E-06	-1.42561647163214E-05	0.997550004937826	-0.0760237093576023
3	0.795006904886064	-0.597892521296516	3.55498577713219E-09	6.66515279505794E-06	-1.47926459762603E-05	5.35142289547991E-06	0.997391311457206	-0.0785409947914168
3.1	0.714334884377483	-0.692225202830811	-4.97368123792569E-06	7.85674703981207E-06	5.82240950004664E-06	-1.02226484349142E-07	0.996989976952135	-0.0809319592350306
3.2	0.620616455557569	-0.776521968726887	9.69465732197888E-07	2.12696140501815E-06	-4.5689711891806E-06	4.9462890978146E-07	0.996378742879198	-0.0830135722433197
3.3	0.517353805832746	-0.848062468238023	7.1500689853491E-07	-1.46472600117232E-06	-4.58603516976447E-06	7.50157606604356E-07	0.995617775082984	-0.086556338246457
3.4	0.405566623025558	-0.905180569732628	6.47526527477502E-06	2.08733309778277E-07	-8.17082251685916E-06	-7.15248860860746E-06	0.99480990256283	-0.0885421903909662
3.5	0.289546724621757	-0.947975739324845	-7.69029961863594E-06	1.98482267795087E-06	-5.92524793849703E-06	-7.96162831335441E-06	0.994577141945858	-0.0905765999330579
3.6	0.166756953763875	-0.977955084977747	-8.70409715655411E-07	-4.38155635528554E-06	-7.83986468326355E-06	-6.3125184067652E-06	0.994558503282829	-0.0936473405559421
3.7	0.0412236423520073	-0.991033880653947	-6.74290586875805E-06	-6.74915466292874E-06	5.11175959094237E-07	-4.76814167005025E-06	0.993742459673267	-0.0966276177282124
3.8	-0.0845730045780837	-0.987634696654292	-3.63990623152608E-06	1.09671159730325E-06	-3.30612401394731E-06	-2.45342050170203E-06	0.992658221540157	-0.0984157245582143
3.9	-0.20780569535311	-0.968728567486681	-4.67400133846442E-07	3.50933415623372E-06	2.04916199413266E-06	-1.22637002570884E-06	0.992353265994604	-0.100622178538492
4	-0.328385715110855	-0.935473786348599	1.1720083132511E-05	8.07716206740831E-06	7.25467617550792E-06	-4.07280915285581E-06	0.993478846909338	-0.101791459901104
4.1	-0.443949205569511	-0.886243539677252	5.22326757759117E-06	1.29747128092158E-06	-3.42449154853313E-06	6.66781809595185E-06	0.99279230343774	-0.104995523451611
4.2	-0.551408165020095	-0.823301853253101	-7.09774770927762E-06	-1.16645564164984E-06	-8.25919264571201E-06	-1.81398724548294E-09	0.991530007894292	-0.10758473802389
4.3	-0.650116720133468	-0.747247253038836	6.90561833357764E-07	-2.36834076291336E-06	5.21062978052746E-06	8.55325626879683E-07	0.99106434278483	-0.109444870441862
4.4	-0.738601812687439	-0.659369199229034	4.45892421398311E-06	-1.79142426815493E-06	-8.61184771554112E-07	1.34865181055305E-06	0.990450031560913	-0.111709385088745
4.5	-0.815748880166159	-0.560762620054989	6.78270753858861E-06	1.83297070470563E-06	-8.18382120090998E-07	-3.24831361426566E-06	0.990259254170704	-0.114160683567439
4.6	-0.879844885922674	-0.45326627501184	2.46383342754793E-06	2.93425882058574E-06	-6.5306839949912E-06	9.75581385022009E-06	0.989236975246765	-0.116917889168937
4.7	-0.929907238487271	-0.337758028990734	-1.39944977269969E-05	5.96440168831029E-06	-3.45465971314125E-06	-1.94875384958393E-08	0.988881844500114	-0.118817269837296
4.8	-0.964900249656984	-0.217234560799768	-3.17638424840402E-06	-5.11705127193683E-06	-5.50065902524108E-06	2.38372398930537E-06	0.988210954423821	-0.12128996130037
4.9	-0.983777073505205	-0.0932800110542614	-1.05839744408736E-06	-8.52450050196414E-06	-4.20648166443015E-06	7.57716054131077E-07	0.987361733788146	-0.123027791757844
5	-0.985594369267401	0.0305541898026189	7.51369285885954E-06	-1.5992369071101E-06	-1.7580276019221E-06	-2.70295950565421E-06	0.986777891379374	-0.124299317612307
5.1	-0.974071004709465	0.153573124730042	-2.61332441826477E-06	-6.35737940285487E-06	-1.0115494410337E-06	-1.94113433517103E-06	0.986495627252833	-0.125458378388952
5.2	-0.947455979109092	0.274761258336321	3.97840656400905E-06	-4.48025983958808E-07	-5.39377014848827E-06	6.29837382169693E-06	0.985915013737691	-0.127443867439726
5.3	-0.90560679094668	0.391455946838373	5.13393943172515E-06	5.96240999461862E-06	-9.67246525958872E-07	-3.56608461087521E-06	0.985278031400402	-0.129459871255563
5.4	-0.84954787174868	0.501613101089792	3.04097458008967E-06	-2.01423317435723E-06	-1.12494069673046E-05	2.21922767577457E-06	0.98467105209683	-0.131735326683939
5.5	-0.780358367011374	0.603644629801732	-4.33768350864891E-07	-2.18243372661492E-06	-5.74742306798835E-06	6.10403384015392E-06	0.984680451710549	-0.133461646875
5.6	-0.698431193756928	0.696840314652933	2.38162114630548E-06	7.26556968728591E-06	-5.30272780734594E-07	2.9164463306638E-06	0.984772437231987	-0.136264347652345
5.7	-0.605380995261543	0.778994219070824	-2.55484713743162E-06	2.35356881040181E-06	7.87674917247449E-06	2.75184212896698E-06	0.983977235342098	-0.138507171747072
5.8	-0.502734974889938	0.84791077840384	-4.61728493940768E-06	5.0820027798954E-06	-3.6035637500416E-07	3.40430576712814E-06	0.983363163024132	-0.139949229155666
5.9	-0.393307451519091	0.903647616954205	6.32132040411776E-06	1.49093823811598E-06	-2.69618983434213E-06	2.53223057759561E-06	0.983146243509353	-0.140618794725457
6	-0.278058573347749	0.946548523248982	3.50520215986401E-06	3.28954219573561E-06	-3.25313383578453E-07	-1.42839750848542E-06	0.985148490585718	-0.141687296384911
6.1	-0.157046098853061	0.973692894872656	9.13916972621436E-06	1.51947864122726E-06	-1.26788297513515E-07	-1.8013426006902E-06	0.985119816906449	-0.144312484445447
6.2	-0.0338655804988253	0.985446658823095	2.43000309235214E-06	-1.72188027563288E-06	1.4758701697752E-06	-4.82447269238859E-06	0.984697511393099	-0.14565544295099
6.3	0.089885073388053	0.981934564973392	-4.34486220166515E-06	4.2253555127995E-06	-6.11722322930823E-07	-1.71853396532571E-06	0.984347747482223	-0.147670091022164
6.4	0.212323628439892	0.963469647626337	-4.2502805617208E-06	1.06388267229232E-06	-1.75989980824674E-06	8.81115011686253E-06	0.984079687160478	-0.14973292118402
6.5	0.333277513806199	0.928782768472583	2.44123898274262E-06	-1.32801829741671E-06	1.47895690889351E-06	-2.91966830389319E-06	0.983634290480082	-0.153588864182583
6.6	0.445569694181524	0.878093187395531	-4.70724319724573E-06	-2.24218910458232E-06	-1.85372614157537E-06	-6.60122793951589E-06	0.981698291644299	-0.15549676974396
6.7	0.550904431609067	0.815650088847831	4.13827011342925E-06	-6.52104244908296E-07	-4.64877302327667E-06	9.99576542551839E-07	0.981338841043824	-0.156780812577249
6.8	0.647991491457006	0.740561731230599	3.73739369146448E-06	-2.06044599058949E-06	6.17730447766745E-06	-9.06762905735695E-07	0.980953106764374	-0.158435109823011
6.9	0.734801192069859	0.654176477581283	2.03105842994029E-06	1.63538837425513E-06	8.73336058691436E-06	-2.71783384707727E-06	0.980672198474418	-0.159722856622346
7	0.810699507310244	0.557736719452857	2.14734809785021E-06	4.0806709657522E-06	-1.10269742269168E-07	5.35241183322223E-06	0.981064014447257	-0.161202387224473
7.1	0.873617100389922	0.452193745475882	-1.37579883480315E-07	1.70770973601099E-06	8.22943653615522E-06	-4.59443457824988E-06	0.98026248191203	-0.163322836989548
7.2	0.922593043470874	0.339605398151722	4.82515260114126E-06	-1.37057724272282E-06	7.20469587831087E-06	3.78334476808705E-06	0.979247400365594	-0.164783305347459
7.3	0.956627285186731	0.221698168832097	4.83558142327248E-06	-1.0867049394351E-06	-7.27427058252494E-06	-7.35970230844798E-06	0.977704626933538	-0.1662641769432
7.4	0.975046013614281	0.100675553165008	-1.85824004823477E-06	9.81493654681254E-06	1.43571519470326E-06	-4.03366450591888E-06	0.975436367752663	-0.167471408419826
7.5	0.979910039760782	-0.0195936928894112	8.27839892112613E-07	8.04401026709138E-07	1.65223048178571E-06	9.94650564586485E-07	0.975318225595964	-0.166782915595956
7.6	0.971102265117013	-0.142823129664662	1.46258213239455E-06	-2.5860272560558E-06	-5.35603347648248E-06	-3.63816922403021E-06	0.976546040404978	-0.169921644275126
7.7	0.945843587120057	-0.263658250346195	5.51630504366259E-06	2.43409610589366E-06	-6.87005681529835E-06	1.19146272884773E-05	0.976570721266037	-0.172723225654958
7.8	0.906259147779212	-0.380432160922773	-5.64902654473327E-07	-5.21597240991572E-06	3.75186914590365E-06	-4.67638429712413E-06	0.977109579154216	-0.17538151358848
7.9	0.852735933777699	-0.491402887115395	8.79543021082989E-06	1.60795474158941E-06	-9.40667525600541E-06	-8.68997045039866E-06	0.978102160615629	-0.177711846259301
8	0.786753721559417	-0.59738966908492	-6.63326045242902E-06	-1.69239446599811E-06	-1.20184213178506E-05	2.37733379486089E-06	0.980816106133516	-0.181560328183484
8.1	0.703049966765265	-0.693564221826315	5.06705382191564E-06	7.65787172475393E-07	2.87402681273733E-06	2.28039371487529E-06	0.97957972519667	-0.186574790811541
8.2	0.609617606891218	-0.775744140124346	3.57700858134828E-06	-2.54890710917477E-06	-3.60092720106901E-06	-1.16256524835958E-05	0.978632592710782	-0.188856061416963
8.3	0.507127425568725	-0.845772434645986	2.73641796574079E-06	-1.83827383408562E-06	1.60268335787394E-06	5.29652408219831E-06	0.978121683149516	-0.191310728529032
8.4	0.396861563469294	-0.90217673404034	-5.54005365049388E-06	-1.05152597883525E-06	1.03652284406838E-06	2.95406996761773E-06	0.97776302146838	-0.193865335326707
8.5	0.280829501597975	-0.945026792310904	-3.29301723551618E-06	1.60025772716991E-06	-4.75059597475878E-06	-5.02474395478193E-06	0.977349010342609	-0.19708778885086
8.6	0.158515047679234	-0.973604878735746	-8.14257132966836E-06	1.32555117551573E-06	-4.2874070762478E-06	-6.88707416834924E-06	0.976547679525695	-0.199554963077164
8.7	0.0334424286590373	-0.985669461179912	2.26133071542887E-07	-2.1309258588765E-07	6.11504756361176E-06	5.52365628441503E-07	0.976345605586829	-0.201739431500798
8.8	-0.0921218337853429	-0.981672390481188	1.03775324366813E-06	-1.81307434598801E-06	-2.38430717266214E-06	-1.2977082687909E-06	0.976335478596841	-0.203728962246416
8.9	-0.216007407161284	-0.961836967758501	-3.20036982871113E-07	3.03872021204258E-06	-1.2263398247365E-06	-1.65200078326787E-06	0.976802657077412	-0.205528590625755
9	-0.333843480291249	-0.925331127946799	2.97223884459296E-06	1.60528549584115E-06	-1.58826749535824E-06	2.10865067892636E-06	0.977515062521001	-0.207586638802567
9.1	-0.446309834583383	-0.877467504413933	-9.33713115847185E-06	2.21153302379989E-06	-1.58064210042962E-06	2.40302246293528E-06	0.978317206826406	-0.21004715636576
9.2	-0.552959928666739	-0.815237440454069	7.51794812772353E-06	-1.87990234424326E-07	-9.13293382814684E-06	1.9157530298471E-06	0.978665821272571	-0.213388374021097
9.3	-0.650787170966716	-0.740537554635446	1.21552356599699E-07	-7.17424719580206E-06	1.59722352306006E-06	-1.29241725936342E-06	0.97847821721379	-0.216846357307819
9.4	-0.738364757426466	-0.654111828554334	5.84015791486621E-07	2.49029406796077E-06	1.64231589072204E-06	-3.59146694783272E-06	0.977399242844075	-0.220169291840037
9.5	-0.815125834778934	-0.559534327973271	-2.93234143108707E-06	6.63546216607188E-06	4.74544096669739E-06	-1.33263824171721E-06	0.977239455429476	-0.222569973075746
9.6	-0.882700592780936	-0.452105715518579	-5.00768562629784E-06	-5.26407129766255E-06	4.76031789316558E-06	2.92944854850964E-06	0.977008061559132	-0.226706274068545
9.7	-0.933516203251628	-0.335377394737362	-1.97876160337292E-06	-5.11129074223216E-06	2.10702743949798E-06	2.39377566007029E-08	0.976046570106302	-0.229719871522017
9.8	-0.968763711668	-0.213327061915314	6.21635918847246E-07	-4.30356436823349E-06	-2.94109066957759E-06	-2.54812394236882E-06	0.975493273897894	-0.231671793619783
9.9	-0.987726200607653	-0.0879815085942656	-6.17219172510496E-06	4.19593301400008E-06	-3.11087260632207E-06	1.65585963258013E-06	0.975665454063407	-0.232621453548352
10	-0.990925738606652	0.0371340304157885	3.59587401335944E-06	-2.30729005785131E-08	8.22475014073477E-06	1.12201571711931E-05	0.978037993645338	-0.235755267049497
10.1	-0.979345308813617	0.162110662834448	-2.86538984181206E-06	-2.55194242533628E-06	-2.01131019367185E-06	-2.52311716430867E-06	0.975918550211857	-0.239617315584255
10.2	-0.951790976222135	0.285431098835832	2.37720664498508E-06	-1.01764520886719E-06	-2.78233948775246E-06	-1.08614223452852E-06	0.974753653744363	-0.240817524392236
10.3	-0.908794213810334	0.404322912320888	7.84367838116042E-06	-5.96199447296532E-06	3.85410216294318E-06	8.30948328836403E-06	0.974204127520425	-0.24245152098088
10.4	-0.851883094689739	0.517345689669472	1.71969988758701E-06	2.58995402921908E-07	6.3352340547301E-06	-1.17493867356613E-06	0.973973124276919	-0.244540524928028
10.5	-0.779176055414435	0.623191607700522	8.43024536389281E-06	-4.16599635801975E-06	-5.01638984484161E-07	1.98931314960526E-06	0.973645743389823	-0.248272059778404
10.6	-0.694229888410147	0.715970453509281	9.00911792655225E-06	-1.26991339328486E-06	-1.50341821730734E-06	1.3749248894035E-05	0.972509190539528	-0.251015908114315
10.7	-0.59859315689719	0.79768842758775	8.08202938413974E-06	-1.91234109383576E-06	-3.07417337696328E-06	-5.32570031235476E-06	0.972176492522461	-0.254216161473916
10.8	-0.49261601392158	0.86702759221701	2.47010494718666E-06	5.28957699614828E-06	-3.65668769405747E-06	-2.06960012665161E-07	0.971509642721804	-0.25723773639887
10.9	-0.377647525909754	0.922065938149746	-5.59971293227033E-06	4.93683041066881E-07	1.61243406753895E-06	4.05711867659647E-06	0.970950871199787	-0.259896792432518
11	-0.258523347459436	0.960026425951033	1.61488810625097E-09	-5.25602448774714E-06	-8.43427165839375E-06	2.24880838687018E-06	0.970329578195545	-0.262646153007101
11.1	-0.137038306223349	0.986480887699924	6.35844842727736E-06	4.11773677090234E-06	-1.9144691379026E-06	1.08407949635675E-05	0.968629227505585	-0.265298788475546
11.2	-0.0110731464156728	0.997059663918199	1.59227980636432E-06	1.3636721496239E-06	5.18682272828192E-06	8.96510470942606E-06	0.966708147810517	-0.26737595797099
11.3	0.115556962385661	0.990525798816853	-4.69040273951108E-07	-1.74951920436546E-06	-7.12239673665991E-07	-4.4271177150638E-06	0.964828855505154	-0.269068450452477
11.4	0.239892239283216	0.967909164035966	2.56773189093035E-07	1.19401562119509E-05	2.45220052404335E-06	4.95626838829047E-06	0.962691384693664	-0.270792475250086
11.5	0.360231915180712	0.929740378066752	6.23220763156191E-06	-3.40050954056352E-07	3.14600723198861E-07	-1.8943006911159E-06	0.962999848938807	-0.272162903989386
11.6	0.473546797831748	0.876956505207828	-6.03501838235491E-06	3.10885172922957E-06	-4.8958993870236E-06	1.94128258694654E-06	0.962097749551834	-0.277044097467011
11.7	0.579107278362777	0.810928749886364	3.34088742104427E-06	-1.81692805523073E-06	-1.70975966310094E-06	2.25561234163792E-06	0.96006664800608	-0.280611454657009
11.8	0.675164755735004	0.731744221784098	-7.96666910409081E-07	9.8472212267277E-06	-2.6998349480164E-06	1.06010294099833E-05	0.958696994175149	-0.283266097600646
11.9	0.759291759711439	0.641638164220465	-7.33271513601429E-06	-1.03088957731153E-06	-3.91236143253662E-06	1.13093156556773E-05	0.95933693053354	-0.284086867420085
12	0.834180503418214	0.54252991570505	-6.4760343543372E-07	1.39369647026177E-06	-3.16388577817108E-06	-1.93561179397385E-06	0.962581477354299	-0.288864497487403
12.1	0.894972340316541	0.432665391050969	-3.89072889379685E-06	5.03857048108903E-06	-1.32013560140473E-06	8.48318626388045E-06	0.960188815833036	-0.293870461243953
12.2	0.94133814724795	0.317237099883148	-5.95282825772231E-07	-3.82486313374457E-06	-3.14036636779655E-06	-7.24937339659719E-07	0.958693306671239	-0.297224488774314
12.3	0.973503077442821	0.19733707591603	3.64094538795612E-06	3.44394572270926E-06	-3.43513132167273E-06	6.3321999243048E-06	0.957310813930871	-0.300805851261808
