# GHZ S RI R 50
0.2	-0.967775161415832	0.250451300931792	8.83071237865131E-06	5.3395480683256E-06	1.14187787274806E-06	-2.8929100856948E-06	1.00126776817553	-0.00610745109033089
0.3	-0.929187459578521	0.370285908034129	-7.67772195797784E-06	-8.31642241786374E-07	-1.97206423589625E-08	3.66740197729873E-06	1.00159666458943	-0.00906392223780762
0.4	-0.875574359761369	0.484575106938068	-2.21500752369724E-06	6.35569199600077E-06	2.91979753189943E-06	5.75871572104566E-06	1.00234355766215	-0.0117300281380906
0.5	-0.807504046137397	0.592435411331439	-2.66002153790531E-06	5.5065263176737E-07	1.05626356236569E-05	4.90717360921349E-06	1.00288364327467	-0.0164954124323736
0.6	-0.725432524177705	0.688968506516849	-1.73049540259113E-06	-1.7995493060448E-08	4.17383711746851E-06	-1.03681629335754E-05	1.00129163456983	-0.0195703782856804
0.7	-0.633235808409093	0.774778543693904	-2.05373866816947E-06	9.90834628463718E-07	3.79206109981067E-06	1.11964535731611E-05	1.00096109278225	-0.0216982976305667
0.8	-0.530659671417082	0.848792357754804	-5.62647647930431E-06	3.79322867931697E-06	-3.17823620221512E-06	-2.14769262951542E-06	1.00106001008383	-0.0234987359927926
0.9	-0.419598766815102	0.909087626035921	-6.73621516466241E-07	5.26911387612664E-06	3.27845840170308E-06	-2.94266788736134E-07	1.00131308040016	-0.0253162839722748
1	-0.301324384341605	0.954982904138168	1.57604615942659E-05	-3.68789554267603E-06	-9.64258583059628E-06	5.19796198077011E-07	1.00289157270576	-0.0265973011175179
1.1	-0.178904607705429	0.985362810803764	1.34889894200158E-06	-2.99890906120258E-06	9.45102804844745E-06	1.26646108235854E-05	1.00286056574967	-0.0307531129403195
1.2	-0.0525559315995412	0.999970115184974	-7.95455007757353E-06	-3.26571877767144E-06	-3.1200175561614E-06	-4.49812299469518E-06	1.00129993841804	-0.0325057137777393
1.3	0.0750697308433409	0.998157506271627	1.88682027517692E-07	3.34991412141618E-06	1.93946510120742E-06	3.37391438399129E-07	1.00050758736712	-0.0344135230368534
1.4	0.200818802182005	0.979779212384378	3.82934121714644E-08	3.78227170922026E-06	-2.56105064450276E-06	-5.62657561989209E-06	0.998967162704687	-0.0370541509390587
1.5	0.323232052147028	0.946615163564347	3.19780660487244E-06	-2.82135176906667E-07	2.72198788632254E-06	2.09022002318622E-06	0.999814008313894	-0.0404873193491011
1.6	0.439746607958033	0.897754217309348	1.78350905026877E-06	-1.95464424991168E-06	-9.12144561913313E-07	-3.0687398101477E-06	0.998712423821495	-0.0441373550582073
1.7	0.548586151273877	0.835152433923879	-1.01791426819027E-07	-3.534698540068E-06	2.0334717608707E-06	4.93168255728599E-06	0.999369167821927	-0.0458196914136426
1.8	0.648545942023817	0.759849516358706	-2.07026847478734E-06	-1.81074963386336E-06	-4.57917477122366E-06	1.83862045253181E-05	0.999580444505521	-0.0479598200693026
1.9	0.737657106152869	0.673600878730825	-4.40353987550146E-06	-1.46013871446965E-06	-4.95115446240337E-06	-6.00561495464436E-06	0.999953449090651	-0.0485265082906072
2	0.818725181183472	0.578151542173049	-9.55539569223545E-08	-6.78006944394203E-07	-1.67840136636261E-06	-1.42546847623312E-06	1.00417476797048	-0.0509504367904849
2.1	0.886478724476172	0.466444583830791	-1.10708678626904E-06	9.51649903358985E-06	2.00617614531849E-06	-3.91600571835419E-07	1.00352170657908	-0.0578947911937896
2.2	0.936292678237669	0.350311684301121	-5.42867187956935E-08	-5.95884885461878E-06	-7.2598180275795E-07	2.75484130833686E-06	1.00159324367943	-0.0607501288927911
2.3	0.971668707100137	0.229777029232022	-1.3061003497437E-06	2.78440231805056E-06	-2.0782234345879E-07	1.20245851829425E-05	1.00046635671836	-0.0624813310180962
2.4	0.992013137750072	0.105319609322515	-5.91583990088629E-06	-3.68792624524327E-06	-1.75751277697159E-05	1.46805294130256E-05	0.999891790892244	-0.065318276491753
2.5	0.997729487486141	-0.019926863506143	1.80574628119932E-06	-2.97934681291587E-06	-1.75147537716079E-06	7.57362186213635E-06	0.999814425223982	-0.067454888734732
2.6	0.987199444489943	-0.144295709015673	2.87203464644705E-06	9.10648758447048E-07	-1.73866479337449E-06	4.51920681339365E-06	0.999489927871251	-0.0707238022495114
2.7	0.961528449000279	-0.267030099877202	3.8735597390414E-06	1.04703495839866E-05	2.34482259194643E-06	3.8744169589583E-06	0.999254236895854	-0.0739051596009651
2.8	0.920240421819066	-0.38632209296253	-8.26646504894769E-07	-2.29991492650657E-06	2.1264446547073E-07	-1.89743712622868E-06	0.999281180351859	-0.0765856146558012
2.9	0.86404431374449	-0.498690822699997	3.74395992670709E-06	-8.37518108986869E-06	-1.34996857358916E-06	-1.42864947697942E-05	0.998435052683501	-0.0790274858147918
3	0.794525714350113	-0.603275568807583	2.39749862171141E-08	6.67968391158008E-06	-1.48085316081611E-05	5.40840156133999E-06	0.998038735909938	-0.0817490881221968
3.1	0.712969834998089	-0.697861754216989	-4.9579602612068E-06	7.89092440725156E-06	5.83487898142842E-06	-1.22215294085384E-07	0.997194125971455	-0.0844763962427303
3.2	0.617884463189729	-0.781912267959062	9.79710901958177E-07	2.12705291727624E-06	-4.57547492215319E-06	5.13693667484071E-07	0.996068907670941	-0.0867022705928872
3.3	0.513197748763699	-0.852734156102709	7.09235074040312E-07	-1.46983735490601E-06	-4.58841591832677E-06	7.72009039998675E-07	0.994675774425038	-0.0904411281875861
3.4	0.399995034550369	-0.907941145158987	6.47637248771146E-06	1.74825322904203E-07	-8.20829518017152E-06	-7.10971683076842E-06	0.992787239018445	-0.0924612345731902
3.5	0.285947077455444	-0.948362295905843	-7.6692325840611E-06	2.00993702223071E-06	-5.94436633132746E-06	-7.92540215691649E-06	0.991924199445465	-0.0931695747326438
3.6	0.163311902903906	-0.980236132903443	-8.82815793397253E-07	-4.37687184723722E-06	-7.85452797318132E-06	-6.28648429143975E-06	0.992394916450167	-0.0962737656348925
3.7	0.036135795595087	-0.992573644969933	-6.76400606455827E-06	-6.72188010546415E-06	4.93846387480554E-07	-4.76778438518754E-06	0.991110501773579	-0.0992776111931881
3.8	-0.09023976172244	-0.987448716247037	-3.63242954182978E-06	1.10908398270187E-06	-3.31203971287879E-06	-2.438925543513E-06	0.989559189389112	-0.100551201753554
3.9	-0.212820641981024	-0.966602373276465	-4.56407664262739E-07	3.50652024136588E-06	2.04306176749771E-06	-1.23099289790528E-06	0.989264869508277	-0.101331788956985
4	-0.331729124152225	-0.932924891242548	1.17475870779642E-05	8.04558596926363E-06	7.24518081014006E-06	-4.09536847090318E-06	0.993386985245845	-0.102118739078067
4.1	-0.446987299048828	-0.883615572316405	5.22743769252848E-06	1.27406241898798E-06	-3.39408430685828E-06	6.68093565003378E-06	0.992289199252918	-0.108163293895349
4.2	-0.553862794478411	-0.820212856171332	-7.09463962473478E-06	-1.13467846095494E-06	-8.24976179669838E-06	3.36139877082493E-08	0.989754863360159	-0.110826648858922
4.3	-0.651855493402038	-0.743792906046211	6.79792643460732E-07	-2.3675130397337E-06	5.20608836743015E-06	8.32657390654822E-07	0.988844336218209	-0.112465636213765
4.4	-0.739717022217974	-0.655692855947768	4.44411421489222E-06	-1.8062271243272E-06	-8.54306339824874E-07	1.34979483327969E-06	0.988128882693048	-0.11464820298103
4.5	-0.81602938511343	-0.556287749589538	6.77667271546786E-06	1.79675045862659E-06	-8.32040701033696E-07	-3.23736212056764E-06	0.987705696092112	-0.118046652719265
4.6	-0.878300532043899	-0.449132541051429	2.46757446585546E-06	2.91275777919554E-06	-6.46421906120118E-06	9.74846272869609E-06	0.984862663257921	-0.120732260423064
4.7	-0.927568591939706	-0.334519602518	-1.39161322318017E-05	5.9904765136432E-06	-3.44068000321332E-06	-6.98352388897501E-09	0.983867376548002	-0.121774461776689
4.8	-0.962281480313036	-0.2145617311023	-3.17953425892194E-06	-5.0855393469714E-06	-5.47008716155018E-06	2.39140798279329E-06	0.982928658128799	-0.123684440673877
4.9	-0.980998112351076	-0.090106568070697	-1.08255290956786E-06	-8.48457715866093E-06	-4.18598931954661E-06	7.68631416271683E-07	0.981800455065293	-0.125003791003445
5	-0.979277458223466	0.0335326800456344	7.46456048999185E-06	-1.61504683448905E-06	-1.75682306853103E-06	-2.68132920621497E-06	0.980930355072927	-0.125978604582751
5.1	-0.968166141972722	0.152344580481502	-2.60788881865849E-06	-6.31605958863758E-06	-1.00863787471323E-06	-1.92818594959594E-06	0.980144410711929	-0.126695153616735
5.2	-0.94311880660883	0.272908061082554	3.9567745449259E-06	-4.50432556072734E-07	-5.35760181855982E-06	6.27146312452972E-06	0.979422533385397	-0.1280075806854
5.3	-0.901571751638611	0.389403570040228	5.1144005994949E-06	5.92547133259174E-06	-9.66451412310744E-07	-3.54647683615284E-06	0.978907025758074	-0.129704050436499
5.4	-0.845339021634855	0.498898619244864	3.02162610213675E-06	-2.00680281069233E-06	-1.11842716682843E-05	2.22076396543817E-06	0.977903492102352	-0.131954748941125
5.5	-0.776251898153812	0.599295258072664	-4.31533662986197E-07	-2.16905122136512E-06	-5.71125051589737E-06	6.06790882424939E-06	0.977769583951054	-0.13243542910994
5.6	-0.69586212238269	0.691222792038154	2.36617269390393E-06	7.22685993480975E-06	-5.28388194603115E-07	2.9003982512979E-06	0.978378461091779	-0.135411763930805
5.7	-0.604449176577706	0.772995165395827	-2.54255351797772E-06	2.3395154226819E-06	7.83306593074228E-06	2.74168629377417E-06	0.97706263903536	-0.137324938070413
5.8	-0.503376044416023	0.841873218330768	-4.5984597713644E-06	5.0491593195889E-06	-3.62458279486342E-07	3.38554931938583E-06	0.976175536587397	-0.137708774177127
5.9	-0.396079982253653	0.898049408282645	6.28493139910645E-06	1.50128478816257E-06	-2.68965616912189E-06	2.51169959727607E-06	0.976609953073822	-0.136091544145594
6	-0.282197139362752	0.944409297299735	3.4881768996771E-06	3.29892846979122E-06	-3.19412172290051E-07	-1.42786884434933E-06	0.983602342731379	-0.136832427719492
6.1	-0.158704053442098	0.972501559632585	9.13547066627897E-06	1.52382600872811E-06	-1.25796337438512E-07	-1.80083874581159E-06	0.98357299398183	-0.14359407342504
6.2	-0.0349978529711566	0.983578552680418	2.42654481526029E-06	-1.72079334073967E-06	1.47235817213813E-06	-4.81943512755397E-06	0.98192473565316	-0.145595463567064
6.3	0.0883613925027778	0.979641605939138	-4.33573293905989E-06	4.22064417210001E-06	-6.1157724203062E-07	-1.71544527484051E-06	0.980897114813592	-0.147639306623911
6.4	0.210238996894749	0.962234399746181	-4.24460012951033E-06	1.06468993966524E-06	-1.75341645700108E-06	8.80133125744457E-06	0.980679932752211	-0.149247863991713
6.5	0.334508196072164	0.927035819761741	2.43270338085886E-06	-1.33410781361853E-06	1.46661024200594E-06	-2.9198655830104E-06	0.980244502843432	-0.155237121289469
6.6	0.44409784451419	0.872594342983496	-4.68594486038813E-06	-2.21784345539775E-06	-1.85939927539946E-06	-6.55907044482725E-06	0.974663061657904	-0.156044189472807
6.7	0.546750576448868	0.811158432218969	4.11119113624644E-06	-6.48792875620103E-07	-4.61829337078467E-06	9.94118850585613E-07	0.974090857880846	-0.154769511214539
6.8	0.642618099220407	0.737373707744324	3.71510098058388E-06	-2.04214623943357E-06	6.13737677380223E-06	-8.93120120314157E-07	0.974275687386926	-0.155022819065651
6.9	0.728556149673251	0.65253188640204	2.01293946522111E-06	1.62979587312647E-06	8.6816515578517E-06	-2.67599982038543E-06	0.974664809533042	-0.154988299522293
7	0.805057615746598	0.557971472008824	2.11801449806217E-06	4.06897388026665E-06	-1.3350440937698E-07	5.32405004073441E-06	0.977418326957132	-0.156319676572471
7.1	0.868350831428884	0.452425538363765	-1.42681534929472E-07	1.70041146055515E-06	8.21166960618673E-06	-4.54878306324505E-06	0.976103792420195	-0.160223570566975
7.2	0.91699621995395	0.340417981755888	4.80807208572225E-06	-1.3512398574841E-06	7.16299687520705E-06	3.78698129429425E-06	0.974074465076948	-0.161514118148187
7.3	0.950677619034344	0.222978133152616	4.81449553722243E-06	-1.07085980295572E-06	-7.2228851183277E-06	-7.33989809777897E-06	0.97158439967398	-0.162735689361321
7.4	0.967259634371922	0.102868131868855	-1.8590561491736E-06	9.74187507531632E-06	1.4312313812536E-06	-4.00266999550174E-06	0.967051713859071	-0.162676710629237
7.5	0.97227912319626	-0.0118307186766181	8.14816438401225E-07	8.01168210703055E-07	1.62981349422382E-06	9.94332997244384E-07	0.967870476530254	-0.156585555222721
7.6	0.967589360974475	-0.134526858120983	1.47299745810561E-06	-2.55665529267915E-06	-5.29037800143451E-06	-3.65555155614677E-06	0.972721037277147	-0.160321649939203
7.7	0.943644314864695	-0.255189567096106	5.46369386468948E-06	2.46376111079122E-06	-6.92445911657106E-06	1.17880529924338E-05	0.973183361075948	-0.163434240235203
7.8	0.905698044186504	-0.371010448791637	-5.14249394367903E-07	-5.19240797708942E-06	3.77384058290778E-06	-4.61644293892379E-06	0.974253212762887	-0.165415915676828
7.9	0.855398323969584	-0.480176695765067	8.73868339824737E-06	1.70443998992326E-06	-9.26403872895789E-06	-8.76317100321019E-06	0.976761744954101	-0.165573889208527
8	0.796772336715312	-0.588847176353628	-6.62234130803512E-06	-1.78549501271721E-06	-1.2072518880348E-05	2.21853924139996E-06	0.985699397128999	-0.169658094377308
8.1	0.711943922357804	-0.691281547935499	5.08283885144619E-06	8.14242730135609E-07	2.86657055610283E-06	2.31610846474002E-06	0.984703526926031	-0.17994511197103
8.2	0.617275465573959	-0.774575957062047	3.60973197497422E-06	-2.53283823636647E-06	-3.53022922340108E-06	-1.16978052503087E-05	0.982460179554915	-0.182926771895249
8.3	0.514502855043274	-0.845613861794454	2.75956910188803E-06	-1.82783127079381E-06	1.57452594772037E-06	5.32853514311895E-06	0.981850190940435	-0.185419117011808
8.4	0.403742137045844	-0.902706276925556	-5.55802948240473E-06	-1.08503516839453E-06	1.02542725058683E-06	2.97203048149357E-06	0.982038060159611	-0.188077409395787
8.5	0.288778752649354	-0.945828308164104	-3.30798138824302E-06	1.58911625906826E-06	-4.73901195029098E-06	-5.05802110276652E-06	0.982250938554679	-0.192652044614864
8.6	0.166750710195159	-0.977081135614522	-8.17144712945467E-06	1.27768965251011E-06	-4.25491225439356E-06	-6.93140881965226E-06	0.980443062398769	-0.195502543139987
8.7	0.0406434898145155	-0.991273187567517	2.28384999952065E-07	-2.12396129186478E-07	6.13425536817151E-06	5.94799910009634E-07	0.980271354304541	-0.197374329515805
8.8	-0.0868009676579079	-0.989262415157314	1.05475660085304E-06	-1.81538733804818E-06	-2.38778535635339E-06	-1.31973346541992E-06	0.980527836754511	-0.199292810480872
8.9	-0.214531027881145	-0.969980797315566	-3.38558426927075E-07	3.05718298518725E-06	-1.22557452894946E-06	-1.66959339444054E-06	0.981204392730998	-0.201039793870297
9	-0.332936557610451	-0.92922370522073	2.98309112413854E-06	1.62395965596562E-06	-1.60396674327522E-06	2.1148500058302E-06	0.982291893573089	-0.202645128701318
9.1	-0.443668899325722	-0.882871553332693	-9.39611420816921E-06	2.18180636678102E-06	-1.59961664767327E-06	2.40867597132325E-06	0.9841338182048	-0.205124059750019
9.2	-0.551236929237895	-0.821060766734406	7.56201294730616E-06	-1.59946066065983E-07	-9.19300218072703E-06	1.8914112165748E-06	0.985318300017427	-0.209165295527085
9.3	-0.649385009137245	-0.746163492501544	1.44081408217179E-07	-7.21250937717946E-06	1.60976507572122E-06	-1.29450684844381E-06	0.985319583894577	-0.213835033876537
9.4	-0.736423619085582	-0.658626660011117	5.80413921870889E-07	2.50122545975676E-06	1.65704936316537E-06	-3.60140141604314E-06	0.983070138037901	-0.217852175495535
9.5	-0.809979484638012	-0.567631526943209	-2.97552511403746E-06	6.63714768166092E-06	4.76499820679049E-06	-1.31073609103679E-06	0.983240104333082	-0.218579818786846
9.6	-0.882391008369672	-0.463279966063298	-5.00672322526739E-06	-5.31951118487659E-06	4.77051306171172E-06	2.9708696897264E-06	0.984351585225228	-0.224200752486036
9.7	-0.936094809848888	-0.345546454715979	-1.96884104348091E-06	-5.14925429433314E-06	2.11916025959838E-06	3.29021493379449E-08	0.982883086749819	-0.228150974051086
9.8	-0.973395454496628	-0.222476009961141	6.4177767400905E-07	-4.32559849333524E-06	-2.94795274957691E-06	-2.5739440969056E-06	0.981563404150698	-0.230072405153818
9.9	-0.994520460526363	-0.0954380839166326	-6.22935906901981E-06	4.19219359855742E-06	-3.13751920191506E-06	1.65119693297649E-06	0.981669465313617	-0.228864297478278
10	-0.998153236279603	0.0321684215831684	3.62905789575559E-06	-7.88410172033476E-09	8.25236894123013E-06	1.13586185576956E-05	0.989550534365909	-0.232495841289677
10.1	-0.986798771758467	0.158135603246605	-2.8876866313722E-06	-2.57893009374718E-06	-2.02594552269931E-06	-2.54865975065022E-06	0.985863793761364	-0.24109865923309
10.2	-0.960036857428123	0.282580095894395	2.39756542886332E-06	-1.02400911818418E-06	-2.80426427670183E-06	-1.09738132284297E-06	0.982809986041041	-0.242436322378939
10.3	-0.918351105109142	0.403016506747396	7.91232645929013E-06	-6.00475802960448E-06	3.87928204047871E-06	8.38033489783451E-06	0.981579493122847	-0.243854623173455
10.4	-0.863315898127891	0.51991160664088	1.73551931545098E-06	2.61812503809402E-07	6.39403767424608E-06	-1.18422502204657E-06	0.981409779657057	-0.245743686821085
10.5	-0.785962005609893	0.632425194131084	8.49125650302858E-06	-4.23128776314992E-06	-4.99435132388759E-07	2.00868437879199E-06	0.980941023478469	-0.251074883509795
10.6	-0.695582948959094	0.72290432203375	9.05551207313659E-06	-1.30463994357977E-06	-1.46963117028267E-06	1.38306108904352E-05	0.978188971371566	-0.252953697101221
10.7	-0.598180095099159	0.803025421374196	8.1214620415654E-06	-1.93915906018776E-06	-3.10157546277283E-06	-5.3479676865726E-06	0.978919276072817	-0.255647461572465
10.8	-0.491371094536997	0.871317296066729	2.49573324276528E-06	5.31480719049565E-06	-3.67824378122653E-06	-2.00296486569314E-07	0.978871872106976	-0.259698980475757
10.9	-0.374717947532297	0.926679699680812	-5.62987273060081E-06	5.14468016602192E-07	1.63460659132513E-06	4.07493988979417E-06	0.977977885383554	-0.263140901962419
11	-0.252068901711725	0.961099084643478	-1.46378404714715E-08	-5.27837699095277E-06	-8.46317567703137E-06	2.28446139880059E-06	0.977506158109741	-0.266097326463249
11.1	-0.13292873757492	0.98486168222238	6.4051563951149E-06	4.12129192042457E-06	-1.89280241222669E-06	1.09053275942659E-05	0.975748445826464	-0.26993687051363
11.2	-0.00784064997388765	0.994984073881783	1.607082502021E-06	1.36448560689142E-06	5.25448324105563E-06	8.99315268210677E-06	0.973290731117053	-0.273037438698087
11.3	0.118051770839752	0.988002350558624	-4.81619574664174E-07	-1.75562595912625E-06	-7.41671980884755E-07	-4.4453403114546E-06	0.970064839531883	-0.275925505092582
11.4	0.241513374222457	0.965293999438074	3.46679193439306E-07	1.19785847037859E-05	2.49744516561864E-06	4.95472837343557E-06	0.965166572820633	-0.278024242504515
11.5	0.361826198943291	0.927329179739999	6.23540716874304E-06	-3.74802740416427E-07	3.04378527245719E-07	-1.89758522387037E-06	0.965837094587854	-0.276043453688973
11.6	0.474751567454728	0.873716660931633	-6.03446830020992E-06	3.14458791221872E-06	-4.89819248145184E-06	1.96891531155806E-06	0.966384612452098	-0.282952569092442
11.7	0.579132504384956	0.807716739771932	3.33888684442808E-06	-1.83962124856665E-06	-1.70145281086526E-06	2.27039294563462E-06	0.962893532997488	-0.287558263222087
11.8	0.673963174509667	0.729461410028616	-7.43156200081994E-07	9.86598851546596E-06	-2.64491144408449E-06	1.06314610330657E-05	0.959641428546651	-0.28961706903231
11.9	0.757434109786152	0.642751153865314	-7.34012157879334E-06	-1.00759208843398E-06	-3.87771253614422E-06	1.13282978216586E-05	0.959442054677751	-0.286710248449602
12	0.840313075968011	0.54678573006791	-6.49095641268426E-07	1.40310064614486E-06	-3.18602496330473E-06	-1.94177281284552E-06	0.969110262953877	-0.290784013756455
12.1	0.902906313484789	0.429458297919894	-3.88298256779651E-06	5.08670175623005E-06	-1.27968275903053E-06	8.53501479964734E-06	0.965022118688919	-0.299050332349055
12.2	0.947330421395271	0.311406467632907	-6.18033386417796E-07	-3.83831856523636E-06	-3.15781340924752E-06	-7.1152383313449E-07	0.96278629663415	-0.301674447312994
12.3	0.978497375709476	0.190588403220275	3.67695025967103E-06	3.44349670089334E-06	-3.42117548049119E-06	6.38204119246459E-06	0.961886592516069	-0.304853192344327
