# GHZ S RI R 50
0.2	-0.965889064476124	0.251543594579362	8.8212861389763E-06	5.31829773337427E-06	1.13603818727808E-06	-2.88903890788104E-06	0.999246536283109	-0.00712131128817458
0.3	-0.926408752132089	0.371363146593587	-7.65968298411665E-06	-8.18183091654226E-07	-1.42392168012378E-08	3.65822616568482E-06	0.999070386911703	-0.00999105536545013
0.4	-0.871663040053603	0.485085356796591	-2.19728015487579E-06	6.33680064756055E-06	2.91853133065619E-06	5.7338961439438E-06	0.999006082464691	-0.0125767565417478
0.5	-0.803274515370649	0.591064628221205	-2.64770294613781E-06	5.48636012627801E-07	1.05150841033548E-05	4.88261252046805E-06	0.998838621915004	-0.0156359350531674
0.6	-0.722083159964251	0.68733400736729	-1.72450337414751E-06	-1.84023718377916E-08	4.16220734109624E-06	-1.03311597399149E-05	0.999080362469601	-0.0185705473563897
0.7	-0.629605910997596	0.772730045395549	-2.04604329315835E-06	9.87869550091846E-07	3.78169854740359E-06	1.11549756929518E-05	0.99873497347313	-0.0217654107101298
0.8	-0.527060321073598	0.845840947078783	-5.60206789249529E-06	3.78018047636876E-06	-3.16623485809389E-06	-2.1376551373285E-06	0.998359911027261	-0.0241031866864192
0.9	-0.416405876368406	0.905244623027563	-6.67856018433419E-07	5.24652545821116E-06	3.26402046601532E-06	-2.94746797361553E-07	0.998037136596341	-0.0265765035807338
1	-0.298762316488225	0.950304761413227	1.56711397789385E-05	-3.6831329159427E-06	-9.58962271143368E-06	5.26329590268134E-07	0.997448889606426	-0.0280306037912527
1.1	-0.177461345539967	0.980042165639523	1.34214732694183E-06	-2.97891684759204E-06	9.38279399155084E-06	1.25895960571625E-05	0.997279283937332	-0.0296214731850023
1.2	-0.0524650841588089	0.994449611692967	-7.9005635439649E-06	-3.26223724295755E-06	-3.09237615530439E-06	-4.47757733515079E-06	0.996977071516502	-0.030434250689225
1.3	0.0734576930224267	0.992891898925273	1.75425903897487E-07	3.33255776753236E-06	1.92778460117231E-06	3.42660231256982E-07	0.997477958224597	-0.0312887851526663
1.4	0.197797014205511	0.975230480505393	1.87390927531882E-08	3.76544833563769E-06	-2.52069331341902E-06	-5.61438088497096E-06	0.99741510579235	-0.0333789995427378
1.5	0.318825843136724	0.94236231535022	3.18499407190667E-06	-2.63043519151955E-07	2.69809379741178E-06	2.09598800354051E-06	0.997954263325001	-0.0367646230340131
1.6	0.434598953405995	0.894808321734517	1.78849096393606E-06	-1.93627634180664E-06	-8.89998478824277E-07	-3.06243463936801E-06	0.99756877549501	-0.040378238202859
1.7	0.543330946520746	0.832761635473078	-8.24965002894922E-08	-3.52262450620726E-06	1.99979842821681E-06	4.92496705671305E-06	0.997760173465532	-0.04314479567715
1.8	0.643177924157947	0.757978729302207	-2.05461101207697E-06	-1.81420251196792E-06	-4.64962032827518E-06	1.83011269709475E-05	0.997379937266364	-0.0459734550156503
1.9	0.732662659114098	0.671435706874377	-4.3849852087252E-06	-1.46887655329474E-06	-4.91699787293541E-06	-6.00146001633269E-06	0.99696748947959	-0.0481926032240847
2	0.810618191115572	0.5744763573746	-9.40458651780809E-08	-6.73464206666615E-07	-1.66506986363E-06	-1.41777205943097E-06	0.996378285160764	-0.0506772434956701
2.1	0.876343302574595	0.467542909253057	-1.14889379377011E-06	9.4360442447536E-06	1.99253088745165E-06	-3.77889137877584E-07	0.996295388816141	-0.0528326819517757
2.2	0.927739650506039	0.353904705477047	-1.70509042400013E-08	-5.92261912217363E-06	-7.38587401213117E-07	2.73344052989904E-06	0.996353516096117	-0.0552867559610828
2.3	0.964428942541095	0.234664665221659	-1.31649748606367E-06	2.76120297880837E-06	-2.82024189333622E-07	1.19584280295445E-05	0.996022369517661	-0.0571765980175045
2.4	0.985933575586136	0.110946817213383	-5.86168697206879E-06	-3.70965018855965E-06	-1.75873965339544E-05	1.4489255061341E-05	0.995866022421357	-0.0601818977133946
2.5	0.992036557848757	-0.0135931153677065	1.82075705856746E-06	-2.95750991179051E-06	-1.79851055406056E-06	7.53779459854066E-06	0.99557482165653	-0.0621429690004882
2.6	0.982403619869454	-0.136851850728299	2.85856708999117E-06	9.2212814174862E-07	-1.75577721377573E-06	4.49649188249956E-06	0.99579306388024	-0.0649277465092265
2.7	0.957463703026308	-0.258617319337435	3.80752150369475E-06	1.0443266388396E-05	2.31644146040178E-06	3.86868461399023E-06	0.995640281692718	-0.0679629621680218
2.8	0.917457277732485	-0.376657615504094	-8.10550176939171E-07	-2.29254833201902E-06	2.21393356984038E-07	-1.8867268667251E-06	0.995889940457347	-0.0701346873493948
2.9	0.86318637356281	-0.488401642927396	3.77271443392905E-06	-8.30921009626896E-06	-1.26002482940742E-06	-1.42188030032042E-05	0.99553976346779	-0.0723056959118592
3	0.795148306133664	-0.593017119130772	-1.80028795653599E-08	6.64537234359334E-06	-1.47660199607933E-05	5.28770991117054E-06	0.995370189426577	-0.0747616124414797
3.1	0.715409975289094	-0.687033754956096	-4.98655707049576E-06	7.81406347864724E-06	5.80451048750118E-06	-8.07983103164636E-08	0.995111656038963	-0.0767945423684108
3.2	0.622980693691519	-0.77148553249632	9.57664308866056E-07	2.12507285498193E-06	-4.55815152978636E-06	4.73770418649464E-07	0.994852516252527	-0.0785818047334078
3.3	0.521016736402557	-0.843664472196905	7.20454448820882E-07	-1.45797876683433E-06	-4.57931405785858E-06	7.26364905644294E-07	0.994635697581911	-0.0818277105169384
3.4	0.410253036633013	-0.902270405202088	6.46640076333384E-06	2.42096648429544E-07	-8.12387438528269E-06	-7.18630996281868E-06	0.99463500621045	-0.0838049752927369
3.5	0.293201075212991	-0.946254789276623	-7.69571306228746E-06	1.95243577055892E-06	-5.89032855054135E-06	-7.98317383142447E-06	0.994566834557377	-0.0865096473217541
3.6	0.171173022769931	-0.975499380730582	-8.51259372683996E-07	-4.38004479966991E-06	-7.80458792557876E-06	-6.33759834031268E-06	0.994455302800812	-0.0891107850462928
3.7	0.0467732289586437	-0.989681898467517	-6.70493373477831E-06	-6.77467258464894E-06	5.33144861209631E-07	-4.76134502403643E-06	0.994242313261281	-0.091958867830095
3.8	-0.0787058885015482	-0.987669543393416	-3.64328631193216E-06	1.07863128098974E-06	-3.29260055196179E-06	-2.46804647982553E-06	0.993646298201179	-0.0940471670516122
3.9	-0.202175644838446	-0.969989296769202	-4.83177120569209E-07	3.50553729971056E-06	2.05378014497499E-06	-1.2164457988516E-06	0.993353181709726	-0.0970493587830442
4	-0.322944113650609	-0.937327770511118	1.16641894875522E-05	8.12826350002524E-06	7.26711441198172E-06	-4.03032627649423E-06	0.992964322572071	-0.0978785400669197
4.1	-0.43839153684179	-0.889449311785326	5.21416504173437E-06	1.32936906574621E-06	-3.46483506771398E-06	6.645306672097E-06	0.993287757045354	-0.0996124211484522
4.2	-0.546624706945292	-0.827874481087563	-7.09481414931459E-06	-1.21058168596916E-06	-8.26407420024345E-06	-5.23576353352857E-08	0.992918233872834	-0.102426769196907
4.3	-0.646473140086386	-0.75278075386156	7.05696557004957E-07	-2.36689782639215E-06	5.21147457557961E-06	8.87856367026797E-07	0.992810459211578	-0.10446276657947
4.4	-0.73615174277344	-0.665465000632525	4.47679220927607E-06	-1.76748909671503E-06	-8.70659835591826E-07	1.34562669508761E-06	0.992412854860167	-0.106703387059207
4.5	-0.814588298011627	-0.567445605114931	6.7864621893194E-06	1.87992605235288E-06	-7.99727086403649E-07	-3.2608186249651E-06	0.992728508784607	-0.10858516669919
4.6	-0.880255019956138	-0.459784915524713	2.45451063389691E-06	2.95800448158449E-06	-6.60852036877418E-06	9.74865639353429E-06	0.992873477064475	-0.111608480603722
4.7	-0.931386424422503	-0.34394894305509	-1.40758932303882E-05	5.90877128392338E-06	-3.46660452973255E-06	-3.84245524642106E-08	0.992947259079439	-0.113957845057168
4.8	-0.967349892526793	-0.223228691001725	-3.16097810359634E-06	-5.15330945915244E-06	-5.53412237958159E-06	2.36328117862121E-06	0.992603013266333	-0.116673943759576
4.9	-0.987447426152579	-0.099401514210395	-1.01602255419926E-06	-8.56644246608788E-06	-4.22847250073676E-06	7.37803551012509E-07	0.992182778225173	-0.118606384894223
5	-0.992010513110157	0.0256648605333798	7.56319369380257E-06	-1.56971876538476E-06	-1.75391689124381E-06	-2.72679844390973E-06	0.99202178238453	-0.120114389079352
5.1	-0.980307639213517	0.151291490506457	-2.60202989364019E-06	-6.4029521590188E-06	-1.00927727404109E-06	-1.95591242161407E-06	0.992218066591532	-0.121530261180001
5.2	-0.95348833999862	0.273343644755423	4.00197068123993E-06	-4.35235957330601E-07	-5.44753241112572E-06	6.3122844826212E-06	0.992047023069395	-0.123840412494741
5.3	-0.911790002528762	0.391045129372952	5.14163625833465E-06	6.01543242775512E-06	-9.59766402090615E-07	-3.59010765715201E-06	0.991857971392507	-0.126112618242352
5.4	-0.855727477032069	0.502422233030808	3.06650426883478E-06	-2.01655517129301E-06	-1.13264034163078E-05	2.19544861428217E-06	0.99195311734731	-0.128876901981367
5.5	-0.78606925843803	0.60578760739625	-4.31025881969273E-07	-2.197276431149E-06	-5.79896121012765E-06	6.12808159293591E-06	0.991960676053697	-0.131682378844047
5.6	-0.703415947065233	0.699854195335874	2.37903225766123E-06	7.31555310273597E-06	-5.40387952182746E-07	2.93300533849424E-06	0.992046900915747	-0.134533602053423
5.7	-0.609612283389705	0.782810848462703	-2.57601150324563E-06	2.36326078562481E-06	7.92122338061184E-06	2.78572785304248E-06	0.991774376874209	-0.137410968839796
5.8	-0.505960403469231	0.852507480899031	-4.65494737714722E-06	5.10925406156008E-06	-3.67479011483633E-07	3.42636144914161E-06	0.991332832252428	-0.139986069504045
5.9	-0.394940551593661	0.908592263006488	6.36177007001133E-06	1.50092220941775E-06	-2.71365314914593E-06	2.54829461404426E-06	0.990384109254775	-0.142400984047755
6	-0.278799502979223	0.950153226401412	3.52152344199064E-06	3.30276453144867E-06	-3.2718501402195E-07	-1.43451923057059E-06	0.989573810130056	-0.14332824017423
6.1	-0.158245167220011	0.97753345021279	9.1776923926755E-06	1.53369983511522E-06	-1.25841084077533E-07	-1.80929024504516E-06	0.989842051633845	-0.144510889094023
6.2	-0.0346272043308531	0.989626902441795	2.44230844467757E-06	-1.72765990411601E-06	1.48638726019381E-06	-4.84496140975226E-06	0.989432187860207	-0.145864996099021
6.3	0.0896449351810399	0.986400954597854	-4.36787326433884E-06	4.2406209509471E-06	-6.13015713862093E-07	-1.72674414988844E-06	0.989051546706982	-0.147629929212686
6.4	0.212467210003396	0.967829960309451	-4.27022701372072E-06	1.06390059902918E-06	-1.77737891297342E-06	8.84813285543963E-06	0.988834206857452	-0.149536713787287
6.5	0.332753510398467	0.934805631405725	2.45834960959762E-06	-1.32981173831869E-06	1.49434693722174E-06	-2.93284666843161E-06	0.989380584130876	-0.152274850658878
6.6	0.448413392444601	0.885547258907119	-4.74233155096408E-06	-2.26290992228866E-06	-1.86357632423195E-06	-6.65390228810342E-06	0.989425911892438	-0.155764428915704
6.7	0.556067877568657	0.821838957561602	4.17021606145373E-06	-6.60914176133647E-07	-4.68442212576638E-06	1.01157210033191E-06	0.989027213539847	-0.158651390910521
6.8	0.654576773051484	0.745283789861691	3.76229027362122E-06	-2.08357216462519E-06	6.22327465287783E-06	-9.25683484244977E-07	0.988400682320078	-0.161325917976431
6.9	0.742342275334489	0.657159685928858	2.0512382193255E-06	1.64170225892046E-06	8.79119934430641E-06	-2.76425925364986E-06	0.987689846277041	-0.163639178608495
7	0.818196141998641	0.559069825949662	2.17646975451622E-06	4.0989391588102E-06	-9.09414312674915E-08	5.38733127257688E-06	0.987008282185758	-0.165160349583893
7.1	0.88144044201576	0.452651434435501	-1.32956970257362E-07	1.71870226103935E-06	8.26556001222122E-06	-4.64919697080639E-06	0.986836869809755	-0.167016905520034
7.2	0.930794530038736	0.338735545566602	4.85207713691828E-06	-1.39487254408699E-06	7.2635103664009E-06	3.78488551606069E-06	0.986299454904257	-0.169121275951467
7.3	0.965166296442104	0.219503941648751	4.86615572767222E-06	-1.10933680773315E-06	-7.34817089731765E-06	-7.38879814413648E-06	0.985303751628812	-0.17128901296341
7.4	0.984493305060911	0.0964095833880284	-1.84141647299816E-06	9.90705532619107E-06	1.43467975815376E-06	-4.07378764092318E-06	0.984115545037667	-0.174156576003827
7.5	0.9879423669475	-0.0278407318730301	8.41027601756816E-07	8.06769336078258E-07	1.67458664140973E-06	9.93499180129881E-07	0.982451522853374	-0.17653415077946
7.6	0.976511972174353	-0.151892479043026	1.45496678024882E-06	-2.61758017563615E-06	-5.42592654817177E-06	-3.62725766930455E-06	0.981861185421641	-0.179391006855747
7.7	0.949271437545209	-0.274039284333311	5.57926167819272E-06	2.40567057456298E-06	-6.82099702358196E-06	1.20643604153725E-05	0.981042455846057	-0.182801171906872
7.8	0.906981645374833	-0.3914099439118	-6.19910667401276E-07	-5.24449453673724E-06	3.73037457781283E-06	-4.74385122435279E-06	0.980320298514407	-0.185832448873022
7.9	0.850229343833184	-0.502184321794773	8.85365343817824E-06	1.51807652050317E-06	-9.54603113836203E-06	-8.62589455506675E-06	0.979592698297197	-0.188554441874533
8	0.780993109732035	-0.604954806661396	-6.65816178109981E-06	-1.62516252441409E-06	-1.20068405537242E-05	2.50511731180132E-06	0.979601499224949	-0.190657522350729
8.1	0.698670699631347	-0.699155287352003	5.07912749466032E-06	7.25263235113612E-07	2.89595900823983E-06	2.25952763512584E-06	0.979717475902606	-0.193793103478607
8.2	0.604770729212296	-0.781436483149873	3.5612224205949E-06	-2.5819695924159E-06	-3.70163358382477E-06	-1.16128236635659E-05	0.979261194806208	-0.196698732963276
8.3	0.501258094253285	-0.850926668669828	2.72427034539636E-06	-1.86302168641328E-06	1.64837986048506E-06	5.28921509286895E-06	0.978365502446468	-0.199623716203052
8.4	0.389991968067005	-0.906586431987653	-5.55378120107324E-06	-1.00794731955118E-06	1.06127820186441E-06	2.94853770480422E-06	0.977315054658072	-0.202303014339757
8.5	0.272479020943578	-0.947955282267701	-3.28378384011742E-06	1.63082939450192E-06	-4.80043389906317E-06	-4.99077038100571E-06	0.976570935896869	-0.20501874652979
8.6	0.150135802108631	-0.974326364394436	-8.13234135607953E-06	1.40272735929577E-06	-4.35356756956388E-06	-6.84855547796803E-06	0.975897031504448	-0.207833680599593
8.7	0.0254106494050656	-0.98480810074134	2.2396357208397E-07	-2.15065472029977E-07	6.11579940802266E-06	4.94424359738457E-07	0.975209645243812	-0.210422893776688
8.8	-0.0993839854603885	-0.979323476759721	1.01919802407239E-06	-1.81957694337194E-06	-2.39223839307158E-06	-1.27342160972889E-06	0.974624854412093	-0.212741030695749
8.9	-0.22188517826471	-0.95894143848776	-2.93228388410432E-07	3.03343267662096E-06	-1.23721754631764E-06	-1.6371614003268E-06	0.974369248496219	-0.214958326832592
9	-0.340496673950687	-0.922801307240765	2.97857754141592E-06	1.57742740331148E-06	-1.56748438761134E-06	2.11680930278984E-06	0.973879124283427	-0.21744716010274
9.1	-0.452865880260752	-0.872655261201082	-9.28880057743512E-06	2.28465758190756E-06	-1.55506189076827E-06	2.40902171053062E-06	0.973182658360483	-0.219634814428318
9.2	-0.558583032660874	-0.809234376312396	7.48851559703982E-06	-2.47770497563023E-07	-9.08360449191097E-06	1.98210852368463E-06	0.972391205794494	-0.222046154745698
9.3	-0.655493744407314	-0.733480438998078	6.60393250988628E-08	-7.14790251734281E-06	1.58123344093077E-06	-1.29975946105197E-06	0.971803926645164	-0.224406633662076
9.4	-0.742538546982594	-0.646345524161895	6.01235073022335E-07	2.47716867539238E-06	1.60888880907666E-06	-3.59173279180054E-06	0.970871080821865	-0.227309724815844
9.5	-0.818020076029458	-0.548687064641148	-2.85908755526747E-06	6.63262420024166E-06	4.71227651157497E-06	-1.36980075488691E-06	0.969698190772807	-0.229692243866781
9.6	-0.881470498266137	-0.441333844331497	-5.01941298420376E-06	-5.19240969524447E-06	4.75493629293083E-06	2.87384438266523E-06	0.969048254817881	-0.232416739169504
9.7	-0.930334243074476	-0.325759914532372	-2.00319199352626E-06	-5.0652570926793E-06	2.09408710086092E-06	8.64156337596842E-09	0.968259961775615	-0.234873808608201
9.8	-0.963950094782512	-0.204656976470602	5.8776521354951E-07	-4.28005470394739E-06	-2.93975233441759E-06	-2.51124976488598E-06	0.96766106278203	-0.236788253325904
9.9	-0.981346413728783	-0.0805430723425401	-6.09830731794567E-06	4.20907317278928E-06	-3.07685639314962E-06	1.6657855886118E-06	0.966877640902364	-0.238272932261509
10	-0.983556610077635	0.0434083102936455	3.56500048376278E-06	-4.44994417391794E-08	8.22192356347587E-06	1.10747964010345E-05	0.967011714796734	-0.239271728453727
10.1	-0.97062752082529	0.167137022168144	-2.85464453939313E-06	-2.51655109341969E-06	-2.00744544796066E-06	-2.49225504814385E-06	0.96663664356428	-0.241528595173657
10.2	-0.941930180827616	0.288808451415331	2.35218576382831E-06	-1.02083819068296E-06	-2.76431085525792E-06	-1.06325531095779E-06	0.965812575496547	-0.243014577140427
10.3	-0.897783055558928	0.405689149690501	7.74424860248977E-06	-5.94465563122384E-06	3.85813598466398E-06	8.21573457000581E-06	0.964917868809249	-0.24450879785975
10.4	-0.84002181987174	0.515419566059694	1.70314358014987E-06	2.49817653078369E-07	6.26615009544397E-06	-1.18703271370123E-06	0.964107012804175	-0.245956304495662
10.5	-0.769687524830891	0.617937146403111	8.33945387527093E-06	-4.13960245856776E-06	-4.93169549848972E-07	1.97050358115796E-06	0.9640999709934	-0.248153446921246
10.6	-0.686027077633476	0.710091964028145	8.92366905690757E-06	-1.27356504691913E-06	-1.46603240770574E-06	1.36247204902696E-05	0.963614161120151	-0.250960922810625
10.7	-0.591743711885605	0.790187285137312	8.0027633583797E-06	-1.9036848447027E-06	-3.05118582903449E-06	-5.27132086140793E-06	0.96294007001149	-0.253864849166862
10.8	-0.487590858979456	0.858310474236321	2.4486064077539E-06	5.23873214317498E-06	-3.62220565058369E-06	-2.037303267694E-07	0.962353182793267	-0.256169319983451
10.9	-0.375243975005299	0.912944555543989	-5.54957641276155E-06	4.86665276010358E-07	1.59606433231999E-06	4.02137120341569E-06	0.961724139292414	-0.258259838973713
11	-0.257620063161206	0.952484491401425	2.66922568123761E-09	-5.21119492312144E-06	-8.36279178152331E-06	2.22791405789767E-06	0.961030050516767	-0.260183545234513
11.1	-0.136310154473245	0.978305344519675	6.29634670967427E-06	4.0845685798704E-06	-1.90520629490664E-06	1.07389030524266E-05	0.959900784758914	-0.261988292347704
11.2	-0.0120107357344304	0.98854093259917	1.57513814042433E-06	1.3540941239005E-06	5.12262269907006E-06	8.89237342227379E-06	0.958573224136493	-0.263507605363072
11.3	0.112875615520811	0.982098833498912	-4.59935211910679E-07	-1.73550014324935E-06	-6.93365801837091E-07	-4.39028950920376E-06	0.957727667911537	-0.264903370233381
11.4	0.235749551207257	0.96007294248018	2.11824652416233E-07	1.18476638295782E-05	2.41519141037681E-06	4.92631089126321E-06	0.956583825243586	-0.267011408985547
11.5	0.354773765475814	0.922857816526295	6.18748779798219E-06	-3.1952338483868E-07	3.177750402338E-07	-1.87949851590953E-06	0.955635852588883	-0.268851167878661
11.6	0.467103309830316	0.871315248356832	-5.9984065588441E-06	3.06319833365837E-06	-4.86416042198158E-06	1.90881929053428E-06	0.954902371648927	-0.272182860772292
11.7	0.572087199024822	0.806474995313407	3.32361469335566E-06	-1.79003860096101E-06	-1.70627812682019E-06	2.23208285045153E-06	0.953625607743029	-0.275608785945414
11.8	0.668000892146767	0.728237075713187	-8.27878360646956E-07	9.77779867497217E-06	-2.72100208878068E-06	1.05194477028655E-05	0.952407800661198	-0.278740452710719
11.9	0.752063557758494	0.638046213716105	-7.28095979265449E-06	-1.03970689118787E-06	-3.91027125717553E-06	1.12244945813652E-05	0.952175299684653	-0.280697875069536
12	0.823686550325621	0.540005164126759	-6.45016731953809E-07	1.37842639755659E-06	-3.12798214839072E-06	-1.92521523100978E-06	0.952739294412031	-0.28279090186521
12.1	0.884899951833309	0.433117691962784	-3.87391173418073E-06	4.97628921362449E-06	-1.34076920316994E-06	8.3986656815101E-06	0.952284475946818	-0.286645768135581
12.2	0.93124391862905	0.318847094207248	-5.7335315166803E-07	-3.78926738044721E-06	-3.10606310279429E-06	-7.30857126883479E-07	0.950857591648458	-0.289987767977976
12.3	0.962840928828718	0.200739071656883	3.58351534313495E-06	3.42610430243216E-06	-3.43161687554284E-06	6.24582827299851E-06	0.949167078980532	-0.292832711075091
