# GHZ S RI R 50
0.2	-0.965425514720451	0.251856025895985	8.82064450514012E-06	5.31608891098699E-06	1.13541416266217E-06	-2.88873700777523E-06	0.99924771490354	-0.00699653170506778
0.3	-0.925687067928871	0.371658817329979	-7.65801891123989E-06	-8.15997056438574E-07	-1.328740281064E-08	3.65733380687603E-06	0.999050646415824	-0.00994090344333949
0.4	-0.870602813570154	0.48519930995187	-2.19367870049003E-06	6.33448188163911E-06	2.91932416308756E-06	5.72986436249631E-06	0.998711285536705	-0.0126738579495978
0.5	-0.802220968866915	0.59059388957804	-2.64536319690564E-06	5.48200989997293E-07	1.0505919379907E-05	4.87812641046937E-06	0.998039790246801	-0.0152464007875596
0.6	-0.721282784264025	0.686919069336938	-1.7234400969527E-06	-1.86473124995496E-08	4.16118283877421E-06	-1.03241877422064E-05	0.998559919889861	-0.0178239654980945
0.7	-0.628687280539772	0.772227356518815	-2.04487191426689E-06	9.86960461028998E-07	3.77776605767723E-06	1.11483709504963E-05	0.998274732536534	-0.0208658966681092
0.8	-0.526115816748019	0.845131046628193	-5.59943782565521E-06	3.77653450916285E-06	-3.16376736266663E-06	-2.13704718942868E-06	0.998088973455286	-0.0230023778036672
0.9	-0.415498111544558	0.904336601865881	-6.68835019601995E-07	5.24416199914848E-06	3.26272058338313E-06	-2.93839485199672E-07	0.998206143217925	-0.0255572490644877
1	-0.297871864320009	0.949179023679265	1.56639050223232E-05	-3.68528260876466E-06	-9.58559774428752E-06	5.28348037249932E-07	0.997515666607165	-0.0276855021085802
1.1	-0.176674487646672	0.978605308090685	1.34018217004288E-06	-2.9768373748783E-06	9.37864358175234E-06	1.25764879632126E-05	0.996987147524798	-0.0292691647398828
1.2	-0.0519632611871229	0.992634563051533	-7.89232081361867E-06	-3.25657576384055E-06	-3.08993135691665E-06	-4.47169935281557E-06	0.996351592238034	-0.0301986973678042
1.3	0.0733024421471551	0.990901782920448	1.74722171313483E-07	3.32750819253481E-06	1.92480537180308E-06	3.42391285370538E-07	0.996370411743818	-0.0306856803431564
1.4	0.197036189185735	0.973632731569945	1.58454187044122E-08	3.76009898017359E-06	-2.51282801489601E-06	-5.60830281919235E-06	0.996474278206076	-0.0322221479028301
1.5	0.31773967613791	0.941252598072113	3.18106946141793E-06	-2.59529317268411E-07	2.69246237087725E-06	2.09591717124661E-06	0.996798999267016	-0.0355233399152888
1.6	0.433620894457603	0.894397032474514	1.789497056492E-06	-1.93183006928551E-06	-8.84762421776384E-07	-3.06070123115086E-06	0.996650757223705	-0.0385349797527381
1.7	0.54264861653009	0.832677217677042	-7.71264886082908E-08	-3.52072426532922E-06	1.99120740267913E-06	4.92515770652397E-06	0.997239460109843	-0.0412209973092536
1.8	0.642872071862758	0.758172909963443	-2.05162872889223E-06	-1.81706638429708E-06	-4.67655739206277E-06	1.82918669344667E-05	0.997266704617692	-0.044188022065323
1.9	0.733112083545059	0.671534297437447	-4.38584187935826E-06	-1.47395925156911E-06	-4.91367669290028E-06	-6.00944437490915E-06	0.997195451089783	-0.0472055559946538
2	0.810686065325405	0.573497862231846	-9.41121772162877E-08	-6.73188054200743E-07	-1.66463918160971E-06	-1.4169666130788E-06	0.994955228184153	-0.0504494184936196
2.1	0.875943001278865	0.467641419006182	-1.15796136201942E-06	9.42643529088792E-06	1.99116520495225E-06	-3.75423321396289E-07	0.994609738357259	-0.0508978527253969
2.2	0.928131158419795	0.354279164736536	-9.16067281444703E-09	-5.92093457088972E-06	-7.42013771810179E-07	2.73166924109508E-06	0.995329862392556	-0.0529767549929899
2.3	0.965388145634397	0.234808904317598	-1.32005866877773E-06	2.75960694289481E-06	-2.97284303787283E-07	1.19584278420232E-05	0.995488934205703	-0.0548047535589021
2.4	0.987257539230791	0.110705667290101	-5.85825413824153E-06	-3.71848075233142E-06	-1.76114348331777E-05	1.44694873477457E-05	0.995835860349124	-0.0581287806638492
2.5	0.993592874063322	-0.0141898768998202	1.82653102516305E-06	-2.95858534388873E-06	-1.81000016523138E-06	7.5440977515589E-06	0.995313026254767	-0.0607977335233234
2.6	0.984151596135087	-0.13812886721937	2.86207240357643E-06	9.23424794397251E-07	-1.75819635932693E-06	4.50198965187067E-06	0.995061184812242	-0.0636359329314741
2.7	0.95872739388935	-0.260317981668505	3.81374447786351E-06	1.04475926570355E-05	2.31925174530491E-06	3.8699315451729E-06	0.994462794221974	-0.0665388574456367
2.8	0.918404647124171	-0.378228197710309	-8.11196881450153E-07	-2.29239760419387E-06	2.2088797268962E-07	-1.88684395617432E-06	0.994584831713135	-0.0682778820171164
2.9	0.864059255296827	-0.489740498290314	3.77190831579158E-06	-8.30684438919931E-06	-1.25930115584511E-06	-1.4214961117298E-05	0.994491494330261	-0.0702307550384194
3	0.79616805034526	-0.594004543503281	-2.07109498090584E-08	6.64294728712795E-06	-1.47628078432999E-05	5.27975426334117E-06	0.994365448279727	-0.0727951042354268
3.1	0.717052694659679	-0.687891509834984	-4.99118865247941E-06	7.80637468269025E-06	5.80208212021371E-06	-7.57286688471616E-08	0.994040959233455	-0.0744822652219763
3.2	0.625185157352128	-0.772696315066903	9.54540622524514E-07	2.12596037662079E-06	-4.55787710598496E-06	4.6739183813847E-07	0.99405075469313	-0.0758698454924079
3.3	0.523726204444529	-0.845395183928178	7.23304389546714E-07	-1.45690867598643E-06	-4.58152073734946E-06	7.17970930166533E-07	0.994349331718495	-0.0787994346443334
3.4	0.413607646292402	-0.905151709335656	6.47282273651472E-06	2.57753380844693E-07	-8.11555791825035E-06	-7.21342814069031E-06	0.995251495677026	-0.0808166239996328
3.5	0.29515903290425	-0.951115037074599	-7.7172243672236E-06	1.94804224952784E-06	-5.89539510989753E-06	-8.01013688204169E-06	0.995335375753524	-0.084754949244287
3.6	0.172074661891075	-0.979497166156397	-8.50773314081846E-07	-4.38644411389246E-06	-7.81300159289828E-06	-6.34935894683825E-06	0.994441944443541	-0.0868805985528127
3.7	0.0476300083474047	-0.993902955059485	-6.70770140701363E-06	-6.7883061050753E-06	5.37603790137387E-07	-4.76673165216164E-06	0.994904845694759	-0.0892502714988697
3.8	-0.0784443980701134	-0.992221254205636	-3.64980614629583E-06	1.07715058954876E-06	-3.29552927399877E-06	-2.47466841091837E-06	0.995315585153296	-0.0916353228370269
3.9	-0.202820398015315	-0.974349754904206	-4.85231417572085E-07	3.51146716886356E-06	2.05777352108051E-06	-1.2178503761159E-06	0.99592529342059	-0.0961311568748303
4	-0.323625184252558	-0.940535469181668	1.16697198259648E-05	8.13682029930288E-06	7.27302821099373E-06	-4.03102711778658E-06	0.993623579777575	-0.0988314954985632
4.1	-0.438293251812438	-0.893100985475806	5.21825399484526E-06	1.33759800621417E-06	-3.47729531646741E-06	6.64822654421319E-06	0.99304449790898	-0.0990941164340632
4.2	-0.546975862344998	-0.832021712430262	-7.10495471715366E-06	-1.22051475690017E-06	-8.27741134152945E-06	-6.17268550165964E-08	0.993034249921352	-0.101609429844598
4.3	-0.64749838991963	-0.756857756593159	7.08879266343411E-07	-2.37050221951091E-06	5.21995549383207E-06	8.93687559739396E-07	0.993103190429905	-0.103702142748845
4.4	-0.737768903985227	-0.668806271999278	4.48456130131611E-06	-1.76909618530788E-06	-8.72453514775931E-07	1.34756630191668E-06	0.992639720872498	-0.106251246854601
4.5	-0.815631157825961	-0.569954697427564	6.79191482868008E-06	1.88345373676231E-06	-7.99530604401114E-07	-3.263908692195E-06	0.99229912765253	-0.107931148977225
4.6	-0.880824448528733	-0.462449013332925	2.4551435929278E-06	2.96135184466551E-06	-6.61783006747705E-06	9.75337729938335E-06	0.992654970375192	-0.110574753133857
4.7	-0.931779888204607	-0.34680512754991	-1.4085188140128E-05	5.90510982553022E-06	-3.46821135089844E-06	-4.00261786849638E-08	0.992728250190779	-0.11288362291544
4.8	-0.96757028991424	-0.226301161314377	-3.15779166136173E-06	-5.15612341166023E-06	-5.53642994661332E-06	2.35973429882538E-06	0.992441773670141	-0.115370994817516
4.9	-0.987360999133736	-0.103369630281409	-1.00359987122797E-06	-8.56723352972081E-06	-4.22920342687452E-06	7.3165304436804E-07	0.992458141419591	-0.117175846575712
5	-0.993981305559981	0.0203028876993005	7.5767182847759E-06	-1.55455965044222E-06	-1.75001434029333E-06	-2.73437999695909E-06	0.992697396600881	-0.119172653847659
5.1	-0.983444585647187	0.147515178405871	-2.59957864699032E-06	-6.41944360409601E-06	-1.00897387420091E-06	-1.96121315689063E-06	0.992902981091636	-0.120806132093577
5.2	-0.957016412685248	0.270133726272619	4.01127166141729E-06	-4.32590058421351E-07	-5.4653593163789E-06	6.32141446019629E-06	0.993032529348112	-0.123390191126353
5.3	-0.916008383761865	0.388776935395673	5.15190383519366E-06	6.03431482456018E-06	-9.60291336457E-07	-3.600187461793E-06	0.992995401496143	-0.126148977371132
5.4	-0.860035871268209	0.501874845616574	3.0757531257138E-06	-2.02347739816128E-06	-1.13615695273931E-05	2.20451265535185E-06	0.993288005122693	-0.129438277994924
5.5	-0.788756890492295	0.606527063997104	-4.35857474400778E-07	-2.20256516139251E-06	-5.80462093840627E-06	6.15447267282231E-06	0.992672306706748	-0.133637335741063
5.6	-0.705200579926983	0.699942288332101	2.3938808830486E-06	7.32352079314588E-06	-5.36798447301699E-07	2.93846396128944E-06	0.991500353388721	-0.135779611960856
5.7	-0.611490852508683	0.783043327991305	-2.57748066793458E-06	2.37035911447729E-06	7.93792638182734E-06	2.78081280979597E-06	0.991684911108236	-0.138081443524988
5.8	-0.507651307257168	0.853612281122951	-4.65825160849283E-06	5.1273171771703E-06	-3.63487482026782E-07	3.4346006495854E-06	0.992150022143454	-0.140941476186309
5.9	-0.39527088105081	0.911120238780547	6.38622564077073E-06	1.48836642969992E-06	-2.71538434322653E-06	2.56385481473654E-06	0.992160858221141	-0.145273846808976
6	-0.276055990229862	0.951615827417197	3.54441762413698E-06	3.28895670082069E-06	-3.35322522411046E-07	-1.43493046014989E-06	0.988384086213793	-0.148785858319021
6.1	-0.155502669897898	0.97711929311036	9.18285012806655E-06	1.49150949596262E-06	-1.34072577611462E-07	-1.80835296390663E-06	0.987045554322424	-0.148135284536679
6.2	-0.0318893378891485	0.988276617034608	2.43286682336605E-06	-1.73713152446876E-06	1.46392170733175E-06	-4.84788775602607E-06	0.986364404952198	-0.149001941715492
6.3	0.0923343072008407	0.984227799110362	-4.34320358184534E-06	4.25327896807039E-06	-6.19571432357864E-07	-1.72157974273705E-06	0.985704958642802	-0.150271103260912
6.4	0.215248801246941	0.964054804268782	-4.25407006136863E-06	1.07900734333876E-06	-1.73519612943178E-06	8.83145220552415E-06	0.985114445371223	-0.152125504286737
6.5	0.332067040925509	0.929586919796439	2.44618226464604E-06	-1.32792646113206E-06	1.48381090888778E-06	-2.9228841793421E-06	0.984602521066699	-0.15297814887075
6.6	0.447097308813243	0.88301165259949	-4.73336134284599E-06	-2.25708123380627E-06	-1.86158440263928E-06	-6.63997632066756E-06	0.986804492317471	-0.155615222333597
6.7	0.555179107944804	0.81976413605509	4.16460289649848E-06	-6.61855615813106E-07	-4.67800154503689E-06	1.01228559653618E-06	0.987030442373796	-0.159141220843755
6.8	0.653869558511447	0.743676932495518	3.75873133664667E-06	-2.08367527628072E-06	6.21845123440467E-06	-9.27649622754274E-07	0.986699803053336	-0.162013013728892
6.9	0.742326902457479	0.655788456298149	2.05282852785586E-06	1.64039628111833E-06	8.79050500770662E-06	-2.77144381312718E-06	0.986548781553574	-0.164914588315392
7	0.818198488104046	0.556905442246223	2.18544228643397E-06	4.09337415334123E-06	-7.8698847366787E-08	5.38671673798913E-06	0.984749433126446	-0.16731743309102
7.1	0.880939514414155	0.451039915344819	-1.29982503053953E-07	1.71657774822509E-06	8.24674727264899E-06	-4.65629946546904E-06	0.984240254927842	-0.167848413216263
7.2	0.930568175269628	0.337739459980333	4.84423167785842E-06	-1.39614757028854E-06	7.25571285879148E-06	3.77461530436225E-06	0.98427992800339	-0.169196957947513
7.3	0.965663507872609	0.219233547255693	4.86137962549719E-06	-1.10544748234702E-06	-7.3360000233155E-06	-7.38464459325478E-06	0.984269939328868	-0.170501586037571
7.4	0.987370789426459	0.0965136947328426	-1.8663411973158E-06	9.91175167255051E-06	1.44554548112775E-06	-4.07412893722322E-06	0.985789825339581	-0.173009912485695
7.5	0.992599943756676	-0.0320190282034559	8.45374683207606E-07	8.1071050045151E-07	1.68315535372234E-06	9.98262006965509E-07	0.985735864064468	-0.179531063752332
7.6	0.978412173696592	-0.157280506880528	1.45329332927334E-06	-2.63041431718705E-06	-5.45410146462928E-06	-3.62591259068487E-06	0.982839290710018	-0.182809531833289
7.7	0.950173346742719	-0.279966421054536	5.60605809392082E-06	2.39421697796436E-06	-6.80157889240488E-06	1.21279338699871E-05	0.981910182605368	-0.186384668099667
7.8	0.90658780291891	-0.397954926531439	-6.47024218068422E-07	-5.25763439507999E-06	3.71903849144514E-06	-4.77636238299274E-06	0.981125267245499	-0.19012917761349
7.9	0.847648506648553	-0.509471499138768	8.88455201978677E-06	1.45964757243463E-06	-9.62821554265853E-06	-8.57890843031827E-06	0.97996257138163	-0.194740036269245
8	0.772750019889821	-0.608976536975731	-6.65177094174129E-06	-1.56002169717426E-06	-1.19463261355456E-05	2.60541225513999E-06	0.974798548435716	-0.197810704194183
8.1	0.693711598507009	-0.697167972017794	5.05392472717957E-06	6.99761592886435E-07	2.88939069175563E-06	2.23471347133483E-06	0.974360351501231	-0.196463844194335
8.2	0.603087423602268	-0.778835216141559	3.53822539884486E-06	-2.57619932492105E-06	-3.70641957263452E-06	-1.15473001895456E-05	0.975017016799009	-0.198187273646855
8.3	0.501614173177474	-0.848601075006036	2.71034209513504E-06	-1.85651197080461E-06	1.64479115131314E-06	5.26365783842089E-06	0.974660448556789	-0.200629128790861
8.4	0.391692815137859	-0.905178923230182	-5.53016241130942E-06	-1.00619312800065E-06	1.05554831672498E-06	2.93670303709805E-06	0.973760067232522	-0.203047815718564
8.5	0.273689764767402	-0.946837562687828	-3.27642128240159E-06	1.62394551154835E-06	-4.78385668710155E-06	-4.98141111258201E-06	0.97293068615582	-0.204663319381361
8.6	0.153095881185524	-0.971862622332747	-8.10702768996652E-06	1.39924670674574E-06	-4.34081984985808E-06	-6.82690238224803E-06	0.973543859929995	-0.206984230666735
8.7	0.0305869544707664	-0.9831425135226	2.23183776959077E-07	-2.14145253412099E-07	6.09197022368322E-06	4.9494894502405E-07	0.973434273686379	-0.209831590513282
8.8	-0.0925767218976139	-0.979059993740859	1.01697005565219E-06	-1.81021366318427E-06	-2.38001225192492E-06	-1.2707878238786E-06	0.973124702654078	-0.21234862017056
8.9	-0.213086627595198	-0.960788748189349	-3.01216777736256E-07	3.01691219741927E-06	-1.22572853141192E-06	-1.63261394150444E-06	0.972966486343705	-0.214750109260616
9	-0.332206124352274	-0.929700576080638	2.96024383280693E-06	1.59072530215035E-06	-1.5756132195117E-06	2.10108684075938E-06	0.972310524395229	-0.217434482404401
9.1	-0.447543113342283	-0.880611050809752	-9.29290826257856E-06	2.23204754741904E-06	-1.56678061460131E-06	2.39839712794922E-06	0.971147332226659	-0.219407859915534
9.2	-0.555173852030564	-0.81771643634976	7.49048056006427E-06	-2.08316903288416E-07	-9.09485228378936E-06	1.93439907488925E-06	0.969981232803581	-0.221128833019056
9.3	-0.654043045942737	-0.741428850991006	1.00409996209652E-07	-7.155765709488E-06	1.58927914883656E-06	-1.29366026451746E-06	0.969547683676451	-0.222321573115917
9.4	-0.742773523780992	-0.653398834596448	5.92965676477991E-07	2.48594364079545E-06	1.62727924026431E-06	-3.59462150131389E-06	0.969987165111358	-0.224295461396074
9.5	-0.819388326029824	-0.550827938107594	-2.86648340637666E-06	6.65037910503877E-06	4.7247794109827E-06	-1.37360260944326E-06	0.969410138260548	-0.228023262184592
9.6	-0.876655881394171	-0.442530318762587	-5.01535816083649E-06	-5.18452565508769E-06	4.75036901138057E-06	2.86877888203323E-06	0.968401117277482	-0.229892894995697
9.7	-0.923837121732381	-0.330532634903493	-1.99364156223973E-06	-5.05746689579734E-06	2.0899422127706E-06	1.09374206272915E-08	0.968718903821977	-0.231956263131435
9.8	-0.958323395808062	-0.212008632876577	5.94715481393902E-07	-4.27167644664686E-06	-2.93008263761826E-06	-2.51243565629137E-06	0.969383826811297	-0.234332607075683
9.9	-0.977888373287211	-0.0891378484884578	-6.10011955601835E-06	4.19415036823706E-06	-3.07694823056993E-06	1.65868803317023E-06	0.969245796265209	-0.238024667673228
10	-0.982193848170903	0.0359965674830975	3.56004148093408E-06	-3.94839866670385E-08	8.19495809342809E-06	1.10706215885923E-05	0.965076697666571	-0.239314064248572
10.1	-0.968494154620845	0.160748189772303	-2.84716857560583E-06	-2.51956470996363E-06	-2.00082028267292E-06	-2.49368788140767E-06	0.966283395192404	-0.237584485842517
10.2	-0.939430527536054	0.281966080987229	2.35171046130993E-06	-1.01672063463605E-06	-2.76058578987988E-06	-1.06626278920388E-06	0.967651937613918	-0.239483912036919
10.3	-0.89510627555485	0.398499592084132	7.73896851841398E-06	-5.92914715440508E-06	3.84510203568459E-06	8.20785410243025E-06	0.967588625186148	-0.242141867722708
10.4	-0.836004773238392	0.507391136641554	1.69755002660444E-06	2.50188314642315E-07	6.24701243099664E-06	-1.17896335463327E-06	0.966289220519378	-0.245194356059347
10.5	-0.766308294465183	0.605475486774331	8.31303870527682E-06	-4.08711498725966E-06	-4.98144671019813E-07	1.9586884864007E-06	0.964534543442243	-0.246681177138117
10.6	-0.686288551157117	0.697074132160344	8.90354419643746E-06	-1.22255223847966E-06	-1.53365422217387E-06	1.35759621985793E-05	0.964524148360217	-0.249351481802965
10.7	-0.593914038743811	0.777897984869403	7.99552711541997E-06	-1.85856301918341E-06	-3.01764514262122E-06	-5.275779272629E-06	0.962952747994389	-0.251903912001945
10.8	-0.490959050003357	0.846768568908136	2.41692383100649E-06	5.24104783278201E-06	-3.61407072699646E-06	-2.2192430285586E-07	0.962146380140665	-0.252760395351324
10.9	-0.380210027347875	0.90223996947432	-5.5455192662744E-06	4.53177510810265E-07	1.57024315503846E-06	4.02579803973366E-06	0.962219773805107	-0.253714737059694
11	-0.262679461421746	0.945564234026954	2.87441700799117E-08	-5.21821407693781E-06	-8.38522351208941E-06	2.18908200553449E-06	0.96213828421753	-0.254193747429932
11.1	-0.137900117734722	0.969871245425366	6.28753134785376E-06	4.10455510641926E-06	-1.93694677487103E-06	1.07384107670619E-05	0.963612070754272	-0.254699922598826
11.2	-0.0151263439080894	0.977549242832012	1.57030239774732E-06	1.35800023676523E-06	5.09368313334704E-06	8.90265519311214E-06	0.964666692873155	-0.256579129496087
11.3	0.106671488200149	0.970956901956893	-4.53162748267336E-07	-1.73534771581478E-06	-6.76726393597144E-07	-4.38819993540804E-06	0.965810248688186	-0.258860223757121
11.4	0.227045053137444	0.950660957742968	1.54741961816868E-07	1.18388212799505E-05	2.38951948206768E-06	4.93381165506365E-06	0.9671419771892	-0.262742150183161
11.5	0.345270141386113	0.915812578992829	6.19345314101673E-06	-2.93152776753935E-07	3.2609314092793E-07	-1.87952665407915E-06	0.965333883372674	-0.268711315602243
11.6	0.457235326288407	0.866203425199827	-6.01051961260658E-06	3.04057796422053E-06	-4.87179224869071E-06	1.89043352879855E-06	0.963116943603669	-0.271085683321817
11.7	0.56222022321083	0.803961533502421	3.3327738666697E-06	-1.77639046125099E-06	-1.71667075109519E-06	2.22563003051654E-06	0.963216916809276	-0.274981301368269
11.8	0.659896029217759	0.728917921223757	-8.73001512397021E-07	9.79137649080096E-06	-2.77278150239414E-06	1.05258824836716E-05	0.962971467912464	-0.280286684905803
11.9	0.749549003883613	0.640264754013743	-7.30908889567963E-06	-1.06198810741954E-06	-3.95434501926575E-06	1.1262186474973E-05	0.961609971034356	-0.286623895562199
12	0.822981601228539	0.537263681575701	-6.45173834435411E-07	1.38064629080571E-06	-3.13326179043558E-06	-1.92620166632106E-06	0.95411062775826	-0.288442775410744
12.1	0.884108527254251	0.43004404379446	-3.88460263140934E-06	4.97791867893625E-06	-1.35234060744552E-06	8.40754336264286E-06	0.953449515373859	-0.286499903791835
12.2	0.931179756559234	0.314225853188057	-5.72838496305355E-07	-3.796372825367E-06	-3.11139490600708E-06	-7.33456210585399E-07	0.953246636407392	-0.287946791087165
12.3	0.962113945527483	0.194569271756622	3.58805126621209E-06	3.42833063909566E-06	-3.43302945719249E-06	6.25295265002946E-06	0.952282342263545	-0.289728690858299
