# GHZ S RI R 50
0.2	-0.96599157597836	0.251522639726175	8.82137242437735E-06	5.31951257134384E-06	1.13639482391678E-06	-2.88912572961668E-06	0.999315679596417	-0.00697847835239077
0.3	-0.926544659024142	0.371374382176666	-7.6602663298484E-06	-8.19222316407572E-07	-1.47017986500776E-08	3.65855224830679E-06	0.999177006781891	-0.00979157496894075
0.4	-0.871815782830405	0.485156012255646	-2.19842003402074E-06	6.3372365118713E-06	2.91807438625979E-06	5.73497397626227E-06	0.999169744299318	-0.0123389493892135
0.5	-0.803382811979713	0.591191458898654	-2.64807147970992E-06	5.48370594553779E-07	1.05156736846942E-05	4.88446838036559E-06	0.999042876658712	-0.0154008045902256
0.6	-0.722179817216934	0.687458624897925	-1.72468963450901E-06	-1.86777293257199E-08	4.16430145192479E-06	-1.03316333412512E-05	0.999331520647509	-0.0183109009149328
0.7	-0.629700160416271	0.772892180140354	-2.04647983169956E-06	9.87667968665411E-07	3.78038385820079E-06	1.11570935150777E-05	0.999046930878952	-0.0215302014875118
0.8	-0.527134594472242	0.846041880972855	-5.60349593575381E-06	3.77984699820644E-06	-3.16636196541323E-06	-2.13847430327284E-06	0.998708531149193	-0.023905504946058
0.9	-0.416457496160709	0.90548084603315	-6.6884482311746E-07	5.24726154582543E-06	3.26459764929441E-06	-2.94246457793299E-07	0.998418057157974	-0.0264068779298361
1	-0.298792548000178	0.950578508426214	1.56748894724527E-05	-3.68108539784763E-06	-9.59161130549567E-06	5.24735219237837E-07	0.997857473475393	-0.0278971369706946
1.1	-0.177485979190888	0.980349386367134	1.34312488021637E-06	-2.97919834497811E-06	9.38169551063345E-06	1.25943596821988E-05	0.99770827359685	-0.0294046464533361
1.2	-0.0525220478720361	0.994794708363334	-7.90109699862074E-06	-3.26613428156338E-06	-3.09131238216547E-06	-4.4798442587975E-06	0.99753193508023	-0.0300584638703206
1.3	0.0732961786621391	0.993298303507876	1.73188063107031E-07	3.33351979948035E-06	1.92803695844174E-06	3.44066957117763E-07	0.998211413226633	-0.0306289480037393
1.4	0.197579411344775	0.975773897908909	1.50531481947779E-08	3.76667475302045E-06	-2.51599720816002E-06	-5.61865360580062E-06	0.99841875297916	-0.0324679499236055
1.5	0.318748089943839	0.942953636501464	3.18663294293515E-06	-2.60001578255188E-07	2.6971845878957E-06	2.09956833496331E-06	0.999159796513719	-0.0359735244822774
1.6	0.434662370944352	0.895369024107241	1.79096155227525E-06	-1.93567307522402E-06	-8.87830748485554E-07	-3.06461837800344E-06	0.998774996905042	-0.0398508250429598
1.7	0.543554563150347	0.83325541956269	-8.02263282873563E-08	-3.52443838155335E-06	1.99756590161199E-06	4.92873952443111E-06	0.998897893992306	-0.0428971928247375
1.8	0.643527733320213	0.758399108422224	-2.05478610596107E-06	-1.8162226297694E-06	-4.66144814403919E-06	1.83085588823637E-05	0.998450133841625	-0.0459272104177997
1.9	0.733188498970752	0.671798722456673	-4.38739066067861E-06	-1.47153523009499E-06	-4.91804083710064E-06	-6.00738408336869E-06	0.998077971641749	-0.0483450248594219
2	0.811322009903702	0.574501090489192	-9.4136922322348E-08	-6.73980526450668E-07	-1.66639197183507E-06	-1.41881850861591E-06	0.997373192447206	-0.0512665895947236
2.1	0.876824545363027	0.467438997017771	-1.14836638924831E-06	9.44142152677845E-06	1.99358976546761E-06	-3.78344776319633E-07	0.99699650171411	-0.0533994857257139
2.2	0.92822998175465	0.353819075806619	-1.7961442933819E-08	-5.92620405861648E-06	-7.38619318095818E-07	2.73520852788443E-06	0.997067185928811	-0.0558505549597273
2.3	0.964985433366365	0.234516449233579	-1.31663485991396E-06	2.76338854677245E-06	-2.79019198672088E-07	1.19664466909181E-05	0.996757041785915	-0.0578063178545674
2.4	0.98656163677523	0.110641810654066	-5.86706451881329E-06	-3.70979601846253E-06	-1.75933656162507E-05	1.45058876597408E-05	0.996632079985067	-0.0609001318673585
2.5	0.99259275003239	-0.0141875292775459	1.8207101996489E-06	-2.96046829693458E-06	-1.79634968657303E-06	7.5440328063107E-06	0.996350182199361	-0.0630255420362359
2.6	0.982703686465511	-0.137637391342264	2.86153211721681E-06	9.20646845082081E-07	-1.75368773536101E-06	4.5013916384015E-06	0.996478413142694	-0.0659816836085195
2.7	0.957400052040839	-0.259456879080261	3.8209185694654E-06	1.04452554679411E-05	2.3219306907178E-06	3.86845115871928E-06	0.996129501966143	-0.069119659728361
2.8	0.9171058315311	-0.377331247922017	-8.13550953996147E-07	-2.29235018378314E-06	2.19220990068932E-07	-1.88762164080684E-06	0.996232325449518	-0.0712396691382489
2.9	0.862750218696416	-0.488900401099382	3.76330909615693E-06	-8.31535331131246E-06	-1.27756119096796E-06	-1.42199268790489E-05	0.99587575286323	-0.073336273096092
3	0.794659685448521	-0.593483465955028	-9.81897981377563E-09	6.64637596852906E-06	-1.47616867071903E-05	5.3066813830229E-06	0.995777675943462	-0.0757869131220303
3.1	0.714803831831772	-0.687389031010904	-4.97715925043249E-06	7.82131603043583E-06	5.80507006273043E-06	-8.8211366700856E-08	0.995590074169248	-0.0778544750355563
3.2	0.622341854740651	-0.771705952937998	9.6044569825844E-07	2.12399047467478E-06	-4.55785068730357E-06	4.79630594527527E-07	0.995383172017858	-0.0796932167510785
3.3	0.520399380017087	-0.843738307394085	7.18665224031698E-07	-1.45888959494255E-06	-4.57848476196178E-06	7.32028599846094E-07	0.995183162483604	-0.0829612334320693
3.4	0.409826946341332	-0.902246102299468	6.46655731560375E-06	2.35278139932027E-07	-8.13132404220657E-06	-7.17763880055095E-06	0.995247153239542	-0.0848779939733621
3.5	0.292757165334075	-0.946576221430523	-7.69620382066221E-06	1.96045141021101E-06	-5.89983472520324E-06	-7.97995947741676E-06	0.995411380901792	-0.0877199483682176
3.6	0.170391968088797	-0.975511276521401	-8.56829294004929E-07	-4.3800385341903E-06	-7.81420346289107E-06	-6.32953327840011E-06	0.995174892642155	-0.0905289191677329
3.7	0.0461788214075558	-0.989444414814963	-6.71353901275522E-06	-6.76736843512633E-06	5.27571218681833E-07	-4.7624050291498E-06	0.994872505246948	-0.0934146079512782
3.8	-0.0790989973526642	-0.987430780383695	-3.64230508229959E-06	1.08277538018857E-06	-3.29556669236312E-06	-2.46451472010988E-06	0.994249320137867	-0.0955562054537337
3.9	-0.202539800803465	-0.969941990811804	-4.7904211096408E-07	3.50659200779853E-06	2.05260122973269E-06	-1.21907186447033E-06	0.99401072948901	-0.098751236543136
4	-0.323700528581141	-0.937269181056709	1.16752276600474E-05	8.10979662906767E-06	7.26026255193051E-06	-4.04087090772213E-06	0.993243201869231	-0.10007708565991
4.1	-0.439212733044982	-0.888965975393103	5.21401363958095E-06	1.32193260807015E-06	-3.45470471770027E-06	6.64747250527336E-06	0.993100484390035	-0.101522641710972
4.2	-0.547312845294675	-0.827135302557266	-7.09353744725212E-06	-1.20111716296474E-06	-8.26086761645677E-06	-4.18710274732078E-08	0.99268496742599	-0.104197375532025
4.3	-0.647007682812824	-0.751890388724512	7.0246621229464E-07	-2.366754288152E-06	5.2103348894486E-06	8.81029697990447E-07	0.992500023454655	-0.106183217503046
4.4	-0.736538304998205	-0.664462245875468	4.47258163056774E-06	-1.77212247350177E-06	-8.6862199991138E-07	1.34606676025027E-06	0.992009050702753	-0.108369178251687
4.5	-0.814805588024504	-0.566425103124227	6.78488207539142E-06	1.8714859583413E-06	-8.02869306606759E-07	-3.2581943742327E-06	0.992150355756408	-0.110079226079349
4.6	-0.880477254453093	-0.458690843504273	2.45658876454017E-06	2.95438543983001E-06	-6.59609620732174E-06	9.75168134179348E-06	0.992411786155577	-0.112886809492821
4.7	-0.931459583420114	-0.342651553565864	-1.40644640858549E-05	5.92222021813858E-06	-3.46543589796229E-06	-3.45905880261734E-08	0.992532075601915	-0.11523588568435
4.8	-0.967111719890362	-0.221770897094737	-3.16570237505449E-06	-5.14744335993202E-06	-5.52903296901869E-06	2.36878617888319E-06	0.992160487862846	-0.117941739671645
4.9	-0.986685062408052	-0.0980041738221701	-1.02541982380974E-06	-8.56009687821345E-06	-4.22506418404374E-06	7.4229984286816E-07	0.991691953221402	-0.119833269772076
5	-0.991224125154674	0.0265067905037725	7.55719448105784E-06	-1.57579515728655E-06	-1.75539415294675E-06	-2.72353299205113E-06	0.99152257415968	-0.121276299452543
5.1	-0.979518092074559	0.152451437151952	-2.60754707488384E-06	-6.39676959254576E-06	-1.01084934751311E-06	-1.95379303329576E-06	0.991754134619177	-0.122687110755732
5.2	-0.952238349358441	0.27435661623973	3.99870358207129E-06	-4.393432688326E-07	-5.43678152319019E-06	6.31389144743155E-06	0.991530900187056	-0.125052503439355
5.3	-0.910374088097031	0.39169519220966	5.14345974280487E-06	6.00514550107838E-06	-9.6262282606078E-07	-3.58611881671195E-06	0.991152935131614	-0.12729686489202
5.4	-0.854369533728556	0.502809828707791	3.06201886797888E-06	-2.01732963775036E-06	-1.13142896378324E-05	2.20306398095895E-06	0.991110362195085	-0.129784285406888
5.5	-0.784819149793734	0.606211224080576	-4.32556846915356E-07	-2.19525188073817E-06	-5.78940117737507E-06	6.12835102526561E-06	0.991274839448065	-0.132498511228065
5.6	-0.701855299966947	0.700324633663284	2.38397447508819E-06	7.30638629698799E-06	-5.37010106580643E-07	2.93079367089531E-06	0.991230721980733	-0.135273237808061
5.7	-0.607734183787596	0.783015403786503	-2.57095486574626E-06	2.36300755399941E-06	7.9149677271075E-06	2.77529923090966E-06	0.990993942173798	-0.137991362296813
5.8	-0.503917736447348	0.852315233461623	-4.64496335902725E-06	5.10697361152593E-06	-3.64134657374574E-07	3.42250324938785E-06	0.990650985378075	-0.140529661783579
5.9	-0.392807229355241	0.908030698817962	6.35554327094786E-06	1.49350696681291E-06	-2.7081739873019E-06	2.54767071229722E-06	0.989875312825003	-0.143165843904614
6	-0.276448787137623	0.948807761716683	3.51988896977417E-06	3.2926902167283E-06	-3.2848829757535E-07	-1.43169508748486E-06	0.98839110328029	-0.14467066749988
6.1	-0.156692821959159	0.975430765780212	9.15808116053676E-06	1.52433219876723E-06	-1.26726642379062E-07	-1.80514765399098E-06	0.988116711037911	-0.145066658608138
6.2	-0.0338148763923241	0.98746696248684	2.43678021405511E-06	-1.72432306178481E-06	1.48242881107576E-06	-4.83476406940406E-06	0.98786666394527	-0.145980779863621
6.3	0.0899741540082432	0.98443391774297	-4.35976119063977E-06	4.23177421964766E-06	-6.11611501206187E-07	-1.72341552231011E-06	0.987719622897655	-0.147487401305671
6.4	0.212728418652332	0.965904792125866	-4.26227187624742E-06	1.06129467808762E-06	-1.77522414934476E-06	8.83110159048536E-06	0.987733984373121	-0.149417115227219
6.5	0.332172753596168	0.932469744040844	2.45379004302575E-06	-1.32519553460433E-06	1.49301259390657E-06	-2.92532280195176E-06	0.988045660251634	-0.151878671360645
6.6	0.447365137374664	0.884127867620251	-4.73268109665364E-06	-2.26493085901697E-06	-1.85322356254357E-06	-6.64609607643258E-06	0.988746169993809	-0.155107869244555
6.7	0.555087177392424	0.820707338422305	4.16629672296324E-06	-6.561521212113E-07	-4.68028023888908E-06	1.00592857074036E-06	0.988539076367815	-0.158357514340022
6.8	0.653517385091541	0.744389789504254	3.76064637175377E-06	-2.07863255164779E-06	6.21848944821519E-06	-9.19758374489766E-07	0.987834072584139	-0.161191296373781
6.9	0.741316441985633	0.656522748130965	2.04871308325219E-06	1.64193912500581E-06	8.78695257534441E-06	-2.75644231764717E-06	0.987112771161097	-0.163594639233525
7	0.817126686125739	0.558450349763201	2.1738639718389E-06	4.09671033648016E-06	-9.23371503022911E-08	5.38360296184942E-06	0.986093502107561	-0.165271742992531
7.1	0.880180845156415	0.45237928257806	-1.33447473354956E-07	1.71695792244478E-06	8.25908426238727E-06	-4.64161854770283E-06	0.985817228555018	-0.166652503332677
7.2	0.929571329482676	0.338820694125307	4.84804631241228E-06	-1.39080019775285E-06	7.25421886241069E-06	3.78516639718711E-06	0.985477394052784	-0.168531879393393
7.3	0.964012279287307	0.220012968121967	4.86217760541585E-06	-1.10429853848839E-06	-7.33484855521343E-06	-7.38732872069102E-06	0.984663747216034	-0.170450821313741
7.4	0.98379192089234	0.0975905466728696	-1.85421050295445E-06	9.89645869298659E-06	1.43939741451705E-06	-4.06845441148995E-06	0.984037684481455	-0.172926442918556
7.5	0.988329737813684	-0.0270982708410562	8.40281485830667E-07	8.08281320452893E-07	1.67394646107429E-06	9.96242444613015E-07	0.983214183831947	-0.176110799586688
7.6	0.976540907720468	-0.15150620578919	1.4569744889335E-06	-2.6173144573301E-06	-5.42499120088847E-06	-3.63157109987321E-06	0.982018239074975	-0.179269073300847
7.7	0.94941641321593	-0.273566393858186	5.57872311805268E-06	2.4092906458748E-06	-6.82907508248112E-06	1.20622531956367E-05	0.981196521403516	-0.182571267609063
7.8	0.907311676223945	-0.391139792438279	-6.18234473881334E-07	-5.24618116000486E-06	3.73309188208315E-06	-4.74386338461126E-06	0.980596058426588	-0.185729867381668
7.9	0.850586455127933	-0.502590341289489	8.85869477923735E-06	1.51618094939664E-06	-9.55358323362846E-06	-8.62746749181196E-06	0.980073562177449	-0.189020435200899
8	0.779755204072188	-0.605870333395358	-6.65808802151402E-06	-1.61354847634648E-06	-1.19977726880582E-05	2.52382014540741E-06	0.978916418531706	-0.192053075212181
8.1	0.697184899344915	-0.698448303890624	5.07143866404011E-06	7.19596055810678E-07	2.89320259140807E-06	2.25326949010168E-06	0.978337238437961	-0.194083764131812
8.2	0.603916073300856	-0.780217397151729	3.55451033269179E-06	-2.57839781245456E-06	-3.69806348609109E-06	-1.15920603560221E-05	0.97814026492668	-0.196520751856689
8.3	0.500915817832393	-0.849537321047785	2.71995113804298E-06	-1.85952384089068E-06	1.64489324590864E-06	5.28056137125413E-06	0.97743359541864	-0.199270321298271
8.4	0.390240269514918	-0.905218069963611	-5.54371431353413E-06	-1.00933163049589E-06	1.05781177737756E-06	2.94408677591466E-06	0.976480479985249	-0.201884013063126
8.5	0.272965341102003	-0.947111594488032	-3.28168576006458E-06	1.62502228116466E-06	-4.78878238862926E-06	-4.99028435700275E-06	0.975638805878966	-0.204344802378136
8.6	0.150526441414443	-0.973402895820341	-8.12726770200799E-06	1.39426686197497E-06	-4.34396789320397E-06	-6.84715617821654E-06	0.97530815852079	-0.206873615919525
8.7	0.0260132629973132	-0.983767421590731	2.23951877751672E-07	-2.14726969110519E-07	6.11063941218936E-06	4.98687093368618E-07	0.974855262978558	-0.209468459801042
8.8	-0.098445204224685	-0.978134215674215	1.01950796817144E-06	-1.81730003583741E-06	-2.38928902049543E-06	-1.27388764751914E-06	0.974433810058888	-0.211798277767063
8.9	-0.220094875983429	-0.957646476512457	-2.9497239334414E-07	3.02945812275554E-06	-1.23454164010907E-06	-1.63598628903197E-06	0.974366606934055	-0.214036510686613
9	-0.337905611721441	-0.922903699428977	2.97279016886735E-06	1.57972152274329E-06	-1.5685795451538E-06	2.11206904381405E-06	0.974112617367339	-0.216690334727784
9.1	-0.450971605086729	-0.873491325988371	-9.28532095790952E-06	2.27007823767185E-06	-1.55730262596275E-06	2.40512738920052E-06	0.97345674598434	-0.21908738574938
9.2	-0.557065028811021	-0.810555301853349	7.48503766281505E-06	-2.3655217139905E-07	-9.08187627346692E-06	1.96763726054001E-06	0.972608187477253	-0.221569489629219
9.3	-0.654593909565804	-0.735178250298402	7.76803713603617E-08	-7.14651995938329E-06	1.58307033767671E-06	-1.29694984004917E-06	0.971971454906514	-0.22375835743139
9.4	-0.742213207636754	-0.648443016604472	5.96692667760377E-07	2.47908558854018E-06	1.61624519394466E-06	-3.58977648517345E-06	0.971349197144589	-0.226285572016849
9.5	-0.819434137015331	-0.550641555706652	-2.8721658628164E-06	6.63727047939286E-06	4.7203669142156E-06	-1.36495607268541E-06	0.97063604081369	-0.2290992101367
9.6	-0.882826085512741	-0.441878659382932	-5.01991686027656E-06	-5.20158712005564E-06	4.75711721265905E-06	2.88057064847668E-06	0.969726949429928	-0.231810097000477
9.7	-0.931384604417539	-0.326069530172898	-2.00027150811487E-06	-5.07168934164427E-06	2.09596569799798E-06	1.06028706755944E-08	0.969115386490351	-0.234068046203038
9.8	-0.964903138436662	-0.204819030373226	5.92497233743405E-07	-4.28411357830613E-06	-2.94052258724953E-06	-2.51677564912373E-06	0.968911864617363	-0.235923367304947
9.9	-0.982116026154448	-0.0806748297594979	-6.10944767654106E-06	4.21052205247965E-06	-3.0821598307063E-06	1.66589920816424E-06	0.968782775738402	-0.237926338463651
10	-0.984513590944236	0.0430567290179225	3.56816876259832E-06	-4.3692384021041E-08	8.22657656487157E-06	1.10865581566629E-05	0.967974636561157	-0.239954008917896
10.1	-0.971894254110498	0.167153457090542	-2.85496325616869E-06	-2.52057607210597E-06	-2.00713631988102E-06	-2.49563626954242E-06	0.967335175355625	-0.241200444262695
10.2	-0.943152016406066	0.289297005166476	2.3555094056599E-06	-1.02011073229482E-06	-2.76646012271208E-06	-1.06654538073454E-06	0.96704634175874	-0.242557290522919
10.3	-0.898661141786824	0.406640392208367	7.75759389753966E-06	-5.94766124933134E-06	3.85821070168904E-06	8.22845232870811E-06	0.966544905282157	-0.244191113709978
10.4	-0.840021024483732	0.51645186605973	1.70509064477075E-06	2.50564393968646E-07	6.27387192502935E-06	-1.18677500690184E-06	0.966014518529221	-0.246030473202772
10.5	-0.769671818348561	0.617558587998162	8.34939897875814E-06	-4.13694734405183E-06	-4.95018081479392E-07	1.97177887489889E-06	0.965861246805803	-0.248399186661038
10.6	-0.687302056708463	0.710063067228743	8.9389877486165E-06	-1.26826262481328E-06	-1.47958248972996E-06	1.36453042264141E-05	0.96562084460577	-0.25158704116679
10.7	-0.593219080415761	0.791040236062572	8.01828275332353E-06	-1.9044199306208E-06	-3.05500585779915E-06	-5.28217173270869E-06	0.964576705052391	-0.254849349771642
10.8	-0.488848721161639	0.859921579781044	2.45254611320594E-06	5.24751209084821E-06	-3.62822759476935E-06	-2.04162433659517E-07	0.963485758426303	-0.257074270769872
10.9	-0.3760039683967	0.914551692921128	-5.55743939728374E-06	4.87198762828738E-07	1.59820961354863E-06	4.02710362892262E-06	0.962857666856916	-0.25904572665563
11	-0.259063838862574	0.954500904116593	3.55540772973205E-09	-5.22027096764899E-06	-8.37773438594848E-06	2.2303798207071E-06	0.962112907985746	-0.261172738673818
11.1	-0.136848251888317	0.981393627221888	6.30767141819599E-06	4.09035019519973E-06	-1.90653824983453E-06	1.07573328241369E-05	0.960831820609428	-0.262874926263296
11.2	-0.0116526911190114	0.991680663824808	1.57775772516116E-06	1.35595140571318E-06	5.13178880232607E-06	8.90532258051768E-06	0.959475887627236	-0.264278298134602
11.3	0.114005901081791	0.985125239078603	-4.60595088599196E-07	-1.73807546685938E-06	-6.94338976202809E-07	-4.39679857095755E-06	0.95871236270949	-0.265340365762617
11.4	0.237557451314609	0.962830338855783	2.07382030246169E-07	1.18663546115271E-05	2.41699861529345E-06	4.93502055741486E-06	0.958179307778832	-0.267039386353231
11.5	0.357002569932606	0.925195468888347	6.20213678797762E-06	-3.18702631065924E-07	3.19001028821282E-07	-1.88384280049441E-06	0.95781368364011	-0.269895477661365
11.6	0.469766921399945	0.873368343027977	-6.01003865856528E-06	3.07160827248303E-06	-4.8737808252692E-06	1.91442772408843E-06	0.956450327917754	-0.273280737990053
11.7	0.575285148675801	0.808052386591639	3.32947078400185E-06	-1.79439870879254E-06	-1.7089151512764E-06	2.23683384059855E-06	0.955367742891687	-0.276456423266279
11.8	0.67166741864803	0.729185241649774	-8.27958523859837E-07	9.79826092715321E-06	-2.7248927063951E-06	1.05417691306759E-05	0.954747030856628	-0.279695036523487
11.9	0.756327165634502	0.637912277271021	-7.30158972931244E-06	-1.03837151725126E-06	-3.9145606451615E-06	1.12576278496397E-05	0.955315177971957	-0.282853740617943
12	0.826934339442367	0.537862433384399	-6.43836380419444E-07	1.38268704348344E-06	-3.13852240532479E-06	-1.92355529449732E-06	0.954404208279865	-0.286732407241747
12.1	0.886853764071984	0.431684358228072	-3.87363534316717E-06	4.99167156274196E-06	-1.33043920829053E-06	8.41665987195454E-06	0.953120653121853	-0.29005646562036
12.2	0.933365868036925	0.317522838033699	-5.82289744645452E-07	-3.79603242401766E-06	-3.11405993863036E-06	-7.26046611129165E-07	0.951505293508335	-0.293599472283173
12.3	0.964906558901158	0.198925503144817	3.59884341218639E-06	3.42226044426502E-06	-3.42060229369138E-06	6.26569424886261E-06	0.949375057758655	-0.296679182956534
