# GHZ S RI R 50
0.2	-0.965600660642698	0.251690784479854	8.82109250854585E-06	5.31665800220244E-06	1.13556070222352E-06	-2.88889879041224E-06	0.999215556116036	-0.00713489395131492
0.3	-0.925974252704081	0.371509267114595	-7.65879430745224E-06	-8.16319192215105E-07	-1.34018953322689E-08	3.65771576309963E-06	0.998988902606444	-0.0100825175029024
0.4	-0.871001219177546	0.485137150698424	-2.19423441469903E-06	6.33569210932526E-06	2.91979104606973E-06	5.73105349828452E-06	0.998707971369592	-0.0128185645948634
0.5	-0.802564426542847	0.590700764080102	-2.6458720509823E-06	5.48732891219031E-07	1.05090307942896E-05	4.87759711586381E-06	0.998025335835435	-0.015579809019933
0.6	-0.721598425457786	0.686980058946814	-1.7236704101628E-06	-1.84503339949539E-08	4.16053893256073E-06	-1.03260360531979E-05	0.998417337470362	-0.0180896967350938
0.7	-0.629034437636918	0.772354468839742	-2.04513427014482E-06	9.87380448137652E-07	3.77976008206696E-06	1.11499878002795E-05	0.998168267965144	-0.0211235731354286
0.8	-0.526435341094764	0.84533063648592	-5.5999400923679E-06	3.77819435805763E-06	-3.16474374105121E-06	-2.1369595589175E-06	0.997966038517291	-0.0232898291275146
0.9	-0.415766818299657	0.904587635453903	-6.67989807138775E-07	5.24519629517074E-06	3.26323391593387E-06	-2.94488767973112E-07	0.998039682105248	-0.0258144199543257
1	-0.298076315903244	0.949476817369051	1.56668778006396E-05	-3.68881581361059E-06	-9.58771297668939E-06	5.30112815197668E-07	0.99744693927401	-0.0279348634315632
1.1	-0.17676525595243	0.978929470352936	1.33954106178378E-06	-2.97797920912793E-06	9.38493649495718E-06	1.25764590360284E-05	0.996837942999174	-0.0296579227803754
1.2	-0.0518761988779875	0.992939652162206	-7.89543135765753E-06	-3.25338248044314E-06	-3.09269863467162E-06	-4.47106969537003E-06	0.996122864535948	-0.0306820683170543
1.3	0.073610363647909	0.991040728563055	1.77278918555129E-07	3.32765096786256E-06	1.92522676710091E-06	3.40949146557862E-07	0.995950855435594	-0.0314028231663748
1.4	0.197381203749097	0.973513203931887	1.93873403084765E-08	3.75950552363074E-06	-2.51772791775168E-06	-5.60507128647785E-06	0.995734875743602	-0.0329929806429028
1.5	0.318007612055467	0.941024989586632	3.18005310843179E-06	-2.62263097130348E-07	2.69363891966659E-06	2.09302963850448E-06	0.996050741150542	-0.0361359311401412
1.6	0.433748068650601	0.894114760559969	1.78748733705458E-06	-1.93259728475147E-06	-8.86812312647462E-07	-3.05909747696952E-06	0.995949996584166	-0.0389989248196909
1.7	0.542679273005814	0.832414026457545	-7.92755243398684E-08	-3.51961023431193E-06	1.99364323527686E-06	4.92243721882037E-06	0.996657354893756	-0.0415604343585828
1.8	0.642810048203132	0.757906606241964	-2.05186516069736E-06	-1.81544050792146E-06	-4.66585002097515E-06	1.82881977909881E-05	0.996755231305483	-0.0444396231535305
1.9	0.732904236176916	0.671346469512487	-4.38461399812578E-06	-1.47216225010853E-06	-4.9135370251775E-06	-6.00579561057353E-06	0.99676066290553	-0.0472731001759262
2	0.810640126647593	0.573470654385202	-9.41748801135092E-08	-6.73133696205052E-07	-1.66467374367598E-06	-1.41670197903724E-06	0.994927945773126	-0.0505270807416471
2.1	0.875849859379368	0.4673546840091	-1.15478185420037E-06	9.42602162813869E-06	1.99087509620895E-06	-3.76042823042283E-07	0.994461468210827	-0.0512709574854982
2.2	0.927850984006823	0.354014284055172	-1.07626151642634E-08	-5.9198770758793E-06	-7.41141735395767E-07	2.73138346275194E-06	0.995066870911878	-0.0533131985177752
2.3	0.965004897603191	0.234623088299889	-1.31920383940526E-06	2.75937260930512E-06	-2.94608684403911E-07	1.19562245903675E-05	0.995171148231081	-0.055102355979959
2.4	0.986817497125346	0.110624160668846	-5.85785983997631E-06	-3.71643963188917E-06	-1.76046606479074E-05	1.44703497358385E-05	0.995472038966658	-0.0583457920083059
2.5	0.993166260445715	-0.0141857946730489	1.82550989166129E-06	-2.95786217102093E-06	-1.80833961880202E-06	7.54185327524188E-06	0.995015673287235	-0.0609228861087031
2.6	0.983755784111111	-0.138046259433401	2.86136485275193E-06	9.23410555364861E-07	-1.75810507630059E-06	4.50085598224547E-06	0.994838939593022	-0.0637493521184021
2.7	0.958415720227459	-0.260243802715577	3.81260592397729E-06	1.04472294551728E-05	2.31877037419874E-06	3.86987403914552E-06	0.994317954920993	-0.0666953591360469
2.8	0.918088046777296	-0.378205675026075	-8.11089562401372E-07	-2.29245690959639E-06	2.20983653152475E-07	-1.88684857092851E-06	0.994425762978454	-0.0685003250916329
2.9	0.863701303764168	-0.489729574413919	3.77225006957723E-06	-8.30708921265372E-06	-1.25902429255351E-06	-1.42155575927875E-05	0.994267756757199	-0.0704569941946863
3	0.795771299153139	-0.593989539789601	-2.06870980249422E-08	6.64312153936228E-06	-1.47631755311174E-05	5.27994691017623E-06	0.994105544072889	-0.0729903660769309
3.1	0.716558608876745	-0.687848429982743	-4.9908266826308E-06	7.80660565200054E-06	5.80207836571835E-06	-7.59975427301493E-08	0.993728344815383	-0.0746840054798445
3.2	0.624609640918289	-0.772554545613837	9.54657264417971E-07	2.1257343521641E-06	-4.55752736054749E-06	4.67749250088147E-07	0.993658405822072	-0.0760691089858027
3.3	0.523082897433752	-0.845127724808077	7.23007161178502E-07	-1.45678702145512E-06	-4.58074790539906E-06	7.18461984125869E-07	0.993861600216977	-0.0789826456717577
3.4	0.412906814819183	-0.904637332305512	6.47085603458423E-06	2.56486958330908E-07	-8.11435481408054E-06	-7.2096964945225E-06	0.994627523747276	-0.0809308222922627
3.5	0.29480595045893	-0.950366148249322	-7.71373846345759E-06	1.94669209516374E-06	-5.89218806513469E-06	-8.00674054024458E-06	0.9947453541542	-0.0846398234701801
3.6	0.171766520921102	-0.978941881427236	-8.50237216613761E-07	-4.38537358865962E-06	-7.81052723397515E-06	-6.34828433218323E-06	0.993981830908629	-0.086840555742647
3.7	0.0473108982668167	-0.993249347596391	-6.70602099314882E-06	-6.78620408147789E-06	5.37312097696154E-07	-4.76541076395469E-06	0.994391426073825	-0.0892510523780824
3.8	-0.0786515264225713	-0.991474981938652	-3.64845587525265E-06	1.07692468143078E-06	-3.29446002278613E-06	-2.47364130681899E-06	0.994722647587188	-0.0916010657255283
3.9	-0.202832400358196	-0.973592549088043	-4.85204736646475E-07	3.51003741810377E-06	2.05700740160337E-06	-1.21726427795811E-06	0.995281238048504	-0.0959158605554108
4	-0.323535133364414	-0.939964738875652	1.16665298511004E-05	8.13489797999799E-06	7.27119854979194E-06	-4.0298475335793E-06	0.993296469079381	-0.0985564570151055
4.1	-0.438232365006596	-0.892529176411633	5.21603407713783E-06	1.33663102992704E-06	-3.47527650956372E-06	6.64552517977608E-06	0.992586444324079	-0.0990787301633932
4.2	-0.546814760418476	-0.83147535679373	-7.10104466835431E-06	-1.22020524973448E-06	-8.27292340674978E-06	-6.21032567768487E-08	0.992409828311549	-0.101526480874125
4.3	-0.647241072257889	-0.756410699852967	7.08886833211808E-07	-2.36905077953552E-06	5.21687346449825E-06	8.94078680048567E-07	0.992399365428057	-0.103513926297822
4.4	-0.737469589522634	-0.668511924558319	4.48275358601538E-06	-1.76689774960542E-06	-8.72389409763744E-07	1.34662069298535E-06	0.991938105141244	-0.105926855855094
4.5	-0.815392142670026	-0.56976349089764	6.78839726413798E-06	1.88460135506763E-06	-7.98233478453391E-07	-3.26271309758984E-06	0.991670115197634	-0.107580442460229
4.6	-0.88060695566695	-0.462329983791677	2.45307368887608E-06	2.96095227128657E-06	-6.61842174822069E-06	9.74694505990348E-06	0.992028841352276	-0.110141351325446
4.7	-0.931620185556186	-0.346755997536009	-1.40827421944471E-05	5.89780313642267E-06	-3.46704241682713E-06	-4.13282952003574E-08	0.992207247455963	-0.112394778210312
4.8	-0.967498588074446	-0.226288826801386	-3.15516612046351E-06	-5.15602024121152E-06	-5.53594657294332E-06	2.35716392111646E-06	0.992012166206533	-0.114893298031163
4.9	-0.987384759871989	-0.103257524025591	-1.00113119414043E-06	-8.56598820578151E-06	-4.22865185460968E-06	7.30392646278714E-07	0.992069234115074	-0.116715219594808
5	-0.993730985931735	0.0204458590520818	7.57456680096654E-06	-1.55232690424479E-06	-1.7488155891608E-06	-2.73387329121912E-06	0.992348102291976	-0.118676905850753
5.1	-0.983320420678958	0.147390257022422	-2.59642053307863E-06	-6.41861542096556E-06	-1.00794847055686E-06	-1.96104127179692E-06	0.9926184554728	-0.120301593629472
5.2	-0.956987307119709	0.270028746856769	4.0105538916422E-06	-4.30993619251622E-07	-5.46652706010685E-06	6.31798223486602E-06	0.99279715068579	-0.122883453078838
5.3	-0.915993865369968	0.388628707511465	5.14856064197241E-06	6.034985761332E-06	-9.58739020419976E-07	-3.59979446848006E-06	0.992804981201311	-0.125660091536876
5.4	-0.860101075676563	0.501613390478188	3.0758970782249E-06	-2.0217443039732E-06	-1.13599155128739E-05	2.19930207342307E-06	0.993069276639026	-0.128959894064721
5.5	-0.789062138857926	0.606220168692675	-4.34567565553555E-07	-2.20248813079383E-06	-5.80720572553524E-06	6.15034652336116E-06	0.992537978727933	-0.13301226812032
5.6	-0.705642381387548	0.69982309892866	2.39034802691659E-06	7.32474229444208E-06	-5.38228278028142E-07	2.93822774451475E-06	0.991491650984965	-0.135269827623337
5.7	-0.611893501284493	0.783034928431595	-2.57844678076154E-06	2.36926186525516E-06	7.93669398140777E-06	2.78410099354985E-06	0.991636248577556	-0.13760131743106
5.8	-0.508000813644701	0.853591113758551	-4.65997597482824E-06	5.12490342096495E-06	-3.64892104729317E-07	3.43413764190667E-06	0.992041754748749	-0.140410962993764
5.9	-0.39569814522753	0.910966066641409	6.38400849419399E-06	1.49180729802924E-06	-2.71632058711001E-06	2.56171986879309E-06	0.992023214608318	-0.144515977338528
6	-0.276680471484865	0.951598302844941	3.54195379024664E-06	3.29189176016776E-06	-3.34199905827296E-07	-1.43525237463243E-06	0.988681919576141	-0.1479530934609
6.1	-0.156099123557379	0.977058028415646	9.18198107804282E-06	1.49746529315409E-06	-1.3290418145803E-07	-1.80845855579727E-06	0.987202972143364	-0.147599550336316
6.2	-0.0327244722262102	0.988228278462356	2.43411437628324E-06	-1.73517619484124E-06	1.46761875912772E-06	-4.84655734277831E-06	0.986373429769861	-0.148350624834106
6.3	0.0912721110590226	0.984437596453137	-4.34726724818374E-06	4.24972146676961E-06	-6.18088623774138E-07	-1.72224589915819E-06	0.985696350152688	-0.149473941829785
6.4	0.214137627511608	0.96478375334194	-4.25664815642874E-06	1.07550123821396E-06	-1.74395751874786E-06	8.8331519753387E-06	0.985291982106349	-0.151207351683568
6.5	0.331555906082128	0.930609179201642	2.44830740087085E-06	-1.32749447336028E-06	1.48616007945431E-06	-2.92388615423414E-06	0.985005716794732	-0.152346015544548
6.6	0.446641306621774	0.883911742021964	-4.73440770145931E-06	-2.26034445070527E-06	-1.85925894781818E-06	-6.64383642966952E-06	0.987080055616236	-0.154976579003658
6.7	0.554885368553305	0.820816481896078	4.16728350573769E-06	-6.60192772164768E-07	-4.68114413171045E-06	1.01056990321073E-06	0.987469705651266	-0.158469470386849
6.8	0.653783520074825	0.744753882774516	3.76210980068124E-06	-2.08334206439438E-06	6.22290939231261E-06	-9.25460750149297E-07	0.987263495853769	-0.16140561089528
6.9	0.742376979971319	0.656874447060751	2.05345773181275E-06	1.64246870254175E-06	8.79777052994159E-06	-2.76922468400572E-06	0.987186446629934	-0.164302701398543
7	0.818508812303735	0.558038098687621	2.18504931766795E-06	4.09822030296317E-06	-8.18202242290718E-08	5.39142002655538E-06	0.985659940346358	-0.166749071658624
7.1	0.881465547910128	0.451995582598514	-1.3076700080313E-07	1.71831501427324E-06	8.25709064372675E-06	-4.65802623464473E-06	0.98517674883566	-0.167505760483906
7.2	0.931224938941033	0.338532580104561	4.84976811724959E-06	-1.39642717435634E-06	7.26253401232447E-06	3.78047640697055E-06	0.985221541898646	-0.168950181664408
7.3	0.966395787661987	0.219806847382297	4.86671701401264E-06	-1.10617154390965E-06	-7.34318738791736E-06	-7.39329404235941E-06	0.985185586395468	-0.170390797740797
7.4	0.987943233739515	0.096901929625171	-1.86701008010397E-06	9.92037610720424E-06	1.44639882614366E-06	-4.07773705742182E-06	0.986471329559628	-0.172944630066355
7.5	0.993248546796006	-0.0312639135918834	8.45530338229314E-07	8.11487631334563E-07	1.68370354075117E-06	9.99467384301478E-07	0.986535667139201	-0.178999476905456
7.6	0.979492558587301	-0.156828178337419	1.45604306465768E-06	-2.63222925844425E-06	-5.45755302255347E-06	-3.63220894782866E-06	0.984003306995434	-0.182533414045286
7.7	0.951322471847058	-0.279832645158189	5.61110404736756E-06	2.39960306694636E-06	-6.8150285849224E-06	1.21380594451239E-05	0.983082693268219	-0.186287897389473
7.8	0.907699997242348	-0.398070789756654	-6.45205409363042E-07	-5.26402346946555E-06	3.72566577860081E-06	-4.78006448515099E-06	0.982221847921092	-0.190111476651847
7.9	0.848763602863777	-0.509696589994143	8.89440731896215E-06	1.46671619590725E-06	-9.63471677560387E-06	-8.59501688808229E-06	0.981021785253209	-0.194605757359646
8	0.774187154334823	-0.609838851039492	-6.66277481449891E-06	-1.56630706436087E-06	-1.1968943141984E-05	2.60373835493896E-06	0.976353063263058	-0.197828444265509
8.1	0.694281271337852	-0.698637286079169	5.06258199159479E-06	6.99716348470461E-07	2.89478322403118E-06	2.23776897581565E-06	0.975593512931247	-0.197112588766544
8.2	0.603071087528874	-0.780204405765476	3.54178250160671E-06	-2.58127775341139E-06	-3.71669380177989E-06	-1.15610699761862E-05	0.975901079272657	-0.198920876817226
8.3	0.501196690993103	-0.849825192098829	2.71240816435934E-06	-1.86012281778024E-06	1.64956851871427E-06	5.26875137702195E-06	0.975310189435281	-0.201379075518256
8.4	0.390960868360934	-0.906169633881679	-5.53637730607918E-06	-1.00349398251704E-06	1.05857446343623E-06	2.93893757072267E-06	0.974261368082127	-0.203765746055523
8.5	0.272918206081176	-0.947661495347412	-3.27777700141178E-06	1.62729801477388E-06	-4.79066516204984E-06	-4.98195197436774E-06	0.973335504865838	-0.205445630301103
8.6	0.152023409882484	-0.972717373111734	-8.11309707167562E-06	1.4048113647749E-06	-4.3481688073672E-06	-6.83030225999078E-06	0.973779137324551	-0.207700597060096
8.7	0.0291928777261112	-0.983803589820634	2.23257386315749E-07	-2.14497963675282E-07	6.0981516858889E-06	4.91415817446952E-07	0.973669157946028	-0.210481812615252
8.8	-0.094237195613173	-0.979495196178622	1.01658550630807E-06	-1.8129522171157E-06	-2.3835592867409E-06	-1.27021201375541E-06	0.973397247387885	-0.212990125112597
8.9	-0.215113762251467	-0.960867409433334	-2.98243420689669E-07	3.02077402003376E-06	-1.22896238415034E-06	-1.6331728726452E-06	0.9732733247837	-0.215418372640829
9	-0.33415619009332	-0.929035979858725	2.96512622773553E-06	1.58780726523426E-06	-1.57393004877254E-06	2.10520088400435E-06	0.972652228216092	-0.218127541902549
9.1	-0.44924291136476	-0.879800637177328	-9.29626455499738E-06	2.24651939992057E-06	-1.56453510628425E-06	2.40224264325615E-06	0.97153378296986	-0.220185161668064
9.2	-0.556744811887832	-0.816676283962533	7.49450690150594E-06	-2.19199143720932E-07	-9.09732517889845E-06	1.94858318135611E-06	0.970353954131804	-0.222031052389927
9.3	-0.6554231933977	-0.740239817697379	9.0139957966569E-08	-7.15890818645821E-06	1.58808066725098E-06	-1.29649251423524E-06	0.969819839089626	-0.223377849473556
9.4	-0.743901643038484	-0.652070699121902	5.96541455090498E-07	2.48556533103207E-06	1.62255757701161E-06	-3.59754139617763E-06	0.970000946508773	-0.2254374233999
9.5	-0.820264875513512	-0.549865126142297	-2.86055079141789E-06	6.65418321935371E-06	4.7242075700103E-06	-1.378356694113E-06	0.969400376982779	-0.228947127480095
9.6	-0.878073375001908	-0.441416044477349	-5.02340705555587E-06	-5.18184090955427E-06	4.75582675767605E-06	2.86519810916889E-06	0.968396337120489	-0.230967024151279
9.7	-0.925155050720325	-0.328913693552024	-2.00088691973404E-06	-5.05730667359277E-06	2.09092010483131E-06	8.32849310548359E-09	0.968560222713725	-0.233082097384562
9.8	-0.959319867259942	-0.210101319869032	5.89276657087017E-07	-4.27392689058888E-06	-2.93440627685887E-06	-2.50942666338433E-06	0.969071740183135	-0.235430688801497
9.9	-0.978504860492219	-0.087088091583863	-6.09619405386713E-06	4.2030461838455E-06	-3.07555783334426E-06	1.66306373681588E-06	0.968878399960367	-0.238908760582339
10	-0.982410455496716	0.0379326483643646	3.5611938323905E-06	-4.42570334353283E-08	8.21253336680846E-06	1.10634127598739E-05	0.965212498414874	-0.240390908697894
10.1	-0.968614418694446	0.16255190780152	-2.85140911999077E-06	-2.51572293159406E-06	-2.00488194768522E-06	-2.4911078649586E-06	0.965981297606373	-0.239199635990389
10.2	-0.939406816398305	0.283763553026622	2.35031603099555E-06	-1.02025043234911E-06	-2.76229462835492E-06	-1.06222584360498E-06	0.966972632829325	-0.241061849803609
10.3	-0.894920587805951	0.400237968252759	7.73036239844487E-06	-5.94047905745792E-06	3.85710544695949E-06	8.20229262377719E-06	0.966695192404683	-0.243623972140882
10.4	-0.835790054753812	0.509123130833959	1.69809906702047E-06	2.47739423145264E-07	6.24597036778781E-06	-1.18820304804908E-06	0.965344925525127	-0.246537527990482
10.5	-0.765673875320425	0.60745378477141	8.30647966731196E-06	-4.10268208794845E-06	-4.94631738301633E-07	1.95980303882121E-06	0.96361356893767	-0.248153712056299
10.6	-0.685262281198743	0.698640442722678	8.89949407250771E-06	-1.23814046032947E-06	-1.50917029230839E-06	1.35758336555869E-05	0.963438656771555	-0.250739325872981
10.7	-0.592801376505106	0.779127349274866	7.99031595150174E-06	-1.87136196183427E-06	-3.02561514018946E-06	-5.2693628257719E-06	0.961919295846633	-0.253274465587471
10.8	-0.489863957192725	0.847763691431294	2.42476310613874E-06	5.23571535509145E-06	-3.61345375262261E-06	-2.1600825615565E-07	0.961039890298151	-0.254204385254273
10.9	-0.379046996555587	0.903098335834217	-5.54279183834359E-06	4.6229125247056E-07	1.57641848746936E-06	4.02174209067549E-06	0.960947667634708	-0.255138551865932
11	-0.26152599823074	0.945878717754875	2.09362586661918E-08	-5.21493809767798E-06	-8.3766225313252E-06	2.20020697433217E-06	0.960817248521081	-0.255581472162044
11.1	-0.137159979535826	0.970259454744271	6.28950276248296E-06	4.09426311616976E-06	-1.92205501385841E-06	1.07352268215114E-05	0.962076548655879	-0.256050385871887
11.2	-0.0142639825730591	0.97805232340702	1.57128102762331E-06	1.35528009730015E-06	5.10270178063568E-06	8.89158060684308E-06	0.962977693080857	-0.257777320355193
11.3	0.107747962833534	0.971306919754035	-4.55233466158779E-07	-1.7338054525762E-06	-6.82216148358875E-07	-4.38492605750424E-06	0.964011999736493	-0.259909161795667
11.4	0.228214930651317	0.950742508240871	1.71492609632363E-07	1.18306265695038E-05	2.39493419364881E-06	4.92708638468174E-06	0.965072455451046	-0.263562742874244
11.5	0.346379691930092	0.915608548768579	6.18759225320062E-06	-3.00543535735395E-07	3.23481767942822E-07	-1.8782607871041E-06	0.963419935751389	-0.269033159491275
11.6	0.458216592036436	0.865750237124414	-6.00226388197048E-06	3.04529679488806E-06	-4.86577710905801E-06	1.89470466596005E-06	0.961356396243233	-0.271574858035426
11.7	0.563034740993721	0.803257573181193	3.32774891980767E-06	-1.77902585298241E-06	-1.71245512923492E-06	2.22587877758335E-06	0.961280265940844	-0.275413710505386
11.8	0.660404306349711	0.727949949418443	-8.59893120432082E-07	9.7824612835224E-06	-2.75681557348726E-06	1.05185870847516E-05	0.960904224877911	-0.280475103863347
11.9	0.749586862566615	0.639198801701943	-7.30140019557428E-06	-1.05250554201769E-06	-3.93691796430224E-06	1.12529375021794E-05	0.959689118069625	-0.28642522236679
12	0.822990697098404	0.536647265565525	-6.4341672154389E-07	1.38007172579907E-06	-3.1323667432792E-06	-1.92183069758111E-06	0.953121560151474	-0.288350225577005
12.1	0.883950755915786	0.428950549901685	-3.87351317782824E-06	4.97807271567121E-06	-1.33913847023473E-06	8.40051366393477E-06	0.952123492731727	-0.2872042746092
12.2	0.930528837764576	0.31305185839362	-5.77394739702869E-07	-3.79027349069918E-06	-3.10809277688758E-06	-7.28045400067935E-07	0.951550324638107	-0.288852169356985
12.3	0.960944740801032	0.193477377668839	3.58684579815495E-06	3.4178190801184E-06	-3.41887621604636E-06	6.24738605359468E-06	0.950175200139277	-0.290697851165398
