# GHZ S RI R 50
0.2	-0.96652072645632	0.251197105147413	8.82462758282971E-06	5.32532906129046E-06	1.1379592223032E-06	-2.89038591559759E-06	0.999963387631063	-0.00681240171666725
0.3	-0.927331030810945	0.371001731318344	-7.66583253981758E-06	-8.22523312616617E-07	-1.59906737567356E-08	3.66134217932677E-06	0.999976642776498	-0.00976570803692165
0.4	-0.872962681327084	0.4848784805521	-2.20309567584204E-06	6.34303681608957E-06	2.9189735315519E-06	5.74206409594201E-06	1.00014191612448	-0.0124051220146052
0.5	-0.804777183096181	0.591429278560134	-2.65196842267517E-06	5.49044982843831E-07	1.0530809619876E-05	4.89211279220388E-06	1.00028478279819	-0.015924540585262
0.6	-0.723350223060004	0.687871710418881	-1.72675856966109E-06	-1.83381495853124E-08	4.1671192826735E-06	-1.03448775923699E-05	1.00003480205497	-0.0190535064021635
0.7	-0.630991643327104	0.773440630373824	-2.04892383715807E-06	9.88977063404635E-07	3.78556523253426E-06	1.11705002408715E-05	0.999652154180201	-0.0219614683789062
0.8	-0.528466583186811	0.846910981802974	-5.61115872071226E-06	3.78507936392594E-06	-3.17072521718917E-06	-2.14138525894637E-06	0.999414717685232	-0.0241437472119694
0.9	-0.417673460113641	0.906686085966019	-6.69806492527326E-07	5.25497731835381E-06	3.26939513013192E-06	-2.94692337198355E-07	0.999238458215722	-0.0264483575949654
1	-0.299766124540934	0.952073450755295	1.57019093858469E-05	-3.68596116310907E-06	-9.60799152570044E-06	5.24776544065501E-07	0.999170878439797	-0.0278062071893441
1.1	-0.178021962480251	0.98200751446883	1.3443882187543E-06	-2.98557041429263E-06	9.40551705712748E-06	1.26145359415553E-05	0.99901318409645	-0.0300933474391412
1.2	-0.0525326641810311	0.996385812197046	-7.91781146108739E-06	-3.26268496790527E-06	-3.101437200761E-06	-4.48378627665635E-06	0.998146797295853	-0.0312189913846292
1.3	0.073894953455466	0.994688538241846	1.79916636150835E-07	3.33760162574253E-06	1.93126387244628E-06	3.40764245928506E-07	0.998077786352395	-0.0323033598514453
1.4	0.198696863830766	0.976936015873789	2.53221462785825E-08	3.77078901725265E-06	-2.5340659848068E-06	-5.61800365499563E-06	0.997705167587866	-0.0345186065500393
1.5	0.320300733129531	0.944124708973494	3.18986168559614E-06	-2.69727369172836E-07	2.70675976369335E-06	2.09424493331946E-06	0.998662657852196	-0.0379929785260793
1.6	0.43645131882615	0.896273427588289	1.78735734920839E-06	-1.94340064419145E-06	-8.98089531417401E-07	-3.0657079431467E-06	0.998375595186951	-0.0417182404648874
1.7	0.545377694866884	0.834092102367861	-8.94241275678809E-08	-3.5285633907829E-06	2.01274597881497E-06	4.92964058358361E-06	0.998926788401943	-0.044221557782682
1.8	0.645420522407894	0.759148772593675	-2.06138509762861E-06	-1.81408671291773E-06	-4.62758714279805E-06	1.83422730379278E-05	0.998947661605068	-0.0468762466873011
1.9	0.735007394497445	0.672608719752204	-4.39518820521724E-06	-1.46651001145427E-06	-4.93360319662696E-06	-6.00720813697112E-06	0.998990900362627	-0.048737495390131
2	0.813976324524452	0.575811390793727	-9.48847217617869E-08	-6.75444980959444E-07	-1.67131853692862E-06	-1.42074058171733E-06	0.999821591456583	-0.0514198586600205
2.1	0.880245952200007	0.467348605047053	-1.1336093484354E-06	9.46955149202335E-06	1.99835159502542E-06	-3.83167210784045E-07	0.999579830139437	-0.0550098750803686
2.2	0.931192552235822	0.352860005223564	-3.08944710350852E-08	-5.93928886525004E-06	-7.34304215674088E-07	2.74287275346523E-06	0.999088760841941	-0.0576758853013047
2.3	0.967526999116633	0.233096567147269	-1.31324198709614E-06	2.77157702197888E-06	-2.53816947062313E-07	1.19902404733611E-05	0.998537039238218	-0.0596203729202409
2.4	0.988725865940995	0.108933954161641	-5.88583105123242E-06	-3.70332610348797E-06	-1.7592417104806E-05	1.45710878981509E-05	0.998270363749426	-0.0626918094989613
2.5	0.994596342812193	-0.0161542198600508	1.81627292382646E-06	-2.96829559431894E-06	-1.78148960828054E-06	7.55753215411659E-06	0.998051753526781	-0.0648527558106044
2.6	0.984418575952791	-0.139942909313895	2.86642981121904E-06	9.17316391533716E-07	-1.7488188010959E-06	4.50957062946458E-06	0.998061520097738	-0.0679620418809536
2.7	0.958964443329096	-0.262028868763197	3.84042555925618E-06	1.04580111225042E-05	2.33067831552574E-06	3.87203888445423E-06	0.997733364534891	-0.0711062219883008
2.8	0.91841525624829	-0.380333080453069	-8.17975118715615E-07	-2.29611262337954E-06	2.17414911708859E-07	-1.89178386224406E-06	0.997826670853544	-0.0733486029229053
2.9	0.863577997405842	-0.492222048139055	3.76189376899719E-06	-8.33908166835328E-06	-1.2977565022979E-06	-1.42511469761011E-05	0.997322764555157	-0.075488516111834
3	0.795047597145686	-0.596956588833241	-1.4601491990104E-09	6.66238283481515E-06	-1.47905178323404E-05	5.33806944619656E-06	0.997115292715721	-0.0779404819612362
3.1	0.714568950946477	-0.691166668886022	-4.97840706613939E-06	7.84873307742683E-06	5.81984345406491E-06	-9.69956119612038E-08	0.996731433041478	-0.0801807183828596
3.2	0.62115306980615	-0.775459614689094	9.66804957413556E-07	2.12720185269173E-06	-4.56777522652214E-06	4.89514277175165E-07	0.996196380477253	-0.082127646239133
3.3	0.518218053358041	-0.847118731142517	7.16621286817047E-07	-1.46350355703476E-06	-4.58585135940287E-06	7.44387180681886E-07	0.995581951496808	-0.0855475603957892
3.4	0.406703265072559	-0.904629681883531	6.47528195472293E-06	2.17182807735149E-07	-8.16186396377397E-06	-7.1634578271219E-06	0.995029073617293	-0.0875102567358206
3.5	0.290276034455487	-0.947708102833254	-7.69410247736045E-06	1.97835753715572E-06	-5.91956174091805E-06	-7.96907905243937E-06	0.994877243950926	-0.0897710130662183
3.6	0.167741386942938	-0.977383610279283	-8.66445632379049E-07	-4.3822762817871E-06	-7.83405593912055E-06	-6.31949456681676E-06	0.994880934052648	-0.0927596027157934
3.7	0.0425065790762495	-0.990774959755223	-6.73661046824818E-06	-6.75635066350185E-06	5.15978077199209E-07	-4.76795101838688E-06	0.994246368796394	-0.0958081331223532
3.8	-0.0832506504820462	-0.987747346725655	-3.64154857972452E-06	1.09345693561205E-06	-3.30435807012629E-06	-2.45695162421813E-06	0.993268566359512	-0.0977778660746702
3.9	-0.20662043019311	-0.969164843757577	-4.70200499371824E-07	3.5094353738656E-06	2.05039098527041E-06	-1.2249339009375E-06	0.992888719383584	-0.100304043044509
4	-0.327353270555994	-0.935991000061908	1.17104278596829E-05	8.0864929501376E-06	7.25708901895399E-06	-4.06534097301258E-06	0.993428123164676	-0.101362081385998
4.1	-0.442905854112463	-0.887003728850012	5.22184298702304E-06	1.30379249876386E-06	-3.43260739549714E-06	6.66387118165196E-06	0.993009447697471	-0.104134731275182
4.2	-0.550545252785499	-0.82433755541019	-7.09754020840314E-06	-1.17526375953231E-06	-8.26059545324094E-06	-1.18328349437918E-08	0.991888258786122	-0.106811154717862
4.3	-0.64953044211451	-0.74847209961129	6.93668502000525E-07	-2.36815276552676E-06	5.2110330706957E-06	8.61975178593176E-07	0.991415259106698	-0.1086797185367
4.4	-0.738282180006962	-0.660676589771909	4.46280630282105E-06	-1.78656481613556E-06	-8.63177382805651E-07	1.34808689579841E-06	0.990805647671399	-0.110880243105897
4.5	-0.815739803348456	-0.562204727348383	6.78411559147244E-06	1.84314851018716E-06	-8.14477035156443E-07	-3.25127128826365E-06	0.990773039984049	-0.11311637788731
4.6	-0.880236863964012	-0.454564093314203	2.46252172990537E-06	2.93959411374376E-06	-6.54750405908686E-06	9.75650976975272E-06	0.990122398111108	-0.116003539051809
4.7	-0.930482176557169	-0.338873657635958	-1.40131213013313E-05	5.95582595126234E-06	-3.45776736638228E-06	-2.29549350415135E-08	0.989880501894129	-0.118082346138424
4.8	-0.965601161485399	-0.218241955482087	-3.17469385647986E-06	-5.12488464495289E-06	-5.50812677565702E-06	2.38092039903144E-06	0.989298816046125	-0.120664863408866
4.9	-0.984659703309149	-0.0943409657825178	-1.05150666411519E-06	-8.534498544258E-06	-4.21163647155057E-06	7.54564421126407E-07	0.988560022299202	-0.122493297807694
5	-0.98718589524476	0.0298366488629655	7.52543755224239E-06	-1.59550063261197E-06	-1.75833236714998E-06	-2.7081235836722E-06	0.988083771920769	-0.123841254781264
5.1	-0.975398781847716	0.153584080579064	-2.61370423375456E-06	-6.36699537802629E-06	-1.0119462930232E-06	-1.94417313452566E-06	0.987932722689414	-0.125105675978806
5.2	-0.948609247078793	0.274881393006509	3.98364257971207E-06	-4.4681132462834E-07	-5.40341761064948E-06	6.30392993491763E-06	0.987403101313573	-0.127213398341513
5.3	-0.906756812333249	0.391749481250207	5.13811170693942E-06	5.97232115303704E-06	-9.67006429492669E-07	-3.57112884132527E-06	0.986804266666179	-0.129273160498042
5.4	-0.850677385010315	0.50215756007074	3.04600296282768E-06	-2.01593373061915E-06	-1.12660590418912E-05	2.21815835238123E-06	0.986360319426933	-0.13160377406141
5.5	-0.78137067506492	0.604526129862301	-4.34063867488561E-07	-2.18571078741784E-06	-5.75683137563494E-06	6.1121077270751E-06	0.986398947656196	-0.133588129297359
5.6	-0.699154067590874	0.697968826355189	2.38436963432846E-06	7.27613432330546E-06	-5.31287394068648E-07	2.92055505431455E-06	0.986537798754768	-0.136398083034199
5.7	-0.605748708444857	0.780254916383526	-2.55854497800231E-06	2.35707737591248E-06	7.88836608783147E-06	2.75570967606233E-06	0.985905277836578	-0.138855721661807
5.8	-0.50269942172041	0.849208938275538	-4.62293129065978E-06	5.0905197184991E-06	-3.60118881741552E-07	3.40939490080885E-06	0.985317598717792	-0.140641373571072
5.9	-0.392748420837489	0.90476272680711	6.33039607161559E-06	1.48909235009084E-06	-2.69816814981032E-06	2.5371200773446E-06	0.984818283629187	-0.141832271157588
6	-0.277356312048853	0.946879531553078	3.50883346789568E-06	3.2890738519286E-06	-3.26310771094924E-07	-1.42889780623425E-06	0.985825191029066	-0.14275685357799
6.1	-0.156801887242047	0.973861348231879	9.14294409834562E-06	1.51997459365214E-06	-1.26865600353013E-07	-1.80208056257248E-06	0.985836552211102	-0.144777827239095
6.2	-0.0338551981802383	0.985663939145368	2.43139371628796E-06	-1.72223241266341E-06	1.47737032248983E-06	-4.82638448114678E-06	0.985368599406009	-0.145935681792209
6.3	0.0897827030380423	0.982399305714281	-4.34855044441513E-06	4.22628520682779E-06	-6.11514484192328E-07	-1.7196597693194E-06	0.985072372993154	-0.147693877858959
6.4	0.212279005348533	0.964095970488818	-4.2535480628759E-06	1.06295369112383E-06	-1.76449025854916E-06	8.81639020136811E-06	0.984954942625192	-0.149681818106516
6.5	0.333040052677781	0.930054228031972	2.44515361910557E-06	-1.32791099128271E-06	1.4828239610031E-06	-2.92218146325562E-06	0.984932903125213	-0.153263730614847
6.6	0.446448276203107	0.879839879907661	-4.71635587870781E-06	-2.24679558597329E-06	-1.85705150557272E-06	-6.61423724135176E-06	0.983667616906985	-0.155812878819715
6.7	0.552456985426835	0.816998998119632	4.1462456982059E-06	-6.55515051790987E-07	-4.65759686387997E-06	1.00394411887048E-06	0.983273048216314	-0.157647602643505
6.8	0.649920846758416	0.741497724109235	3.74306845432399E-06	-2.06766672732814E-06	6.18878223520278E-06	-9.1374666403578E-07	0.982820262299614	-0.159595976343881
6.9	0.736971363202939	0.654625467785854	2.03683322021122E-06	1.63625314152866E-06	8.74716860761643E-06	-2.73296097095406E-06	0.982445023928919	-0.161161506143654
7	0.812785616195635	0.55773718927031	2.1560680319807E-06	4.08432951795068E-06	-1.03464709189793E-07	5.36102718055424E-06	0.982534618210355	-0.162586391156953
7.1	0.875765433195719	0.452011934299059	-1.36011555726044E-07	1.71047992170661E-06	8.23730619501511E-06	-4.61007927275928E-06	0.982016704137055	-0.164571137167642
7.2	0.924819513727504	0.339096853275792	4.83185250307935E-06	-1.3775812791796E-06	7.22040277084615E-06	3.78260149550217E-06	0.981196229367309	-0.166207332131579
7.3	0.95893489973226	0.220903719508622	4.84359953167259E-06	-1.09293383963394E-06	-7.29417095883482E-06	-7.36700774286625E-06	0.979865199192785	-0.167849650607386
7.4	0.977683513043107	0.0993987046528015	-1.8544078522133E-06	9.84044808019115E-06	1.4357786431301E-06	-4.04472161369689E-06	0.978012200961932	-0.169511464787925
7.5	0.982280417124894	-0.0220094659916071	8.31580823243953E-07	8.05249739561114E-07	1.65863934284136E-06	9.9461178183881E-07	0.977542191671337	-0.169772204968484
7.6	0.972868529598272	-0.145522044582039	1.46119198063496E-06	-2.59546322247665E-06	-5.37677685400944E-06	-3.63683321720371E-06	0.978351349651479	-0.172883916387739
7.7	0.947109651903934	-0.266870667315189	5.53605472281059E-06	2.42751826031276E-06	-6.85997190002067E-06	1.19610265691433E-05	0.978169637000199	-0.17595794939104
7.8	0.906750390158451	-0.383951355474075	-5.80563640857408E-07	-5.22654307825316E-06	3.74772681155007E-06	-4.69757507154315E-06	0.978334352404353	-0.178785586138595
7.9	0.852210566738362	-0.494967676610501	8.81590364769286E-06	1.58289520853521E-06	-9.45065887124562E-06	-8.67535638516013E-06	0.978756435397367	-0.181255461994818
8	0.785155781369419	-0.600174796807598	-6.64309792619527E-06	-1.67319423628037E-06	-1.20195174167447E-05	2.41592694865699E-06	0.980605134760784	-0.184631039878432
8.1	0.701671255524779	-0.695643839183996	5.07147486999706E-06	7.54068454420711E-07	2.8809464658468E-06	2.27469076355991E-06	0.979636529840356	-0.188992848842536
8.2	0.607971098712973	-0.777768605861683	3.57261642982124E-06	-2.55871721563055E-06	-3.63055480215337E-06	-1.16226138821472E-05	0.978736463983903	-0.191440655982408
8.3	0.505109956627199	-0.847496422215287	2.73280264201824E-06	-1.84530488899353E-06	1.61574688119708E-06	5.29418420911785E-06	0.978005647604906	-0.193971184031257
8.4	0.394572747509172	-0.903546254976546	-5.54323968703694E-06	-1.03924444252201E-06	1.04330952426866E-06	2.95218285798169E-06	0.977375528449557	-0.196476772447013
8.5	0.278142074050992	-0.945938592384672	-3.29028120336585E-06	1.6084608225641E-06	-4.76382204559197E-06	-5.0151623678462E-06	0.976844419402318	-0.199456075804647
8.6	0.15577051014994	-0.973834117396852	-8.13939005363982E-06	1.3469541139883E-06	-4.30562467814496E-06	-6.87607955414419E-06	0.976118266465837	-0.201976379909665
8.7	0.0307501562512507	-0.985344867139045	2.25512616669644E-07	-2.13651484272009E-07	6.11518379142996E-06	5.35864817741759E-07	0.975813491654845	-0.20424923781669
8.8	-0.094597040154434	-0.980773701019475	1.03230488774602E-06	-1.81501612318096E-06	-2.38667813446768E-06	-1.29057609182241E-06	0.975690203068338	-0.206315845682189
8.9	-0.217958489898601	-0.960644960709667	-3.11913678746248E-07	3.03711490444125E-06	-1.22963447172314E-06	-1.64750273517831E-06	0.976010210122102	-0.208221552913307
9	-0.335890448239457	-0.924326641289549	2.97401582769924E-06	1.5968474049492E-06	-1.58195564913724E-06	2.11101141347285E-06	0.976431952057363	-0.2104072987463
9.1	-0.448300768183822	-0.875828312387853	-9.32224037694299E-06	2.23298952170299E-06	-1.57298158919888E-06	2.4046368383509E-06	0.976823435597522	-0.212773030885162
9.2	-0.554635902499318	-0.813331380426026	7.50884574486142E-06	-2.05023460006919E-07	-9.11800437746562E-06	1.93449910168099E-06	0.976857005689564	-0.215807053293148
9.3	-0.652171177565534	-0.7383978169061	1.06269646656239E-07	-7.16617573001786E-06	1.59264172273734E-06	-1.29428801637517E-06	0.976585103165114	-0.218900538982677
9.4	-0.739529098480807	-0.65192075155432	5.88430609958801E-07	2.4865376234196E-06	1.63337558312679E-06	-3.59105762299029E-06	0.975631507997685	-0.22207758346035
9.5	-0.81609786451047	-0.55663323039466	-2.91332727817096E-06	6.634401533147E-06	4.73666283556034E-06	-1.34214422911891E-06	0.975245767541756	-0.224526616394842
9.6	-0.882650218451608	-0.449213516975257	-5.01041532617543E-06	-5.24588282524791E-06	4.75876841581872E-06	2.91538420066557E-06	0.974920302488841	-0.228286540627658
9.7	-0.933020594511022	-0.332730319156693	-1.98495414244921E-06	-5.10005635785458E-06	2.10390229678889E-06	2.01225385448075E-08	0.974059558518315	-0.231168933915798
9.8	-0.96783059952386	-0.210840880621144	6.13124615898061E-07	-4.29829513096776E-06	-2.94123526217732E-06	-2.53916646808086E-06	0.973581760844075	-0.233139650693159
9.9	-0.986280508251145	-0.085775110200191	-6.15428173373701E-06	4.20084176245424E-06	-3.10271453607372E-06	1.65907482371234E-06	0.973624506086563	-0.234358685380413
10	-0.989234874007292	0.0389331672596267	3.58850622760769E-06	-2.90757752805824E-08	8.22686420823349E-06	1.11834509130066E-05	0.975342370271921	-0.237087627882679
10.1	-0.977445594622638	0.163626187873026	-2.86356216735364E-06	-2.54312847965316E-06	-2.01105081475772E-06	-2.51555201744878E-06	0.973702702555409	-0.240634345024706
10.2	-0.949647003965612	0.286680370613299	2.37128104977696E-06	-1.01924000168774E-06	-2.77874876084629E-06	-1.08003112065327E-06	0.972526032605023	-0.24206138069804
10.3	-0.906265252762572	0.40520859813598	7.8188095875297E-06	-5.961816003739E-06	3.8588874582859E-06	8.28686264082455E-06	0.971777881257309	-0.243722747424273
10.4	-0.84895148658777	0.517363153910922	1.71607242091396E-06	2.56062726438275E-07	6.31898187814393E-06	-1.18081638637744E-06	0.971348004936341	-0.245697023979786
10.5	-0.776993703929641	0.622172299469697	8.40870293892684E-06	-4.16382886981542E-06	-4.98949529512616E-07	1.9854297909478E-06	0.971114325640134	-0.249094121292148
10.6	-0.692504110689395	0.714992416733355	8.99111115079935E-06	-1.27606912305976E-06	-1.48760406783652E-06	1.37250242798564E-05	0.970112687023329	-0.252027748800592
10.7	-0.597173364045324	0.796476707682355	8.06469979866774E-06	-1.91596488149962E-06	-3.07306011556636E-06	-5.31263907968378E-06	0.969592024066865	-0.255164226660803
10.8	-0.491557979412064	0.865675332638777	2.46915079609367E-06	5.27755610466463E-06	-3.64976215359172E-06	-2.03915227955255E-07	0.968897030482911	-0.257942479843451
10.9	-0.37708602864056	0.920598678048073	-5.58915528178279E-06	4.95615429197064E-07	1.61152455784289E-06	4.04883280555775E-06	0.968410080766932	-0.260430736164095
11	-0.258356650744047	0.958997980753415	-1.22465464058934E-09	-5.24692037348415E-06	-8.41844729890869E-06	2.24946487397705E-06	0.967838315894032	-0.263002688097243
11.1	-0.136770397194609	0.98544397331333	6.34730949252415E-06	4.10786947876199E-06	-1.90756316989351E-06	1.08203023479362E-05	0.966269688073544	-0.265436737031042
11.2	-0.0109966240162623	0.996028209564984	1.58921961192784E-06	1.36120575263658E-06	5.17660112988286E-06	8.94859453427769E-06	0.964477663976886	-0.267311226411186
11.3	0.115582759290692	0.989529942110023	-4.67646712116686E-07	-1.74665900832809E-06	-7.09531818234286E-07	-4.41972141568988E-06	0.962859588137881	-0.26872225247135
11.4	0.239853129207742	0.966931334599523	2.49615708758914E-07	1.19235661632525E-05	2.44594171461067E-06	4.95071735106699E-06	0.961103157530973	-0.270410750739459
11.5	0.359994131961193	0.928808160701334	6.22512026420558E-06	-3.37741844922534E-07	3.14820259774485E-07	-1.89201791962553E-06	0.961211478279356	-0.272027527708812
11.6	0.473254800368502	0.876204281809289	-6.02843332355779E-06	3.10235050087885E-06	-4.89032082109772E-06	1.93676397840945E-06	0.960409022382776	-0.27650845796126
11.7	0.578888175238711	0.810249057546179	3.33814571312895E-06	-1.81320369154502E-06	-1.70904049429782E-06	2.25224637396399E-06	0.958671499520695	-0.280076972271812
11.8	0.675074636237776	0.730975606215469	-7.99474265027017E-07	9.83869946090695E-06	-2.70131556485648E-06	1.05912053871555E-05	0.957482215986288	-0.282936375623335
11.9	0.759230413690541	0.640391280209065	-7.32774694728289E-06	-1.02842813765755E-06	-3.90691463275503E-06	1.13022007164719E-05	0.958114999369291	-0.284294822720647
12	0.832954828590731	0.541193353433777	-6.46049322928202E-07	1.39173899894225E-06	-3.15961908155919E-06	-1.93134772948066E-06	0.960576148083915	-0.28878031802928
12.1	0.893790903072389	0.431992698622198	-3.88369184219886E-06	5.03188039979075E-06	-1.31617215948725E-06	8.47070573554331E-06	0.958650626356838	-0.293824399072965
12.2	0.93999879827935	0.316455503045881	-5.95963969163565E-07	-3.81731745064929E-06	-3.13474591841232E-06	-7.22073199496747E-07	0.956835011044648	-0.297542034974643
12.3	0.971574360379473	0.196679925198743	3.63298642426462E-06	3.43404439204098E-06	-3.42432637474511E-06	6.31747928906033E-06	0.954891057700262	-0.301081579181758
