# GHZ S RI R 50
0.2	-0.967140640578613	0.250804054326661	8.82802825120376E-06	5.33269859788015E-06	1.13997777140949E-06	-2.89176755464676E-06	1.00064014488953	-0.0064384688664638
0.3	-0.928240266840991	0.370673111576264	-7.6722649533755E-06	-8.26654482573095E-07	-1.76296269251372E-08	3.66458165578856E-06	1.00077647225194	-0.00941889749609661
0.4	-0.874136408569245	0.484799374089118	-2.20777759882716E-06	6.34976513318422E-06	2.92050995815975E-06	5.7497758504051E-06	1.00111697542558	-0.0121784385014475
0.5	-0.805886080377372	0.591799009924194	-2.65507784603855E-06	5.50048467621422E-07	1.054407686746E-05	4.89661075617183E-06	1.00100882180462	-0.0161626608897264
0.6	-0.724314958135395	0.688277803877338	-1.72824663849274E-06	-1.83436086340082E-08	4.17064815179616E-06	-1.03538168005607E-05	1.00018839044532	-0.0188004713258686
0.7	-0.631969468435397	0.774042998827578	-2.05114658412816E-06	9.89578509577625E-07	3.78724643550379E-06	1.11823186660557E-05	1.00000268421326	-0.0211804479535473
0.8	-0.529317118392755	0.847763370922018	-5.61870095657363E-06	3.78826635242271E-06	-3.17399068313126E-06	-2.14466547549972E-06	1.00012355377479	-0.0230627195047458
0.9	-0.418292501150033	0.907746778264861	-6.72136470844359E-07	5.26239819944506E-06	3.27419642980017E-06	-2.94270869851092E-07	1.00054406789385	-0.0251856515035427
1	-0.300040507247427	0.953303854672029	1.57329627974898E-05	-3.69375301992611E-06	-9.62704555534316E-06	5.26109361705422E-07	1.00137549267534	-0.0271992757723663
1.1	-0.177784299214559	0.983203416320263	1.34432498425401E-06	-2.99246617529076E-06	9.43463415521091E-06	1.26303611883451E-05	1.00079078758632	-0.0305950347632944
1.2	-0.0517975963882107	0.997236407790731	-7.93370995010182E-06	-3.25554995592765E-06	-3.11240168778768E-06	-4.48547651249153E-06	0.999156572987035	-0.0322296076377311
1.3	0.0748615416327514	0.994926406808366	1.86411364233257E-07	3.33920708562678E-06	1.93304452871883E-06	3.37266051113887E-07	0.997941299382141	-0.0335251325038589
1.4	0.19941704817948	0.976838651374009	3.18401907791165E-08	3.77022870925837E-06	-2.54343511264143E-06	-5.61285149170869E-06	0.996771950000121	-0.0351551834006967
1.5	0.320956678641703	0.944245416356848	3.1890047182434E-06	-2.74004584186745E-07	2.70917789147832E-06	2.09025734417811E-06	0.997742370524405	-0.0382635649573911
1.6	0.437186463218664	0.896610886444602	1.78560107944808E-06	-1.94484513181694E-06	-9.0068306950982E-07	-3.06478971274969E-06	0.997566737815032	-0.0412884848337654
1.7	0.546368475658253	0.834629241649894	-9.11079888840118E-08	-3.52979262986136E-06	2.01577849514576E-06	4.93047426618987E-06	0.998784603987964	-0.0434045116155139
1.8	0.646727384394726	0.759786295535823	-2.06330991509134E-06	-1.81497543927689E-06	-4.62697415017566E-06	1.83568655796026E-05	0.999377813737276	-0.0459687397111714
1.9	0.73679992598131	0.673441097174003	-4.40080391032863E-06	-1.46888413107484E-06	-4.93946008574938E-06	-6.01559423687027E-06	1.00014505815101	-0.0478329158218214
2	0.816957776128911	0.576215140533442	-9.53886020244943E-08	-6.77002445650554E-07	-1.67585756230881E-06	-1.4234074059277E-06	1.00166974159561	-0.0515909234043976
2.1	0.883232597796643	0.466635368502399	-1.12501071015265E-06	9.48964202353741E-06	2.00187827674663E-06	-3.86216881650891E-07	1.00048629572418	-0.0556523208941807
2.2	0.934124739693077	0.351687191382431	-3.74637653110226E-08	-5.95028397515434E-06	-7.32660457892366E-07	2.74877124261194E-06	0.999779473827853	-0.05796533314329
2.3	0.97050022596215	0.231410218958751	-1.31262981961711E-06	2.77854305453226E-06	-2.4049230163604E-07	1.20141190448239E-05	0.999394923303883	-0.0597339390036476
2.4	0.991707121978077	0.106734858341253	-5.90287763525155E-06	-3.70302177787827E-06	-1.76089464422877E-05	1.4624598544482E-05	0.99948285974569	-0.062949008008895
2.5	0.997771290858153	-0.018996737375649	1.8160615626333E-06	-2.9770720982874E-06	-1.77492570987298E-06	7.57598834089213E-06	0.999311389640845	-0.0658278262680123
2.6	0.987473917716869	-0.143912166130294	2.87542263985448E-06	9.14611302300875E-07	-1.74534919026225E-06	4.5242585090656E-06	0.99881168826988	-0.069307816306859
2.7	0.961212059165342	-0.266981384722888	3.87580480774043E-06	1.04746958098864E-05	2.34604974640366E-06	3.87597643496708E-06	0.998042662491546	-0.0726565875764963
2.8	0.919567399173277	-0.385733642978056	-8.26379655724697E-07	-2.29861994168628E-06	2.12385478127869E-07	-1.89643717385391E-06	0.997740620298062	-0.0749002346213853
2.9	0.863613452621079	-0.497561649532014	3.74198586349741E-06	-8.36467613342944E-06	-1.34456893909603E-06	-1.42706708832301E-05	0.997053776233599	-0.0770487969039512
3	0.794321912650519	-0.601741691940966	1.92275418146456E-08	6.66964069845329E-06	-1.47900434796118E-05	5.38981128674359E-06	0.996530707830252	-0.079741268197764
3.1	0.713453054267672	-0.695556170086476	-4.95896428438066E-06	7.86809288036067E-06	5.82327970825196E-06	-1.1383130158401E-07	0.995528707579128	-0.0818072524841224
3.2	0.619685757206516	-0.779451014569903	9.7251451522921E-07	2.125427253899E-06	-4.567992459497E-06	5.0126739941198E-07	0.994697457601293	-0.0833320951795208
3.3	0.516465898431985	-0.850642273951079	7.13431764636813E-07	-1.46527880154276E-06	-4.58472568847956E-06	7.54733219176226E-07	0.993984543807072	-0.0863559150233484
3.4	0.405076159254362	-0.907522244850783	6.47525714286131E-06	2.05222995015834E-07	-8.17454275852124E-06	-7.14793020683772E-06	0.993506639897552	-0.0879978899868444
3.5	0.289227688982607	-0.951195197790213	-7.69465407817274E-06	1.99035975435922E-06	-5.93370935026311E-06	-7.96405402372715E-06	0.993532279742221	-0.0903230796547721
3.6	0.165482772742126	-0.981156836401006	-8.75929406435077E-07	-4.38262716973387E-06	-7.85095090678168E-06	-6.3063871296423E-06	0.993181481079064	-0.0931829396294202
3.7	0.0395899579377805	-0.993885918549464	-6.75187080673666E-06	-6.74298915327822E-06	5.05934145493079E-07	-4.76970181994709E-06	0.992766312016759	-0.0958097255891268
3.8	-0.0865061946274424	-0.990107036381031	-3.6394367609062E-06	1.1008114814483E-06	-3.30938260056336E-06	-2.4503619601274E-06	0.992381849302822	-0.097692084339263
3.9	-0.209906997556602	-0.9705841894395	-4.63302093061307E-07	3.5109488709205E-06	2.04829428553117E-06	-1.22921165308238E-06	0.992959658646922	-0.100683746666473
4	-0.330015486021447	-0.936551788327398	1.17312620959743E-05	8.0577036817275E-06	7.24734016473919E-06	-4.08368278937516E-06	0.993610805401392	-0.103856049340984
4.1	-0.444817320444923	-0.887509342598326	5.22221201170611E-06	1.29097925526348E-06	-3.41535333406838E-06	6.66845696703858E-06	0.991295520956749	-0.106960140646042
4.2	-0.552228765952636	-0.824887189409587	-7.09533160569963E-06	-1.15943052684875E-06	-8.25514865655592E-06	5.69670868644462E-09	0.989529990202586	-0.109074423840823
4.3	-0.651158009186701	-0.748865277180657	6.8828661699357E-07	-2.36778105080294E-06	5.20885261707912E-06	8.5063592805714E-07	0.988831425563287	-0.110638008513041
4.4	-0.739989181561833	-0.660427540770266	4.45470799277007E-06	-1.79545776641505E-06	-8.59261552294171E-07	1.34892826168783E-06	0.988069397423636	-0.112837058019259
4.5	-0.816376181671764	-0.560800136113994	6.77674346653317E-06	1.8212372233772E-06	-8.21872436607302E-07	-3.24309839671992E-06	0.98720959503119	-0.11526246534772
4.6	-0.879430462407016	-0.453541290285749	2.46256484331683E-06	2.92652427265121E-06	-6.50900702249329E-06	9.74547628822399E-06	0.985856810952874	-0.117357723983409
4.7	-0.928943115555467	-0.338478614494576	-1.39602817998393E-05	5.96301819394893E-06	-3.4474039971043E-06	-1.66890609754781E-08	0.98542989477676	-0.118864522636108
4.8	-0.963534380439148	-0.218350472463657	-3.1711251542418E-06	-5.10305902009836E-06	-5.48611607554542E-06	2.38057996107751E-06	0.984780047767721	-0.120893782835477
4.9	-0.981743072681071	-0.0949581968953557	-1.05500242490578E-06	-8.50111233919582E-06	-4.19495395150427E-06	7.55393129706777E-07	0.984271572587769	-0.122234934744628
5	-0.983692743719564	0.0269415643233214	7.49829748231479E-06	-1.58724431847494E-06	-1.75101069296E-06	-2.69873369047623E-06	0.98408970786774	-0.123619318389068
5.1	-0.973688318733067	0.149663418411662	-2.60347867352562E-06	-6.35108263452172E-06	-1.00824586418867E-06	-1.93942030601501E-06	0.983870448882934	-0.124703821678167
5.2	-0.947867022918334	0.270971187143182	3.97459693354616E-06	-4.44194762848496E-07	-5.3934109702799E-06	6.28718887091129E-06	0.983649315662903	-0.12668591603961
5.3	-0.906789931550852	0.388048920368669	5.12654682465585E-06	5.96182685801319E-06	-9.64232650214146E-07	-3.5643399981137E-06	0.983180961641942	-0.128995668676678
5.4	-0.851061760712894	0.499164688544632	3.04022415571774E-06	-2.01281014073712E-06	-1.12455236120512E-05	2.21598803551293E-06	0.982551824107655	-0.131467367737282
5.5	-0.78098703833373	0.601767005478008	-4.34631080349751E-07	-2.18082957399074E-06	-5.74061437585216E-06	6.10317244618502E-06	0.982353829357083	-0.133756301235934
5.6	-0.698866512053911	0.694262159189657	2.38139615821492E-06	7.25524776346666E-06	-5.28442846499049E-07	2.91288646782304E-06	0.981685987257143	-0.1361410058503
5.7	-0.606275691482316	0.776399710494884	-2.55150924212544E-06	2.35087850302384E-06	7.86727324666769E-06	2.74781185670746E-06	0.98125047633961	-0.137806473955285
5.8	-0.503925206819422	0.845859366171878	-4.61344908403135E-06	5.07821215342463E-06	-3.59929962302746E-07	3.40165109646665E-06	0.981443513700713	-0.139266619225286
5.9	-0.394099731361618	0.902745530258864	6.32352998913441E-06	1.48705062694913E-06	-2.69503911036785E-06	2.53450245425827E-06	0.982410499870187	-0.141088893795014
6	-0.276383594405992	0.945594566905396	3.51553788473543E-06	3.27798596792568E-06	-3.29893892092898E-07	-1.42723818956242E-06	0.983203646396531	-0.145313529914121
6.1	-0.15492457437757	0.970306337346627	9.12287745665446E-06	1.48143804283591E-06	-1.33259603571085E-07	-1.79652771341647E-06	0.980111006876268	-0.147697722014021
6.2	-0.0328613207152772	0.980570670845721	2.41501430094399E-06	-1.72312304670336E-06	1.45448509164894E-06	-4.81062238006892E-06	0.97805212634791	-0.147795237046979
6.3	0.0894140238463875	0.97676856322773	-4.31414476242984E-06	4.21598389322008E-06	-6.13007614418335E-07	-1.70895361075272E-06	0.977069786716279	-0.148121406381983
6.4	0.211305577056904	0.958540343648349	-4.22621532661055E-06	1.06665406564423E-06	-1.73363506759142E-06	8.76898291909954E-06	0.977192107192288	-0.149152367427507
6.5	0.330547554250848	0.922872960035999	2.42485543702014E-06	-1.32076768918092E-06	1.46792027813057E-06	-2.90168521876186E-06	0.976366352661255	-0.152020282511843
6.6	0.44107584044718	0.874283204533072	-4.6791372372588E-06	-2.23706504191687E-06	-1.83447593132408E-06	-6.56896492742454E-06	0.97589841765667	-0.152427342916519
6.7	0.546358370067004	0.8133934091442	4.12238844864788E-06	-6.41076630378763E-07	-4.63146893317388E-06	9.86079176836427E-07	0.976834290263553	-0.153672149205877
6.8	0.643643510460384	0.739658744384905	3.73032701226764E-06	-2.0448191431744E-06	6.1596093136549E-06	-8.88975198096727E-07	0.977361009159392	-0.155274974325558
6.9	0.731254581885402	0.65447393478385	2.02250068638036E-06	1.63731054817449E-06	8.72222826746066E-06	-2.68915361431073E-06	0.978272463848067	-0.156703529030351
7	0.80803261505826	0.558146833512194	2.13736452309445E-06	4.07894371053777E-06	-1.19443534877035E-07	5.34504902594357E-06	0.978895126318397	-0.159284858293586
7.1	0.870965345858214	0.453220885666776	-1.40507847867397E-07	1.7039424610137E-06	8.22116646923736E-06	-4.56952297299725E-06	0.977707099370438	-0.160743364643753
7.2	0.920552304191479	0.341621561677136	4.81890991289392E-06	-1.35389522569678E-06	7.17870638927391E-06	3.79597649627773E-06	0.977303597895592	-0.161344659566021
7.3	0.955701453525792	0.224796262974982	4.83165904017168E-06	-1.06424568784807E-06	-7.23016374854622E-06	-7.37760625421337E-06	0.9768474410799	-0.161858035276877
7.4	0.976550566414183	0.104875612242291	-1.92152110501213E-06	9.79997951503577E-06	1.46152521247486E-06	-4.02314747268313E-06	0.977041590068992	-0.162039388992991
7.5	0.985211870399327	-0.0176270423140006	8.25969647301463E-07	8.13424058806819E-07	1.65261173911537E-06	1.01004146921246E-06	0.980394166016184	-0.163779702829952
7.6	0.976389723645695	-0.143943797772967	1.48214960985003E-06	-2.59555091883883E-06	-5.37322829035136E-06	-3.68236981523806E-06	0.981173944633517	-0.169335597556308
7.7	0.950369073577861	-0.266969297124558	5.54912528192802E-06	2.46168406983538E-06	-6.94065384276085E-06	1.19823084579295E-05	0.980691294194167	-0.173432300356452
7.8	0.909304775517983	-0.384981845461885	-5.68805674534168E-07	-5.25094078974186E-06	3.77692828917187E-06	-4.70782871695968E-06	0.980600276445994	-0.176789366380111
7.9	0.854122118005113	-0.496502875531591	8.85105829410062E-06	1.60034454537328E-06	-9.47980395262977E-06	-8.72342329059537E-06	0.981275306575565	-0.180026112122893
8	0.78463626970462	-0.602017461770963	-6.66164088943795E-06	-1.66701624917542E-06	-1.20447088648249E-05	2.44019349650646E-06	0.981533244888933	-0.185778786840362
8.1	0.701454038878116	-0.693750726411834	5.06695582726006E-06	7.53094229516688E-07	2.87848701286209E-06	2.27247611813998E-06	0.978239645219351	-0.188262384923457
8.2	0.610239098600097	-0.774968961247371	3.57209793843333E-06	-2.54866436535208E-06	-3.60455262376383E-06	-1.16125201529331E-05	0.977573905983865	-0.189253305476816
8.3	0.509334742968902	-0.845130180027614	2.73464062992652E-06	-1.83492868814968E-06	1.59819021832054E-06	5.29202472819885E-06	0.977361179493465	-0.191074729772588
8.4	0.400159743394982	-0.902209844403169	-5.53332965062051E-06	-1.05827634480221E-06	1.03140880991318E-06	2.95271822657817E-06	0.977261982248773	-0.193295822407165
8.5	0.284160180186781	-0.945639078649864	-3.29535190207004E-06	1.59314410940484E-06	-4.73910495352087E-06	-5.03298455252935E-06	0.976801649700325	-0.195933659190419
8.6	0.162893824562396	-0.973791390307641	-8.14341078049338E-06	1.31216221254676E-06	-4.2755748744614E-06	-6.89290784223491E-06	0.976983126559746	-0.197811394612964
8.7	0.0391853643888325	-0.986816988117308	2.26398162292654E-07	-2.12617282381169E-07	6.11149112691093E-06	5.62514874906262E-07	0.97766117269759	-0.200257003378092
8.8	-0.0856269561158087	-0.984170758796038	1.04043336482077E-06	-1.80978566312513E-06	-2.38010934801809E-06	-1.30128163978377E-06	0.978245161927825	-0.202814176146761
8.9	-0.208569088169611	-0.965641990890727	-3.27601884747109E-07	3.03326989178623E-06	-1.2201061865644E-06	-1.65274721655058E-06	0.978897540141036	-0.205386148362883
9	-0.325674819935866	-0.932797485440688	2.9611912126534E-06	1.61884514141327E-06	-1.59745143740609E-06	2.09852730305363E-06	0.979252659826688	-0.208161170671192
9.1	-0.440683392244857	-0.887601063171148	-9.3572655758057E-06	2.16140686859294E-06	-1.59534385294004E-06	2.39623649528749E-06	0.979124710212214	-0.210831829066388
9.2	-0.550231285121777	-0.826532652218831	7.53463575524236E-06	-1.45113663143935E-07	-9.16291734082617E-06	1.86716847839158E-06	0.978493900552619	-0.213510318244348
9.3	-0.650960836194964	-0.751172407901423	1.60403359338355E-07	-7.19707146483186E-06	1.6093772328455E-06	-1.28808538372799E-06	0.977957257256593	-0.215571198587745
9.4	-0.740225744482861	-0.663187487981289	5.74880556714334E-07	2.50376515301041E-06	1.66620408014604E-06	-3.5992680090173E-06	0.977826066568491	-0.217420724391507
9.5	-0.818315533643684	-0.565468567870801	-2.96155721271365E-06	6.66267157993721E-06	4.77233423196335E-06	-1.32909346431371E-06	0.978999090748616	-0.220183764566459
9.6	-0.882552723485738	-0.456350031301771	-5.01592266293149E-06	-5.28391692890859E-06	4.77034969055609E-06	2.94258703416232E-06	0.978968121276631	-0.224154899799333
9.7	-0.93228683191674	-0.341349250319626	-1.9741725398195E-06	-5.12511141875136E-06	2.1113047653219E-06	2.75501366454313E-08	0.978998627777218	-0.227001069165174
9.8	-0.968358110877367	-0.220545319310735	6.32040709573114E-07	-4.31194806183752E-06	-2.94237682919109E-06	-2.56001283170369E-06	0.979670078165107	-0.2292631059466
9.9	-0.989099987004695	-0.0954275324720176	-6.20046695122216E-06	4.1962436808474E-06	-3.12416199004357E-06	1.6545675290182E-06	0.981218156702411	-0.231699408038632
10	-0.993813185159019	0.03136806372894	3.60883903432285E-06	-1.9829207136422E-08	8.2439754743528E-06	1.12681543272061E-05	0.981643469166308	-0.236838167502785
10.1	-0.98160905907649	0.157929799962117	-2.87464463906558E-06	-2.56207622049512E-06	-2.0175370478821E-06	-2.53283401703126E-06	0.979467682819806	-0.238849583486701
10.2	-0.953470232131478	0.281824411282847	2.3848132768901E-06	-1.02213580306739E-06	-2.79224174528032E-06	-1.08860079694601E-06	0.979481569187563	-0.240484584458444
10.3	-0.909747100712399	0.401370540272616	7.857850712818E-06	-5.9878149943746E-06	3.87473220786316E-06	8.32749091523112E-06	0.97939303095973	-0.243209009045402
10.4	-0.850704860821685	0.5148554626339	1.72229637144945E-06	2.55861926397327E-07	6.34053257082993E-06	-1.18905410652973E-06	0.978892474336728	-0.246971987273289
10.5	-0.775597296028619	0.616968875154961	8.41671606923459E-06	-4.16298807596222E-06	-5.00223371928661E-07	1.98664114683298E-06	0.976696928134764	-0.251212249863665
10.6	-0.693271449845214	0.706925128733995	9.00658800439963E-06	-1.25302433071543E-06	-1.52735412449674E-06	1.37391954805217E-05	0.975215272923257	-0.253849858155392
10.7	-0.600133013300376	0.788596040190679	8.08975384102464E-06	-1.89659126354956E-06	-3.06464467057777E-06	-5.33452652386022E-06	0.973684350154953	-0.256952628341163
10.8	-0.495721251254865	0.858806216871245	2.46186662953135E-06	5.29959791132567E-06	-3.65977663893792E-06	-2.14489708098305E-07	0.972408149794639	-0.258925210257978
10.9	-0.381294350568748	0.915050513538589	-5.60853442348346E-06	4.81022253904742E-07	1.60497427842312E-06	4.0664980409773E-06	0.972247837560095	-0.260119613148888
11	-0.261810005309737	0.955405639175416	1.21829530332963E-08	-5.27378279395957E-06	-8.46729262847168E-06	2.23945805438454E-06	0.972276391319122	-0.261475817703826
11.1	-0.13749973991187	0.980917330728577	6.37798337618974E-06	4.13037193666501E-06	-1.9203299336192E-06	1.08740920727862E-05	0.972623227334141	-0.262934970617792
11.2	-0.0121504663942047	0.989366145458283	1.59610900100924E-06	1.36601596150878E-06	5.20082941432775E-06	8.98230365904649E-06	0.972647144738771	-0.265163894261502
11.3	0.112421877212491	0.982164346721803	-4.6988328102718E-07	-1.75158156853204E-06	-7.13793665343742E-07	-4.43240990649606E-06	0.972359704684045	-0.267457981253978
11.4	0.234919762489593	0.96058348943389	2.4844731693951E-07	1.19479796633095E-05	2.4502455486799E-06	4.96118372154181E-06	0.971963329706804	-0.270139045615393
11.5	0.355043210216111	0.924031219243026	6.24360051734111E-06	-3.33478638056718E-07	3.1733621352634E-07	-1.89728257025579E-06	0.972578321878933	-0.274453256251888
11.6	0.468168056338557	0.872225734948489	-6.04736979809581E-06	3.11074732803299E-06	-4.90557972711805E-06	1.94180677877937E-06	0.970641818372689	-0.279603957300398
11.7	0.573779579676344	0.807892703196989	3.34876481933088E-06	-1.81854666572037E-06	-1.71460737100666E-06	2.2591227428403E-06	0.969395729391481	-0.283994068128815
11.8	0.671335572730232	0.730984913879977	-8.0373103434064E-07	9.87659822930785E-06	-2.71300606050833E-06	1.06317840241328E-05	0.968553649685599	-0.288634087194949
11.9	0.761246229179549	0.642358655223047	-7.37805917657486E-06	-1.02607495428458E-06	-3.91880854296896E-06	1.13827254176072E-05	0.969022631141684	-0.293600814290558
12	0.839413498112275	0.537226527707696	-6.42736436919553E-07	1.40338640142998E-06	-3.18845682649473E-06	-1.92660339235857E-06	0.965670705312664	-0.300055718685762
12.1	0.898875038901828	0.423483852481612	-3.86906754358649E-06	5.07698412608198E-06	-1.26956200659445E-06	8.51448440313173E-06	0.960621292792354	-0.301821189844961
12.2	0.943312179293239	0.305210789435382	-6.24887051331069E-07	-3.82543071156243E-06	-3.14997672543204E-06	-7.02234363830479E-07	0.9580845826802	-0.303263467268362
12.3	0.972319222317315	0.183672460831882	3.66586527292767E-06	3.41126404041563E-06	-3.38051185082909E-06	6.35470975698635E-06	0.955742748474846	-0.305190331841018
