# GHZ S RI R 50
0.2	-0.96686135968304	0.251064483645461	8.82561743796276E-06	5.3293568402584E-06	1.13910620217272E-06	-2.89088289524964E-06	1.00026273709516	-0.00646307306369494
0.3	-0.927806156028457	0.370929438970174	-7.6684488463784E-06	-8.25538227679169E-07	-1.72877733506671E-08	3.6627246616133E-06	1.00037958829089	-0.00931495887876771
0.4	-0.873568617736595	0.484963296423161	-2.20666787530741E-06	6.34552991070749E-06	2.9183206580159E-06	5.74619161536096E-06	1.00072599886175	-0.0118894287078195
0.5	-0.805308707236054	0.591801975978099	-2.65367799910487E-06	5.48887167821826E-07	1.05362895813996E-05	4.89702767198259E-06	1.00097970768868	-0.0156135708150806
0.6	-0.723753721223657	0.68822813314201	-1.7275169825724E-06	-1.87250909602461E-08	4.17122886743092E-06	-1.03485310388396E-05	1.00057546709354	-0.01866716494866
0.7	-0.631415808014558	0.773877603327782	-2.05022574705968E-06	9.88849060187608E-07	3.78407889519202E-06	1.11771171757847E-05	1.00030094495265	-0.0214782321224275
0.8	-0.528850103281126	0.847475637216012	-5.61540312699559E-06	3.78542568074017E-06	-3.17180418056553E-06	-2.14353718443684E-06	1.00017324114882	-0.0236560985352974
0.9	-0.417983341972717	0.907368126379259	-6.71999857598545E-07	5.25786478421205E-06	3.27143473328206E-06	-2.93749626469203E-07	1.00011601158636	-0.0259271084964056
1	-0.299991767617631	0.952880941774137	1.57157039036773E-05	-3.68250403980945E-06	-9.61573296869827E-06	5.21304887994179E-07	1.00036400707031	-0.0273478713716251
1.1	-0.178131209506357	0.98292287086154	1.34648748227556E-06	-2.98784548000951E-06	9.41017623522671E-06	1.26286638320803E-05	1.00024802103634	-0.0298334667946377
1.2	-0.0525554857450722	0.997381840089597	-7.92385920852202E-06	-3.26888200562192E-06	-3.10252379973501E-06	-4.48919071188305E-06	0.999483975376964	-0.0308439400532202
1.3	0.0739037399507299	0.995724267728471	1.77935665455502E-07	3.34080258500962E-06	1.93282985733307E-06	3.42321740480371E-07	0.999575684126037	-0.0316923641698342
1.4	0.198711337743546	0.978021300858095	2.17306491791612E-08	3.77413674821611E-06	-2.53091530373633E-06	-5.62538377440625E-06	0.999378043866422	-0.0336143650853772
1.5	0.320544925984394	0.945203563535225	3.1932899095727E-06	-2.66839514677057E-07	2.70737092333882E-06	2.09899784020704E-06	1.00056534356127	-0.0372444519550234
1.6	0.436860190253285	0.897193677471058	1.79060375228757E-06	-1.94389978749767E-06	-8.96579896086883E-07	-3.06938399716309E-06	1.00011676005391	-0.0413107382481306
1.7	0.545959448509852	0.834901890732637	-8.75950755170311E-08	-3.53210415352349E-06	2.01205901146946E-06	4.93561317664355E-06	1.00050574828526	-0.0440957875443259
1.8	0.646139093868892	0.759847550761205	-2.06281125743359E-06	-1.81655157044366E-06	-4.63820212972172E-06	1.83587712529207E-05	1.00035643209114	-0.0469256635178958
1.9	0.735890653334152	0.673329248706236	-4.39951367743876E-06	-1.46930064522041E-06	-4.93725555341096E-06	-6.01503389369045E-06	1.00044090999995	-0.0487969365522362
2	0.815456627138956	0.576305001911035	-9.51145570441721E-08	-6.76481095605418E-07	-1.67408487988839E-06	-1.42273986496663E-06	1.00161722446626	-0.0519972923965253
2.1	0.881618071170361	0.467190162046532	-1.1283709906435E-06	9.48208933745935E-06	2.00056076126185E-06	-3.85044438353931E-07	1.00086789868356	-0.0559949327667541
2.2	0.93240626574189	0.352548967384091	-3.53735789397058E-08	-5.94554556379354E-06	-7.33027173788147E-07	2.74632262929926E-06	1.00021646829332	-0.0586034596975572
2.3	0.968716989211387	0.232646322594274	-1.31233791135103E-06	2.77554804378918E-06	-2.44240326299463E-07	1.20029648375888E-05	0.999662638589652	-0.0605686557896337
2.4	0.989931852036349	0.108281297678908	-5.89536954017309E-06	-3.70140168392342E-06	-1.75961919075566E-05	1.46028286456963E-05	0.999442114036386	-0.0637059094408563
2.5	0.995740122767501	-0.0171915697304774	1.81496865823811E-06	-2.97275099911575E-06	-1.77562023448049E-06	7.56606736068604E-06	0.999294573882056	-0.0660883749549748
2.6	0.985218673462331	-0.141314191586615	2.87047304733365E-06	9.14959442721334E-07	-1.74542890348238E-06	4.51628474004835E-06	0.999152420330895	-0.0694647150654612
2.7	0.959272798333954	-0.263600880282333	3.86036921612839E-06	1.0461502456483E-05	2.33889050927208E-06	3.87190259184645E-06	0.998573116514809	-0.0728012224341271
2.8	0.918193567481681	-0.381863498366395	-8.22799899342846E-07	-2.295966380313E-06	2.13981456022767E-07	-1.89334336774858E-06	0.998410915422881	-0.0751102818490428
2.9	0.862963561706648	-0.493575891996768	3.74557712901098E-06	-8.34946549628262E-06	-1.32796843299981E-06	-1.42527241712399E-05	0.997757251506267	-0.0772727807080837
3	0.794123888744039	-0.598152864781202	1.32292094771282E-08	6.66252387265861E-06	-1.47790542804036E-05	5.3707903749261E-06	0.99746563161329	-0.0798048152529266
3.1	0.713305729664536	-0.692099322548301	-4.95980787646761E-06	7.85829555090016E-06	5.81844436784743E-06	-1.10017671545151E-07	0.996934771399776	-0.0821340103004497
3.2	0.619714380998726	-0.776002706168838	9.71037359876177E-07	2.12415361572875E-06	-4.56470228649866E-06	4.99297759291374E-07	0.996260844788948	-0.0840699685112152
3.3	0.516725373429931	-0.847253156111704	7.13142808846045E-07	-1.46406773421514E-06	-4.58143188600708E-06	7.53409817095496E-07	0.99549017907116	-0.0874351528433567
3.4	0.405415572006686	-0.904271589137552	6.47002803671261E-06	2.05390659594412E-07	-8.16758705939186E-06	-7.14258999650228E-06	0.994798115682462	-0.0891929710157614
3.5	0.28950580083557	-0.947491917908685	-7.68649933841126E-06	1.98669615173519E-06	-5.9256224993404E-06	-7.95634714350852E-06	0.994863019297841	-0.09128879306999
3.6	0.166591014683386	-0.977141935861977	-8.72325653194913E-07	-4.37902829945467E-06	-7.83951971798328E-06	-6.30537953904042E-06	0.994750844570694	-0.0944694653943031
3.7	0.0414823779343995	-0.990095782425558	-6.74169289217282E-06	-6.74274988600296E-06	5.09053699685812E-07	-4.76564524884153E-06	0.993905474599245	-0.0974034853641046
3.8	-0.0839376471709203	-0.986896084772772	-3.63776263391309E-06	1.09705810280996E-06	-3.3050391933893E-06	-2.45133405460497E-06	0.992868660233954	-0.0991765432986365
3.9	-0.207064263373297	-0.96843837915478	-4.66165590258067E-07	3.50826663915094E-06	2.04808009588003E-06	-1.22657374796204E-06	0.992703494139238	-0.101553141270518
4	-0.328075437333601	-0.935372809509148	1.1718390602415E-05	8.06570451678676E-06	7.24822743542102E-06	-4.07486886082804E-06	0.993432223173105	-0.103165185830125
4.1	-0.4437218952162	-0.885872999039785	5.22006287579713E-06	1.29465410109578E-06	-3.41965030743056E-06	6.66437153091517E-06	0.992436640842675	-0.105940733611344
4.2	-0.551086898399086	-0.822848336610333	-7.09368657005366E-06	-1.16356262559272E-06	-8.2540530953007E-06	7.08825197098211E-10	0.991298921310728	-0.108390476369643
4.3	-0.649735400503416	-0.746815693800718	6.89489882918208E-07	-2.36721862558979E-06	5.20796850541536E-06	8.53337925295966E-07	0.990886192490283	-0.110229982511206
4.4	-0.738211423678175	-0.658941465343343	4.45613226225162E-06	-1.79193117254236E-06	-8.60330220456055E-07	1.34824858126296E-06	0.990283696055776	-0.112489904117819
4.5	-0.815323009331613	-0.560391642912685	6.77965260755916E-06	1.83045969672826E-06	-8.18714543290517E-07	-3.24645776835331E-06	0.990005479386516	-0.114805916914516
4.6	-0.879540369533855	-0.452834689119483	2.46372639769534E-06	2.93277940841125E-06	-6.52642196683167E-06	9.75423562525801E-06	0.989187973899714	-0.117456020867042
4.7	-0.929507587413787	-0.337161204237025	-1.39880027288338E-05	5.96725823432619E-06	-3.45356380277781E-06	-1.83062588210783E-08	0.988843177452386	-0.119435610463608
4.8	-0.964267613978365	-0.216540736853149	-3.1770136102801E-06	-5.11370605937171E-06	-5.49745649795966E-06	2.38483015348613E-06	0.988083303701118	-0.121873448810551
4.9	-0.982699727758896	-0.092748625083395	-1.06030034425858E-06	-8.51899391135287E-06	-4.2036940384495E-06	7.58511701777074E-07	0.987175753350901	-0.123484267234444
5	-0.984739314974802	0.0304489420825756	7.50972567134624E-06	-1.59815174840893E-06	-1.75700504192214E-06	-2.70156861515851E-06	0.986632044486395	-0.124581725263813
5.1	-0.973321639033837	0.153888883802047	-2.61286203629403E-06	-6.35441349572592E-06	-1.01131754669266E-06	-1.94020698496209E-06	0.986486322911888	-0.125658695725442
5.2	-0.946340211751637	0.274903963943214	3.9761387184969E-06	-4.48040986600545E-07	-5.39031354553388E-06	6.29519310851145E-06	0.985945613512162	-0.127664257781549
5.3	-0.904488634371907	0.391229655929343	5.13012134282807E-06	5.95892041974202E-06	-9.66335827595585E-07	-3.56383274353717E-06	0.985200399532171	-0.129615883922137
5.4	-0.848675506656038	0.501167080443248	3.03968584130481E-06	-2.01197507167976E-06	-1.12429600155292E-05	2.21420407000587E-06	0.984582752319663	-0.131571176021472
5.5	-0.779785349889257	0.60334983663119	-4.32875281218462E-07	-2.18179651656104E-06	-5.74742120323595E-06	6.09990010982807E-06	0.984904343091367	-0.13326842183412
5.6	-0.69768522662352	0.696732601835071	2.37900224019643E-06	7.26286631318729E-06	-5.30666098255113E-07	2.91504111199822E-06	0.984981261496382	-0.136059031942219
5.7	-0.604489379126791	0.778762778754453	-2.55431650690214E-06	2.35177794262828E-06	7.87235417576731E-06	2.75274319252088E-06	0.98434902524385	-0.138299525417552
5.8	-0.50184254228231	0.847539304369108	-4.61713825551877E-06	5.07886737365192E-06	-3.61220934751151E-07	3.40300133915983E-06	0.983930258147092	-0.139911184772921
5.9	-0.39235641245819	0.903309259419371	6.32074099706017E-06	1.49085704611345E-06	-2.69596903760527E-06	2.53198102848862E-06	0.983894217542599	-0.14113493764172
6	-0.276673440910824	0.945740844448818	3.50572085320366E-06	3.28469457968495E-06	-3.26270311533416E-07	-1.42726092640162E-06	0.984883887508952	-0.143092822720057
6.1	-0.156187178635709	0.972322103970324	9.12737497093935E-06	1.51352417057324E-06	-1.27381651101923E-07	-1.79883658061621E-06	0.983983099257515	-0.144941954977511
6.2	-0.0334597075053067	0.984010674800434	2.42601855849827E-06	-1.71946277623312E-06	1.47302994460933E-06	-4.81710617373492E-06	0.983397392998429	-0.145749043403177
6.3	0.0899584718119346	0.980601155019551	-4.33838767888138E-06	4.21756758305389E-06	-6.10402615637759E-07	-1.71578615238401E-06	0.983109443789774	-0.147257001401712
6.4	0.212382359677978	0.962119297429292	-4.24303971070976E-06	1.0606746153229E-06	-1.75948811076428E-06	8.7949139919137E-06	0.983055328594274	-0.14909476513452
6.5	0.332378008524491	0.927078407594157	2.43742929822544E-06	-1.32243844155568E-06	1.47899385533878E-06	-2.91171150520125E-06	0.982488838666306	-0.152391020595648
6.6	0.44435358209044	0.877545104560987	-4.69757641748998E-06	-2.24727980434892E-06	-1.84031979230586E-06	-6.59606222296478E-06	0.981534812300202	-0.153966994570467
6.7	0.549948205828685	0.815447688459364	4.13611629391741E-06	-6.45304411268438E-07	-4.64676027384779E-06	9.9173479514821E-07	0.981559283220107	-0.15567116208599
6.8	0.647137966674448	0.740627211985797	3.73842189748512E-06	-2.05427868482903E-06	6.17555096602081E-06	-8.97785534307896E-07	0.981242209725477	-0.157538063001641
6.9	0.734177827147041	0.654485254384282	2.02858245895632E-06	1.63751585089381E-06	8.73471589550497E-06	-2.70646399066528E-06	0.981084145326123	-0.158993912141105
7	0.810171742200716	0.557980246972909	2.14355348560604E-06	4.08140775134207E-06	-1.14539182597883E-07	5.3510290150048E-06	0.981169142243413	-0.160693762627339
7.1	0.873017174263423	0.452772606879579	-1.39257426520467E-07	1.70657640140152E-06	8.22938554706296E-06	-4.58329727488811E-06	0.980389362973984	-0.16229231471249
7.2	0.922185705154925	0.340535198110268	4.82449272093049E-06	-1.36303980465384E-06	7.19549319361887E-06	3.79146791125434E-06	0.979746874191239	-0.163538956403643
7.3	0.956532062032277	0.223094738893734	4.83584151203936E-06	-1.07676881542212E-06	-7.25696511958341E-06	-7.37115621526161E-06	0.978648176167152	-0.164775508742537
7.4	0.975931993324944	0.102702688703182	-1.8880104373904E-06	9.81264648493152E-06	1.44817118531758E-06	-4.03072684857111E-06	0.977428058385422	-0.165742734760761
7.5	0.982501929114944	-0.0186619178487422	8.27681007242866E-07	8.08734443673027E-07	1.65361651665288E-06	1.00176165075043E-06	0.978541004312689	-0.166549286928938
7.6	0.97336140663673	-0.143147629866618	1.47053810339175E-06	-2.59159491553169E-06	-5.36670727124511E-06	-3.65644329006909E-06	0.979005879204202	-0.170654829349048
7.7	0.947704517508427	-0.264723287938938	5.53217029845368E-06	2.44437182543153E-06	-6.89724304382423E-06	1.19480931161005E-05	0.978563084675756	-0.173844036136063
7.8	0.907573052468864	-0.38192162579594	-5.68495835779317E-07	-5.23118290121086E-06	3.76123561398484E-06	-4.69159145312247E-06	0.978713569789961	-0.176611675666239
7.9	0.853557801154776	-0.493444343026812	8.82194604320728E-06	1.60083372338856E-06	-9.44421201177999E-06	-8.70169009196123E-06	0.979624065438952	-0.179303351023932
8	0.785515212873069	-0.599799379698007	-6.64732829900118E-06	-1.67610823266486E-06	-1.20285958132383E-05	2.41447963631301E-06	0.98096861852986	-0.183903669731027
8.1	0.701497093338759	-0.693923777790081	5.06769838312324E-06	7.56588192715005E-07	2.8777036586973E-06	2.27491046096399E-06	0.97905293851731	-0.187396221719793
8.2	0.608703539907199	-0.775518616309104	3.5734203704913E-06	-2.55214728233143E-06	-3.61256900761933E-06	-1.16190243091895E-05	0.978568477614644	-0.189097637825408
8.3	0.506667728173428	-0.8453515360024	2.7344227904322E-06	-1.83983885316582E-06	1.60617728351558E-06	5.29409282640646E-06	0.978418667111107	-0.191394338019439
8.4	0.396922904682872	-0.90177532476698	-5.53853002675748E-06	-1.04924168917969E-06	1.03719622960392E-06	2.95270234694407E-06	0.978283889934174	-0.193996324019307
8.5	0.280947031259931	-0.945202739735684	-3.29390501655655E-06	1.59985648088684E-06	-4.7503766594071E-06	-5.02657087214737E-06	0.977824853901566	-0.19709873883797
8.6	0.158286359808924	-0.97356627792752	-8.14649701600691E-06	1.32860535317826E-06	-4.29166577097041E-06	-6.88947968703758E-06	0.977441485932173	-0.199481528100919
8.7	0.03326612158948	-0.985270340575201	2.26067109275304E-07	-2.13303697865505E-07	6.11730573275241E-06	5.48623601814291E-07	0.977457156243271	-0.201950470193479
8.8	-0.0919704152700591	-0.980779850527009	1.03593582668515E-06	-1.81380973293709E-06	-2.38521194675151E-06	-1.29532673662281E-06	0.97750086687672	-0.204285044153225
8.9	-0.214682502361441	-0.960550717238823	-3.16813662122959E-07	3.03588536656824E-06	-1.22664541326382E-06	-1.64912659526842E-06	0.977897620308095	-0.206507101191461
9	-0.331366617498892	-0.925733231736653	2.96779459647926E-06	1.60311035642432E-06	-1.58606661443764E-06	2.10547135643689E-06	0.978321261080872	-0.209124360008882
9.1	-0.444706257863941	-0.878867611871024	-9.32677828902278E-06	2.20534458417129E-06	-1.57965816383354E-06	2.39954346308465E-06	0.978390992981458	-0.211867407216751
9.2	-0.552124621377165	-0.817236950617269	7.51084259014867E-06	-1.81662542987641E-07	-9.12568138582111E-06	1.9064367305449E-06	0.97801920070652	-0.214927153009944
9.3	-0.650981284781128	-0.742635742898201	1.2943339974329E-07	-7.17083532031376E-06	1.59792361195233E-06	-1.29005990292079E-06	0.977494019143265	-0.217659059196873
9.4	-0.739272366278903	-0.65623883131199	5.80702331146082E-07	2.49165832488922E-06	1.64764982250503E-06	-3.58999838004537E-06	0.976834057431006	-0.22018206191208
9.5	-0.817936444291591	-0.561033410363954	-2.94089078052547E-06	6.64246089075752E-06	4.75280574472096E-06	-1.33118429171779E-06	0.977251932949669	-0.222885964008467
9.6	-0.885147110675666	-0.451668224470789	-5.01228508955688E-06	-5.26864487291566E-06	4.76463871481575E-06	2.93194480335838E-06	0.976793527379544	-0.226891169835481
9.7	-0.935321949933102	-0.334442691638922	-1.98020826634274E-06	-5.11525417579474E-06	2.10864875397445E-06	2.39876288063784E-08	0.976077809698626	-0.229645323318806
9.8	-0.970114509350452	-0.212052736714239	6.22031443941302E-07	-4.30740569568384E-06	-2.94379287363502E-06	-2.55027835820973E-06	0.975982502645694	-0.231520506069509
9.9	-0.988460203935233	-0.0865462479867069	-6.17692588289195E-06	4.20314868623894E-06	-3.11346197468909E-06	1.65900621698076E-06	0.976881267597095	-0.233080918567239
10	-0.99146607720749	0.0382921215086403	3.59709496105123E-06	-2.65729266364457E-08	8.23849022348287E-06	1.12160495207676E-05	0.97806567388641	-0.237315025110407
10.1	-0.97984760381596	0.163613052464125	-2.86663869862676E-06	-2.55113718487698E-06	-2.01245991243479E-06	-2.52262766991692E-06	0.975698113114876	-0.239933258713086
10.2	-0.95182082842433	0.287328753478306	2.37765571778238E-06	-1.01879625225619E-06	-2.78364131902717E-06	-1.08555750024064E-06	0.975157592120954	-0.240965123125905
10.3	-0.907961029931712	0.406496294552115	7.84333935408504E-06	-5.96866214114351E-06	3.86022499859155E-06	8.31050185336641E-06	0.975051752568043	-0.242731016833776
10.4	-0.849528344321598	0.519095916312414	1.71995843546169E-06	2.57514440567367E-07	6.33434655998406E-06	-1.18043740280255E-06	0.975126967143649	-0.245237705137026
10.5	-0.776612402562437	0.622333830759016	8.42469685429507E-06	-4.16420820262956E-06	-5.01150474464055E-07	1.98813885387992E-06	0.974653884354135	-0.249223772201707
10.6	-0.693496711006495	0.714759250967444	9.01127703195693E-06	-1.26729339999701E-06	-1.50808709858947E-06	1.37514486709479E-05	0.973682789289997	-0.252373877200552
10.7	-0.598893829179411	0.79700107823332	8.08595682917333E-06	-1.91296155631611E-06	-3.0754482233059E-06	-5.32835396799417E-06	0.972603346297202	-0.255996537495355
10.8	-0.493161033512012	0.867202700618502	2.47205405600563E-06	5.29133476600854E-06	-3.65823810558785E-06	-2.06405372231341E-07	0.971307472406516	-0.258654452985773
10.9	-0.378047192945293	0.922300401882467	-5.60090359338361E-06	4.94226851589529E-07	1.61310346877667E-06	4.05788376319026E-06	0.970712890902248	-0.260998006423013
11	-0.259993701614447	0.960893712126208	2.14199885198456E-09	-5.2593107020872E-06	-8.43977035466836E-06	2.24937024707792E-06	0.970025593301741	-0.263818304523157
11.1	-0.137596626092707	0.988648147269851	6.36250101535474E-06	4.118250381247E-06	-1.91286384305619E-06	1.0846510161821E-05	0.968134499667362	-0.26619769638098
11.2	-0.0107659178239021	0.999320995522301	1.59286705584128E-06	1.36390528937355E-06	5.18917778680309E-06	8.96715364525951E-06	0.966191463827965	-0.267984360288665
11.3	0.116627225770539	0.992664810000645	-4.68745353933161E-07	-1.74991900815987E-06	-7.11412202476949E-07	-4.42802763081743E-06	0.96449411932784	-0.269077272502653
11.4	0.24158787401217	0.969742827517259	2.47279821371569E-07	1.19436341575223E-05	2.44890273033895E-06	4.95959083125581E-06	0.963186676676171	-0.270184820208177
11.5	0.362218988617986	0.931135743274981	6.24003258245679E-06	-3.36443622300758E-07	3.16207242208898E-07	-1.89640935680401E-06	0.964198814887211	-0.272741606797712
11.6	0.475823370168659	0.878134649236819	-6.04085443379364E-06	3.11125076748037E-06	-4.90058768719281E-06	1.9426909745092E-06	0.962631767975961	-0.277630665712153
11.7	0.581862685474438	0.811675012163472	3.34382010956279E-06	-1.81773564047633E-06	-1.71150164509491E-06	2.25705828356669E-06	0.960879642058491	-0.280964910268256
11.8	0.678372940462897	0.731837225076577	-7.99817079669594E-07	9.85736148591416E-06	-2.70515829924329E-06	1.06115128940895E-05	0.960164759888814	-0.28388603347076
11.9	0.763230316579565	0.640400957413425	-7.34745945999968E-06	-1.02884292810057E-06	-3.91369480074041E-06	1.13333354079629E-05	0.961684732933056	-0.286376006996125
12	0.836218747165725	0.538741695656085	-6.44909896053365E-07	1.39615742264475E-06	-3.17052641254084E-06	-1.92982925791166E-06	0.962484382583215	-0.293258284396307
12.1	0.894947828704069	0.42991295157176	-3.88110617890137E-06	5.04443363025774E-06	-1.30495363769965E-06	8.48385561475913E-06	0.958689227786155	-0.297221519139502
12.2	0.940748067344154	0.315277499967216	-6.0213243477018E-07	-3.82172061893604E-06	-3.14005984655119E-06	-7.18670219937762E-07	0.956589424673508	-0.300142629636936
12.3	0.972566309551072	0.195937064239399	3.64341382239045E-06	3.43289059163557E-06	-3.4188627037297E-06	6.33153477020184E-06	0.954773131795102	-0.303199864849866
