# GHZ S RI R 50
0.2	-0.966160432478272	0.251522995241238	8.82319647005773E-06	5.32267485323554E-06	1.13724261415599E-06	-2.88982699548259E-06	0.999769624262126	-0.00670044947298296
0.3	-0.926760787891191	0.371374496580287	-7.66319853010329E-06	-8.20880190611074E-07	-1.53424744187819E-08	3.6600180054329E-06	0.999747095871155	-0.00956089368491627
0.4	-0.872144806971807	0.485193832344106	-2.20070999497962E-06	6.34020213894445E-06	2.91860105174678E-06	5.7385295068763E-06	0.999852255593029	-0.0121470718832396
0.5	-0.803784152766753	0.591507067198083	-2.64999604606136E-06	5.48882397718825E-07	1.0523605895533E-05	4.88762853652059E-06	0.999862898632944	-0.0154941484726652
0.6	-0.722340452427008	0.687819577822387	-1.72552839590389E-06	-1.83409599698844E-08	4.16424605310998E-06	-1.03374704201716E-05	0.999749494080095	-0.0184910940062381
0.7	-0.629867703364972	0.77322302738312	-2.04730779948334E-06	9.88239576670449E-07	3.78279835224255E-06	1.11617168366808E-05	0.999399568976085	-0.0214499555332711
0.8	-0.527305158408905	0.846437800861391	-5.60626200299195E-06	3.78176141984011E-06	-3.16795044557377E-06	-2.1395196548935E-06	0.999149260129743	-0.0236681620619576
0.9	-0.416594241843647	0.905947156815472	-6.69432085896071E-07	5.25012602614957E-06	3.26640938565126E-06	-2.94272653778686E-07	0.998986056421524	-0.0260254516093268
1	-0.298898738749464	0.951116734822947	1.56871145553015E-05	-3.68111525986541E-06	-9.59879516006601E-06	5.23475687316114E-07	0.998855984724032	-0.0274351303632756
1.1	-0.177526259178736	0.980969723992413	1.34427178726434E-06	-2.98220673602455E-06	9.39165771065598E-06	1.26061978372448E-05	0.9988201276888	-0.029448476198217
1.2	-0.0525049241007699	0.995538728107064	-7.9097605158454E-06	-3.26769308966869E-06	-3.09540200139762E-06	-4.48367571720045E-06	0.998482123368123	-0.0302249958530713
1.3	0.0735596527929769	0.994250765227014	1.74817591278868E-07	3.33726478851383E-06	1.93039369329476E-06	3.43633449796431E-07	0.999195939594656	-0.0309644542297364
1.4	0.198278958226247	0.976722593110761	1.82802072814733E-08	3.77111293882554E-06	-2.52375750505256E-06	-5.62314939447138E-06	0.999272426866631	-0.0331705373314453
1.5	0.319838889274015	0.943752459909988	3.18977717542596E-06	-2.63982449032672E-07	2.702538994317E-06	2.09870740798335E-06	0.99980344194275	-0.0368993842348809
1.6	0.435930200917443	0.895688111654951	1.78944101828612E-06	-1.93957724976534E-06	-8.92826198730473E-07	-3.0654801809518E-06	0.998872113652831	-0.0408212054119707
1.7	0.544708452373508	0.833297676626096	-8.49429952580587E-08	-3.52573120891242E-06	2.00491054443728E-06	4.92804136778519E-06	0.998790778598408	-0.0435541240042295
1.8	0.644547446254602	0.758262269037871	-2.0574659407279E-06	-1.81409096346109E-06	-4.63994998154151E-06	1.8318270411341E-05	0.998259381687092	-0.0463750348381086
1.9	0.733916345422573	0.671654735804956	-4.38851856684457E-06	-1.46719258624727E-06	-4.923520176952E-06	-6.002222797967E-06	0.997763659863897	-0.0483822962346691
2	0.812367530325745	0.574915139544297	-9.44101562078208E-08	-6.7422442732704E-07	-1.66756986573804E-06	-1.41882091172229E-06	0.997871811758486	-0.0508633231816368
2.1	0.878432286914919	0.467023091169136	-1.13837135193413E-06	9.44962140213945E-06	1.99460892421036E-06	-3.80907817454498E-07	0.997562365015385	-0.053942499083545
2.2	0.929426441068604	0.352867264766819	-2.60041161424579E-08	-5.92754980552156E-06	-7.35079946220471E-07	2.73684278557298E-06	0.997129387209786	-0.0564517887526334
2.3	0.96575360327948	0.233371594144448	-1.31301585304113E-06	2.76489702671933E-06	-2.63692765702377E-07	1.19660419709668E-05	0.996578457819245	-0.0582899334043371
2.4	0.986892823338102	0.109529657184511	-5.87031710956486E-06	-3.70151996377463E-06	-1.75708730009659E-05	1.45245242975454E-05	0.996262852753994	-0.0612668955270236
2.5	0.9927453847007	-0.0150666633178978	1.81558990178955E-06	-2.96054873906088E-06	-1.78544018356173E-06	7.54063525603101E-06	0.995861733961621	-0.0632611801387929
2.6	0.982740947067305	-0.138382774662931	2.85920299977963E-06	9.18013574316393E-07	-1.74923817126445E-06	4.49791000282955E-06	0.995778986855183	-0.0660467742277326
2.7	0.957512087579605	-0.260034086719426	3.82011520562063E-06	1.04365171814487E-05	2.32094155391925E-06	3.86503164545914E-06	0.995472276770914	-0.0689211275104993
2.8	0.917285510850491	-0.377954836626119	-8.13269373806511E-07	-2.29112550772428E-06	2.18996552000546E-07	-1.88666591362169E-06	0.995672428877419	-0.0709731549193316
2.9	0.862860843422924	-0.489537554627806	3.76216460532439E-06	-8.31280859927586E-06	-1.27716044978805E-06	-1.4215580742567E-05	0.99537729380267	-0.073021178093397
3	0.79487301359317	-0.594044844565865	-9.93136148369417E-09	6.64566897379895E-06	-1.47602073980271E-05	5.30586510908165E-06	0.995426054639025	-0.0754646592108542
3.1	0.715061628619963	-0.688293238071781	-4.97715531012438E-06	7.82362009554973E-06	5.80627413357926E-06	-8.90064976859071E-08	0.995332710930816	-0.0776986180936737
3.2	0.622240585999512	-0.772838229498138	9.61755828104931E-07	2.12403707536731E-06	-4.55874750373914E-06	4.82046981946539E-07	0.995120138995885	-0.079739389038312
3.3	0.519796317249605	-0.844880237754107	7.17505561139086E-07	-1.45967213856098E-06	-4.57839443768066E-06	7.36016173880879E-07	0.994780426384012	-0.0832610282497021
3.4	0.408592883278227	-0.90293975380002	6.46508895174537E-06	2.27206028154884E-07	-8.13799996309493E-06	-7.16561585906506E-06	0.994440320667373	-0.085405125877686
3.5	0.292100913661267	-0.946297768151054	-7.68610762268881E-06	1.96469597920965E-06	-5.89998205607071E-06	-7.96627472142447E-06	0.994117895511287	-0.0878437601774234
3.6	0.169962516274215	-0.97609644604998	-8.57773474062278E-07	-4.37697491482009E-06	-7.81140490291677E-06	-6.32287416255635E-06	0.994002912480665	-0.090511320167919
3.7	0.0450353974413312	-0.989933064829708	-6.71347969223122E-06	-6.76030933961675E-06	5.24828819839427E-07	-4.76015328739117E-06	0.993503489953668	-0.0933048026752694
3.8	-0.0805845007646994	-0.987331057703781	-3.63939464256927E-06	1.08393101008244E-06	-3.29468908689616E-06	-2.4612389026668E-06	0.992695219847667	-0.0951435416727514
3.9	-0.203869636855888	-0.969038553784266	-4.78080188144794E-07	3.50409979249477E-06	2.05088152171975E-06	-1.21853357597709E-06	0.992403311848065	-0.097665824506444
4	-0.324219310986507	-0.936148544912502	1.1674516760707E-05	8.1107423257933E-06	7.26057596862841E-06	-4.04025448180468E-06	0.992870059528573	-0.0984340099241723
4.1	-0.439586309178272	-0.888002279958319	5.21487771402841E-06	1.31891782464202E-06	-3.45089289350939E-06	6.64960524288882E-06	0.992936508685775	-0.100932167657053
4.2	-0.547504278091319	-0.826045537790092	-7.09263156407113E-06	-1.19619791074081E-06	-8.25892641844886E-06	-3.64655981340756E-08	0.992236578789134	-0.103646923846167
4.3	-0.64689381241135	-0.750696019456992	7.00621398004271E-07	-2.36629027573719E-06	5.20887227937884E-06	8.77229778900062E-07	0.99207703698193	-0.105605766094852
4.4	-0.736093013779541	-0.663287078611942	4.46903641346402E-06	-1.77408305959318E-06	-8.67281917402809E-07	1.34591152544044E-06	0.99164239554171	-0.107879227919818
4.5	-0.81400443552705	-0.565145101995883	6.78144167031881E-06	1.86412074648044E-06	-8.05130895551191E-07	-3.25504688504349E-06	0.991737361103246	-0.110034465446601
4.6	-0.879015066714466	-0.457811514306352	2.45505988019074E-06	2.9488147239686E-06	-6.58100894783419E-06	9.74242550070414E-06	0.991230402569356	-0.112833322634062
4.7	-0.929900053006874	-0.342383002121463	-1.40427200124605E-05	5.91619441883831E-06	-3.46036061877231E-06	-3.38847637755728E-08	0.991120372957951	-0.114757546734682
4.8	-0.965733460199661	-0.221927533031722	-3.16091964574311E-06	-5.14035140383048E-06	-5.52135403440195E-06	2.36510785298265E-06	0.990728708388958	-0.117210622966444
4.9	-0.985679758859348	-0.0981024476844075	-1.02348950396332E-06	-8.54909984834275E-06	-4.21965297962971E-06	7.41041672231388E-07	0.990237657800447	-0.118984496940174
5	-0.989214914134187	0.0265583167882521	7.54392017513703E-06	-1.57320097971377E-06	-1.75237884536943E-06	-2.71872291163754E-06	0.989962927567491	-0.120405785065424
5.1	-0.977893684178657	0.150825417010571	-2.59862891374395E-06	-6.38745389179391E-06	-1.00775318121914E-06	-1.95109488495977E-06	0.989956182278618	-0.121669885701031
5.2	-0.951651157687889	0.272674646665884	3.99354441365317E-06	-4.35478641178331E-07	-5.4344252064822E-06	6.30074960466331E-06	0.989706894614731	-0.123743056394354
5.3	-0.910142218195257	0.390282869756995	5.13274601825961E-06	6.00191736768172E-06	-9.58737712058142E-07	-3.58258083058924E-06	0.989516962461587	-0.125860985924337
5.4	-0.854129559922631	0.501463855471469	3.05953900709194E-06	-2.01299274068225E-06	-1.13018939499011E-05	2.19342131888534E-06	0.989484272303015	-0.128511975874142
5.5	-0.784569029918227	0.604364538534734	-4.29868789919549E-07	-2.19235952400548E-06	-5.78640588498461E-06	6.11377776208737E-06	0.989474224020274	-0.130887907760795
5.6	-0.702428891342655	0.698047282739516	2.37210794918388E-06	7.30076612957194E-06	-5.40016765642673E-07	2.92668605970022E-06	0.989648349114098	-0.133685820205125
5.7	-0.609233445108263	0.780900537013235	-2.57155467461831E-06	2.35721408374829E-06	7.90336973254236E-06	2.78312264027893E-06	0.989191494601068	-0.136257737791327
5.8	-0.506209671454254	0.850633012598787	-4.64888995277132E-06	5.09505544453042E-06	-3.6922474224812E-07	3.41886576866489E-06	0.988748777163214	-0.138258428561879
5.9	-0.396010062471364	0.907024522252431	6.34766022657729E-06	1.50704204568521E-06	-2.71212052337028E-06	2.53967067671466E-06	0.988273655507138	-0.13972731173402
6	-0.28032724818447	0.949906589417623	3.51383924879362E-06	3.3074102248976E-06	-3.24451829339017E-07	-1.43438404579666E-06	0.989360394620457	-0.140489686451214
6.1	-0.159075787148875	0.977917149117172	9.1770738470122E-06	1.54276852784044E-06	-1.24093992524797E-07	-1.80958461095685E-06	0.990171744413483	-0.142795187128412
6.2	-0.0349687198035573	0.990276153209953	2.44438494867402E-06	-1.7268235750453E-06	1.49003744089999E-06	-4.84598961846277E-06	0.99020615207667	-0.144693398990557
6.3	0.0897883889136595	0.986937183221549	-4.37148704000956E-06	4.24214182936913E-06	-6.12978985204752E-07	-1.72792366940912E-06	0.990027286932251	-0.147246284902736
6.4	0.212853810023635	0.968167077230352	-4.27265757506087E-06	1.06489973094612E-06	-1.77766116287454E-06	8.85351464890647E-06	0.989640838355851	-0.149672090946101
6.5	0.333896409142842	0.934216440817251	2.45703399950167E-06	-1.33200906215792E-06	1.49160237242277E-06	-2.93409744090862E-06	0.98954501261105	-0.153245971503977
6.6	0.448119271791577	0.883740527202397	-4.73609751775796E-06	-2.25847048417557E-06	-1.86257682924194E-06	-6.64388778104412E-06	0.988104823627171	-0.156084111685505
6.7	0.554688727118372	0.82047865157961	4.16361428218258E-06	-6.57408743584964E-07	-4.67716115355112E-06	1.00718378522566E-06	0.987461769116052	-0.158029762219245
6.8	0.652700942094176	0.744482705308247	3.75815214357674E-06	-2.07611837613044E-06	6.21378281957343E-06	-9.17592494503866E-07	0.986846448407548	-0.160179126822693
6.9	0.740203365888439	0.656978142760529	2.04555290596627E-06	1.64200738673585E-06	8.7809732945632E-06	-2.74710559107464E-06	0.986240238002837	-0.162064710417377
7	0.816290943250472	0.559475868994694	2.16713819641809E-06	4.09831545498011E-06	-1.0007259769034E-07	5.38145598846757E-06	0.986056500516036	-0.163646004042188
7.1	0.87960190681483	0.453105010212876	-1.34813120707323E-07	1.71715239042687E-06	8.26415070898013E-06	-4.63596887796591E-06	0.985449296268273	-0.165920550570564
7.2	0.928874030025804	0.339402023938721	4.84841185313041E-06	-1.38985098270402E-06	7.25358735353341E-06	3.7866909582168E-06	0.98445972319002	-0.167877531378007
7.3	0.963077137989279	0.220275971894081	4.86009793716515E-06	-1.10672616779016E-06	-7.33684603823843E-06	-7.38096044867989E-06	0.982971648085103	-0.169892604475444
7.4	0.98163983186852	0.0974730071034786	-1.83369784753657E-06	9.88405094754242E-06	1.42989041468915E-06	-4.06455579843108E-06	0.980833480574902	-0.172218943842413
7.5	0.984786631923519	-0.0249319312070869	8.37135728902473E-07	8.04252735720746E-07	1.66729921584549E-06	9.90881470156391E-07	0.979176784496307	-0.172705418157524
7.6	0.974329740772355	-0.148128235870651	1.45357696513419E-06	-2.60521663549652E-06	-5.39932031646308E-06	-3.62203315035849E-06	0.979543610399948	-0.175144044943058
7.7	0.948000115646111	-0.269353248751257	5.55082578462733E-06	2.40964249387822E-06	-6.82304651285548E-06	1.19988996172114E-05	0.979329743987777	-0.178024097583321
7.8	0.907164573254149	-0.386389595137276	-5.99978663351827E-07	-5.22791469068737E-06	3.73312380653938E-06	-4.7143516340175E-06	0.979536593549539	-0.180950365598399
7.9	0.851977456438594	-0.497326506375444	8.82452864905112E-06	1.55095526541903E-06	-9.48558584271067E-06	-8.64333309032937E-06	0.979782880355124	-0.183690407890571
8	0.784745189511064	-0.601533402786935	-6.6478166140365E-06	-1.65336185115564E-06	-1.20118582825301E-05	2.45159712647389E-06	0.981497160503032	-0.186608201627089
8.1	0.701840278102861	-0.697520097346485	5.07817059660958E-06	7.40367089224986E-07	2.88998495408743E-06	2.26856674012299E-06	0.981297102110335	-0.191331897231702
8.2	0.607804642420967	-0.780175963641236	3.56920344552314E-06	-2.57355541299509E-06	-3.67256273094496E-06	-1.16265179461589E-05	0.980562243038676	-0.19433502678694
8.3	0.504387743957842	-0.850196558155134	2.73051486872626E-06	-1.85773229093524E-06	1.63681676686161E-06	5.29663185526434E-06	0.979824438888646	-0.197323900897404
8.4	0.393069239182606	-0.906367269072619	-5.55661415060909E-06	-1.01999527966335E-06	1.05627868678075E-06	2.95325134814969E-06	0.979037911684925	-0.200193912900419
8.5	0.275783344553436	-0.948183479809241	-3.2885524205557E-06	1.62534329038191E-06	-4.79325531045968E-06	-5.00247258759675E-06	0.978364262393374	-0.203411164062148
8.6	0.153311167025625	-0.975466929903114	-8.1418042943845E-06	1.38405058334929E-06	-4.34020346596356E-06	-6.86421786407544E-06	0.977313198456974	-0.206246736694665
8.7	0.0282188683469777	-0.986643933911523	2.24780544587229E-07	-2.1473240251826E-07	6.12157853127654E-06	5.10872602929735E-07	0.976560690404402	-0.208622023850739
8.8	-0.0972036315158674	-0.98185339103115	1.02585839818893E-06	-1.81980030369501E-06	-2.39271396529891E-06	-1.28206808787182E-06	0.976014114975067	-0.210675607479266
8.9	-0.220924952832612	-0.961722630195655	-3.01676466247337E-07	3.03991004613207E-06	-1.23598247845321E-06	-1.64422230086575E-06	0.975959377641871	-0.212527295532652
9	-0.339903528266992	-0.924591790885183	2.98294036228703E-06	1.58742825951193E-06	-1.57572242452462E-06	2.11900967491662E-06	0.976054306611305	-0.214611543418558
9.1	-0.452256624664088	-0.874672298720791	-9.32056170856639E-06	2.2742128506054E-06	-1.56413495078445E-06	2.41327868808023E-06	0.976340849166395	-0.21689232884176
9.2	-0.558228044961055	-0.811041894650971	7.5122158073848E-06	-2.39991621972091E-07	-9.11427370338833E-06	1.97793109151987E-06	0.976336050444941	-0.22003600627411
9.3	-0.655168061362638	-0.735196114644941	7.05439839456923E-08	-7.16856800009647E-06	1.58659813360724E-06	-1.30257028849887E-06	0.975959966315012	-0.223368001125564
9.4	-0.742103449573459	-0.647845011879836	6.01991963451217E-07	2.48326407553687E-06	1.61372946843798E-06	-3.59988743523695E-06	0.974673756179506	-0.226939854101393
9.5	-0.817270510453568	-0.551131625243107	-2.87144707702457E-06	6.64489090045245E-06	4.72404967881906E-06	-1.36862806258283E-06	0.973483150344051	-0.229269116880945
9.6	-0.882187716835483	-0.444042234162483	-5.03084220270268E-06	-5.20994518085885E-06	4.76688752479727E-06	2.88463652365036E-06	0.972861085722864	-0.232673243384574
9.7	-0.931691066772793	-0.327894617559702	-2.00794524118887E-06	-5.07941102033946E-06	2.09981802301758E-06	8.96706221695823E-09	0.971683878528411	-0.23543373715792
9.8	-0.965747660227715	-0.206328473915861	5.89411912285912E-07	-4.29108852165415E-06	-2.94726736789251E-06	-2.51782269061283E-06	0.970728818751759	-0.237358558923902
9.9	-0.983627974092945	-0.0815437455405648	-6.11528250921161E-06	4.2189641234813E-06	-3.08532827123242E-06	1.66956554027216E-06	0.969859033314693	-0.238348712604301
10	-0.985786480674238	0.0432314055008593	3.57687483122404E-06	-4.48096519687869E-08	8.24981706192796E-06	1.11113172088694E-05	0.971091732633464	-0.239700705359695
10.1	-0.972683978176061	0.167345074429511	-2.8650583115639E-06	-2.52213850567109E-06	-2.01528037588102E-06	-2.49836901560065E-06	0.969891901730542	-0.242785211039097
10.2	-0.943970964899967	0.289274781925218	2.3580223702027E-06	-1.02516723074062E-06	-2.77262407554599E-06	-1.06441399652721E-06	0.96872223066199	-0.243922243971096
10.3	-0.900128096505532	0.406489000977386	7.76311848219569E-06	-5.96556309250059E-06	3.87336959834418E-06	8.23703097942801E-06	0.967880243369028	-0.245273565988691
10.4	-0.842907492487119	0.517384699979838	1.70883388572781E-06	2.49449120749099E-07	6.28562912479864E-06	-1.19521174377273E-06	0.967156740044155	-0.246778607823235
10.5	-0.771206632131414	0.621830865324992	8.35772727861889E-06	-4.16685501302696E-06	-4.91231562816476E-07	1.97739497174372E-06	0.966842768515484	-0.2494199313664
10.6	-0.685992804647518	0.713898364883404	8.94137517594444E-06	-1.29222800267334E-06	-1.4451673122368E-06	1.36577981942418E-05	0.965827624049093	-0.251722718608919
10.7	-0.590310819995123	0.793898892740953	8.01548794353126E-06	-1.92215598854229E-06	-3.06699109904325E-06	-5.27641969185125E-06	0.965546121726208	-0.254336381294896
10.8	-0.485139970132758	0.861319531353808	2.4633265915797E-06	5.24261541475283E-06	-3.62872539283361E-06	-1.96750754309887E-07	0.965016335852505	-0.257028043170351
10.9	-0.372007122734849	0.915208534150231	-5.55592072043239E-06	4.99849862492102E-07	1.60728594382065E-06	4.02316062611936E-06	0.964193815353205	-0.259534842152666
11	-0.253652207951612	0.953156891722734	-8.48468599665103E-09	-5.21596012559182E-06	-8.36566007212046E-06	2.24785227950275E-06	0.963292840430098	-0.261726373879865
11.1	-0.133064459447175	0.977960115788963	6.31275386886218E-06	4.07473952216009E-06	-1.88276702937338E-06	1.07553040800959E-05	0.961812886234603	-0.263894285125302
11.2	-0.0091445121881969	0.987689492845089	1.58037771522888E-06	1.35109536286584E-06	5.15195763653745E-06	8.88698244639239E-06	0.960099258515828	-0.265684109766691
11.3	0.115375873471859	0.980784195142746	-4.65632874680789E-07	-1.73522592961885E-06	-7.07466375033325E-07	-4.39105638234683E-06	0.958804804493555	-0.267298195903018
11.4	0.237703087242666	0.958496960204017	2.52740068271176E-07	1.18478698018474E-05	2.4323883053952E-06	4.9183632357742E-06	0.956861176119819	-0.269462857542703
11.5	0.356355151388426	0.921176288698164	6.18300139647481E-06	-3.37388766071833E-07	3.12109991681043E-07	-1.87934580494745E-06	0.9558686770976	-0.270668829836463
11.6	0.4681797982845	0.869280009422561	-5.9878584057117E-06	3.07879361560632E-06	-4.85720254072318E-06	1.92166216885098E-06	0.955098355011749	-0.27442683203449
11.7	0.572404397002063	0.804386693682608	3.31632264922503E-06	-1.79818222512763E-06	-1.6988377811027E-06	2.23537364926082E-06	0.953260226149432	-0.277728375644138
11.8	0.667491494155243	0.726510646000317	-8.03548520061365E-07	9.76811018759286E-06	-2.6926432516332E-06	1.05133938192184E-05	0.951612202890881	-0.280293542024665
11.9	0.750694016355868	0.637530323030913	-7.26976630314712E-06	-1.03087112775765E-06	-3.89278149368193E-06	1.12094862225596E-05	0.951182280660243	-0.280739729107413
12	0.824222753202081	0.540620318552459	-6.44843106493147E-07	1.37880946186695E-06	-3.12894833835377E-06	-1.92490413364707E-06	0.953620367950541	-0.282731769978683
12.1	0.885682673472405	0.432926944887546	-3.87409412678058E-06	4.98012996891155E-06	-1.33848697750181E-06	8.40332206934694E-06	0.953031212400443	-0.286498313462229
12.2	0.932372629676696	0.318843692007972	-5.74314184937771E-07	-3.79431854157739E-06	-3.11026449368055E-06	-7.316793248021E-07	0.952375332878601	-0.289395433576951
12.3	0.96483986136005	0.200510285450102	3.59345584850561E-06	3.43323731809416E-06	-3.43784313923869E-06	6.26227601663154E-06	0.951697022817122	-0.292482513183528
