# GHZ S RI R 50
0.2	-0.966395892193899	0.251384326806636	8.82468600503894E-06	5.32526694494032E-06	1.13793782248236E-06	-2.89040014707819E-06	1.00006792571108	-0.00662701556921698
0.3	-0.927109794481811	0.371205921997689	-7.66569922052629E-06	-8.22380669504493E-07	-1.59297681896116E-08	3.6612722661329E-06	1.00011784774783	-0.00955172552487814
0.4	-0.872674856714371	0.485054228132727	-2.20299601601964E-06	6.34282328075869E-06	2.91889222348751E-06	5.74185317039421E-06	1.00031534655802	-0.0121593847412264
0.5	-0.804467729813837	0.591651340305041	-2.65199708607153E-06	5.49213728003915E-07	1.05313397832483E-05	4.89160535211997E-06	1.00054479549382	-0.0157452957369528
0.6	-0.722850076949445	0.688070397383514	-1.72655522459807E-06	-1.80498009663897E-08	4.16490688057915E-06	-1.03443317325568E-05	1.00013277842713	-0.0189542500327696
0.7	-0.630417858578217	0.773500705648459	-2.0483585576518E-06	9.88988984545485E-07	3.78598597453046E-06	1.11675994600178E-05	0.999678754832773	-0.021764013526664
0.8	-0.527880757681252	0.846847705144732	-5.60944387745335E-06	3.78445868954894E-06	-3.17003725241667E-06	-2.14061747573725E-06	0.999444503092888	-0.0238821601715646
0.9	-0.417124447914344	0.906504275181958	-6.69551838078334E-07	5.25345246631903E-06	3.26843840806936E-06	-2.94643314181014E-07	0.99928425771568	-0.026116216471219
1	-0.299337376651836	0.951805115410802	1.56985845063278E-05	-3.68251068605434E-06	-9.60567811895634E-06	5.23097140306085E-07	0.999417655124834	-0.0273239362747363
1.1	-0.177778642513173	0.981761313192432	1.34509242542081E-06	-2.98516577118686E-06	9.40217389532399E-06	1.26165501461212E-05	0.999516473935336	-0.0297462725279032
1.2	-0.052508419264218	0.996347059402988	-7.91809044072748E-06	-3.26676291146483E-06	-3.10017484170528E-06	-4.48606178554058E-06	0.99890160888789	-0.0307752968564861
1.3	0.0739103962378657	0.99500587534312	1.78000294213069E-07	3.33968282791866E-06	1.93219853486194E-06	3.42135986201684E-07	0.99933246838657	-0.03183076410453
1.4	0.198943499966916	0.97730058597868	2.34556408348248E-08	3.77346985917848E-06	-2.5330515196571E-06	-5.62324530043988E-06	0.999067679970473	-0.0343138941105534
1.5	0.320686812079369	0.944266871113563	3.19135046881152E-06	-2.68786826818809E-07	2.70725192232482E-06	2.09606208031972E-06	0.999637872421283	-0.0379733974048741
1.6	0.436869491384064	0.895999106292351	1.78755615208417E-06	-1.94337788142163E-06	-8.97941816695897E-07	-3.06589976028669E-06	0.998722269457467	-0.0418850000994617
1.7	0.545583387561347	0.833542081497269	-8.95263493896197E-08	-3.52740259102217E-06	2.01226953440196E-06	4.92794848479109E-06	0.99875849744016	-0.0443250664189143
1.8	0.64537571450433	0.758448375725012	-2.0603558651847E-06	-1.81272949972843E-06	-4.62251018025645E-06	1.83316937958335E-05	0.998378859709556	-0.0469234344293863
1.9	0.73454176552597	0.671893872476658	-4.39087480876501E-06	-1.46464226687002E-06	-4.92914400617135E-06	-6.00070403930103E-06	0.997964795782625	-0.048529981715437
2	0.813360307462252	0.575762674483662	-9.4447126735209E-08	-6.74851428584894E-07	-1.66899847095597E-06	-1.42024896200959E-06	0.999066111357506	-0.0505622389200022
2.1	0.88012345437193	0.467125730331614	-1.13405256530113E-06	9.46457251902726E-06	1.99736822706736E-06	-3.8275449454492E-07	0.999079779809068	-0.0546817121174217
2.2	0.93085327077935	0.352413492697235	-3.16404232076186E-08	-5.93469465620759E-06	-7.33381184343841E-07	2.74084809045709E-06	0.998227470674239	-0.0574404807430927
2.3	0.966894225668528	0.232690225654389	-1.3116449704185E-06	2.76901413977241E-06	-2.52216761774942E-07	1.19785411215698E-05	0.997441376086556	-0.0592700940602569
2.4	0.987785245027221	0.108780783857726	-5.87970614638475E-06	-3.698733772804E-06	-1.75718051627487E-05	1.45566822733652E-05	0.996967564810536	-0.0621589264774703
2.5	0.993593986210271	-0.0158006775485441	1.81312697871841E-06	-2.96420121965442E-06	-1.77767432956584E-06	7.54666110505991E-06	0.996633872904356	-0.0640031737092185
2.6	0.983570413222089	-0.139198384561767	2.86086145279333E-06	9.16763607490156E-07	-1.74739340629521E-06	4.50069138731455E-06	0.996622423116704	-0.0668117691111119
2.7	0.9584922143986	-0.261007945406449	3.8261438478233E-06	1.04441158515872E-05	2.32392499697495E-06	3.86759706749333E-06	0.99650311726509	-0.069709493228674
2.8	0.91825418316101	-0.379382501393324	-8.15056517082058E-07	-2.29367383021604E-06	2.18621279711017E-07	-1.88906840483962E-06	0.996811951008343	-0.0720044661061299
2.9	0.863457656252957	-0.491346508128239	3.76271509212905E-06	-8.32665962537081E-06	-1.28707459011704E-06	-1.42348648161019E-05	0.996380640295748	-0.0742682755802003
3	0.795055525758378	-0.595944532860438	-4.92261012955244E-09	6.65459709382928E-06	-1.47760107183621E-05	5.32414145680682E-06	0.996250246340695	-0.076774767014702
3.1	0.714829988491831	-0.690299310326985	-4.97688260415859E-06	7.83825844319709E-06	5.81383867061633E-06	-9.41877550323232E-08	0.995968309752613	-0.0791094274314886
3.2	0.621472675727837	-0.774760801723879	9.65215079235118E-07	2.12553920936141E-06	-4.56368934581485E-06	4.87574713215621E-07	0.995522851935754	-0.081183333869677
3.3	0.518479663466216	-0.846571385360223	7.16262724558963E-07	-1.46210862269373E-06	-4.58201507386481E-06	7.42922734706191E-07	0.994943577150398	-0.084768254500297
3.4	0.406625232792493	-0.904000834055199	6.46915736586373E-06	2.16149287201945E-07	-8.15502424529663E-06	-7.1556090231459E-06	0.99419923301014	-0.0869581703058111
3.5	0.290678134077932	-0.946182101503404	-7.68110897539898E-06	1.97429128074646E-06	-5.90872581568872E-06	-7.95596340664963E-06	0.993591994054683	-0.0888673715876564
3.6	0.168918229401114	-0.976659878881989	-8.61711612973476E-07	-4.3769684549221E-06	-7.81820050551653E-06	-6.31716835989979E-06	0.993843048485982	-0.0915724523966802
3.7	0.0433769237227995	-0.990390656722144	-6.72350195109981E-06	-6.75417189044801E-06	5.1926418836136E-07	-4.76213586113669E-06	0.993183923033521	-0.0945742114524008
3.8	-0.0825354644426766	-0.987211830722247	-3.63821022924029E-06	1.08904326394064E-06	-3.29836502843796E-06	-2.4569046807173E-06	0.992075389788666	-0.0963626733267265
3.9	-0.205639270967331	-0.968224544918657	-4.73845674711605E-07	3.50416524619524E-06	2.04913850256989E-06	-1.22079690762116E-06	0.991518788540381	-0.0983509538277556
4	-0.325411064023222	-0.935237044607432	1.16873973014554E-05	8.10190724227286E-06	7.25925318787912E-06	-4.0492878084478E-06	0.993063177220869	-0.0985256030888178
4.1	-0.440791855516497	-0.887091517436505	5.2182248420622E-06	1.31052503959512E-06	-3.44058148890387E-06	6.65681917754055E-06	0.993349456816448	-0.102207360358523
4.2	-0.548576294792788	-0.824958650773137	-7.09346429487338E-06	-1.18444792813495E-06	-8.25768498641015E-06	-2.29971306899138E-08	0.992090311967031	-0.105151074874791
4.3	-0.647799480160796	-0.74946714913602	6.96793797798785E-07	-2.36661015303609E-06	5.2085629205566E-06	8.69014332342332E-07	0.991628076256804	-0.107045406404754
4.4	-0.736839171637206	-0.661976631668597	4.46497587418916E-06	-1.77989687751637E-06	-8.65056180686784E-07	1.34670045039581E-06	0.991102318522951	-0.109206107893313
4.5	-0.814671617013755	-0.563553810169046	6.78260030325314E-06	1.85189499246697E-06	-8.10485969443042E-07	-3.25267947809943E-06	0.991299929043766	-0.11165865588215
4.6	-0.879171401418718	-0.456052857260709	2.45842997530655E-06	2.94211816899858E-06	-6.55842547262929E-06	9.74662438171913E-06	0.990224580242562	-0.114660118807041
4.7	-0.929736040676124	-0.340729410973596	-1.4019937644326E-05	5.9335118433531E-06	-3.45717487243997E-06	-2.82203338528943E-08	0.989848174849119	-0.116406370284567
4.8	-0.965431937297435	-0.220332101104041	-3.16601450169702E-06	-5.13045409357607E-06	-5.51234896242444E-06	2.37156394978272E-06	0.989326572055117	-0.118766797695746
4.9	-0.985370075948174	-0.0961492146079003	-1.03765590427482E-06	-8.53933169722181E-06	-4.21441449298474E-06	7.47814341112175E-07	0.988673983834847	-0.12047617788617
5	-0.987461351709572	0.0290241133669453	7.52855025683515E-06	-1.58626816309026E-06	-1.75518391795954E-06	-2.71073339684225E-06	0.988225543999137	-0.121770771625381
5.1	-0.975664896726759	0.151771119551749	-2.60251929660338E-06	-6.37162109335452E-06	-1.00853193616011E-06	-1.94596167488019E-06	0.988030013744892	-0.122898242248999
5.2	-0.949750577930554	0.273276871545669	3.98583927733003E-06	-4.39500801496805E-07	-5.41707170606731E-06	6.29595864095826E-06	0.987635627861221	-0.124727028388136
5.3	-0.908100968742626	0.390731328133006	5.13029956267554E-06	5.98483654883133E-06	-9.61161375172022E-07	-3.57484865847968E-06	0.987447551046472	-0.126649966941255
5.4	-0.85180128481752	0.501452312758164	3.05095659154264E-06	-2.01229255240742E-06	-1.12761059055017E-05	2.20164897671186E-06	0.987296305083101	-0.129273076356105
5.5	-0.782284983960132	0.603526932266599	-4.30243435693624E-07	-2.18706956699788E-06	-5.76935594367033E-06	6.10335769613821E-06	0.987232032939373	-0.131108166048194
5.6	-0.700652389664224	0.696744180177181	2.37063804971122E-06	7.28573558488592E-06	-5.37741411500663E-07	2.92129127376166E-06	0.987816682731325	-0.134070458296671
5.7	-0.607825861365746	0.779333245859717	-2.5655457806917E-06	2.35387528093793E-06	7.88949874492724E-06	2.7741659626231E-06	0.98711408873611	-0.1367619407149
5.8	-0.50517501066403	0.848741198702259	-4.63748579023563E-06	5.08589595064076E-06	-3.67335419633205E-07	3.41182214917742E-06	0.986331977032359	-0.138532320522508
5.9	-0.395705402847114	0.904723660246007	6.33213267941831E-06	1.50539554564031E-06	-2.70645471549198E-06	2.53281650433095E-06	0.985614888409125	-0.139095650560729
6	-0.281092069501896	0.948422794612371	3.50543273621319E-06	3.30787071821346E-06	-3.22249128703095E-07	-1.43306824160598E-06	0.988443674815401	-0.139034779008576
6.1	-0.159219232054629	0.976825929969128	9.17093471534027E-06	1.54348644320016E-06	-1.23679262403419E-07	-1.80845349261947E-06	0.9894996543203	-0.142932257800199
6.2	-0.0352367741450859	0.988867849689341	2.44184734672852E-06	-1.72517718209211E-06	1.48833914409822E-06	-4.84115497825608E-06	0.988856323858315	-0.144969717290676
6.3	0.0890345044339474	0.985528921997355	-4.36699166596432E-06	4.23706940288574E-06	-6.1215432634846E-07	-1.72605778415067E-06	0.988372664906817	-0.147296237510338
6.4	0.211619525650301	0.967553885566962	-4.26999992521779E-06	1.06324077177489E-06	-1.77840240238077E-06	8.84713268264429E-06	0.988131935229934	-0.149338075572808
6.5	0.334340034927209	0.934224753164554	2.4550683895125E-06	-1.33474999628454E-06	1.48786418125884E-06	-2.9354406853062E-06	0.98859196575035	-0.153844873803241
6.6	0.448276706482541	0.881996879358682	-4.73139625350582E-06	-2.24711711878831E-06	-1.8697495103978E-06	-6.62940740444517E-06	0.985695460938847	-0.156854946394741
6.7	0.553914360533981	0.818768243676059	4.15351782574004E-06	-6.59863038013649E-07	-4.66556448076668E-06	1.00932949258699E-06	0.984774590142103	-0.157918218343053
6.8	0.651437752076113	0.742989561275943	3.74767726755895E-06	-2.07270872355351E-06	6.19768232033244E-06	-9.18291783577867E-07	0.98429961294274	-0.159550576662244
6.9	0.738418331436896	0.655830658319102	2.03968532964054E-06	1.63754363900925E-06	8.75650269120617E-06	-2.73874417750235E-06	0.983816792466633	-0.160887384523454
7	0.814475482609112	0.559086722672729	2.15741622995491E-06	4.09068902820013E-06	-1.05666999823446E-07	5.36824616486554E-06	0.984604243914757	-0.162087243296451
7.1	0.877928405021222	0.452690198642864	-1.36040574061247E-07	1.71403142767265E-06	8.25363443713899E-06	-4.62080989912625E-06	0.984105110610982	-0.165160578455633
7.2	0.926952956826115	0.339109983010475	4.84066259795095E-06	-1.38429594170682E-06	7.23826685066605E-06	3.78455762547813E-06	0.982743402452759	-0.167228418773941
7.3	0.960894538447917	0.220098060637185	4.85134619767187E-06	-1.10272982363082E-06	-7.32008700521767E-06	-7.36988591012461E-06	0.980881529363769	-0.169317420167101
7.4	0.978526571002949	0.0974660681660463	-1.82729096500179E-06	9.85736507734657E-06	1.42541322751298E-06	-4.0536781857921E-06	0.977658012015845	-0.171478530823541
7.5	0.981140022231725	-0.0224722568036395	8.32220813305437E-07	8.01965652011775E-07	1.65843432704273E-06	9.89025450222353E-07	0.975756408701452	-0.16958389710354
7.6	0.972624353610405	-0.14520899239375	1.45670086002607E-06	-2.59357007714379E-06	-5.37346611314912E-06	-3.62674053742839E-06	0.977885720494999	-0.172107126077115
7.7	0.946710953057215	-0.26648752535284	5.53069504160402E-06	2.41910714942572E-06	-6.83958508636809E-06	1.19509297275841E-05	0.977706420854622	-0.175272531676083
7.8	0.906265700126836	-0.383005842526782	-5.81932552392928E-07	-5.21731093030898E-06	3.73916937907033E-06	-4.69120943618201E-06	0.977811745809806	-0.177810733344958
7.9	0.852121951528502	-0.492742203896077	8.79699575246805E-06	1.58693905688344E-06	-9.42468511546358E-06	-8.66574852555915E-06	0.978233093285244	-0.179211843749244
8	0.788635017676845	-0.597677625093882	-6.64078147994817E-06	-1.69393208216906E-06	-1.20317544526361E-05	2.38064516753424E-06	0.982970703538107	-0.181418348721825
8.1	0.705284489053074	-0.696832241295019	5.08541477954983E-06	7.612737351788E-07	2.88703713597412E-06	2.28413066629161E-06	0.983352373921529	-0.188573197914403
8.2	0.610228021184099	-0.780053542009146	3.58246412519249E-06	-2.56791556642686E-06	-3.64620748085997E-06	-1.16565138613675E-05	0.981954480704961	-0.192178756693595
8.3	0.506336445139732	-0.850243361380827	2.73908698479152E-06	-1.85415518766406E-06	1.62685548092671E-06	5.30862703003781E-06	0.980936741747255	-0.195245524012112
8.4	0.394642302548159	-0.906337797584755	-5.56307227281003E-06	-1.03142586245518E-06	1.05258456874149E-06	2.95953472883374E-06	0.980193657955467	-0.198059928788867
8.5	0.27787346203596	-0.947912552462217	-3.29263205268403E-06	1.62178775077047E-06	-4.78916388023213E-06	-5.01183867770367E-06	0.979809398844117	-0.201754405369651
8.6	0.15553325094985	-0.976221740730623	-8.14885803393735E-06	1.36721908514676E-06	-4.32760128040376E-06	-6.87699494224369E-06	0.978253726261189	-0.204831106129616
8.7	0.0299299170323035	-0.988007610630376	2.25493298727432E-07	-2.14438702393098E-07	6.12657429688983E-06	5.25263473366162E-07	0.977422676181995	-0.207029103014947
8.8	-0.0962081868392125	-0.98370678839911	1.0313154021998E-06	-1.8203656297417E-06	-2.39360029866531E-06	-1.28914171217702E-06	0.976954463604781	-0.209026399219366
8.9	-0.22139285471163	-0.963608177941523	-3.07080876330943E-07	3.04614957661285E-06	-1.23614759896809E-06	-1.64977809630701E-06	0.976943844645096	-0.210863241519632
9	-0.340651048073025	-0.924274653841393	2.98699038727835E-06	1.59082685787922E-06	-1.578822488542E-06	2.12174118228717E-06	0.977065581041273	-0.212760827466539
9.1	-0.451647429179891	-0.87463370357352	-9.33106373978625E-06	2.26766767840478E-06	-1.56777102834911E-06	2.41401228992371E-06	0.977599347536669	-0.214923711566263
9.2	-0.557493847053268	-0.81124163683405	7.51942391878114E-06	-2.32643908387405E-07	-9.12471881183626E-06	1.97058057533498E-06	0.977860693662828	-0.21811833563555
9.3	-0.654103460534245	-0.735533609049272	7.73850664524263E-08	-7.17345478203232E-06	1.58892871123779E-06	-1.30196706293619E-06	0.977626281736574	-0.221777379218546
9.4	-0.740514752944504	-0.648101060493119	5.99839425815608E-07	2.48379139432901E-06	1.61685511771082E-06	-3.59849533998165E-06	0.975862189473159	-0.225675119757102
9.5	-0.813981615748347	-0.553421603273959	-2.88669848456543E-06	6.63268684237101E-06	4.72424913575924E-06	-1.3553579448107E-06	0.974614323338213	-0.227083392478253
9.6	-0.8814435690904	-0.448314184775493	-5.01974264826455E-06	-5.23073028157659E-06	4.76272320893553E-06	2.90227927616439E-06	0.974760728156862	-0.230930554496001
9.7	-0.932550883467143	-0.331607942159119	-1.9980262256941E-06	-5.09217584760241E-06	2.10295704835651E-06	1.43309879026111E-08	0.973423734188314	-0.234084758200777
9.8	-0.967447908386282	-0.209458532775804	6.00279012295999E-07	-4.29644547694115E-06	-2.94605029836122E-06	-2.52859698937626E-06	0.972122793891829	-0.235970664355944
9.9	-0.986001292530461	-0.0840091285819861	-6.13628538983863E-06	4.20985471529661E-06	-3.09472464903929E-06	1.66422109272394E-06	0.971082002489463	-0.235898747704571
10	-0.988231114950515	0.0413893772699572	3.5874154503852E-06	-3.5177298602633E-08	8.2435185032209E-06	1.11661983805687E-05	0.975096430214513	-0.236970775173725
10.1	-0.975579945850863	0.165620852100603	-2.87001162614647E-06	-2.53430860907157E-06	-2.01765221214136E-06	-2.50916086527255E-06	0.97358637643205	-0.242703216073562
10.2	-0.94748447771354	0.28805155433885	2.36598380226114E-06	-1.02509852973916E-06	-2.77912752981781E-06	-1.0709160001381E-06	0.971288079720462	-0.24414825206397
10.3	-0.90431178270954	0.405921651077697	7.79288770530631E-06	-5.97315403351953E-06	3.87434121556284E-06	8.26557669075266E-06	0.969908742866933	-0.245315169876172
10.4	-0.848182996683185	0.518213092827679	1.7145538989493E-06	2.52358512854755E-07	6.30918037253865E-06	-1.19194876198596E-06	0.969196330592747	-0.246418408710939
10.5	-0.775300007909488	0.625916296961781	8.38924802296725E-06	-4.18766140708148E-06	-4.92238939157307E-07	1.98557328664091E-06	0.969324961040885	-0.249639493399281
10.6	-0.687542896277403	0.717624030132211	8.96343029823059E-06	-1.30297885235952E-06	-1.43758848314372E-06	1.36943199538421E-05	0.967759319070424	-0.251824725824251
10.7	-0.591106110950153	0.796952498768458	8.03392725890643E-06	-1.92946284389118E-06	-3.07609278284604E-06	-5.28794467472566E-06	0.968098138925284	-0.254268426193061
10.8	-0.485812575076491	0.864015479355886	2.47114399782328E-06	5.25592735459269E-06	-3.63840369477759E-06	-1.96386953390867E-07	0.968026431111688	-0.257633026880559
10.9	-0.371974218471827	0.91840760739099	-5.57147615174312E-06	5.05429803914847E-07	1.61489680179405E-06	4.03349513706105E-06	0.967179347576674	-0.260554551585973
11	-0.252073033908315	0.955034855589377	-1.24038523413555E-08	-5.22652064360011E-06	-8.38092624226107E-06	2.25866435793014E-06	0.966417822017441	-0.26302391609453
11.1	-0.132800712599526	0.979128351492857	6.32971520976786E-06	4.08411740299596E-06	-1.88572380784032E-06	1.07833134282366E-05	0.964736631386789	-0.265871323870473
11.2	-0.00895041964574948	0.989439796613851	1.58592667826455E-06	1.35426009745475E-06	5.17263473427884E-06	8.91082572404749E-06	0.962632762944637	-0.268036620563706
11.3	0.116019485390908	0.982854546087322	-4.69206198287369E-07	-1.74008232243172E-06	-7.15036885972033E-07	-4.4039202789606E-06	0.960649718573572	-0.269998024155754
11.4	0.238764511936377	0.960507706048279	2.78268192618133E-07	1.18800657368112E-05	2.44941452566487E-06	4.92685085440612E-06	0.957463965800041	-0.272237318983585
11.5	0.357823406848196	0.922983310754588	6.1922438748786E-06	-3.47803264684059E-07	3.09600468835234E-07	-1.88281773798919E-06	0.956619825249426	-0.271609965531512
11.6	0.469987413253002	0.870653087418277	-5.99838955950358E-06	3.09284196700563E-06	-4.86640174575368E-06	1.93170758910798E-06	0.956957836624629	-0.276207227395827
11.7	0.574250390148984	0.805388367058841	3.32200817104965E-06	-1.80834575865205E-06	-1.69958179888576E-06	2.24400899138248E-06	0.954542997762453	-0.28014065751815
11.8	0.669104225366413	0.72721121235098	-7.85395584944993E-07	9.79205404702838E-06	-2.67727794952604E-06	1.05429045257427E-05	0.952021688485315	-0.2824885032279
11.9	0.751660049991487	0.63885851972767	-7.28297739400942E-06	-1.02166448158716E-06	-3.88228310729211E-06	1.12332980640454E-05	0.951210221933821	-0.281238247255685
12	0.827674815286877	0.543799833913115	-6.46453878723117E-07	1.38410497320792E-06	-3.14120332443128E-06	-1.9302209172921E-06	0.957129407292201	-0.282592560832382
12.1	0.89069121931097	0.432978468383196	-3.87469451772586E-06	5.00804310493375E-06	-1.321043865458E-06	8.43669131875997E-06	0.956393767849205	-0.289122663889488
12.2	0.936420869366203	0.317264344940889	-5.86311808678558E-07	-3.80259959896752E-06	-3.12038128105981E-06	-7.24972853059806E-07	0.954825537180903	-0.292507550475464
12.3	0.968035027647171	0.198364724608899	3.61109688471259E-06	3.43275214458124E-06	-3.43063700387101E-06	6.28659817864503E-06	0.953665873324268	-0.295697680849832
