# GHZ S RI R 50
0.2	-0.966952094892329	0.250977092886359	8.82667404239323E-06	5.32949811171964E-06	1.13909496673401E-06	-2.89120397406757E-06	1.00034278489955	-0.00665256939852067
0.3	-0.927953225462631	0.370811100249218	-7.66952015903102E-06	-8.25049719969991E-07	-1.70049330181084E-08	3.66320701117967E-06	1.00044751383086	-0.00962514687914696
0.4	-0.873807013051592	0.484834162846818	-2.20646478924502E-06	6.34689580602981E-06	2.9193998780212E-06	5.74695980115004E-06	1.0007705980771	-0.012273709803142
0.5	-0.805666442380982	0.591784860794291	-2.65443658589148E-06	5.4952080026795E-07	1.05405206028381E-05	4.89678688882188E-06	1.00108532221064	-0.0161189702472384
0.6	-0.724043221997274	0.68829803975038	-1.72799064581201E-06	-1.81720962843075E-08	4.16901493303943E-06	-1.0352679727454E-05	1.00050596219094	-0.0193218939953334
0.7	-0.631715644193139	0.773965164656082	-2.05040532999082E-06	9.8973646998721E-07	3.78853043448214E-06	1.11786053492018E-05	1.00011889652823	-0.0220649847472578
0.8	-0.529151114219752	0.847628698274026	-5.61559984725129E-06	3.78822914043643E-06	-3.1733154993733E-06	-2.14304757349654E-06	0.999954688458498	-0.0241792622508934
0.9	-0.41823048945534	0.907587556283949	-6.70244695073877E-07	5.25937714781056E-06	3.27211616035498E-06	-2.95013271488067E-07	0.999851893492724	-0.0263890688638668
1	-0.300132897813291	0.95312895420091	1.57177379680878E-05	-3.68902913384038E-06	-9.61760936468557E-06	5.24925094379722E-07	1.0001415051111	-0.0277151624188366
1.1	-0.178087384092021	0.983139830736674	1.34505391188687E-06	-2.98934806417484E-06	9.4198338515158E-06	1.26261475112985E-05	0.999986998635908	-0.0304847405967046
1.2	-0.0522607926611815	0.99743316529258	-7.92739839249698E-06	-3.26113802727221E-06	-3.10709516091917E-06	-4.48627785797093E-06	0.998812864105661	-0.0318128007409067
1.3	0.0744638627176962	0.995492144164655	1.83052957881307E-07	3.33975877273435E-06	1.93291345654927E-06	3.39258614269882E-07	0.998353539523487	-0.033065995517666
1.4	0.199361459289201	0.977496878527329	2.92183547955087E-08	3.77231301050376E-06	-2.54089703751106E-06	-5.61770173597988E-06	0.997652559145229	-0.0352144163509709
1.5	0.321068189384606	0.944655918287066	3.19111942936837E-06	-2.7288662337561E-07	2.71003461603303E-06	2.09266680803281E-06	0.998823851526898	-0.0385863622801716
1.6	0.437256972830901	0.896694628903474	1.78653101997306E-06	-1.94609566692931E-06	-9.01398444217858E-07	-3.06653423978585E-06	0.998641238950411	-0.0423332967759444
1.7	0.546210151809225	0.834512065337159	-9.22957181700916E-08	-3.53068679976661E-06	2.01793200881862E-06	4.93110055928711E-06	0.999364967169986	-0.0447310805784087
1.8	0.646294607056737	0.759531008676787	-2.06401427586209E-06	-1.81386564165563E-06	-4.61795627751869E-06	1.83576883561556E-05	0.999522389704431	-0.0473011520042255
1.9	0.735862278639402	0.673090545348929	-4.39885672152326E-06	-1.46581170515413E-06	-4.93943744996702E-06	-6.00949163053975E-06	0.999773952778461	-0.0488937181176837
2	0.815468348166383	0.576514626089106	-9.51333391879761E-08	-6.76419290313616E-07	-1.6739979619889E-06	-1.42255117838443E-06	1.00151798629065	-0.0516919807729617
2.1	0.882026404017044	0.467158864945878	-1.12639048157478E-06	9.48574489780393E-06	2.0011755042533E-06	-3.85683890315847E-07	1.00109670595862	-0.056179146109836
2.2	0.932667817324338	0.35228198691199	-3.75491886093366E-08	-5.94696745547825E-06	-7.32203070037907E-07	2.74725255338138E-06	1.00024433511982	-0.058906667161382
2.3	0.968809446312185	0.232336875741574	-1.31163585450236E-06	2.77638445401745E-06	-2.40397509158099E-07	1.20048267396412E-05	0.99956948182046	-0.0608202571442057
2.4	0.989894185124894	0.108032804754881	-5.89717851535068E-06	-3.70011515780171E-06	-1.75940318158185E-05	1.4609793221381E-05	0.999276765409999	-0.0638610729524427
2.5	0.995743217085424	-0.0173035154800974	1.81398033042828E-06	-2.97317263460492E-06	-1.77323147002768E-06	7.56627238449266E-06	0.999187832498535	-0.0661006351176927
2.6	0.985364425316351	-0.141398408681064	2.87011607348153E-06	9.15220495300876E-07	-1.74581315199247E-06	4.51568683422834E-06	0.999161100658494	-0.0694293630984695
2.7	0.959682355063208	-0.26377649794622	3.85710368182249E-06	1.04659690843066E-05	2.33793165130323E-06	3.87393198772273E-06	0.998784940004802	-0.0727548695596088
2.8	0.918723004006435	-0.382379562013332	-8.22279960936521E-07	-2.29778717329043E-06	2.14973260687675E-07	-1.89444097632431E-06	0.998734145592895	-0.0752216601346738
2.9	0.863297026723602	-0.494371979481754	3.75161297111555E-06	-8.35456626220543E-06	-1.32367673159293E-06	-1.42643165439212E-05	0.997956461011419	-0.0775150170204361
3	0.794200141359044	-0.598951087574008	1.10302650314467E-08	6.66716161175223E-06	-1.47911121854934E-05	5.36962722522967E-06	0.99743453309381	-0.0800252311095997
3.1	0.713198568393762	-0.69285956310405	-4.9656352913206E-06	7.86114568025621E-06	5.82194130381114E-06	-1.07949946521479E-07	0.996669243943619	-0.0822648641597336
3.2	0.619420356861761	-0.776658924186858	9.70717713550371E-07	2.12563335068393E-06	-4.56726644049411E-06	4.97786497912809E-07	0.995797591738461	-0.0840498386070389
3.3	0.51625127442148	-0.847777702894402	7.1391876694356E-07	-1.46448473330029E-06	-4.58368074351152E-06	7.52291650650928E-07	0.994903755954162	-0.0872949487379164
3.4	0.40465146813779	-0.904514389012182	6.47168752605834E-06	2.05983426326953E-07	-8.16910794682758E-06	-7.14512200250498E-06	0.994046632519123	-0.0890016939400347
3.5	0.289066074038166	-0.947040126470204	-7.68480467033094E-06	1.98458915067675E-06	-5.92238493192811E-06	-7.95538049572936E-06	0.993958448821028	-0.0907518128303705
3.6	0.166550060913274	-0.977151292452807	-8.70159936974815E-07	-4.37934428329346E-06	-7.8362343684334E-06	-6.30905722215731E-06	0.994166866331699	-0.0938651088033599
3.7	0.0411183702883168	-0.990213281986729	-6.7406450199795E-06	-6.74511257072814E-06	5.10308661402837E-07	-4.7659812731062E-06	0.993373596761613	-0.096941487365437
3.8	-0.0845016197875354	-0.98678851764541	-3.63782162261147E-06	1.09678692596672E-06	-3.30484172371797E-06	-2.45156062667244E-06	0.992257665403955	-0.0987643946639812
3.9	-0.207524327404316	-0.967962567241047	-4.66579441771065E-07	3.50745257358377E-06	2.0478239911447E-06	-1.22601349986264E-06	0.991930856579566	-0.100921480051886
4	-0.32804121054041	-0.934910353127585	1.17156885699551E-05	8.07034484672375E-06	7.24996759014407E-06	-4.07225681093828E-06	0.993221839203091	-0.102117644020034
4.1	-0.443609593338899	-0.88570693724301	5.21984804620112E-06	1.29509099248986E-06	-3.42017413075406E-06	6.66394097095791E-06	0.992401807492092	-0.105592639177079
4.2	-0.55097112176565	-0.822858927215524	-7.09181958471796E-06	-1.16466649458393E-06	-8.25214293112893E-06	-8.89118593168185E-10	0.990855634963147	-0.108167869510098
4.3	-0.649679971267525	-0.746953361971179	6.90101843925526E-07	-2.36631861539737E-06	5.20621431217106E-06	8.54870761906203E-07	0.990205097540919	-0.109876474142757
4.4	-0.738249708134375	-0.659152789188828	4.45590967127939E-06	-1.78957940482534E-06	-8.60725251181449E-07	1.34756833380474E-06	0.989568901297094	-0.111955629568485
4.5	-0.815485445701988	-0.560490638401256	6.77843290727334E-06	1.8320550559471E-06	-8.177667257202E-07	-3.24632227177332E-06	0.989479437379931	-0.114367615404113
4.6	-0.879515840286044	-0.452867544934372	2.46238493462878E-06	2.93215590015591E-06	-6.52573266488122E-06	9.74975572856298E-06	0.988453535771731	-0.117165824037774
4.7	-0.929418200588592	-0.337335595642753	-1.39838092655235E-05	5.96129085630138E-06	-3.4521514972488E-06	-1.91715976869965E-08	0.988063837267736	-0.119061523999396
4.8	-0.964283696617036	-0.216841972265231	-3.17439488723453E-06	-5.11288067197752E-06	-5.49626294600093E-06	2.38237150731204E-06	0.98735710181037	-0.121475504480775
4.9	-0.98299697680192	-0.0928829434868146	-1.05836373550443E-06	-8.51749314952541E-06	-4.20300108338634E-06	7.57508705928558E-07	0.986504123045287	-0.123085461602136
5	-0.984463497935387	0.0308021645367827	7.50625207171883E-06	-1.59785361288378E-06	-1.75636515697793E-06	-2.70025259167872E-06	0.985993987909201	-0.124169306445502
5.1	-0.972892485895703	0.15341959871881	-2.60937112664095E-06	-6.35157957904345E-06	-1.01012894550357E-06	-1.9394085450032E-06	0.985846352887878	-0.12521743394375
5.2	-0.946351855045178	0.274368302801082	3.97476659538133E-06	-4.46284061045514E-07	-5.39071674680982E-06	6.29059346765532E-06	0.985334098741096	-0.127130803928322
5.3	-0.904602051753675	0.390846059284747	5.12650472402503E-06	5.95898162622853E-06	-9.6479118622767E-07	-3.56312603839861E-06	0.98472019187652	-0.12904828690078
5.4	-0.848706762498702	0.500788729933338	3.03926703991939E-06	-2.01053703133198E-06	-1.12400228062838E-05	2.21052423282136E-06	0.984149419746512	-0.131147399014595
5.5	-0.779828797132505	0.602710029045444	-4.31693441493316E-07	-2.18105106481163E-06	-5.74771879567057E-06	6.09464364732621E-06	0.984429241333575	-0.132671233741848
5.6	-0.698061183644704	0.696011480790427	2.37471451791128E-06	7.26312518242651E-06	-5.32175417186041E-07	2.91433733937829E-06	0.984814140407297	-0.135620683601286
5.7	-0.605020925718762	0.778142024120071	-2.55518268823392E-06	2.35053373670133E-06	7.87069735190781E-06	2.75598582865045E-06	0.984137677290505	-0.138049627184262
5.8	-0.502429617539667	0.846959971963118	-4.6184341564605E-06	5.07648142100588E-06	-3.62445016616945E-07	3.40242330722126E-06	0.983551013283241	-0.139695590808391
5.9	-0.393114668604754	0.902565286356593	6.31743459684766E-06	1.49401484856779E-06	-2.69642827121364E-06	2.52941797069686E-06	0.983254159473237	-0.140581867777789
6	-0.277934246218849	0.945383776153797	3.50228968620386E-06	3.28924625768236E-06	-3.24627845199737E-07	-1.42782654718587E-06	0.985067375142237	-0.142027951094999
6.1	-0.15701659567863	0.97209937713619	9.1298008663125E-06	1.51872839598612E-06	-1.26505272000188E-07	-1.79953263358482E-06	0.984115738460511	-0.144883246446812
6.2	-0.0345161748201001	0.983525817569687	2.42663700666018E-06	-1.7182362230728E-06	1.47512898029966E-06	-4.81610171643384E-06	0.982785110545509	-0.145597429930691
6.3	0.0884290625512737	0.980345914887859	-4.3404846708859E-06	4.2139739941802E-06	-6.09156415967231E-07	-1.71590960690743E-06	0.982192020401292	-0.146642762032752
6.4	0.210537183807642	0.962760657788951	-4.24506136755178E-06	1.05736167204174E-06	-1.76740297595629E-06	8.79575209795305E-06	0.982370473618827	-0.14802504113903
6.5	0.331876236204777	0.928710420664307	2.43978169669212E-06	-1.32401788094734E-06	1.48021858799924E-06	-2.91481553510892E-06	0.982555133769299	-0.151871629414252
6.6	0.444317026440195	0.878271802871493	-4.7003051797563E-06	-2.24481474771774E-06	-1.84512206239398E-06	-6.59663071822312E-06	0.980970759967919	-0.153832547445118
6.7	0.549812728290313	0.816185913055519	4.13603452254899E-06	-6.47187704649207E-07	-4.6465490261117E-06	9.9386395118587E-07	0.981003054162137	-0.155149659398018
6.8	0.647126036973629	0.741384826153897	3.73781761538963E-06	-2.05528292789255E-06	6.17523793690557E-06	-8.99471349464565E-07	0.98096028535033	-0.156842343021105
6.9	0.734173158322885	0.655245394480307	2.02832795672203E-06	1.63728232280521E-06	8.73353825363334E-06	-2.70617935485482E-06	0.981011561218018	-0.158107333577581
7	0.810388242407559	0.559014275199605	2.14118686718476E-06	4.08318504521064E-06	-1.17942139337731E-07	5.35150553240689E-06	0.981828027305178	-0.159611426681873
7.1	0.873591996390572	0.453556560566164	-1.40227037812928E-07	1.70757391734172E-06	8.23691258891242E-06	-4.58191486019979E-06	0.981300459275597	-0.16183358564864
7.2	0.922833652214049	0.341120735926921	4.82842626470786E-06	-1.36206577364123E-06	7.19902842982103E-06	3.79701071289138E-06	0.980565993468842	-0.163273180862621
7.3	0.957274625985462	0.223441126345302	4.8400638452181E-06	-1.07620940976857E-06	-7.26064623141904E-06	-7.37925134641026E-06	0.979433801278931	-0.164705348293004
7.4	0.976397209633613	0.102653735269676	-1.88833569587675E-06	9.81900743472538E-06	1.44872939184782E-06	-4.03339912673174E-06	0.977774525032515	-0.165894042518545
7.5	0.982649583045593	-0.0178045565349898	8.26911633513207E-07	8.09142922839506E-07	1.65251970869978E-06	1.00271825741619E-06	0.978722791033251	-0.165564064838414
7.6	0.974722887623877	-0.142604462538673	1.47565375014461E-06	-2.59209427868593E-06	-5.3668792304203E-06	-3.66764380562091E-06	0.980363534259364	-0.170025662826716
7.7	0.949011434703315	-0.264971066053775	5.53808487269584E-06	2.4534010793462E-06	-6.91916750757785E-06	1.19592971215981E-05	0.979799507932476	-0.173812601277839
7.8	0.908482408273822	-0.382304405372339	-5.64725600637569E-07	-5.23892747210734E-06	3.7705357135506E-06	-4.69481568601682E-06	0.97953843178291	-0.176541995549873
7.9	0.854360521308198	-0.493127555303942	8.82857423007521E-06	1.61558052569094E-06	-9.44092136762152E-06	-8.72461203328952E-06	0.980113936217336	-0.178392633375169
8	0.788282043569524	-0.599637072163035	-6.65885136564557E-06	-1.69734329442697E-06	-1.20635703205522E-05	2.38905818903997E-06	0.983125819676806	-0.182242086911254
8.1	0.70366428304265	-0.695745366861102	5.08281643878138E-06	7.64682239197329E-07	2.88420942576729E-06	2.28532195344375E-06	0.981474453946568	-0.187339690018972
8.2	0.609764145431647	-0.777617021582615	3.58387121440584E-06	-2.5575785338295E-06	-3.61778544339193E-06	-1.16512402085658E-05	0.980294402043141	-0.189518922595148
8.3	0.507002591586322	-0.847356671761451	2.74078783700433E-06	-1.84380957860391E-06	1.60941543494116E-06	5.30626253743971E-06	0.979654841551961	-0.191872399821384
8.4	0.396615736656723	-0.903470016953179	-5.55044256862768E-06	-1.04979341950568E-06	1.04024618198425E-06	2.95857869059313E-06	0.97927946084149	-0.194354750035004
8.5	0.28062693923102	-0.946283599835843	-3.29722812753794E-06	1.60450957876579E-06	-4.76064402046057E-06	-5.02991832416538E-06	0.978900457343049	-0.197646604767034
8.6	0.157983463896596	-0.974903833360649	-8.15506875686115E-06	1.33259012886954E-06	-4.29852894113821E-06	-6.8957488789877E-06	0.97813678155471	-0.200179986810497
8.7	0.0325679297615567	-0.986702693443575	2.26301545703466E-07	-2.13649837997837E-07	6.1254974762495E-06	5.47555341727556E-07	0.978074446344766	-0.202554551488254
8.8	-0.0931582678730313	-0.982277878783499	1.03675863154024E-06	-1.81703280354259E-06	-2.38942203985638E-06	-1.29630595024928E-06	0.97815100016948	-0.204932846280554
8.9	-0.216869999881752	-0.961934342436903	-3.15036500644527E-07	3.04192571190609E-06	-1.23027928475721E-06	-1.65131050085857E-06	0.978489752475956	-0.207279385538162
9	-0.333971214273656	-0.925403871643944	2.974704331205E-06	1.60052286811559E-06	-1.58487615727703E-06	2.11111316977904E-06	0.978692302763937	-0.209871121512667
9.1	-0.446379490393011	-0.878326860755061	-9.33195728440849E-06	2.21884362278629E-06	-1.57801015931992E-06	2.40355186854613E-06	0.978625250282414	-0.212486327577281
9.2	-0.553666390885933	-0.816513038839868	7.51643477927879E-06	-1.90257663494451E-07	-9.13057829847852E-06	1.91818080585996E-06	0.978180912181885	-0.215401135800061
9.3	-0.652153011722414	-0.741603175705977	1.21080559009438E-07	-7.1747683353755E-06	1.59725117484392E-06	-1.29261664697481E-06	0.977627403872765	-0.218178051841237
9.4	-0.73986624890109	-0.654749503729654	5.83962319297695E-07	2.49083001705442E-06	1.64288799171037E-06	-3.59207045430571E-06	0.976590269250422	-0.220849390728856
9.5	-0.816835054402903	-0.560332954872238	-2.93657577223087E-06	6.63794728681886E-06	4.74857438655088E-06	-1.33149381504959E-06	0.976803168125394	-0.222826472066322
9.6	-0.885041128470004	-0.45234379037529	-5.01187772872746E-06	-5.27001974006457E-06	4.76460633500451E-06	2.93304749059761E-06	0.976863933045691	-0.226986596749561
9.7	-0.93586071453008	-0.334858415841497	-1.98159433139764E-06	-5.11665443716325E-06	2.10934655482402E-06	2.36929524935401E-08	0.976067741070723	-0.230001748811885
9.8	-0.970843770454122	-0.212217678571118	6.20965158255683E-07	-4.30870354256267E-06	-2.94528576804946E-06	-2.55010245650687E-06	0.975720155728047	-0.231927894420374
9.9	-0.989337790571747	-0.0864438967998496	-6.17750760613982E-06	4.20427481088475E-06	-3.11379232964878E-06	1.65950528383311E-06	0.976313185464543	-0.232897032892339
10	-0.992135280504395	0.0387136368530091	3.6003914799055E-06	-2.62417983350438E-08	8.24492592633263E-06	1.12271342812139E-05	0.979182024290189	-0.236734171472152
10.1	-0.980475249538511	0.16389480081325	-2.87152128388938E-06	-2.55151929053868E-06	-2.0164520847159E-06	-2.52363977463051E-06	0.976686122560584	-0.241247627277639
10.2	-0.952590636984395	0.287651101812697	2.37818033906069E-06	-1.02199454432567E-06	-2.78666279982859E-06	-1.0833472902848E-06	0.975153711458851	-0.242666427288709
10.3	-0.90889964896764	0.406875983071662	7.84033787862672E-06	-5.97996416466061E-06	3.87108629133419E-06	8.31002441189372E-06	0.974378434090116	-0.244369095250737
10.4	-0.851008583318558	0.519821832466873	1.72123260419376E-06	2.5594364086356E-07	6.33690660682121E-06	-1.1874801981582E-06	0.974158510609568	-0.246551634895906
10.5	-0.777375925305315	0.624767011568751	8.42392299101337E-06	-4.18348062679674E-06	-4.97841255983603E-07	1.99073836722161E-06	0.973829422644833	-0.250700061592731
10.6	-0.69264842996603	0.716261050103282	9.00689592034415E-06	-1.28446020353306E-06	-1.48115338964771E-06	1.37514237379488E-05	0.972380543494065	-0.253769524734545
10.7	-0.59794780969646	0.797526522631499	8.08055950884577E-06	-1.92321767075393E-06	-3.08157515426763E-06	-5.32234597200505E-06	0.971622713714004	-0.257063063697318
10.8	-0.492592856348736	0.867258199478003	2.47755313696911E-06	5.28835370020202E-06	-3.65822499375985E-06	-2.02481093750838E-07	0.970610703264422	-0.259865570501647
10.9	-0.377530911314038	0.922665002024892	-5.60120388096721E-06	5.0116014295422E-07	1.61832947293642E-06	4.05656562735563E-06	0.970013356068791	-0.262199666595507
11	-0.258511446416728	0.960512990650233	-4.11641301876713E-09	-5.25742338975484E-06	-8.43406129098009E-06	2.25860378943344E-06	0.96952133808451	-0.264791365995813
11.1	-0.137131626227928	0.987527870196168	6.36485918773518E-06	4.11364885317615E-06	-1.90537027562994E-06	1.0847063350458E-05	0.967745681370858	-0.267309647386971
11.2	-0.0106859195825283	0.99845619821934	1.59423289607794E-06	1.36293056340324E-06	5.19714103810078E-06	8.96484871507899E-06	0.965794489316275	-0.269124987100218
11.3	0.116606579876694	0.991941851866383	-4.7075137184064E-07	-1.74989603074336E-06	-7.16358073916774E-07	-4.42847879669761E-06	0.963906022594964	-0.270412386235453
11.4	0.241466935810472	0.969061211652625	2.66072209114503E-07	1.19441888062104E-05	2.4568915709345E-06	4.95613338945419E-06	0.961905189209058	-0.271659347608996
11.5	0.362091573186471	0.93050735671529	6.23481090102106E-06	-3.43703164945716E-07	3.13678014998813E-07	-1.89532667283876E-06	0.962887528999673	-0.272898277058203
11.6	0.475661388029383	0.877405463983753	-6.03707940172979E-06	3.11485273266178E-06	-4.89794702789286E-06	1.9457590469136E-06	0.962226633470127	-0.278205469292835
11.7	0.581524536309383	0.81096110936988	3.34216977301424E-06	-1.82127197318565E-06	-1.70929917999744E-06	2.25895163681818E-06	0.96020779379557	-0.282057485820177
11.8	0.677806122550352	0.731169489468795	-7.85815421902697E-07	9.8579340737062E-06	-2.6899806940107E-06	1.06147402703647E-05	0.958844836997107	-0.285003251668605
11.9	0.762522883235469	0.640382506340562	-7.34679316411971E-06	-1.01813516152544E-06	-3.8965056313446E-06	1.13356043038033E-05	0.960094823956926	-0.286669324019675
12	0.836943463858486	0.539993850037843	-6.44163696802125E-07	1.39719485150352E-06	-3.17321888740849E-06	-1.92832499519071E-06	0.962651152821401	-0.292462579326711
12.1	0.896787419248688	0.428730491311229	-3.86978683464998E-06	5.0551061926172E-06	-1.28463948524436E-06	8.48910383793003E-06	0.958866752426623	-0.298543064754698
12.2	0.9413663907478	0.312717262132056	-6.11345928246981E-07	-3.81643157052023E-06	-3.13882679328592E-06	-7.09911216643612E-07	0.955752110972548	-0.301779326707346
12.3	0.971729687261606	0.193162499248662	3.64477509787534E-06	3.41939889915463E-06	-3.39961988907501E-06	6.32842964109798E-06	0.953111067588093	-0.304651207173233
