# GHZ S RI R 50
0.2	-0.966683326383695	0.251020503369519	8.82450964900462E-06	5.32619602078841E-06	1.13822277386018E-06	-2.89039453465167E-06	0.999892520918253	-0.00684804341642192
0.3	-0.927599287757333	0.370848688560707	-7.66622685746105E-06	-8.23405642104672E-07	-1.63883248074357E-08	3.66157133904643E-06	0.999880410432962	-0.00974255240746245
0.4	-0.873304696055694	0.48481614032827	-2.20401381453966E-06	6.34361513329391E-06	2.91876254992658E-06	5.74308341364456E-06	1.00009834519729	-0.0123560534328726
0.5	-0.805023048745909	0.591439721271535	-2.65210292537371E-06	5.4905364557303E-07	1.0531294665074E-05	4.89242693186137E-06	1.00014585399795	-0.0159508919556164
0.6	-0.723670288250373	0.687811458271541	-1.7268101765511E-06	-1.86254727906793E-08	4.16896902648171E-06	-1.03445130236054E-05	0.999906387628185	-0.018875350544649
0.7	-0.63135619331145	0.773476593081542	-2.04934468855422E-06	9.8877047365884E-07	3.78423474967271E-06	1.11725341683732E-05	0.999647933959992	-0.0217983465260343
0.8	-0.528807293007759	0.847020622458912	-5.6125000963049E-06	3.78496477093043E-06	-3.17094875168024E-06	-2.14211270951644E-06	0.99944420205205	-0.024027486722766
0.9	-0.417976844978155	0.906850265546862	-6.70512146128791E-07	5.25580423654942E-06	3.26998956165927E-06	-2.94375452882421E-07	0.999303084113216	-0.026349472825789
1	-0.300010129610079	0.952295060652247	1.57059863506813E-05	-3.68631464184236E-06	-9.6104231675237E-06	5.24558276280541E-07	0.999292643407955	-0.0278577413716386
1.1	-0.178166683134587	0.982253967220628	1.34440480070795E-06	-2.98616831085285E-06	9.40799016662424E-06	1.26160007638595E-05	0.998986137196486	-0.030169828301471
1.2	-0.0525379662195673	0.996589150468743	-7.9191033516109E-06	-3.26213923465321E-06	-3.10231637609761E-06	-4.48394181602061E-06	0.998122068553885	-0.0313148877836807
1.3	0.0739481528206055	0.994693058908301	1.80481096853277E-07	3.33741151885374E-06	1.93123025062526E-06	3.4041640533814E-07	0.997889893765901	-0.0324559597791321
1.4	0.198572078981243	0.976798693747396	2.53344033675857E-08	3.76987226554318E-06	-2.53347741986492E-06	-5.61662562019856E-06	0.997367496786676	-0.0344538951143591
1.5	0.320022504748137	0.944016152385	3.18923037683293E-06	-2.69104867713022E-07	2.70581252854167E-06	2.09427858728142E-06	0.998424957156696	-0.0377939128477266
1.6	0.436052121273379	0.896341101369242	1.78789379000627E-06	-1.94259320350506E-06	-8.96917808540149E-07	-3.0657597502728E-06	0.998301328145227	-0.0413940925773317
1.7	0.545049694597086	0.834304040233907	-8.82157923827614E-08	-3.52891918264513E-06	2.01123171006741E-06	4.93078852541806E-06	0.99899165578657	-0.0439763267795766
1.8	0.645179160779247	0.759440324458689	-2.06123778187425E-06	-1.81500855925259E-06	-4.63369980207313E-06	1.834427211308E-05	0.999055501338544	-0.0466824252643934
1.9	0.734936617414602	0.672991880929507	-4.39626939696226E-06	-1.46815183253949E-06	-4.93367305595844E-06	-6.01050551295014E-06	0.999255502111464	-0.0485812875422517
2	0.81415536539889	0.575903464027123	-9.50181139341386E-08	-6.75729392412952E-07	-1.672246871101E-06	-1.42113916163051E-06	1.00006888454046	-0.05168403568198
2.1	0.880089436669132	0.467404399355089	-1.13289535105878E-06	9.46996332488236E-06	1.99838904431339E-06	-3.83339032170293E-07	0.999478702192917	-0.0550500591721114
2.2	0.931099677560932	0.353116491648434	-3.01066999185402E-08	-5.93988903276168E-06	-7.34743147838134E-07	2.74305024252584E-06	0.999160966365153	-0.0575461219870927
2.3	0.96760081679415	0.2334020856676	-1.31405048639149E-06	2.7719678681661E-06	-2.56076944943239E-07	1.19929281320096E-05	0.998771127919291	-0.0594955916226428
2.4	0.988992488159852	0.109182882075204	-5.8869344023436E-06	-3.70562414796016E-06	-1.76007201348746E-05	1.45721748639599E-05	0.998657304285534	-0.0626170871594336
2.5	0.994981420045731	-0.0161145110159751	1.81803506149773E-06	-2.96917119522481E-06	-1.78461463530594E-06	7.56061609699932E-06	0.998553795843505	-0.0649395329053133
2.6	0.98480799939985	-0.140114299670828	2.86858387687204E-06	9.1815512190139E-07	-1.75037264635305E-06	4.51294503320247E-06	0.998592575325821	-0.068210096798616
2.7	0.959184523449939	-0.262433920560009	3.84609974388682E-06	1.04640885252064E-05	2.33340406913181E-06	3.87402542794378E-06	0.998171101306035	-0.0715545454112456
2.8	0.91838116779467	-0.380774422260814	-8.19441036024422E-07	-2.29680618589606E-06	2.16625947999166E-07	-1.89277516174684E-06	0.998098559863695	-0.0738680261736887
2.9	0.863381803627583	-0.492610709756048	3.7582429889368E-06	-8.3432761651028E-06	-1.30595687437513E-06	-1.42540477315796E-05	0.997482076567878	-0.0760379134848754
3	0.794678384918729	-0.597306434662506	2.36563351056932E-09	6.66265056992934E-06	-1.47880449833452E-05	5.34677667402614E-06	0.997138750676917	-0.0785479571874365
3.1	0.714028941167133	-0.691295800167992	-4.97334100914179E-06	7.8496859374082E-06	5.81859820621895E-06	-9.99740201950491E-08	0.99656902976543	-0.0807518581238839
3.2	0.620658393873624	-0.775352918512498	9.67156096434772E-07	2.12612870738144E-06	-4.56598938798369E-06	4.90832986879696E-07	0.995900705748449	-0.0825842077866113
3.3	0.517864045068602	-0.846846399367652	7.16152683161604E-07	-1.46300017606402E-06	-4.58390800756587E-06	7.44647917373196E-07	0.995215093738669	-0.0858439758086133
3.4	0.406659116893651	-0.904301432075505	6.47282221365553E-06	2.18118097184923E-07	-8.15768183454492E-06	-7.16205584036068E-06	0.994709061358407	-0.0875894596394061
3.5	0.290291934437453	-0.947885389309316	-7.69524048231872E-06	1.97638789728316E-06	-5.91781971071539E-06	-7.97132517507778E-06	0.994811965766048	-0.0898878029629343
3.6	0.167349213264243	-0.977280269883764	-8.66806489585374E-07	-4.38230164041791E-06	-7.83471615485873E-06	-6.31901657761064E-06	0.99466614520105	-0.0929539903508987
3.7	0.0423795254707718	-0.990462528766023	-6.73579725463126E-06	-6.7555846945327E-06	5.15935202183028E-07	-4.76739111988156E-06	0.994036549339859	-0.0958693691538755
3.8	-0.0831329125530319	-0.987552107903014	-3.64142245093109E-06	1.09298395177772E-06	-3.30386558233195E-06	-2.45714783234108E-06	0.993185655383442	-0.097774858778242
3.9	-0.206475549657068	-0.969280823573355	-4.70460496477852E-07	3.50983500214834E-06	2.05071113455493E-06	-1.2249643778807E-06	0.993051160046285	-0.100423934536401
4	-0.327605730820285	-0.936201704375294	1.17123961648855E-05	8.0832008981072E-06	7.25586769372733E-06	-4.06722103314821E-06	0.993339734940949	-0.1020156554948
4.1	-0.443229437433227	-0.886933030810087	5.22103197007444E-06	1.30327876454842E-06	-3.43165230252301E-06	6.6629354377664E-06	0.992534658805825	-0.104357069691988
4.2	-0.550804953998676	-0.824145004756638	-7.09717024950294E-06	-1.1748829935321E-06	-8.26010545622122E-06	-1.14701943986215E-08	0.991629813513868	-0.106840216090409
4.3	-0.649713880238204	-0.748231408577146	6.93419916044327E-07	-2.36816208043412E-06	5.21098862983186E-06	8.61444582247186E-07	0.991308510821375	-0.108740884807138
4.4	-0.738424792253076	-0.660390134250394	4.46238324249224E-06	-1.78730182272932E-06	-8.62920070492119E-07	1.34820465812721E-06	0.990759625406223	-0.111036653916123
4.5	-0.815753387654798	-0.561909205972301	6.78338808964572E-06	1.84191560229923E-06	-8.14820286721263E-07	-3.25068135955224E-06	0.990605906736896	-0.113261351980669
4.6	-0.880271441702011	-0.454293864770883	2.46272524966241E-06	2.93931222369648E-06	-6.54650076410915E-06	9.7568679549446E-06	0.990126693099226	-0.116045242694768
4.7	-0.930437069835671	-0.338531414593464	-1.40115428159165E-05	5.95820115389735E-06	-3.45765267629405E-06	-2.23175177064441E-08	0.98993320220637	-0.11825818303421
4.8	-0.965391631846415	-0.217871149845874	-3.17538532126711E-06	-5.12351542067303E-06	-5.50687904173906E-06	2.38180038661796E-06	0.989274777223853	-0.120887040655373
4.9	-0.984116631204213	-0.0941258275852466	-1.05234943504972E-06	-8.53173358821287E-06	-4.21023982117831E-06	7.5490793217018E-07	0.988475437952586	-0.122669293029694
5	-0.98688673851826	0.0293930448529673	7.52416737287885E-06	-1.59362065909447E-06	-1.75740454144199E-06	-2.70790904054346E-06	0.988014042843565	-0.123947547190654
5.1	-0.975424014857182	0.153590161028709	-2.61351854818263E-06	-6.36702781091445E-06	-1.01188833487444E-06	-1.94418875783208E-06	0.987938460159884	-0.125184443345784
5.2	-0.948334349451406	0.274876266712261	3.98317653193163E-06	-4.46864099687538E-07	-5.40263707803278E-06	6.30335156574369E-06	0.987458366179058	-0.1273698734601
5.3	-0.906476988532831	0.391482169716976	5.1369936202789E-06	5.9714625791226E-06	-9.66706658484658E-07	-3.57053859543415E-06	0.98677333156844	-0.129513683759872
5.4	-0.850627133409539	0.501761274958453	3.04586045264241E-06	-2.01515880670423E-06	-1.12647180485103E-05	2.21607592004472E-06	0.986238553942542	-0.131741760928279
5.5	-0.781546651797828	0.60430908474292	-4.3391585082809E-07	-2.18586200041833E-06	-5.75761904891334E-06	6.11198429930025E-06	0.986390945702706	-0.133827332966896
5.6	-0.699211955592188	0.697903097221802	2.38453502456466E-06	7.2753633127009E-06	-5.31088601714752E-07	2.92032279982702E-06	0.986299328873297	-0.136613624699537
5.7	-0.605754477390323	0.780155029956415	-2.55831923155609E-06	2.35674237605201E-06	7.8874009030781E-06	2.75561020351917E-06	0.985732733133688	-0.138946561989229
5.8	-0.502747932868276	0.849143068653026	-4.62326548440456E-06	5.09043840499393E-06	-3.60277263213632E-07	3.40946063221919E-06	0.985319658732237	-0.140786475181086
5.9	-0.392711171739206	0.904953620238378	6.33290199166968E-06	1.48818466804852E-06	-2.69852542778068E-06	2.53859532761069E-06	0.985065625104516	-0.142401523885878
6	-0.276661993513288	0.946890276189143	3.51254858528843E-06	3.28503620083259E-06	-3.27937417682117E-07	-1.42851045044711E-06	0.985264327002301	-0.144254966559673
6.1	-0.156265549771848	0.973338156722971	9.13712369211757E-06	1.50999031343174E-06	-1.28493991552492E-07	-1.80052410367211E-06	0.984400271817106	-0.145604068689304
6.2	-0.0334286813394178	0.984949821825503	2.42738041729242E-06	-1.72236820983331E-06	1.47184829305045E-06	-4.82241191040412E-06	0.98378026299918	-0.146368988443499
6.3	0.0900916898788389	0.981464898136876	-4.3396861332985E-06	4.22349569628823E-06	-6.11862104071542E-07	-1.71688444630455E-06	0.983368221545448	-0.147791508725291
6.4	0.212533600104615	0.962827529072457	-4.24556346637138E-06	1.063624127777E-06	-1.75623751765437E-06	8.8021808737745E-06	0.983198082162605	-0.149554555160317
6.5	0.332224621322539	0.9281788269396	2.439678645949E-06	-1.32418167538912E-06	1.48000917094396E-06	-2.91490544051339E-06	0.982818831703329	-0.152468786345201
6.6	0.445027070625889	0.879081780068581	-4.70639266103533E-06	-2.24808420693684E-06	-1.84715315631213E-06	-6.60548758727412E-06	0.982454688745324	-0.154374817864821
6.7	0.551219163213272	0.81664595713779	4.14221165775605E-06	-6.50474086954738E-07	-4.65334254836268E-06	9.97977283526594E-07	0.982562282506929	-0.156471957695841
6.8	0.64872627239028	0.741410358973591	3.74189313997492E-06	-2.06209821685574E-06	6.18431659770992E-06	-9.06719598274964E-07	0.982263574587428	-0.158583640028196
6.9	0.735932346029466	0.654792237796796	2.03406267604699E-06	1.63717745837695E-06	8.74444411089042E-06	-2.72308539038003E-06	0.982053589809369	-0.160292612425047
7	0.811804257942606	0.557849639767538	2.15258302941775E-06	4.08309941821931E-06	-1.06314760639896E-07	5.35781978064201E-06	0.981876259726168	-0.161973110595256
7.1	0.87462186272804	0.452453650554838	-1.37154527259095E-07	1.70866371768462E-06	8.23249760074295E-06	-4.59929757606465E-06	0.981278748906977	-0.163437275589704
7.2	0.92380853469969	0.339921953314113	4.82849794128092E-06	-1.37054829777587E-06	7.20859624804126E-06	3.78711892306842E-06	0.980788954968228	-0.164810786565982
7.3	0.958181814089869	0.222180071815794	4.84094126269783E-06	-1.08367614536408E-06	-7.27483785791213E-06	-7.37254369118699E-06	0.979845680830111	-0.166209360412195
7.4	0.977747499840834	0.101268993948938	-1.879623694209E-06	9.83196996324731E-06	1.44589680798106E-06	-4.03946445617314E-06	0.978886186926954	-0.16761186841314
7.5	0.983832918036566	-0.0210750393852463	8.30849335988928E-07	8.08632116714413E-07	1.65873278733839E-06	1.00039276149143E-06	0.979544226970585	-0.169187001474562
7.6	0.974011896441399	-0.145601767764845	1.46741259998154E-06	-2.59830810964757E-06	-5.38184626337389E-06	-3.65085224920469E-06	0.979588357358023	-0.173112378337299
7.7	0.947984094402284	-0.267380760451761	5.54516926148556E-06	2.43657952510325E-06	-6.88275199577087E-06	1.19794798397431E-05	0.979062040223209	-0.176380057854105
7.8	0.907277566706766	-0.384747205014605	-5.80721187293181E-07	-5.23682021763681E-06	3.75589234204046E-06	-4.70601802589874E-06	0.978962136758125	-0.179273595181106
7.9	0.852406754027747	-0.496239912189147	8.83373355209745E-06	1.5809211665976E-06	-9.47374134495385E-06	-8.68664140422984E-06	0.979353052851826	-0.18209226811848
8	0.783434210055611	-0.601568645596571	-6.65019759200099E-06	-1.66161369098723E-06	-1.20220622868036E-05	2.44010285327793E-06	0.979774971337234	-0.186134571533023
8.1	0.699878759170327	-0.694990105895908	5.06797509362995E-06	7.49222085469317E-07	2.88049921363949E-06	2.27043445148344E-06	0.978091740602017	-0.188954740115907
8.2	0.607067971674877	-0.776513928305194	3.56946118459099E-06	-2.55666383126662E-06	-3.62789152229148E-06	-1.16125283178705E-05	0.977637273160549	-0.190684826396857
8.3	0.50485999743362	-0.846128977957286	2.73125704956136E-06	-1.84293512683268E-06	1.61270492522972E-06	5.29053701870722E-06	0.977288561410814	-0.192969045971995
8.4	0.394938213982087	-0.902310193409596	-5.53797419517656E-06	-1.04220438044857E-06	1.04042229079409E-06	2.95047699235553E-06	0.976905992647901	-0.19545274702656
8.5	0.278647108611694	-0.945268154318505	-3.2910415426318E-06	1.6040672958423E-06	-4.75633834818649E-06	-5.01902403483368E-06	0.976361691044415	-0.198257044266924
8.6	0.156168124700349	-0.973010555705953	-8.14030055287536E-06	1.34095514532559E-06	-4.30052565085178E-06	-6.87917828962611E-06	0.976088866557601	-0.200603198565381
8.7	0.0314164858651385	-0.984405474841735	2.25571252821073E-07	-2.13502803400819E-07	6.11375303245438E-06	5.3868039467216E-07	0.976080490901333	-0.203090979206343
8.8	-0.0935406440887823	-0.979716657253376	1.03236001041696E-06	-1.81375545852624E-06	-2.3850419008733E-06	-1.29068279518837E-06	0.976083821565872	-0.205425140412021
8.9	-0.215941779597523	-0.959561536888695	-3.12769267593755E-07	3.03342371751183E-06	-1.22752805839051E-06	-1.64606315846073E-06	0.976412190628484	-0.207649688558537
9	-0.332999782898435	-0.924908318622442	2.96780099012479E-06	1.5986684289812E-06	-1.58263522396557E-06	2.10599624346207E-06	0.976665703168341	-0.210249013213876
9.1	-0.446290544954531	-0.877366561903368	-9.31635994197622E-06	2.21632456734481E-06	-1.5751279790825E-06	2.39979392059647E-06	0.976525557142341	-0.212823418100336
9.2	-0.553286315728519	-0.815427929917307	7.50317754468818E-06	-1.91039793696205E-07	-9.11422338453213E-06	1.91616165369274E-06	0.97603732798837	-0.215639014128972
9.3	-0.651707838135541	-0.740704627060904	1.2088953949695E-07	-7.16321997704534E-06	1.59468098397218E-06	-1.29053522864297E-06	0.975538746025836	-0.218170854973278
9.4	-0.739786492999866	-0.654319937663201	5.83073443324072E-07	2.48836329875207E-06	1.64164002439109E-06	-3.58821945552047E-06	0.974971310410872	-0.220721418742732
9.5	-0.818003238948736	-0.558367001045569	-2.92599102861045E-06	6.63788024551548E-06	4.74396209165219E-06	-1.33701190987911E-06	0.975121425889017	-0.223533002318676
9.6	-0.883947843696172	-0.449322119285524	-5.00920578702563E-06	-5.25208671219213E-06	4.75908982355622E-06	2.92023619949237E-06	0.974585549254129	-0.227222886740645
9.7	-0.933648556108682	-0.33278208792992	-1.98119816147145E-06	-5.10309008281202E-06	2.10444852135329E-06	2.18965372787935E-08	0.973975919531767	-0.229910667387684
9.8	-0.968209694304062	-0.210970380814128	6.17174286349219E-07	-4.29918009980546E-06	-2.93994464722627E-06	-2.54264445752277E-06	0.973906546482443	-0.231878333119842
9.9	-0.986473672367403	-0.0860476919865027	-6.16025246184239E-06	4.19885756148028E-06	-3.10541654080642E-06	1.65783971314964E-06	0.974510449956613	-0.233677121027658
10	-0.989575972805178	0.0384095931984794	3.58837341161729E-06	-2.81025732933475E-08	8.22351226646588E-06	1.11852409610575E-05	0.975051513220378	-0.237306278776017
10.1	-0.977895546107236	0.163339813007651	-2.8607227276344E-06	-2.54498463769401E-06	-2.0084331693066E-06	-2.51668594737973E-06	0.973218999051446	-0.239507264435432
10.2	-0.949932872133543	0.286565819311018	2.37232968427791E-06	-1.01697583661846E-06	-2.77777966541849E-06	-1.08274541841892E-06	0.972790866963528	-0.240732457985529
10.3	-0.906193006619293	0.405225253543058	7.82487077346047E-06	-5.95608484973396E-06	3.8524767776645E-06	8.2912270895905E-06	0.972537384157954	-0.24260034161894
10.4	-0.847997276715402	0.51710048369437	1.71570183689164E-06	2.5707624101041E-07	6.31891118334838E-06	-1.176818842943E-06	0.97235198298671	-0.245032480464516
10.5	-0.7761119743801	0.619830156579662	8.40863791214382E-06	-4.14939750470246E-06	-5.01336273431099E-07	1.98337624921046E-06	0.971893079868824	-0.248579980876699
10.6	-0.693489268063648	0.712483628478096	8.99501553577905E-06	-1.25935152299193E-06	-1.51369737990585E-06	1.37245150809346E-05	0.97117401735972	-0.251725932398671
10.7	-0.599265310666281	0.794648143882999	8.07265377514422E-06	-1.90374837116194E-06	-3.06608619736159E-06	-5.32087706656824E-06	0.970162040841316	-0.255232337588799
10.8	-0.494066461826831	0.864842452493462	2.46315389523114E-06	5.28473328220676E-06	-3.65194585596945E-06	-2.09361439780457E-07	0.969010559902808	-0.257698822415393
10.9	-0.379598253700408	0.92024376410178	-5.59355851162027E-06	4.87387007626324E-07	1.60638062196475E-06	4.05393891340863E-06	0.968558607074544	-0.259807315907962
11	-0.261654166241196	0.959693876414744	7.03219947345072E-09	-5.25322123301315E-06	-8.43209416774452E-06	2.23891524915947E-06	0.968012609066612	-0.262298902312261
11.1	-0.138955849924314	0.987412008112129	6.3500282517824E-06	4.11906078710043E-06	-1.92100520699697E-06	1.08302731551115E-05	0.966525370747313	-0.264394585212026
11.2	-0.012335180697765	0.998073684863706	1.58916243560375E-06	1.36404762023034E-06	5.17167778993604E-06	8.96174642689538E-06	0.964959846425437	-0.266076215811689
11.3	0.114730825700977	0.991575914429683	-4.65839253981462E-07	-1.74852538251035E-06	-7.04608334702817E-07	-4.4238600896595E-06	0.963616166658229	-0.26729122996982
11.4	0.23950022997513	0.968938922253144	2.30039747062293E-07	1.19335567739212E-05	2.43969494366985E-06	4.95875043927028E-06	0.962613580719702	-0.268713991133102
11.5	0.3600521705534	0.930654232978944	6.23552624934091E-06	-3.29050301741195E-07	3.18126174974869E-07	-1.89456172438534E-06	0.963237583300753	-0.271468229991395
11.6	0.473654327995509	0.878029006075105	-6.03915350024164E-06	3.10088174550327E-06	-4.89848586311501E-06	1.93481470659605E-06	0.961755036829717	-0.275960940590971
11.7	0.579782895950741	0.81191471249013	3.34372388539142E-06	-1.81191103761477E-06	-1.71322016581691E-06	2.25307786090027E-06	0.960299126321918	-0.279342822321182
11.8	0.6765198839885	0.732329644656604	-8.11271844646085E-07	9.8508478687696E-06	-2.71645155045058E-06	1.06022737330629E-05	0.959688465765035	-0.282502785140336
11.9	0.761703852296989	0.640821112832134	-7.34264041338697E-06	-1.03366022592776E-06	-3.91983820428824E-06	1.13241963704113E-05	0.960955480486587	-0.285422244276432
12	0.834128446129146	0.53934981607307	-6.45443720727417E-07	1.39350545980617E-06	-3.16402098964018E-06	-1.93038082990169E-06	0.96105872963943	-0.291298120806891
12.1	0.893337912501601	0.43100166720945	-3.8835541006211E-06	5.03335345374676E-06	-1.31505146444257E-06	8.4723565428314E-06	0.958033712996883	-0.295132252132077
12.2	0.939329191875256	0.316245889084625	-5.96116370502943E-07	-3.81787527555443E-06	-3.13522423378085E-06	-7.22128240632526E-07	0.956053908339693	-0.298243241186325
12.3	0.970995200667244	0.196926931017891	3.63274282505644E-06	3.43367798893872E-06	-3.4239076756729E-06	6.31700527670056E-06	0.954096196801246	-0.301317022785235
