# GHZ S RI R 50
0.2	-0.968319555109774	0.250212733852621	8.83268060313194E-06	5.34476739981901E-06	1.14332964235734E-06	-2.8937577920438E-06	1.00168643959608	-0.00582437386800033
0.3	-0.929969020726968	0.370094995915139	-7.68176104127592E-06	-8.35351589619444E-07	-2.12766451085149E-08	3.66949033488349E-06	1.00214811004005	-0.00872296258871992
0.4	-0.876648167950003	0.484584634202242	-2.22001600795867E-06	6.35984958208213E-06	2.91933980114603E-06	5.76494320865525E-06	1.00316218783302	-0.0113052759803516
0.5	-0.808615134325843	0.593010751331967	-2.66322251275506E-06	5.50865576286291E-07	1.05741963639729E-05	4.91462634448388E-06	1.00409338306885	-0.0164849252909929
0.6	-0.726242147308405	0.689606524935411	-1.73202702810884E-06	-1.7986119562361E-08	4.17737908685011E-06	-1.03773990204459E-05	1.00214866393985	-0.0197761683442721
0.7	-0.634097318252738	0.775517538319492	-2.05566113096074E-06	9.9154168131071E-07	3.7944765708596E-06	1.12067941830738E-05	1.00181186950159	-0.0218023502757733
0.8	-0.531496791121593	0.849766347460665	-5.63216177346801E-06	3.7964153170801E-06	-3.18110886651131E-06	-2.14999941063337E-06	1.00194601931012	-0.0236109962360517
0.9	-0.420325781437122	0.910290241932843	-6.74780899947223E-07	5.27393083983177E-06	3.28152794202328E-06	-2.94206852695528E-07	1.00214850834185	-0.0253211722308233
1	-0.301922294350655	0.956404378589916	1.57790512803329E-05	-3.68585408330722E-06	-9.6532917311429E-06	5.16655151331943E-07	1.00412095096118	-0.0263039229824382
1.1	-0.179285787256208	0.987011349397115	1.35150173159981E-06	-3.0028715246062E-06	9.46160114302509E-06	1.26847915160352E-05	1.00431813999756	-0.0308094962745979
1.2	-0.0526882243225635	1.00178973418312	-7.96570103701257E-06	-3.2720038896587E-06	-3.12380044999089E-06	-4.50534077327028E-06	1.00278322135528	-0.032482747754589
1.3	0.0752840842763379	1.00007001218057	1.88502094688481E-07	3.35509991104495E-06	1.94240473071568E-06	3.3818347946935E-07	1.00216163479537	-0.0343355409687441
1.4	0.201403196609815	0.981598202205385	3.82896968885274E-08	3.78776374985667E-06	-2.56468077155966E-06	-5.63478494720543E-06	1.00064627913165	-0.0369885411018199
1.5	0.324269210336693	0.948247448841138	3.20257682025338E-06	-2.82859868064511E-07	2.72626801630365E-06	2.09309880086105E-06	1.00183403627985	-0.0405526730433591
1.6	0.441022590665229	0.898886890264763	1.78492457039285E-06	-1.95817624227261E-06	-9.14921148222174E-07	-3.07241201676902E-06	1.00056003558442	-0.044770947751067
1.7	0.549899069327714	0.836012704692363	-1.03983331566474E-07	-3.53878438460716E-06	2.03874826161431E-06	4.93627418343906E-06	1.00106070351701	-0.0465876437566971
1.8	0.649855919099088	0.760458021375014	-2.07352872765139E-06	-1.8113832201057E-06	-4.57279461146348E-06	1.84081772800497E-05	1.00116101414716	-0.0487939070225433
1.9	0.738771430406554	0.674217407235196	-4.40793425310671E-06	-1.46017772941124E-06	-4.95736142874994E-06	-6.00959381656301E-06	1.0015299329282	-0.0490426577339958
2	0.820587149565625	0.579152396613602	-9.56725533528983E-08	-6.79322446849887E-07	-1.68149731930329E-06	-1.42837697953006E-06	1.00699781491669	-0.0515467043255808
2.1	0.888702126627947	0.46617222775786	-1.0985513770728E-06	9.53865029892606E-06	2.01012581412415E-06	-3.94770919338923E-07	1.00610560918192	-0.0599643165270866
2.2	0.937951215182701	0.349527234999945	-6.34182764940072E-08	-5.96914189748845E-06	-7.23067940216117E-07	2.76073896227316E-06	1.00352896525807	-0.0630570123351215
2.3	0.972945489969074	0.22882715353191	-1.30346472060917E-06	2.79085259225843E-06	-1.88101995448379E-07	1.20433873726369E-05	1.0020535830154	-0.0648249524437391
2.4	0.99302529913704	0.104257088925743	-5.93107894781888E-06	-3.68154379395627E-06	-1.75708352323122E-05	1.47346314704941E-05	1.00122556825303	-0.0675813789398483
2.5	0.998512646376959	-0.0212394688637277	1.80095625562692E-06	-2.98543325944769E-06	-1.737080684562E-06	7.58318533207734E-06	1.00125942678168	-0.0696220410245839
2.6	0.98748055003916	-0.145690877806654	2.87552276541428E-06	9.06662795264813E-07	-1.73260794889405E-06	4.52518798321512E-06	1.00091472168373	-0.0731010632600973
2.7	0.961532204601946	-0.268418764024563	3.89460984591396E-06	1.04740202162148E-05	2.35348928584057E-06	3.87426736989181E-06	1.00064748818292	-0.0764207699009698
2.8	0.919891277141691	-0.387804222732548	-8.31965497746561E-07	-2.30077265272283E-06	2.09210323400551E-07	-1.8998708499496E-06	1.00056036274469	-0.0793121646941947
2.9	0.863256549811828	-0.500163966397467	3.72896371428637E-06	-8.39196586138655E-06	-1.3833105398197E-06	-1.42978043938971E-05	0.999483725456028	-0.0818311330040336
3	0.793347007994031	-0.604735945636844	4.05769079987278E-08	6.68543641347941E-06	-1.48079912196309E-05	5.44986682876961E-06	0.999022089555428	-0.084518117930041
3.1	0.71118278709628	-0.699222480174203	-4.94035474840582E-06	7.91103316095191E-06	5.83933946337589E-06	-1.38347564480849E-07	0.998141069719816	-0.0874664120148247
3.2	0.615519050580353	-0.782829198090959	9.86747804124587E-07	2.12521419305638E-06	-4.57639295607396E-06	5.27963749961078E-07	0.996812782751722	-0.0898452119496443
3.3	0.510373798005823	-0.853040699531329	7.04515503776089E-07	-1.47242916663078E-06	-4.58666873547038E-06	7.87260448578833E-07	0.995098650345216	-0.0937178974132849
3.4	0.396837091289694	-0.907181371812061	6.47354304804828E-06	1.52347484107955E-07	-8.22851747977277E-06	-7.07757590294142E-06	0.992681835440051	-0.095632569583248
3.5	0.283911121999734	-0.946564868162357	-7.65487660340265E-06	2.02644330911526E-06	-5.95669127119236E-06	-7.90100284687424E-06	0.991892746163178	-0.0956232164792915
3.6	0.161458373995132	-0.978995054856444	-8.9191215177878E-07	-4.37277958310247E-06	-7.86432860139521E-06	-6.26625948053409E-06	0.992740688911727	-0.0991800365416185
3.7	0.0340884628702978	-0.99081640631008	-6.7769604343315E-06	-6.70106680713856E-06	4.81615718608024E-07	-4.76628070892053E-06	0.99098653817639	-0.102482498178326
3.8	-0.0919568069564177	-0.985132300894671	-3.62638864701115E-06	1.11726283304711E-06	-3.31524020480496E-06	-2.42838924677838E-06	0.988879950089304	-0.103632063342792
3.9	-0.213945511657229	-0.9640886577543	-4.48081567439041E-07	3.5039143123258E-06	2.03819065845679E-06	-1.23429521406528E-06	0.988239734532893	-0.103745421184787
4	-0.332773539826274	-0.930781755016871	1.17611379991926E-05	8.01181825758904E-06	7.23094514630476E-06	-4.11116873134122E-06	0.993393737102765	-0.104280094960073
4.1	-0.448292652880854	-0.880908458523559	5.22478997785204E-06	1.25651127134865E-06	-3.36944488833984E-06	6.68294212183174E-06	0.991912910482596	-0.111401282215497
4.2	-0.55470219595335	-0.81701311819425	-7.08533880730487E-06	-1.11287664668337E-06	-8.23516909284899E-06	5.65875450389654E-08	0.988662750502228	-0.114021095974674
4.3	-0.652126035751918	-0.740420472287977	6.72507049727927E-07	-2.36454126805791E-06	5.19789146995358E-06	8.17945023193711E-07	0.987338643000722	-0.115395389937537
4.4	-0.739509400963476	-0.652462519239376	4.43142192772672E-06	-1.81242509018588E-06	-8.49667677656741E-07	1.34901660290428E-06	0.986462372463172	-0.117224403934906
4.5	-0.815715196738254	-0.553150570400385	6.76836858477549E-06	1.77837823399455E-06	-8.3774689230369E-07	-3.22962638936572E-06	0.986076414557832	-0.120634706310845
4.6	-0.877701606035446	-0.445890414536638	2.46877097494284E-06	2.90178466543206E-06	-6.43090711444658E-06	9.74261370683683E-06	0.982829733367795	-0.123133992512472
4.7	-0.926650013618786	-0.331212834962434	-1.38774323339719E-05	6.00655154399712E-06	-3.43406481894572E-06	-1.42010611441358E-10	0.981769745755066	-0.123880453416419
4.8	-0.961004867102735	-0.211153423626078	-3.18397708858494E-06	-5.06943243905677E-06	-5.45487266438788E-06	2.39812496800624E-06	0.98077764973921	-0.125645939186909
4.9	-0.979238862445602	-0.0863439612216262	-1.10034634775694E-06	-8.46515389455968E-06	-4.17585517911373E-06	7.76943504558654E-07	0.979444248121337	-0.126815598022486
5	-0.975782185572817	0.0371883849130612	7.43880554859876E-06	-1.62853482360436E-06	-1.75822915961554E-06	-2.66920758376196E-06	0.978414756506321	-0.127420961359352
5.1	-0.964347330218151	0.154534225970856	-2.61013330110028E-06	-6.29184667056086E-06	-1.0086537598691E-06	-1.92044228425142E-06	0.977616555662012	-0.127909648956298
5.2	-0.939143866174706	0.274548836089873	3.94347980381907E-06	-4.54717343963157E-07	-5.33141001716816E-06	6.2591744154694E-06	0.976748602316313	-0.128985452135414
5.3	-0.897284821448968	0.390259217695995	5.10390829165649E-06	5.89876649201702E-06	-9.67415897887416E-07	-3.53303739434103E-06	0.976061737719024	-0.130354483130326
5.4	-0.841062611508477	0.498662250501486	3.00864018035252E-06	-2.00141200249303E-06	-1.11400725323413E-05	2.22062100253879E-06	0.974793777147531	-0.132083258219841
5.5	-0.772786418199892	0.59820549347653	-4.29694172351695E-07	-2.16129673595921E-06	-5.69148143717802E-06	6.0453052642999E-06	0.97510575518355	-0.131573921711266
5.6	-0.692787847732912	0.69016507384043	2.35851639156698E-06	7.20423553592128E-06	-5.26818816534447E-07	2.89127231721798E-06	0.976285494131246	-0.134851212645578
5.7	-0.601342339758632	0.771508523977719	-2.53396166570272E-06	2.33171871450176E-06	7.80682730534215E-06	2.7322982110302E-06	0.97473912864376	-0.136814599113598
5.8	-0.500481493567759	0.839550094329025	-4.58242106114102E-06	5.02903253215436E-06	-3.6193522466801E-07	3.37272894452559E-06	0.973529390603146	-0.136878820773627
5.9	-0.394092633799219	0.894724416041275	6.257227135196E-06	1.50198766707561E-06	-2.6812756746915E-06	2.4983252587626E-06	0.973832785140454	-0.13429787757633
6	-0.281566243400622	0.9412902979223	3.47060201381287E-06	3.29524284198251E-06	-3.15599056288118E-07	-1.42394339282125E-06	0.982327700673419	-0.134610124014687
6.1	-0.158508137713546	0.969243852915208	9.10454740675902E-06	1.5332932951757E-06	-1.22598205465953E-07	-1.79540679173986E-06	0.982024868421712	-0.142299696083321
6.2	-0.0359363498970458	0.980338924871837	2.42221987257144E-06	-1.71035915802677E-06	1.47736054966054E-06	-4.80096660659653E-06	0.980025956162959	-0.143901670810212
6.3	0.0863833964340047	0.977077523202987	-4.33406767443108E-06	4.19784219411129E-06	-6.05546204963751E-07	-1.71213179538318E-06	0.979168053153613	-0.145481190162789
6.4	0.207795541249415	0.961054492231723	-4.23920361744542E-06	1.05137699380365E-06	-1.77335154021796E-06	8.7796415075794E-06	0.97956667158093	-0.146799599415897
6.5	0.333443501042607	0.926338294761465	2.4308629173587E-06	-1.32869183875603E-06	1.46844681850353E-06	-2.91338422506946E-06	0.979613612035054	-0.153782551936531
6.6	0.442252029683684	0.8710687156223	-4.67078721634931E-06	-2.21963976606025E-06	-1.84450284539101E-06	-6.54561701138253E-06	0.973082021959236	-0.154464788702433
6.7	0.544235122831564	0.810241274134818	4.10250701470142E-06	-6.38934979029981E-07	-4.60907248536561E-06	9.82400285016406E-07	0.972540814850414	-0.152685905694954
6.8	0.639802602482065	0.737031144027185	3.71084322905476E-06	-2.02917280122413E-06	6.12489081757265E-06	-8.7752770062575E-07	0.972793432432476	-0.152701398393387
6.9	0.725449412888263	0.652871450986168	2.00391593482204E-06	1.63087560481189E-06	8.66715521935764E-06	-2.64761004832291E-06	0.973205124716415	-0.152218889202233
7	0.802199139733627	0.559242163642491	2.10104477190239E-06	4.06816466726639E-06	-1.50292277114773E-07	5.31369588948959E-06	0.976760293365023	-0.15327595542082
7.1	0.865787457825826	0.453921129132241	-1.47186043947098E-07	1.69785534756331E-06	8.21375997266649E-06	-4.52036730216612E-06	0.975468921866806	-0.157687116425671
7.2	0.914477152441775	0.342275310414724	4.80538330120627E-06	-1.33748089522251E-06	7.14445330828402E-06	3.8001500275757E-06	0.97329229663386	-0.158964939021551
7.3	0.948138089670498	0.225176710984069	4.81018587492136E-06	-1.05852353579111E-06	-7.1962738837358E-06	-7.34591618558861E-06	0.970576045670637	-0.160190193482612
7.4	0.964187001512286	0.105822331506921	-1.87567785179896E-06	9.71550568459148E-06	1.43652741453372E-06	-3.99040420013982E-06	0.965280415262001	-0.159632505731771
7.5	0.970094974312788	-0.00650780454215289	8.09070883331204E-07	8.02210808148222E-07	1.62086072359275E-06	9.98209845573978E-07	0.966838165552121	-0.151607695741868
7.6	0.967354825568061	-0.129368969379067	1.48282058999933E-06	-2.54590066853312E-06	-5.26526591210042E-06	-3.67496912931693E-06	0.972968360071247	-0.155909421436181
7.7	0.944133416366695	-0.250157450814719	5.44591012816932E-06	2.48615676839132E-06	-6.97089781644837E-06	1.17422415711142E-05	0.97342122154833	-0.159225075420696
7.8	0.907038894381545	-0.365942619491057	-4.88383051633365E-07	-5.18994379798496E-06	3.79278208880844E-06	-4.59357650491203E-06	0.974552524229772	-0.160994171624632
7.9	0.858096923725904	-0.474963309477765	8.72496884018146E-06	1.75268117835763E-06	-9.21045423467335E-06	-8.81101079282846E-06	0.977484068602712	-0.16036954513058
8	0.801916610680221	-0.586291198598271	-6.62778680742727E-06	-1.82433092219502E-06	-1.21112381642627E-05	2.16000509308362E-06	0.988903162719883	-0.165181069070257
8.1	0.714987338435592	-0.690927840435684	5.09149429558102E-06	8.30658476682477E-07	2.8660987715856E-06	2.32938608227113E-06	0.987248392894424	-0.177411995777753
8.2	0.619215808973342	-0.774054808377811	3.62067037122243E-06	-2.52806239644335E-06	-3.50816402144229E-06	-1.1722440722449E-05	0.984307285122283	-0.180538501817239
8.3	0.516078326221033	-0.84492933913862	2.76655217378432E-06	-1.82398421385057E-06	1.56491386131163E-06	5.33784730814127E-06	0.98350656798913	-0.182992012131014
8.4	0.405300166674165	-0.90175253109524	-5.56074100351483E-06	-1.09654521265045E-06	1.02065236043308E-06	2.97653609994019E-06	0.983760407775703	-0.18561437786711
8.5	0.291147705275139	-0.945286843592707	-3.31246126625801E-06	1.58190679993213E-06	-4.72856498899655E-06	-5.07018066118826E-06	0.984045457041024	-0.190584206374219
8.6	0.168485502287729	-0.977751416247866	-8.18321146927196E-06	1.2548993228016E-06	-4.23868698645813E-06	-6.95071793939559E-06	0.98183145786909	-0.193333936962341
8.7	0.0414746009621271	-0.992022152861929	2.29317763412785E-07	-2.12138630117136E-07	6.14266955579715E-06	6.11970536335697E-07	0.981766883039153	-0.194957623536024
8.8	-0.0866415817316027	-0.989829920766474	1.06087142068076E-06	-1.81686000181507E-06	-2.38986875077266E-06	-1.3276364217337E-06	0.982252942599249	-0.196799753889023
8.9	-0.21512566164502	-0.969855796490574	-3.43028380229505E-07	3.06400384192401E-06	-1.2264677642024E-06	-1.67501142338571E-06	0.983202448081583	-0.198552044829041
9	-0.332517385513068	-0.927632658587623	2.9860623587251E-06	1.6266939805229E-06	-1.60642726693231E-06	2.11682572194882E-06	0.984668731318408	-0.200231764362062
9.1	-0.442460880489125	-0.882384685875063	-9.40589344073635E-06	2.17453635904049E-06	-1.60324426288163E-06	2.40910285229467E-06	0.986889432029738	-0.203066710458144
9.2	-0.550204179822534	-0.821156019132147	7.56901809586948E-06	-1.52082961456811E-07	-9.20331519333286E-06	1.88338617740614E-06	0.988276480813732	-0.207547132936619
9.3	-0.648609849495035	-0.746816705988218	1.5288632263664E-07	-7.21855795160981E-06	1.61271176940484E-06	-1.29368614114078E-06	0.988183570960727	-0.212683909162787
9.4	-0.735646466310686	-0.659664218299598	5.76625075535547E-07	2.50352340431778E-06	1.66384643931955E-06	-3.60062275732698E-06	0.98544430581194	-0.21668882983236
9.5	-0.80977654570002	-0.571411421726138	-3.0029290207455E-06	6.63498755590623E-06	4.77571643482379E-06	-1.29544058264199E-06	0.98601291039217	-0.216743816761546
9.6	-0.88614471560489	-0.466600711539919	-5.00746808065985E-06	-5.35212598866657E-06	4.7774858280935E-06	2.99497937049003E-06	0.987491477273648	-0.223042657218519
9.7	-0.94098220045933	-0.346703838029921	-1.96517757236765E-06	-5.17245854617617E-06	2.12691903425942E-06	3.7524711662954E-08	0.985760789334891	-0.227169558345019
9.8	-0.97833906134869	-0.222045483592582	6.51571165589624E-07	-4.3407851722472E-06	-2.95465848259252E-06	-2.58866040192245E-06	0.98429965075824	-0.228874686107945
9.9	-0.998950189713364	-0.0938092019734263	-6.25991204269638E-06	4.19895556555596E-06	-3.15220593906082E-06	1.65281750636845E-06	0.984923428948579	-0.226890368621093
10	-1.0019631351772	0.0338254902571924	3.64494733751635E-06	-4.42995278041022E-09	8.27756465929838E-06	1.14162604228762E-05	0.995090725352399	-0.231837814739422
10.1	-0.99125291303898	0.160098915333435	-2.89798329418956E-06	-2.59037176686992E-06	-2.03284957526749E-06	-2.55960893951038E-06	0.989976006605135	-0.242438805953964
10.2	-0.96469443080975	0.28563203912998	2.40745579294922E-06	-1.02699527847656E-06	-2.81483004276983E-06	-1.10292818295411E-06	0.985991999942445	-0.243601914211162
10.3	-0.922838928395438	0.407143155727507	7.94806938961932E-06	-6.02760523953964E-06	3.89292057013554E-06	8.41734083274592E-06	0.984599116403157	-0.244699146285399
10.4	-0.867666253110227	0.525309504604156	1.74423272965951E-06	2.63098106326305E-07	6.42610488153036E-06	-1.19027165615046E-06	0.984906989469173	-0.246387144344762
10.5	-0.78875330503275	0.639583836689599	8.52918555269229E-06	-4.26747488573571E-06	-4.98796033244753E-07	2.02010375140417E-06	0.984930387880427	-0.252713171056533
10.6	-0.69686724348827	0.729857770452898	9.09266730881159E-06	-1.3281786745747E-06	-1.44886718918653E-06	1.38941702315071E-05	0.981732096354648	-0.254891885289192
10.7	-0.598948924063282	0.809936758820135	8.15153971781449E-06	-1.96372071197833E-06	-3.12538884461666E-06	-5.36407963271055E-06	0.982513307024316	-0.258006342787541
10.8	-0.491422207490267	0.878593439365022	2.51817830464973E-06	5.33100002817349E-06	-3.69386047959054E-06	-1.92706384779868E-07	0.982149057620557	-0.26267978634625
10.9	-0.373180178873166	0.933910116817156	-5.64909226797398E-06	5.32495930656378E-07	1.65229499636305E-06	4.08523320078954E-06	0.980928208439961	-0.266480726254137
11	-0.250311142199862	0.966303403817249	-2.67815474217619E-08	-5.29203371219637E-06	-8.47988692169264E-06	2.30979645151196E-06	0.980274840255821	-0.270155826342907
11.1	-0.132479765313563	0.99135081954007	6.43307731977661E-06	4.12402875482019E-06	-1.88066927921035E-06	1.09442497317386E-05	0.977350059325455	-0.274701706896714
11.2	-0.00596947343605521	1.0027035038282	1.61563645654924E-06	1.36617311199065E-06	5.29158689773022E-06	9.01503493184117E-06	0.973838744062678	-0.2777241650831
11.3	0.122063958415778	0.99586808904615	-4.87636712840343E-07	-1.7609197741487E-06	-7.5514995542465E-07	-4.45989997450812E-06	0.969579358761357	-0.280000356854626
11.4	0.247285060823597	0.972200307367845	3.82501192737524E-07	1.20173315524137E-05	2.52007408019922E-06	4.96394161664161E-06	0.963759865436519	-0.280992770011818
11.5	0.368438620160249	0.932772881218994	6.25238541963671E-06	-3.90756040786639E-07	3.00722931014979E-07	-1.90375060275527E-06	0.965816851222571	-0.277656555571436
11.6	0.482028563472322	0.877853526165851	-6.04641341902991E-06	3.17130103311424E-06	-4.90944654582072E-06	1.98863130550538E-06	0.966688500353164	-0.285796333159213
11.7	0.586859030974555	0.810288189872464	3.34348737186124E-06	-1.85590315011089E-06	-1.69958709596825E-06	2.28284622806986E-06	0.96243715622237	-0.290383214660618
11.8	0.681366123906025	0.730191997832163	-7.12368504209414E-07	9.89371157774706E-06	-2.61645660474297E-06	1.06674453642576E-05	0.958866282592469	-0.29173276624541
11.9	0.763567266436277	0.64252575876732	-7.36026681670842E-06	-9.90196921053645E-07	-3.85638098374228E-06	1.13656502297231E-05	0.959858257274844	-0.287711827256109
12	0.846375833590326	0.54660512040624	-6.47483730753449E-07	1.4105304114118E-06	-3.20428257604264E-06	-1.93994856180113E-06	0.972464500624442	-0.293997274591708
12.1	0.908294047202106	0.427655647043445	-3.8711424283433E-06	5.12173191652095E-06	-1.24291307202096E-06	8.56870234677563E-06	0.966642909784099	-0.305145535673402
12.2	0.951616122808505	0.309141227712217	-6.3960749564609E-07	-3.84419262246056E-06	-3.16903691465005E-06	-6.96670720330724E-07	0.962955159388292	-0.308588270872027
12.3	0.981926940793222	0.187910414009693	3.7032171518996E-06	3.42913721830237E-06	-3.39150511950934E-06	6.41320639719749E-06	0.960863584785556	-0.312248299391141
