# GHZ S RI R 50
0.2	-0.965858927085629	0.25158112633784	8.82208829745698E-06	5.31785387227116E-06	1.13586589760451E-06	-2.88925491067404E-06	0.999344583847338	-0.007247152124636
0.3	-0.926352821196146	0.371367475380847	-7.66019497854017E-06	-8.17241759499194E-07	-1.37696444050125E-08	3.6584222833337E-06	0.999180483786342	-0.0102554100815554
0.4	-0.871596345331927	0.485032439811919	-2.19628790706922E-06	6.33731488945734E-06	2.91954680477448E-06	5.73355234618469E-06	0.999036755636725	-0.0129516374872016
0.5	-0.803316945053538	0.590940576819865	-2.64782230972492E-06	5.48912166885695E-07	1.0516201080931E-05	4.88196737064005E-06	0.998857672155595	-0.0159649031308766
0.6	-0.722167764360024	0.687295642296667	-1.72475156511486E-06	-1.80871821459939E-08	4.16089429285259E-06	-1.03333933233734E-05	0.99911205980514	-0.0190290347656212
0.7	-0.629702640108512	0.772705612684857	-2.0460963260984E-06	9.88416462043234E-07	3.78447868820402E-06	1.11555962767547E-05	0.998681240832671	-0.0222300416652786
0.8	-0.527174576889865	0.845852791099553	-5.60206892040683E-06	3.78188896654788E-06	-3.16713075874005E-06	-2.13729444588083E-06	0.998281828163404	-0.0245393051501048
0.9	-0.416495625148428	0.905299755671045	-6.66634740695695E-07	5.24754518910892E-06	3.26447488671146E-06	-2.956217241658E-07	0.997942506952853	-0.0270379140221138
1	-0.298766651095918	0.95035997915088	1.56710271399671E-05	-3.68913145340082E-06	-9.59018317684345E-06	5.29864761292557E-07	0.99719014458799	-0.0285325265239015
1.1	-0.177344737180774	0.9800038765594	1.34068332063889E-06	-2.97936287903943E-06	9.38808398144621E-06	1.2584486461853E-05	0.996855381503147	-0.0301531566625065
1.2	-0.0522452426906947	0.994193014474584	-7.90047656176808E-06	-3.25569302907198E-06	-3.09459470924566E-06	-4.47405048677395E-06	0.996158357722953	-0.0311334533065035
1.3	0.0736807555152503	0.992439339505995	1.78543887778051E-07	3.33057285524244E-06	1.92706466938987E-06	3.40614581331861E-07	0.996207659879243	-0.032085020684067
1.4	0.198030271796874	0.974804377137749	2.32136942898323E-08	3.76358785307311E-06	-2.52614817970577E-06	-5.6086385842513E-06	0.996057056158496	-0.0342707948643656
1.5	0.31909615376661	0.942058541473399	3.18373098212505E-06	-2.67144693895694E-07	2.70006484497078E-06	2.09184535720737E-06	0.996745498912255	-0.0376771680991383
1.6	0.434896094318685	0.894632303093285	1.78586500985658E-06	-1.93821178917217E-06	-8.93643818564293E-07	-3.06092164710899E-06	0.996638700549603	-0.0411230779657206
1.7	0.543642201994701	0.832664555037823	-8.62039949488942E-08	-3.52242007794755E-06	2.00491898369243E-06	4.92269641546624E-06	0.997137025979464	-0.0436959641824946
1.8	0.643528717319495	0.757941269728019	-2.05635421053857E-06	-1.81258246352955E-06	-4.63420564304632E-06	1.8306709413188E-05	0.997072328865794	-0.046389455235909
1.9	0.733123365783425	0.671358006516549	-4.38712526321065E-06	-1.46567349929355E-06	-4.92289741123717E-06	-5.99882109029544E-06	0.996914306035622	-0.0486439897079326
2	0.810972411063823	0.574171453917683	-9.4633154833986E-08	-6.73418249570709E-07	-1.66638326196723E-06	-1.41640670799077E-06	0.996209787967121	-0.0511795249375346
2.1	0.876565096106515	0.467321346938343	-1.1430609731494E-06	9.43627955816427E-06	1.99220077086497E-06	-3.79090036116985E-07	0.996203004155525	-0.0531073138299828
2.2	0.927949170024008	0.353670224502837	-2.00477944185027E-08	-5.92225338232787E-06	-7.37159251368878E-07	2.73364957399959E-06	0.996363441537023	-0.0555393341409567
2.3	0.964607548632512	0.234391718724628	-1.31519231008527E-06	2.76147974757591E-06	-2.76924192183998E-07	1.19573283919447E-05	0.996085250943935	-0.0574437626671853
2.4	0.986080188385069	0.110603055423632	-5.86211488985887E-06	-3.7072730753795E-06	-1.75804168666393E-05	1.44930279202617E-05	0.995962828301195	-0.060517332332746
2.5	0.992079268754191	-0.0140320392853076	1.81997074730018E-06	-2.95786601338059E-06	-1.79659566923523E-06	7.53800148533907E-06	0.995615236038487	-0.0625901462486978
2.6	0.98229449120107	-0.137309298171598	2.85873673207739E-06	9.21228229065803E-07	-1.75434999101731E-06	4.49685106879974E-06	0.995719704336988	-0.06540465790476
2.7	0.95720911626107	-0.258938158242707	3.80866777434961E-06	1.04411914179554E-05	2.3167392107136E-06	3.86777024648202E-06	0.99542717200816	-0.0683346353575639
2.8	0.917246315315616	-0.376736731935639	-8.1005845481914E-07	-2.29230354534275E-06	2.21653822035914E-07	-1.88638583595052E-06	0.995633227550828	-0.0702737247660363
2.9	0.863198377403098	-0.488338023824493	3.776887700832E-06	-8.30683503499714E-06	-1.25251377030267E-06	-1.42187819390068E-05	0.995336373754681	-0.0722176985952133
3	0.795376700418317	-0.592992790988519	-2.3246971351531E-08	6.64653368251525E-06	-1.47728021842821E-05	5.27699998574427E-06	0.9952319566083	-0.0745097558997646
3.1	0.715746058667074	-0.687117097440483	-4.99502281817302E-06	7.81267545005843E-06	5.80669825517049E-06	-7.58914851070245E-08	0.995036404668474	-0.0764405145169436
3.2	0.62329904999588	-0.771670887498766	9.56378967083669E-07	2.12674649097677E-06	-4.56048064195185E-06	4.70336950007649E-07	0.99478812883528	-0.0781930874742206
3.3	0.521306501403367	-0.843875589878034	7.21823077989882E-07	-1.4580102519085E-06	-4.58164263148333E-06	7.23232567899532E-07	0.994553092408052	-0.081408770483399
3.4	0.410605206639324	-0.902572385939963	6.46876801594327E-06	2.47184950583025E-07	-8.12153473340581E-06	-7.19542089834284E-06	0.994597569166101	-0.0833542561481968
3.5	0.293286575036201	-0.946836550804357	-7.70123665059644E-06	1.94914093967341E-06	-5.88912253411764E-06	-7.99111964904747E-06	0.994571253187498	-0.0862193387712298
3.6	0.171028392033098	-0.975850362133675	-8.50015779042814E-07	-4.3821170059919E-06	-7.80543550478985E-06	-6.34297729374492E-06	0.99433224624141	-0.0888350641118178
3.7	0.0466224821565861	-0.989988011276039	-6.70508233803245E-06	-6.77944867924473E-06	5.34966090534051E-07	-4.76291095054067E-06	0.994137338575312	-0.0916416291382676
3.8	-0.0789351877882682	-0.988029141872924	-3.64520029217671E-06	1.07801863330373E-06	-3.29330568797122E-06	-2.47010549397652E-06	0.993617615774072	-0.0937236180890352
3.9	-0.202628645664806	-0.970408073606284	-4.83935543364687E-07	3.50735110322636E-06	2.055056220445E-06	-1.21680675078263E-06	0.99341144476893	-0.0968486321105715
4	-0.323720495676797	-0.937528722910065	1.16686051734756E-05	8.13098272477682E-06	7.26967768458549E-06	-4.03194410795896E-06	0.99268212324611	-0.0978108270939961
4.1	-0.439186146266778	-0.88930267737592	5.21573267696052E-06	1.33013141022962E-06	-3.46636846346614E-06	6.64718894236117E-06	0.992901271277706	-0.0991329162754908
4.2	-0.547287698853843	-0.827439022383869	-7.09675528417583E-06	-1.21098389191346E-06	-8.26634844497862E-06	-5.24523994785336E-08	0.9926782767795	-0.101791116214459
4.3	-0.646878911672144	-0.752149368120942	7.0569771801201E-07	-2.3672998124299E-06	5.21232900579368E-06	8.87754963399098E-07	0.992694589685155	-0.103818781700971
4.4	-0.736213082084102	-0.664761161441591	4.47650710042936E-06	-1.76778916812128E-06	-8.70524494593552E-07	1.34565279050941E-06	0.992343821215654	-0.106167930985877
4.5	-0.814293399046249	-0.566901391844398	6.784797044857E-06	1.87979066669E-06	-7.99395321134943E-07	-3.26009449044983E-06	0.992586540555419	-0.108078632119476
4.6	-0.879842921796713	-0.459473810812864	2.45355357831881E-06	2.95768911917885E-06	-6.6084095921716E-06	9.74557080701599E-06	0.992824311040443	-0.111128079937608
4.7	-0.930898582695151	-0.343785469902077	-1.40734170631671E-05	5.90540431316427E-06	-3.46578472121507E-06	-3.89028702127867E-08	0.99295217942006	-0.113593990717817
4.8	-0.966748321471089	-0.223215221420161	-3.15936325813878E-06	-5.15232206137773E-06	-5.53291526975925E-06	2.36183461240992E-06	0.992644335679361	-0.116430637493371
4.9	-0.986699367343742	-0.099709957866154	-1.01374042784106E-06	-8.56367471256286E-06	-4.22715945794758E-06	7.36594427635744E-07	0.992241822454473	-0.118479361270789
5	-0.991646506897148	0.0248874276342258	7.5623675412738E-06	-1.56650811008643E-06	-1.75253458342533E-06	-2.7269582489629E-06	0.992070147661163	-0.120113520829841
5.1	-0.980202451399096	0.150673643452704	-2.60018067537823E-06	-6.40304225704712E-06	-1.00869338226285E-06	-1.95599414859262E-06	0.99222172449457	-0.121643616715675
5.2	-0.953487646457774	0.272634128319024	4.00170253412127E-06	-4.34265245440074E-07	-5.44849738928283E-06	6.31043524403903E-06	0.991961281197178	-0.124080419471079
5.3	-0.912068082422906	0.390267854023281	5.13994241340116E-06	6.01639438812637E-06	-9.58853906612893E-07	-3.59017207759508E-06	0.99161414061065	-0.126423660745766
5.4	-0.856332064905762	0.501748824018973	3.06721153386683E-06	-2.01590441375322E-06	-1.13276813661797E-05	2.19271095803009E-06	0.991623471477496	-0.129137037648988
5.5	-0.786884097104174	0.605389077258346	-4.30855919987527E-07	-2.19779002439045E-06	-5.80090872873688E-06	6.12868338687854E-06	0.991605337642123	-0.132040655946601
5.6	-0.704272166501951	0.699666056550665	2.37897783839333E-06	7.31692434544969E-06	-5.4065979160393E-07	2.933462684664E-06	0.991524142899128	-0.134772435202752
5.7	-0.61052036341471	0.782814002074504	-2.57679384147967E-06	2.36348239218068E-06	7.92257779003164E-06	2.78713499256972E-06	0.991292910735989	-0.137446695686132
5.8	-0.506910438317612	0.852742083899991	-4.65727057228475E-06	5.11010071848451E-06	-3.68164128377297E-07	3.4273863369362E-06	0.991017725891234	-0.1398308327275
5.9	-0.395801561612926	0.909138826476077	6.36481503250073E-06	1.50257966669773E-06	-2.71539783997686E-06	2.54921893933623E-06	0.990374763775818	-0.142208062361355
6	-0.279390239960228	0.95068525750943	3.52268233776264E-06	3.30385237271933E-06	-3.27292527666517E-07	-1.43499155233164E-06	0.989400253155396	-0.143164865290632
6.1	-0.159007313732798	0.97824223485522	9.18066588359737E-06	1.53853391112583E-06	-1.25059722967898E-07	-1.81007329685472E-06	0.990055629496396	-0.143734808863171
6.2	-0.0350752673906662	0.990739751862136	2.44507387454331E-06	-1.72795199473351E-06	1.48979305720672E-06	-4.84821591386897E-06	0.990329196812785	-0.145218374340227
6.3	0.0898065319743988	0.987567175183172	-4.37270747901707E-06	4.24438509891146E-06	-6.13439896478529E-07	-1.72853879158357E-06	0.990235640181422	-0.147510534311126
6.4	0.213201945203888	0.96844617596163	-4.27309060558836E-06	1.06600938652356E-06	-1.77598481056813E-06	8.8552914313879E-06	0.989802950171224	-0.150003006254928
6.5	0.333022165456448	0.934731955619735	2.45892812343742E-06	-1.33031507533592E-06	1.49457130242206E-06	-2.9337214379693E-06	0.989758139479724	-0.152685270669963
6.6	0.448495683135868	0.885783870325519	-4.74459969503865E-06	-2.26475987805342E-06	-1.86370754718E-06	-6.65774904537785E-06	0.98993712360638	-0.156025228248062
6.7	0.556191577234088	0.822099348715975	4.1729825514459E-06	-6.6097853092692E-07	-4.68755329004443E-06	1.01181921938464E-06	0.989517604370835	-0.158993727753171
6.8	0.654722345054328	0.745610985009777	3.76525725807705E-06	-2.08478893628753E-06	6.22796378108997E-06	-9.25829314908299E-07	0.988873174009175	-0.161644259272035
6.9	0.742621074233715	0.657500894140741	2.05294917268027E-06	1.64323685959835E-06	8.7990133857621E-06	-2.76624189462279E-06	0.988226366601992	-0.164005198932485
7	0.818487574786037	0.559233059326796	2.1790976782998E-06	4.10183836610434E-06	-8.98997720590335E-08	5.39175317680923E-06	0.987290959869866	-0.165625382115298
7.1	0.881651152584555	0.452857741518993	-1.32816694380273E-07	1.71976415568108E-06	8.26998651645742E-06	-4.65308650473177E-06	0.987037525649623	-0.16720131933108
7.2	0.931028040602966	0.338938813990167	4.85474227569387E-06	-1.39613126819444E-06	7.26805073010937E-06	3.78638543410469E-06	0.986525545247095	-0.169217102436981
7.3	0.965380355667824	0.219709033873984	4.86839918489807E-06	-1.11044682448176E-06	-7.35261850330148E-06	-7.39154235405038E-06	0.985492685362763	-0.171279937966634
7.4	0.984837815256946	0.0967142494664245	-1.84212210499471E-06	9.91173720550738E-06	1.43528805993287E-06	-4.07572371195431E-06	0.984461936748328	-0.173987604665034
7.5	0.988410090871257	-0.0280271889785764	8.41983172716675E-07	8.06942234509457E-07	1.67620704151678E-06	9.93417854914884E-07	0.982850019273037	-0.176831493567736
7.6	0.976568501812767	-0.151828290018138	1.45364896411969E-06	-2.61836916182154E-06	-5.42787537428777E-06	-3.62453607375188E-06	0.981910891605389	-0.179343418920034
7.7	0.949801192537156	-0.273606360926779	5.57842726765499E-06	2.4062264301601E-06	-6.82205344960191E-06	1.20623320634843E-05	0.981557552358754	-0.182386799641804
7.8	0.908188740387208	-0.391345256052559	-6.17359092399824E-07	-5.24704449281057E-06	3.73449685932504E-06	-4.74385557853455E-06	0.981444863664152	-0.185655575547342
7.9	0.851588607675692	-0.503105041702008	8.86209062511992E-06	1.52234822673831E-06	-9.55296173194847E-06	-8.63753211865259E-06	0.980984682792788	-0.189137573722188
8	0.781094349848192	-0.6062978457679	-6.66189037702538E-06	-1.62382095455025E-06	-1.20118295010992E-05	2.51015720672121E-06	0.979930939119226	-0.19186148502299
8.1	0.698685343011556	-0.699711384096221	5.07921842808031E-06	7.27065501185132E-07	2.89537353733819E-06	2.26067928485234E-06	0.97958179042135	-0.194217453811505
8.2	0.604975477782102	-0.781900068771085	3.56366742407648E-06	-2.58022847964463E-06	-3.69492901201807E-06	-1.16177453879712E-05	0.979180242828968	-0.196792624606051
8.3	0.501522010045293	-0.851420562066654	2.72641319992881E-06	-1.86168105956929E-06	1.64517332334532E-06	5.29199383052923E-06	0.978332663249718	-0.199585218838679
8.4	0.39030009090875	-0.90721147437602	-5.5546885200942E-06	-1.01255863652096E-06	1.05931540337181E-06	2.95025681321934E-06	0.977269904943429	-0.202263214774227
8.5	0.272487266577544	-0.948846124849211	-3.28719640895549E-06	1.62901440285822E-06	-4.79909972479264E-06	-4.99794755387421E-06	0.976387262724173	-0.204852989314224
8.6	0.14983707841084	-0.975026527290373	-8.1389285474988E-06	1.39965670698318E-06	-4.35327632128573E-06	-6.85569640991042E-06	0.975828141734228	-0.20756922383367
8.7	0.024996560794873	-0.985371397917461	2.24185084252178E-07	-2.15122388213982E-07	6.11954391801405E-06	4.96954895628479E-07	0.975142320533103	-0.210158774298369
8.8	-0.0999052066530353	-0.979727323205914	1.02041274866228E-06	-1.82037701034712E-06	-2.3933115975696E-06	-1.27497742492304E-06	0.974536606042241	-0.212344464476475
8.9	-0.222257682062965	-0.959205144643756	-2.94688829777964E-07	3.03508499991013E-06	-1.23724676475214E-06	-1.63864600090538E-06	0.97438644399376	-0.214297072916213
9	-0.340990301252111	-0.923597705645682	2.98050743354182E-06	1.58121460588648E-06	-1.57063654321896E-06	2.11785716180246E-06	0.974231432867674	-0.216574207243804
9.1	-0.453946509410412	-0.873059234976387	-9.30252544606519E-06	2.28543205634928E-06	-1.55789475254062E-06	2.4120141036648E-06	0.973953150199675	-0.218745771352418
9.2	-0.559521919343717	-0.809276543917817	7.49823941612694E-06	-2.48577379253061E-07	-9.09529070717265E-06	1.98527437937731E-06	0.973495645428834	-0.221428838753596
9.3	-0.656236411226731	-0.73343890865066	6.46627662750405E-08	-7.15601468450029E-06	1.58276110274348E-06	-1.3015531918292E-06	0.973025158922103	-0.224128147930055
9.4	-0.743170643171674	-0.646504501433254	6.02370207494994E-07	2.47980933890538E-06	1.61000073997448E-06	-3.59602895904171E-06	0.972242634092423	-0.227340244351056
9.5	-0.819305062260307	-0.548488631994401	-2.85784521257625E-06	6.64360021332147E-06	4.71749142085403E-06	-1.37519818062494E-06	0.971046494530924	-0.230443390264308
9.6	-0.882101495524941	-0.440484815798085	-5.02842599619597E-06	-5.19072183538819E-06	4.76130726589731E-06	2.87081526844588E-06	0.969950300100019	-0.233404900553222
9.7	-0.930529507916654	-0.325051221958396	-2.00890388946714E-06	-5.06564149521007E-06	2.09504031034335E-06	6.65776973748116E-09	0.969019949063271	-0.235953900649248
9.8	-0.96395776541215	-0.204077635370628	5.84107029171577E-07	-4.2823176074742E-06	-2.94322478218419E-06	-2.50958800453603E-06	0.968408097161381	-0.238009988394495
9.9	-0.981216512194848	-0.0801022903046979	-6.09640189339183E-06	4.21728128889662E-06	-3.07637933211147E-06	1.66973572581734E-06	0.967651308288756	-0.239982379724482
10	-0.983498790054139	0.0436979968531469	3.56487880347922E-06	-4.88524376563985E-08	8.23529361318427E-06	1.1064546016568E-05	0.966694791790128	-0.241380059403402
10.1	-0.970553044673575	0.167474928465594	-2.85633102326612E-06	-2.51378867158815E-06	-2.00923662373298E-06	-2.49020580932359E-06	0.966090647624917	-0.242787623876343
10.2	-0.941811193034033	0.28906942750018	2.35136693670612E-06	-1.02251386981476E-06	-2.76499285343049E-06	-1.06121188786755E-06	0.965479774296965	-0.244161713792247
10.3	-0.897689023784239	0.405880041015782	7.7403074183313E-06	-5.95095455333393E-06	3.8646405454537E-06	8.21340839869593E-06	0.9646407251724	-0.24581200199084
10.4	-0.839819302146895	0.515492360002171	1.70343052300468E-06	2.4825996076258E-07	6.26526914079309E-06	-1.19283449502275E-06	0.963649079104709	-0.24759244403341
10.5	-0.769983190679118	0.617396699707792	8.33641637877073E-06	-4.14457051328347E-06	-4.91914780385857E-07	1.97070250809475E-06	0.963155650300373	-0.249740911264786
10.6	-0.687040979398619	0.710348644804314	8.92688991956026E-06	-1.28135738096846E-06	-1.45575796883066E-06	1.36323846397739E-05	0.962598984798529	-0.252506480649053
10.7	-0.592268110208247	0.791217574849829	8.00420295212172E-06	-1.91484358799602E-06	-3.0594061444617E-06	-5.26997008440149E-06	0.96173347872552	-0.255254692783211
10.8	-0.487608718045305	0.859464223498422	2.45656428462277E-06	5.23537106126921E-06	-3.62271319238414E-06	-1.98334545774058E-07	0.960864330072075	-0.257410254138038
10.9	-0.374661192151455	0.913586395810095	-5.54774453809446E-06	4.93957930800989E-07	1.60108367059651E-06	4.01838656913621E-06	0.960479961601974	-0.259197702516993
11	-0.257317883890926	0.953098576322888	-3.82909030933681E-09	-5.21083193680488E-06	-8.35942581947293E-06	2.23818547909744E-06	0.959759093155784	-0.261081119791184
11.1	-0.135415504224393	0.978905019836356	6.30018904418819E-06	4.07397757241152E-06	-1.88885579069181E-06	1.07380542679536E-05	0.958605991076485	-0.262672581386941
11.2	-0.0109268048558617	0.988650830820262	1.57598586466697E-06	1.35103060062945E-06	5.13159390051222E-06	8.87948385812614E-06	0.957257004780157	-0.26403382225391
11.3	0.113929310461944	0.981831466045353	-4.61734605651751E-07	-1.73335838961793E-06	-6.98339128176273E-07	-4.38547063972463E-06	0.956378069731596	-0.265176343689856
11.4	0.236684416364538	0.959536347120983	2.23227847426089E-07	1.18357773422859E-05	2.41763894866163E-06	4.91908761223492E-06	0.955536840832146	-0.267071994655236
11.5	0.355498230580059	0.922093407025493	6.1828988961577E-06	-3.2583572325269E-07	3.15572574294112E-07	-1.87854252351913E-06	0.954593219402621	-0.269489789922433
11.6	0.467591905590101	0.870459362592218	-5.98820896768462E-06	3.06736235486391E-06	-4.85660383289392E-06	1.91280975689413E-06	0.953354448931312	-0.272469438910976
11.7	0.572353066041812	0.805562823359442	3.31748434668963E-06	-1.79064784789233E-06	-1.70193319768271E-06	2.23061868974656E-06	0.952280155551622	-0.275423159615349
11.8	0.668054240514561	0.72735638895537	-8.22991589357258E-07	9.76468613560733E-06	-2.71323065744588E-06	1.05060424814939E-05	0.951585178631456	-0.278332131460138
11.9	0.751863838130966	0.637060063112822	-7.2720143573782E-06	-1.03931265369874E-06	-3.90686772917564E-06	1.12104298031491E-05	0.95176975910061	-0.280534747393824
12	0.822659395113867	0.538563013611454	-6.44279516071915E-07	1.37647444615028E-06	-3.12350430961704E-06	-1.922911412761E-06	0.951656939190032	-0.283134064500737
12.1	0.883183010478753	0.433214357195761	-3.87662985690517E-06	4.96589921013639E-06	-1.35073743366108E-06	8.3881577520616E-06	0.951451350543933	-0.2857544009658
12.2	0.930304976878559	0.319771031741374	-5.67655087138598E-07	-3.78962174147227E-06	-3.10457163683143E-06	-7.35370505548735E-07	0.950791539164299	-0.288990776446506
12.3	0.962711016996474	0.201669893643162	3.58055026176878E-06	3.43139170765694E-06	-3.44005854247097E-06	6.24366790642009E-06	0.949590561181305	-0.29210739277275
