# GHZ S RI R 50
0.2	-0.969146850890771	0.249757592031678	8.83514907965207E-06	5.35334674719696E-06	1.14575462755609E-06	-2.89492336490656E-06	1.00227920656747	-0.00529805220243752
0.3	-0.931183432240965	0.369720503386971	-7.68782899454523E-06	-8.41734605986194E-07	-2.39970918095244E-08	3.67266708248459E-06	1.00292647487166	-0.00803474115339102
0.4	-0.878291473251568	0.484543481275049	-2.22806033247026E-06	6.36610729680405E-06	2.9183143455054E-06	5.77466608239262E-06	1.00435715786179	-0.0104853353924759
0.5	-0.810212471399902	0.593761604904325	-2.66767542901441E-06	5.51013437948093E-07	1.05898992455271E-05	4.9255045490231E-06	1.00564177525714	-0.0162825717978899
0.6	-0.727484879108381	0.690373237259413	-1.73406760528247E-06	-1.83936495460291E-08	4.18462481192049E-06	-1.03887174346563E-05	1.00317513520428	-0.0195520518267037
0.7	-0.635422241503816	0.776472754822796	-2.05868001530398E-06	9.9197093257601E-07	3.79476564352648E-06	1.12225992491034E-05	1.00297917694064	-0.0213285870530307
0.8	-0.532762160017537	0.851058729137983	-5.64164511203924E-06	3.79943932340813E-06	-3.18469930065864E-06	-2.15433171834788E-06	1.00328630168011	-0.0230927237777987
0.9	-0.421430552642689	0.911899981910592	-6.78292243106129E-07	5.28129684443755E-06	3.2864534073354E-06	-2.93063145696314E-07	1.00363781372927	-0.0246235512982678
1	-0.302840137918754	0.958349666989011	1.58115611324195E-05	-3.68083990577714E-06	-9.67186348091956E-06	5.10313851187365E-07	1.00642139554339	-0.0254864572233901
1.1	-0.179865747202761	0.989290021010874	1.35576234502944E-06	-3.009232277708E-06	9.47838116685815E-06	1.27175331194341E-05	1.00681076267025	-0.0306578739683369
1.2	-0.052890276343441	1.00430680184337	-7.98343024785529E-06	-3.28242253491448E-06	-3.12966760897353E-06	-4.517044016804E-06	1.00536471626839	-0.0322752004042166
1.3	0.0755266619930426	1.00263113132298	1.87762122319919E-07	3.36298615805997E-06	1.94681316931095E-06	3.39654470998038E-07	1.00486925061962	-0.0340356226910358
1.4	0.201962984895973	0.983985173869146	3.65951230344932E-08	3.79535484700611E-06	-2.56717376960381E-06	-5.64725026938458E-06	1.00324577886383	-0.0364010794478194
1.5	0.325332901286776	0.950460086125279	3.20911137271372E-06	-2.81738224382385E-07	2.73060228749351E-06	2.09870720851851E-06	1.0047991417047	-0.0400258642295854
1.6	0.44241792054425	0.90058512049014	1.78846046335192E-06	-1.96150078250693E-06	-9.16158866701875E-07	-3.07815214661693E-06	1.00325324409173	-0.0448170166626507
1.7	0.551499953972473	0.837425336966147	-1.042235382291E-07	-3.54496097228188E-06	2.04238951226121E-06	4.94485855454904E-06	1.00361124580643	-0.0468791892124755
1.8	0.651595644046264	0.761584676062511	-2.07720722395619E-06	-1.81413031272828E-06	-4.57804914829095E-06	1.84393659002046E-05	1.00356723312364	-0.0492399802555776
1.9	0.740507126312643	0.675436649832215	-4.41499209421093E-06	-1.46364830925549E-06	-4.96428778051059E-06	-6.02082492156492E-06	1.00407932009222	-0.0491675380784844
2	0.82368339232617	0.580591852478893	-9.57707917470666E-08	-6.81534096568167E-07	-1.68645918085216E-06	-1.43348294346719E-06	1.01114498198925	-0.0522661376663167
2.1	0.892164440691572	0.465812211323387	-1.08915367963595E-06	9.57155782408502E-06	2.01620605841965E-06	-3.9881351954138E-07	1.00957203032122	-0.0624591497471092
2.2	0.940860126046966	0.34848160411721	-7.41181878710915E-08	-5.98588417375744E-06	-7.20243633175006E-07	2.76980842830438E-06	1.00626823216531	-0.0657182138135891
2.3	0.975540348547856	0.227403969461931	-1.30137846001184E-06	2.80102053235687E-06	-1.64396661498829E-07	1.20763342234104E-05	1.00449324275105	-0.0675258764493529
2.4	0.995417058145976	0.102487414607789	-5.95545758278273E-06	-3.67659249365858E-06	-1.75803804662335E-05	1.48157886901752E-05	1.00352586466154	-0.0702735096106942
2.5	1.00076828592902	-0.0235909288000621	1.79661909494447E-06	-2.99613136471919E-06	-1.72043230616102E-06	7.60283966918837E-06	1.00375337254853	-0.0724661762445227
2.6	0.989166891400318	-0.148585416320508	2.88374498268678E-06	9.01766396119959E-07	-1.72554851690592E-06	4.53885161857168E-06	1.00328729293358	-0.0763600673548585
2.7	0.962620846396951	-0.271779699514904	3.93352210188536E-06	1.04876806408834E-05	2.37003657087636E-06	3.87672963167514E-06	1.00286676452508	-0.0800408340632586
2.8	0.920115705545999	-0.391529955181439	-8.41890479864366E-07	-2.30311404547567E-06	2.03057613807442E-07	-1.90493158236452E-06	1.00249579046815	-0.0832997672366333
2.9	0.862531616024925	-0.503941807240873	3.70209184176991E-06	-8.42383086749122E-06	-1.44443307046391E-06	-1.43205051277339E-05	1.00110188656717	-0.0860226985774607
3	0.791787309643751	-0.608406639397402	7.08291873659812E-08	6.69570926187887E-06	-1.4806541572765E-05	5.52525756392464E-06	1.00046400624006	-0.0888923633660551
3.1	0.708692199644882	-0.702653029910705	-4.90888683934045E-06	7.94500246110364E-06	5.84627992485684E-06	-1.66503142962821E-07	0.999340952873046	-0.0921449701578258
3.2	0.612191233619874	-0.785615223477491	9.98333456334778E-07	2.12205390312656E-06	-4.5776562121189E-06	5.51540415178186E-07	0.997682793188462	-0.0946540985812815
3.3	0.506366654044459	-0.854978189191787	6.97104013938418E-07	-1.47668494383233E-06	-4.58435696623083E-06	8.11516811691688E-07	0.99555245632705	-0.098609915624642
3.4	0.392458795649061	-0.907671558034107	6.47136743388487E-06	1.18323825895308E-07	-8.26185816944393E-06	-7.03116519575223E-06	0.99254032851961	-0.100306866028538
3.5	0.280943336765777	-0.946152353428382	-7.63933889337996E-06	2.05474926696414E-06	-5.9821115864292E-06	-7.86966850566043E-06	0.991957243764287	-0.0995418545000155
3.6	0.158174233276866	-0.979160014387846	-9.08702882996913E-07	-4.36858317767435E-06	-7.88727420254766E-06	-6.23472847602162E-06	0.993048466072948	-0.103621161413261
3.7	0.0304412366156661	-0.990086495973606	-6.80228639015072E-06	-6.66982225243301E-06	4.61399242476683E-07	-4.76632298842797E-06	0.990780433668338	-0.107117259985817
3.8	-0.0952847473438731	-0.983507839004403	-3.61883509420875E-06	1.13134469401371E-06	-3.32259145629933E-06	-2.41272230000034E-06	0.988204161491797	-0.108081213835691
3.9	-0.216595536594801	-0.961981296051789	-4.34416172585345E-07	3.50255617179532E-06	2.03173704161546E-06	-1.24094052129265E-06	0.987516460407082	-0.107579164615813
4	-0.335262217069414	-0.928838077641171	1.17915952398643E-05	7.95809018491708E-06	7.21058365386133E-06	-4.14097766857208E-06	0.993868259237387	-0.108624439481601
4.1	-0.450913961395437	-0.87819186389236	5.22417695557753E-06	1.22932205099364E-06	-3.33238728268751E-06	6.69078023362103E-06	0.991363028477324	-0.117004920155002
4.2	-0.556766832616365	-0.813651582907094	-7.07739887702284E-06	-1.07815428303994E-06	-8.21971572413203E-06	9.44541239958972E-08	0.987218586409854	-0.119475148531005
4.3	-0.653561620379608	-0.736746072580472	6.60861238708346E-07	-2.36251992475424E-06	5.19058736865929E-06	7.93722587084961E-07	0.985391370355596	-0.120572188772827
4.4	-0.740484944615654	-0.648638787865228	4.41472970645772E-06	-1.82696698128328E-06	-8.42329833086417E-07	1.34972449868304E-06	0.984275219093858	-0.122097173585793
4.5	-0.816277775016118	-0.548929583622775	6.76124463770626E-06	1.74505217390306E-06	-8.49947868015674E-07	-3.21889641223375E-06	0.983614378367104	-0.125627760697441
4.6	-0.877524384477952	-0.441484457389361	2.47423169707059E-06	2.88417897504724E-06	-6.37443647139549E-06	9.74364929094819E-06	0.979689453210398	-0.127685113972612
4.7	-0.92581105567426	-0.326713088101827	-1.38165846127569E-05	6.0449192651985E-06	-3.42484497971119E-06	1.33435765428002E-08	0.978411998211017	-0.128010339460927
4.8	-0.959474304122326	-0.206510219742653	-3.1949856959422E-06	-5.04256634107478E-06	-5.4300182865238E-06	2.41287179853925E-06	0.977191350541567	-0.129475324877213
4.9	-0.97667289265377	-0.0812891427241191	-1.1322220564348E-06	-8.43368056767644E-06	-4.15935110679228E-06	7.91924394855738E-07	0.975560060933902	-0.130304890652768
5	-0.970871602033686	0.0414322905337539	7.40052607170656E-06	-1.65056994335407E-06	-1.76109789289664E-06	-2.65089189756784E-06	0.974344326750343	-0.13046138243836
5.1	-0.959372337647698	0.156998917506084	-2.61791882470821E-06	-6.25668705631967E-06	-1.01011234977303E-06	-1.90906759612544E-06	0.973449951513463	-0.130611847969267
5.2	-0.933877608606544	0.276343860785432	3.92476849996641E-06	-4.63901759260934E-07	-5.29009206195218E-06	6.24665667924482E-06	0.972444228320644	-0.131377036352108
5.3	-0.891610045074822	0.391047073353779	5.09498519585726E-06	5.8575543531461E-06	-9.71984022120764E-07	-3.51376957010963E-06	0.971503066305703	-0.132437881231934
5.4	-0.835311336004317	0.498227112100959	2.9887520811219E-06	-1.99737352772026E-06	-1.10774246241876E-05	2.23266346677115E-06	0.969772146479052	-0.133530837156688
5.5	-0.767564723010785	0.596719509728746	-4.30208650511653E-07	-2.14971056176317E-06	-5.65480771884831E-06	6.02154391157286E-06	0.97051874873909	-0.131954591883774
5.6	-0.687833296520786	0.688201523963949	2.35626252306888E-06	7.16577837348782E-06	-5.2048341636616E-07	2.87774758373448E-06	0.971997828324959	-0.135411983522301
5.7	-0.596520514778747	0.768729203812647	-2.51796137446017E-06	2.32248832125477E-06	7.76917175569696E-06	2.70883312489906E-06	0.970194491129184	-0.13716844387214
5.8	-0.496111326765356	0.835698165394358	-4.55301660989112E-06	5.00432942724624E-06	-3.57383783233465E-07	3.35413073630963E-06	0.968815279093567	-0.136792190725822
5.9	-0.39085005736113	0.889964451775569	6.22177854484078E-06	1.49439025075974E-06	-2.66651849001314E-06	2.48388492438222E-06	0.969409556431182	-0.133392803696651
6	-0.279080004327432	0.936809165231849	3.45484948141776E-06	3.28096667171122E-06	-3.14050679108454E-07	-1.4176522706108E-06	0.979314716051186	-0.134454931254887
6.1	-0.156296606871115	0.963672356540453	9.05803750082039E-06	1.51909515951981E-06	-1.23178519593341E-07	-1.78594617186331E-06	0.977564043213871	-0.143175431061302
6.2	-0.0353244824478654	0.974064860720037	2.40785625803019E-06	-1.70044656582544E-06	1.4683620673563E-06	-4.77280521769466E-06	0.9746002130463	-0.143976449255786
6.3	0.0852337384060809	0.971104327937404	-4.31194775002993E-06	4.16981437956098E-06	-6.00648711421454E-07	-1.70256595584344E-06	0.973640520769372	-0.144498145868549
6.4	0.205720031074448	0.956433962572878	-4.21857271304374E-06	1.04091117796924E-06	-1.7746347109235E-06	8.73221736013359E-06	0.974768653930253	-0.14505157018355
6.5	0.332057272349682	0.921535964702052	2.41817774982892E-06	-1.32070420895108E-06	1.46148858043903E-06	-2.8971591956611E-06	0.975056525552077	-0.152721255165711
6.6	0.438885222094001	0.865901583134118	-4.63810496748914E-06	-2.2124551869231E-06	-1.82333236091694E-06	-6.50703965698065E-06	0.96785572653763	-0.152529773137154
6.7	0.539716200134981	0.806189669319056	4.07946702240058E-06	-6.25804787645602E-07	-4.58378836805258E-06	9.66069394522575E-07	0.967680879632003	-0.150114501424037
6.8	0.63457568798344	0.734060490599979	3.6951438419113E-06	-2.00759777209238E-06	6.09231756525191E-06	-8.56016528299587E-07	0.968138428286321	-0.149778002082581
6.9	0.719740223799518	0.651185511708211	1.98750017336832E-06	1.62826708961517E-06	8.62746607529529E-06	-2.60490257533093E-06	0.96881829338323	-0.1487019936735
7	0.79674529590815	0.558815668853068	2.07589182722372E-06	4.05709690052764E-06	-1.69632601573329E-07	5.28832181149752E-06	0.973289360902845	-0.149770316654024
7.1	0.860316201691097	0.454143199995378	-1.52184106647004E-07	1.68995223681074E-06	8.19291053818173E-06	-4.47333938787637E-06	0.971727113577874	-0.154445877663755
7.2	0.908939150016551	0.343503678679887	4.78844711398394E-06	-1.31496979544369E-06	7.09937572637554E-06	3.80767888455232E-06	0.969472763310829	-0.155327364286884
7.3	0.942608126851059	0.227485043252482	4.79161437510579E-06	-1.03584010217886E-06	-7.13556223803949E-06	-7.33812996134986E-06	0.966688371394401	-0.156110610252044
7.4	0.958467172366618	0.109945322588567	-1.90928980316405E-06	9.65316966535051E-06	1.4466411700653E-06	-3.96178394468005E-06	0.96110336726954	-0.154285471323114
7.5	0.966732728536825	0.000180198080376873	7.99396196759886E-07	8.04398423694515E-07	1.6059495066179E-06	1.00544084646335E-06	0.964813146010282	-0.144629809529939
7.6	0.966171596362646	-0.123413812311577	1.49742370280499E-06	-2.52933811463285E-06	-5.22668593218561E-06	-3.70373285431763E-06	0.972133093721231	-0.150230355189184
7.7	0.943651377933915	-0.244515845880705	5.42013082962272E-06	2.5169311090601E-06	-7.0343817426063E-06	1.16762469926278E-05	0.972399576522847	-0.153967878729242
7.8	0.907270792688911	-0.360106848667107	-4.55358852223827E-07	-5.18479884309935E-06	3.8153522092522E-06	-4.56276495743353E-06	0.973417029556899	-0.155441055035607
7.9	0.859926246818917	-0.468821659643186	8.70507723582906E-06	1.80787944125913E-06	-9.14406234101263E-06	-8.86252957357236E-06	0.977095995325108	-0.154004128538522
8	0.805749805172954	-0.582788148303997	-6.62660141254857E-06	-1.86115339604247E-06	-1.21376954838829E-05	2.0996139981283E-06	0.990678682516214	-0.160188728934133
8.1	0.717089594534186	-0.688423674511028	5.09003010286906E-06	8.47667417909696E-07	2.85913110570737E-06	2.33942761098084E-06	0.987906163907145	-0.173747874676039
8.2	0.621359808365278	-0.771014177339519	3.6273147232002E-06	-2.51428840259272E-06	-3.46615040590195E-06	-1.17279635699705E-05	0.984579089671489	-0.176489252078221
8.3	0.518827720684819	-0.841856713284095	2.77137933203953E-06	-1.81263169312654E-06	1.54431858680993E-06	5.34000410649335E-06	0.983975604886646	-0.178649314440851
8.4	0.408863918470409	-0.898747376582761	-5.55214180402107E-06	-1.11639963799647E-06	1.00872128212012E-06	2.97793008775197E-06	0.984669393197527	-0.181133813139642
8.5	0.296133599259354	-0.943254460903656	-3.31572552894957E-06	1.56480204937753E-06	-4.69960217188948E-06	-5.08576268473986E-06	0.985194929232006	-0.186410431665374
8.6	0.173369850457869	-0.977321685668192	-8.18876896978257E-06	1.21142398562521E-06	-4.2013393011687E-06	-6.9722302004221E-06	0.982997290016461	-0.188856550918152
8.7	0.0460026423973955	-0.992319366904489	2.30521971464023E-07	-2.11119491861469E-07	6.14337541067477E-06	6.43136497430817E-07	0.983456585340248	-0.190338207504317
8.8	-0.0824935649811898	-0.990650541005318	1.07028708727885E-06	-1.81400818115242E-06	-2.38642595751535E-06	-1.33994798538309E-06	0.984457945716433	-0.192315960837671
8.9	-0.211386593595703	-0.970445222161902	-3.54466138744005E-07	3.06622660648622E-06	-1.22181173367038E-06	-1.68132615053743E-06	0.985831584463067	-0.194370373078356
9	-0.326893373593555	-0.92800612949027	2.97951611834316E-06	1.63654560965888E-06	-1.61327304786595E-06	2.11061447086098E-06	0.9876704748463	-0.196435012764787
9.1	-0.436641491645342	-0.885511614243229	-9.4154412431693E-06	2.1311331891363E-06	-1.61425491736337E-06	2.40160464759569E-06	0.990004999667419	-0.199807422700327
9.2	-0.545565681050868	-0.825928337440729	7.57390345906722E-06	-1.14521404745619E-07	-9.21770272180716E-06	1.8386408865686E-06	0.991269177343758	-0.204547445755387
9.3	-0.645478437799719	-0.752525878689071	1.90451646197269E-07	-7.22550965210894E-06	1.6211447762296E-06	-1.28671806966188E-06	0.990936086552109	-0.209631029025908
9.4	-0.733369104694754	-0.665646919166239	5.63264575698595E-07	2.50990544685391E-06	1.68618710990089E-06	-3.59577651322022E-06	0.988042670019952	-0.212828626468974
9.5	-0.80899737485162	-0.580125655599752	-3.05867715891107E-06	6.63130972679889E-06	4.79789618508659E-06	-1.26463457179492E-06	0.989819295807053	-0.212182994927401
9.6	-0.889301744580663	-0.474347730403007	-4.99715182664836E-06	-5.40665678543607E-06	4.78054544056753E-06	3.03756530958449E-06	0.991896074094169	-0.219159763840901
9.7	-0.945535406890945	-0.352740972403268	-1.94670817174719E-06	-5.20810468336632E-06	2.13700342034528E-06	4.92093178056288E-08	0.990322253504101	-0.223346606402639
9.8	-0.983748738111536	-0.226754414145781	6.77202206679019E-07	-4.35990894939043E-06	-2.95667548519949E-06	-2.61720862883199E-06	0.98923053339797	-0.224773418829879
9.9	-1.00485950680438	-0.097196883831131	-6.31760440742926E-06	4.19230664811141E-06	-3.17895103769861E-06	1.64676226355814E-06	0.991214501018407	-0.222183330976027
10	-1.00810254172353	0.03108204411336	3.66956377815656E-06	9.71194726054889E-09	8.28904155419904E-06	1.15254908166737E-05	1.00363563180439	-0.22944762138553
10.1	-0.99842488141723	0.158410906725959	-2.90821792278763E-06	-2.61624280880395E-06	-2.0376470516176E-06	-2.58250808236598E-06	0.997052686479899	-0.241578826688961
10.2	-0.972360639269769	0.285707219783595	2.42640142573596E-06	-1.02658763877142E-06	-2.83010849820149E-06	-1.11860199596588E-06	0.992751681603444	-0.242637637056972
10.3	-0.930459237200868	0.409163320492536	8.01941467029102E-06	-6.04939548827233E-06	3.89851649638017E-06	8.48646955577225E-06	0.991662350469978	-0.243718046515529
10.4	-0.874581655749118	0.529635769777388	1.75707675352948E-06	2.68172040855551E-07	6.47722191095163E-06	-1.18805350999892E-06	0.99280212515692	-0.245753603910867
10.5	-0.792827564672285	0.645126220809159	8.59072543336783E-06	-4.29501717925841E-06	-5.0293427050365E-07	2.03421941421296E-06	0.993098660530588	-0.253552698045277
10.6	-0.700247696577752	0.734368020184303	9.15217441862177E-06	-1.33172657673766E-06	-1.46592880798212E-06	1.3983173979888E-05	0.98953035462503	-0.256224427757002
10.7	-0.602632651998428	0.815003198330288	8.20795573626617E-06	-1.97301472245781E-06	-3.14397192094163E-06	-5.4021171816368E-06	0.990044037744524	-0.260223441356352
10.8	-0.4945778157937	0.885045505241259	2.53635365539852E-06	5.36806087748093E-06	-3.71973883740921E-06	-1.93676366260284E-07	0.989088975527467	-0.265456797194157
10.9	-0.374311488669942	0.940991732388578	-5.68623382660181E-06	5.40704795220219E-07	1.66666168467384E-06	4.11104596125659E-06	0.987715163645292	-0.2695349233435
11	-0.250948459660583	0.971999978465108	-2.88512503218665E-08	-5.3246510861563E-06	-8.53133674074456E-06	2.32708893782913E-06	0.987106644423438	-0.273965396490653
11.1	-0.133311101310665	0.998669319811312	6.4803851801157E-06	4.14896099476358E-06	-1.88727759793579E-06	1.10216796570812E-05	0.983402886478019	-0.279296295788013
11.2	-0.00495269469908462	1.01088661797212	1.6288416468459E-06	1.37385633106754E-06	5.34054445180077E-06	9.07248422370538E-06	0.979214843229898	-0.282599028164217
11.3	0.125248276405227	1.00423526157873	-4.94203506027328E-07	-1.77218361851872E-06	-7.68470422624951E-07	-4.48930066329604E-06	0.973990302780029	-0.284496090909457
11.4	0.252341068471753	0.979867296313902	4.11448395390957E-07	1.20917525550212E-05	2.54682515593655E-06	4.98946348547795E-06	0.967521392072475	-0.2844844843689
11.5	0.374772571438252	0.939224815460307	6.29141768270554E-06	-4.02398324724011E-07	2.99836607242195E-07	-1.91625065310852E-06	0.971566430645763	-0.280764452649927
11.6	0.489499759369553	0.882995130064867	-6.08114814649663E-06	3.20648189920461E-06	-4.93893980484281E-06	2.0131518162294E-06	0.972337552157928	-0.290569899177993
11.7	0.59526009347549	0.813985978285959	3.36049723395978E-06	-1.87781752135776E-06	-1.70441395010889E-06	2.30292051006238E-06	0.967421216847676	-0.295457403297149
11.8	0.690199137802328	0.732297886975523	-6.85890739383639E-07	9.95900738752264E-06	-2.59968969733497E-06	1.07436425718469E-05	0.963672655432636	-0.296667509667364
11.9	0.773092923165075	0.643819210726713	-7.41662852054285E-06	-9.75064975163705E-07	-3.84988696691786E-06	1.14597380695138E-05	0.966252626375395	-0.292754194976149
12	0.857531841434588	0.545384201195687	-6.4585583918896E-07	1.42623177015651E-06	-3.24237795668486E-06	-1.94035795713039E-06	0.979996164624075	-0.302875452726007
12.1	0.917961001291919	0.423241649540111	-3.86180533690013E-06	5.18760276920202E-06	-1.18904437606436E-06	8.64045532691773E-06	0.971130257658008	-0.316082807060895
12.2	0.95972070337842	0.303200926690054	-6.75415099090663E-07	-3.86283692535278E-06	-3.19453925177068E-06	-6.74774005064639E-07	0.965579424270059	-0.319918403637773
12.3	0.98852555444539	0.180721089355234	3.75411017292061E-06	3.41336632665952E-06	-3.35075566548941E-06	6.47805245633817E-06	0.962018614462697	-0.323715165127263
