# GHZ S RI R 50
0.2	-0.965711902676298	0.251697029376924	8.82103597284684E-06	5.31669086172253E-06	1.13557331353327E-06	-2.88888364604262E-06	0.999203207932095	-0.00718627420839164
0.3	-0.926121625876474	0.3714993891586	-7.65868205729608E-06	-8.16786732078829E-07	-1.36282183485119E-08	3.65768545894347E-06	0.999025204463777	-0.0101345864329696
0.4	-0.871238764607561	0.485127282859349	-2.19539831937562E-06	6.33542787347749E-06	2.91883419844239E-06	5.73168224673276E-06	0.998819945668607	-0.0127907628077744
0.5	-0.802922603626342	0.590823107207496	-2.64673730144138E-06	5.4823293946846E-07	1.05107300795993E-05	4.88153033901879E-06	0.998576129020659	-0.0155502930935874
0.6	-0.721900278320111	0.687175166921777	-1.72426233997034E-06	-1.85244987354444E-08	4.16237576190783E-06	-1.03294227872724E-05	0.999111860998847	-0.01855405540245
0.7	-0.629411998403098	0.772580828833994	-2.04575521342802E-06	9.87723271515212E-07	3.78112910755181E-06	1.11534005194032E-05	0.998744468325686	-0.0218645507201971
0.8	-0.526885187988827	0.84567485820044	-5.60126320205588E-06	3.7796319864007E-06	-3.165777172207E-06	-2.13734924349889E-06	0.998362083564864	-0.0242349811362256
0.9	-0.41623708029589	0.905076260264254	-6.67522203646266E-07	5.24600810442739E-06	3.26366290873992E-06	-2.9487989368824E-07	0.998047477083817	-0.0268384735558687
1	-0.298543909773557	0.950095599638248	1.56660643341369E-05	-3.68610871491468E-06	-9.58695237252105E-06	5.2860770450164E-07	0.997085166147855	-0.0284455945193185
1.1	-0.177209900712093	0.979700271130557	1.34097420397829E-06	-2.97757592835959E-06	9.37989812339031E-06	1.25815387255693E-05	0.996739781787906	-0.0297520677368783
1.2	-0.0522567933085323	0.993862512927639	-7.89532869630982E-06	-3.25866409888192E-06	-3.09081574871475E-06	-4.47385626841185E-06	0.996236221345015	-0.0305576611619501
1.3	0.0733709144929074	0.992147774443507	1.75271188679519E-07	3.32945049292566E-06	1.92598831256105E-06	3.42335676524139E-07	0.996494715210684	-0.031176347946258
1.4	0.197457512296813	0.974741221353842	1.78303916104833E-08	3.76285207896837E-06	-2.51761672556862E-06	-5.61110279740841E-06	0.996742882381256	-0.0330565309487368
1.5	0.318431205128508	0.942154337868027	3.18401001465942E-06	-2.62195661938573E-07	2.69670584836617E-06	2.095944027023E-06	0.997584549201788	-0.0365284642301551
1.6	0.434290154094561	0.894994791946844	1.78923402651778E-06	-1.93585238933594E-06	-8.89095177681516E-07	-3.06294001343309E-06	0.997666258662531	-0.040139065292537
1.7	0.54323326845839	0.833135995438592	-8.16432250529863E-08	-3.52390676696683E-06	1.99928036464966E-06	4.92723205316885E-06	0.998130736824835	-0.0430549557715385
1.8	0.643328267942962	0.758477300433556	-2.0555100595674E-06	-1.81571809353912E-06	-4.65607754722613E-06	1.83114069737091E-05	0.997998758742853	-0.045993693100518
1.9	0.73327593333129	0.671811514764603	-4.38943012423551E-06	-1.46969297499984E-06	-4.92258252938378E-06	-6.00658823324981E-06	0.997839950101104	-0.0486498554148794
2	0.810981231337869	0.574054448631919	-9.46722578453664E-08	-6.73629490227371E-07	-1.66692861710839E-06	-1.41683088830318E-06	0.996387603032628	-0.0515911197923724
2.1	0.876207368556229	0.467677281670367	-1.14733676502912E-06	9.43545027772187E-06	1.9923092596454E-06	-3.78167151331571E-07	0.99623683704834	-0.0527974629964342
2.2	0.927915975966854	0.354282762247009	-1.67071717832765E-08	-5.92369773676356E-06	-7.38881859823165E-07	2.73389462488482E-06	0.996755411853003	-0.0551485953544295
2.3	0.96489519830578	0.235003252005792	-1.31710119174102E-06	2.76198115162444E-06	-2.82933983723273E-07	1.19621703137176E-05	0.996701236228981	-0.0571426186333818
2.4	0.986656693286764	0.111036217726005	-5.86353247499974E-06	-3.71197543272549E-06	-1.7596545429232E-05	1.44926302284107E-05	0.996769621271861	-0.0603864346298973
2.5	0.992709047248623	-0.0139205109343287	1.82286622241253E-06	-2.95983722795951E-06	-1.80135954609533E-06	7.54419755273419E-06	0.996444750871039	-0.0627053482122757
2.6	0.982842654469238	-0.137440437237976	2.86188391470322E-06	9.21598317562264E-07	-1.75524810851239E-06	4.50186395356953E-06	0.996530568826518	-0.0656935376615106
2.7	0.957471650938587	-0.259209295959867	3.81740747847812E-06	1.04463590605619E-05	2.32061649842711E-06	3.86915964149625E-06	0.996065878108479	-0.0687732537837826
2.8	0.917290861993054	-0.37690533881507	-8.12012614154902E-07	-2.29259034777792E-06	2.20382387479889E-07	-1.88726011073784E-06	0.996150624695557	-0.0707001175067935
2.9	0.863176299365309	-0.488410209510285	3.77083566349759E-06	-8.31070035496306E-06	-1.26373038783928E-06	-1.4219385776237E-05	0.995827677920281	-0.0726710311809647
3	0.795232663967232	-0.5930311294787	-1.80538983452594E-08	6.64599196419121E-06	-1.47674363147017E-05	5.28809341525019E-06	0.995648930259107	-0.0750288761193363
3.1	0.715571008962853	-0.686892425419153	-4.988312642643E-06	7.81361601953918E-06	5.80488066429609E-06	-7.97258230683322E-08	0.995395577171617	-0.0768942843477167
3.2	0.623347181610922	-0.771282400281957	9.56905436797093E-07	2.12562539610862E-06	-4.55871369027278E-06	4.72012531956035E-07	0.995181317479456	-0.0785420959252465
3.3	0.521684803173687	-0.843480478615266	7.21472866006499E-07	-1.45773486596236E-06	-4.58042482153398E-06	7.23593563128923E-07	0.995065105600584	-0.0816249185236761
3.4	0.411438295842682	-0.902535683756261	6.46924117977122E-06	2.48725842289888E-07	-8.1205103384127E-06	-7.19792094678946E-06	0.995421980322949	-0.0834681918170794
3.5	0.293583789192795	-0.94763466765438	-7.70720438217331E-06	1.95128205122763E-06	-5.89441582170813E-06	-7.9970144104177E-06	0.995673569046914	-0.0867484312148249
3.6	0.170946192066005	-0.975964419898837	-8.5243457557963E-07	-4.38354623299194E-06	-7.8116817821503E-06	-6.34194930393219E-06	0.995170014494091	-0.0894188404199112
3.7	0.0469500343557921	-0.990044635407355	-6.70907148873938E-06	-6.77975532611874E-06	5.33826668825564E-07	-4.7645680924445E-06	0.995067883824368	-0.0921621778648147
3.8	-0.0784314196335081	-0.988405672486014	-3.64662727424958E-06	1.07925797812353E-06	-3.29530503989857E-06	-2.47054404149609E-06	0.994736715005286	-0.0943664665339914
3.9	-0.202344672662914	-0.971235913817288	-4.82637666601852E-07	3.50975031321153E-06	2.05577819419257E-06	-1.2184991885243E-06	0.994695420504459	-0.0980057645257516
4	-0.324076628414503	-0.938269863346866	1.16759402634372E-05	8.12363050852453E-06	7.26770632614774E-06	-4.03768548260218E-06	0.993023460217666	-0.0995323586101387
4.1	-0.439613958510762	-0.889736352599993	5.21702748808543E-06	1.32889305118888E-06	-3.46510238959643E-06	6.64933924778513E-06	0.99302036990778	-0.0999812694454664
4.2	-0.547808142780167	-0.827739674818999	-7.10012963361282E-06	-1.20891623404146E-06	-8.26978734408575E-06	-4.94821069602697E-08	0.993153163362165	-0.102550590678337
4.3	-0.647503862802315	-0.752287714108385	7.04833535325529E-07	-2.36885978451858E-06	5.21542029773086E-06	8.85515682524573E-07	0.993319164457399	-0.104700784760839
4.4	-0.73690291771077	-0.664666333263791	4.47754489209413E-06	-1.7717009920098E-06	-8.70048272157738E-07	1.34691352940554E-06	0.992962186135581	-0.107189493898849
4.5	-0.814925261268312	-0.566719396818032	6.78878651092211E-06	1.87678587882347E-06	-8.01574878286887E-07	-3.26105353339835E-06	0.993067079211265	-0.108923899505384
4.6	-0.880652915463493	-0.459054034717313	2.45727939325447E-06	2.9581743897451E-06	-6.60665610595451E-06	9.756949021822E-06	0.993670611329408	-0.111951447505238
4.7	-0.931574797249383	-0.343002036760895	-1.40775338673709E-05	5.92194161752767E-06	-3.46813462245025E-06	-3.58277489169649E-08	0.993822733581122	-0.114652654833799
4.8	-0.96709035343272	-0.222207134996016	-3.16601546720882E-06	-5.15185796025449E-06	-5.53342556908115E-06	2.36845255237812E-06	0.993414482334803	-0.11755936097018
4.9	-0.986549096724906	-0.0989392218358547	-1.02115331667362E-06	-8.56548378265574E-06	-4.22785663603325E-06	7.40326617093388E-07	0.992960909920379	-0.11958579397859
5	-0.99222231491079	0.0251850169601166	7.56670399094394E-06	-1.57178687717544E-06	-1.75525575990679E-06	-2.72786230981117E-06	0.99281399447657	-0.121198777059788
5.1	-0.98066139396879	0.152076571043199	-2.6088804109375E-06	-6.40524478340005E-06	-1.01151581983419E-06	-1.95644262456711E-06	0.993055865272234	-0.122761222086774
5.2	-0.953243792908751	0.274038061625948	4.00333327088761E-06	-4.3900231667163E-07	-5.44427634739825E-06	6.31991461698723E-06	0.992810042651946	-0.125339069025714
5.3	-0.911596729783419	0.391438623968274	5.14854757281261E-06	6.01340516266521E-06	-9.63105171961612E-07	-3.59064883068431E-06	0.992332898256755	-0.127749111111628
5.4	-0.855856883590451	0.50287651088452	3.06666138844822E-06	-2.01986064109279E-06	-1.13308130227896E-05	2.2048703580854E-06	0.992349037220657	-0.130338766054898
5.5	-0.786276654287193	0.606802759701781	-4.3393086614008E-07	-2.19860250593574E-06	-5.79667642468375E-06	6.13989484781128E-06	0.992400603567491	-0.133572656874125
5.6	-0.70310683578695	0.701117189705438	2.39003622105463E-06	7.31557251149174E-06	-5.36640755040949E-07	2.93504456068867E-06	0.991997786262412	-0.136204509743647
5.7	-0.608956362396606	0.784018283759053	-2.57409366349382E-06	2.36744435348064E-06	7.92791929551893E-06	2.77693233236383E-06	0.991908179538121	-0.138845651713018
5.8	-0.505081487745462	0.853739002527328	-4.65125956720594E-06	5.11839836772283E-06	-3.63302044696746E-07	3.42895347742472E-06	0.991811897942835	-0.141526100851107
5.9	-0.393476670445959	0.910061302547909	6.37105627251965E-06	1.49027543071189E-06	-2.71151925677788E-06	2.5560523353096E-06	0.991184926292048	-0.144818919868075
6	-0.276270841109699	0.950495482697586	3.53041086559281E-06	3.29092629261659E-06	-3.31447594310862E-07	-1.433041911599E-06	0.98834666363604	-0.146638796626528
6.1	-0.156583335007136	0.977210073166527	9.17011913784249E-06	1.51540737211521E-06	-1.28964774123315E-07	-1.80702442910971E-06	0.988202594105921	-0.145826057654328
6.2	-0.0329567064062603	0.989421053132197	2.43747323951632E-06	-1.72985137436742E-06	1.47763505225293E-06	-4.84289444339472E-06	0.988447182323114	-0.146811778305373
6.3	0.0917266977846281	0.985915171560386	-4.35648957880497E-06	4.24379381924317E-06	-6.15310688863634E-07	-1.72402666917137E-06	0.98833435462973	-0.148690972700603
6.4	0.214969722335717	0.966069056441202	-4.2608298164292E-06	1.07028048115951E-06	-1.75730457052465E-06	8.83631824345393E-06	0.987816948055818	-0.151009563169626
6.5	0.332883039086785	0.931836635215012	2.45144902268549E-06	-1.32683701503156E-06	1.48964549331469E-06	-2.92534911948915E-06	0.987466689047254	-0.15258805037436
6.6	0.448147000421381	0.884424778370622	-4.73631208615855E-06	-2.26270023659488E-06	-1.85857452590839E-06	-6.64776077818339E-06	0.989058104640893	-0.15561778529468
6.7	0.556133642186148	0.820835691630708	4.16824514100704E-06	-6.60231739163295E-07	-4.68223148320841E-06	1.01067461127901E-06	0.988978363975606	-0.159190985237156
6.8	0.654613500663858	0.74439410166819	3.76131735944611E-06	-2.08360439084717E-06	6.22195813531274E-06	-9.26226505111153E-07	0.988302960460978	-0.162118119044548
6.9	0.742553977661907	0.656298765085472	2.05226206315335E-06	1.64105194969648E-06	8.79130706286972E-06	-2.76851229968322E-06	0.987632926493389	-0.164771314269025
7	0.818066572823564	0.557763914809502	2.18107767333003E-06	4.09501295802891E-06	-8.40541137302191E-08	5.38593026226803E-06	0.985967077140519	-0.166504459736016
7.1	0.880816306476013	0.451881198115318	-1.31650063155312E-07	1.71698024509888E-06	8.25368843217208E-06	-4.64990559743935E-06	0.985774959203267	-0.167215708391858
7.2	0.930189126989765	0.338428093224871	4.84688777064001E-06	-1.39376745702796E-06	7.256174327469E-06	3.78038287024401E-06	0.985734659754018	-0.168923879178318
7.3	0.9647477251376	0.219803780936544	4.86241331714866E-06	-1.10519990281563E-06	-7.33670533326313E-06	-7.38674880497335E-06	0.985287397384351	-0.170680767858002
7.4	0.985339897305286	0.0974088638024597	-1.86011242332875E-06	9.90542966004274E-06	1.44248978773658E-06	-4.07186337559259E-06	0.985649825852467	-0.173336026312164
7.5	0.990215236978345	-0.0291495749402186	8.43118359903242E-07	8.09429307016994E-07	1.67899793050284E-06	9.97033696179379E-07	0.984911904602169	-0.17846449625426
7.6	0.97711977025812	-0.153774393139416	1.45453561350356E-06	-2.623942077463E-06	-5.4398218212199E-06	-3.62745617988815E-06	0.982529277340835	-0.181531275025824
7.7	0.94972228336755	-0.275816254905299	5.59112842188886E-06	2.4028332527757E-06	-6.81746615913437E-06	1.20919669247072E-05	0.981697880317324	-0.184684116377712
7.8	0.907389122591141	-0.393677794092179	-6.29438143625937E-07	-5.25325705139813E-06	3.72973615185423E-06	-4.75862955759471E-06	0.981187725377047	-0.188029572374219
7.9	0.849894516873519	-0.505794186211642	8.87601231722452E-06	1.49518614679958E-06	-9.59063211845083E-06	-8.61535036688755E-06	0.980405928681753	-0.192072085407393
8	0.776467160621567	-0.608035385497269	-6.65925131302204E-06	-1.59101532155032E-06	-1.19822897104194E-05	2.56111329494765E-06	0.976874423969508	-0.195107482174292
8.1	0.694867294041414	-0.698331229967887	5.06580896553224E-06	7.12570956069017E-07	2.89220862961783E-06	2.24690147191241E-06	0.976240207796627	-0.194971170908542
8.2	0.602483016752568	-0.779781987929001	3.55010535415185E-06	-2.57784258772775E-06	-3.70042757269979E-06	-1.15799872542303E-05	0.976607978900205	-0.196798954754842
8.3	0.499965221401356	-0.849018929570757	2.71756089277029E-06	-1.85885906907034E-06	1.64500334198846E-06	5.27639819650999E-06	0.976234519806677	-0.199333929785966
8.4	0.389652858944164	-0.904872048595001	-5.54007299818422E-06	-1.00900926619963E-06	1.05695334191593E-06	2.94224777367896E-06	0.975398838314099	-0.201944954835749
8.5	0.27196664740399	-0.946967300505415	-3.28197643551165E-06	1.6247736509352E-06	-4.78849934578067E-06	-4.99094902705937E-06	0.974525798310859	-0.204082804676798
8.6	0.149551449266465	-0.972598839119674	-8.12577375682785E-06	1.39906631313506E-06	-4.34775736835426E-06	-6.84398236887694E-06	0.974648463128879	-0.20660752180725
8.7	0.0254195260910339	-0.982678116495728	2.23679895822293E-07	-2.14784318088909E-07	6.10792363411165E-06	4.93912748033864E-07	0.974267334802775	-0.209427879231493
8.8	-0.0985424013067806	-0.97681686843365	1.01733437877975E-06	-1.81629316472922E-06	-2.38792045949215E-06	-1.27109189833214E-06	0.973776358318212	-0.211852324318367
8.9	-0.219124714034411	-0.956550890966592	-2.94184325409168E-07	3.02506649963852E-06	-1.23293066289526E-06	-1.63345040840491E-06	0.973632053533068	-0.214100289578179
9	-0.337032065263523	-0.92356321753247	2.96895588965972E-06	1.58086927068932E-06	-1.56901755523741E-06	2.10897206685182E-06	0.973248088129109	-0.216821253404616
9.1	-0.451071651181899	-0.873933182596857	-9.28220141652589E-06	2.26445858345256E-06	-1.5577786307256E-06	2.40326046774554E-06	0.972314870791274	-0.219102098014264
9.2	-0.557295466578516	-0.810874774298521	7.4817469078627E-06	-2.32585938921898E-07	-9.0787498016854E-06	1.96205862829665E-06	0.971298096638883	-0.221340587895209
9.3	-0.654977037335219	-0.735390955621057	8.15405796057841E-08	-7.14437405198574E-06	1.58330903416009E-06	-1.29570789663191E-06	0.97074101175968	-0.223201571755494
9.4	-0.742926575094138	-0.648802065591472	5.9558827060677E-07	2.47987706567971E-06	1.61834149984285E-06	-3.58969798823318E-06	0.970671735185034	-0.2256571654795
9.5	-0.821078960579582	-0.549472574971891	-2.86727910295991E-06	6.64296038318712E-06	4.72123560739678E-06	-1.36997753439852E-06	0.970000324187649	-0.229374503283765
9.6	-0.882504471377888	-0.439787367896229	-5.0218447514255E-06	-5.19144355876635E-06	4.75655470477642E-06	2.87264726040348E-06	0.968673273964155	-0.231926128513594
9.7	-0.930142924674628	-0.324659506960185	-2.00214414074979E-06	-5.06443084822568E-06	2.09364249766599E-06	8.89752834230962E-09	0.968256205470636	-0.234134713589624
9.8	-0.963321249429445	-0.203969080052184	5.88819328785444E-07	-4.27983836864376E-06	-2.93907993715029E-06	-2.51193918993801E-06	0.968334943499248	-0.236232151639161
9.9	-0.980377830344759	-0.0803648626735351	-6.09855761444054E-06	4.21180857281105E-06	-3.07711300205265E-06	1.66705697229604E-06	0.968217861943096	-0.239190248881781
10	-0.983022358281731	0.0430389067170207	3.56107522318647E-06	-4.71101656035537E-08	8.22120855510149E-06	1.10565724339621E-05	0.965309962715577	-0.241208592117919
10.1	-0.970221458335116	0.167091340113632	-2.84985402963131E-06	-2.51516333709862E-06	-2.00367282051058E-06	-2.49042259334962E-06	0.965121562905285	-0.240637130762827
10.2	-0.941278754821403	0.28884668138419	2.35146451852157E-06	-1.01842589796761E-06	-2.76176371286559E-06	-1.06465878793643E-06	0.96564671693849	-0.24193783640637
10.3	-0.896630331146696	0.405722863122091	7.74440005735941E-06	-5.93808430096977E-06	3.85213795626927E-06	8.21456482229801E-06	0.965490568996748	-0.243901113756663
10.4	-0.837600591960852	0.514559073087752	1.70158207471902E-06	2.50004068419113E-07	6.2609080007628E-06	-1.18448963280947E-06	0.964792433106355	-0.246236768239604
10.5	-0.768717193017235	0.613679105374835	8.33627377268159E-06	-4.117960792719E-06	-4.96312438370313E-07	1.96691225194254E-06	0.964188234034838	-0.248228171862625
10.6	-0.688418379248695	0.706846693286625	8.93128866600975E-06	-1.25600839114432E-06	-1.49475351333884E-06	1.3629370842542E-05	0.964138664157534	-0.251730465716501
10.7	-0.594990929388514	0.788767488338454	8.01337684057212E-06	-1.89608655097498E-06	-3.04805265747941E-06	-5.2804634908499E-06	0.962621335038669	-0.254937638827611
10.8	-0.490437654444514	0.858313757541014	2.44602765264683E-06	5.24513184860305E-06	-3.62497546605791E-06	-2.07056854029629E-07	0.961619027743279	-0.256351353340492
10.9	-0.377920931792597	0.913041099493597	-5.55357582425886E-06	4.80332360868641E-07	1.5922411028766E-06	4.02575536219004E-06	0.961281037093737	-0.257938424900956
11	-0.261595573174234	0.954410077594299	8.6474240968828E-09	-5.21976365449259E-06	-8.37910152176303E-06	2.22199209512035E-06	0.960623503643144	-0.259793602872513
11.1	-0.138063567520278	0.981752177406926	6.3024644371808E-06	4.09164979250305E-06	-1.91122373548205E-06	1.07510982449845E-05	0.95974928618154	-0.261025280067584
11.2	-0.0125883414382096	0.991688933728773	1.57555688167668E-06	1.35600044354886E-06	5.12145059380361E-06	8.90194471050129E-06	0.958813819863081	-0.262236427936162
11.3	0.113019710650811	0.985039928631928	-4.58472441545775E-07	-1.7370276106501E-06	-6.89376934554975E-07	-4.39368083048807E-06	0.958545115643492	-0.263118534838372
11.4	0.236545365635862	0.962851458852312	1.89954331593099E-07	1.18600864271051E-05	2.40846011739484E-06	4.93581426139812E-06	0.958974597518171	-0.264996838676249
11.5	0.355973351133981	0.925354427775153	6.20355213130727E-06	-3.12959608119851E-07	3.20820324866621E-07	-1.88388382500446E-06	0.958353403612871	-0.26926494062827
11.6	0.468797323721754	0.873776015887431	-6.00968723554724E-06	3.0669388924175E-06	-4.87315438727293E-06	1.91084935495761E-06	0.956338130578127	-0.272066069865191
11.7	0.574511100961669	0.808642968721145	3.32957924950231E-06	-1.79043431049321E-06	-1.7102028275076E-06	2.23417792133278E-06	0.955815839338443	-0.274948382911923
11.8	0.671279909734171	0.729863561205866	-8.3981638022874E-07	9.79559721657485E-06	-2.73734151008325E-06	1.0536657558809E-05	0.955926654803761	-0.278549981785628
11.9	0.756532777521525	0.63785971585325	-7.30249776115148E-06	-1.0445008148018E-06	-3.92456356378743E-06	1.12571643237437E-05	0.956574763337693	-0.283094403405853
12	0.825163892722502	0.536400810125534	-6.43540080297195E-07	1.38046850618783E-06	-3.13328424834381E-06	-1.92223546748677E-06	0.95296663888428	-0.287072003475441
12.1	0.884067200026578	0.432407528051325	-3.87978443796661E-06	4.97599016509462E-06	-1.3479021601934E-06	8.40213149653383E-06	0.951909866334982	-0.288075795107539
12.2	0.931216641741722	0.319548757232869	-5.71258895220821E-07	-3.79506938505303E-06	-3.10989819955595E-06	-7.34273141753569E-07	0.951113445734636	-0.290878908640342
12.3	0.963702812876892	0.201598849552928	3.58731490601873E-06	3.43200460585771E-06	-3.43840493302996E-06	6.25329033935535E-06	0.949783124910722	-0.293608740726804
