# GHZ S RI R 50
0.2	-0.965835667669459	0.251637777118059	8.82214864596226E-06	5.31984305420266E-06	1.1364539324068E-06	-2.88937302346169E-06	0.999525998727653	-0.00683841303235
0.3	-0.926290602040291	0.371492639167053	-7.66107183473851E-06	-8.18543523456215E-07	-1.43419855985921E-08	3.6588997811754E-06	0.999402417799635	-0.00973743815846942
0.4	-0.871418654969791	0.485223169629855	-2.19697592667542E-06	6.33789970133257E-06	2.91949338236397E-06	5.73441692149742E-06	0.999270432457509	-0.0124449599559562
0.5	-0.802944894476062	0.591030752435459	-2.64738916547458E-06	5.48759737263114E-07	1.05143206139607E-05	4.881384315457E-06	0.998712331502286	-0.0154118447926167
0.6	-0.721835505396278	0.687298553703941	-1.72433866989143E-06	-1.85957840854264E-08	4.16298393304357E-06	-1.0329714502525E-05	0.998920606743476	-0.0179271863922668
0.7	-0.629289037499458	0.772705429970919	-2.04611641976054E-06	9.87458569786728E-07	3.77953756135663E-06	1.11550906254608E-05	0.998715213966019	-0.0208665047962363
0.8	-0.526672305066755	0.845766908456767	-5.60311018415136E-06	3.77890521282833E-06	-3.16578667001142E-06	-2.13847119533748E-06	0.998583544016814	-0.0230143449147581
0.9	-0.415964356475929	0.905104024127362	-6.69422498581857E-07	5.24754701858328E-06	3.26484736443334E-06	-2.93934893798635E-07	0.998727353723748	-0.0254903342989249
1	-0.298244099426209	0.950081293690696	1.56778121704314E-05	-3.68615115498775E-06	-9.59385721737757E-06	5.27405415018348E-07	0.998398865577181	-0.0275879539743886
1.1	-0.17690217498639	0.979635186568663	1.34136186976512E-06	-2.9799179090898E-06	9.38883233975809E-06	1.25886322251048E-05	0.997863961539527	-0.0294744079654926
1.2	-0.0520099867138843	0.993792404156914	-7.90095112016874E-06	-3.2590256938635E-06	-3.09369480283675E-06	-4.47599546618799E-06	0.99724223583689	-0.0303712199019149
1.3	0.0735389017204872	0.992091242943758	1.75657654176682E-07	3.33104132557921E-06	1.92694879483583E-06	3.42326250248279E-07	0.997333139569373	-0.0309120598296224
1.4	0.19752058918547	0.974681300856043	1.71950842445089E-08	3.763583628281E-06	-2.51715165151296E-06	-5.61261653390191E-06	0.997326806636363	-0.0324749590957156
1.5	0.318538734243956	0.942120350833099	3.18381167751306E-06	-2.61331785592867E-07	2.69592499639734E-06	2.0964808284013E-06	0.997748517470867	-0.0359112484563192
1.6	0.434489619049312	0.894854711618698	1.789214332031E-06	-1.93429295300995E-06	-8.87491352510503E-07	-3.06194595432556E-06	0.997275870077001	-0.0391128842084524
1.7	0.543497210944954	0.832897086193444	-7.98383956754424E-08	-3.52220732928295E-06	1.99582580948765E-06	4.92579977781047E-06	0.99772517921946	-0.0418234759999391
1.8	0.643635145226528	0.758193943534975	-2.05361608643986E-06	-1.81599949350016E-06	-4.66376380631656E-06	1.83006867858607E-05	0.997624033101412	-0.0447783982800447
1.9	0.733699158611096	0.671596036115582	-4.38736093327492E-06	-1.4718758280892E-06	-4.91769451506232E-06	-6.00784132913113E-06	0.997569020113318	-0.0475190666233341
2	0.81182340004115	0.573687867642374	-9.44949587156658E-08	-6.73717597093714E-07	-1.66669072679857E-06	-1.41742150366057E-06	0.996123491109494	-0.0509841516706662
2.1	0.877027399711576	0.466944060970063	-1.14702227828623E-06	9.43417549781032E-06	1.99202975445672E-06	-3.78148475831622E-07	0.99533114237579	-0.0522310772470864
2.2	0.928749282092018	0.353387057855816	-1.66369018679865E-08	-5.92265259623738E-06	-7.38782542587498E-07	2.73340378857112E-06	0.995679019141669	-0.054270381720118
2.3	0.965705200347983	0.233887521298163	-1.3168670435724E-06	2.76166249416177E-06	-2.82608052509791E-07	1.19606587643678E-05	0.995671213945051	-0.056060860383192
2.4	0.987338707456401	0.109808920740927	-5.86325753199951E-06	-3.71090596904019E-06	-1.75929259522211E-05	1.4492868789308E-05	0.995878854271768	-0.059310419837647
2.5	0.993495376494919	-0.0151240766403811	1.82223355975472E-06	-2.95972517374902E-06	-1.80009658155321E-06	7.54351916362266E-06	0.995373443972227	-0.0619479790372568
2.6	0.983734526169697	-0.139016205478113	2.86204116455829E-06	9.20537792426887E-07	-1.75356203382917E-06	4.50221879628162E-06	0.994994992272692	-0.0648433605687253
2.7	0.958070967576687	-0.261086119605582	3.8229672918683E-06	1.04414166061656E-05	2.3224528822404E-06	3.86676501626393E-06	0.994279044720137	-0.0677407854363284
2.8	0.917523096855264	-0.378794012691859	-8.1325267970498E-07	-2.29086497045397E-06	2.18918507388428E-07	-1.88647747719453E-06	0.99426271702267	-0.0694177162769036
2.9	0.863137646959862	-0.490075651575426	3.76281240899617E-06	-8.30804632790344E-06	-1.27261196092206E-06	-1.42095949266589E-05	0.994150269591899	-0.0712216363758173
3	0.795321196862092	-0.594292310638073	-1.42292033720141E-08	6.6417846921894E-06	-1.47550305894917E-05	5.29321056277198E-06	0.994190726064575	-0.0737220190208309
3.1	0.716042820947754	-0.688274914057359	-4.98188806925726E-06	7.81220530223763E-06	5.80193124674598E-06	-8.26014179908679E-08	0.993981787527482	-0.0755713220713183
3.2	0.623884365860598	-0.772980606419552	9.57553952349164E-07	2.12433975671041E-06	-4.55671507813458E-06	4.74017608523473E-07	0.993962101253749	-0.077178461271734
3.3	0.522113834061441	-0.845397440675158	7.20606861362866E-07	-1.45762370826416E-06	-4.57873914265486E-06	7.2542521623807E-07	0.994056119023336	-0.0802876042440095
3.4	0.411829529925621	-0.904516352665792	6.46802456235482E-06	2.46309787326284E-07	-8.12150126294676E-06	-7.1934964427403E-06	0.994596248984234	-0.0822724950133482
3.5	0.29413024532879	-0.950089116926814	-7.70678340898477E-06	1.95421607117818E-06	-5.89761203417798E-06	-7.99514289522271E-06	0.994696381841659	-0.0858348750171107
3.6	0.170863686294053	-0.978820622057377	-8.54867326144356E-07	-4.38271414293022E-06	-7.81468225458297E-06	-6.33699367243204E-06	0.993842846585082	-0.0881869150808715
3.7	0.046309415186056	-0.992792798808205	-6.71046890669063E-06	-6.77522696709685E-06	5.31614264859185E-07	-4.76368509309284E-06	0.993984660892158	-0.0905269759987205
3.8	-0.0795153741569815	-0.990756200571794	-3.64534435316782E-06	1.07998931706003E-06	-3.29511101796807E-06	-2.46895657527065E-06	0.994145434525108	-0.0926524517884679
3.9	-0.203522556350498	-0.972776941090141	-4.82013229647425E-07	3.50891020397823E-06	2.05507248175629E-06	-1.2184762319204E-06	0.994754069091539	-0.0966365710061456
4	-0.324307950414521	-0.939151166884637	1.16732591061911E-05	8.12068325182158E-06	7.26546966531711E-06	-4.03703665436174E-06	0.993178235899201	-0.0993815227564497
4.1	-0.439081794924944	-0.89126755892626	5.21549199585759E-06	1.32921059257315E-06	-3.46504331211509E-06	6.64715623651797E-06	0.992199286498104	-0.100096298920982
4.2	-0.547363570662091	-0.829803630373423	-7.09852925857983E-06	-1.21016073818244E-06	-8.26820542142193E-06	-5.11898231986682E-08	0.991994697452852	-0.102388348341385
4.3	-0.647349878459784	-0.754539995880636	7.0526625482064E-07	-2.36833813353619E-06	5.21442371816507E-06	8.86569905583389E-07	0.992064921827647	-0.10436341021727
4.4	-0.737123344172693	-0.666649729617775	4.47677945305515E-06	-1.77118647647762E-06	-8.69940513832641E-07	1.34662593474284E-06	0.99161542919099	-0.106854142225512
4.5	-0.814657034640838	-0.568015758122236	6.78375267892159E-06	1.87425992925084E-06	-8.0145231643372E-07	-3.25837112308263E-06	0.991160719875169	-0.108644921240233
4.6	-0.879621123315061	-0.46086955843236	2.45311652927726E-06	2.95517164462704E-06	-6.60137469328144E-06	9.74213504219791E-06	0.991237718418279	-0.111002905215857
4.7	-0.930518255885018	-0.345483702468438	-1.40620088594711E-05	5.90262076170701E-06	-3.46315603044531E-06	-3.84537892437288E-08	0.991349291914806	-0.113077558894729
4.8	-0.96625529552935	-0.225136865405641	-3.15544320309463E-06	-5.14773682056361E-06	-5.52783014886349E-06	2.35864126220413E-06	0.991089841817834	-0.115484772807539
4.9	-0.985860041242462	-0.102152554768461	-1.00641884864115E-06	-8.5542538332796E-06	-4.22267798301991E-06	7.32700562115711E-07	0.991026536229428	-0.117224416245434
5	-0.991685742516169	0.0209826853901814	7.56177654441718E-06	-1.5539695893435E-06	-1.74753313006038E-06	-2.7286148400148E-06	0.991187904156403	-0.119081732918424
5.1	-0.981591318714749	0.14735988031821	-2.59439210748099E-06	-6.40832678860281E-06	-1.00700942589772E-06	-1.95783652472553E-06	0.991348372784504	-0.120611229743898
5.2	-0.955361916363979	0.269797725123002	4.00447871240488E-06	-4.31269421931942E-07	-5.45693458364882E-06	6.30981855060189E-06	0.991425240268138	-0.123091480654107
5.3	-0.914453290765401	0.388086001871099	5.14131578176314E-06	6.02492241994574E-06	-9.57708192024718E-07	-3.5940633343823E-06	0.991297313752461	-0.12574935141641
5.4	-0.858769591463619	0.500746478056935	3.07096457802536E-06	-2.01826382184671E-06	-1.13414136717105E-05	2.1950821500858E-06	0.991393347762053	-0.128783977521291
5.5	-0.788102138475206	0.605139266186008	-4.33203979458282E-07	-2.19923407508005E-06	-5.8002039532108E-06	6.13904591634661E-06	0.990995326449903	-0.132483828964326
5.6	-0.704959734765959	0.698727036327426	2.38443242184427E-06	7.31477846583089E-06	-5.38404178813155E-07	2.93373879376255E-06	0.989964886717564	-0.134686731695259
5.7	-0.611500767654439	0.781853942789925	-2.57564340431413E-06	2.36446860107687E-06	7.92336642479397E-06	2.7835818123491E-06	0.990018703299558	-0.136747548658733
5.8	-0.50801214281813	0.85236390375436	-4.65675460717034E-06	5.11373861964159E-06	-3.66885003342957E-07	3.42869770412626E-06	0.99048546191805	-0.139128860768683
5.9	-0.396286452972967	0.909945212028652	6.37426969525517E-06	1.49743836318366E-06	-2.71593078999078E-06	2.5553249276186E-06	0.990913103046796	-0.142663480809584
6	-0.277496473670001	0.951308315274066	3.5361192327813E-06	3.29446952837365E-06	-3.32286407091704E-07	-1.43490975503591E-06	0.98853623491177	-0.146201119037168
6.1	-0.156783833966212	0.977184867703386	9.17804503256807E-06	1.50673223535348E-06	-1.30968934356148E-07	-1.80813307105874E-06	0.987410632844318	-0.146059743082177
6.2	-0.0330772188904352	0.988791080760964	2.43618019497198E-06	-1.73323159170144E-06	1.47240192326525E-06	-4.84608840040732E-06	0.98726331666392	-0.147129707482145
6.3	0.0914149188407468	0.984993265099033	-4.35183286157391E-06	4.24888887996511E-06	-6.17288576795758E-07	-1.72339092768681E-06	0.986929501726698	-0.148939002497186
6.4	0.214668134470353	0.964997083239424	-4.25845854099439E-06	1.07465456190214E-06	-1.74711613237133E-06	8.83576382886127E-06	0.986398916907073	-0.15122631662222
6.5	0.332138081999001	0.92979400095693	2.44744135762721E-06	-1.32685271473693E-06	1.48574949315096E-06	-2.92268495011795E-06	0.985384430875203	-0.152752631498785
6.6	0.446116598389218	0.882786840423266	-4.72848264477401E-06	-2.26184016271221E-06	-1.85265029016496E-06	-6.63926429501705E-06	0.986839912788377	-0.154799414403032
6.7	0.553798009970569	0.820015316354457	4.16433656818768E-06	-6.5487806427826E-07	-4.67813904704169E-06	1.00436128677142E-06	0.987114921420711	-0.157933411036192
6.8	0.652378600728259	0.744321996999416	3.76169879639046E-06	-2.07662860434236E-06	6.21890389898518E-06	-9.16473024851556E-07	0.986789450180421	-0.160654409584993
6.9	0.740846556574487	0.65687350801562	2.04952828799734E-06	1.64422909903407E-06	8.79521529581596E-06	-2.75433956211657E-06	0.98669148995412	-0.16334957688133
7	0.817105754965432	0.558312721617712	2.17847998574854E-06	4.09932485078252E-06	-8.91155426412663E-08	5.3888523133023E-06	0.98519241281608	-0.165929060504976
7.1	0.879998938732679	0.452408986059679	-1.32472808450978E-07	1.71729893405788E-06	8.25766226288711E-06	-4.64711834654678E-06	0.984336842452784	-0.166672839979788
7.2	0.929714867198861	0.339153297016174	4.8477974331342E-06	-1.39156629131606E-06	7.25478278493514E-06	3.78398753954888E-06	0.984150861526403	-0.167969971581968
7.3	0.964729760535674	0.220596051063328	4.86276463683425E-06	-1.10263925433751E-06	-7.33256006730667E-06	-7.39020397933558E-06	0.983778089129753	-0.169255049329901
7.4	0.985845808840417	0.0981894636449323	-1.86748743814426E-06	9.90274859830201E-06	1.4454357885268E-06	-4.07024048708949E-06	0.984551078651729	-0.171255525988943
7.5	0.991378281003926	-0.0289503066764138	8.42790726897393E-07	8.10521214196806E-07	1.67887923142062E-06	9.98934647873746E-07	0.984880058830045	-0.176446541860913
7.6	0.977946412962392	-0.154044491282956	1.45559907429356E-06	-2.62415488946263E-06	-5.44009432712919E-06	-3.6298040342586E-06	0.982509656493078	-0.179771411973335
7.7	0.950584499593675	-0.276196332716402	5.59102313007311E-06	2.40424770007581E-06	-6.82064817447738E-06	1.20913820196055E-05	0.982087465564973	-0.182936467150397
7.8	0.908227784464098	-0.394351606751949	-6.29940517116726E-07	-5.25407148152495E-06	3.72998684693564E-06	-4.7596939439113E-06	0.982040691588066	-0.186743655460049
7.9	0.850435894140306	-0.506606590724168	8.8785218020413E-06	1.49007130126292E-06	-9.5975901767005E-06	-8.61108740498994E-06	0.98160721645642	-0.191603539392329
8	0.776299042848896	-0.608394350363395	-6.65841260922563E-06	-1.58041752641269E-06	-1.19727692955185E-05	2.57758522321577E-06	0.977533263604149	-0.196012926435914
8.1	0.695737083568094	-0.697381884152776	5.05945532068636E-06	7.08125764119833E-07	2.88984614692006E-06	2.2418777925771E-06	0.976117082449717	-0.195545893164772
8.2	0.604712412521414	-0.7790266169349	3.54578538808207E-06	-2.57451836521766E-06	-3.69543167946892E-06	-1.1565733386075E-05	0.976515275474253	-0.197159360163662
8.3	0.503059786688032	-0.848975843105086	2.71595542185564E-06	-1.85575256092687E-06	1.64080854350003E-06	5.27229215170342E-06	0.976230317723	-0.19962873830597
8.4	0.393008521535477	-0.905705815222293	-5.53621927900835E-06	-1.01249158228311E-06	1.05420802297707E-06	2.94136549309942E-06	0.975457296826086	-0.202217994215205
8.5	0.275094790021223	-0.94788819068098	-3.28173516697971E-06	1.6218742766362E-06	-4.78313927581949E-06	-4.99215884457019E-06	0.97449213616223	-0.204198870676605
8.6	0.153781373140317	-0.973461269006865	-8.12153508171812E-06	1.39079876761384E-06	-4.33864909105134E-06	-6.84326770220427E-06	0.974834588527625	-0.206404764613637
8.7	0.0306355486424237	-0.984775212242043	2.23845876962636E-07	-2.14293782811054E-07	6.10284318534355E-06	5.02795671951282E-07	0.974717114203639	-0.209115764863851
8.8	-0.0931595604461596	-0.980605317285483	1.02087311042397E-06	-1.81320218176294E-06	-2.38400337308153E-06	-1.27577521330564E-06	0.974444539657908	-0.211475599767413
8.9	-0.214370167820155	-0.961805269714775	-3.03285632374241E-07	3.02419182796271E-06	-1.22802096362736E-06	-1.63716500583831E-06	0.974477288123528	-0.21365337079437
9	-0.333159573416004	-0.929954732827651	2.9665572888281E-06	1.59435330288145E-06	-1.57915547993577E-06	2.10554037839188E-06	0.974346579848352	-0.216196357066906
9.1	-0.448611082172692	-0.880959851210488	-9.31496451432105E-06	2.23853948689744E-06	-1.57025359511141E-06	2.40434997252067E-06	0.97386430991599	-0.218460808450592
9.2	-0.556241019405778	-0.817794754934397	7.50768206572544E-06	-2.13303678447088E-07	-9.11472688602883E-06	1.94434347648056E-06	0.973132190155743	-0.220896595249487
9.3	-0.655062024558811	-0.74150556648453	9.47219954315321E-08	-7.17056261710069E-06	1.59148150174313E-06	-1.29762952945249E-06	0.972654716664761	-0.222858404353455
9.4	-0.743637668392266	-0.653518245099525	5.95821804453413E-07	2.48968244159605E-06	1.6273293618502E-06	-3.60188537086669E-06	0.972709268519382	-0.225230575653375
9.5	-0.820893875487936	-0.551959530409949	-2.87165487000453E-06	6.66518409257449E-06	4.73477447166762E-06	-1.37729455214571E-06	0.972247094002185	-0.229087689811317
9.6	-0.879645940131151	-0.442693822647864	-5.0331739724383E-06	-5.19421444105359E-06	4.76552579746153E-06	2.87247835579159E-06	0.970930941961063	-0.231582918353757
9.7	-0.926826918281209	-0.329539889572058	-2.00490950215733E-06	-5.06744778302106E-06	2.09511437479807E-06	8.34150825499752E-09	0.970776326244762	-0.233774824452905
9.8	-0.961003098504896	-0.210261989904095	5.90104529358841E-07	-4.28219487278766E-06	-2.94023376769639E-06	-2.51404611617417E-06	0.971116829315329	-0.236049831910798
9.9	-0.98007470245979	-0.0868610914119952	-6.10777081337924E-06	4.21200545942692E-06	-3.08144807897493E-06	1.66668085991835E-06	0.9711052992678	-0.239427084840027
10	-0.98384551090999	0.0383103029037646	3.5680483849276E-06	-4.59653506891359E-08	8.23342902052028E-06	1.10810276129317E-05	0.967438440391252	-0.241628241874825
10.1	-0.970093084795	0.163201213552499	-2.85680227922229E-06	-2.51864934584243E-06	-2.0089348898739E-06	-2.49430136551174E-06	0.967447646224377	-0.240156645312182
10.2	-0.940826290929346	0.284694083787655	2.35400275621892E-06	-1.02221777035749E-06	-2.76692467329697E-06	-1.06358973378982E-06	0.968562274758816	-0.241554522240241
10.3	-0.896372808957331	0.401502328608277	7.74444375505201E-06	-5.95212019339658E-06	3.86487626828781E-06	8.21739679517579E-06	0.968578329035433	-0.243995708300335
10.4	-0.837167118849052	0.511061844912823	1.701877816156E-06	2.47718379617319E-07	6.25917655601601E-06	-1.19285121737522E-06	0.967458961464144	-0.247064280266193
10.5	-0.766386401260604	0.609760124784114	8.31968638394066E-06	-4.11697141953388E-06	-4.94128768747467E-07	1.9640183073951E-06	0.965493057679573	-0.24894828396431
10.6	-0.685784180661206	0.701334465557769	8.91571926487277E-06	-1.24814679584732E-06	-1.5005047436037E-06	1.3603487017936E-05	0.965212713211517	-0.251394310862776
10.7	-0.592933200947531	0.782306115572553	8.00250595087625E-06	-1.8847832931922E-06	-3.03772520699625E-06	-5.27515584799998E-06	0.963330275804552	-0.254335501690688
10.8	-0.488526011574542	0.850847834362362	2.43657361456669E-06	5.23891909711604E-06	-3.6187334225135E-06	-2.10434473078368E-07	0.962543503626	-0.255158216722944
10.9	-0.376890544021841	0.905487270149676	-5.54671822778055E-06	4.72270171683292E-07	1.58471706768615E-06	4.02244504638027E-06	0.962250077621594	-0.256290908121612
11	-0.259529126706251	0.947284877618905	1.31340399410319E-08	-5.21822079347433E-06	-8.37854774474089E-06	2.21413219389168E-06	0.96184731430368	-0.257110080557789
11.1	-0.135252119718936	0.971713605908839	6.30033918117769E-06	4.08623693262475E-06	-1.90518069952738E-06	1.07451910907609E-05	0.962556581977691	-0.257767405872162
11.2	-0.0120807190566244	0.979241674884852	1.5744499376437E-06	1.35287436642503E-06	5.1214138383976E-06	8.88556055861928E-06	0.962970816384842	-0.259515660284537
11.3	0.110090647592937	0.972035601046653	-4.58712100040159E-07	-1.73311578221583E-06	-6.90957259223978E-07	-4.38410815285202E-06	0.963576699163713	-0.26152308085771
11.4	0.230567479464725	0.951016871596669	1.9396180868707E-07	1.18275566163833E-05	2.40375306129272E-06	4.92138712553255E-06	0.964362561177865	-0.26476138814746
11.5	0.348615453930926	0.915420361769517	6.18573386027206E-06	-3.10696124771715E-07	3.20308632478595E-07	-1.87838156045116E-06	0.962989660750151	-0.270196082817065
11.6	0.460161517518967	0.865158754274039	-5.99442828518627E-06	3.055255700904E-06	-4.86048485943486E-06	1.90298956429556E-06	0.960446280933196	-0.272852673114928
11.7	0.564597747543564	0.80232092210509	3.32194117645127E-06	-1.78312462359648E-06	-1.7072603580602E-06	2.22688043377507E-06	0.960087066441803	-0.276186811340714
11.8	0.661395845164438	0.72684689700495	-8.48075009656334E-07	9.77163502443559E-06	-2.7419029107206E-06	1.05089657951231E-05	0.95986102362909	-0.280642513858929
11.9	0.749529356894723	0.638295635172232	-7.29092590405775E-06	-1.05171974162163E-06	-3.93241859551879E-06	1.12365696105757E-05	0.959124035626697	-0.285834294757492
12	0.823193208146621	0.535751607804645	-6.43167443925454E-07	1.37954551018918E-06	-3.13117346867725E-06	-1.92108845121881E-06	0.953095096980397	-0.288875265927949
12.1	0.883169187138954	0.429201139818067	-3.8773639484301E-06	4.97338629129833E-06	-1.34673575125957E-06	8.39748098087875E-06	0.951982371286301	-0.286914770149873
12.2	0.930538359889759	0.31444705032443	-5.73486649489378E-07	-3.79453767684913E-06	-3.11017746668556E-06	-7.32386753463462E-07	0.952202917068959	-0.288363420449865
12.3	0.962276600001659	0.195013160357687	3.59130540414201E-06	3.42700221189868E-06	-3.42997942109847E-06	6.25698045427993E-06	0.95163980160799	-0.290562694803111
