# GHZ S RI R 50
0.2	-0.966010184844375	0.251483385300019	8.82317904956432E-06	5.32132433981752E-06	1.13684219410632E-06	-2.88975380358131E-06	0.999698470323735	-0.00690308472290757
0.3	-0.926576227340634	0.371275337101162	-7.66271955093249E-06	-8.1947194041711E-07	-1.47004912711865E-08	3.65972329069109E-06	0.999612182553852	-0.00987627314666651
0.4	-0.87191207567952	0.484994541478636	-2.19881545465873E-06	6.33982615038105E-06	2.91960136683975E-06	5.73696986698276E-06	0.999565789748857	-0.012583600793877
0.5	-0.803634604227017	0.591096281229132	-2.64921890248159E-06	5.49135752501962E-07	1.05215792293021E-05	4.88476928828418E-06	0.999304374768831	-0.0158139179188963
0.6	-0.72234582869902	0.687457060245655	-1.72526023809916E-06	-1.81694304384416E-08	4.16258415053797E-06	-1.03362602036937E-05	0.999198897662916	-0.0186457099487992
0.7	-0.629870408879469	0.772864260767943	-2.04691397475724E-06	9.88315358332132E-07	3.78343864460811E-06	1.11597387928446E-05	0.998830514150354	-0.0214884763827077
0.8	-0.527321340805193	0.846044350352404	-5.60533662702067E-06	3.78177402223216E-06	-3.16776139798186E-06	-2.13903185800706E-06	0.998633099370224	-0.0235660663305769
0.9	-0.416616829474823	0.905523294413562	-6.68915559132673E-07	5.25009127992644E-06	3.26631954923563E-06	-2.94580612858046E-07	0.998639891493512	-0.0258935126966635
1	-0.298873018336506	0.950641336655267	1.56858498893837E-05	-3.68649102878635E-06	-9.59861389475883E-06	5.26765402879251E-07	0.998507327126678	-0.0275803287294508
1.1	-0.177406943524124	0.980357829280738	1.34227079245719E-06	-2.98236759845263E-06	9.39700272178295E-06	1.25981668910874E-05	0.998215742179082	-0.0298038955349293
1.2	-0.0522696042313	0.994655075487877	-7.90897350523535E-06	-3.25858856910498E-06	-3.09813266491123E-06	-4.47853854252135E-06	0.997411810813741	-0.0309589813890168
1.3	0.0737935652331531	0.993018734560884	1.7924724080384E-07	3.33399254448872E-06	1.92911241118362E-06	3.40667125155867E-07	0.997361302287205	-0.0320192206681276
1.4	0.19829720086357	0.975348780756208	2.40388444079049E-08	3.76667771642732E-06	-2.52942667854082E-06	-5.61270958829664E-06	0.996918350081344	-0.0341883128046494
1.5	0.319514692273688	0.942597326266358	3.1855121177517E-06	-2.67895621832443E-07	2.70201032758016E-06	2.09254203400932E-06	0.997256765742967	-0.0375391051977371
1.6	0.435485897151385	0.894985488041513	1.78608952028722E-06	-1.93904705688801E-06	-8.94369272899317E-07	-3.06167582569786E-06	0.996708732417122	-0.0407264597360281
1.7	0.544283228798723	0.832908478331742	-8.62365303817094E-08	-3.52312877389982E-06	2.00534379431418E-06	4.92367871864689E-06	0.997193088475831	-0.0430180230213013
1.8	0.644222548858443	0.75811650798666	-2.05661435164446E-06	-1.81312099477379E-06	-4.63668680511757E-06	1.8309998716946E-05	0.9971748950797	-0.0456280145192106
1.9	0.733806230940655	0.671584128411829	-4.38757380598466E-06	-1.46717975908999E-06	-4.92218968574832E-06	-6.00136106446844E-06	0.997045883915482	-0.0477321770229229
2	0.812137806251187	0.574735327833398	-9.43152851713286E-08	-6.73981720171146E-07	-1.6668232317607E-06	-1.41844026137412E-06	0.996882284257668	-0.0502369352027534
2.1	0.878314603576123	0.46724541068395	-1.14389122977151E-06	9.44663314639481E-06	1.99435916625775E-06	-3.79592149458918E-07	0.996757901614168	-0.0528186965115742
2.2	0.929666373834717	0.353077963418693	-2.17777433207043E-08	-5.92783870531518E-06	-7.37065403207566E-07	2.73644334927784E-06	0.996572639964556	-0.0552393944525939
2.3	0.966202295133519	0.233437439524833	-1.31530344315947E-06	2.76445837659056E-06	-2.72557288194493E-07	1.1968135044171E-05	0.996198957456935	-0.0570219329569551
2.4	0.987467529029789	0.109473803650785	-5.86925201945268E-06	-3.70743943985932E-06	-1.75882542576419E-05	1.45151307299836E-05	0.996088835444183	-0.0600641826613654
2.5	0.99356319611482	-0.0151416343594092	1.81913727268634E-06	-2.96103318880624E-06	-1.79262192516046E-06	7.54413411333905E-06	0.995662983441988	-0.0622475468106814
2.6	0.983945915170009	-0.138781885998031	2.86084474569506E-06	9.20397671756468E-07	-1.75322152482616E-06	4.50031306535936E-06	0.995545851553716	-0.0649904775217406
2.7	0.958848542572076	-0.260840625065443	3.81677965589298E-06	1.04473616987105E-05	2.32044316954414E-06	3.86960713100461E-06	0.995290283911665	-0.0678388820083124
2.8	0.918644821134755	-0.379128871340326	-8.1240372057315E-07	-2.29382534865883E-06	2.2053358378686E-07	-1.88826080745641E-06	0.995569797498778	-0.0698642734194436
2.9	0.864082387329235	-0.49098678891865	3.7725028644501E-06	-8.31819496564973E-06	-1.26723023829282E-06	-1.42308743740209E-05	0.995346851726279	-0.0719541974002964
3	0.795963377702251	-0.595492597191605	-1.59033831532653E-08	6.65221012212525E-06	-1.47795154655759E-05	5.29785236055912E-06	0.995274587091526	-0.0744879606637281
3.1	0.716279108579759	-0.689822820762415	-4.99039207482141E-06	7.82547508424326E-06	5.81180076909982E-06	-8.27198611917364E-08	0.99498568217962	-0.0765371561829568
3.2	0.623475749536798	-0.774627529498567	9.60039268710041E-07	2.12745942669617E-06	-4.56407382150418E-06	4.76727750907967E-07	0.994749056789612	-0.078336397513108
3.3	0.520970250983762	-0.84694644184227	7.20334992081586E-07	-1.46043208857634E-06	-4.58482505052778E-06	7.30685583053885E-07	0.994551484080743	-0.0816771853889727
3.4	0.409644330528079	-0.905396061940591	6.47434753859929E-06	2.35979348593112E-07	-8.14067579099624E-06	-7.18682713627014E-06	0.994493586073216	-0.0838658194235808
3.5	0.292561853653406	-0.9491250467565	-7.70051831150062E-06	1.96249231775711E-06	-5.9042319859264E-06	-7.98398861456639E-06	0.994081893018554	-0.086673030474817
3.6	0.170121897312491	-0.978849773640623	-8.56738509756638E-07	-4.38313008932938E-06	-7.81851705184168E-06	-6.33500663597001E-06	0.993834657960009	-0.0890579709537857
3.7	0.0447783640513658	-0.992878467765165	-6.7192298541707E-06	-6.77231709651543E-06	5.2771027577516E-07	-4.76619325038108E-06	0.993731478489736	-0.0917714370787382
3.8	-0.081453170525799	-0.990185801799724	-3.64468462903125E-06	1.08439463676811E-06	-3.29851197418175E-06	-2.46553526574104E-06	0.993348367835196	-0.0938480234485879
3.9	-0.205194789793873	-0.971360762424304	-4.78880303290175E-07	3.50848768933042E-06	2.05353423977788E-06	-1.21995307612633E-06	0.993345453600933	-0.0969417806206393
4	-0.325150343550763	-0.937810837603818	1.16835537140558E-05	8.12077790628995E-06	7.26816811779809E-06	-4.04241521037889E-06	0.993362836519717	-0.0982763781238981
4.1	-0.440088999204906	-0.890101003838751	5.22015958942351E-06	1.32275896975505E-06	-3.45778469145525E-06	6.65554147433338E-06	0.993179046716812	-0.100679594657853
4.2	-0.548288298028719	-0.828483843208982	-7.10057678599264E-06	-1.20049185208243E-06	-8.26872743775927E-06	-3.98534963886184E-08	0.99231346333606	-0.103433744789358
4.3	-0.64811140747297	-0.753140659052722	7.02302602927526E-07	-2.36888414238826E-06	5.21481807669597E-06	8.80131724640546E-07	0.992007801042424	-0.105374142619444
4.4	-0.737720105779554	-0.665334960853814	4.47446980437169E-06	-1.77547666841301E-06	-8.68484131514955E-07	1.34734107018346E-06	0.991474241584747	-0.107685038060155
4.5	-0.81547155636744	-0.566569069312505	6.7874640592511E-06	1.86549004047135E-06	-8.05964935504997E-07	-3.25787089638153E-06	0.991386733793995	-0.109858932788303
4.6	-0.880079490789855	-0.459150732165526	2.45683649896097E-06	2.95039237186014E-06	-6.58413438764741E-06	9.74900065759865E-06	0.990811831702286	-0.11265249974154
4.7	-0.930802923411961	-0.343833427987773	-1.40478963805657E-05	5.91934977434903E-06	-3.46172408216428E-06	-3.36941487532377E-08	0.990642228261289	-0.114571339512112
4.8	-0.966624385685552	-0.223491802324262	-3.16154473300556E-06	-5.14183332367831E-06	-5.52290418064153E-06	2.36550789192873E-06	0.990282873131392	-0.116982969964788
4.9	-0.986636854721333	-0.0998150825869745	-1.02165938316598E-06	-8.55168260433855E-06	-4.22098596264844E-06	7.40202655372607E-07	0.989998409259947	-0.118783098960204
5	-0.990579556167977	0.0247607110051702	7.54976858274925E-06	-1.57170685717223E-06	-1.75267415800074E-06	-2.72123924985255E-06	0.989876722737511	-0.120516899462645
5.1	-0.979495226859515	0.149219770149655	-2.60060860909761E-06	-6.39330799669569E-06	-1.00854930888379E-06	-1.95289461774436E-06	0.989782163220633	-0.121927790880752
5.2	-0.953634697355438	0.271318650107115	3.99768747677281E-06	-4.36248905453919E-07	-5.43961322711602E-06	6.307768701484E-06	0.98962116307568	-0.124101522740194
5.3	-0.912366557630833	0.38952769581817	5.14127808973754E-06	6.00787261013786E-06	-9.61146087451645E-07	-3.58683225493606E-06	0.989543827861205	-0.126481651210496
5.4	-0.856134819368271	0.501526720499859	3.06220859600513E-06	-2.01841992808376E-06	-1.13161450318813E-05	2.20600677897426E-06	0.989547806911526	-0.129582556220443
5.5	-0.785580916738138	0.604742762020773	-4.33472159172561E-07	-2.19393280151441E-06	-5.78335214010452E-06	6.12827444295024E-06	0.989040973003887	-0.132530908583966
5.6	-0.703157500663565	0.697876622569555	2.38282374523369E-06	7.30198786222019E-06	-5.36589880485635E-07	2.92908187392437E-06	0.988740928999602	-0.135064182017529
5.7	-0.61005309092313	0.780759691948287	-2.57028486845918E-06	2.36185404151995E-06	7.91176566515559E-06	2.77518412644954E-06	0.988373381351999	-0.137486250340093
5.8	-0.506883330559774	0.850798751634759	-4.64539151192419E-06	5.10521199527999E-06	-3.6482578257467E-07	3.42192075400505E-06	0.988135262567485	-0.13959490411986
5.9	-0.396111762694835	0.907531731759263	6.3558180904308E-06	1.49716295991343E-06	-2.70999619893839E-06	2.5466512201587E-06	0.987828134034678	-0.141590212507396
6	-0.279403370982228	0.950032190679049	3.52319022968045E-06	3.30045503299177E-06	-3.27999651536977E-07	-1.43421960189362E-06	0.988218634478814	-0.1430120964562
6.1	-0.157828674172489	0.977101878792678	9.17937165604503E-06	1.51968557986613E-06	-1.28573776295619E-07	-1.80897247210692E-06	0.988327738378654	-0.14526677327375
6.2	-0.0339815117518925	0.988624837308259	2.43829693721537E-06	-1.73144576865353E-06	1.47708899702947E-06	-4.8458850846851E-06	0.987615810593165	-0.146909245827051
6.3	0.0902182905347855	0.984948317618209	-4.3569861790863E-06	4.24663830140544E-06	-6.16026840424107E-07	-1.72451906349927E-06	0.986990525386737	-0.148860676409196
6.4	0.212922996532374	0.966120932983074	-4.26440548850456E-06	1.07182627604637E-06	-1.75757905220231E-06	8.8443022364488E-06	0.986564377863529	-0.150853550584372
6.5	0.333422716978204	0.932336639599256	2.45144414940964E-06	-1.33383658500539E-06	1.48496109080851E-06	-2.93213207122914E-06	0.986595252819394	-0.154003766835691
6.6	0.447800346373636	0.882256038228933	-4.73442593452467E-06	-2.24854860328051E-06	-1.87095412880653E-06	-6.63364602409675E-06	0.985594512026157	-0.156861448346516
6.7	0.554416124623205	0.819011333592205	4.15810857979344E-06	-6.63179940636514E-07	-4.67055826245782E-06	1.01337752997017E-06	0.985125160985353	-0.158825873790501
6.8	0.652436876508028	0.743095317149028	3.75149335880931E-06	-2.07934418730709E-06	6.20631331160941E-06	-9.25426669909813E-07	0.984767641127173	-0.160904603179512
6.9	0.740045740944989	0.655625280002653	2.04607247703712E-06	1.63802985343576E-06	8.77040540993776E-06	-2.75639471095729E-06	0.984514923387506	-0.162855026698477
7	0.816106359005289	0.55796053774141	2.17123039979182E-06	4.09179872425158E-06	-9.2254175515721E-08	5.37713314392401E-06	0.984359114053608	-0.164648464822337
7.1	0.879267758627579	0.451657596815837	-1.32667845990124E-07	1.71553802378348E-06	8.25020697084836E-06	-4.64084026935084E-06	0.983751394389585	-0.166795252630487
7.2	0.928514679323016	0.338098824149996	4.84221023093856E-06	-1.39234738415101E-06	7.2490878264634E-06	3.77682274444086E-06	0.98285646130054	-0.168565586320973
7.3	0.962877704091584	0.219152398016497	4.85528227645552E-06	-1.10752740783871E-06	-7.33293666535707E-06	-7.3715471854795E-06	0.981641313110507	-0.17032425655269
7.4	0.981940051055436	0.0962910385065141	-1.83350217933169E-06	9.88035382759393E-06	1.42956316921766E-06	-4.06300305094281E-06	0.980120159553487	-0.17257792673988
7.5	0.98517224324823	-0.0269807738746171	8.3776067606981E-07	8.04221140896918E-07	1.66830406053613E-06	9.9059289264192E-07	0.9787597159823	-0.173738527882972
7.6	0.974418739027713	-0.150421895690616	1.45289575652256E-06	-2.60742708724624E-06	-5.40424305540767E-06	-3.62094789937582E-06	0.979125190382135	-0.176302854592738
7.7	0.947769683348021	-0.272098953522895	5.55762424894221E-06	2.4064007852114E-06	-6.81735833751961E-06	1.20151108899845E-05	0.978943953480544	-0.179526438927775
7.8	0.906209799221142	-0.389250105878607	-6.07672386674844E-07	-5.23081340723676E-06	3.72923745619914E-06	-4.72290550697803E-06	0.978899361722156	-0.182666063579567
7.9	0.850068871937197	-0.499705980079225	8.82812175115609E-06	1.53588165616066E-06	-9.50149169658117E-06	-8.62785408751501E-06	0.978684580726802	-0.185520442158772
8	0.782295849675894	-0.602215219623059	-6.64276300302487E-06	-1.6421277030676E-06	-1.19950393960257E-05	2.46584930527292E-06	0.979597760799249	-0.188032518498126
8.1	0.700828221991896	-0.697040831731486	5.07132575263106E-06	7.37827196117159E-07	2.8866387800607E-06	2.26455134900269E-06	0.979511109697468	-0.192016326841322
8.2	0.607634344597186	-0.779756881793048	3.56454589438592E-06	-2.56956006726371E-06	-3.66609403044783E-06	-1.16107930080649E-05	0.978756866494393	-0.194929422698469
8.3	0.504724910083671	-0.849873408759835	2.72744268636304E-06	-1.85372651961658E-06	1.63190102096559E-06	5.28972925772945E-06	0.977824188430725	-0.197715784940878
8.4	0.393649379917611	-0.906232405430931	-5.54844230582664E-06	-1.02285972945236E-06	1.05262855035475E-06	2.95012269246558E-06	0.976887660832962	-0.200261757307519
8.5	0.276302958280533	-0.947629470816746	-3.28551546812629E-06	1.62164213557713E-06	-4.78486517942028E-06	-4.99910072875944E-06	0.976283055749809	-0.20300713397122
8.6	0.154984942581157	-0.974530963784824	-8.12894156875568E-06	1.3772597187633E-06	-4.32916835702515E-06	-6.85511767409432E-06	0.975578944640799	-0.205675044938489
8.7	0.0308668872614175	-0.98637671585041	2.24573775299717E-07	-2.14129320789393E-07	6.10994894349097E-06	5.15717017198592E-07	0.975061831846907	-0.208010736104064
8.8	-0.0941037707039033	-0.982583867270502	1.02650568193388E-06	-1.81521329037814E-06	-2.38677285386599E-06	-1.28303667795417E-06	0.97472650006177	-0.210082331251688
8.9	-0.217800892744858	-0.96357180451109	-3.07171144494625E-07	3.03451033929447E-06	-1.23079801140936E-06	-1.64405026924223E-06	0.974757200443775	-0.211987310064474
9	-0.337491273391344	-0.92737324980811	2.97666651457575E-06	1.59382926091939E-06	-1.579933897712E-06	2.11341280342402E-06	0.974737346868258	-0.213979854322865
9.1	-0.450275953418081	-0.877664314621429	-9.32387951006084E-06	2.25045949983441E-06	-1.56974492972285E-06	2.40878271948275E-06	0.974911884193906	-0.215943773147634
9.2	-0.55673868803036	-0.81426286293247	7.51353028990541E-06	-2.21057534767277E-07	-9.1201249716222E-06	1.95511828143966E-06	0.9748704090734	-0.218629656744726
9.3	-0.654042449544522	-0.738183950741603	8.72438909408808E-08	-7.17083004151489E-06	1.59016523682505E-06	-1.29932027597215E-06	0.974673120458907	-0.221484464618265
9.4	-0.741199803440018	-0.650348497216676	5.97708231909266E-07	2.48568484766595E-06	1.62124666203599E-06	-3.5987906662214E-06	0.973776359703189	-0.2248090950866
9.5	-0.815255658383799	-0.552251704951012	-2.87666772174132E-06	6.64066769638512E-06	4.72409401273177E-06	-1.36406586872579E-06	0.972684731751181	-0.227179712550255
9.6	-0.877966598087594	-0.446563643245861	-5.01670538410911E-06	-5.21016721714753E-06	4.75641739284391E-06	2.88758387430983E-06	0.972405311983832	-0.230235539105879
9.7	-0.927554388792917	-0.332480193041113	-1.99483964361578E-06	-5.07644062238036E-06	2.09688553957521E-06	1.32204031651703E-08	0.971750638410841	-0.233032788391532
9.8	-0.962644294042803	-0.212304595486726	5.98950639199549E-07	-4.28454149426619E-06	-2.93772599519887E-06	-2.5218432842013E-06	0.971196336476755	-0.235204241791273
9.9	-0.982216637811449	-0.0881305505693188	-6.12162474339508E-06	4.1991381373751E-06	-3.08729732782683E-06	1.65993584995181E-06	0.970361743923673	-0.23664682081693
10	-0.98569293737578	0.0374547361465475	3.57644005113335E-06	-3.47606237500239E-08	8.21732931443919E-06	1.11327369970894E-05	0.971124314724146	-0.237541851526194
10.1	-0.972608694013732	0.161917879874249	-2.8604954381927E-06	-2.52973484418017E-06	-2.0104168120951E-06	-2.50401483199111E-06	0.970901624219457	-0.240405966019802
10.2	-0.944345331148442	0.28370251284117	2.36063540470738E-06	-1.02137732091306E-06	-2.77170861040097E-06	-1.06965179242596E-06	0.970009651671732	-0.242209286465062
10.3	-0.901108672994177	0.400984996183153	7.77203782934763E-06	-5.9541343033598E-06	3.86121588534139E-06	8.2428576470258E-06	0.968993858667602	-0.244101611928455
10.4	-0.844243620848105	0.512179435786617	1.70753329377469E-06	2.51747063700449E-07	6.28385681972384E-06	-1.1855907973306E-06	0.967813948831416	-0.246046406316458
10.5	-0.772520878211622	0.616560316929032	8.35748040248284E-06	-4.14541467776998E-06	-4.94756221267148E-07	1.97431912561728E-06	0.966948736291271	-0.248515452758969
10.6	-0.687599168992078	0.708206556918438	8.93697147105815E-06	-1.2681415962134E-06	-1.47900559241619E-06	1.36422882112079E-05	0.965898917761822	-0.250650870833301
10.7	-0.592609098484071	0.788056460038855	8.01693036001337E-06	-1.89795211711682E-06	-3.05013111509275E-06	-5.28258729314422E-06	0.965616027440704	-0.252915061941512
10.8	-0.488161550268018	0.855661786558056	2.44708011073602E-06	5.24976682742065E-06	-3.62784921130692E-06	-2.07852606634896E-07	0.965466003510057	-0.255158678571307
10.9	-0.375755314348078	0.910446389040194	-5.56071979108538E-06	4.82107330299505E-07	1.59515033296918E-06	4.03067671091208E-06	0.965141775081762	-0.257296681027258
11	-0.256334306025819	0.949896070228925	5.57856212652132E-09	-5.22360553480258E-06	-8.38395149395238E-06	2.22856190979049E-06	0.964806075064294	-0.258722645215098
11.1	-0.134663493723115	0.973264322308598	6.31257609445516E-06	4.09282263299624E-06	-1.90707287794183E-06	1.07652968191362E-05	0.964821370799777	-0.260528848527902
11.2	-0.0118117262573447	0.982007656811584	1.57950937779697E-06	1.35566451847366E-06	5.1404231441668E-06	8.90685579423308E-06	0.964334309087442	-0.262736342678592
11.3	0.111115728327218	0.97535079498598	-4.62781442463868E-07	-1.73782654241662E-06	-6.99786136537269E-07	-4.39673896123622E-06	0.963785205934008	-0.265179043019112
11.4	0.232240334498005	0.954144203789775	2.30335345131153E-07	1.18597474532303E-05	2.42532592549541E-06	4.9277430352536E-06	0.96233061776043	-0.268510176096198
11.5	0.350719071008001	0.918206538480662	6.18955035155967E-06	-3.26032141157265E-07	3.15958341951868E-07	-1.88055312231146E-06	0.960715882156687	-0.270558198701671
11.6	0.462569163957509	0.867297065269323	-6.0009129421654E-06	3.06955472821262E-06	-4.86657894376347E-06	1.91353626721983E-06	0.960129520726469	-0.274116952190002
11.7	0.566871370279243	0.803792822405204	3.32543946478999E-06	-1.79428638004746E-06	-1.70621502117303E-06	2.23552304919676E-06	0.958796741859318	-0.278187209854696
11.8	0.662880228625218	0.727651262701776	-8.22258141409144E-07	9.78872283870536E-06	-2.71689749504815E-06	1.05324169505405E-05	0.957059677885364	-0.281858212746085
11.9	0.748694818398066	0.640040469793455	-7.29048452885613E-06	-1.0402338110569E-06	-3.91406513501779E-06	1.12394369068368E-05	0.95561293036477	-0.283439331699335
12	0.825251865460469	0.54212198077802	-6.46682844582521E-07	1.38251409476554E-06	-3.13732587351419E-06	-1.93033295688829E-06	0.956257274380369	-0.284365106238379
12.1	0.888377093753363	0.432012056270291	-3.88263678798802E-06	4.9964928215638E-06	-1.33793887305797E-06	8.428209908207E-06	0.956157245255328	-0.287200036680359
12.2	0.934943157907638	0.315394040247173	-5.80553818094754E-07	-3.80273103597615E-06	-3.11869896861451E-06	-7.29463479583333E-07	0.955477924378329	-0.289969089241992
12.3	0.966094485088701	0.195462450930586	3.60443865113033E-06	3.43309279378832E-06	-3.43357560243046E-06	6.27747662821477E-06	0.954426147420818	-0.292826342987031
