# GHZ S RI R 50
0.2	-0.968099863945829	0.25026757231053	8.830644879904E-06	5.34104106453138E-06	1.14232490751102E-06	-2.89296522014272E-06	1.00118238581961	-0.006105486756214
0.3	-0.92966887240374	0.370172196750413	-7.67835521828027E-06	-8.33261839689912E-07	-2.04549685884408E-08	3.667779846841E-06	1.00151185495491	-0.00894313833412348
0.4	-0.876184529371132	0.484631395365246	-2.21710607539506E-06	6.3564043262685E-06	2.91889399859607E-06	5.76064010421809E-06	1.00239670683894	-0.0114795338135688
0.5	-0.808022018401752	0.592744031219624	-2.66086056961308E-06	5.50415068526453E-07	1.05649156611809E-05	4.91013677204883E-06	1.00315136661361	-0.0163440440004948
0.6	-0.725882795404743	0.689260600905913	-1.73092087765962E-06	-1.8275726962666E-08	4.17652256858733E-06	-1.03700641638997E-05	1.00163887761548	-0.0195093281684157
0.7	-0.633700045138338	0.775176972855566	-2.05445362749832E-06	9.90887465138277E-07	3.79187836928061E-06	1.12001656293754E-05	1.00138054496714	-0.02181620522878
0.8	-0.531072593790127	0.849312225756642	-5.62814746036079E-06	3.79404207480795E-06	-3.17901592799125E-06	-2.14839667025997E-06	1.00142043032344	-0.0237998015115179
0.9	-0.419933601614674	0.909710106734108	-6.73805230160955E-07	5.27001467982091E-06	3.27902801661635E-06	-2.9427561068639E-07	1.00149473869361	-0.025675591284337
1	-0.301576696709967	0.955704688418739	1.57630256859535E-05	-3.68608354748739E-06	-9.64390263299056E-06	5.18464019894981E-07	1.00299997223036	-0.0267794555677786
1.1	-0.17904411191266	0.986175626655818	1.34993821236074E-06	-2.99906089891317E-06	9.44924084631514E-06	1.26693311719929E-05	1.00306937282322	-0.0307041813279766
1.2	-0.0525737715616941	1.00081016664816	-7.95485948641747E-06	-3.27014354611423E-06	-3.1186514162207E-06	-4.50059435295782E-06	1.00176883831772	-0.032211223644383
1.3	0.0750635358796293	0.998871768016864	1.86223594314999E-07	3.35059640886533E-06	1.93952827407777E-06	3.38887047707506E-07	1.0011877554394	-0.0338216732217382
1.4	0.200639754550008	0.980389067689951	3.38403766966959E-08	3.78235689796228E-06	-2.55445277710986E-06	-5.62965078631923E-06	0.999843703505402	-0.0360191666432006
1.5	0.323026385470809	0.947180716802376	3.19866832393351E-06	-2.77611349410106E-07	2.71939517138503E-06	2.09440523251512E-06	1.00122091557807	-0.0393673751189921
1.6	0.439509945672396	0.898343003539928	1.78682872689612E-06	-1.95292252455601E-06	-9.08287580752147E-07	-3.07110518099126E-06	1.00047913913842	-0.0434990313737617
1.7	0.548488961925658	0.835743593487513	-9.79203546703847E-08	-3.53656072651079E-06	2.02900680711659E-06	4.93637912026318E-06	1.00110455392141	-0.0457344980685392
1.8	0.648528992597815	0.760376905086453	-2.06961952356683E-06	-1.81361229739378E-06	-4.59875952444498E-06	1.83912389921683E-05	1.0011835661153	-0.0481839658938891
1.9	0.737716874461	0.674155514063988	-4.4050516654501E-06	-1.46518307751398E-06	-4.94879804467684E-06	-6.01412977379362E-06	1.00160857145929	-0.0489029099999618
2	0.819117632224436	0.578500563588015	-9.52523604676448E-08	-6.78817981826936E-07	-1.67940943800898E-06	-1.4280623042846E-06	1.00608777794145	-0.0518907233488556
2.1	0.886554988852676	0.466503820768887	-1.11035776008985E-06	9.52563963350877E-06	2.00824612498907E-06	-3.91527957131192E-07	1.00505474970706	-0.0592150979134614
2.2	0.936235428869412	0.35052882883514	-5.36783315965833E-08	-5.96521256782371E-06	-7.27064411659194E-07	2.75769933863218E-06	1.00301099017893	-0.0621913619567747
2.3	0.971691633891692	0.230113810898316	-1.30733073848832E-06	2.78782431643556E-06	-2.0674034299238E-07	1.20387638836216E-05	1.00179228609247	-0.0640475228941635
2.4	0.992241685248208	0.105588438105348	-5.92432953306528E-06	-3.69006669686696E-06	-1.75905126645901E-05	1.47048289109858E-05	1.00116778481018	-0.0668955728403032
2.5	0.997930310367987	-0.0200663782708881	1.80634964329113E-06	-2.98365503311319E-06	-1.74975214900788E-06	7.58317440695347E-06	1.0013056290145	-0.0690499546626262
2.6	0.98706512471595	-0.144584754818352	2.87664412927248E-06	9.09688996358567E-07	-1.73757102334094E-06	4.52669414314326E-06	1.00118301775047	-0.0726705017607359
2.7	0.96105407179106	-0.267445735668225	3.89215612489602E-06	1.04792005626816E-05	2.35290847660975E-06	3.87651892440254E-06	1.00085662871318	-0.0762663666302894
2.8	0.919339991321022	-0.386703573137937	-8.31587630974056E-07	-2.30094520253897E-06	2.0953471924502E-07	-1.899861671512E-06	1.00063605922886	-0.0792146619582858
2.9	0.862826357128685	-0.498964539337337	3.72894646130887E-06	-8.3894754242094E-06	-1.38141667962323E-06	-1.42944000049285E-05	0.999510407416483	-0.0817701207930446
3	0.792850168522757	-0.603510374058765	3.99973009417023E-08	6.68178481029747E-06	-1.48003499645588E-05	5.4456526672263E-06	0.998864548405569	-0.0844676364676824
3.1	0.710740569662652	-0.697500299138935	-4.938104456164E-06	7.90195423806168E-06	5.83381504583044E-06	-1.36399853151902E-07	0.997848196598975	-0.0871833070366334
3.2	0.615665367196047	-0.780802783884891	9.83915591850059E-07	2.12385937635618E-06	-4.572113660285E-06	5.23515245560848E-07	0.996532591910328	-0.089263274943253
3.3	0.511242631433902	-0.851001061738538	7.05866325857415E-07	-1.470232489316E-06	-4.58378397420909E-06	7.80497821326375E-07	0.995006772374729	-0.0927881855705243
3.4	0.39857217517418	-0.905688447765602	6.4708166680175E-06	1.64202392645914E-07	-8.21238432646958E-06	-7.09004357408337E-06	0.993085047308764	-0.0944050146264668
3.5	0.285122408119962	-0.94619944862694	-7.66214722265696E-06	2.01671483978473E-06	-5.94886546149931E-06	-7.91400581454002E-06	0.992842713790779	-0.0948310295605511
3.6	0.162551692362504	-0.977756471356053	-8.87918146712288E-07	-4.37401713284109E-06	-7.85921664895097E-06	-6.27417333993554E-06	0.993580981278001	-0.0984605247856979
3.7	0.0361001692674531	-0.989796263928167	-6.76884529854227E-06	-6.70925736889071E-06	4.87381339711885E-07	-4.76569225833055E-06	0.99208897964816	-0.10179434984011
3.8	-0.0894667196181767	-0.984883559519111	-3.62836345990093E-06	1.1128226653723E-06	-3.31265920073211E-06	-2.43297567655477E-06	0.99024025515511	-0.103237149540155
3.9	-0.211537986530167	-0.964845309873893	-4.51587270529724E-07	3.5044312281306E-06	2.0399352305132E-06	-1.23266116896558E-06	0.989708513752661	-0.104078087272817
4	-0.331133538342473	-0.931938782955622	1.17492054595438E-05	8.01680960690374E-06	7.23049454140801E-06	-4.10362192575548E-06	0.993537874531283	-0.105222362864974
4.1	-0.446772262531143	-0.882123044679228	5.2203845373238E-06	1.26396485817197E-06	-3.37814552184784E-06	6.6745928273438E-06	0.991832837136937	-0.111180146388072
4.2	-0.553412873037929	-0.818584014757376	-7.08256333500569E-06	-1.12454549073169E-06	-8.23419416411476E-06	4.28497493623272E-08	0.988924560311523	-0.113716001860139
4.3	-0.651276906490974	-0.742345045529347	6.76709476564301E-07	-2.36364235926278E-06	5.19706736940012E-06	8.27106510231359E-07	0.987600046626047	-0.115065460333632
4.4	-0.739188282030679	-0.654502409690985	4.43614568895382E-06	-1.80533911917496E-06	-8.52319404323676E-07	1.34801143027294E-06	0.98670700178952	-0.116755839575257
4.5	-0.815898263073901	-0.555353069208751	6.76899748722237E-06	1.79300543267596E-06	-8.3180958844179E-07	-3.23329696112839E-06	0.986403701032453	-0.119627654105819
4.6	-0.878726385536067	-0.44775766067308	2.46699555253383E-06	2.91014933020572E-06	-6.45703759287182E-06	9.74453182142516E-06	0.984071330949992	-0.122039449071974
4.7	-0.92791810636221	-0.33252150398952	-1.39065788819993E-05	5.99714636327559E-06	-3.43929072470679E-06	-4.73160680590941E-09	0.983314280742677	-0.123203587619608
4.8	-0.96227803038327	-0.21210297364762	-3.18318901533072E-06	-5.0806375618807E-06	-5.46579179589058E-06	2.39571960627948E-06	0.98238435644899	-0.125189730624126
4.9	-0.980293205387606	-0.0873930628765162	-1.09228180049945E-06	-8.4786378985551E-06	-4.18277386057087E-06	7.73303521355261E-07	0.981168092750313	-0.126431859600623
5	-0.978136208839092	0.0359065654059139	7.4561249554262E-06	-1.62205916164503E-06	-1.75830014136489E-06	-2.67696829018402E-06	0.980343623203434	-0.127029004149136
5.1	-0.966557245412535	0.15515813326881	-2.61241630350389E-06	-6.30671125997914E-06	-1.00980507107996E-06	-1.9250909834952E-06	0.979900174084332	-0.127636088468919
5.2	-0.94043242487312	0.275339837885796	3.95088030541254E-06	-4.54031274246664E-07	-5.34358965961127E-06	6.26858869384648E-06	0.979177556394239	-0.129006781573096
5.3	-0.898367873383896	0.390911023103814	5.11006925505177E-06	5.91109097424339E-06	-9.67529464298072E-07	-3.53950692915177E-06	0.97841155184147	-0.130513223339033
5.4	-0.84227318183312	0.49943453399027	3.0152648542376E-06	-2.00333345966154E-06	-1.1161629494621E-05	2.21828496352062E-06	0.977260772193612	-0.13209784923318
5.5	-0.774045117448183	0.599676030051006	-4.30256594257282E-07	-2.16606331311036E-06	-5.70487611242585E-06	6.05745575406721E-06	0.977833549447363	-0.132050109616863
5.6	-0.693246398287752	0.69221688274453	2.36388047806184E-06	7.21717195302155E-06	-5.27379989424551E-07	2.89667262245921E-06	0.978834539431913	-0.13529806429988
5.7	-0.600906960440652	0.773571012581861	-2.53779086409874E-06	2.33645700484913E-06	7.82119857629109E-06	2.73505328757162E-06	0.977632676689545	-0.137492285931154
5.8	-0.499247664961706	0.841383981692734	-4.58751051237786E-06	5.04038216534145E-06	-3.60639321017951E-07	3.37879349257406E-06	0.976613228689609	-0.138234591935207
5.9	-0.391864750387516	0.896120798113977	6.2696254012878E-06	1.49532633921235E-06	-2.68201284911418E-06	2.50630690691112E-06	0.976642851270437	-0.137069616454792
6	-0.278407790656018	0.940696345812022	3.47757390201907E-06	3.28528416143648E-06	-3.190573893027E-07	-1.42261468303619E-06	0.982317034221393	-0.138397176420335
6.1	-0.156769539864468	0.967195243992977	9.09017857314712E-06	1.52085954740028E-06	-1.24302905600368E-07	-1.79211875766701E-06	0.980634793978011	-0.144131065194768
6.2	-0.0354636806328835	0.978009459313566	2.41687409900983E-06	-1.70723772565188E-06	1.47342375959224E-06	-4.79124699421335E-06	0.978206954918986	-0.144619750650419
6.3	0.0858581481052447	0.975196006918843	-4.32741056187188E-06	4.18656672463655E-06	-6.03295018991176E-07	-1.70889692197433E-06	0.977378091805553	-0.145009862091781
6.4	0.206989294637349	0.959596944952574	-4.23189059564663E-06	1.04497861691777E-06	-1.77878913756293E-06	8.76047063163256E-06	0.978271670388156	-0.145691270706584
6.5	0.331053041185419	0.925590728084106	2.43034149637965E-06	-1.32040610438541E-06	1.47348085558466E-06	-2.90500245089842E-06	0.978858897042704	-0.151448966597274
6.6	0.4410644537016	0.872826103762462	-4.66939128395488E-06	-2.23266592071415E-06	-1.83039720262533E-06	-6.55550806028186E-06	0.974774141872398	-0.152505653687239
6.7	0.544583758862897	0.811935557761108	4.11008012194552E-06	-6.34849489574931E-07	-4.61791219408301E-06	9.78247094314087E-07	0.974844583380522	-0.152192063184532
6.8	0.640894301631553	0.738392804277368	3.71914624477692E-06	-2.03127981535604E-06	6.1373476019803E-06	-8.76157227458155E-07	0.975098881475508	-0.153034090598486
6.9	0.727143336426759	0.653818451354215	2.00858628982031E-06	1.63423760232148E-06	8.68607669164633E-06	-2.65463873254258E-06	0.975502763079796	-0.153214449133315
7	0.803881821464441	0.55944385911657	2.1087921188891E-06	4.07302136293921E-06	-1.45148458941641E-07	5.3229823280729E-06	0.978190987591524	-0.154557348707379
7.1	0.867380375965903	0.454310634515505	-1.46747603223947E-07	1.69972148219592E-06	8.2209518896167E-06	-4.52808021436101E-06	0.977239335545625	-0.158015188893244
7.2	0.91642610085314	0.342675653390384	4.81190411374164E-06	-1.3379673837301E-06	7.15266297469733E-06	3.80686846074708E-06	0.975846995277563	-0.159255584142921
7.3	0.95057074895606	0.225733310229957	4.81956498381684E-06	-1.05509921978705E-06	-7.20058777837823E-06	-7.36631182655891E-06	0.973969866301521	-0.160442833959231
7.4	0.968154525130967	0.106478044594514	-1.90422448347972E-06	9.74290038224574E-06	1.45042734614339E-06	-4.0001185363474E-06	0.970410555893002	-0.160212282235947
7.5	0.975622892446334	-0.00869807082022098	8.13451253955594E-07	8.08023707628823E-07	1.63019393220739E-06	1.00600548959968E-06	0.972887194395615	-0.1552627707492
7.6	0.971596106742194	-0.133305476457986	1.48994385627134E-06	-2.56357443747277E-06	-5.30238330615894E-06	-3.69359436920347E-06	0.977490167956174	-0.160611696900552
7.7	0.947350005078143	-0.25550294549999	5.48719977546014E-06	2.49008213926415E-06	-6.98990367287906E-06	1.18349205137219E-05	0.977188480546802	-0.164659249118417
7.8	0.908542862260001	-0.372201301412128	-5.11421232333506E-07	-5.21956550692858E-06	3.79804344385964E-06	-4.63613550704127E-06	0.977278614548022	-0.166833030821488
7.9	0.857500932798838	-0.481916254145457	8.7783390422033E-06	1.71168766044256E-06	-9.30645184997135E-06	-8.8023486749923E-06	0.979168665024244	-0.166891681384897
8	0.797300459519771	-0.592431912405434	-6.65220032163564E-06	-1.77859529286821E-06	-1.21154325502006E-05	2.25269068801569E-06	0.987592672874183	-0.171955453520201
8.1	0.710189646618667	-0.693112309674815	5.09112060443175E-06	8.03708850434803E-07	2.87546579726586E-06	2.31251646482816E-06	0.985113599348456	-0.181266232301964
8.2	0.615148050254384	-0.775262099738986	3.60619493787158E-06	-2.53982944320404E-06	-3.55169681720128E-06	-1.16945689458988E-05	0.982771302159897	-0.183784088373198
8.3	0.512288577397503	-0.845403845483265	2.75613501288214E-06	-1.83076133984498E-06	1.58091899550196E-06	5.32446685541502E-06	0.981989978843997	-0.186061765443229
8.4	0.401991507503366	-0.901696903844924	-5.55363268974883E-06	-1.08016045815899E-06	1.02654553810805E-06	2.96856172626924E-06	0.982016336344185	-0.188490268488944
8.5	0.287593794357753	-0.945237125280665	-3.30650308334709E-06	1.58676689123119E-06	-4.73394109649284E-06	-5.05669044531148E-06	0.98201082272566	-0.192708464551594
8.6	0.164759767376756	-0.976419430624302	-8.17334982415588E-06	1.27714504279429E-06	-4.25513879563739E-06	-6.93334177861739E-06	0.980543895931265	-0.195153235763481
8.7	0.0383020492160579	-0.989605225891347	2.2832105034867E-07	-2.12588355096511E-07	6.13626056947751E-06	5.91335133219313E-07	0.980769957498978	-0.197107255111393
8.8	-0.0888237331548179	-0.986307398444781	1.05220836220211E-06	-1.81668224882107E-06	-2.38939668181047E-06	-1.31638692561631E-06	0.981330436944671	-0.199378286591793
8.9	-0.215017280549223	-0.965745507946344	-3.3173364012637E-07	3.05438081661753E-06	-1.22768007140077E-06	-1.66509395286485E-06	0.982150477802444	-0.201731629027334
9	-0.331086252553623	-0.926207930427585	2.97791600344121E-06	1.61515271758829E-06	-1.59655612593607E-06	2.11188224158846E-06	0.983024191949756	-0.204222554375254
9.1	-0.442064763829784	-0.881371720624304	-9.3672582920866E-06	2.18232960576972E-06	-1.59321805913751E-06	2.40285366156815E-06	0.983883525469627	-0.207264890723775
9.2	-0.550087891287799	-0.820720742640513	7.54076641465353E-06	-1.57422217417499E-07	-9.16763847020818E-06	1.88356531036886E-06	0.984024275230879	-0.210952280582955
9.3	-0.649274155553168	-0.746562022201351	1.52024539057234E-07	-7.19615571478658E-06	1.60763562877483E-06	-1.28975630804059E-06	0.98342769885744	-0.214649953092104
9.4	-0.736943802917306	-0.659691898040723	5.74217257294414E-07	2.49872730788116E-06	1.66224932184372E-06	-3.59249251935415E-06	0.981437870571868	-0.217381711071175
9.5	-0.813329352396969	-0.569780127100275	-2.99476665804634E-06	6.63224816405197E-06	4.77075116764743E-06	-1.29853358180296E-06	0.98244177649366	-0.217847246227419
9.6	-0.887567292950927	-0.462790723066981	-5.00341590608311E-06	-5.33531377823795E-06	4.77116339930564E-06	2.98327329693034E-06	0.983534984989576	-0.223294115650213
9.7	-0.940993670592347	-0.343165444091632	-1.96418197867288E-06	-5.16017533935544E-06	2.12239263938654E-06	3.61252703435452E-08	0.982376435457459	-0.226813135067265
9.8	-0.97743283741431	-0.218811779605235	6.48256296688622E-07	-4.3328214754284E-06	-2.95026214232881E-06	-2.58231475603241E-06	0.981680691749097	-0.228421471515399
9.9	-0.99697981216675	-0.091187065371743	-6.24442850156488E-06	4.19765438841644E-06	-3.14487113944275E-06	1.65299409844307E-06	0.983046370222969	-0.227585227679777
10	-0.999869259183972	0.0352823669311085	3.63328196491942E-06	-8.81407450044253E-09	8.26486089009435E-06	1.13697519154392E-05	0.990755214032574	-0.233215105218033
10.1	-0.989281970018949	0.161426949843702	-2.88884073515148E-06	-2.58239952889491E-06	-2.02640787322228E-06	-2.55169953165732E-06	0.986202168050586	-0.241651072070781
10.2	-0.962305953440295	0.286979966519631	2.40107137448798E-06	-1.02422772481268E-06	-2.80732965019682E-06	-1.10003956061213E-06	0.983168065433668	-0.242988004902653
10.3	-0.919373066547144	0.408338638304674	7.9246771986027E-06	-6.01347532388809E-06	3.88474179837206E-06	8.39328570473793E-06	0.982093861259672	-0.244352119149192
10.4	-0.86227066000063	0.524905493870239	1.73824286432899E-06	2.61524444369361E-07	6.40322573015666E-06	-1.18853076785014E-06	0.982530017709124	-0.246349185460535
10.5	-0.784508702466715	0.634720437049748	8.50152629992704E-06	-4.238005077502E-06	-4.99773578824633E-07	2.01134023769241E-06	0.982629647105468	-0.252297271794431
10.6	-0.696104488917542	0.724827338930406	9.0743427769954E-06	-1.3078928053967E-06	-1.47189177323929E-06	1.38595735123163E-05	0.980192851338658	-0.255322402135322
10.7	-0.600239740204906	0.805623566690566	8.13979710268942E-06	-1.94733856170452E-06	-3.1112739107398E-06	-5.35923324510442E-06	0.979981630227477	-0.259035628672601
10.8	-0.493861820745462	0.87558776102364	2.50557872394504E-06	5.32570725958073E-06	-3.68719206915381E-06	-1.98095410326914E-07	0.978878068253487	-0.2630163594336
10.9	-0.376356480260863	0.93142288149374	-5.64136216409751E-06	5.20372378965301E-07	1.64155480192346E-06	4.08217665600642E-06	0.977876176193834	-0.266096467596768
11	-0.255363453229219	0.96595117824004	-1.57998255428395E-08	-5.28864945323372E-06	-8.47916067730317E-06	2.29072603981067E-06	0.977380769972313	-0.269552717638465
11.1	-0.135906719893535	0.993048435903566	6.4182576497649E-06	4.13102327246698E-06	-1.8984162086111E-06	1.09283699780288E-05	0.97460120836136	-0.273374531056489
11.2	-0.00842817822918753	1.00483023521441	1.6102490797792E-06	1.36846053494414E-06	5.26272871263883E-06	9.0168682521989E-06	0.971548104705927	-0.275796788229942
11.3	0.120476016481231	0.99834768559262	-4.8138020097419E-07	-1.76063598740043E-06	-7.3981438765448E-07	-4.45761750733664E-06	0.96803058259886	-0.277278439235424
11.4	0.246608070551598	0.974704034796853	3.3139638329756E-07	1.20144542090287E-05	2.49808007672617E-06	4.97276988310818E-06	0.96386199904279	-0.277714331353259
11.5	0.368216455757649	0.935040428548867	6.26174113784299E-06	-3.69386786410461E-07	3.07765799396413E-07	-1.90513130552431E-06	0.966514934883343	-0.276371418688724
11.6	0.482416408515798	0.880449081135656	-6.05972832454019E-06	3.15625257196282E-06	-4.91858214450834E-06	1.97600019578416E-06	0.966699665219294	-0.283893013007888
11.7	0.588379221412397	0.812699649359176	3.35200568475494E-06	-1.84737381387867E-06	-1.70797737107374E-06	2.27966933876744E-06	0.963292234512519	-0.288310021195214
11.8	0.684110991039451	0.731832659559423	-7.40143022808262E-07	9.90780636770096E-06	-2.64939456189603E-06	1.06776688826201E-05	0.960758580148891	-0.290438315356024
11.9	0.768097614858885	0.642034311584539	-7.38278692915749E-06	-9.97827838756413E-07	-3.87547772214662E-06	1.13989965098483E-05	0.962962852084013	-0.289511850009673
12	0.847225899522537	0.54240085357609	-6.44694949542737E-07	1.41162253656975E-06	-3.20766723770547E-06	-1.9335616809028E-06	0.970940371292604	-0.29770058787216
12.1	0.907443878820909	0.425554102610157	-3.86245873569097E-06	5.12200876834889E-06	-1.23247342333813E-06	8.56338226530708E-06	0.96463497011219	-0.307896451909498
12.2	0.95027837955029	0.307178294365206	-6.45805934515529E-07	-3.83651072722954E-06	-3.16502051733422E-06	-6.89500488868799E-07	0.959757995783642	-0.311793516074475
12.3	0.979220850434858	0.186109108805265	3.69745558170653E-06	3.40943935460659E-06	-3.3662799977796E-06	6.39791020072825E-06	0.956001428447392	-0.315130067298996
