# GHZ S RI R 50
0.2	-0.965518109309416	0.251815349862171	8.82076913156664E-06	5.31588560929644E-06	1.13534747619792E-06	-2.88876380098895E-06	0.999169226985604	-0.00709611048764723
0.3	-0.925828404437949	0.371662707204079	-7.65806984592336E-06	-8.15859449548357E-07	-1.32199213264787E-08	3.65735118067889E-06	0.998944733939457	-0.0100058627656936
0.4	-0.87078880417036	0.485298867192173	-2.19366493670056E-06	6.3349891072637E-06	2.91968392204767E-06	5.73019224370606E-06	0.998687197877394	-0.0127136568268584
0.5	-0.802258013467212	0.590849368284738	-2.64540466942054E-06	5.48812823491893E-07	1.05076266989416E-05	4.87612683207915E-06	0.998030061880186	-0.0154918544497795
0.6	-0.721237475219659	0.687053854760041	-1.72332604527944E-06	-1.8357280823419E-08	4.15917009515072E-06	-1.03241830142825E-05	0.998442115950044	-0.0180218942196566
0.7	-0.628638437906708	0.772365831485906	-2.04459930150389E-06	9.87296655882922E-07	3.77966910718659E-06	1.11471821137411E-05	0.998192886509082	-0.0211266024698731
0.8	-0.526021037724685	0.845258381019976	-5.59807409963864E-06	3.7776171664765E-06	-3.16404661441668E-06	-2.13610334135752E-06	0.997942401301185	-0.0233620939067393
0.9	-0.415377008461663	0.904421912704002	-6.67390923705561E-07	5.24347585704556E-06	3.26211297423447E-06	-2.94622007797456E-07	0.997931683434748	-0.0259145636091328
1	-0.297775672321136	0.949235379504019	1.56610926535653E-05	-3.68716918111766E-06	-9.58414290055394E-06	5.29749956028859E-07	0.997288770490307	-0.0279584844506379
1.1	-0.176625818264686	0.978688534346531	1.33964840558659E-06	-2.9767808503126E-06	9.37965162984175E-06	1.25741136868258E-05	0.996759319839702	-0.0295222524092197
1.2	-0.0519238581829189	0.992837930162707	-7.89285413817235E-06	-3.25631874392462E-06	-3.09030528367696E-06	-4.47174661047774E-06	0.996323135699746	-0.0303220982213229
1.3	0.0734755333336025	0.991173925512728	1.74998251437381E-07	3.32823475703502E-06	1.9252572767026E-06	3.42330076412611E-07	0.996611113954801	-0.0308900173392646
1.4	0.197336347284653	0.973734967479877	1.66136999959823E-08	3.76067604299222E-06	-2.514358083323E-06	-5.6086565409797E-06	0.996655115771944	-0.03258055828539
1.5	0.318090522967204	0.941083081043771	3.18096121794403E-06	-2.60555778716997E-07	2.69311938672138E-06	2.0950306570597E-06	0.996859501201109	-0.0359760536722866
1.6	0.433811136090957	0.893891676429091	1.78801407556457E-06	-1.93201671789678E-06	-8.85881768077677E-07	-3.0592808799588E-06	0.996361199830658	-0.0390946281170216
1.7	0.542622269069119	0.831975281537971	-7.89470202697347E-08	-3.51862518288182E-06	1.9926531681316E-06	4.92122332817795E-06	0.996658970864424	-0.0418117178717678
1.8	0.642567895409663	0.757337534999613	-2.05096757444222E-06	-1.81437659164356E-06	-4.66215593978561E-06	1.82793485022392E-05	0.996399276962283	-0.0447461448710243
1.9	0.732428927487485	0.670740992978432	-4.38165133819135E-06	-1.47033585286928E-06	-4.91095951259993E-06	-6.00055622490214E-06	0.996105205486293	-0.0475177275940929
2	0.80996743507638	0.572954384290537	-9.4203297944638E-08	-6.72514129049118E-07	-1.66341818933281E-06	-1.41515207880894E-06	0.994152959382273	-0.050634458355855
2.1	0.875001932416342	0.466912638704288	-1.15176331174952E-06	9.41637308419677E-06	1.98871822241873E-06	-3.76031212230589E-07	0.993608203931915	-0.0513453921208697
2.2	0.926822291729368	0.353727800823803	-1.15305295476895E-08	-5.91285605603128E-06	-7.39902715548475E-07	2.72824241290082E-06	0.994148087335743	-0.0533386968621262
2.3	0.963827322015663	0.234534631757571	-1.31737079340634E-06	2.75589871918399E-06	-2.93623151456163E-07	1.19408969401923E-05	0.994173390694867	-0.0550927384860789
2.4	0.985507358683818	0.110771743786643	-5.84968996729211E-06	-3.71150944991636E-06	-1.75808974967565E-05	1.44499086438862E-05	0.994350673822108	-0.0582524446967959
2.5	0.991721082078334	-0.0137477761839319	1.82309529121572E-06	-2.95315453353876E-06	-1.80650191467982E-06	7.53019193390294E-06	0.993804955381929	-0.0606599542624053
2.6	0.982232447970123	-0.137192658077276	2.85639156503775E-06	9.22697975617025E-07	-1.75648089931112E-06	4.4929468043433E-06	0.993582647685339	-0.0633216288899016
2.7	0.956973939408142	-0.258949165728781	3.80150090364644E-06	1.04306455395261E-05	2.31307666460221E-06	3.86411791553038E-06	0.993041821440019	-0.0660982561391937
2.8	0.916864234825326	-0.376503140168294	-8.08289863604827E-07	-2.28878851492154E-06	2.21683072509425E-07	-1.88331189171794E-06	0.993168088842275	-0.067737681505129
2.9	0.862878538167319	-0.487744109997053	3.7720046920998E-06	-8.28988506504597E-06	-1.24611317865232E-06	-1.41919426379286E-05	0.993125997655362	-0.0695333375411112
3	0.795391892652262	-0.591958254801704	-2.61925608582723E-08	6.63300190548916E-06	-1.47451254738217E-05	5.2596126975544E-06	0.993195808586607	-0.0719637297701042
3.1	0.716497876767444	-0.685922120266743	-4.9902856658206E-06	7.79270840602338E-06	5.79462146681803E-06	-7.14970945396929E-08	0.993088826228664	-0.0737181902178823
3.2	0.624774591623956	-0.770753714783786	9.52169228739502E-07	2.12384185478729E-06	-4.55245730009187E-06	4.64275469451198E-07	0.993177744215159	-0.0752819314087127
3.3	0.523411060139628	-0.843425933092314	7.23003221540999E-07	-1.45469656691095E-06	-4.57587781014757E-06	7.15026355375491E-07	0.993408766726011	-0.0783466290010852
3.4	0.413362713651676	-0.903002323748058	6.46311961782219E-06	2.59855744091547E-07	-8.10074719206153E-06	-7.20584051069796E-06	0.994103041549167	-0.0803638227573871
3.5	0.29546808535751	-0.948702811825163	-7.70554587752795E-06	1.93880164144368E-06	-5.87919261843569E-06	-8.00098431633072E-06	0.994153240020442	-0.0839888243730962
3.6	0.172684096948649	-0.977373449480531	-8.45356319165154E-07	-4.38101739981257E-06	-7.79579409173564E-06	-6.34781490608274E-06	0.993361920961129	-0.0861460848280868
3.7	0.0484918413253648	-0.99179562956107	-6.69151058891199E-06	-6.78556835248186E-06	5.41644334275187E-07	-4.7595344014834E-06	0.993659772316321	-0.0884391334967235
3.8	-0.0772023936431088	-0.990235723264502	-3.64592455165609E-06	1.07139806025783E-06	-3.28802177341269E-06	-2.47501507600258E-06	0.993899586015766	-0.0905758446075893
3.9	-0.201198242670435	-0.972674858869021	-4.89569454535888E-07	3.50608923587048E-06	2.05675496828213E-06	-1.21330229169261E-06	0.99441875115711	-0.0945739799183249
4	-0.321920317492099	-0.939402111137398	1.16462538856594E-05	8.14629137855576E-06	7.27196118588443E-06	-4.01627462478394E-06	0.992658228714766	-0.0968046482577445
4.1	-0.436709159631567	-0.892093431662272	5.21124836201856E-06	1.34336236905548E-06	-3.48287669650684E-06	6.63689061015922E-06	0.992310842431214	-0.0971954458407428
4.2	-0.5452375464851	-0.831143620183537	-7.09626131074809E-06	-1.22957320696418E-06	-8.26924552901957E-06	-7.3607352322384E-08	0.992465582526695	-0.0996085537903743
4.3	-0.645555393765453	-0.756294836881716	7.1188621786689E-07	-2.36721989318042E-06	5.21375826240671E-06	9.00924788903732E-07	0.992732652656157	-0.10165822531557
4.4	-0.735681766457117	-0.668776482733694	4.48382082736713E-06	-1.75978497821572E-06	-8.74055685841496E-07	1.34490030472578E-06	0.992435842488669	-0.104150423017783
4.5	-0.813765765975512	-0.570544597740392	6.78397669008261E-06	1.89508565892822E-06	-7.92842500913288E-07	-3.26331790911556E-06	0.992296587729238	-0.105834300316337
4.6	-0.879352119573835	-0.463450285896497	2.44789874852097E-06	2.96505386477227E-06	-6.63491026871213E-06	9.73521927568094E-06	0.992739574618924	-0.108378635382582
4.7	-0.930765247475793	-0.348076435752914	-1.40954261735577E-05	5.87353974745918E-06	-3.46749693485537E-06	-4.7529293748473E-08	0.993024059202047	-0.110606314456722
4.8	-0.967047078655736	-0.227746113898694	-3.14685333626268E-06	-5.16344498230191E-06	-5.54204897623599E-06	2.3478986561689E-06	0.99291617425658	-0.113137580103988
4.9	-0.987379490526762	-0.104740864967899	-9.86345629918812E-07	-8.57186094871366E-06	-4.23197180745566E-06	7.23206399663129E-07	0.99299836705113	-0.114996119049647
5	-0.994076957702764	0.0191360574577586	7.58105396128066E-06	-1.54026554230111E-06	-1.74506695935941E-06	-2.73823117387944E-06	0.993280422499617	-0.116933681892162
5.1	-0.983923878256286	0.146178154903788	-2.58665816895962E-06	-6.42653987184988E-06	-1.00508010014213E-06	-1.96383512035712E-06	0.993601995423686	-0.118553457372401
5.2	-0.957827117534062	0.268958614070725	4.01369438599875E-06	-4.24229806329801E-07	-5.48083859737621E-06	6.31217227426313E-06	0.993821089061902	-0.12111865774747
5.3	-0.917036845526672	0.387675465076268	5.14112404723868E-06	6.04810641077071E-06	-9.52930464836242E-07	-3.60384678864009E-06	0.993913379932419	-0.123848423338281
5.4	-0.861402456980344	0.500739743139696	3.08190610852819E-06	-2.0174772425617E-06	-1.13722821719971E-05	2.17971103832334E-06	0.994289525917246	-0.127118162002453
5.5	-0.790771445008969	0.605546347112176	-4.30597155562024E-07	-2.20531607704691E-06	-5.82456598155216E-06	6.14434951352764E-06	0.993906520569644	-0.1310970535479
5.6	-0.707616945565127	0.699588833236942	2.37865747478877E-06	7.33748088489754E-06	-5.44566109042974E-07	2.94041035683166E-06	0.993036589476319	-0.133416269694412
5.7	-0.61402358915033	0.783186738044439	-2.58619557266067E-06	2.36713391346902E-06	7.94094872629102E-06	2.80292741612992E-06	0.993221080141921	-0.135767564712203
5.8	-0.51027797766694	0.854140486735663	-4.67629977524061E-06	5.12242418249465E-06	-3.72188654714296E-07	3.43794869383584E-06	0.993650362071162	-0.138475973875438
5.9	-0.398166520987627	0.911962536388386	6.38998149673378E-06	1.50760936177198E-06	-2.72570176018271E-06	2.55958525174749E-06	0.993735830606555	-0.142278888118936
6	-0.279438249493828	0.953393963105098	3.54035373563105E-06	3.30692231338428E-06	-3.31234921922847E-07	-1.43877786742162E-06	0.991044910985207	-0.14523128381762
6.1	-0.158536911246235	0.980026484451832	9.202793792834E-06	1.52418850618204E-06	-1.28783319040332E-07	-1.81361663738923E-06	0.990623271230736	-0.14502543467853
6.2	-0.0341878798596515	0.992053800430228	2.44592532690162E-06	-1.73595944572846E-06	1.48264527209432E-06	-4.8598345809688E-06	0.990709528452819	-0.146464348982626
6.3	0.0909579568660965	0.988389316040601	-4.36988667726554E-06	4.25894291932132E-06	-6.17777165927425E-07	-1.72959141845717E-06	0.990405778602795	-0.148602157051697
6.4	0.214565915288137	0.968354740190758	-4.27351999814054E-06	1.07465620802096E-06	-1.76033654504586E-06	8.86367885405149E-06	0.989773152117172	-0.151044408918156
6.5	0.332499994873933	0.933872536002889	2.45817106939986E-06	-1.33021550994441E-06	1.49390389097656E-06	-2.93311876638132E-06	0.989156799439355	-0.152535710893315
6.6	0.447906509144958	0.886700291617952	-4.74836696268835E-06	-2.27075900041554E-06	-1.86102794590748E-06	-6.66667093278747E-06	0.990767725160118	-0.155311628971318
6.7	0.556382903530494	0.823284270309728	4.18038078152899E-06	-6.59909538107714E-07	-4.69600488582609E-06	1.0110735623273E-06	0.990846373122782	-0.15881884616972
6.8	0.655528865355642	0.746880630785549	3.77392710925209E-06	-2.08791719711296E-06	6.24144683476164E-06	-9.25670009708229E-07	0.990391542430383	-0.161842261371154
6.9	0.744305740783309	0.658621576717043	2.05883312492667E-06	1.64749119245979E-06	8.82290613189052E-06	-2.77506040043439E-06	0.99004142708486	-0.164845806359912
7	0.820600648867014	0.559468416435125	2.19064160313885E-06	4.10959842748739E-06	-8.25291985206618E-08	5.40612218064339E-06	0.988346924754055	-0.167316361355898
7.1	0.883758431675441	0.45297044858167	-1.30728526518925E-07	1.72316085108458E-06	8.2791308475086E-06	-4.67302456248894E-06	0.987732042117708	-0.168305213274696
7.2	0.933573860621212	0.338929514028656	4.86220235237003E-06	-1.40376174495705E-06	7.28535163963887E-06	3.7857556116875E-06	0.987528568146035	-0.170027068023978
7.3	0.96856264022446	0.219525940925105	4.87779324952198E-06	-1.11558724629296E-06	-7.37211395003781E-06	-7.40248840039619E-06	0.987091405864039	-0.171781004052929
7.4	0.989462974625768	0.095983553126555	-1.84953599659429E-06	9.94416518387824E-06	1.44057126012043E-06	-4.08896646726561E-06	0.987638856031348	-0.174560921576734
7.5	0.993738376095596	-0.0320241614946998	8.48044581223524E-07	8.1003567691064E-07	1.68724337573092E-06	9.96150780336196E-07	0.986826617726925	-0.180086636874253
7.6	0.979567792678667	-0.156966468227509	1.4504639223885E-06	-2.63462710442769E-06	-5.46375662934295E-06	-3.62051858850848E-06	0.984135482048722	-0.182938083659932
7.7	0.951666968262992	-0.279346223368948	5.61014753859024E-06	2.39149629049518E-06	-6.79640942397964E-06	1.21378739480835E-05	0.98356690316577	-0.186168653941978
7.8	0.90862178359888	-0.397589885457218	-6.47862801572316E-07	-5.26120218935272E-06	3.72123893278931E-06	-4.77992597501924E-06	0.983227361352017	-0.190019103759231
7.9	0.850000529678784	-0.5097170988779	8.8945940340808E-06	1.46370738026568E-06	-9.63724997648992E-06	-8.59152033653483E-06	0.982293155703116	-0.194827441237785
8	0.775762638324712	-0.610552270221665	-6.6682431668248E-06	-1.56685396503934E-06	-1.19781973250001E-05	2.6070683831771E-06	0.978090288061574	-0.198241541468608
8.1	0.695344701618314	-0.70021516720319	5.07011578964294E-06	6.97726839402542E-07	2.90017057176487E-06	2.23921687073908E-06	0.977462769243306	-0.198066745197286
8.2	0.603494331187278	-0.782174843652663	3.54530471039988E-06	-2.5894116144282E-06	-3.73503819595371E-06	-1.15774011337482E-05	0.977799360602749	-0.20020657559644
8.3	0.500984810673562	-0.851998324275189	2.71493895697388E-06	-1.86765029534946E-06	1.6604024500801E-06	5.2765191865505E-06	0.977247230953057	-0.202988001312012
8.4	0.390111221342679	-0.908376300889772	-5.54909497275657E-06	-9.9534698149842E-07	1.06602735271088E-06	2.94278002769675E-06	0.976153499827992	-0.205718440771894
8.5	0.271518659022307	-0.949796432478488	-3.28038791845347E-06	1.63712873524667E-06	-4.80985607751247E-06	-4.98107977102637E-06	0.975071917500154	-0.207757549052804
8.6	0.149929365799176	-0.974722533309597	-8.12425896039649E-06	1.42491410189084E-06	-4.37063985735439E-06	-6.83281628952571E-06	0.975142704951855	-0.210251737906455
8.7	0.0264894016335642	-0.985358335453464	2.2314586493783E-07	-2.15356456869286E-07	6.10938818893893E-06	4.78516723214181E-07	0.97464211616349	-0.213065186408954
8.8	-0.0974247170744604	-0.980493973641962	1.01408523640761E-06	-1.81823239323838E-06	-2.39034932747886E-06	-1.26681685786087E-06	0.974024200536773	-0.215454835090434
8.9	-0.218786784217923	-0.961224319783305	-2.91356652189453E-07	3.02678067713919E-06	-1.2351134697287E-06	-1.63301126150434E-06	0.973722106441124	-0.217649437513724
9	-0.338216933841921	-0.928270236901258	2.97499433508813E-06	1.58170934025661E-06	-1.5703734770011E-06	2.1135394516626E-06	0.973194322180665	-0.220164238958659
9.1	-0.453089563393044	-0.877821800093574	-9.30220252097542E-06	2.28205591555192E-06	-1.55851890737427E-06	2.41121162960068E-06	0.972392611403204	-0.222284369861742
9.2	-0.559898464843764	-0.813749689636798	7.50143352764816E-06	-2.48592767102293E-07	-9.09918543324993E-06	1.98600961900125E-06	0.971461340337833	-0.22459389908746
9.3	-0.657770947376527	-0.736906321555557	6.11151626280751E-08	-7.16321148259932E-06	1.58368864363161E-06	-1.3036552000738E-06	0.970856040554369	-0.226571183148571
9.4	-0.74565938676911	-0.648584915798441	6.06783962479246E-07	2.48343932775196E-06	1.60804702317321E-06	-3.60463307023184E-06	0.970621416987386	-0.229179940907228
9.5	-0.82162134241918	-0.54645981663171	-2.83454197341584E-06	6.6641588545648E-06	4.71818844796336E-06	-1.39630074962309E-06	0.969465136868359	-0.232855786636143
9.6	-0.879476001750876	-0.437740492225892	-5.04270023612172E-06	-5.16188729332547E-06	4.76624847500603E-06	2.84656118829043E-06	0.967987334659104	-0.235002234581807
9.7	-0.926102460456216	-0.32467490025125	-2.02027697609249E-06	-5.04760519886686E-06	2.09022750400069E-06	2.17646474820674E-11	0.967597474962346	-0.237125317090936
9.8	-0.959507194587267	-0.20551800368206	5.71672970962037E-07	-4.27339378702289E-06	-2.94251252726273E-06	-2.4959095915757E-06	0.967538524684149	-0.239364179060838
9.9	-0.977752054059315	-0.0824331284771882	-6.07261352495922E-06	4.22268165704558E-06	-3.06548670446247E-06	1.67348065062122E-06	0.966768245704149	-0.242500121483839
10	-0.980738515402541	0.0422487392180878	3.55560649918479E-06	-5.75719892526698E-08	8.24160616129728E-06	1.10157102689732E-05	0.962961442747885	-0.243490586597464
10.1	-0.966336905740107	0.166365070411709	-2.85484580693622E-06	-2.50119749776035E-06	-2.00979905516054E-06	-2.4795589426557E-06	0.963436638183242	-0.242102809461699
10.2	-0.936627375090088	0.287014611959582	2.34242779916382E-06	-1.02544338093336E-06	-2.75999996085887E-06	-1.05156145941395E-06	0.964243030477841	-0.243511235791556
10.3	-0.891894805541037	0.402833978643267	7.69833584577037E-06	-5.94979300827095E-06	3.871935450659E-06	8.17505991326313E-06	0.963903568851321	-0.24568828673485
10.4	-0.833105114153734	0.510999025911973	1.69541942119627E-06	2.43081232289499E-07	6.23094820372225E-06	-1.2012702339885E-06	0.962388610845162	-0.24834207022992
10.5	-0.762961639738696	0.609743701082018	8.28167173857358E-06	-4.11860457689788E-06	-4.88476689989122E-07	1.95793814767257E-06	0.960818103599857	-0.249487466227459
10.6	-0.681877485635789	0.701123934797199	8.87850046462675E-06	-1.262871640287E-06	-1.46486924640436E-06	1.35541659925034E-05	0.960592611027619	-0.251752142820757
10.7	-0.588488507829763	0.781131808472393	7.96516488469817E-06	-1.89210226435407E-06	-3.03497928227092E-06	-5.24711607646708E-06	0.959192866713318	-0.254118102217062
10.8	-0.485260996715108	0.848928601308826	2.4341659241839E-06	5.2131836278621E-06	-3.60379812110761E-06	-2.04117558691608E-07	0.957944143514272	-0.255257605695191
10.9	-0.374144481899982	0.902820766693642	-5.52281735982962E-06	4.77350354060362E-07	1.58318310383057E-06	4.00353025377292E-06	0.957841041305267	-0.256239419944459
11	-0.257147702932255	0.944311841240921	6.49892707252878E-09	-5.19469601367349E-06	-8.33795881640686E-06	2.21470184118991E-06	0.957299843671869	-0.256851509496943
11.1	-0.133749404441988	0.968132351967477	6.27357228602618E-06	4.06261812960031E-06	-1.88870922698793E-06	1.06959995080658E-05	0.957913565792658	-0.257374118608781
11.2	-0.0114487148012832	0.975604657530005	1.56764609158132E-06	1.34615288822955E-06	5.10071617519203E-06	8.84308342537109E-06	0.958224317093566	-0.258906715138327
11.3	0.109993317270016	0.968396120271801	-4.56777728208561E-07	-1.72546083324301E-06	-6.88131213066681E-07	-4.36476732297035E-06	0.95883237981368	-0.260810772712588
11.4	0.229801964701555	0.947392371459329	1.93419127929181E-07	1.17782800799528E-05	2.39384972080525E-06	4.90083128976999E-06	0.959399394198724	-0.264082490220136
11.5	0.347079908101087	0.911940377680319	6.15783772650176E-06	-3.10038795349452E-07	3.18640742670085E-07	-1.86996025978257E-06	0.957432614702287	-0.268828177343048
11.6	0.457932909478803	0.861968384708159	-5.96787600211923E-06	3.03882160027948E-06	-4.83873475613028E-06	1.89232060894596E-06	0.955226506261988	-0.270915188387397
11.7	0.561712847655484	0.7994497078943	3.30798725644367E-06	-1.77302707077646E-06	-1.70088750057581E-06	2.21575764080147E-06	0.954877639250145	-0.2740572915301
11.8	0.65781336322467	0.724268202629902	-8.50226080463403E-07	9.72604427503034E-06	-2.73577749833458E-06	1.04587997316718E-05	0.95440638795875	-0.278208603676381
11.9	0.744478063936385	0.635857260715032	-7.2491070404348E-06	-1.05052478948952E-06	-3.91753531071739E-06	1.11706171415898E-05	0.952720137914644	-0.282568816751331
12	0.817182400822932	0.535522554453652	-6.42244202613605E-07	1.37034399283383E-06	-3.10936393408027E-06	-1.91634734267003E-06	0.947846867132038	-0.283960779161728
12.1	0.877758874328689	0.430269038126216	-3.86897310293244E-06	4.93779058661493E-06	-1.35997072528709E-06	8.34996864657185E-06	0.947850101738635	-0.282210557991787
12.2	0.9252108008743	0.316473888669436	-5.59213411460877E-07	-3.7762226295324E-06	-3.09160117325255E-06	-7.3774322924341E-07	0.948374227742082	-0.283694021014099
12.3	0.957191398163284	0.198195828077608	3.5606562674686E-06	3.42290326018986E-06	-3.43563536807804E-06	6.21289375917031E-06	0.948074452312051	-0.285741951776174
