# GHZ S RI R 50
0.2	0.985767130076943	-0.156955414917071	2.56426620212461E-06	2.24989159796907E-06	6.57035776902327E-06	-4.86857046128502E-06	-0.966420220568863	0.251592913237662
0.3	0.969698269135398	-0.234053187236524	-8.73604224278649E-07	-5.45385041876218E-06	-3.46622526695238E-06	-7.94547888289717E-06	-0.926833574511733	0.371581734089811
0.4	0.948209941632065	-0.309344975083117	-7.27885846759009E-06	-9.9162367815163E-07	4.44104558014301E-06	1.54532705902834E-06	-0.872164866513284	0.485325878513052
0.5	0.921417880680727	-0.382856052567029	6.20000957922105E-06	2.10538812957127E-06	-2.4140997151529E-06	-1.90834621307872E-06	-0.803705934379647	0.591599226151562
0.6	0.88846113821627	-0.454065260513407	-1.05530748259923E-05	2.46115053431864E-06	-2.21876284779994E-06	-1.00727208720838E-06	-0.722200171620467	0.687998111735467
0.7	0.850181473523713	-0.522031916932135	2.78465587151942E-06	-1.17230834058519E-06	-2.98799367329752E-06	5.78937047444924E-06	-0.629627763457156	0.77348372087676
0.8	0.806601639893937	-0.587132295801074	1.17646423139202E-06	-8.47726014750402E-06	-6.62178664088317E-06	-3.07041780871631E-06	-0.526950775841872	0.846500809552982
0.9	0.757959962149239	-0.648688821296676	-1.14686504185294E-06	-6.81055141285924E-07	2.54849465787869E-06	6.5439383402145E-06	-0.416056352502189	0.905863442174209
1	0.704493729599266	-0.706186326703325	-2.74436035221662E-06	-3.22250022276329E-06	-4.04493190993662E-07	-7.31578328802185E-06	-0.298868961385636	0.950597738686841
1.1	0.647707394643863	-0.759426487671301	1.80806579293243E-06	-4.94028572063572E-06	2.27152787751852E-06	-5.13363194759583E-06	-0.176802824136514	0.980511532704022
1.2	0.585480872622269	-0.809011523146734	-2.49684575536107E-06	2.49069099067047E-06	9.26499508146359E-07	-9.10532902318339E-07	-0.0516559152743294	0.994607914170468
1.3	0.517909644850214	-0.85367543668179	-1.53848151962998E-06	7.18964579195633E-07	-1.35619354997845E-06	1.46305424294373E-06	0.0742622841807658	0.993086509291309
1.4	0.447109104693524	-0.892391705312206	3.92397192293805E-06	-3.24095320895346E-06	2.70229404783446E-06	1.094284491921E-05	0.19957996369259	0.9751935550629
1.5	0.374357895431795	-0.924660827847253	-5.33866157360266E-06	1.11038180356457E-06	6.59094452137889E-06	-7.2091899582191E-06	0.321303692661762	0.941818738304234
1.6	0.300694378897908	-0.951371820999961	1.77532634972896E-06	-7.74160660785469E-06	3.63333013204292E-06	1.38220791783298E-06	0.43729209472507	0.893310604405087
1.7	0.226031137939081	-0.971669184200683	-1.94238565665584E-06	-9.69074583243646E-07	-2.36256855306959E-07	-2.08755457767491E-06	0.545558388749856	0.831445963993352
1.8	0.149254628884389	-0.986324269922247	2.85347603017682E-06	5.27965458740707E-06	4.85188226864442E-09	2.03208853481475E-06	0.645570959915025	0.75610155638041
1.9	0.071725554286479	-0.994871567182082	5.6746161085546E-06	-2.63366696010255E-06	-2.99852631712035E-06	4.16751531768157E-07	0.734709228761451	0.669001558887295
2	-0.00516754852755133	-0.997476708656472	-1.54912848556614E-06	-2.02756725403876E-06	3.2139866397259E-06	1.1463470858697E-05	0.81266100807329	0.571369726403535
2.1	-0.0841028576864505	-0.994581866120904	-7.55916773861007E-06	2.45980345458017E-06	1.21015083603066E-06	5.14986745690043E-06	0.877744459543564	0.46460100165707
2.2	-0.161140236070485	-0.985150363139434	-8.83078214456248E-07	1.39579093876717E-06	3.00987329229358E-06	7.78108962926182E-06	0.928966998417295	0.350662162781093
2.3	-0.238583072058516	-0.969090463767969	1.83936425111328E-07	7.45846549397569E-06	7.40785762801139E-07	9.3896701428859E-07	0.965009466337583	0.2317314060567
2.4	-0.314655749947208	-0.946598700861459	1.58406537623039E-06	7.17753712172464E-06	1.52542600253937E-06	6.39046021886998E-06	0.986443114721904	0.108273326553573
2.5	-0.387918023374143	-0.918825499385841	4.39142542120762E-06	-2.31687072977278E-06	-1.91832639769212E-06	-7.57396573926109E-06	0.991745594068418	-0.0161195902095439
2.6	-0.459027484108167	-0.885067420482459	6.77097539416354E-06	-5.94895198951186E-06	-1.11013148806379E-05	1.08346738685088E-05	0.981796793559573	-0.140641867548574
2.7	-0.527460586214131	-0.84599775405532	-4.44313648992431E-06	9.14682912096678E-06	-2.87529069945552E-06	-9.16252031496199E-06	0.956103873062175	-0.263030413031008
2.8	-0.591771599555856	-0.80221552247006	2.45900048059453E-06	1.14402403702907E-06	-3.12950690171553E-06	1.24463550392804E-06	0.916045530654611	-0.380733467230588
2.9	-0.652206912034422	-0.753931674833792	-5.50240288786292E-06	6.0192434764412E-06	-9.19917522064798E-06	-2.82776869894037E-07	0.861089623627341	-0.492478063223053
3	-0.709155153914852	-0.700364808752543	4.72280203573498E-07	-1.47416758125433E-06	1.13335664378395E-05	1.46073470999605E-06	0.792444067396801	-0.596960138494595
3.1	-0.761689162404494	-0.643349392160712	2.41169809767014E-06	1.05017141078838E-05	4.32883454680541E-06	2.17344798983448E-06	0.711302913681787	-0.691234511530258
3.2	-0.809769713347779	-0.582373698326168	2.10947422798844E-06	6.46829480237603E-06	3.99652698873075E-06	-1.06136232923492E-05	0.619216555453924	-0.774730354739372
3.3	-0.853005013526037	-0.517771527559304	3.08676347878291E-06	4.96192925622119E-06	-2.23289381626036E-06	-9.67165990305821E-06	0.516251093162382	-0.84660003024703
3.4	-0.890247101913888	-0.450056051450994	2.12336298690651E-06	-2.60673669774307E-06	5.96084693071273E-06	1.37725662802291E-06	0.406350726663916	-0.904571003851453
3.5	-0.922367555192302	-0.378313053126085	-3.23837392104202E-06	9.49392923630061E-07	-2.06958827794278E-06	3.42469029757951E-06	0.289338273205889	-0.948139424077197
3.6	-0.949169856756044	-0.305128386740821	-1.81617261292502E-06	-3.74245647690658E-06	-7.82034145626557E-06	4.11336737521422E-06	0.168080712424554	-0.977170657611354
3.7	-0.970179806303593	-0.230078282143869	8.13987038320986E-07	-8.32798205764039E-06	1.07723316522105E-05	3.68643046896044E-06	0.0433291730308069	-0.990532484266121
3.8	-0.985360402575085	-0.152645937798397	9.35557615527221E-08	1.54661279463875E-06	-6.51236128717143E-06	5.95735882043382E-06	-0.0813161556997553	-0.988029938043173
3.9	-0.993934179580203	-0.0748089940403504	-2.63148380490026E-06	-5.02506327912438E-06	-3.69648982001073E-06	8.02768620145236E-06	-0.206393395319268	-0.970112875373508
4	-0.99633281085382	0.00406751609436189	7.12997239322993E-06	-3.86951720882767E-07	-1.04592639085759E-06	-1.20511999841447E-06	-0.326584092936358	-0.936877284609101
4.1	-0.993106612555941	0.0820606991880431	6.19500675219897E-07	-4.44474230966526E-07	7.35153350122074E-06	-4.76307920784551E-06	-0.442551102971463	-0.888248286350697
4.2	-0.983967294332234	0.160050418043637	3.20819213955772E-06	2.10167442497837E-06	-7.19251901418525E-07	-7.61829082975364E-07	-0.550945420341243	-0.824981941391902
4.3	-0.968860228998198	0.236269424779026	-3.19052840346014E-06	1.37509282961624E-06	-4.99759237475108E-06	2.98666395497149E-06	-0.650235778548009	-0.749541880677004
4.4	-0.947762228795117	0.311382466541981	8.05457360697988E-07	2.64408788796296E-06	1.55223831199285E-06	-8.33889198964675E-06	-0.739241111393755	-0.662197064039683
4.5	-0.920316060453526	0.385158762162885	1.82616548733412E-06	-9.40588155678184E-07	7.64095263601053E-06	-2.54780037900444E-07	-0.817262589271906	-0.564378743386188
4.6	-0.886542717383738	0.456528674916438	-7.31046194098557E-07	6.14026815561692E-06	-1.23641034546433E-05	-6.49771298546768E-06	-0.881940619137819	-0.45690367621372
4.7	-0.848031000923345	0.523727500120443	1.20381869870906E-06	2.51609826600685E-06	1.42375945125957E-06	1.87025297540849E-06	-0.932825293813282	-0.342434743222207
4.8	-0.803633709140046	0.589105688453849	-5.18839475195403E-06	1.11536464919952E-05	5.24540767295514E-06	9.71163571177808E-06	-0.968542335550616	-0.221944575651777
4.9	-0.754549532848822	0.650283319877285	1.20279566210402E-06	2.93787910055477E-06	-4.86985763345992E-07	-6.9291186734278E-06	-0.988832208575668	-0.0975237681131124
5	-0.700393287569175	0.707338249261411	4.74927584325241E-06	-9.16214142569495E-07	-3.74750828612844E-06	2.43162099330412E-06	-0.992474336730685	0.0285760263316248
5.1	-0.642263331418682	0.759692350965681	4.14008583000085E-06	-1.44737310073472E-07	-2.66808621995943E-06	-9.82575714155026E-06	-0.980559234607579	0.153029591003347
5.2	-0.580624398854584	0.808238524928589	2.61211392735867E-06	-1.50145615589128E-05	1.38243691000814E-06	2.8248835318398E-06	-0.953461448878785	0.275436079730886
5.3	-0.515183212478352	0.851983422213492	-8.7213529032905E-06	-7.74966811723106E-07	-1.13609047936805E-06	1.6021614409161E-07	-0.911060374438213	0.393471991213059
5.4	-0.446375741753102	0.890406393411236	-7.19683591631205E-06	-1.1060649424299E-05	-1.37397221277875E-05	1.12123456900338E-05	-0.853987374663343	0.504641432133887
5.5	-0.374631281853251	0.922607491711707	1.90637431006121E-06	8.87033523161696E-08	-2.24645378065932E-06	1.78574018966192E-06	-0.784592345807791	0.607597607069096
5.6	-0.301022054612326	0.948451219981234	-2.40973692121884E-06	3.51967795253699E-06	-1.34276643516908E-06	1.29158069748597E-06	-0.702258191768596	0.701499366517932
5.7	-0.225634303885836	0.969243195983613	1.30835467864527E-06	1.23181979934013E-06	5.76837307161549E-06	-1.23164868975168E-07	-0.608643634137224	0.783964185127888
5.8	-0.148692313285517	0.983592392145527	2.70871754636353E-06	4.25960324664684E-06	-2.10956598039753E-06	4.2473371859774E-06	-0.50526750569122	0.853581955489001
5.9	-0.071119244533482	0.991990722701135	-6.88980040130057E-06	-2.29384805320579E-06	-7.06041386917712E-08	6.29059465215102E-06	-0.394739271011348	0.909397446632921
6	0.00660499133525646	0.994763306482967	-1.79184038446592E-06	9.0323451539534E-08	-5.46224320321261E-06	-4.38698584520816E-06	-0.27889747152725	0.951348791166651
6.1	0.0851434368501531	0.990826797883987	4.48206138236856E-08	-9.9140020765448E-06	-9.82338800397239E-07	-3.2149168978703E-06	-0.158005514314848	0.978981366737081
6.2	0.163172178307182	0.980397262579837	-1.0237433528004E-06	3.11156938634789E-06	-1.76151185013432E-06	4.21269248883266E-06	-0.033826924280136	0.990847375651381
6.3	0.24027926195914	0.964128782475947	-8.07850921815136E-07	2.83021459609034E-06	-2.94057599957927E-06	2.39362545404879E-06	0.0908424478501799	0.987149588121598
6.4	0.315992709004152	0.942152165491378	-5.97884586114397E-06	5.54496255342691E-06	-2.38325805703634E-06	-7.52066798633794E-07	0.214373350548203	0.96809715194489
6.5	0.390841922959562	0.91446342250573	1.40865360155191E-06	-5.28663127678896E-06	-1.4508047401999E-06	-2.38223925725323E-06	0.335369439054211	0.933865294725959
6.6	0.462223260321647	0.879536359163077	3.6620054648524E-06	2.07829331718699E-07	1.13279897766802E-05	-2.69177180735747E-06	0.450712452071798	0.883261984960239
6.7	0.530094985711005	0.83984139764177	-7.76871366885402E-07	8.49643404244796E-07	-3.77233596114323E-06	5.2436840896616E-06	0.557501545340938	0.819219382979193
6.8	0.594884377544578	0.795091560502197	-1.75258321155355E-06	4.49690706139228E-06	1.45500764933214E-06	-8.86474190692613E-07	0.655416064381596	0.742539199727576
6.9	0.65590921965619	0.745366992965569	5.92954457380352E-06	2.24377632565662E-06	-9.29314920446896E-07	2.41970753339797E-06	0.742678068611832	0.654279945555159
7	0.712893383358776	0.690774926882719	1.13878593146692E-06	-4.1547851167723E-06	-1.42753942785432E-06	2.92085362700464E-06	0.818224158637436	0.556165676212815
7.1	0.765135526653676	0.631863527533781	2.39954439850878E-07	-7.1907719360076E-07	1.98070214010624E-06	9.19731181472203E-06	0.881164095234595	0.449185979372761
7.2	0.812503675229861	0.568805955303795	1.38474663432031E-06	-2.4177257465432E-06	-1.0204064553468E-06	-8.5746269083363E-06	0.929915884907889	0.335217273404566
7.3	0.854662409257676	0.501875405335947	4.85173503105131E-06	7.22581504856237E-06	-9.72101506335482E-06	2.35044759433236E-06	0.963614773040901	0.215810968540282
7.4	0.891477581857335	0.431512103588777	5.09351090074014E-06	-6.94496852496332E-07	1.91773360316805E-06	-9.64115308766005E-06	0.981816374877971	0.0928874247594049
7.5	0.922234050672276	0.359094843811656	2.72955293297468E-06	-5.30053095800519E-06	2.07822518481068E-06	-7.26517240621895E-06	0.984231717163495	-0.0298836126255965
7.6	0.948480074398561	0.284232682621206	-3.1594548105249E-07	-5.62440661115399E-06	1.67369198889276E-05	3.85114869255563E-06	0.97311676555493	-0.152604933601014
7.7	0.968436899311877	0.206980899351011	3.51033271327245E-06	1.10780073916031E-07	3.2335161144954E-07	-2.9186399324608E-06	0.946441239987485	-0.273511869092246
7.8	0.98198181254346	0.128408398215395	-1.09533640957488E-05	-1.92324418772108E-06	-2.04984673555866E-07	3.43158236707326E-06	0.904960228469228	-0.390240841660018
7.9	0.988949960137467	0.0491803489450476	2.34923027243672E-06	2.0301574553446E-06	-6.92419060043027E-06	-4.71173210107793E-06	0.84930298708161	-0.500762572255112
8	0.990695123049504	-0.0298182666491481	2.34383459679384E-06	2.95535098435736E-06	-9.31198237788316E-06	-7.60893707133802E-06	0.781150707519753	-0.604328003560318
8.1	0.985552530218524	-0.110437056531483	3.8299894970449E-06	-3.06546582882735E-06	2.1503150483217E-06	-3.18229264654869E-06	0.698475984499936	-0.699274648562074
8.2	0.973133677379003	-0.189473435328071	-4.03641929872647E-06	1.41525766054948E-06	-6.75388365943361E-06	3.5904408592034E-07	0.604454639753477	-0.781598258187718
8.3	0.954080719558754	-0.267244411091932	9.86392805057647E-06	2.94738365532621E-07	6.24551553032998E-06	1.04483560417017E-05	0.501033722554312	-0.851065067596378
8.4	0.928809770630953	-0.343123932756973	1.2854912166089E-06	2.55612180560629E-06	3.46086877518215E-06	1.82185199027938E-06	0.389952528441333	-0.907060539714769
8.5	0.897617641533107	-0.417001609123906	-4.8400694929724E-06	4.96406250633662E-06	2.85219176147136E-06	-3.0226182597124E-06	0.272761945252965	-0.948560841098189
8.6	0.860408326810946	-0.488005605659838	-4.49887906301916E-06	2.0892505329114E-06	-3.03615245667872E-06	8.12002602065497E-06	0.151272991761629	-0.975798638218346
8.7	0.817834362279423	-0.555779673335319	-1.02136586624776E-06	1.21716006624409E-06	-6.43508755591376E-07	3.46556309571938E-06	0.0267911687310175	-0.987175252872412
8.8	0.770009119467762	-0.619874575213587	-1.58468672060183E-06	3.08281433729264E-06	-6.01326036377789E-06	1.28922856798245E-06	-0.0977322349033655	-0.982956882557458
8.9	0.717320063353864	-0.68009453008462	3.17695027794582E-06	-1.83747415688661E-06	-3.17010568502819E-06	-4.5452995871864E-07	-0.221382630896535	-0.962731446529542
9	0.659432300667248	-0.735399568218224	-7.29050298957244E-06	1.36824542835935E-06	-3.97991353314219E-06	7.34527908331484E-07	-0.341083792349659	-0.926375205570344
9.1	0.598036064731629	-0.785863400226349	-3.35871697179331E-06	-1.87580933175883E-06	-9.79141465704806E-07	2.13690224805799E-06	-0.454515497464858	-0.875958465169121
9.2	0.532100993612822	-0.831362272137515	5.9772467153816E-06	-1.65081923952675E-06	2.00165514215491E-06	8.47013220900719E-06	-0.560757412529253	-0.812383253698758
9.3	0.462699411802157	-0.871252433339873	-3.37263399481121E-07	1.069780976368E-06	1.36687473488487E-05	1.17949783454837E-05	-0.658263363098829	-0.735843222669284
9.4	0.389716383870377	-0.905001021743296	1.72663995690478E-06	-2.65905435634305E-06	4.28242038680144E-06	1.75184342482148E-06	-0.744983212274975	-0.647883354705822
9.5	0.314800354049566	-0.931687829121186	-6.49197032166591E-06	-4.88481805005518E-06	-1.93856699434234E-06	-5.69549616736408E-06	-0.820741014629871	-0.55018608096242
9.6	0.237359274185733	-0.953994437685924	-1.16759637719448E-05	-2.7552798636222E-07	-5.91702430899735E-06	-4.0197782269902E-06	-0.885490927553812	-0.443049771274857
9.7	0.157423517749293	-0.969267347024283	1.46855768481888E-06	-4.77062076551498E-07	-2.9194461447629E-06	1.63913915795291E-06	-0.935374631854306	-0.326961683439044
9.8	0.0766445233152411	-0.97743127273628	2.20588547622392E-06	1.40234151004957E-06	1.51090458325411E-05	-3.49552002478176E-06	-0.969154095518917	-0.205923481187296
9.9	-0.004383105287746	-0.978381252972576	-3.46668783562584E-06	8.97259679309084E-06	1.37608040892649E-05	4.99807299137407E-06	-0.987429655284929	-0.0817448301147767
10	-0.0840958153498711	-0.972395500924965	-3.6454412302476E-06	1.61720763832156E-06	1.92593202697059E-05	-1.81440023316344E-05	-0.989658127373017	0.0431994915967683
10.1	-0.163140551386187	-0.959935973626816	-1.48228849624701E-06	2.30375628302918E-06	-8.42662957578608E-06	-4.32042621967015E-06	-0.977215925221846	0.167555577824851
10.2	-0.240313947758231	-0.940755257189907	-2.31140964937186E-06	-1.24367681973003E-06	-1.29380300135804E-05	7.22975146483068E-06	-0.9486123024041	0.289860346534391
10.3	-0.314450117028347	-0.915076186391356	5.76991877838789E-06	3.93394517366695E-06	-6.15750937290694E-06	1.37676264147352E-06	-0.905048644034201	0.40705197874363
10.4	-0.385987343523317	-0.883864855213739	2.10311409807482E-06	1.0498574618727E-06	7.11282076347781E-07	-8.23056449096075E-06	-0.847255399166409	0.51750130252329
10.5	-0.454035213150899	-0.845561249655722	4.37397212160419E-07	-3.0618284030287E-07	-6.54969640299525E-07	-5.63770839566673E-06	-0.776142731686968	0.620963711425615
10.6	-0.516262053648067	-0.802354338972853	5.08798396970595E-06	-2.6109864563166E-06	-9.75882702195478E-06	-7.87349642077777E-06	-0.690858220794279	0.713812578171428
10.7	-0.574072218058064	-0.755557619094203	-2.81344553945162E-06	-4.98715443652476E-07	-5.23120431197827E-06	-7.1581918951247E-06	-0.595480129865675	0.794224110411634
10.8	-0.62772932976623	-0.706397584462847	-3.61470522976124E-06	-3.43637576858271E-06	-1.19422147933401E-05	9.14845899609821E-06	-0.491285242847264	0.861956822598859
10.9	-0.678632335401826	-0.654760180621185	-1.13826468488053E-05	-1.03932135553466E-05	-4.45548778435225E-06	1.0951615216399E-05	-0.379851204629763	0.91628749347314
11	-0.724931716559783	-0.599700576170892	1.01059912583553E-06	1.40562435857092E-06	8.64089535706661E-06	-5.49905341768813E-06	-0.262029810648318	0.955723839051775
11.1	-0.767605628968413	-0.543872595254865	-3.26492777814408E-07	-3.62718856043143E-06	1.0168122160556E-05	-1.01868714873706E-05	-0.141470254412413	0.981155726494486
11.2	-0.808373076198819	-0.485096617353762	-1.03097646632691E-06	-3.91082563912465E-06	2.16029042467222E-06	-6.30680241818657E-06	-0.0165384406110169	0.991735260637309
11.3	-0.845828107299111	-0.422154937586381	1.631946638076E-06	-1.20416443835251E-05	3.56446791596209E-06	-2.82190632043518E-06	0.109228912339007	0.985793578698981
11.4	-0.878150112567402	-0.355586818150254	9.86720080890329E-07	1.77082090660824E-08	-5.68419048031469E-06	6.46576445470576E-06	0.233576333123979	0.963650500260943
11.5	-0.904862367236281	-0.286659184081117	6.54362925621235E-06	-1.24470230732245E-06	8.23542390857716E-06	-3.17875427889472E-07	0.352710612178145	0.925597477161284
11.6	-0.927659446675317	-0.215899090695053	-6.42979114971944E-07	-5.32600146795431E-06	1.43519181264188E-06	-3.08081530933275E-06	0.46666525720618	0.873094481869711
11.7	-0.944508150189151	-0.141132498032298	-9.99699193335022E-08	-6.04361193915146E-06	8.89265385422104E-07	-2.65738815540805E-06	0.572822634470726	0.806325541259976
11.8	-0.955243441902379	-0.0638674770171093	-1.07107407859342E-06	-7.39096210849417E-07	5.16177264389487E-06	1.07228908102462E-06	0.669357568035449	0.726696219849913
11.9	-0.959591681957908	0.0157037026325965	-3.21635259526082E-06	-5.19937004766319E-06	-5.38630213386053E-06	-7.99550117497527E-06	0.753437381146764	0.636531700369616
12	-0.955941322598633	0.0962094435286821	-2.94431795399915E-06	1.64110331887655E-06	-1.67244281977624E-05	-8.75149259186208E-06	0.826319709498613	0.538918046940474
12.1	-0.945270909542093	0.174905059882098	8.25580284854969E-07	-1.56774347363472E-06	7.86076046525791E-06	1.22781712677795E-05	0.887513221075865	0.431009613929927
12.2	-0.927768012670008	0.252451778890016	-4.10589299991949E-06	5.55102306704726E-06	4.16185564969601E-07	3.31312669596434E-06	0.934373233730809	0.316167362963924
12.3	-0.905053485097581	0.328056188874574	7.83856303516201E-06	6.39070744961125E-06	4.20948709315462E-07	1.08985809879386E-05	0.966287094504728	0.195872456760668
