# GHZ S RI R 50
0.2	0.987754429152299	-0.156480737476502	2.56609067515532E-06	2.25657518029978E-06	6.58694167384858E-06	-4.86946000877279E-06	-0.968184333848554	0.250562930240322
0.3	0.972044883067025	-0.233771583405512	-8.68133131881746E-07	-5.4669809599444E-06	-3.46305993805974E-06	-7.96757835801539E-06	-0.929440573771006	0.37059731539373
0.4	0.951052874408053	-0.309401308511373	-7.29884455290245E-06	-1.00515117963924E-06	4.45186931915794E-06	1.55634914628945E-06	-0.875815889860855	0.484914270560987
0.5	0.924367561188722	-0.38402649350973	6.22137162370044E-06	2.11652623715334E-06	-2.42180602792318E-06	-1.91664134535888E-06	-0.807551757640439	0.592949650919242
0.6	0.89070834543267	-0.455283327074215	-1.05859685237182E-05	2.46436266127662E-06	-2.22506764095028E-06	-1.01120676989156E-06	-0.725245185861983	0.689516674294576
0.7	0.852632632489427	-0.523270741323855	2.79468086534008E-06	-1.17424200554949E-06	-3.00191168260687E-06	5.80642823157558E-06	-0.632934997482344	0.775395908182405
0.8	0.80922678841055	-0.588810878317632	1.18625355566399E-06	-8.50836696854044E-06	-6.64472231517963E-06	-3.08614821592697E-06	-0.530215459188977	0.849231151030571
0.9	0.760485634258842	-0.651018410688245	-1.15137459569656E-06	-6.84288762115702E-07	2.5567136197691E-06	6.57197436910357E-06	-0.418954093045237	0.909390522214677
1	0.706524852879652	-0.708844648490976	-2.75613501233937E-06	-3.23638184080581E-06	-4.06170507357348E-07	-7.34724808027464E-06	-0.301228887072826	0.954884018517449
1.1	0.649670877438233	-0.76240130053041	1.81491693451802E-06	-4.96296943297274E-06	2.28041304603009E-06	-5.1573051208603E-06	-0.178195192128043	0.985437972999358
1.2	0.586933596660554	-0.812419937633871	-2.50635190681033E-06	2.50393850327988E-06	9.30037277641532E-07	-9.15386220598408E-07	-0.0518396829806289	0.999815242537673
1.3	0.518544532619848	-0.857201031720001	-1.54404523446394E-06	7.24307664978224E-07	-1.35988450407523E-06	1.47133033190778E-06	0.0756251191087885	0.998102947917018
1.4	0.446860212606251	-0.895265029180247	3.93159760663218E-06	-3.26048678569478E-06	2.73396228308188E-06	1.09768147018154E-05	0.20217668329185	0.979506231846093
1.5	0.375141622220184	-0.926810599566253	-5.35391139463693E-06	1.12275437350838E-06	6.60012674888061E-06	-7.24314790795788E-06	0.325071496117298	0.945708952315066
1.6	0.301335453712423	-0.955159566333209	1.76904739724678E-06	-7.77292841971565E-06	3.64893720005912E-06	1.38127427552778E-06	0.44161540069782	0.895960556613572
1.7	0.225680103874864	-0.975757595669744	-1.95172880153078E-06	-9.69247842018477E-07	-2.41037419732651E-07	-2.09523201024895E-06	0.549927944756298	0.833579825157145
1.8	0.148269537397143	-0.990308820753731	2.87467866133776E-06	5.29485425573172E-06	8.73961008425907E-09	2.04002044330805E-06	0.649956772953801	0.757734585859558
1.9	0.0708029630967502	-0.998757491861418	5.69495027504783E-06	-2.65154867477741E-06	-3.01046474037411E-06	4.22152999582805E-07	0.738650673149373	0.670942412133802
2	-0.00638439685913183	-1.00317122148858	-1.56263680339833E-06	-2.03879863993811E-06	3.25314730719061E-06	1.15354783433774E-05	0.819415900017459	0.574708283019862
2.1	-0.0879320138078901	-0.999963223083205	-7.59450353537079E-06	2.50701848348945E-06	1.23949311994751E-06	5.1759303280317E-06	0.886120262037737	0.463673782386209
2.2	-0.165690680167432	-0.9895322970663	-8.81300327266125E-07	1.40660064961971E-06	3.05909283180756E-06	7.80637666174631E-06	0.935834100049306	0.34770792676689
2.3	-0.243731891629716	-0.9729736879272	2.16915855665219E-07	7.49258499141406E-06	7.4829671532042E-07	9.40172078217162E-07	0.97071845201933	0.227819912240534
2.4	-0.320574958083389	-0.949965281233342	1.62260044365778E-06	7.20495310702398E-06	1.56028449232143E-06	6.41437322612111E-06	0.991210305626031	0.10381636648068
2.5	-0.394613983823933	-0.921405341494612	4.40252300072945E-06	-2.34953444886169E-06	-1.96417711185729E-06	-7.60302764474816E-06	0.996167551344659	-0.0211764796707646
2.6	-0.466373823900342	-0.886788281102905	6.77386962509398E-06	-6.01404707258406E-06	-1.11004235720106E-05	1.0946814494289E-05	0.98537126419066	-0.146529624093142
2.7	-0.535468589695539	-0.84672979087335	-4.41313170670828E-06	9.22051482504732E-06	-2.94365242376249E-06	-9.19369328357009E-06	0.959078684123234	-0.269699647638286
2.8	-0.600565941546713	-0.801734264728582	2.47963375853908E-06	1.13358006379564E-06	-3.13767044430721E-06	1.27216892094624E-06	0.917878612299008	-0.388474014709013
2.9	-0.661940878520205	-0.751289900368774	-5.48372532623904E-06	6.09416195495646E-06	-9.24956544790692E-06	-2.11688155379079E-07	0.861205160484099	-0.500718910451062
3	-0.7170140345226	-0.694298329401637	4.59882827210608E-07	-1.48415596553382E-06	1.13895338333527E-05	1.35738933469251E-06	0.791142654049695	-0.60517411157439
3.1	-0.767820404531537	-0.637944323991414	2.51280818223859E-06	1.05032389745661E-05	4.35833208533189E-06	2.13885978381499E-06	0.708149789452813	-0.699765438481957
3.2	-0.81579491600483	-0.576310484193816	2.1717840028579E-06	6.45956731131536E-06	3.90636680153537E-06	-1.06672051089586E-05	0.61386131861283	-0.782556107088801
3.3	-0.85832722594256	-0.510507587710424	3.13494808365828E-06	4.93601308083566E-06	-2.32458239099575E-06	-9.65649995361658E-06	0.508683684162127	-0.852989793484448
3.4	-0.893782971777768	-0.441527930657012	2.09704885751357E-06	-2.62224892674216E-06	5.96507661660854E-06	1.32183433093267E-06	0.396874081044819	-0.907764714917032
3.5	-0.923504664795619	-0.371495388297278	-3.22787304351203E-06	9.66565230795927E-07	-2.04665027597372E-06	3.43128451108428E-06	0.282903885731164	-0.948088974186948
3.6	-0.951997282069772	-0.298603069453577	-1.84285647922208E-06	-3.73299650596303E-06	-7.79842110501516E-06	4.16936689110704E-06	0.161320175589593	-0.979419450488722
3.7	-0.972428652982576	-0.222003845544936	7.477258638586E-07	-8.33342171008164E-06	1.0800289705256E-05	3.60039618912592E-06	0.0345535603807278	-0.991108525230547
3.8	-0.986311383384942	-0.143753173285342	1.05878553184364E-07	1.54420283715322E-06	-6.45752562948393E-06	6.00328090362274E-06	-0.0904148621556525	-0.986077190761838
3.9	-0.99345916113097	-0.0653704655811262	-2.66661370045284E-06	-4.99762200280066E-06	-3.62920906511105E-06	8.04492291233274E-06	-0.214401817187793	-0.965870915958671
4	-0.993906537067859	0.0136808471670857	7.11847401526737E-06	-4.48152455749069E-07	-1.05514944084603E-06	-1.19469926887967E-06	-0.333253877477413	-0.932299158999732
4.1	-0.989109458677474	0.0909754301199896	6.13591072301146E-07	-4.49030401861805E-07	7.28619902013384E-06	-4.81858589380261E-06	-0.44933046367595	-0.882284637671344
4.2	-0.978740338941668	0.168129520037071	3.21399045950859E-06	2.06467213103467E-06	-7.23138264783386E-07	-7.52364402967287E-07	-0.556438767988573	-0.817396413520138
4.3	-0.962931927667715	0.243226834422712	-3.16403803748938E-06	1.3938578364352E-06	-4.94945470495168E-06	3.01200640238469E-06	-0.654006956500277	-0.740921984692951
4.4	-0.94235413947655	0.317923533643124	8.19104913512187E-07	2.62726051873357E-06	1.49125168508641E-06	-8.31241207078275E-06	-0.741409302264124	-0.653197266761298
4.5	-0.912946090916176	0.394029853668345	1.81447711853797E-06	-9.53166764707971E-07	7.6216743253977E-06	-3.15709643689912E-07	-0.81788515450655	-0.554510231714746
4.6	-0.875858781914158	0.462401699255237	-6.68603495615862E-07	6.1189236380105E-06	-1.23694666854822E-05	-6.34875217808526E-06	-0.879959707683806	-0.447362876845607
4.7	-0.837211041029872	0.527289518253496	1.21984867253814E-06	2.49049813240827E-06	1.43260746247612E-06	1.84638659778878E-06	-0.92936790460647	-0.333777537528496
4.8	-0.792715331301529	0.591252003103009	-5.05206971751994E-06	1.11287312754406E-05	5.30054480329745E-06	9.60018148139698E-06	-0.964060981752028	-0.213810769572484
4.9	-0.74284748377819	0.651883332753924	1.22350294692639E-06	2.90322017530973E-06	-5.53759644302798E-07	-6.87127945711675E-06	-0.983117891549595	-0.0886784705172828
5	-0.685777780815883	0.705134824364306	4.6841102479372E-06	-9.50581483391361E-07	-3.67980668265405E-06	2.43843530195372E-06	-0.981120186133341	0.0363026876383187
5.1	-0.631386742838497	0.753411405097098	4.0896615241121E-06	-1.65844112717383E-07	-2.69031555836208E-06	-9.6932588405468E-06	-0.969505005353587	0.154930252551178
5.2	-0.571829519158136	0.801734970530697	2.51481935275415E-06	-1.48549458482359E-05	1.37935617117717E-06	2.78643071650879E-06	-0.943569958066451	0.275910526461998
5.3	-0.507491278324983	0.844845116883921	-8.62183852143228E-06	-7.37100073914297E-07	-1.12226486138761E-06	1.62092210210448E-07	-0.901092474291141	0.39249594838406
5.4	-0.439995906083411	0.882593544129933	-7.12500092732135E-06	-1.09244110071458E-05	-1.3568058057565E-05	1.10967008646356E-05	-0.844007949113962	0.501504607312568
5.5	-0.368936901241492	0.914280104557419	1.88978692164801E-06	8.80054076378023E-08	-2.22698043827684E-06	1.77011879977314E-06	-0.775745434989651	0.601721343547553
5.6	-0.296973584630233	0.938635526230611	-2.38142077146232E-06	3.49174814418426E-06	-1.32817899095966E-06	1.28214701378375E-06	-0.6954879502215	0.694175222580174
5.7	-0.223885502331106	0.958959006877738	1.29601670475108E-06	1.21765396758893E-06	5.70823902452273E-06	-1.2784241410232E-07	-0.603786622826544	0.775596886219183
5.8	-0.14945818973513	0.973175573654227	2.6756012269303E-06	4.21197008203411E-06	-2.08734842773768E-06	4.19756867802398E-06	-0.502641594900612	0.844300990035884
5.9	-0.07568787158024	0.982615786654494	-6.79313957383493E-06	-2.29142452828387E-06	-9.41639182198437E-08	6.21020909871162E-06	-0.395565845372312	0.899936872377826
6	0.000966998879979912	0.99140051945972	-1.77819248567267E-06	7.31928810492971E-08	-5.37796412738201E-06	-4.40154396481747E-06	-0.282154954380696	0.946074797965784
6.1	0.0831219426672074	0.987735187107031	1.06883006085136E-07	-9.87300743991091E-06	-9.58119382920127E-07	-3.20788214811156E-06	-0.158948047853463	0.97459480981648
6.2	0.161476734804798	0.976398797549393	-1.03566025973697E-06	3.09539504930859E-06	-1.77631166253623E-06	4.18891732551217E-06	-0.0347764523043059	0.985813564354007
6.3	0.238043211930249	0.959532074941041	-8.17213586528454E-07	2.81804782620851E-06	-2.94149232632392E-06	2.37386933342868E-06	0.0890574511209932	0.981701778221097
6.4	0.313185911678521	0.938668923016832	-5.98541927224579E-06	5.51324094688892E-06	-2.37580486994864E-06	-7.58626053705761E-07	0.211735988633729	0.963973999659989
6.5	0.391795903552536	0.909093292291807	1.39708599398079E-06	-5.278590096187E-06	-1.45192001221043E-06	-2.37514411755503E-06	0.336462861816088	0.928118011869899
6.6	0.458400997852056	0.869864597100595	3.63278921436798E-06	1.99353173489934E-07	1.12314240199677E-05	-2.69103591526365E-06	0.44673163371466	0.873106750650494
6.7	0.522665779406473	0.831778679332439	-7.69677196421882E-07	8.40712846690865E-07	-3.73809870081139E-06	5.18920459698516E-06	0.549414181090877	0.811031662746249
6.8	0.585603544324287	0.788707200274514	-1.74338623619082E-06	4.44436536257124E-06	1.44117269590549E-06	-8.73700500555906E-07	0.645163926441567	0.73664925797768
6.9	0.645147966783267	0.740863680463461	5.84780874848012E-06	2.23968501296971E-06	-9.27477243122352E-07	2.38629889497463E-06	0.730848140458035	0.651155639268323
7	0.701919632598552	0.688464827395619	1.16131320646343E-06	-4.0990140564872E-06	-1.43641510257028E-06	2.87633864542003E-06	0.806987345918429	0.556162871979125
7.1	0.753851841409041	0.630450283629839	2.43415403285675E-07	-7.11752768415122E-07	1.89744978218559E-06	9.14094358147019E-06	0.870091564052453	0.449921771830787
7.2	0.800610396565293	0.568664953341443	1.38886582963988E-06	-2.39038365175635E-06	-9.59645680145488E-07	-8.51419543502869E-06	0.918293228931213	0.337544948655229
7.3	0.842120728264909	0.502773401070958	4.77375075155435E-06	7.19010324107019E-06	-9.65145515984404E-06	2.2806231014934E-06	0.951411507480725	0.219663449190479
7.4	0.876720675780302	0.433760841109042	5.03760664028783E-06	-6.65945154026786E-07	1.93452289634271E-06	-9.52229672221821E-06	0.967243070090912	0.0994442397223115
7.5	0.906728697024642	0.367481455775818	2.73918108227093E-06	-5.19258121976728E-06	2.11696261910654E-06	-7.13338427930629E-06	0.971511637415636	-0.0148855897485674
7.6	0.936595793070144	0.294543688214059	-2.41846397666405E-07	-5.56349298817484E-06	1.64956358614615E-05	4.01638752895055E-06	0.966438959168691	-0.136970661150168
7.7	0.957669248847445	0.218796261985091	3.4715295053338E-06	1.56675779872436E-07	3.59052940670742E-07	-2.88327631968262E-06	0.942400963343491	-0.25697395519952
7.8	0.972586139761575	0.142569819444534	-1.08172327194122E-05	-2.07498448168831E-06	-2.56378418275764E-07	3.39511797666101E-06	0.904424983508409	-0.37239294259692
7.9	0.982480806843477	0.0673680111269284	2.29261557741768E-06	2.06090817219321E-06	-6.78202004429531E-06	-4.81167937561984E-06	0.854540635530043	-0.481352980246686
8	0.993416352749398	-0.0112502329335584	2.28551685759764E-06	3.00787519125515E-06	-9.16610668035157E-06	-7.81222887709517E-06	0.795498314959946	-0.590913616897814
8.1	0.989457806710489	-0.0980230158335237	3.8897488577038E-06	-3.02201424734498E-06	2.20509371901457E-06	-3.16370644448604E-06	0.709929392522817	-0.69331925502828
8.2	0.976717636485383	-0.177549669400779	-4.06791651151921E-06	1.36787899587604E-06	-6.78069124607427E-06	2.73170761603841E-07	0.614722524570785	-0.776321844518526
8.3	0.958913768523563	-0.255539697428618	9.89586389975176E-06	4.14309232464475E-07	6.14244595712254E-06	1.05609721699701E-05	0.511627275159492	-0.846897013408169
8.4	0.935300423524302	-0.332136021625015	1.2631896985016E-06	2.57882108652479E-06	3.4540980089468E-06	1.86482083355473E-06	0.400887626927043	-0.903843141282548
8.5	0.905631741224479	-0.407672255878278	-4.90234669965457E-06	4.91908950748581E-06	2.88995797202833E-06	-2.99627458338465E-06	0.286031782231883	-0.947019060827284
8.6	0.868934640194833	-0.480003827608332	-4.54121018122594E-06	2.03893287053279E-06	-3.1505739205769E-06	8.10933504248564E-06	0.164176278006761	-0.978616403626222
8.7	0.82722953503867	-0.549008040341108	-1.04193619908807E-06	1.21117092383799E-06	-6.8977104184224E-07	3.47645548392203E-06	0.0379583181655506	-0.992679570893341
8.8	0.780049874867604	-0.61472195479837	-1.6314537679816E-06	3.0870594612697E-06	-6.0716495826621E-06	1.22979557682603E-06	-0.0890138100872505	-0.990725950928867
8.9	0.727068872845893	-0.676691027762669	3.2220793469215E-06	-1.82644150652671E-06	-3.19509723819895E-06	-4.86450041026981E-07	-0.216948156639842	-0.970655778563121
9	0.668994721146212	-0.731611379252169	-7.34202313014467E-06	1.33565954456747E-06	-4.00796913792842E-06	7.16664535725323E-07	-0.335704021553119	-0.929909243437593
9.1	0.609147255846767	-0.783686748382306	-3.36175171795551E-06	-1.9111440535261E-06	-1.00051499204602E-06	2.14046906383936E-06	-0.447340061602312	-0.88298153314836
9.2	0.543081860562989	-0.831014247987088	6.02157046417777E-06	-1.61475193049403E-06	1.94874191966832E-06	8.5304061410531E-06	-0.555021786231736	-0.820957877858462
9.3	0.473005298397124	-0.872162250534035	-3.46846093601746E-07	1.07227830211359E-06	1.36446750583256E-05	1.19525414703684E-05	-0.653626047184176	-0.745340003788381
9.4	0.399060406272396	-0.904963991585361	1.75312990473422E-06	-2.65206288992753E-06	4.27960640567721E-06	1.79172672818686E-06	-0.740343836079379	-0.657282826165209
9.5	0.330224170825272	-0.932187319512601	-6.44739102611295E-06	-4.99997157306922E-06	-1.86329261460941E-06	-5.74741157194111E-06	-0.815059167800603	-0.566181605273878
9.6	0.250903997819613	-0.962607712507277	-1.17924105552884E-05	-4.220358736499E-07	-5.92828835877437E-06	-4.13384824308327E-06	-0.88886821159547	-0.460780631136198
9.7	0.166688894032356	-0.979593713454766	1.48876335613826E-06	-4.68238067327922E-07	-2.96616135481326E-06	1.62897451064536E-06	-0.942888137081233	-0.341645642652798
9.8	0.0831887063016375	-0.987926188195464	2.21751491699439E-06	1.43557195380569E-06	1.52979824018835E-05	-3.40645113275956E-06	-0.979239114744467	-0.218121097313207
9.9	0.000816301524724675	-0.988802631214999	-3.57511548584811E-06	9.0459758351961E-06	1.38758157975696E-05	5.16080133184698E-06	-0.999617362613274	-0.0909690624138326
10	-0.0804507206008938	-0.984631103348975	-3.69795374277629E-06	1.61484344317373E-06	1.95932129131826E-05	-1.82447529979339E-05	-1.00228686622955	0.0365156073510665
10.1	-0.162730624428715	-0.971186122790916	-1.51071731657468E-06	2.31969677003154E-06	-8.49108095926464E-06	-4.41283759519582E-06	-0.991271000121273	0.162542575330712
10.2	-0.240421521219852	-0.950930420567934	-2.32841462617545E-06	-1.27223142637952E-06	-1.31256056513084E-05	7.22403411716624E-06	-0.964105892603997	0.28734897448335
10.3	-0.31495583305463	-0.925565353517342	5.81277027707388E-06	4.02443461468935E-06	-6.24365495113067E-06	1.3491537152619E-06	-0.922234900690943	0.407585673616347
10.4	-0.387777958702614	-0.895011575592942	2.12799801710176E-06	1.08161458145295E-06	7.8288528385246E-07	-8.35295138160182E-06	-0.866395067651719	0.523888871886944
10.5	-0.457218081591656	-0.85684333367056	4.46464669725262E-07	-3.10558239761265E-07	-6.50102364819185E-07	-5.74462186070557E-06	-0.789214524150454	0.635568883991365
10.6	-0.521273815425969	-0.814050843125483	5.17463274554213E-06	-2.65350055168401E-06	-9.92111040368536E-06	-8.00931855313888E-06	-0.698291219876642	0.727073999620407
10.7	-0.581260319110038	-0.767037981083203	-2.86005174282084E-06	-5.04705536782998E-07	-5.32273912922944E-06	-7.27168324100266E-06	-0.600628639217029	0.807207068291144
10.8	-0.637833524483683	-0.717300276414911	-3.68269404184793E-06	-3.48488592161299E-06	-1.21187973042638E-05	9.32813562651622E-06	-0.494275766913172	0.875409215428415
10.9	-0.692486032153557	-0.662121334900458	-1.16241224623463E-05	-1.0491892563484E-05	-4.46235618647273E-06	1.11515924003602E-05	-0.378815522206391	0.930655210616125
11	-0.734610932436385	-0.602135515405531	1.02879603709945E-06	1.41428591224823E-06	8.69814635510834E-06	-5.60364049430925E-06	-0.257267527365928	0.965168113430413
11.1	-0.777618211339963	-0.55036846868873	-3.38880452987271E-07	-3.67063519272361E-06	1.02684223087216E-05	-1.03345884782899E-05	-0.139124131368624	0.990077483813774
11.2	-0.821745766487142	-0.490421402142121	-1.05961104127033E-06	-3.96018988783738E-06	2.16613107504573E-06	-6.4006874501662E-06	-0.0126044564460875	1.00141953485115
11.3	-0.860924364573549	-0.424646457409244	1.59106599316748E-06	-1.22126682427405E-05	3.59782836522466E-06	-2.87860734137852E-06	0.114983449522375	0.994929083061679
11.4	-0.892413065881448	-0.354746370717765	9.98856318173546E-07	1.21116528645267E-08	-5.71541470411571E-06	6.57809101048357E-06	0.240881370914168	0.971686998460502
11.5	-0.917819520178485	-0.287806650772278	6.62275992394637E-06	-1.29011852969233E-06	8.34060477211775E-06	-3.58870518546636E-07	0.361697625760218	0.932149061675691
11.6	-0.945217934052192	-0.214606545277101	-6.89939446709288E-07	-5.39659476549539E-06	1.43353201265459E-06	-3.13450459460494E-06	0.476385762674267	0.877332344420875
11.7	-0.962154879997995	-0.13510706032395	-1.54830551659081E-07	-6.11990289703694E-06	8.77060366158023E-07	-2.69920759820568E-06	0.582340850694877	0.808658843257793
11.8	-0.971520722586909	-0.0540355103569816	-1.09010833239884E-06	-7.36954741366599E-07	5.22944955993164E-06	1.03432409917862E-06	0.677787216215142	0.727783572505623
11.9	-0.973734511969066	0.0293676335499354	-3.29416578300896E-06	-5.22014909470778E-06	-5.51018219234838E-06	-8.02347677671102E-06	0.760130455329044	0.639560630024878
12	-0.965205173716065	0.112304974993758	-2.9628517503117E-06	1.68612414109846E-06	-1.69921733607807E-05	-8.70008793527462E-06	0.840808500285732	0.54360169969532
12.1	-0.952114039974042	0.191253017116489	8.15212233915514E-07	-1.59286034641222E-06	8.08259288132649E-06	1.2306076363372E-05	0.901919161051425	0.427729052593583
12.2	-0.931752204004001	0.268881969450039	-4.07479723489658E-06	5.64300496580287E-06	4.57771969410121E-07	3.33493470278265E-06	0.946638659125482	0.31084836221937
12.3	-0.907048721600755	0.343989329039151	7.96997044994627E-06	6.35540213609905E-06	5.43227638866268E-07	1.09796983759572E-05	0.978246921694731	0.189317004505213
