# GHZ S RI R 50
0.2	0.98579819401797	-0.15684716064466	2.5643293956681E-06	2.24983639221282E-06	6.57026042808547E-06	-4.8687464871692E-06	-0.966312165735029	0.251692278235862
0.3	0.969734645291982	-0.233958241460507	-8.74157969445675E-07	-5.45384454880687E-06	-3.46706447458026E-06	-7.94525282064012E-06	-0.926649430957603	0.371736863343019
0.4	0.948180070424875	-0.309325692512648	-7.27887911754759E-06	-9.89910238925897E-07	4.44127585087399E-06	1.54425465287367E-06	-0.871827168073946	0.485511603771146
0.5	0.92105364689741	-0.382736899158735	6.19879116610916E-06	2.10311307596582E-06	-2.41391831320652E-06	-1.9071469506146E-06	-0.803175378827583	0.591605438837143
0.6	0.888117987365112	-0.453520512038391	-1.05495284938009E-05	2.46115639090939E-06	-2.21813137229722E-06	-1.00678509435801E-06	-0.721751474337813	0.687907378348905
0.7	0.850047996730105	-0.521287922173617	2.78383858622884E-06	-1.17209944695449E-06	-2.98692985694781E-06	5.7878950248396E-06	-0.629091558796863	0.77337745161103
0.8	0.806721806989804	-0.586297544621128	1.17599349252272E-06	-8.475214623461E-06	-6.62023536224867E-06	-3.06952451046029E-06	-0.526318578530559	0.846278771200029
0.9	0.758442052210959	-0.647952902061995	-1.14672281059702E-06	-6.80935395903182E-07	2.5482930140824E-06	6.54298043104767E-06	-0.415382106974321	0.905491393041709
1	0.705134884491554	-0.706069304457255	-2.74526521928644E-06	-3.22191570742579E-06	-4.06352437965613E-07	-7.31592610994011E-06	-0.298175161553711	0.950077542716212
1.1	0.647754929736009	-0.759657885102633	1.80496375713692E-06	-4.94063602157954E-06	2.26824941040205E-06	-5.13422239774401E-06	-0.176151434230056	0.979796437205468
1.2	0.585095354996755	-0.809149633099342	-2.49423158276239E-06	2.49134873340297E-06	9.25538441918528E-07	-9.10782347899955E-07	-0.0511539732023034	0.993702680303874
1.3	0.51720918454593	-0.853505081331413	-1.53709457526995E-06	7.19295730236728E-07	-1.35453769057295E-06	1.46280102854442E-06	0.0744234795507664	0.992040969704715
1.4	0.446477481328138	-0.891787293812623	3.92034708127298E-06	-3.23902612728952E-06	2.70192703662106E-06	1.09337602454824E-05	0.199340077312457	0.974237117374788
1.5	0.373535281119412	-0.923803254798353	-5.33417440085015E-06	1.10927921958782E-06	6.5855822697092E-06	-7.2028846691732E-06	0.320867351066847	0.941008385358852
1.6	0.300098347720115	-0.9495495749983	1.77600369797929E-06	-7.73322933157668E-06	3.62922340143219E-06	1.38197187893353E-06	0.436820411611136	0.892713915918788
1.7	0.226161366477389	-0.96960862736996	-1.94003514373756E-06	-9.69276268608587E-07	-2.34855029319348E-07	-2.08575230913601E-06	0.545181753937728	0.830923590544097
1.8	0.149864103994752	-0.98441532581326	2.8478277506201E-06	5.27765808308212E-06	3.48721237657381E-09	2.0305877317887E-06	0.645295486196802	0.755666399108756
1.9	0.0724928689878334	-0.993378471237169	5.67345698142485E-06	-2.62964434153004E-06	-2.99742125481927E-06	4.15053684786652E-07	0.734768914715558	0.668580068801475
2	-0.00497794081814841	-0.995966733274034	-1.54806521840631E-06	-2.025881776235E-06	3.21228800429507E-06	1.14543291131988E-05	0.812710396639439	0.570229461988856
2.1	-0.0836251750614184	-0.992384319482375	-7.55109073552635E-06	2.45371723368466E-06	1.20656467665643E-06	5.14417218743933E-06	0.877174487666624	0.463835852917571
2.2	-0.160086393083474	-0.982833208737943	-8.8313348514548E-07	1.39375638240274E-06	3.00144938169442E-06	7.77519638582202E-06	0.928646108993341	0.350205940913354
2.3	-0.236956806751303	-0.966899634743094	1.77886212399095E-07	7.45231652838362E-06	7.39418463138241E-07	9.38760100333492E-07	0.964913484269785	0.231258497835605
2.4	-0.312476021828592	-0.944843350951468	1.57689622970118E-06	7.17415670671299E-06	1.5189671495971E-06	6.38754868391377E-06	0.986464564996377	0.107717799555985
2.5	-0.385595993995714	-0.917871570639102	4.39164874929331E-06	-2.31215182040808E-06	-1.9110263633482E-06	-7.57256087674973E-06	0.9918802237919	-0.0167507175509174
2.6	-0.457087678452859	-0.884494522329926	6.7726226457764E-06	-5.94347420543046E-06	-1.11046396331653E-05	1.08254075567856E-05	0.981992126387177	-0.141584059650155
2.7	-0.525758246035401	-0.845396134219871	-4.44447217145009E-06	9.14004093135334E-06	-2.86997423067506E-06	-9.15872286139819E-06	0.955872980598932	-0.26411493393734
2.8	-0.590026272870749	-0.801453226027419	2.45632286379898E-06	1.14431609824518E-06	-3.12748754401475E-06	1.24196903097497E-06	0.915490302664606	-0.38146138164179
2.9	-0.650156799301309	-0.753282351056475	-5.5004749216903E-06	6.00871613966344E-06	-9.18874623899428E-06	-2.88869308620764E-07	0.860548847745361	-0.49272517898582
3	-0.707525339309284	-0.700335451630837	4.73317408274393E-07	-1.4718775812122E-06	1.13183249705076E-05	1.47132264396128E-06	0.792234459803666	-0.596765764983188
3.1	-0.760580752855613	-0.642526381800061	2.39718218919613E-06	1.04931027739311E-05	4.32169254137738E-06	2.17600912588001E-06	0.711692276098658	-0.690920345173967
3.2	-0.808152394370564	-0.581177491092687	2.09891953858037E-06	6.46354947017785E-06	4.00531324817866E-06	-1.05964500402319E-05	0.620093634100023	-0.774611509188729
3.3	-0.850916280790983	-0.51674148616044	3.0757974273054E-06	4.96139688210709E-06	-2.2155623616997E-06	-9.66477527974646E-06	0.517557609058137	-0.846741687337647
3.4	-0.887994061236083	-0.449645715917368	2.12713487346989E-06	-2.60119525580523E-06	5.95482139872066E-06	1.38786224171572E-06	0.408278672116826	-0.905268983835025
3.5	-0.920960098546828	-0.378034380956205	-3.24034419450119E-06	9.45711041688054E-07	-2.07426060280932E-06	3.4230511182863E-06	0.290880925510869	-0.950288754597008
3.6	-0.947335834972727	-0.304215186387552	-1.81228841634711E-06	-3.74246163013789E-06	-7.82061973299563E-06	4.10512146904183E-06	0.168791403633159	-0.978962571325768
3.7	-0.967857290745816	-0.229554708492767	8.23363191558046E-07	-8.32357705102736E-06	1.07635619351462E-05	3.69746588151019E-06	0.0441565722731965	-0.992323589114471
3.8	-0.982948631432022	-0.152723035394847	9.16561146904461E-08	1.54649054744208E-06	-6.51862846445726E-06	5.94850994262035E-06	-0.0805919696254832	-0.990037368048413
3.9	-0.991857610274595	-0.0755368700082336	-2.62679956738357E-06	-5.02731475084825E-06	-3.70372437082354E-06	8.0240486888309E-06	-0.205974168470171	-0.972123290042114
4	-0.995135606942205	0.00319960254316427	7.12622741185411E-06	-3.81026575553202E-07	-1.04436731837547E-06	-1.20527158780045E-06	-0.326033575608042	-0.938380868674955
4.1	-0.992196333750383	0.0817165305078101	6.19670574315556E-07	-4.43440973230871E-07	7.35292009795316E-06	-4.75112911186947E-06	-0.441392876968518	-0.890155710527681
4.2	-0.982989705099726	0.159899569761149	3.20378232684762E-06	2.10488796252743E-06	-7.17876415273916E-07	-7.62403438683199E-07	-0.549934128337859	-0.827366771925836
4.3	-0.967791819001383	0.236148824073302	-3.19123652136468E-06	1.37039187578055E-06	-4.99980349446196E-06	2.97901035261505E-06	-0.649520853200617	-0.752125004756846
4.4	-0.946449012245908	0.311038700998344	8.02839958302444E-07	2.64419870517247E-06	1.55952070221175E-06	-8.33548650737236E-06	-0.738850474688345	-0.664579872222298
4.5	-0.919574827694323	0.383631101021335	1.82491608465917E-06	-9.3813917949888E-07	7.63284888910449E-06	-2.48532769761609E-07	-0.816399363063271	-0.566465268570098
4.6	-0.887340491002341	0.455812379980242	-7.39539185999346E-07	6.13353218115741E-06	-1.23430384445589E-05	-6.51019441048212E-06	-0.880802448858366	-0.459589150383515
4.7	-0.848797676923332	0.523968782193723	1.19918272401843E-06	2.51616730807766E-06	1.41994584015454E-06	1.87110299885358E-06	-0.931831063953579	-0.345630093101697
4.8	-0.804085692230069	0.58972384641911	-5.20267001025206E-06	1.11369659107552E-05	5.22575309025693E-06	9.71296797149642E-06	-0.967745562842824	-0.225549501049748
4.9	-0.754808545694476	0.650626082390974	1.195218984545E-06	2.93800292305998E-06	-4.71155941738759E-07	-6.92418575227983E-06	-0.988075383806262	-0.10183888708496
5	-0.701884822475002	0.707943560209363	4.75353309966717E-06	-9.01328626497507E-07	-3.75631569206269E-06	2.4203559010002E-06	-0.993225679598544	0.0228161993039438
5.1	-0.64285760736829	0.761812711630216	4.14503224252143E-06	-1.34958180469468E-07	-2.64745939651804E-06	-9.84307763709633E-06	-0.982966561246019	0.148161913080582
5.2	-0.580233392087522	0.809963196186905	2.64930573957375E-06	-1.50277297463597E-05	1.37781851061657E-06	2.83158887017153E-06	-0.95660499484789	0.271156272646554
5.3	-0.514669320195377	0.853102950971922	-8.73546522721048E-06	-7.94623606284468E-07	-1.13847559518193E-06	1.58126733227149E-07	-0.915058486302651	0.389969019958261
5.4	-0.446226258035421	0.89114825415814	-7.19958363260964E-06	-1.10965395384795E-05	-1.37872794210999E-05	1.12211971763715E-05	-0.858444493306707	0.502513774983899
5.5	-0.375309764342653	0.923666696178014	1.90949694432153E-06	8.90443624730067E-08	-2.25032710547302E-06	1.78844360768355E-06	-0.788286668642775	0.60662473954015
5.6	-0.301395415781018	0.950603558919192	-2.41478945386113E-06	3.5213669132842E-06	-1.34507710951819E-06	1.29185491994682E-06	-0.705649823050675	0.7004015779553
5.7	-0.225245664019434	0.971568399892602	1.30875536384486E-06	1.23478839990378E-06	5.77597107473074E-06	-1.17267939680095E-07	-0.612413599902558	0.783369099580723
5.8	-0.147789768727079	0.985822055864586	2.70856262823601E-06	4.27034744971449E-06	-2.11828114478063E-06	4.25243168032318E-06	-0.509183900741821	0.854100431728784
5.9	-0.0694940754292504	0.994037313172116	-6.90758063748357E-06	-2.30638792510647E-06	-7.62480015029984E-08	6.3085790706109E-06	-0.397955366657547	0.911630167541859
6	0.00852897069901138	0.995011912383395	-1.79677350207366E-06	9.28984325170383E-08	-5.48331897726856E-06	-4.39227648493372E-06	-0.279671887123241	0.953871667002192
6.1	0.0851905117316216	0.991182946482433	3.54881627195962E-08	-9.92742027853748E-06	-9.86710089160701E-07	-3.21832368065317E-06	-0.158245881342679	0.980650888538797
6.2	0.163151578151076	0.981752829591857	-1.02321094750909E-06	3.11655837827579E-06	-1.76131520126781E-06	4.21968369018818E-06	-0.0334997232691467	0.992303827511485
6.3	0.24084515263752	0.965864526689956	-8.06699094328596E-07	2.83454895975823E-06	-2.94255597433778E-06	2.39905310018208E-06	0.0917498181564619	0.988137510068399
6.4	0.317208357544973	0.943190642419667	-5.97571978119886E-06	5.55549284663335E-06	-2.3855891282461E-06	-7.49637947923434E-07	0.215890262304071	0.96788957541982
6.5	0.390197116209011	0.915019257943438	1.40793274585843E-06	-5.2802970594211E-06	-1.44872563465028E-06	-2.37974112527338E-06	0.334806753069272	0.931999525624113
6.6	0.462180966119314	0.882292500361623	3.66233416633404E-06	2.14294752507725E-07	1.13348582343675E-05	-2.67240319494784E-06	0.449231520410904	0.883321569129927
6.7	0.531282886830624	0.842488848872001	-7.79144136793033E-07	8.49265407974922E-07	-3.78524859999308E-06	5.24306702463322E-06	0.556526711845442	0.81991784592307
6.8	0.596605991602494	0.79742308070502	-1.76277134132266E-06	4.5018481551159E-06	1.45892488506816E-06	-8.85678449762095E-07	0.654917044156081	0.743696453089817
6.9	0.65803414548039	0.747314171141358	5.94210740124953E-06	2.25803730093915E-06	-9.35170739415186E-07	2.42481493720759E-06	0.743088352103903	0.655666959846439
7	0.714897022229665	0.692297638012504	1.1412028342952E-06	-4.16858134106723E-06	-1.43126790706542E-06	2.93074402211483E-06	0.81922632840536	0.556814295596246
7.1	0.767298097661619	0.633671943905184	2.40006010713072E-07	-7.20622962219317E-07	1.98991897997139E-06	9.21414928446345E-06	0.882098259559878	0.449888410888996
7.2	0.815158857631257	0.570485265168511	1.38698032357717E-06	-2.42232245490162E-06	-1.02333958110198E-06	-8.59019223602213E-06	0.931328820381695	0.336041031013571
7.3	0.857667967053804	0.503362057828983	4.85937180894889E-06	7.24133279715262E-06	-9.74078278604355E-06	2.35249623996252E-06	0.965680823763703	0.216707373641919
7.4	0.895237223129533	0.433042797014583	5.10865243018287E-06	-6.90608933906996E-07	1.93419581692426E-06	-9.66610500361456E-06	0.985404138534307	0.0937646933630289
7.5	0.927254868374944	0.358917808873063	2.74330487664902E-06	-5.32982016419161E-06	2.08805477050446E-06	-7.30498763852757E-06	0.98924942548773	-0.0320133322158164
7.6	0.952297240699277	0.282926463044343	-3.30929962899649E-07	-5.64786146300044E-06	1.68183220300799E-05	3.82719108762878E-06	0.976091064703543	-0.155984859985051
7.7	0.972019456965039	0.205499409853009	3.52393032484094E-06	1.01547265799293E-07	3.16550742969939E-07	-2.93058141441812E-06	0.948892811328821	-0.277238380246602
7.8	0.98568959534851	0.126310110727189	-1.10010927141161E-05	-1.89281643135139E-06	-1.93959577836103E-07	3.44516887403466E-06	0.906835372005764	-0.394787520396658
7.9	0.992730165027141	0.0454089049947594	2.36796519717937E-06	2.02579604818933E-06	-6.97304001860222E-06	-4.69423816734198E-06	0.849825403315898	-0.506644710747876
8	0.991097057656633	-0.0356736587691878	2.36561149648425E-06	2.93979921424382E-06	-9.36922019338442E-06	-7.54567467872969E-06	0.777352015971592	-0.609038530875295
8.1	0.984221150750378	-0.11363380327329	3.80976121559915E-06	-3.07547201835213E-06	2.13286613550332E-06	-3.18506894516186E-06	0.695920043435892	-0.699804806048933
8.2	0.972120660246213	-0.191728284878842	-4.02654367149533E-06	1.42313719678705E-06	-6.74238661772723E-06	3.75381080892993E-07	0.603978861199155	-0.781701278372876
8.3	0.953171040961327	-0.269236082926743	9.85323122113758E-06	2.77372613226736E-07	6.25646042161573E-06	1.04257029732357E-05	0.501703036540837	-0.851576839354542
8.4	0.92780069487014	-0.34504877454729	1.28728398613422E-06	2.552764839353E-06	3.46019562700492E-06	1.81669348736099E-06	0.391165351398812	-0.908384983919225
8.5	0.896303427976171	-0.418716989074212	-4.83675228190342E-06	4.97016235921567E-06	2.85014382005191E-06	-3.02624163674134E-06	0.273185890637735	-0.950259320472253
8.6	0.859017938680773	-0.489542431655342	-4.49546456340744E-06	2.09698516388309E-06	-3.02241303709561E-06	8.12546354909589E-06	0.152292628096229	-0.976469474420635
8.7	0.816126043378524	-0.557183482428388	-1.01905273957999E-06	1.21808727194946E-06	-6.38029564465994E-07	3.46482822799967E-06	0.0289282910779115	-0.988196844307182
8.8	0.767974506490657	-0.620841931825629	-1.5800404538117E-06	3.08176694766288E-06	-6.00660053490505E-06	1.29443003105932E-06	-0.0949014089312676	-0.984714398488202
8.9	0.715439552688735	-0.680357946811074	3.17231290216395E-06	-1.83479895406167E-06	-3.16548204960586E-06	-4.53861720024395E-07	-0.21761877330752	-0.965479455917576
9	0.658255972393611	-0.736089613209703	-7.29348014057303E-06	1.35318672174565E-06	-3.98151310703896E-06	7.26307054492555E-07	-0.337652791059237	-0.93219222164564
9.1	0.596260050284305	-0.786844335500279	-3.36275487477602E-06	-1.88317306995908E-06	-9.83430077347272E-07	2.13971971686198E-06	-0.453586232718733	-0.882148685859169
9.2	0.530184636913465	-0.832316197325244	5.99265521000355E-06	-1.65256039719989E-06	2.00328848386279E-06	8.49183503434265E-06	-0.561280549425385	-0.818267703835893
9.3	0.460690420781743	-0.872387543678218	-3.37754854883816E-07	1.07317059354123E-06	1.37157305558651E-05	1.18238181974434E-05	-0.660157355830781	-0.740776112344294
9.4	0.388014491952396	-0.906813551065779	1.72921070045128E-06	-2.6713630400279E-06	4.30076785214978E-06	1.75217904226388E-06	-0.747908667741883	-0.651556452013916
9.5	0.310509580150659	-0.935578090161802	-6.53910399549482E-06	-4.87112375053106E-06	-1.97312657245964E-06	-5.70675393486886E-06	-0.824526179158501	-0.549983999003885
9.6	0.230865539992406	-0.954960693876413	-1.16771691480318E-05	-2.13872123434385E-07	-5.93812263944478E-06	-3.98845001509301E-06	-0.884596117118209	-0.441108690607078
9.7	0.151340018965521	-0.968497768934285	1.46500780832829E-06	-4.82476706590543E-07	-2.90959473392918E-06	1.64914129420646E-06	-0.932472038723596	-0.327030033776474
9.8	0.0709840828232878	-0.975679544922864	2.20770925619304E-06	1.39289649446409E-06	1.50766850517878E-05	-3.54253033762738E-06	-0.966153641173424	-0.207573758410989
9.9	-0.00982054680774735	-0.97600861238463	-3.43214151703432E-06	8.97123684978282E-06	1.37576672861953E-05	4.9455455099923E-06	-0.985298678929125	-0.0841279649999475
10	-0.0897748821882458	-0.968658420669521	-3.63368982240882E-06	1.62600633542312E-06	1.91664042308065E-05	-1.81732179630699E-05	-0.988275291918389	0.0417094125243748
10.1	-0.167453253015535	-0.95500925515483	-1.47221355153126E-06	2.30402159781952E-06	-8.42413567547737E-06	-4.28567650526489E-06	-0.974498590646579	0.166699133677869
10.2	-0.243577739507962	-0.935513537599178	-2.31004698140945E-06	-1.23341398686405E-06	-1.28850299060816E-05	7.254417833566E-06	-0.944901261191899	0.288331053764398
10.3	-0.316645799143513	-0.90963216007711	5.76599484992291E-06	3.90468751125961E-06	-6.13578826137847E-06	1.39223986971547E-06	-0.900703824469276	0.404837686613016
10.4	-0.386704319887841	-0.878775037475089	2.09833141872796E-06	1.0390884345035E-06	6.82273769027532E-07	-8.20100883245174E-06	-0.841507344907916	0.514463975576606
10.5	-0.454028090034646	-0.842341347600055	4.3450779084416E-07	-3.04926327140908E-07	-6.57809085113889E-07	-5.60433518854355E-06	-0.769923299938853	0.61418088643995
10.6	-0.517092259986832	-0.800204872100986	5.06866186993164E-06	-2.59341631889084E-06	-9.70642701706169E-06	-7.8504058893084E-06	-0.687087523887395	0.705792408235488
10.7	-0.575737762063942	-0.753690510409215	-2.80411948906686E-06	-5.01591373451323E-07	-5.20413891927298E-06	-7.14460885145294E-06	-0.592817939182028	0.786118843797834
10.8	-0.629829032188403	-0.703998639294248	-3.60095835307245E-06	-3.43284224924839E-06	-1.1925205202554E-05	9.10917058067326E-06	-0.489097038197258	0.853541725276473
10.9	-0.679535082013998	-0.652224168230009	-1.13358987481052E-05	-1.03916492343025E-05	-4.46677938661869E-06	1.09175597474142E-05	-0.37880397770104	0.907408522193403
11	-0.72707775204796	-0.599945565236475	1.00788990694003E-06	1.40765015160459E-06	8.65195474519887E-06	-5.48237275746377E-06	-0.261560759246854	0.948470671477225
11.1	-0.772042107324437	-0.541885270120729	-3.28073157918427E-07	-3.62470484549549E-06	1.01565854633078E-05	-1.01853647720521E-05	-0.13898084005827	0.972242855553345
11.2	-0.812133206150867	-0.481501577288802	-1.03057002400106E-06	-3.9024313865631E-06	2.15317561845652E-06	-6.29491650650969E-06	-0.0156837746903695	0.980220443005698
11.3	-0.848508242688183	-0.418060326653338	1.63220362683129E-06	-1.20089636370243E-05	3.5560569820983E-06	-2.81303176598353E-06	0.10701351794758	0.973490239270697
11.4	-0.880219375405582	-0.35226971069197	9.8419263964484E-07	1.89389806790176E-08	-5.67812207518337E-06	6.44200367282747E-06	0.228565691343251	0.952183609414665
11.5	-0.908705636420783	-0.282694867058249	6.5312279400189E-06	-1.23549193995901E-06	8.21855463014826E-06	-3.08890181128194E-07	0.346194445286313	0.915609520074191
11.6	-0.929968330116716	-0.209928460788173	-6.3397001624091E-07	-5.31330054710177E-06	1.43579183865696E-06	-3.07096837620486E-06	0.458795260061157	0.86443586455164
11.7	-0.944963623433067	-0.135192113443698	-8.85359389985459E-08	-6.02971757681302E-06	8.92118825627406E-07	-2.64954916519388E-06	0.563826018035224	0.799751389044047
11.8	-0.953980373749006	-0.0586702858922392	-1.06765496025562E-06	-7.39855150862816E-07	5.15020518335395E-06	1.08050574783635E-06	0.660539208910812	0.722921201090895
11.9	-0.956696810848139	0.0190717701186483	-3.20778295343164E-06	-5.19717148631214E-06	-5.37266460593901E-06	-7.99256177665273E-06	0.74754295397483	0.634769628971367
12	-0.953457786270109	0.0962840239842247	-2.93464515514991E-06	1.63915603575401E-06	-1.66856146251728E-05	-8.7121689462202E-06	0.821721533069156	0.534164176192739
12.1	-0.944674781642924	0.174202616762171	8.22724115183237E-07	-1.56085281665449E-06	7.82307074232794E-06	1.22297319396323E-05	0.881693430436045	0.427203856920674
12.2	-0.928155190248093	0.251972633246387	-4.09345697099717E-06	5.52481979764713E-06	4.11790443843268E-07	3.29980580908266E-06	0.929209560753206	0.312830329456501
12.3	-0.905579372155914	0.327962246926893	7.79958542634927E-06	6.36849926516864E-06	4.11114306335856E-07	1.08512125684824E-05	0.961342634647663	0.192445971013827
