# GHZ S RI R 50
0.2	0.985072967261544	-0.157048075846535	2.56353474341301E-06	2.24765742751133E-06	6.56475256492428E-06	-4.86798824378234E-06	-0.96583763388189	0.251962008559016
0.3	0.968907509610179	-0.234027209473312	-8.75146201994735E-07	-5.4492875995211E-06	-3.46677932991003E-06	-7.9379402466969E-06	-0.92595349778128	0.371956498556057
0.4	0.947279550274469	-0.30915010657661	-7.27156351803391E-06	-9.87531367639899E-07	4.43698769772546E-06	1.54183429595993E-06	-0.870878601565941	0.485516974732569
0.5	0.920557130295531	-0.382175764190841	6.19180572079823E-06	2.10264056977753E-06	-2.41089934819159E-06	-1.90583804425518E-06	-0.802337726978262	0.591080699885971
0.6	0.888013244074334	-0.453451228408941	-1.05427725058007E-05	2.45770403621795E-06	-2.21645377144733E-06	-1.00647485397714E-06	-0.721211881727617	0.687451300336601
0.7	0.849687260582801	-0.521506134886159	2.78161421293647E-06	-1.17115171529899E-06	-2.98455867256828E-06	5.78325180193719E-06	-0.628549353772772	0.772854779272451
0.8	0.806037651099175	-0.586497504745264	1.17482748795163E-06	-8.46673446413917E-06	-6.6136086064288E-06	-3.06646190255298E-06	-0.525877819620451	0.845622793081528
0.9	0.757408534007369	-0.647796105645741	-1.14517482317741E-06	-6.80198316591107E-07	2.54426240374665E-06	6.53490336126342E-06	-0.415089460380282	0.904746542787692
1	0.704238463269465	-0.705057167787789	-2.73921946734685E-06	-3.21853935436697E-06	-4.01560414142504E-07	-7.30493891398204E-06	-0.29803559290067	0.949236212131577
1.1	0.647711245007113	-0.758239982870225	1.80782292872741E-06	-4.9319426136444E-06	2.27068442646933E-06	-5.12476529791567E-06	-0.176258259033092	0.978906257718526
1.2	0.58586507374541	-0.807821112078463	-2.49504405460994E-06	2.48507305556985E-06	9.25820460172077E-07	-9.08468608512539E-07	-0.0515307540523833	0.992787362185449
1.3	0.518762223805743	-0.852675241426846	-1.53731851043134E-06	7.1617743623404E-07	-1.35616094298431E-06	1.4595065841004E-06	0.0736138274474771	0.991206507477006
1.4	0.448433909044104	-0.891981223398353	3.92583219507782E-06	-3.23212902574991E-06	2.68289594427479E-06	1.09380879692338E-05	0.198202625291234	0.973725439476724
1.5	0.375188422362106	-0.925120337614091	-5.33843791527278E-06	1.10265271287972E-06	6.59872166343048E-06	-7.19772828387526E-06	0.319448040332899	0.940700349781149
1.6	0.301058907799386	-0.951423271221269	1.78314116885413E-06	-7.73683746630252E-06	3.63049166425063E-06	1.38567503790467E-06	0.435324668360331	0.892929430627454
1.7	0.226431830630074	-0.971613137376598	-1.94063085888551E-06	-9.70546926108191E-07	-2.34137094439344E-07	-2.08690528402748E-06	0.543815599800614	0.831412371871764
1.8	0.149635312583725	-0.986264352576225	2.84797065617787E-06	5.27989045382843E-06	3.17202636975541E-09	2.03127647114314E-06	0.644101187305065	0.756329627042444
1.9	0.0718247773993827	-0.994814536560316	5.67311348788119E-06	-2.63068655092158E-06	-2.99740960364258E-06	4.15584579935292E-07	0.733843084092168	0.669083270568778
2	-0.00527900869427434	-0.996428641232368	-1.54633620398224E-06	-2.02422975360252E-06	3.20764585584232E-06	1.14441828809154E-05	0.810910311912159	0.570258234789845
2.1	-0.0830295214387081	-0.993467040066833	-7.55029485254313E-06	2.44520633480536E-06	1.20096501979335E-06	5.14317032112066E-06	0.874967699338183	0.465214909148997
2.2	-0.159863709466481	-0.984486289673315	-8.84153566216837E-07	1.39306547786177E-06	2.99557797071134E-06	7.77725918740365E-06	0.926969591128785	0.352202183876641
2.3	-0.237252171224747	-0.968557923199393	1.74568141281714E-07	7.45223141890243E-06	7.38984689456934E-07	9.39068243888878E-07	0.96373304364431	0.233570124789056
2.4	-0.313184634149731	-0.946094268102255	1.57548371549391E-06	7.17264332182459E-06	1.51768162892306E-06	6.38621774147612E-06	0.985825275067531	0.11003812891064
2.5	-0.386163933549966	-0.918400388048042	4.38832874667158E-06	-2.30998709145831E-06	-1.90894420612191E-06	-7.56668191555789E-06	0.991290534505433	-0.0146780618829077
2.6	-0.45697271478549	-0.884841970713116	6.76736929706524E-06	-5.93376846066546E-06	-1.10964852059313E-05	1.08082527823301E-05	0.981391353412269	-0.139315332660713
2.7	-0.525115056298693	-0.846034437613574	-4.44637889889208E-06	9.125212938429E-06	-2.85905546175963E-06	-9.14977267666118E-06	0.955412307176746	-0.2616482998338
2.8	-0.589017556328763	-0.802562333465687	2.45217913369211E-06	1.14571562789404E-06	-3.1252179835818E-06	1.23703462643689E-06	0.915341159464005	-0.378850435573897
2.9	-0.648711273131848	-0.755040186197172	-5.50322647224791E-06	5.99312844845075E-06	-9.17742750749477E-06	-3.0268904848137E-07	0.860763439493962	-0.490245930027748
3	-0.706139260853985	-0.703414196676931	4.76410924031442E-07	-1.46990022206767E-06	1.13080988265367E-05	1.49642275817063E-06	0.792361229592473	-0.594655223152469
3.1	-0.759877521017767	-0.646296060427573	2.37407020009752E-06	1.05001606564435E-05	4.3175155546731E-06	2.18603742083355E-06	0.71165422084273	-0.688431534015606
3.2	-0.808185375867901	-0.585437206576901	2.0861924739573E-06	6.47200444763879E-06	4.0306824893881E-06	-1.05941864031648E-05	0.620468413702876	-0.771766286777844
3.3	-0.851807507708389	-0.521199372416622	3.06897278645861E-06	4.97319593542146E-06	-2.19810711308237E-06	-9.67998607807954E-06	0.518619271185303	-0.843886367106603
3.4	-0.889884711342149	-0.453996248203505	2.13521565766336E-06	-2.60211703092254E-06	5.9628086760236E-06	1.40032147842688E-06	0.410008903542107	-0.903085680287416
3.5	-0.923557571150458	-0.381272557927058	-3.24596799694637E-06	9.45448652345058E-07	-2.07938606205458E-06	3.42732816268388E-06	0.2916453825998	-0.948769502958246
3.6	-0.949398615856415	-0.307234656744413	-1.81011638875354E-06	-3.74731284332327E-06	-7.83106849127059E-06	4.10084408489476E-06	0.169953660477042	-0.976223204304187
3.7	-0.970330694903894	-0.232661630558677	8.35004269776295E-07	-8.33216311534067E-06	1.07712845850485E-05	3.71556958856488E-06	0.0464471251593693	-0.9899301978409
3.8	-0.985814551879948	-0.155405662065657	8.99228349654656E-08	1.54885476665791E-06	-6.53530827062627E-06	5.94930928066672E-06	-0.077713253593234	-0.98863310133806
3.9	-0.994646116277708	-0.0776874738145201	-2.6256715672696E-06	-5.03805320840469E-06	-3.71804703593553E-06	8.03287354592469E-06	-0.203305525221135	-0.972151462649594
4	-0.997567332993722	0.0010001639330893	7.13839136294457E-06	-3.73134749085025E-07	-1.0446425913062E-06	-1.20850018482087E-06	-0.324883296115965	-0.939040557695266
4.1	-0.994894864170148	0.0792967026481757	6.21528736037575E-07	-4.43708307226031E-07	7.37438976206258E-06	-4.75318427321368E-06	-0.440964315300914	-0.8902838988012
4.2	-0.986050069970116	0.157757084792214	3.21032780999251E-06	2.11257859799838E-06	-7.19128158540339E-07	-7.6486192198305E-07	-0.549744670564908	-0.827262969920557
4.3	-0.970847319274991	0.23459963621575	-3.19992496865715E-06	1.37356279479428E-06	-5.01353922681955E-06	2.98619051937709E-06	-0.649533284887722	-0.751946287223486
4.4	-0.94870188354429	0.310026629379626	8.06348007350932E-07	2.64929475250122E-06	1.55718843088007E-06	-8.35432826439417E-06	-0.738968331417732	-0.664520388587708
4.5	-0.921066781063649	0.38164245106237	1.82624643024739E-06	-9.39272660097278E-07	7.6391293422378E-06	-2.50226207358898E-07	-0.817308486070577	-0.567021220348537
4.6	-0.889308861782564	0.45335143639366	-7.43835718968262E-07	6.139815537122E-06	-1.23528269363937E-05	-6.52432968598649E-06	-0.883026343171245	-0.459277716086123
4.7	-0.851209959599893	0.521301903955277	1.19860043942879E-06	2.52003997387113E-06	1.42012783940012E-06	1.87439817699563E-06	-0.934188912024964	-0.344145835727428
4.8	-0.80702975201521	0.587158542093253	-5.22167676966873E-06	1.11454021683362E-05	5.22163680226542E-06	9.73116695147449E-06	-0.969733848381842	-0.223265759832031
4.9	-0.758329027349047	0.648228222074331	1.19257563551538E-06	2.94472479701729E-06	-4.61058160019465E-07	-6.93634362754184E-06	-0.98966608747705	-0.0994635629505255
5	-0.706417766075934	0.706586659389517	4.76884959042857E-06	-8.97809086051646E-07	-3.77064718705271E-06	2.42265597272604E-06	-0.995934311627981	0.0260410430927786
5.1	-0.646784167270893	0.761623959466104	4.15670659873545E-06	-1.35313679389643E-07	-2.65485700280366E-06	-9.87081416276529E-06	-0.98397270807765	0.153574047010697
5.2	-0.583873415322321	0.810319935853161	2.65064649058038E-06	-1.50658543661194E-05	1.38221286469002E-06	2.83812069998138E-06	-0.95567003934517	0.276285189417092
5.3	-0.517838327940397	0.854242605392857	-8.75663815195528E-06	-7.9001387738636E-07	-1.14104083574352E-06	1.59344123452843E-07	-0.913164566152844	0.394260980143002
5.4	-0.448316487464598	0.892908259918667	-7.22912459549749E-06	-1.11098608451463E-05	-1.3800814650302E-05	1.12625904866064E-05	-0.856386210151863	0.505892437519683
5.5	-0.376201450202764	0.924987430444386	1.91167483757738E-06	8.65649355422905E-08	-2.25034008367841E-06	1.79340602280654E-06	-0.786875279191532	0.610131401085831
5.6	-0.302122920485874	0.951427728479452	-2.41572313652995E-06	3.52772253409889E-06	-1.346040117411E-06	1.29449029605038E-06	-0.703333711636938	0.70475650598433
5.7	-0.225826295886281	0.972498125949071	1.31213967269256E-06	1.23590795803083E-06	5.78624111381199E-06	-1.22319808973847E-07	-0.60869283685434	0.787313052162594
5.8	-0.147808131181261	0.987172109249676	2.72011646235308E-06	4.27668097499063E-06	-2.11776187045144E-06	4.26479920761232E-06	-0.504404103825177	0.857009138937736
5.9	-0.0679927802862679	0.995688806229601	-6.9337290270875E-06	-2.29583428605676E-06	-6.06271095405943E-08	6.32736076070374E-06	-0.39231517475581	0.912907998474407
6	0.0117071814310692	0.994797619680028	-1.79911687634346E-06	1.0159379519218E-07	-5.51272372491947E-06	-4.37298910939187E-06	-0.274706044240006	0.952255252343731
6.1	0.0879641967454562	0.989449466629596	-9.6694179063015E-09	-9.92670934510774E-06	-1.0012617967909E-06	-3.21355286731E-06	-0.155574745724885	0.978578927101636
6.2	0.165303192534885	0.978964674823591	-1.00786993890616E-06	3.11763055097418E-06	-1.74011246341178E-06	4.22284413384034E-06	-0.0318848910633036	0.990464795725303
6.3	0.242161164466403	0.962660675024422	-7.93273154100768E-07	2.8317213940751E-06	-2.92628948936663E-06	2.40596811265786E-06	0.0928019929939916	0.98668540723732
6.4	0.317956791673762	0.939662344735863	-5.93970483381238E-06	5.55968711094801E-06	-2.38124724313143E-06	-7.39409008767915E-07	0.216591960709053	0.966465022458434
6.5	0.389206108558907	0.911739414340729	1.39672620150809E-06	-5.26619929095512E-06	-1.4474827231655E-06	-2.37064422954468E-06	0.333989642555357	0.931914993743369
6.6	0.461505149936497	0.880316557181087	3.658299646424E-06	2.1069371666025E-07	1.13193171283608E-05	-2.67969498943606E-06	0.45048120877869	0.884912246329546
6.7	0.53082628293393	0.840571226851562	-7.77500967832734E-07	8.49727532660624E-07	-3.77578926626195E-06	5.24456545970724E-06	0.558993454158761	0.8206004671278
6.8	0.596186460486063	0.795679206666075	-1.7554728174776E-06	4.50214719980441E-06	1.45694091203795E-06	-8.87325676448698E-07	0.657604305913366	0.743460486576782
6.9	0.657900668719636	0.745727103538567	5.94496832051068E-06	2.24831473219331E-06	-9.31201536678697E-07	2.42600422126812E-06	0.745555231231592	0.654536533264416
7	0.714991372598054	0.690327101718135	1.12986352476391E-06	-4.16929956587571E-06	-1.42296084395453E-06	2.93286812099404E-06	0.820649979141742	0.55518874665976
7.1	0.767063133035318	0.631485597534912	2.38244582456236E-07	-7.19895326517817E-07	2.00413627829038E-06	9.19524636163967E-06	0.883124311952166	0.448684357169763
7.2	0.814556377852489	0.56848431717177	1.38194868303268E-06	-2.41927369503456E-06	-1.03022876560402E-06	-8.57331022556411E-06	0.932171780211085	0.334899758468855
7.3	0.856948605721459	0.501948879799326	4.84982349765989E-06	7.22859335648812E-06	-9.72324798762758E-06	2.34728043127362E-06	0.966428480828326	0.215903824820467
7.4	0.895318151156661	0.432363746514003	5.10626360961007E-06	-6.81464256150208E-07	1.94924007406573E-06	-9.65608907729861E-06	0.987081859109788	0.093211854943494
7.5	0.928506130720775	0.357185218726284	2.75446830236934E-06	-5.33623359067471E-06	2.1003398675312E-06	-7.31572757387698E-06	0.991415904329722	-0.0346085039014426
7.6	0.953036952181183	0.280588501180136	-3.29517986637854E-07	-5.65847349753463E-06	1.68481956857465E-05	3.84033720369577E-06	0.976890738105028	-0.15895334830503
7.7	0.972609259941163	0.202584520507899	3.53303040245016E-06	9.95746852334778E-08	3.15505433041227E-07	-2.9382963205786E-06	0.948754564267823	-0.28072393819064
7.8	0.985781709237797	0.122881943951332	-1.10308154672159E-05	-1.87657484218975E-06	-1.87925140545307E-07	3.45372511800691E-06	0.90544327271104	-0.39827565058373
7.9	0.99211272267261	0.0412841062149973	2.37864286018468E-06	2.02155721248873E-06	-7.00033752529088E-06	-4.67957019035497E-06	0.847163371943183	-0.510230966592962
8	0.987725035543674	-0.0396088087138852	2.37599016849688E-06	2.92672961175547E-06	-9.39264744622516E-06	-7.49790296278937E-06	0.771810216816851	-0.611292546283233
8.1	0.981027128763006	-0.115143762463671	3.79418523989826E-06	-3.0800312912167E-06	2.12016179589636E-06	-3.1848551793376E-06	0.690761170807942	-0.699855840371701
8.2	0.96948918856275	-0.192688631410762	-4.01462865775397E-06	1.42989489899774E-06	-6.72729690186001E-06	3.90919247447337E-07	0.598769235722815	-0.780916302608843
8.3	0.950737742045711	-0.26977834815812	9.82831973302483E-06	2.55580294472949E-07	6.26256456266097E-06	1.03853349286622E-05	0.496438273257316	-0.849678887218412
8.4	0.925526328700445	-0.345151102524502	1.28709205232119E-06	2.54336631457347E-06	3.45251448367178E-06	1.80639174603701E-06	0.38647041211313	-0.905488468887921
8.5	0.89424066708334	-0.418186924059325	-4.82110141016907E-06	4.96411783832654E-06	2.84082285524779E-06	-3.02246547372284E-06	0.268728850592034	-0.947362594302378
8.6	0.857589684038457	-0.48857930617056	-4.4814078094353E-06	2.09993855690038E-06	-3.00129401599395E-06	8.11189320644063E-06	0.147318115674138	-0.972704913830893
8.7	0.815206997324281	-0.556097394015523	-1.01355089154254E-06	1.21662124760356E-06	-6.29005465854412E-07	3.45599042672769E-06	0.0239928498336712	-0.982869208872317
8.8	0.76743752538303	-0.619682838927471	-1.56691037407153E-06	3.07310733938334E-06	-5.9799553581145E-06	1.3027231402302E-06	-0.0987717020517847	-0.977489259821387
8.9	0.715276093893837	-0.679035662294742	3.15195836403286E-06	-1.82990947941794E-06	-3.14888598429955E-06	-4.46229734831087E-07	-0.218794791004469	-0.957232414878765
9	0.658420371658019	-0.734872788286108	-7.2511328766243E-06	1.34586661399499E-06	-3.95839660411723E-06	7.22382826484547E-07	-0.337339412830554	-0.925701089004253
9.1	0.596565892245766	-0.785197470587909	-3.34095976624846E-06	-1.87439060572356E-06	-9.79140970122474E-07	2.12601797010356E-06	-0.452866024150554	-0.875656739152627
9.2	0.531096537731535	-0.830346351546694	5.96234604048691E-06	-1.63062854624825E-06	1.97411844693991E-06	8.44817327236053E-06	-0.559668532641471	-0.812639987930318
9.3	0.462325945468071	-0.870308634503412	-3.39390641509098E-07	1.06722617012391E-06	1.36174382375853E-05	1.18101660686518E-05	-0.658275437349188	-0.736324058404729
9.4	0.390431744356986	-0.905306143237451	1.73323494842798E-06	-2.65717951238926E-06	4.28152735232689E-06	1.76180939048661E-06	-0.746387810254584	-0.648882337021225
9.5	0.311594363626858	-0.934025421486848	-6.51646959784701E-06	-4.87427398442709E-06	-1.95795810130606E-06	-5.6992505181784E-06	-0.825643897148212	-0.547747456142728
9.6	0.233577620227228	-0.951422669987465	-1.16454300731798E-05	-2.379007167659E-07	-5.9138087561325E-06	-3.99027366622324E-06	-0.886194422933723	-0.437289955469547
9.7	0.156140728187742	-0.96555782406479	1.46285993088683E-06	-4.77720647835575E-07	-2.90705149196216E-06	1.63811520861632E-06	-0.933696782552646	-0.322192053177803
9.8	0.0769658761226363	-0.974012079863502	2.19997122475942E-06	1.39576146012008E-06	1.50566082818498E-05	-3.49788167881126E-06	-0.966243573359197	-0.202054351395128
9.9	-0.00348546918545838	-0.975750528135728	-3.44711931986999E-06	8.94456714847157E-06	1.37175464841334E-05	4.96916139178558E-06	-0.983402629194242	-0.0791532619088218
10	-0.0832925718812034	-0.968919251822245	-3.63046584889257E-06	1.61002042725898E-06	1.9181399962754E-05	-1.80660636591834E-05	-0.985893686181756	0.0443881897275059
10.1	-0.160267816631426	-0.956802802242789	-1.47946497353674E-06	2.29570684867065E-06	-8.39798305093616E-06	-4.31343444195434E-06	-0.973319085930977	0.168698493102923
10.2	-0.237075238082542	-0.938805057437692	-2.3054584001642E-06	-1.24042871140675E-06	-1.29044991969723E-05	7.21127640631897E-06	-0.943998597615438	0.290660043517103
10.3	-0.311249606632157	-0.913601797236611	5.75732350398903E-06	3.91691853118114E-06	-6.13850158629834E-06	1.37896811761281E-06	-0.899100862005851	0.407231541312272
10.4	-0.382545033786523	-0.882604432481922	2.0961931916178E-06	1.04071289802724E-06	6.90347532096854E-07	-8.19612180986843E-06	-0.838864232911249	0.515029001629821
10.5	-0.450409628637634	-0.844804314455368	4.34153777368449E-07	-3.04134345103596E-07	-6.52188885642447E-07	-5.59702396244175E-06	-0.770628552425922	0.611988734438026
10.6	-0.512554721257623	-0.801866537559078	5.06072534744535E-06	-2.58559122050397E-06	-9.68368498007099E-06	-7.84146255055932E-06	-0.690586080668461	0.705663522229192
10.7	-0.570406528382111	-0.755166330318115	-2.79636933335092E-06	-5.02897523310247E-07	-5.18397415240694E-06	-7.13089332290829E-06	-0.597691186718466	0.787609968997376
10.8	-0.623441750266735	-0.705539086493222	-3.58475286751765E-06	-3.42868093798294E-06	-1.19051659030654E-05	9.06285351760656E-06	-0.494660009997897	0.857101972850937
10.9	-0.671938972925647	-0.654999741287142	-1.1270479798062E-05	-1.03938516779642E-05	-4.48574093045425E-06	1.08710692594506E-05	-0.384350521708699	0.911897662001378
11	-0.720689025040686	-0.604012853196335	1.00120470377625E-06	1.40995215132123E-06	8.66331519934859E-06	-5.44211435953025E-06	-0.26928727502273	0.954976230198408
11.1	-0.765039978815113	-0.54510146894982	-3.16545608878071E-07	-3.62384039830571E-06	1.01831940937687E-05	-1.01482266251038E-05	-0.145826931238286	0.982999110875358
11.2	-0.804194522170268	-0.485899544253616	-1.0187203456976E-06	-3.90487185769887E-06	2.17166044602851E-06	-6.28743353437692E-06	-0.0197187997643342	0.993624712441845
11.3	-0.840750427979055	-0.423954806608411	1.66444179405156E-06	-1.20087299909538E-05	3.5646849430093E-06	-2.8046034430043E-06	0.106684506092771	0.987910610314189
11.4	-0.873680857915986	-0.359100187346959	9.85238691820124E-07	2.07971563503689E-08	-5.69638749316408E-06	6.43848165101018E-06	0.231771939029311	0.96600518798336
11.5	-0.902463752122458	-0.288315214331879	6.53547157360684E-06	-1.23432461759938E-06	8.22353179931962E-06	-3.0668046834241E-07	0.3512971025061	0.928013313620075
11.6	-0.922026959737139	-0.217115618578601	-6.29731220015226E-07	-5.31119884776539E-06	1.4373697600817E-06	-3.06841993460909E-06	0.465974368160861	0.876106976325853
11.7	-0.937990429930829	-0.144659959163408	-8.05814386164795E-08	-6.02785557129682E-06	8.95308680753578E-07	-2.64750723678979E-06	0.573414993236281	0.80941463618907
11.8	-0.949028452317146	-0.0695046144273346	-1.06641486679888E-06	-7.41739354401649E-07	5.14854319144201E-06	1.08949155347751E-06	0.671584923739664	0.729195715431666
11.9	-0.95430433181799	0.00760942472398119	-3.19653553388182E-06	-5.20850520954868E-06	-5.35563650376437E-06	-8.01110871904491E-06	0.757893943560797	0.636094623931164
12	-0.95405763576918	0.0870098392960466	-2.94326566994143E-06	1.63195678819926E-06	-1.66783611557672E-05	-8.77464248995863E-06	0.825193236240425	0.533733372051263
12.1	-0.945935440873306	0.165933048124642	8.3119358793601E-07	-1.56260390029421E-06	7.80117644282598E-06	1.22974420629035E-05	0.883361450778938	0.430256092278889
12.2	-0.930504301690014	0.245231894743143	-4.12783645556153E-06	5.53664870695774E-06	4.03708318821383E-07	3.31542153619891E-06	0.930798584469134	0.317366388944552
12.3	-0.908224110970987	0.323259425201417	7.82404391455753E-06	6.41502734373144E-06	3.90920963116778E-07	1.09041812692237E-05	0.962994251238775	0.197990119406569
