# GHZ S RI R 50
0.2	0.985301794654404	-0.156970035280112	2.56378828030478E-06	2.24840210008638E-06	6.56662576883847E-06	-4.86820511000846E-06	-0.965948644801835	0.251820408838378
0.3	0.969156250854258	-0.234025465765855	-8.7501567150063E-07	-5.45093014914792E-06	-3.46722506501609E-06	-7.9404875639966E-06	-0.926143799226356	0.371818872244457
0.4	0.947510622719176	-0.309311443520405	-7.274510692983E-06	-9.87585464856789E-07	4.43882991723796E-06	1.54224202594695E-06	-0.871161980146465	0.485449884227601
0.5	0.92036130825692	-0.382516628088696	6.1942745664604E-06	2.10113022690544E-06	-2.41223038350864E-06	-1.90555787500792E-06	-0.802510883384239	0.591208559791269
0.6	0.887545901220836	-0.453272266936998	-1.05426999972967E-05	2.4598098632984E-06	-2.21672940224368E-06	-1.0060894688702E-06	-0.72126601918551	0.68746108209911
0.7	0.84943958988829	-0.521019320028635	2.78183934169692E-06	-1.17146708384311E-06	-2.98449531450749E-06	5.78408492038613E-06	-0.628596344718804	0.772849464873821
0.8	0.806087058300767	-0.585932640249039	1.17476483224429E-06	-8.46873305113451E-06	-6.61525441241373E-06	-3.06690843505807E-06	-0.525873410981333	0.845596403012111
0.9	0.757833505015093	-0.647463932679193	-1.14575396947374E-06	-6.80395215197028E-07	2.5460261083442E-06	6.53759810955942E-06	-0.415050013518202	0.904668439580848
1	0.704598341820517	-0.705513974247092	-2.74264328242286E-06	-3.219396072463E-06	-4.05380111604238E-07	-7.30970703778551E-06	-0.297993068143802	0.949138402532888
1.1	0.647225232700573	-0.759010993093779	1.80400501046397E-06	-4.93604318457965E-06	2.26690658696062E-06	-5.12939918927458E-06	-0.176173069084171	0.978808241946523
1.2	0.584657133322002	-0.808400789173749	-2.49246629553605E-06	2.48869117872602E-06	9.24880937549099E-07	-9.09808345012944E-07	-0.0513493365110916	0.992749187870678
1.3	0.51690517629562	-0.852729305195553	-1.53593365376654E-06	7.18342510520973E-07	-1.3536960164378E-06	1.46125007870825E-06	0.074098254591814	0.991145440698734
1.4	0.4462652835447	-0.891102520858205	3.91794445698047E-06	-3.23544416804688E-06	2.69708384308137E-06	1.09255265980043E-05	0.198876420338669	0.973349956393522
1.5	0.373156250925551	-0.923116253293364	-5.33000978463281E-06	1.10712316104481E-06	6.58179286706391E-06	-7.19538723048622E-06	0.320094505290292	0.940135785869712
1.6	0.299827024130168	-0.948548266233501	1.77680323758707E-06	-7.72565337434296E-06	3.62549689807552E-06	1.38184906241925E-06	0.435851853612807	0.89208703563725
1.7	0.2260967679847	-0.96852397501844	-1.93783718497299E-06	-9.69133937581268E-07	-2.33812881390768E-07	-2.08389270597955E-06	0.544107669482603	0.830454624666234
1.8	0.149968563572718	-0.98327640374666	2.8427578860473E-06	5.27381023951307E-06	2.59179932300467E-09	2.0286274520097E-06	0.644154350311418	0.755347922755758
1.9	0.0727299387708229	-0.992155124488206	5.66841180504896E-06	-2.6243899509949E-06	-2.99434358899559E-06	4.13335072205451E-07	0.733582502313748	0.668286330785187
2	-0.00440035049201837	-0.994482096859984	-1.54439625595567E-06	-2.02404777647006E-06	3.19955116463785E-06	1.14400445032552E-05	0.810996675592379	0.570034047539177
2.1	-0.082498422787143	-0.991142438257018	-7.54486697934299E-06	2.44205466100743E-06	1.19917733791403E-06	5.13939527950011E-06	0.875461949486256	0.464447623755702
2.2	-0.158757305775875	-0.981902571589183	-8.83933764127287E-07	1.39128659116452E-06	2.98901885314373E-06	7.771018253195E-06	0.927261426912117	0.351125615756452
2.3	-0.235485273969225	-0.966230636516493	1.68238856958962E-07	7.445649593233E-06	7.37539971818847E-07	9.38832644532569E-07	0.963744162790304	0.232361286330263
2.4	-0.310894058070702	-0.944437785179845	1.56566969341663E-06	7.17007037461016E-06	1.50887135353413E-06	6.38406828486241E-06	0.985472420162922	0.109003116624837
2.5	-0.383949559317828	-0.917742754953672	4.39181597137847E-06	-2.30359392804915E-06	-1.89787552292135E-06	-7.56964942288605E-06	0.991076187548357	-0.0151869049321493
2.6	-0.455396392837842	-0.884626428868801	6.77837071602814E-06	-5.92881655801915E-06	-1.11158397103614E-05	1.08007332070417E-05	0.981611773068198	-0.139785168198976
2.7	-0.524030123718202	-0.845830702492026	-4.45804762457594E-06	9.12848477361131E-06	-2.85316010447257E-06	-9.159581880624E-06	0.955966313427275	-0.262279842021852
2.8	-0.58829890618797	-0.802244352016761	2.45353228000502E-06	1.14817970972278E-06	-3.12859639210566E-06	1.23615532344207E-06	0.915995179180642	-0.379780643743234
2.9	-0.648528440722646	-0.754549196761336	-5.50996900982593E-06	5.9969782370456E-06	-9.18568181469458E-06	-3.05628934759505E-07	0.861292310497689	-0.491282438706844
3	-0.706443141048877	-0.701973959783405	4.7618033293376E-07	-1.47091482335163E-06	1.13151573470238E-05	1.49339396020659E-06	0.793078997470216	-0.595471138584874
3.1	-0.759719214903391	-0.644073322448423	2.37749728583452E-06	1.04985074585829E-05	4.31792478100228E-06	2.18437659706776E-06	0.712773578302167	-0.689668728137571
3.2	-0.807458948868896	-0.582879397084286	2.08681276933153E-06	6.46887218802006E-06	4.02661119660203E-06	-1.05907577855686E-05	0.621442340466567	-0.773563337018376
3.3	-0.850514855037744	-0.518586343032417	3.06741162817795E-06	4.96939553677661E-06	-2.19768750693106E-06	-9.67301993936635E-06	0.519164011400596	-0.846037002950621
3.4	-0.888009616000578	-0.451508270044669	2.13312081807388E-06	-2.59917336197611E-06	5.95632038579893E-06	1.39926106814458E-06	0.409933353729541	-0.90512652079997
3.5	-0.921182543139242	-0.379509814801984	-3.24311627003964E-06	9.41602317607157E-07	-2.07997573315098E-06	3.42168136562563E-06	0.292009133204161	-0.950296308994484
3.6	-0.947405204174788	-0.305807078426283	-1.80633455220528E-06	-3.74674154328874E-06	-7.83011589606841E-06	4.09277581665124E-06	0.170247617292229	-0.978795266581396
3.7	-0.968188921259377	-0.231293800935917	8.39032966115147E-07	-8.32652269909311E-06	1.07625540359613E-05	3.71913732014294E-06	0.0457800864263479	-0.992597668614177
3.8	-0.983579372654105	-0.154439610748574	8.89522502545643E-08	1.54771310612625E-06	-6.53373216233513E-06	5.94092022183458E-06	-0.0790874775792992	-0.990697343430763
3.9	-0.992762989603741	-0.077144238210097	-2.61987263503351E-06	-5.03575078764768E-06	-3.72072336296747E-06	8.02352808817631E-06	-0.204683603782542	-0.973005496513166
4	-0.996278095918705	0.00181411824761012	7.13355220950167E-06	-3.67713006152555E-07	-1.04302232074051E-06	-1.20838966783611E-06	-0.324745386471584	-0.939347284552541
4.1	-0.99339631192441	0.0805607559508123	6.21263739392999E-07	-4.4292814913225E-07	7.37092350784883E-06	-4.74437573125655E-06	-0.440154373193124	-0.891595844986423
4.2	-0.984208745982434	0.15889140283219	3.20536646521602E-06	2.11263666805141E-06	-7.17806149492726E-07	-7.64562844777787E-07	-0.549069666339193	-0.829157745253009
4.3	-0.968976411624153	0.23522908319675	-3.19744422969901E-06	1.36866197277561E-06	-5.01049684477264E-06	2.97750296572861E-06	-0.649081252756854	-0.754086026298936
4.4	-0.947595231825007	0.309969924492033	8.01283955635755E-07	2.64812646909603E-06	1.56931975211682E-06	-8.34397533083167E-06	-0.738802858287904	-0.66660469331281
4.5	-0.921294355485134	0.382395342412895	1.82799305966722E-06	-9.36824681083681E-07	7.64110484045563E-06	-2.39209672534014E-07	-0.816808277587202	-0.568550958545289
4.6	-0.889282795209134	0.455077550599179	-7.47827957460273E-07	6.14047762105893E-06	-1.23510018427464E-05	-6.53328641352709E-06	-0.881640603173767	-0.461473792834543
4.7	-0.850812982672966	0.52342622545293	1.19778560282122E-06	2.52072326080014E-06	1.41957235508915E-06	1.87510138813561E-06	-0.932945444081458	-0.347346611983709
4.8	-0.806290949444194	0.589413574946377	-5.223436391937E-06	1.11457303177611E-05	5.22092983397636E-06	9.73260906586109E-06	-0.969165602594966	-0.227145817264836
4.9	-0.757309170608803	0.650667600277135	1.19347329041809E-06	2.94450024916681E-06	-4.63077387072985E-07	-6.93649191604607E-06	-0.989996415100746	-0.103343349133313
5	-0.70439351810721	0.708952569589346	4.76437733455149E-06	-8.99720945633862E-07	-3.7661558454243E-06	2.42274122975596E-06	-0.995838034275073	0.0221689891904596
5.1	-0.644643832847119	0.763077533801688	4.15255625875366E-06	-1.33850630324926E-07	-2.64902854168713E-06	-9.8617031710906E-06	-0.98514723475905	0.148239278568545
5.2	-0.581804174218149	0.811269922981089	2.65766718045485E-06	-1.50519906437442E-05	1.37936050278625E-06	2.83665498645351E-06	-0.958632019831994	0.271493291954464
5.3	-0.516040680901285	0.85456021691634	-8.74886760358435E-06	-7.97439720867335E-07	-1.14026974757599E-06	1.58165525912607E-07	-0.916936758311362	0.390650201497493
5.4	-0.447381541537784	0.892692006707061	-7.2076909684658E-06	-1.11126062756614E-05	-1.38075765141796E-05	1.12343486198122E-05	-0.860073878436661	0.503474415887772
5.5	-0.376347858155302	0.925358723638272	1.91164075212741E-06	9.01889945725661E-08	-2.25388716323974E-06	1.78926858195005E-06	-0.789611297409108	0.607732422210806
5.6	-0.302134628493838	0.952440470535358	-2.42143625495387E-06	3.52522764360136E-06	-1.34826224108708E-06	1.29291657179183E-06	-0.706835023562909	0.701529616022041
5.7	-0.225752270266229	0.973445547664816	1.31048913407982E-06	1.23804485735476E-06	5.78726984872019E-06	-1.137116653382E-07	-0.613524103856548	0.784638953672099
5.8	-0.148010207810195	0.987779500082002	2.71273830509265E-06	4.28113240144451E-06	-2.12492546010167E-06	4.26102840076625E-06	-0.510128158648218	0.855606847435097
5.9	-0.069306672992293	0.995877877462911	-6.92460903944006E-06	-2.31151256081762E-06	-7.59731304429171E-08	6.32398248342739E-06	-0.398549027137904	0.913287457617211
6	0.0085334639840118	0.996619823350019	-1.80030503637855E-06	9.35989028054491E-08	-5.49544046293736E-06	-4.39939849585375E-06	-0.280236650344991	0.955467490831936
6.1	0.0855496826370355	0.993305669494716	3.31131093544678E-08	-9.95099912496662E-06	-9.89850045717811E-07	-3.22572030918171E-06	-0.158464558028796	0.982802920108941
6.2	0.164162752732272	0.983680395354691	-1.02303765273135E-06	3.12497690725971E-06	-1.76199104274101E-06	4.23140183570229E-06	-0.032955551375935	0.99442506210038
6.3	0.242192349704103	0.967309609773507	-8.04743330378653E-07	2.84146100010845E-06	-2.94558782715282E-06	2.40779632175966E-06	0.092821565669138	0.989823674725457
6.4	0.318369534306327	0.944197433575762	-5.97823931674362E-06	5.57199090448473E-06	-2.39036556724197E-06	-7.47808314733075E-07	0.216923319810478	0.969070736944841
6.5	0.391244995350755	0.91665199038124	1.40616772801197E-06	-5.29159655357657E-06	-1.45350987061629E-06	-2.38307369570434E-06	0.335762289197166	0.933724360430566
6.6	0.464252609543465	0.883688876467166	3.67077804486233E-06	2.0901161734681E-07	1.13557479741976E-05	-2.69613822090079E-06	0.451285555153829	0.884756238496567
6.7	0.533636683565248	0.843241605667156	-7.78898851191754E-07	8.52418675088083E-07	-3.78181546988357E-06	5.26047778249416E-06	0.558897038814297	0.820587494254498
6.8	0.599055116157999	0.797620289009869	-1.75545418869951E-06	4.51279913961678E-06	1.45921728413501E-06	-8.90318690560843E-07	0.657352368744723	0.74368339198822
6.9	0.660421358019128	0.746954373293291	5.95530323270145E-06	2.24580313690807E-06	-9.30195556424276E-07	2.4302346192397E-06	0.745363053338649	0.654978381287658
7	0.717035978116587	0.691567760250593	1.13077039450207E-06	-4.17338507343633E-06	-1.42420669853226E-06	2.93577015775471E-06	0.821061773917491	0.555753134449632
7.1	0.769349907342254	0.632642758316752	2.38570052057867E-07	-7.21286670440184E-07	2.0094515770831E-06	9.21216506343861E-06	0.883803508955166	0.448582965231273
7.2	0.817051745018696	0.569101561033293	1.3827084552191E-06	-2.42566299882471E-06	-1.04014127804866E-06	-8.59061361669442E-06	0.932811276061146	0.334371138872068
7.3	0.85940561299134	0.50166027780895	4.874333120679E-06	7.23512128443055E-06	-9.7400486185779E-06	2.37109639612887E-06	0.966942794420966	0.214705008897332
7.4	0.896887785690662	0.43082902439621	5.11107233877969E-06	-7.01298853971333E-07	1.91637730959109E-06	-9.67713983337119E-06	0.986448676253467	0.0911157348366322
7.5	0.928108815311475	0.356042348184156	2.72955925393101E-06	-5.33977460641184E-06	2.06850111777579E-06	-7.31395174206869E-06	0.989035915442108	-0.0352309579865184
7.6	0.952544197980945	0.280249694370782	-3.45219246744287E-07	-5.64682734572706E-06	1.6827428556929E-05	3.78447298613451E-06	0.975226146027172	-0.158705947005558
7.7	0.971815790705619	0.202743713487789	3.52393867710702E-06	9.21254905082555E-08	3.08698060332501E-07	-2.93120842127899E-06	0.947400606791026	-0.279893398909253
7.8	0.984848133118901	0.123645024521857	-1.10005832317827E-05	-1.86130555719352E-06	-1.84300272611907E-07	3.44390293537477E-06	0.904591076518753	-0.396957597741204
7.9	0.991110930261747	0.0431001070059137	2.3702556728831E-06	2.01730045924569E-06	-6.97654409435313E-06	-4.67076375726439E-06	0.846958280963924	-0.507903077196714
8	0.988978766756279	-0.0364511347620858	2.36491313363579E-06	2.93165504430162E-06	-9.36150061303042E-06	-7.52078465587388E-06	0.774932582473309	-0.608545530950006
8.1	0.983241060099419	-0.114072232664992	3.80526595785298E-06	-3.07603657022743E-06	2.12937434100723E-06	-3.18444563154855E-06	0.694729110206772	-0.699673023407774
8.2	0.971359874129273	-0.192459347367204	-4.02425953958378E-06	1.42684450735122E-06	-6.74056289913641E-06	3.82020547687775E-07	0.602700075281567	-0.781937052548814
8.3	0.952356870399399	-0.270097803055136	9.85229006672693E-06	2.65041203488745E-07	6.26865257147458E-06	1.04165339057599E-05	0.500208454050162	-0.851795355804655
8.4	0.926862681708893	-0.345941047304888	1.29095796940906E-06	2.55076471999658E-06	3.46269309598444E-06	1.81154951458224E-06	0.389413804844964	-0.908458760429703
8.5	0.89529964034774	-0.419572350838217	-4.82581036932372E-06	4.97889997189563E-06	2.8435002181501E-06	-3.03137118649814E-06	0.271225841294307	-0.949751913551979
8.6	0.857878829945652	-0.490468861298117	-4.48786515781749E-06	2.10451236833919E-06	-3.0037194362205E-06	8.12550844578089E-06	0.15067953842372	-0.975599234034169
8.7	0.814763876663937	-0.55807381972132	-1.01571514555837E-06	1.21878812607472E-06	-6.30819140635648E-07	3.46253776868624E-06	0.027521260711305	-0.987145776612532
8.8	0.766397788484324	-0.621644037262328	-1.57267163588039E-06	3.08072139522379E-06	-5.99688336333695E-06	1.30337120915125E-06	-0.0960701529396873	-0.983531092030677
8.9	0.713631077753805	-0.681109146069666	3.16548016816338E-06	-1.83712986911746E-06	-3.16205468770533E-06	-4.48575953234969E-07	-0.218658044012465	-0.964453836769335
9	0.655843225283524	-0.736654962820142	-7.28245202465912E-06	1.36457004923133E-06	-3.97551492375667E-06	7.32535868482678E-07	-0.339253164326721	-0.930735842713804
9.1	0.593541487159924	-0.786649541215592	-3.3598086026923E-06	-1.87367713342809E-06	-9.77789729722074E-07	2.13746342465208E-06	-0.454534014482053	-0.879887996889702
9.2	0.527486013472182	-0.831429335544878	5.97717837469032E-06	-1.65758016630732E-06	2.01114137790232E-06	8.47039121825732E-06	-0.561596298605635	-0.815814805223297
9.3	0.458232290044246	-0.870928351622943	-3.35692720309241E-07	1.07103532448292E-06	1.36972883989993E-05	1.17797415263699E-05	-0.659832639962787	-0.738278297203206
9.4	0.385661992045626	-0.905129887662236	1.72185492124282E-06	-2.66703773576049E-06	4.29256426223169E-06	1.7428098661992E-06	-0.747239504829684	-0.649098783668795
9.5	0.308139043630864	-0.932686781766391	-6.52223089216834E-06	-4.84770772550583E-06	-1.97255517597849E-06	-5.68538860912311E-06	-0.822658627399611	-0.547176259624297
9.6	0.229886437881875	-0.951753099416803	-1.16386998155374E-05	-2.13080328117763E-07	-5.91858902102844E-06	-3.97526556175257E-06	-0.881910108321054	-0.439580409025613
9.7	0.150894637355175	-0.965585794239164	1.46075752366298E-06	-4.80727824686978E-07	-2.90130194742469E-06	1.64361451045671E-06	-0.929853280522303	-0.326247876502855
9.8	0.0707972434528412	-0.972844015137402	2.20080185727158E-06	1.38950174912442E-06	1.50335880482053E-05	-3.52743875364678E-06	-0.963559288643467	-0.20729786526174
9.9	-0.00973551846448151	-0.972987180236024	-3.42671520537223E-06	8.94208511434776E-06	1.37131391270247E-05	4.9381889238199E-06	-0.982765463265325	-0.0843237641398299
10	-0.0889164876282346	-0.965414719960993	-3.6246601558801E-06	1.61785800176041E-06	1.91278146717703E-05	-1.81023463443895E-05	-0.985768270113557	0.0412066152328989
10.1	-0.165967435035755	-0.952131391915655	-1.47049881659097E-06	2.29601128289885E-06	-8.3959986443429E-06	-4.28248597117065E-06	-0.971932695642588	0.165618045175331
10.2	-0.241555714450183	-0.932944440974832	-2.30203510824218E-06	-1.23301587090467E-06	-1.28588131856317E-05	7.21748013932939E-06	-0.942540067991015	0.286628617174836
10.3	-0.314119291384318	-0.90762823537452	5.74480616905796E-06	3.9034283213821E-06	-6.12187454144523E-06	1.37904139585582E-06	-0.898690079456504	0.402521901463051
10.4	-0.384022049149925	-0.877532689831139	2.09124593339539E-06	1.04032352923201E-06	6.95472614305209E-07	-8.17945073507641E-06	-0.840215855020526	0.511454453582013
10.5	-0.451615289190943	-0.841604876348881	4.34307452863018E-07	-3.03477759411405E-07	-6.45271134611293E-07	-5.59514540789517E-06	-0.769853650277026	0.611553782419335
10.6	-0.514851310326201	-0.799607759311921	5.06344718385767E-06	-2.581183312301E-06	-9.67727297175039E-06	-7.85083850961419E-06	-0.6867985781955	0.703447452265369
10.7	-0.573412942928555	-0.753191197302116	-2.79756730745547E-06	-5.04838294199712E-07	-5.1824903334466E-06	-7.13781291999737E-06	-0.592804459962107	0.783444751267014
10.8	-0.627224950346739	-0.70378123647626	-3.58624488543925E-06	-3.43225660361729E-06	-1.19165221073575E-05	9.06561238871174E-06	-0.489864550541304	0.85056121223218
10.9	-0.677115640133726	-0.652766825447262	-1.12926477037529E-05	-1.03987365060263E-05	-4.48336778549231E-06	1.08883188093168E-05	-0.380418246088485	0.90482687898935
11	-0.725319201698487	-0.599998123594637	1.00397487383179E-06	1.40692412106771E-06	8.64635619618461E-06	-5.45949041154235E-06	-0.26305255396157	0.946607172887493
11.1	-0.769387674315098	-0.541974495231402	-3.20099313888709E-07	-3.61743118595522E-06	1.01547535227089E-05	-1.01427486420242E-05	-0.140779057832468	0.970124170320146
11.2	-0.809303955764994	-0.482314808629794	-1.01900720294823E-06	-3.89711834280302E-06	2.16418027087421E-06	-6.27706019863801E-06	-0.0180568225124291	0.978445029815213
11.3	-0.845894281145918	-0.419428500701742	1.66029630929914E-06	-1.19840215121487E-05	3.55715617922015E-06	-2.79901989444609E-06	0.10434864839188	0.972221585770822
11.4	-0.877968608926069	-0.353826851648682	9.8257111585626E-07	2.13949700850972E-08	-5.68531683114908E-06	6.41735909863238E-06	0.225704604249479	0.95138657394129
11.5	-0.905977645133647	-0.284316016913805	6.52256195110339E-06	-1.21478996585467E-06	8.20413934856684E-06	-2.85156944227038E-07	0.343176668431449	0.915372767345843
11.6	-0.927325038834934	-0.21268219680695	-6.15638419687881E-07	-5.30738596721941E-06	1.44367760291979E-06	-3.06165529816784E-06	0.455817790128936	0.86470283987761
11.7	-0.94296546090206	-0.138550408234136	-6.82135390421426E-08	-6.02297142662806E-06	8.99961311538452E-07	-2.64346287779719E-06	0.560933544421538	0.80045287256763
11.8	-0.952655584207345	-0.0624275554572303	-1.06418220757469E-06	-7.42749676108266E-07	5.14180023883296E-06	1.09677833761273E-06	0.657775095903762	0.723934974476366
11.9	-0.956035854910651	0.0149954529692958	-3.18741557764344E-06	-5.20303308208209E-06	-5.3409313928619E-06	-8.00304497610685E-06	0.744608183071302	0.635866358211157
12	-0.953776727856871	0.0924512539289919	-2.93858055255195E-06	1.62665299012379E-06	-1.66391389854825E-05	-8.76898195595898E-06	0.81829958422235	0.536765646105146
12.1	-0.945680433439882	0.170452531065651	8.28461461604883E-07	-1.55756533121337E-06	7.77623299464533E-06	1.22574175389556E-05	0.879497487781527	0.430267792060015
12.2	-0.929775642288917	0.248707365668001	-4.11270168216662E-06	5.51008892779299E-06	4.00138589540004E-07	3.30107501653687E-06	0.927267577887481	0.31611914125963
12.3	-0.907417035538069	0.325164087510528	7.77589437517186E-06	6.39629735452451E-06	3.71731565287897E-07	1.08518742084745E-05	0.959835428784661	0.196444433907621
