# GHZ S RI R 50
0.2	0.98522019739258	-0.157045717742729	2.56376418564417E-06	2.24813994318523E-06	6.56599932441809E-06	-4.86828143829165E-06	-0.965963673610103	0.251876285645777
0.3	0.969072046996479	-0.234071030868733	-8.75049526687705E-07	-5.45043766665687E-06	-3.46708339495142E-06	-7.93972587781378E-06	-0.926152260744076	0.371878990048557
0.4	0.947477134991259	-0.309285777817586	-7.27381095976514E-06	-9.87886363208176E-07	4.43835273632086E-06	1.54234206505854E-06	-0.871191289689772	0.485511485397184
0.5	0.920588583712022	-0.382525581993228	6.19434671110525E-06	2.10182241441826E-06	-2.41215336512792E-06	-1.90587575197313E-06	-0.802573280393726	0.591336545260631
0.6	0.887824159304488	-0.453619932824574	-1.05435919815285E-05	2.46031255363797E-06	-2.21695731764322E-06	-1.00612207115328E-06	-0.721273042956248	0.6876035877364
0.7	0.849549908046347	-0.521574764468898	2.78187697286114E-06	-1.17178131024489E-06	-2.98412323490524E-06	5.78465696925843E-06	-0.628626939989254	0.772981299294618
0.8	0.805956990459197	-0.586583220589286	1.17362265060394E-06	-8.4688066876431E-06	-6.61559887439351E-06	-3.06599511693734E-06	-0.525935382693923	0.845754487043119
0.9	0.757363176791694	-0.648019252221271	-1.14568534125728E-06	-6.80139283476318E-07	2.54657138051513E-06	6.53631400043093E-06	-0.415133742624093	0.904862368005392
1	0.704004343898872	-0.705527513580549	-2.74154814032986E-06	-3.21861556663216E-06	-4.04689063451909E-07	-7.30748406848915E-06	-0.298115316548547	0.949365717135072
1.1	0.647112957031605	-0.758755595863133	1.80556402039465E-06	-4.93460875298352E-06	2.26846605489097E-06	-5.12776253133497E-06	-0.176353613716722	0.979116699250017
1.2	0.584912338848214	-0.808216758973176	-2.49393863065589E-06	2.48768627654879E-06	9.25420479528345E-07	-9.09434167253472E-07	-0.0515720264371351	0.993197714388786
1.3	0.517474287644574	-0.852814890383757	-1.53690449539856E-06	7.17877806869862E-07	-1.35495813238995E-06	1.46117386668212E-06	0.0739269751700853	0.99178401094817
1.4	0.446870633026888	-0.89161997736071	3.92130945987988E-06	-3.23646471824095E-06	2.69589088214498E-06	1.09332225112901E-05	0.198914156996076	0.974064272822645
1.5	0.373812444229545	-0.924020373770612	-5.33402764718725E-06	1.10785435432323E-06	6.5868627127011E-06	-7.20066108493891E-06	0.320331546955609	0.940709211797197
1.6	0.30007914860329	-0.950113800272081	1.77540799601304E-06	-7.7322113723586E-06	3.62877005414924E-06	1.38161451464744E-06	0.436115858063408	0.892415713196148
1.7	0.225697420147058	-0.97012415570436	-1.9395329250808E-06	-9.68459266683657E-07	-2.35253864890311E-07	-2.08491419925582E-06	0.544302790175486	0.830623992887665
1.8	0.149135734887079	-0.984607334875837	2.84766074114011E-06	5.27323511568572E-06	4.14632289440587E-09	2.02924175454285E-06	0.644235197861856	0.755385668308248
1.9	0.0717166447573017	-0.993011104909331	5.66635715496398E-06	-2.62861554581962E-06	-2.99398998607862E-06	4.15581136186657E-07	0.733439168645718	0.668243986071957
2	-0.00502064812136977	-0.995014851464099	-1.54519152955252E-06	-2.0231258071588E-06	3.20459026096119E-06	1.14374212812371E-05	0.810691404648123	0.570169667683264
2.1	-0.0829947591274306	-0.991976343957809	-7.5435617301093E-06	2.44611045580214E-06	1.20193963752414E-06	5.13875562314381E-06	0.875123204775855	0.464508012898434
2.2	-0.159491853443284	-0.982861936425671	-8.82974696370627E-07	1.39169684950259E-06	2.99356773927324E-06	7.76835923197008E-06	0.926671780256764	0.351242652909588
2.3	-0.236550446052245	-0.967108990874504	1.73257116607701E-07	7.44373287337418E-06	7.37999326314263E-07	9.38104250738748E-07	0.962990695185279	0.232660021372909
2.4	-0.312295991761867	-0.944964741544811	1.57031647003028E-06	7.16578577516324E-06	1.51295875121905E-06	6.38016803740134E-06	0.984638389401932	0.109452008448893
2.5	-0.385319446116762	-0.917622907648974	4.38668286428521E-06	-2.30497881927624E-06	-1.9018933837145E-06	-7.56231107984207E-06	0.99002857656177	-0.0146570547559338
2.6	-0.456306179921353	-0.884222722163993	6.76891175573799E-06	-5.92527046339836E-06	-1.10999019989345E-05	1.07937861457915E-05	0.980308582118978	-0.13883973931299
2.7	-0.524575492703096	-0.845470543806153	-4.4527962737594E-06	9.11962689763918E-06	-2.85102725115617E-06	-9.15009410427787E-06	0.95475439075074	-0.26089273522698
2.8	-0.588640992902709	-0.802045480535923	2.45127958127066E-06	1.14744527126817E-06	-3.12601257499593E-06	1.23474771597558E-06	0.915006509112553	-0.378113384205647
2.9	-0.648750067618942	-0.754402351982732	-5.50759621757186E-06	5.99171188868169E-06	-9.17942887146944E-06	-3.07471239333109E-07	0.86062001316681	-0.489520743199758
3	-0.706158091045419	-0.701886622733257	4.76306960555116E-07	-1.47012895374502E-06	1.13096207006807E-05	1.49536255864103E-06	0.79256743977979	-0.593894402702351
3.1	-0.759241130825512	-0.644740253195428	2.37502174374489E-06	1.04960287584403E-05	4.31635687133961E-06	2.18452395981411E-06	0.712126326397143	-0.688107130743503
3.2	-0.807299200701717	-0.583957130605751	2.08623740347607E-06	6.46778401157232E-06	4.02622570049101E-06	-1.05887424529024E-05	0.620771455001042	-0.771845002413826
3.3	-0.850687238089123	-0.519795397382058	3.06741045735657E-06	4.96805352735278E-06	-2.19842344737713E-06	-9.6708624780744E-06	0.518522173461742	-0.844151660791708
3.4	-0.888443943123233	-0.452593751944126	2.1316320425949E-06	-2.59882102229957E-06	5.95455072998834E-06	1.39711201977749E-06	0.409293170872246	-0.903029091070621
3.5	-0.921467914031372	-0.380541976170063	-3.24087229373433E-06	9.4117648072006E-07	-2.07835572150924E-06	3.41951107785452E-06	0.291615060146649	-0.947731370411894
3.6	-0.947950695822124	-0.307101346846336	-1.80499430367472E-06	-3.74511240214839E-06	-7.82674942748282E-06	4.08981830220045E-06	0.1703041425538	-0.976184182306052
3.7	-0.96908306515088	-0.232437747761459	8.39412165977327E-07	-8.32272007681243E-06	1.07574001053508E-05	3.71844831730837E-06	0.0462128816529653	-0.989958584802209
3.8	-0.984621471166185	-0.155246746096026	8.87367642541385E-08	1.54700767533083E-06	-6.53138116114835E-06	5.93743785225334E-06	-0.0782075532575841	-0.988236327748319
3.9	-0.993610717328877	-0.0775723438350594	-2.61764168886684E-06	-5.03415467142894E-06	-3.72087655302793E-06	8.01925691666912E-06	-0.203527921465442	-0.971085572167025
4	-0.996572926313014	0.00130249920669113	7.13212836675339E-06	-3.6617351471025E-07	-1.04255542344712E-06	-1.20834950311577E-06	-0.32410009699293	-0.938020055905452
4.1	-0.993658903804586	0.0795690699843777	6.21104105882788E-07	-4.42791159103498E-07	7.3690169182442E-06	-4.74289065799369E-06	-0.440014576348022	-0.889814079982322
4.2	-0.984650908039973	0.157702644211557	3.20392609381002E-06	2.11190995233273E-06	-7.17469481859299E-07	-7.64278434525362E-07	-0.54872250840594	-0.827002839808581
4.3	-0.969600586410401	0.233993865911321	-3.19591813084614E-06	1.36732815858937E-06	-5.00825520384115E-06	2.97495124430825E-06	-0.648349974039786	-0.751879007327181
4.4	-0.948368695689334	0.308917582835583	7.99432182285112E-07	2.64685536646616E-06	1.57256056212993E-06	-8.33789220650407E-06	-0.737665114027114	-0.66477101187255
4.5	-0.921633874968637	0.381707613370233	1.82821595361369E-06	-9.35027948705227E-07	7.63899242196537E-06	-2.3281099598624E-07	-0.81595377012567	-0.567399227388421
4.6	-0.88918170356821	0.453788435805571	-7.52702649015118E-07	6.13960710081631E-06	-1.23452312505533E-05	-6.5428679770704E-06	-0.881325793060855	-0.460236193246926
4.7	-0.850923943302063	0.521695897456926	1.19615782695235E-06	2.52205896355866E-06	1.41845767113199E-06	1.87648201225327E-06	-0.93279428401072	-0.345852763754541
4.8	-0.806714961585978	0.587474516196638	-5.23172363611811E-06	1.11466104266254E-05	5.21712144236955E-06	9.73904433435261E-06	-0.969016672924047	-0.225453281098727
4.9	-0.758047273878357	0.648768110023762	1.19312250180567E-06	2.9462461822204E-06	-4.61152404829696E-07	-6.93987981792352E-06	-0.989872116134817	-0.101449020754261
5	-0.705104612479963	0.706888961978188	4.76527854365178E-06	-8.99994203766235E-07	-3.76683248364949E-06	2.42328773213571E-06	-0.995439291343646	0.0245981557226549
5.1	-0.646201094622324	0.760749119122332	4.15268564991864E-06	-1.33246140869588E-07	-2.64765460418444E-06	-9.86235178957773E-06	-0.984078956973983	0.150681907376412
5.2	-0.584006989504245	0.809525714760179	2.65951344074375E-06	-1.50515449314969E-05	1.37899805848829E-06	2.83680417490061E-06	-0.957019162675466	0.273651113543676
5.3	-0.518386083802539	0.85349586620506	-8.74711532100535E-06	-7.98490244322294E-07	-1.1400773242546E-06	1.57979390183253E-07	-0.914965483122357	0.392226628975102
5.4	-0.44946227594123	0.892173173398199	-7.20059678707542E-06	-1.11107148651286E-05	-1.38060732771303E-05	1.12245968705933E-05	-0.858212315008035	0.504210227157016
5.5	-0.377869076841593	0.924733062682561	1.91116781546122E-06	9.16678329774119E-08	-2.25481480763274E-06	1.78712608610811E-06	-0.788710131468821	0.608156616639599
5.6	-0.304036282323933	0.951373712212998	-2.42360879626954E-06	3.52367494845912E-06	-1.34905368768353E-06	1.29205982614853E-06	-0.706107538626136	0.702600420259106
5.7	-0.228218841777823	0.972688289999535	1.30964927066124E-06	1.23869679769167E-06	5.78681350491161E-06	-1.10328629781054E-07	-0.612451534636588	0.78568105536868
5.8	-0.150784443461464	0.987624669189585	2.70943950239317E-06	4.28169355953589E-06	-2.12697912994965E-06	4.25864826694751E-06	-0.508914067958292	0.856203325198945
5.9	-0.0721979015832614	0.99656629244096	-6.91844109181694E-06	-2.31598943782029E-06	-8.12974695430151E-08	6.32007773750348E-06	-0.39766636843769	0.913128507300306
6	0.00622915266338597	0.998568256268796	-1.79949138540764E-06	9.03413551474178E-08	-5.48461199796487E-06	-4.40679088357963E-06	-0.280693292111504	0.955141332474227
6.1	0.0845192712115619	0.995424238295851	5.39200818180373E-08	-9.95282645110452E-06	-9.83295947672898E-07	-3.22840418574681E-06	-0.159568369161181	0.983435205045643
6.2	0.163860239201137	0.985562995997027	-1.03058453500167E-06	3.12528925233644E-06	-1.77251299689016E-06	4.23101414447627E-06	-0.0339936184720756	0.995919126879495
6.3	0.242319391625117	0.96877681502279	-8.113119154407E-07	2.84371304343138E-06	-2.95418677996023E-06	2.4053307124544E-06	0.0922337332924704	0.991821935823091
6.4	0.318601875261852	0.945336821513353	-5.99717299734087E-06	5.57149607431531E-06	-2.39310370267152E-06	-7.5292662013257E-07	0.216648913074881	0.971312243364874
6.5	0.391905177089652	0.917223278179334	1.41373374825829E-06	-5.30060983515939E-06	-1.45416309883896E-06	-2.38903750089144E-06	0.336280914208063	0.936394236141737
6.6	0.464133651187907	0.883435172505305	3.67565991047745E-06	2.10784953972757E-07	1.13722076138658E-05	-2.6951751761805E-06	0.45241312627278	0.886860549035058
6.7	0.532921748753002	0.843231124584275	-7.80030592416961E-07	8.53014717386438E-07	-3.78773148844978E-06	5.26454082212552E-06	0.560182372029597	0.8223001770467
6.8	0.598190627399569	0.797924124764841	-1.75842874375649E-06	4.51615020077032E-06	1.46076975213735E-06	-8.90621889675279E-07	0.658678978539933	0.744997783874465
6.9	0.659632693370958	0.747571199857892	5.95863617592108E-06	2.24904183024691E-06	-9.31526392247881E-07	2.4315907233766E-06	0.746479722847743	0.655943190251538
7	0.716658640732823	0.692262541194978	1.13394699806922E-06	-4.1754899754514E-06	-1.42685752385502E-06	2.93688504255224E-06	0.82197889027355	0.556777361258163
7.1	0.769019489070776	0.633056360563553	2.39057955236845E-07	-7.2195724651533E-07	2.00847726159709E-06	9.22241108374862E-06	0.884843218823964	0.449439082582022
7.2	0.816635288925988	0.569515587051963	1.38397442387236E-06	-2.42820316180684E-06	-1.04168344768275E-06	-8.59927350644887E-06	0.933756083589668	0.334899670205818
7.3	0.858992391499582	0.502099843048713	4.88183288795933E-06	7.23915121040039E-06	-9.74738006122946E-06	2.37757417939724E-06	0.967572969659845	0.214892516212323
7.4	0.896375078582815	0.43120403647198	5.11230113179921E-06	-7.06557340462762E-07	1.90763612666347E-06	-9.68263743263676E-06	0.986353914968043	0.0911013008103928
7.5	0.927356166024039	0.356822124343062	2.72376005822814E-06	-5.33742940826452E-06	2.06187460508628E-06	-7.30959865894074E-06	0.98819827694553	-0.0343343650213488
7.6	0.952161074615034	0.281282433895849	-3.44550385851652E-07	-5.64131982069028E-06	1.68107341772796E-05	3.78175445219867E-06	0.974749209911862	-0.157124707018792
7.7	0.971672302151612	0.203843865274316	3.52005701791133E-06	9.41199318097261E-08	3.10105014621483E-07	-2.92784172935388E-06	0.947330757908968	-0.277855457445758
7.8	0.984993846484688	0.124728922460509	-1.09888943014248E-05	-1.87249504143348E-06	-1.88148211337579E-07	3.44070714330444E-06	0.905202491425525	-0.394842354058862
7.9	0.991466759785792	0.0442614620438148	2.36602964200633E-06	2.0204958074142E-06	-6.96621066294328E-06	-4.68063582798258E-06	0.848278909026222	-0.506088006798519
8	0.990205021007114	-0.0352021642178832	2.36178134068885E-06	2.93886885974948E-06	-9.35665758498891E-06	-7.54538458067973E-06	0.777058788271449	-0.608117299968526
8.1	0.984743841138684	-0.113733894304144	3.81357749759225E-06	-3.07873253324272E-06	2.13496084538348E-06	-3.1883938626011E-06	0.695526108926884	-0.700781012452469
8.2	0.97274732557042	-0.192429691957566	-4.0304689420073E-06	1.4293205162229E-06	-6.75108515988839E-06	3.83026492483379E-07	0.602204708931421	-0.783067172913714
8.3	0.953751629860613	-0.270282842296656	9.86633101646315E-06	2.60555925997628E-07	6.28264092557676E-06	1.04281488594166E-05	0.498856153576696	-0.852603641925208
8.4	0.928255446533119	-0.34636393750531	1.29445835414492E-06	2.55280737726981E-06	3.46820967701174E-06	1.81104036961194E-06	0.387608884369826	-0.908766147954518
8.5	0.896608802418898	-0.42023410513962	-4.82689621155491E-06	4.98706801235145E-06	2.84407093542056E-06	-3.03627727887422E-06	0.269428014358136	-0.950103109847387
8.6	0.859046648405095	-0.491222793719092	-4.49184714411353E-06	2.11026359821181E-06	-3.00161936374967E-06	8.13755211706298E-06	0.147771701270838	-0.976148008183059
8.7	0.815905039978926	-0.558882976248832	-1.015804324787E-06	1.22141506766431E-06	-6.28123340169534E-07	3.46770803823774E-06	0.0235954187930341	-0.986825728093454
8.8	0.767547161133685	-0.622566632215229	-1.57069601727406E-06	3.08675967024761E-06	-6.00295260979705E-06	1.31286982850956E-06	-0.100441959729105	-0.982014858688111
8.9	0.714684495537796	-0.682228034317728	3.16637738431697E-06	-1.84523009052234E-06	-3.16704137601237E-06	-4.4350573366894E-07	-0.223097863189908	-0.961727487535397
9	0.65669476123832	-0.737663591599937	-7.28376258011559E-06	1.38428506926269E-06	-3.97626235463958E-06	7.43290139608479E-07	-0.343273943276556	-0.926603915806333
9.1	0.594544261617327	-0.787744789904232	-3.36421121564778E-06	-1.86498335370373E-06	-9.72280543269116E-07	2.13972208783908E-06	-0.457629070650531	-0.874952230029238
9.2	0.528319095674428	-0.832743577869614	5.96933035136729E-06	-1.6710531253883E-06	2.03045001791586E-06	8.46009100118392E-06	-0.563599333820998	-0.810493753175089
9.3	0.458754272871879	-0.872322519729029	-3.33104492241089E-07	1.07060859896194E-06	1.37074534023797E-05	1.17387617944904E-05	-0.660833841857019	-0.733315090376566
9.4	0.3856729860781	-0.906369797017207	1.71535396486434E-06	-2.66628988404535E-06	4.28972256481013E-06	1.73369258006649E-06	-0.747611954862299	-0.644985846682206
9.5	0.308370957977124	-0.933141612488718	-6.51982111754651E-06	-4.83929526446392E-06	-1.97458552863502E-06	-5.67923471693543E-06	-0.82365569327546	-0.544798819102161
9.6	0.230419292189869	-0.952647584446321	-1.16415563308084E-05	-2.00942197903855E-07	-5.92409049561478E-06	-3.96996793732349E-06	-0.885209175035063	-0.436553031800768
9.7	0.151140083181202	-0.966646993248468	1.46025580396957E-06	-4.83316412148719E-07	-2.89913384861119E-06	1.64890485150061E-06	-0.933321532185371	-0.321325343392829
9.8	0.0707161303465726	-0.97388984653493	2.20340760676757E-06	1.38488850267778E-06	1.50249171717214E-05	-3.55765368369522E-06	-0.96603852987362	-0.201080605960071
9.9	-0.0101926660901155	-0.973792036609869	-3.40540080057906E-06	8.94358363287309E-06	1.37147608952034E-05	4.90570826927464E-06	-0.98350322483409	-0.0777334124131874
10	-0.0894296082948164	-0.965871753385996	-3.61730284704866E-06	1.62237623690847E-06	1.90718212741657E-05	-1.811443817453E-05	-0.985280546765076	0.0466507888424909
10.1	-0.166557144614326	-0.95219137011692	-1.46570804393204E-06	2.29464385911678E-06	-8.38967450458015E-06	-4.26646703651054E-06	-0.971768679279381	0.170442772659653
10.2	-0.241930696884264	-0.932596683582388	-2.30027166161881E-06	-1.22961223553316E-06	-1.28372545543516E-05	7.21941622450229E-06	-0.94228229141812	0.291531112769205
10.3	-0.314275849008251	-0.907070210776736	5.74188463618893E-06	3.89639514241963E-06	-6.1154315534972E-06	1.38145707060147E-06	-0.898136999991756	0.407309065008452
10.4	-0.384257878850027	-0.876621249540326	2.09109967028558E-06	1.03898492443897E-06	6.91287214433389E-07	-8.17724173633751E-06	-0.839814483254574	0.515817175940332
10.5	-0.451403390037533	-0.839663710424596	4.34194611144746E-07	-3.04259007317926E-07	-6.53148733214323E-07	-5.59803551173519E-06	-0.770215131555848	0.616686254354289
10.6	-0.513301859642524	-0.797220920405281	5.05896306906487E-06	-2.59391425066453E-06	-9.69879653833037E-06	-7.8305265464211E-06	-0.686707936416375	0.709601309623942
10.7	-0.570802919235423	-0.751113048268735	-2.79839640738761E-06	-4.97030867823261E-07	-5.20111174431583E-06	-7.12210471840707E-06	-0.59181913400009	0.789850381804574
10.8	-0.623959633968148	-0.702482976000944	-3.59453427180434E-06	-3.42021047365379E-06	-1.18845432535364E-05	9.09598864800209E-06	-0.488090390331606	0.856987847821983
10.9	-0.67395205869147	-0.652121049963289	-1.13137204842549E-05	-1.03557278441632E-05	-4.44682135844061E-06	1.08920587772734E-05	-0.377854776765886	0.91053490259485
11	-0.721707209517015	-0.598980065005983	1.00578632419288E-06	1.40221754527659E-06	8.61916157181852E-06	-5.47176517464703E-06	-0.261351916726594	0.950990693693579
11.1	-0.76497911261459	-0.541967564688187	-3.25824707395916E-07	-3.61342924262077E-06	1.01281041603589E-05	-1.01499580945985E-05	-0.140211980206688	0.976064759386243
11.2	-0.804998519168964	-0.483214323359587	-1.02591622591047E-06	-3.89349198003561E-06	2.15138865485116E-06	-6.27840073348008E-06	-0.0162308637674224	0.98573987529317
11.3	-0.841973986070014	-0.420919528534109	1.6319569180869E-06	-1.19843283183013E-05	3.5495979711341E-06	-2.80645625729598E-06	0.108127073167805	0.979523345396928
11.4	-0.874539996950724	-0.355288713760141	9.82295994511167E-07	1.85723272798918E-08	-5.66498285652814E-06	6.43145173903604E-06	0.231126084786105	0.957603476329273
11.5	-0.902012527881975	-0.285745421235226	6.51357734023831E-06	-1.23502731679737E-06	8.1968733511642E-06	-3.11572129722668E-07	0.349062664485521	0.920079805845817
11.6	-0.923530186678353	-0.215012165620509	-6.32942415366144E-07	-5.29855819388387E-06	1.43141451307394E-06	-3.06269223449015E-06	0.461995442271995	0.868347503367073
11.7	-0.939983879951163	-0.141238091258466	-8.85177735455687E-08	-6.01223446473092E-06	8.89427856068668E-07	-2.64190364569189E-06	0.56733544886295	0.802493063478673
11.8	-0.950719795198573	-0.0649042338361321	-1.06413362494045E-06	-7.37636511656769E-07	5.13356764928355E-06	1.07776899762464E-06	0.663430233789705	0.723858542416583
11.9	-0.955292826149981	0.0138258620362835	-3.19104329043719E-06	-5.17969231776983E-06	-5.34521808195376E-06	-7.96604557803567E-06	0.74740428478877	0.63406819561418
12	-0.952468107698515	0.0934544286322334	-2.92927836128222E-06	1.62562299724921E-06	-1.66057591326005E-05	-8.72857809850983E-06	0.817756709182379	0.536506443078343
12.1	-0.942457002829878	0.172271225953423	8.25424977302976E-07	-1.55509201217348E-06	7.77087914107131E-06	1.22256413746034E-05	0.877981326880165	0.432406608869044
12.2	-0.925070021252862	0.24993415776757	-4.10330488897581E-06	5.50139550435084E-06	4.00524929500003E-07	3.29489606667381E-06	0.925980849534152	0.320214876889845
12.3	-0.901934805236351	0.325433149944151	7.76478390620311E-06	6.38848632680851E-06	3.70126003617113E-07	1.08373159646722E-05	0.959586299387368	0.201733063646271
