# GHZ S RI R 50
0.2	0.986778155360154	-0.156578974643854	2.5650787248971E-06	2.25327503722683E-06	6.57869679890399E-06	-4.86876050833255E-06	-0.967211837482964	0.251110604318062
0.3	0.97090672742867	-0.233756749237579	-8.70882030519746E-07	-5.46039508868227E-06	-3.46465481558914E-06	-7.95649207832247E-06	-0.928002984142024	0.371141629307375
0.4	0.949634780241283	-0.309249644613254	-7.28868111833125E-06	-9.97802687613253E-07	4.44642470693021E-06	1.55044962066359E-06	-0.873762219393484	0.485172680642464
0.5	0.922669449161211	-0.383216141974873	6.20947200638725E-06	2.11005409466018E-06	-2.41755541062687E-06	-1.91190203206914E-06	-0.805296020024825	0.592173798480064
0.6	0.889412329830023	-0.45410882575829	-1.05673719572708E-05	2.46112371440067E-06	-2.22130821813512E-06	-1.00923598381162E-06	-0.723493353696833	0.688591763155194
0.7	0.851435040259634	-0.521921965305666	2.78934543382634E-06	-1.17263504899045E-06	-2.99530308358871E-06	5.79639358052981E-06	-0.631022148474479	0.774273357255673
0.8	0.808184536317775	-0.58717069180931	1.18286703644538E-06	-8.49142887217526E-06	-6.6317494981862E-06	-3.07916839166793E-06	-0.528291364787808	0.847632568640333
0.9	0.759825976495192	-0.649142139416717	-1.14893893080714E-06	-6.82909896040124E-07	2.55108224364905E-06	6.55835672848151E-06	-0.417221326061902	0.907314704507524
1	0.706279814985389	-0.707323758987981	-2.75044870799519E-06	-3.23006900403306E-06	-4.04950794628442E-07	-7.33259157061727E-06	-0.299782516454489	0.952367380188707
1.1	0.649021901306514	-0.761019215120768	1.81066950036683E-06	-4.95210233892947E-06	2.27512862875477E-06	-5.14603166981062E-06	-0.177287153683504	0.982507838202186
1.2	0.586235298819566	-0.810787240402941	-2.5007214624237E-06	2.49754775536764E-06	9.27945873459449E-07	-9.13047794903124E-07	-0.0516663697177701	0.996677796600763
1.3	0.518046318190416	-0.855316230083005	-1.54073554468357E-06	7.2159653604645E-07	-1.35748212123917E-06	1.46691569116643E-06	0.0747843035429817	0.995045495824988
1.4	0.446879928490014	-0.893432010761622	3.92692174061584E-06	-3.2488829246483E-06	2.71528986231145E-06	1.0956343945469E-05	0.20045857390034	0.976933590984354
1.5	0.374497278681471	-0.925170477852209	-5.34458007752052E-06	1.11440371564303E-06	6.59532572651126E-06	-7.22123623736356E-06	0.32266328375642	0.943520677360104
1.6	0.300986910510303	-0.952012015328709	1.77583120297092E-06	-7.75251878952004E-06	3.63858607358962E-06	1.38318784241416E-06	0.438959395313545	0.894610933319473
1.7	0.226397823823254	-0.972372505574857	-1.9455865454096E-06	-9.70314278886263E-07	-2.36936262725419E-07	-2.09080651687025E-06	0.547403411283862	0.832579201920546
1.8	0.149653564803041	-0.987185813660174	2.85905117880402E-06	5.28874124989634E-06	5.05831308589871E-09	2.03569234974501E-06	0.647588799395953	0.757067680115429
1.9	0.0722294945326482	-0.996089906719674	5.68717189112611E-06	-2.63874895563397E-06	-3.00505557074253E-06	4.17328709024973E-07	0.736838933830164	0.670122437886596
2	-0.00529884988522477	-0.999667625762908	-1.5550866133565E-06	-2.03341616966195E-06	3.22971380671617E-06	1.14991110737907E-05	0.816248380986847	0.572678273937663
2.1	-0.0854289678376419	-0.996173980823819	-7.57568247899488E-06	2.47783972854576E-06	1.22119165210492E-06	5.16182384579743E-06	0.881832220728841	0.464050509245441
2.2	-0.162493677908273	-0.986171705001032	-8.83107229236055E-07	1.40025144650782E-06	3.02789005893785E-06	7.79461939695314E-06	0.9325982468094	0.349253090358393
2.3	-0.239884447414512	-0.969965872064094	1.94343783989731E-07	7.47547006627141E-06	7.43755784876819E-07	9.40147338101686E-07	0.968310957964196	0.229741772167237
2.4	-0.316002598962089	-0.94755525085178	1.59753701573565E-06	7.19353001791705E-06	1.53771029646642E-06	6.40454737731712E-06	0.98941641446446	0.105860653444522
2.5	-0.389630610622673	-0.920005328501512	4.40049086331348E-06	-2.33043724507964E-06	-1.9357207845242E-06	-7.59285183697462E-06	0.994684293355967	-0.0189647745324121
2.6	-0.461448234334808	-0.886099212168641	6.77929995373523E-06	-5.98079045967757E-06	-1.11127534793321E-05	1.08901452113928E-05	0.984431618638351	-0.144250171212248
2.7	-0.530485446469568	-0.846492459935353	-4.43308410744576E-06	9.18519279340394E-06	-2.90705678611681E-06	-9.18235924990697E-06	0.958163732181455	-0.267292576536036
2.8	-0.595252660906185	-0.80195135607635	2.469205353833E-06	1.13989001032591E-06	-3.13447562698537E-06	1.25737366895314E-06	0.917279893000993	-0.385445229197646
2.9	-0.656036048583083	-0.752626966282253	-5.49553340892223E-06	6.05391597348678E-06	-9.22380112684155E-06	-2.51395747162832E-07	0.861410780330052	-0.497247404538881
3	-0.712494055007327	-0.697713926182245	4.6701933966496E-07	-1.4786854555031E-06	1.13593440003569E-05	1.41650692460256E-06	0.792201466727161	-0.601503608944383
3.1	-0.764599313140373	-0.640290593580962	2.4554585420896E-06	1.05036021329688E-05	4.34202648924511E-06	2.15883006981732E-06	0.710488243368088	-0.695956786970469
3.2	-0.81227099155914	-0.578612163690808	2.1359211313199E-06	6.46473036634964E-06	3.95840496916465E-06	-1.06365476648441E-05	0.6175439727181	-0.779334461246607
3.3	-0.854839099842989	-0.513426807122904	3.10652356454776E-06	4.95134770023111E-06	-2.27046896733421E-06	-9.66551757847635E-06	0.513638623446072	-0.85076758644043
3.4	-0.891086389426679	-0.445415872488202	2.11354508533574E-06	-2.61310998762401E-06	5.96338155193839E-06	1.35610862575049E-06	0.403045222353806	-0.907610681920836
3.5	-0.922590565470927	-0.374486179596262	-3.2362600593039E-06	9.57289300363178E-07	-2.06141336727541E-06	3.42989788931711E-06	0.287064447817525	-0.950554314164224
3.6	-0.949884628901685	-0.300919936571435	-1.8295162509185E-06	-3.73933398035954E-06	-7.8127939084368E-06	4.14148139077263E-06	0.164927916809665	-0.980469281277908
3.7	-0.970232423432869	-0.225293195661318	7.83963684474257E-07	-8.33316654968617E-06	1.07886009158462E-05	3.64829971615431E-06	0.039057927517387	-0.992966911923837
3.8	-0.984666418989584	-0.147806943864814	9.92528237652278E-08	1.54617143669389E-06	-6.48998860502227E-06	5.9810008678824E-06	-0.0860170935585766	-0.989232900472194
3.9	-0.992746236687267	-0.0700943103462474	-2.64992418802238E-06	-5.01414540996821E-06	-3.66547470224204E-06	8.04005126783613E-06	-0.210893983948532	-0.969965742016586
4	-0.994784332626684	0.0088748371824518	7.12505351443212E-06	-4.17444269092809E-07	-1.05063273974013E-06	-1.20007093674641E-06	-0.330293527585239	-0.936013412425895
4.1	-0.990911279029883	0.0870096482225781	6.16734823510238E-07	-4.46607953484771E-07	7.32095593796751E-06	-4.78907288527467E-06	-0.445887092220844	-0.886912087094441
4.2	-0.981022006446378	0.164813766883971	3.21093453110496E-06	2.08455597492407E-06	-7.21065775248627E-07	-7.57454215216788E-07	-0.553803132471409	-0.823074232471725
4.3	-0.965396025948461	0.240572033099646	-3.17850198102552E-06	1.38404605479325E-06	-4.97564269990544E-06	2.99889030842344E-06	-0.652506260078646	-0.747125636489044
4.4	-0.944290616211774	0.315359195377757	8.12791941310438E-07	2.63641272429955E-06	1.52140042639552E-06	-8.32838600684057E-06	-0.740976527461836	-0.659242658667842
4.5	-0.916207241378595	0.389554898468147	1.81949816000845E-06	-9.47058220726987E-07	7.62883264938464E-06	-2.87164109840306E-07	-0.817837426191833	-0.560523763349825
4.6	-0.881695234543159	0.460121417496019	-7.00510768315233E-07	6.12791390973186E-06	-1.23626830262461E-05	-6.42332224273777E-06	-0.880882542345022	-0.453450525497162
4.7	-0.842887433847098	0.526865757452787	1.2113480323495E-06	2.50294166278039E-06	1.42772172424895E-06	1.85810866516056E-06	-0.930972194813881	-0.339656407230255
4.8	-0.798024162183353	0.591788353761641	-5.1203527402936E-06	1.1137169526749E-05	5.27001929486387E-06	9.65384105378254E-06	-0.966152698415905	-0.219629140456225
4.9	-0.74822822324535	0.652446155143939	1.2110753056141E-06	2.91985042070246E-06	-5.16541735679743E-07	-6.89732528360191E-06	-0.98569776983383	-0.0952671948925766
5	-0.693285015199723	0.707717641842493	4.71892737893831E-06	-9.28251950950393E-07	-3.71735495773754E-06	2.43139837612509E-06	-0.987364903269808	0.0293343079361852
5.1	-0.636149710441231	0.758953735079055	4.11789657045403E-06	-1.5317517962579E-07	-2.67583379920143E-06	-9.76792793579879E-06	-0.97654512590698	0.15147465282972
5.2	-0.574707335060782	0.806896404441403	2.57162720321886E-06	-1.49443551022715E-05	1.38069626653277E-06	2.80824976967077E-06	-0.950382967486428	0.273550220557484
5.3	-0.50962926269831	0.849681191121313	-8.67983850683648E-06	-7.59309313923832E-07	-1.13032698946013E-06	1.60980996094789E-07	-0.908347504106801	0.391385407174667
5.4	-0.441676078792522	0.887276603835747	-7.17294314236039E-06	-1.10046226665545E-05	-1.36683116064849E-05	1.11723352322086E-05	-0.851347406362258	0.502379143510412
5.5	-0.370846914843562	0.919256836136635	1.89935648267103E-06	8.63366322290495E-08	-2.23616546427862E-06	1.78147665271384E-06	-0.781682513127457	0.604586964468163
5.6	-0.297772575973982	0.944943984200968	-2.39360369094237E-06	3.50757899923364E-06	-1.33479346801417E-06	1.28783706865875E-06	-0.700036235269077	0.697363835541668
5.7	-0.22294572131953	0.965365289757907	1.30301270070233E-06	1.22439705988505E-06	5.7394353222675E-06	-1.28142948565445E-07	-0.6075741282595	0.779406849302538
5.8	-0.146900075944862	0.979260966523267	2.69504705129739E-06	4.23646144634904E-06	-2.09759712452983E-06	4.22510281692634E-06	-0.505362594325349	0.849085832030069
5.9	-0.0708193266129721	0.987662942792168	-6.84992397236887E-06	-2.29032992415838E-06	-7.82458740301954E-08	6.25676652023278E-06	-0.396051807203527	0.905708806139626
6	0.00628755310594716	0.991846118543472	-1.78617237078616E-06	8.56497863525473E-08	-5.43357642995261E-06	-4.38591092703887E-06	-0.279770698837837	0.949636330725763
6.1	0.0849891382343772	0.987895700577623	5.75284252094497E-08	-9.88893874007791E-06	-9.75703564072288E-07	-3.20807851184982E-06	-0.15748111172068	0.97672963845815
6.2	0.162723553087292	0.977607439098943	-1.02444330126567E-06	3.10292540782813E-06	-1.76154335370678E-06	4.20060368892448E-06	-0.0332626509535889	0.987802312336797
6.3	0.239610097826897	0.961359393643427	-8.08093729236494E-07	2.82280508934914E-06	-2.93536795422685E-06	2.38562008865096E-06	0.0909758571548536	0.983437235714188
6.4	0.315202626166077	0.939608576861908	-5.96660187601364E-06	5.52981414614356E-06	-2.37736710091337E-06	-7.51101585305266E-07	0.214112235564185	0.964254917450158
6.5	0.390537543408291	0.910864108350562	1.39818800040924E-06	-5.27017897975333E-06	-1.44843338887671E-06	-2.37258538957789E-06	0.335301293548194	0.92817626305345
6.6	0.459923252808407	0.875361583903804	3.64206180439702E-06	2.06573677213012E-07	1.12661840060951E-05	-2.67748870667073E-06	0.447237028528588	0.876735932711737
6.7	0.526735195939381	0.836392765751337	-7.73414143168852E-07	8.43835398099649E-07	-3.75687657199026E-06	5.2090536829049E-06	0.55207641305504	0.81420457975524
6.8	0.590804581735698	0.792271365298024	-1.75125906210344E-06	4.4674259096939E-06	1.44832134653431E-06	-8.78485158705897E-07	0.648998604651658	0.739112510133018
6.9	0.651158562716134	0.743272817787302	5.88816229384621E-06	2.24713514440293E-06	-9.3060461050963E-07	2.40278201112945E-06	0.735871267218355	0.652580682329464
7	0.707725309908429	0.689609251368358	1.14974000096439E-06	-4.12964980218561E-06	-1.43213373807287E-06	2.90067881595189E-06	0.811944308908194	0.555733537351827
7.1	0.759755771008041	0.631521458829047	2.41396685445164E-07	-7.15239463529466E-07	1.94104574733856E-06	9.16543149082969E-06	0.874750987994823	0.449409356776501
7.2	0.80703638303714	0.569188296756104	1.3866269304386E-06	-2.40282531526486E-06	-9.88201171707E-07	-8.54102060899802E-06	0.923460721944701	0.336621767067651
7.3	0.849013902245052	0.502830765544964	4.80728522863315E-06	7.20858382566537E-06	-9.68473403771745E-06	2.30940414634268E-06	0.957304553628729	0.218340375649139
7.4	0.885164735712032	0.433323828896699	5.06814146492742E-06	-6.74351636050046E-07	1.9383484247744E-06	-9.58273744721526E-06	0.975394843302956	0.0969997828270021
7.5	0.916220793093333	0.362965057306516	2.74137885981193E-06	-5.25640185183239E-06	2.10386763773059E-06	-7.21325495247476E-06	0.979643559419267	-0.0233397442093069
7.6	0.943455871165515	0.288590638911482	-2.84971369035784E-07	-5.60134651617625E-06	1.66430951957398E-05	3.92226017446906E-06	0.970377463153897	-0.146311678451055
7.7	0.963792321563006	0.212201432091377	3.49464085839114E-06	1.29724891041742E-07	3.38109805930874E-07	-2.90431371279549E-06	0.944790316666983	-0.266771199949508
7.8	0.978080027575789	0.134626380217069	-1.08989566349812E-05	-1.98348090685334E-06	-2.25399498894875E-07	3.41699428329238E-06	0.90477749064884	-0.383153967875256
7.9	0.986538057895544	0.0564980458598791	2.32817781368597E-06	2.04093945046445E-06	-6.87112141155448E-06	-4.74714874536769E-06	0.851187531587135	-0.493529753728615
8	0.990770109863496	-0.023333544271705	2.32252793788476E-06	2.96845605990434E-06	-9.25454346133984E-06	-7.66425896320758E-06	0.785108777198441	-0.59892096498886
8.1	0.985088363354061	-0.10507207096511	3.84244518363383E-06	-3.04086704514894E-06	2.16534686923525E-06	-3.16679990738658E-06	0.702173707623742	-0.694520597663956
8.2	0.972861279475856	-0.183513068244385	-4.03991294529941E-06	1.38930731077466E-06	-6.74768436072893E-06	3.18107391049412E-07	0.609451058714986	-0.776844611186514
8.3	0.954641269860778	-0.261012760008907	9.85458468872114E-06	3.56322331502033E-07	6.17529895810395E-06	1.04795501421369E-05	0.507413050211328	-0.847186235918101
8.4	0.930312819078202	-0.336981258427635	1.2692735968737E-06	2.56290756191135E-06	3.4482211210004E-06	1.8422857774743E-06	0.397268637867461	-0.904335126293923
8.5	0.899917217732759	-0.411340539409199	-4.86952737269876E-06	4.92929035661714E-06	2.87018797833335E-06	-3.00206664171548E-06	0.281058138417301	-0.947022734159262
8.6	0.863198748145535	-0.482734801937214	-4.51432821219173E-06	2.05761523083918E-06	-3.09419433786312E-06	8.099606236839E-06	0.160277863668743	-0.975886791202688
8.7	0.821158155940243	-0.550918582120624	-1.03099387978725E-06	1.2108066216274E-06	-6.6903798200189E-07	3.46380548485826E-06	0.0361734923222945	-0.989222161167417
8.8	0.773777023581963	-0.615479548189872	-1.60949417181532E-06	3.07630284174187E-06	-6.03220206719545E-06	1.24785345117157E-06	-0.0887781188799574	-0.987153824051922
8.9	0.721395872737416	-0.676111605837241	3.19668601953082E-06	-1.82022564983934E-06	-3.17433020296194E-06	-4.77008283006738E-07	-0.213782079399228	-0.968270854984813
9	0.664239202954584	-0.731625416031826	-7.31431519502918E-06	1.32182385726372E-06	-3.99282907861431E-06	7.09161380695672E-07	-0.33327669388176	-0.932384830671691
9.1	0.603479686470536	-0.783204136094686	-3.35545187878339E-06	-1.90554348748791E-06	-9.97410272111678E-07	2.13635968019961E-06	-0.44760355539263	-0.884430959976545
9.2	0.537692767316821	-0.829722686080063	6.01035827489511E-06	-1.6172446759247E-06	1.95282665665147E-06	8.51481113801541E-06	-0.555718097379209	-0.821890864390131
9.3	0.468201463253649	-0.870530999713012	-3.45085083625948E-07	1.07192069347661E-06	1.36505967725355E-05	1.19242310331413E-05	-0.654935882292258	-0.745543016839716
9.4	0.395273579147943	-0.904534195376039	1.74821377177178E-06	-2.6584690837881E-06	4.28745328472603E-06	1.78293449118718E-06	-0.742641783849823	-0.656979467645287
9.5	0.321824425052954	-0.933221977513075	-6.48750003231074E-06	-4.94894371650913E-06	-1.90910905209412E-06	-5.73288821551532E-06	-0.818682499566405	-0.560043160188858
9.6	0.242191784426022	-0.957897256500446	-1.17324668982513E-05	-3.39079998495851E-07	-5.92499342033158E-06	-4.07124919232437E-06	-0.884833023837304	-0.453032049680721
9.7	0.160567964520294	-0.973232791493196	1.47769423956576E-06	-4.72169563206549E-07	-2.94095370161556E-06	1.63262406832919E-06	-0.93584742925033	-0.337232808690867
9.8	0.0788345410369726	-0.981224076696539	2.20950234884209E-06	1.41930789457073E-06	1.51958551465233E-05	-3.44022851832107E-06	-0.97141155455894	-0.216310564395613
9.9	-0.00262783614497314	-0.982156717909994	-3.52577799611304E-06	9.00288847573078E-06	1.38087249468592E-05	5.08705520413524E-06	-0.991981162817243	-0.0913131654693889
10	-0.0832561853515983	-0.976656484284127	-3.67144780062327E-06	1.61275467996357E-06	1.94319009565514E-05	-1.8173355024747E-05	-0.995579216864772	0.0356600391422804
10.1	-0.163210980647037	-0.963451471426341	-1.49743257576905E-06	2.3102451066975E-06	-8.45407320912434E-06	-4.37033108602168E-06	-0.983403028761662	0.16146793145026
10.2	-0.240283698108797	-0.943938061452578	-2.31840468438969E-06	-1.25827320304697E-06	-1.30287609469984E-05	7.21874687094411E-06	-0.955302841121332	0.284777765017303
10.3	-0.314282240496263	-0.918552115315293	5.78579179587587E-06	3.97781625785103E-06	-6.19624752690079E-06	1.36014378310828E-06	-0.912576969838435	0.403322056487248
10.4	-0.385795929285346	-0.888098799806925	2.11218522939286E-06	1.06456038437094E-06	7.47600692669769E-07	-8.27922184989164E-06	-0.855155175802531	0.516524446789824
10.5	-0.454392237724732	-0.851356452494982	4.41175624942772E-07	-3.06783463666267E-07	-6.41505317810954E-07	-5.67608462294921E-06	-0.780850027045918	0.621927083912912
10.6	-0.518553790040448	-0.809166075120834	5.13081991873667E-06	-2.61025138818248E-06	-9.79546204584957E-06	-7.95999347850389E-06	-0.694654748096469	0.713501882694665
10.7	-0.578385922753196	-0.762489611027881	-2.83300566249042E-06	-5.11666883705761E-07	-5.24720898653951E-06	-7.2292026758817E-06	-0.599103109138318	0.794247651159996
10.8	-0.634113950982134	-0.712678882854349	-3.63610476785985E-06	-3.47288964087103E-06	-1.20610881676488E-05	9.19499387655113E-06	-0.494258857892397	0.862471550083556
10.9	-0.686396723169472	-0.659176170697709	-1.14639093675813E-05	-1.04888974415242E-05	-4.50275689491883E-06	1.10355074277409E-05	-0.381778771410658	0.917448158276946
11	-0.731828499032374	-0.603569163792308	1.01643575284467E-06	1.41659064645875E-06	8.70762398054535E-06	-5.52985965512107E-06	-0.262238567851757	0.95632603768122
11.1	-0.776599180589149	-0.548091978683426	-3.26399176802764E-07	-3.65519890045874E-06	1.02532740351256E-05	-1.02576107144477E-05	-0.141025775004086	0.980634575232007
11.2	-0.818888049145544	-0.487489553889944	-1.03869196953029E-06	-3.94017664718463E-06	2.17653378684294E-06	-6.35411524381099E-06	-0.0162385944882853	0.990103454583994
11.3	-0.856736055060741	-0.422577172859099	1.64037555962372E-06	-1.21272852485988E-05	3.5889622195504E-06	-2.84280041643534E-06	0.108544349826572	0.983598288403612
11.4	-0.888448609424241	-0.35472216476124	9.93261428982786E-07	1.78022498267705E-08	-5.72171777532445E-06	6.50876024696583E-06	0.232019025246567	0.961877786382041
11.5	-0.916049762793321	-0.286152860664258	6.59326178391381E-06	-1.2513575863721E-06	8.29737548478185E-06	-3.16878234385223E-07	0.351484981056832	0.924546523177539
11.6	-0.940340946007492	-0.2125451129727	-6.51902107434051E-07	-5.36798028457704E-06	1.44442945769964E-06	-3.10638713364069E-06	0.46541734808332	0.871984654515099
11.7	-0.95616115258156	-0.13512362967215	-1.09509820462629E-07	-6.08969514633128E-06	8.92209009330988E-07	-2.67900605548696E-06	0.571274299761355	0.805828476316727
11.8	-0.965141676670397	-0.0561446845717317	-1.08039509140072E-06	-7.42379732572638E-07	5.20173533043645E-06	1.06986846672818E-06	0.668053681564335	0.727567825551433
11.9	-0.96733114178391	0.0242800359838108	-3.25322480481835E-06	-5.22862329235574E-06	-5.44619185560323E-06	-8.03933647627436E-06	0.754057269904363	0.63960762232038
12	-0.961764609869562	0.103778205076915	-2.95793958225993E-06	1.6650491806613E-06	-1.68783917601543E-05	-8.74177857475255E-06	0.832603961547049	0.540343485001734
12.1	-0.951289934986118	0.182435951584843	8.22104606279402E-07	-1.58021235600956E-06	7.96409281717741E-06	1.23039818958811E-05	0.893679927760145	0.428252638778713
12.2	-0.933192367948228	0.260536343938899	-4.0967823029198E-06	5.59588828808447E-06	4.34350353905754E-07	3.32578557707175E-06	0.940089430410085	0.311718269166628
12.3	-0.909701971482909	0.336536734892341	7.90218482351288E-06	6.3781596312068E-06	4.76473974471693E-07	1.09410963694379E-05	0.971839983838646	0.189903638391494
