# GHZ S RI R 50
0.2	0.98505216614558	-0.157141252249742	2.56360999506657E-06	2.24794468145116E-06	6.56546372342048E-06	-4.86801906599246E-06	-0.966012249004151	0.251797654097581
0.3	0.968865380869506	-0.234136480115347	-8.74972615186104E-07	-5.44997226892632E-06	-3.46678401701366E-06	-7.93904878680337E-06	-0.926238136917014	0.371809395688668
0.4	0.947245462741046	-0.309296348342415	-7.27294389759913E-06	-9.8789649426171E-07	4.43780744981388E-06	1.54223845222112E-06	-0.871270497905753	0.485458690701216
0.5	0.920429550316959	-0.382422338238265	6.19323175993216E-06	2.10232255443371E-06	-2.41158090055732E-06	-1.90592170917787E-06	-0.802668212750838	0.591192157091164
0.6	0.887803697584625	-0.453607828021191	-1.05438302472869E-05	2.45879580968963E-06	-2.21679196102171E-06	-1.00642514168067E-06	-0.721506291022529	0.68751473487044
0.7	0.849493572521763	-0.521647240347919	2.78197741496744E-06	-1.17154619968221E-06	-2.98461445733224E-06	5.78440671340083E-06	-0.628866744180872	0.772979618851012
0.8	0.805836020855843	-0.586655073812872	1.17412226981166E-06	-8.46846371418183E-06	-6.61519471523447E-06	-3.06631724678194E-06	-0.526159611298544	0.845812359010814
0.9	0.757176488509168	-0.647985651634951	-1.14551962927797E-06	-6.8015515597841E-07	2.54583256339354E-06	6.53584246912159E-06	-0.415314935230279	0.904977724229722
1	0.703933858094772	-0.705257307881525	-2.74050077219962E-06	-3.21855290168257E-06	-4.03311635547488E-07	-7.30630022106254E-06	-0.298192254353081	0.949505401920598
1.1	0.64732950916177	-0.758430283037777	1.80661932352704E-06	-4.93331418533862E-06	2.26949898420317E-06	-5.12631010925684E-06	-0.176295415748493	0.979188487904336
1.2	0.585381304004336	-0.807961843007446	-2.49426997227042E-06	2.48632696185204E-06	9.25538788181298E-07	-9.08932583505579E-07	-0.0513923092358071	0.993035296073978
1.3	0.518160683851219	-0.852720498669615	-1.53686108029752E-06	7.16946664498461E-07	-1.35532282865924E-06	1.46014133454052E-06	0.0739673718711874	0.991277021377155
1.4	0.447740616744938	-0.891821717504844	3.92305939533408E-06	-3.23344218281071E-06	2.68817840831372E-06	1.09338140764033E-05	0.198582442076935	0.973531051380305
1.5	0.374643899897236	-0.924772969880257	-5.33610205241224E-06	1.10449301892509E-06	6.59339950246697E-06	-7.19795292947602E-06	0.319738779970026	0.940406719769196
1.6	0.300576156282484	-0.951088592944231	1.78005753765244E-06	-7.73498208242648E-06	3.62979997307004E-06	1.38405516755622E-06	0.435479553624076	0.892586344081036
1.7	0.22602185429042	-0.971231423366103	-1.9403358714589E-06	-9.69747977766712E-07	-2.34630424722024E-07	-2.08624494493627E-06	0.543875206551785	0.831091702092364
1.8	0.14932359197556	-0.985870021710295	2.84827633520485E-06	5.27785692604196E-06	3.58913769106322E-09	2.03071893950943E-06	0.644072593420616	0.756014007912157
1.9	0.0716440249454185	-0.994461453020857	5.67159706686327E-06	-2.63054268960495E-06	-2.99668745906465E-06	4.15732351315864E-07	0.73368390793217	0.668857728343649
2	-0.00546416687371907	-0.996305520361671	-1.54658836285983E-06	-2.02410155267159E-06	3.20896022005773E-06	1.14440625671402E-05	0.8109480717457	0.570194976899725
2.1	-0.0833932631008394	-0.99327309335208	-7.5489599874257E-06	2.44707658230383E-06	1.20227962682074E-06	5.14238928468526E-06	0.87498911128778	0.464866740381769
2.2	-0.160205156419414	-0.98421301399383	-8.83720809318222E-07	1.39305352755484E-06	2.9968306956357E-06	7.77546681014213E-06	0.926820793509319	0.351841187426307
2.3	-0.237561176136028	-0.968252499268622	1.75830351919857E-07	7.45112837810428E-06	7.39040519362727E-07	9.38805391229213E-07	0.963481407563323	0.233251037085486
2.4	-0.313454915529437	-0.945774409994034	1.57622361356335E-06	7.17158897360232E-06	1.51832676952986E-06	6.38526414341677E-06	0.985500260003427	0.109807470276139
2.5	-0.38641851058992	-0.918087677509866	4.38781979404721E-06	-2.31042644674535E-06	-1.90980454198661E-06	-7.56606609510246E-06	0.99100167607376	-0.0148113518573402
2.6	-0.457233372316621	-0.884527328157277	6.76648639518637E-06	-5.93487767117954E-06	-1.10948678000791E-05	1.08100796403153E-05	0.981170104905935	-0.139422823134116
2.7	-0.525388676038951	-0.8457092359243	-4.44451968290958E-06	9.12669360834879E-06	-2.86129213192536E-06	-9.14958496685145E-06	0.955263765430072	-0.261817271887265
2.8	-0.589330689085035	-0.802217685049822	2.45264883939952E-06	1.14505432469622E-06	-3.12502142445872E-06	1.23802254689742E-06	0.915157784732337	-0.379106361944308
2.9	-0.649111657523184	-0.754594120429979	-5.50129303102199E-06	5.99560461279495E-06	-9.17812498992548E-06	-2.99212915346635E-07	0.860491891217214	-0.490514827761146
3	-0.706399372104947	-0.702753703130818	4.75648463885499E-07	-1.47002162536127E-06	1.13079622806952E-05	1.49072492107028E-06	0.792047178081058	-0.594871804257365
3.1	-0.760024440727481	-0.645708320459483	2.37782530371579E-06	1.04972233685426E-05	4.31757394629195E-06	2.18389506184171E-06	0.711287667177132	-0.688634693994465
3.2	-0.808299438050598	-0.584817508121851	2.08809671891072E-06	6.46978536056791E-06	4.02589244693337E-06	-1.0593283890678E-05	0.620025497277079	-0.771921415066267
3.3	-0.851835099163882	-0.520530551652298	3.06983198950065E-06	4.97064077136624E-06	-2.20089278713542E-06	-9.67635191301003E-06	0.518088393409078	-0.843953416818482
3.4	-0.88973718116268	-0.453284025398881	2.13347424503902E-06	-2.60159478307465E-06	5.96055885985382E-06	1.39789607541843E-06	0.409394840299748	-0.902928269375663
3.5	-0.923208271784991	-0.380784622851082	-3.24453324680828E-06	9.45099689399774E-07	-2.07841171506081E-06	3.42587349855854E-06	0.291371642036646	-0.948412748278272
3.6	-0.949160477438246	-0.30680729640247	-1.81009682436781E-06	-3.74600677972608E-06	-7.82829702730805E-06	4.10071265714799E-06	0.169667025390194	-0.976122350374371
3.7	-0.969994708624541	-0.232232020679342	8.33144860827993E-07	-8.32895922087077E-06	1.07676246545324E-05	3.71210392691233E-06	0.046049814605785	-0.98973986744048
3.8	-0.985391744660577	-0.155076913264159	9.00690523622997E-08	1.54806279931982E-06	-6.53127776336756E-06	5.94711821130007E-06	-0.0780933319405396	-0.988293591216648
3.9	-0.994203338105517	-0.0774793368810299	-2.62431242402724E-06	-5.03533721728662E-06	-3.71598904794137E-06	8.02861258037654E-06	-0.203524989769207	-0.971662975763778
4	-0.997129707083826	0.00110862566291312	7.13495804903705E-06	-3.7281258410682E-07	-1.04411497378403E-06	-1.20793850566318E-06	-0.32484764690191	-0.938625328915978
4.1	-0.994497746201396	0.0792894479001282	6.21225973767742E-07	-4.43413707736882E-07	7.37075475088851E-06	-4.74996850612187E-06	-0.440846407270963	-0.889980230161457
4.2	-0.985734555488013	0.15764724120654	3.20817465090785E-06	2.11213340673225E-06	-7.18584242773398E-07	-7.64607133623009E-07	-0.549551281975856	-0.827069203568108
4.3	-0.970671515022439	0.234397718400015	-3.19889753374133E-06	1.37179631701824E-06	-5.01222122891223E-06	2.98302979867751E-06	-0.649309017305117	-0.751873060446502
4.4	-0.948772432567657	0.309825663631339	8.04738069775497E-07	2.64891017889854E-06	1.56102652122903E-06	-8.35100108960122E-06	-0.738767453425366	-0.664549260625101
4.5	-0.921165330436329	0.38173893827708	1.82658279228619E-06	-9.38591209672357E-07	7.6391752151692E-06	-2.47398216352221E-07	-0.817105295799509	-0.567035148258596
4.6	-0.889284184673754	0.453347389312166	-7.45275184271865E-07	6.1387948817165E-06	-1.23495119629695E-05	-6.52654280933657E-06	-0.882716935821041	-0.459421504165553
4.7	-0.851251424627932	0.52125558769835	1.19767157580914E-06	2.52001140382498E-06	1.41935649078511E-06	1.87453349812698E-06	-0.933921301263489	-0.344453326208582
4.8	-0.807126834553295	0.587117116520329	-5.22430856176735E-06	1.11424096994395E-05	5.21807283731936E-06	9.73145692946743E-06	-0.969587195600748	-0.223683364235452
4.9	-0.758426873729641	0.64827389274398	1.19180135701826E-06	2.944573160491E-06	-4.59553016712645E-07	-6.93549811124731E-06	-0.989657761958391	-0.0998189515495237
5	-0.706316942600105	0.706468912373865	4.76712413673622E-06	-8.96233181035277E-07	-3.7697168494873E-06	2.42070852257158E-06	-0.995671440342789	0.0256317094011036
5.1	-0.646960425755509	0.761366041623537	4.15551320531007E-06	-1.33106505234552E-07	-2.64890614581558E-06	-9.86919623155043E-06	-0.984003971835109	0.152806204000582
5.2	-0.584139180559798	0.810151450573225	2.65817001632592E-06	-1.5061432177489E-05	1.38042022607093E-06	2.8382932796558E-06	-0.955979358332303	0.275600300271276
5.3	-0.518150105033011	0.854092468174138	-8.75472199799958E-06	-7.94990312231424E-07	-1.14094414167011E-06	1.5865207328948E-07	-0.91359318927262	0.393676279588673
5.4	-0.448731403194304	0.892784851050186	-7.22060935421678E-06	-1.11140823719654E-05	-1.38076842041682E-05	1.12518223230866E-05	-0.856883374782533	0.505377747892995
5.5	-0.376663823119473	0.924977361460792	1.91205663487854E-06	8.79394298725613E-08	-2.25213235019281E-06	1.7922273628616E-06	-0.787437911301817	0.609617848253809
5.6	-0.302592240626295	0.951472417676349	-2.41791573488686E-06	3.52743997450493E-06	-1.34695279201463E-06	1.29417498591916E-06	-0.704051801009371	0.704304130344472
5.7	-0.226268614769288	0.972582793115732	1.31186809433848E-06	1.23661786165557E-06	5.78721667817396E-06	-1.20082863306346E-07	-0.609493014044779	0.787005593116248
5.8	-0.148231285059826	0.987203020302568	2.71888159122687E-06	4.27783979093449E-06	-2.11929357525922E-06	4.26436909362559E-06	-0.505220234835966	0.856816285842899
5.9	-0.0685768351388891	0.995611922012506	-6.93172609525547E-06	-2.29834806210615E-06	-6.32305803534053E-08	6.32637304770011E-06	-0.39319572096096	0.912778761659829
6	0.011000411861578	0.994990842807675	-1.79929371689599E-06	1.00307010851839E-07	-5.50989997311115E-06	-4.37720236118042E-06	-0.27557618983487	0.952434914472139
6.1	0.0873618777151993	0.989514857666792	-5.46223892533245E-09	-9.92806831990308E-06	-1.000036048649E-06	-3.21441597034405E-06	-0.156203187376882	0.978648375050693
6.2	0.164460020056514	0.979021230142483	-1.00922889131136E-06	3.11715827608225E-06	-1.74194958211246E-06	4.22203983846861E-06	-0.0326724139434218	0.990436547075973
6.3	0.241115971164603	0.962962012822555	-7.94865914317155E-07	2.83135262105235E-06	-2.9276998729157E-06	2.40440393550873E-06	0.0917923897792807	0.986822352901568
6.4	0.316898311821407	0.940457960427399	-5.94538164254226E-06	5.55716901240468E-06	-2.38143698883079E-06	-7.41302810818056E-07	0.215517430672063	0.967068258649045
6.5	0.388743196297947	0.912766090595327	1.39948299947246E-06	-5.26900609713506E-06	-1.44754491669671E-06	-2.37264899397922E-06	0.333488545517432	0.932709486470152
6.6	0.461057248584764	0.881217364451086	3.65980548014288E-06	2.11975064254189E-07	1.13250607440831E-05	-2.6771641250478E-06	0.449894388359867	0.885559457818218
6.7	0.530515154679953	0.841631071855914	-7.78257535844339E-07	8.49852249282567E-07	-3.77992349477014E-06	5.2457562059639E-06	0.558496902725634	0.82147514439589
6.8	0.596059441483352	0.796778015245109	-1.75833048472376E-06	4.50413937403856E-06	1.45816951260512E-06	-8.87272597340045E-07	0.657308848572507	0.744440826773763
6.9	0.657892026507279	0.746841459253301	5.94737664106995E-06	2.25209045694982E-06	-9.32750066179523E-07	2.42698121839327E-06	0.745439551517782	0.655595014870944
7	0.715164964054227	0.691497846233297	1.13352626629106E-06	-4.1714873614669E-06	-1.42598376549301E-06	2.93397623685747E-06	0.820868386417579	0.556296975150967
7.1	0.767427287728941	0.632593932361713	2.38849044141102E-07	-7.20499717327979E-07	2.00149868319746E-06	9.20552193702457E-06	0.883570633186988	0.449603678233915
7.2	0.815088374169396	0.569506761891612	1.38423000252795E-06	-2.42134336761012E-06	-1.02837507095195E-06	-8.58267499355535E-06	0.93277286724334	0.335677561743499
7.3	0.857621981724258	0.502810047705805	4.85376119332689E-06	7.23726324017816E-06	-9.7341612767401E-06	2.34807039324136E-06	0.967154778306339	0.216469898536079
7.4	0.895955395431126	0.433015190185638	5.11087819249116E-06	-6.82392443579116E-07	1.95043694580746E-06	-9.66500997559521E-06	0.987704538886285	0.0935661525354238
7.5	0.929099880002429	0.358031024793597	2.75759686069081E-06	-5.33840948405619E-06	2.10368890527457E-06	-7.3192079360966E-06	0.992136006358504	-0.0339480020796614
7.6	0.953960934194387	0.28130130152791	-3.27431423765635E-07	-5.66386209416051E-06	1.68622019242269E-05	3.85102279855211E-06	0.978032554521737	-0.158650195080966
7.7	0.973595931544018	0.203090295847007	3.53666064077915E-06	1.01039465987225E-07	3.16965261432499E-07	-2.94122579765372E-06	0.94992816055428	-0.280775208389865
7.8	0.98673689869996	0.123237358137938	-1.10418915654102E-05	-1.88256080199015E-06	-1.89373496604445E-07	3.45733743795324E-06	0.906522817198847	-0.398577253055537
7.9	0.993044004076544	0.0416777614610034	2.38028617780847E-06	2.02484880586507E-06	-7.00576119040909E-06	-4.68788082657244E-06	0.848195850081228	-0.510576475684536
8	0.98919588475874	-0.0393737699133622	2.37842168163287E-06	2.9325101386219E-06	-9.40415586718478E-06	-7.51425137393122E-06	0.773194931096864	-0.612083178927202
8.1	0.98226843412583	-0.115668692397334	3.79936914476613E-06	-3.08565958158566E-06	2.12272827982278E-06	-3.19026820489912E-06	0.691486213551426	-0.701190715815591
8.2	0.970354466387092	-0.19342077035994	-4.01907452973328E-06	1.43331098813992E-06	-6.73555909965991E-06	3.94133728646272E-07	0.599068180891436	-0.782208562121301
8.3	0.951308069853892	-0.270606509324676	9.839148088747E-06	2.51288522835568E-07	6.27421790134478E-06	1.03937392380902E-05	0.496437859653554	-0.850927232915053
8.4	0.925853566900635	-0.345997136886647	1.28982571750989E-06	2.54513716321668E-06	3.45696225393133E-06	1.80618946195902E-06	0.386168232722493	-0.906619738070407
8.5	0.894389951898959	-0.419051341222255	-4.82176645850372E-06	4.97041821864363E-06	2.84115968229818E-06	-3.02624807427635E-06	0.268353207134074	-0.948295889385084
8.6	0.857557869610349	-0.489422284704294	-4.48409267826313E-06	2.10347306550438E-06	-3.00029920372116E-06	8.11958643920083E-06	0.14682341258118	-0.97366784067885
8.7	0.815071555114897	-0.556935125079196	-1.0139131199863E-06	1.21820822711946E-06	-6.2797235179114E-07	3.45945052466057E-06	0.0233163952037603	-0.983824652960693
8.8	0.767212317530527	-0.620566537738588	-1.56688342530117E-06	3.0772411986916E-06	-5.98560023296655E-06	1.30740616559013E-06	-0.0996967045892279	-0.978465809317574
8.9	0.71487477256281	-0.680014256911854	3.15446356765797E-06	-1.83479728314489E-06	-3.15324164006038E-06	-4.44230094031762E-07	-0.220206096859029	-0.958072988935666
9	0.657792299438522	-0.735756647030754	-7.25709224405526E-06	1.35593550605235E-06	-3.96166455397115E-06	7.27866574945215E-07	-0.338837325236161	-0.925882638500645
9.1	0.595845372178215	-0.786067788176232	-3.34621932994543E-06	-1.87229131199531E-06	-9.77606572895815E-07	2.12911928599458E-06	-0.454239141235685	-0.875762527152493
9.2	0.530190901057285	-0.831147846904927	5.96538456518105E-06	-1.63936527311209E-06	1.98621280305071E-06	8.45289357051505E-06	-0.561088765943081	-0.81250818276597
9.3	0.4612542828553	-0.87098042126777	-3.38269350304571E-07	1.06840641945265E-06	1.36420235569549E-05	1.18011012604994E-05	-0.659639038999012	-0.735925608036184
9.4	0.389186652553676	-0.905677937561126	1.73064941593119E-06	-2.66048592372585E-06	4.28556422692187E-06	1.75720239514985E-06	-0.747549303290488	-0.648136679568168
9.5	0.310799682843353	-0.934158761221195	-6.52307272758468E-06	-4.87095872268957E-06	-1.9633817225077E-06	-5.69997261640396E-06	-0.826316286315046	-0.547076076023474
9.6	0.23264108467216	-0.951944651545266	-1.16545219429039E-05	-2.26964331923247E-07	-5.92211984888462E-06	-3.98766544526985E-06	-0.887053977183578	-0.436653912647905
9.7	0.154940948864332	-0.965950026346657	1.46333671333855E-06	-4.79706135395779E-07	-2.90722046342934E-06	1.64253956794255E-06	-0.934447281873699	-0.321353163676371
9.8	0.0756961058705478	-0.974216238088697	2.2029833412406E-06	1.39406750123968E-06	1.50619755560499E-05	-3.51766954501389E-06	-0.966848085975563	-0.20113278014821
9.9	-0.00470665921432678	-0.975827524696706	-3.43890508266768E-06	8.95448274662978E-06	1.37323813627175E-05	4.95635534307707E-06	-0.983918176377242	-0.0781394758088325
10	-0.0844931979558372	-0.969157919763945	-3.63100104367705E-06	1.61622954345114E-06	1.91710873226763E-05	-1.81061058951363E-05	-0.986189020658635	0.0455501386283026
10.1	-0.161789674805376	-0.957002451305419	-1.47675754500043E-06	2.29936422868218E-06	-8.40964977204555E-06	-4.30288362825188E-06	-0.973395618534254	0.169830059374993
10.2	-0.238815024845515	-0.938819561873969	-2.30848477368785E-06	-1.23718726944856E-06	-1.28982529987511E-05	7.23552548293434E-06	-0.943916697276813	0.291736214087749
10.3	-0.313182547395896	-0.913330482163816	5.76517225757649E-06	3.90820944272259E-06	-6.13760339614036E-06	1.38952263938523E-06	-0.898923402771054	0.408232416036522
10.4	-0.384559030462565	-0.88195097613953	2.09802361453927E-06	1.03746815026477E-06	6.77376740707851E-07	-8.1979076674616E-06	-0.838701673593884	0.516132023011936
10.5	-0.452358788012431	-0.843784504315265	4.33621783606625E-07	-3.04897162822462E-07	-6.62010974659981E-07	-5.59590028643221E-06	-0.769796619057712	0.613400321320417
10.6	-0.514401566360993	-0.800537497825789	5.05426863895435E-06	-2.59333005861744E-06	-9.69344951646989E-06	-7.82163863201245E-06	-0.689250477307985	0.706408265163081
10.7	-0.572072745800401	-0.753580325751506	-2.79549410048625E-06	-4.98195286344388E-07	-5.19211037890364E-06	-7.11848110196668E-06	-0.596301889945551	0.787843455897734
10.8	-0.624979847533709	-0.703795952699825	-3.58733608482092E-06	-3.4211546105045E-06	-1.18839616197226E-05	9.07409858401358E-06	-0.49338031554548	0.856952677257144
10.9	-0.673483666795562	-0.65292909120108	-1.12785428336955E-05	-1.03689128308986E-05	-4.465653212168E-06	1.08702471360725E-05	-0.383132347117268	0.911625530769251
11	-0.721600785359398	-0.601463081365734	1.00212146647433E-06	1.40675015376261E-06	8.64470842736621E-06	-5.44860093003549E-06	-0.267863568356919	0.954229493328946
11.1	-0.765625642527233	-0.542852466552494	-3.20335822543478E-07	-3.6192940789386E-06	1.01598012716492E-05	-1.01481891776862E-05	-0.14475895840712	0.981873881897666
11.2	-0.804671011876495	-0.483596969843156	-1.02196442885301E-06	-3.8993908995255E-06	2.1622009449825E-06	-6.2828803690779E-06	-0.0188855505084748	0.992303562186947
11.3	-0.840977101161331	-0.421550177687957	1.64922173450663E-06	-1.19965519669307E-05	3.5574229203053E-06	-2.80527070547846E-06	0.107251885184261	0.986406785787819
11.4	-0.873487743983439	-0.356637273216074	9.83963624546012E-07	1.97769357763599E-08	-5.68240591318366E-06	6.43575266497117E-06	0.232001729135871	0.964406612479441
11.5	-0.901862062029357	-0.286307190618563	6.5263249170763E-06	-1.23729334087651E-06	8.21288745811758E-06	-3.11997125497797E-07	0.35125934779049	0.926415126144708
11.6	-0.921579520899944	-0.215223948561039	-6.32981079443682E-07	-5.30481944650231E-06	1.43348764525484E-06	-3.06607418484449E-06	0.465645425320843	0.874461565648815
11.7	-0.937332732726542	-0.142720143293612	-8.50963538582019E-08	-6.02075547759255E-06	8.92238933839454E-07	-2.64510042032507E-06	0.572741365320007	0.807853912441528
11.8	-0.948080583333173	-0.0676484311279133	-1.06563896431508E-06	-7.40036961653058E-07	5.14296638427798E-06	1.08435880015112E-06	0.670598165039839	0.727851297784356
11.9	-0.952994664422131	0.00919635167479351	-3.19580333070146E-06	-5.19995036138882E-06	-5.35395890311532E-06	-7.99767397874343E-06	0.756817080634256	0.635215340182999
12	-0.952341610891233	0.0882813428585909	-2.93895011141866E-06	1.63183853082176E-06	-1.666455934751E-05	-8.75479409548139E-06	0.824889699730391	0.533248861226817
12.1	-0.94422558360175	0.166548694763001	8.28931570884149E-07	-1.56133511768811E-06	7.80129258854896E-06	1.22761022247205E-05	0.883135130704358	0.428817992855787
12.2	-0.928919788638931	0.245316623829214	-4.11782485095162E-06	5.53196627893647E-06	4.05648727986988E-07	3.31044096329347E-06	0.930067808461596	0.315539229396022
12.3	-0.906995306635956	0.322881267358152	7.8163570889533E-06	6.40020261998571E-06	3.97430621284051E-07	1.08873902757439E-05	0.961621236306632	0.196075020959808
