# GHZ S RI R 50
0.2	0.988847968868642	-0.155927388892321	2.56683181540981E-06	2.26035534584133E-06	6.5961740884265E-06	-4.86928186250192E-06	-0.969075983113997	0.25010229492869
0.3	0.97341319075241	-0.233198574923628	-8.64620455795975E-07	-5.47410757420259E-06	-3.46051641477241E-06	-7.97978589064175E-06	-0.930734762196275	0.370224787138118
0.4	0.952782714598201	-0.308947140712269	-7.3094384542986E-06	-1.01306771341982E-06	4.4575119651308E-06	1.562659661732E-06	-0.877569601651966	0.484896871220909
0.5	0.926136197399557	-0.384086237674687	6.23193322020014E-06	2.12284512276271E-06	-2.42548825876211E-06	-1.92110215749846E-06	-0.809259568689547	0.593827873278278
0.6	0.892242557766781	-0.45514528448852	-1.06027125375538E-05	2.4633410724253E-06	-2.22791295599533E-06	-1.01368331728439E-06	-0.726494235204586	0.690409977661489
0.7	0.85452449122163	-0.523073619185203	2.80011124444375E-06	-1.17434929057726E-06	-3.01075042318847E-06	5.81411223838825E-06	-0.634255478829264	0.776454687144887
0.8	0.811462689556211	-0.588876373954954	1.19431992554681E-06	-8.52411078186511E-06	-6.65555571868088E-06	-3.09664792364688E-06	-0.531467361207047	0.850632271285559
0.9	0.762945760620427	-0.65158261846681	-1.1535632635778E-06	-6.86485262991162E-07	2.55866908163113E-06	6.58818246740804E-06	-0.420037409761076	0.911117421059462
1	0.708875586417618	-0.71001258622162	-2.76192271539973E-06	-3.24534099544906E-06	-4.04756932243427E-07	-7.36565701300947E-06	-0.302125766130204	0.956974922318813
1.1	0.651760834418762	-0.764042659049878	1.82014823429873E-06	-4.9758532326218E-06	2.28688644612705E-06	-5.17065697613377E-06	-0.178743046078548	0.98790022503845
1.2	0.588647148944707	-0.814417262980046	-2.513021975062E-06	2.51106347216377E-06	9.32513620990324E-07	-9.17992224938094E-07	-0.0520286585379319	1.00259628243129
1.3	0.519834939920459	-0.859351051864442	-1.54813494445964E-06	7.26696354146126E-07	-1.36327840089383E-06	1.47573916015858E-06	0.0759325958863433	1.00106343076001
1.4	0.44786937856904	-0.897147503375636	3.94082294079977E-06	-3.26953929996411E-06	2.74317554703016E-06	1.10039169854374E-05	0.202908062921392	0.982331654478904
1.5	0.376682282734348	-0.928488828293132	-5.36667029048293E-06	1.12452152506788E-06	6.61680781507286E-06	-7.25908938417839E-06	0.326420261470531	0.948370101364246
1.6	0.302725834562016	-0.957499271973048	1.7753673555182E-06	-7.79215707728307E-06	3.65783298258782E-06	1.38563352313113E-06	0.4434174843023	0.897984807010466
1.7	0.226612612008106	-0.978287118098523	-1.95678106220164E-06	-9.72060602339117E-07	-2.41414734728067E-07	-2.10081574027202E-06	0.551964726793371	0.835251709904662
1.8	0.148823864754466	-0.992899288155952	2.8822594597189E-06	5.30927519863777E-06	8.68926172623681E-09	2.04553674807198E-06	0.652176794333234	0.759089594668311
1.9	0.071224047366312	-1.00150242619372	5.71244076373013E-06	-2.65803595588021E-06	-3.01947644935359E-06	4.22683014379444E-07	0.740892517313374	0.672423272880611
2	-0.00666460164094295	-1.00690588213915	-1.56988862709113E-06	-2.04696929290156E-06	3.27047333862857E-06	1.15834161004291E-05	0.82334498533425	0.576620756399842
2.1	-0.0898092399647563	-1.00310319616126	-7.61842848501283E-06	2.52952895358716E-06	1.25308822564361E-06	5.19305000927045E-06	0.890819526505176	0.463362702463595
2.2	-0.167916853706723	-0.991881011393936	-8.81529679030386E-07	1.41272319685384E-06	3.08325299269456E-06	7.82571701977375E-06	0.93996928167245	0.346361209144641
2.3	-0.246149006845603	-0.974894222452643	2.31668131361823E-07	7.51547203382619E-06	7.52389682895649E-07	9.41689112499908E-07	0.974465558836498	0.225848252603289
2.4	-0.323205783128948	-0.951605371775657	1.64202026199984E-06	7.2248201947927E-06	1.5779439898271E-06	6.43183188017205E-06	0.994621237822959	0.101375064029268
2.5	-0.397599281515602	-0.922827712093453	4.41210757611873E-06	-2.36775291781498E-06	-1.98849434753059E-06	-7.62442938977482E-06	0.999514159333122	-0.0241479918214339
2.6	-0.469849754039477	-0.88777775396346	6.77999914406985E-06	-6.05310204909886E-06	-1.11074392504016E-05	1.10144911539237E-05	0.988283693288779	-0.150300940277354
2.7	-0.539335455861309	-0.847038228025602	-4.39694424553202E-06	9.26463403629792E-06	-2.98336264300242E-06	-9.21351016078347E-06	0.961371347042609	-0.274215432043438
2.8	-0.60471687665691	-0.801187423311637	2.49102331520073E-06	1.12730456115391E-06	-3.14171587466963E-06	1.28780256777847E-06	0.91914279674905	-0.393660661209562
2.9	-0.666303008074268	-0.749541430036558	-5.46986591710932E-06	6.13304930433859E-06	-9.27265811206642E-06	-1.71223961925852E-07	0.861163998346071	-0.506083003369199
3	-0.720355906548817	-0.690925565134514	4.52792184041839E-07	-1.48828691512178E-06	1.14100591928228E-05	1.30039325356843E-06	0.790078497601006	-0.610224317313265
3.1	-0.770386834995306	-0.63468115452923	2.56285681451711E-06	1.04947265424856E-05	4.36972289643062E-06	2.11908373798699E-06	0.706187849069742	-0.704734782764827
3.2	-0.818064992169167	-0.572572068153313	2.20065822329512E-06	6.44942423169085E-06	3.85823090393461E-06	-1.06841003207585E-05	0.610926613340146	-0.787013235637736
3.3	-0.860065799687815	-0.506181134415499	3.1555021897235E-06	4.91955523389775E-06	-2.36666437665533E-06	-9.64135006043762E-06	0.504809005515085	-0.856707049886466
3.4	-0.894519267856244	-0.436738596734088	2.08347930862026E-06	-2.62767119333696E-06	5.96304865097769E-06	1.29532147132321E-06	0.392273654987327	-0.909957856400099
3.5	-0.923304706971437	-0.367686309417615	-3.22216581258796E-06	9.74306880617828E-07	-2.03545874236167E-06	3.43347749192563E-06	0.279904226203301	-0.949106176860477
3.6	-0.952621418855738	-0.294657601916681	-1.85579339632491E-06	-3.7273119474372E-06	-7.7854622195197E-06	4.19644108880626E-06	0.157821256278734	-0.981594612905211
3.7	-0.972573475735634	-0.217363997412373	7.15360281549361E-07	-8.33421345980061E-06	1.08114760891429E-05	3.5577880725613E-06	0.0300289861510104	-0.992341031503109
3.8	-0.985754337552916	-0.13892735974922	1.11690350345875E-07	1.54288021708633E-06	-6.4308399196818E-06	6.0242724552001E-06	-0.0950972492765831	-0.985953106983379
3.9	-0.9923183855737	-0.0605480127340682	-2.68303487097571E-06	-4.98462732692389E-06	-3.59755260045405E-06	8.0528207201943E-06	-0.218479424443688	-0.96443335145748
4	-0.992142854864442	0.0185234343638033	7.11234516959415E-06	-4.76788861849867E-07	-1.05936234134876E-06	-1.18969120206946E-06	-0.336343656027424	-0.93052716426483
4.1	-0.986687794817775	0.0956827698588065	6.10850076072273E-07	-4.51039131134953E-07	7.25583857154943E-06	-4.84313162238528E-06	-0.452154642506716	-0.880162575225738
4.2	-0.975677188439133	0.172553614419183	3.21672751925776E-06	2.04783672646397E-06	-7.24932779144348E-07	-7.4806440802915E-07	-0.558785736517164	-0.814820918518622
4.3	-0.959425358539444	0.247193546356747	-3.15219219884123E-06	1.40335759133951E-06	-4.92768472519717E-06	3.02518042911673E-06	-0.655870371087216	-0.737993128664734
4.4	-0.938884141340717	0.321697282642217	8.27448598833937E-07	2.61950447145749E-06	1.45755212340718E-06	-8.30311514365702E-06	-0.742950617791381	-0.649834639309889
4.5	-0.908498127118377	0.398603429468866	1.80734146216528E-06	-9.61140636723642E-07	7.61037457070626E-06	-3.53898061748122E-07	-0.818683279133663	-0.550161910767065
4.6	-0.870128022998646	0.465642405894415	-6.30712617750838E-07	6.10476382454948E-06	-1.23701731914919E-05	-6.25738652244065E-06	-0.879267891461845	-0.443011481214847
4.7	-0.831460037569021	0.529688083544762	1.22884534890551E-06	2.47421280904812E-06	1.43724531400103E-06	1.8314095813554E-06	-0.927817755245032	-0.329781032335155
4.8	-0.78681959133069	0.593242441015878	-4.9708850770093E-06	1.11074142495762E-05	5.32871755554011E-06	9.53033516829242E-06	-0.961867083058569	-0.210017525196829
4.9	-0.736324091242697	0.653710558103965	1.23362227029284E-06	2.88197780637085E-06	-5.89340099051974E-07	-6.83406797176057E-06	-0.980070172744146	-0.0845408830766863
5	-0.677863055713876	0.70516670427571	4.64717002313989E-06	-9.67174062193155E-07	-3.64243101591225E-06	2.4398250538018E-06	-0.975271944692461	0.0394719605327647
5.1	-0.624815335186873	0.751822825469482	4.06156240481642E-06	-1.7728248709636E-07	-2.7019289070923E-06	-9.61960510024529E-06	-0.964151208428036	0.155325418598644
5.2	-0.565670673045912	0.799738776376602	2.45942422967059E-06	-1.47646289427793E-05	1.37767010257484E-06	2.76463115896523E-06	-0.938803484062501	0.275809006319967
5.3	-0.501594753212834	0.842063140488282	-8.56601054845076E-06	-7.14064665311501E-07	-1.11445539062324E-06	1.63373397346515E-07	-0.896235234519408	0.391904917862986
5.4	-0.434699281114216	0.879055432193149	-7.09195695348099E-06	-1.08438617673266E-05	-1.34652031282032E-05	1.10409237694903E-05	-0.838895120462785	0.500205638565726
5.5	-0.364085947306777	0.910363136208282	1.87974101255627E-06	8.52507935680664E-08	-2.21287947676917E-06	1.76329848491247E-06	-0.770421747047482	0.599168385799482
5.6	-0.2925737277426	0.934036331626273	-2.36015011078654E-06	3.47568357633306E-06	-1.31765712068889E-06	1.27716300785985E-06	-0.690790389670509	0.690328562493734
5.7	-0.220149376011847	0.953768896867528	1.28949277985942E-06	1.20762507488474E-06	5.67072967726672E-06	-1.36129249756871E-07	-0.600041033975042	0.770929780939201
5.8	-0.146636203123926	0.967325120115198	2.6610649584393E-06	4.18076857344406E-06	-2.06931894272498E-06	4.17072304021238E-06	-0.49996276299657	0.839054386379909
5.9	-0.074494610597191	0.976529232001154	-6.74488365610448E-06	-2.27893411662316E-06	-9.66192787618021E-08	6.16709546595536E-06	-0.394360058276269	0.894657658143993
6	0.00157565266984851	0.986919563333121	-1.77049896592778E-06	6.96113324479272E-08	-5.34622225848404E-06	-4.39202575721768E-06	-0.28127800549641	0.942429920403348
6.1	0.0842838927995593	0.982452763773516	1.03236022225869E-07	-9.83897599299696E-06	-9.55878508494031E-07	-3.1964951804241E-06	-0.156918985476141	0.970099818879836
6.2	0.161470483863255	0.970503527369514	-1.02839950556157E-06	3.08309392642085E-06	-1.76488191744861E-06	4.17261298918612E-06	-0.0335620452444085	0.980063045484723
6.3	0.236629203571876	0.953836237699858	-8.11616820708269E-07	2.80457938485282E-06	-2.92564776452515E-06	2.36377089929673E-06	0.0887125700163547	0.975479500612823
6.4	0.310941221544081	0.934231003675524	-5.9567481782361E-06	5.48672584411202E-06	-2.36439620663974E-06	-7.55008156608816E-07	0.210190363128486	0.958625708037634
6.5	0.390734530732107	0.904385442609783	1.38307251154013E-06	-5.25396090400721E-06	-1.44778724758348E-06	-2.36130130970572E-06	0.335736888568892	0.92202549285276
6.6	0.455222141061	0.864124072287426	3.60598716469761E-06	1.96206699338921E-07	1.11470396429358E-05	-2.67627915791069E-06	0.442843901995411	0.865821480125273
6.7	0.518125806474027	0.827011223635068	-7.64557838239306E-07	8.33424932072116E-07	-3.71434687524323E-06	5.14523827367461E-06	0.543435633572855	0.80532831273818
6.8	0.58026345485564	0.784795729533219	-1.73805725511906E-06	4.4065296053403E-06	1.43157308328326E-06	-8.6422491351583E-07	0.63810010690995	0.732578858398706
6.9	0.639079199701077	0.737914144144186	5.79417187148512E-06	2.23763520805601E-06	-9.26530934167039E-07	2.36437411720248E-06	0.723163193639865	0.648915505915547
7	0.695552920855768	0.686705120214198	1.17220893965916E-06	-4.06391087256964E-06	-1.43956709916156E-06	2.84878104655043E-06	0.799758723019081	0.555628078204459
7.1	0.747307373555896	0.629524780169339	2.44987838442223E-07	-7.0660634030998E-07	1.84813306896775E-06	9.09590667251227E-06	0.862879974318451	0.450133648415998
7.2	0.793887769176747	0.568644418828746	1.39035343090329E-06	-2.37089786632157E-06	-9.19946916096078E-07	-8.46845300428364E-06	0.911008326945587	0.339096993745368
7.3	0.835212758606946	0.503563982745327	4.71587314776644E-06	7.16687359681656E-06	-9.60335926701344E-06	2.22749683283287E-06	0.94431860982758	0.222547948172737
7.4	0.869051422089548	0.435625883519502	5.00549655918747E-06	-6.39195161763595E-07	1.96287890145366E-06	-9.44757994428174E-06	0.959948914537443	0.104147569579462
7.5	0.899479877687567	0.372124118929265	2.75826806304217E-06	-5.1352620180511E-06	2.15490115096392E-06	-7.06687288739903E-06	0.966493577701138	-0.0069440558989707
7.6	0.931009278431342	0.299698427822827	-1.97758628128698E-07	-5.54055914842433E-06	1.639104470777E-05	4.1260038463507E-06	0.96412028361908	-0.12973595341225
7.7	0.952411843144679	0.224328188343574	3.45729909700042E-06	1.80375318312188E-07	3.77870465051894E-07	-2.86985533681457E-06	0.940691049600285	-0.250021169408637
7.8	0.967607362334185	0.149152616405842	-1.07623273556589E-05	-2.14121307688483E-06	-2.78650927885059E-07	3.3805879520296E-06	0.903373547117051	-0.364772177049419
7.9	0.978721018313109	0.0758330183666837	2.26897111172399E-06	2.07185480085146E-06	-6.72205645261775E-06	-4.84834061273633E-06	0.855489097880147	-0.472486020910464
8	0.993398118416446	-0.00291217343339767	2.26164216568035E-06	3.02329326597026E-06	-9.10224415733935E-06	-7.87650302947482E-06	0.799886724230925	-0.583848931577024
8.1	0.98964716460437	-0.0918224342911318	3.90381910125082E-06	-2.99945912510082E-06	2.2208572854448E-06	-3.15011693976893E-06	0.713857436180663	-0.688083827005981
8.2	0.97690126413625	-0.171136595189254	-4.07050779037425E-06	1.34427876021106E-06	-6.77416395611329E-06	2.36201097577231E-07	0.619403219281572	-0.770966424787781
8.3	0.959836001151403	-0.248934861587597	9.88309209973707E-06	4.6953750044324E-07	6.0765582540018E-06	1.05843811327853E-05	0.517546750240815	-0.842145819161885
8.4	0.937161121967509	-0.32556694701451	1.24782615457428E-06	2.58324252777521E-06	3.44052178768259E-06	1.88194611596939E-06	0.407806056075534	-0.899879201123518
8.5	0.908453630196232	-0.401540468334696	-4.92452366312708E-06	4.8810657824439E-06	2.90362230790796E-06	-2.97370278379673E-06	0.294556595123473	-0.944054704048557
8.6	0.872369501798038	-0.474275044018106	-4.55265568870348E-06	2.00482453147893E-06	-3.20666690561372E-06	8.08092516708974E-06	0.173552792806831	-0.97774776505989
8.7	0.831367758245074	-0.543752979547694	-1.05088663908217E-06	1.20374834658401E-06	-7.15159047394457E-07	3.47189350875926E-06	0.0476060395572338	-0.993741192054243
8.8	0.784749354716538	-0.610142651387018	-1.6550059564858E-06	3.07783189611549E-06	-6.08545174906731E-06	1.18709116500317E-06	-0.0796884727075463	-0.993822581482525
8.9	0.731882843663308	-0.672820304663912	3.23816040850355E-06	-1.80780557085476E-06	-3.19606694198101E-06	-5.07907416267006E-07	-0.20893195962551	-0.974969291287105
9	0.67405661352961	-0.727642697118367	-7.34915616569834E-06	1.28943497424874E-06	-4.01178492912683E-06	6.91432900264148E-07	-0.326784723800774	-0.933911149030535
9.1	0.614973958065909	-0.780604690043979	-3.34763653981551E-06	-1.93835136384759E-06	-1.01777246759034E-06	2.13319520643759E-06	-0.438376304235927	-0.890441831385105
9.2	0.549093857503607	-0.828793313275998	6.04336038651129E-06	-1.56768898367141E-06	1.88158932111999E-06	8.55849775597758E-06	-0.54822802386333	-0.830303263590138
9.3	0.479036591222715	-0.870664689937493	-3.56167883689823E-07	1.07185782094296E-06	1.35791272638789E-05	1.20876761392345E-05	-0.649028507979816	-0.755269018671566
9.4	0.405226554405991	-0.903297053752974	1.7778346984642E-06	-2.6440768962392E-06	4.27488061495676E-06	1.82932123562075E-06	-0.737094090880612	-0.666570287435438
9.5	0.339352443321166	-0.931720027497106	-6.41941780503134E-06	-5.08119842613627E-06	-1.81232110228719E-06	-5.78547842107034E-06	-0.811859761850113	-0.577497485765165
9.6	0.258820914687183	-0.965862129728311	-1.18571975206278E-05	-5.24499459700851E-07	-5.92759651789223E-06	-4.20809474308032E-06	-0.889109045001518	-0.472525926823884
9.7	0.173003114426345	-0.983682783025724	1.50133976411489E-06	-4.60095211356454E-07	-2.99636556806052E-06	1.61701213942931E-06	-0.945082487617736	-0.35266296987633
9.8	0.0886724610759886	-0.992448572609982	2.22194506200005E-06	1.46030212451782E-06	1.54210131461802E-05	-3.32229784477977E-06	-0.98332465260183	-0.228454654324397
9.9	0.00595759177515363	-0.993996424453332	-3.66104746823247E-06	9.08925041142148E-06	1.39443221823428E-05	5.29022790027928E-06	-1.00578219457497	-0.100033727226931
10	-0.0762480682913972	-0.991384686897177	-3.73650831129336E-06	1.60877235375438E-06	1.98478955639683E-05	-1.82915880411045E-05	-1.00957810761204	0.0295560310074374
10.1	-0.160245895126227	-0.978096362095326	-1.5328320981868E-06	2.33116300149914E-06	-8.53800496133289E-06	-4.48504018204719E-06	-0.999128671678215	0.157175462763846
10.2	-0.238770242290505	-0.957977178298778	-2.34189284982028E-06	-1.29203445644116E-06	-1.32608072002232E-05	7.22809182772097E-06	-0.972516411511267	0.283614654324215
10.3	-0.314217549033172	-0.93307991410824	5.84746062290531E-06	4.08003312605968E-06	-6.30174742035819E-06	1.33770547736006E-06	-0.931135871032536	0.405772793755086
10.4	-0.388157635943174	-0.903073762702784	2.14463852402224E-06	1.09800144665405E-06	8.14918680917482E-07	-8.4285229290005E-06	-0.875330880103393	0.525170784326478
10.5	-0.4588772206629	-0.865692416288462	4.51029447905724E-07	-3.13047436954608E-07	-6.5033208781695E-07	-5.79989170760747E-06	-0.794180481135736	0.639525709108645
10.6	-0.525314294824802	-0.823036162555383	5.21837305331417E-06	-2.67238928674154E-06	-9.99787601694171E-06	-8.0801700411825E-06	-0.701212825892383	0.72859388234772
10.7	-0.587392352457848	-0.775463394694038	-2.88308607568018E-06	-5.10755500531134E-07	-5.36134492904337E-06	-7.33469475486909E-06	-0.604020675579851	0.808520072486344
10.8	-0.64596785738435	-0.72456618236749	-3.71291175715865E-06	-3.51577492742933E-06	-1.2225071410498E-05	9.40359410353683E-06	-0.497757393638721	0.877514447128994
10.9	-0.702274531057891	-0.666911220857938	-1.17320920286617E-05	-1.05704972271773E-05	-4.49024112335775E-06	1.12501664091261E-05	-0.381208159441231	0.934087561976763
11	-0.742432729681719	-0.604723985217165	1.0365079220875E-06	1.42274637618169E-06	8.75070109101774E-06	-5.64636198142495E-06	-0.257763758199752	0.967742612910134
11.1	-0.78633084947423	-0.554097903194086	-3.40559693414075E-07	-3.69808190446627E-06	1.03473703039082E-05	-1.0409273021711E-05	-0.139749213725649	0.992470930699796
11.2	-0.831927008746606	-0.492599884873884	-1.06952610022339E-06	-3.99070898374801E-06	2.18042492662818E-06	-6.45161293294276E-06	-0.012691377881027	1.00381193714813
11.3	-0.871506363391674	-0.424716227920442	1.59225232051074E-06	-1.2305971637406E-05	3.62235901822782E-06	-2.90344593549863E-06	0.11502667482455	0.997067001259535
11.4	-0.901995969359909	-0.353080381096709	1.00581651937436E-06	1.13668657329544E-08	-5.74972328360865E-06	6.62860592440517E-06	0.241115838388737	0.974129480255528
11.5	-0.927179774423992	-0.287105922994847	6.67479781395729E-06	-1.30032741073371E-06	8.40615374595182E-06	-3.617782425718E-07	0.363091992978965	0.9350530269681
11.6	-0.956434397499574	-0.211876121860615	-7.02891802592998E-07	-5.4422507081366E-06	1.44183129303487E-06	-3.1634025172077E-06	0.478548904678714	0.879599792419532
11.7	-0.972577014208055	-0.130022485941708	-1.68926768326157E-07	-6.17069539773962E-06	8.78739188980915E-07	-2.72358752810511E-06	0.584889336208613	0.810734148129085
11.8	-0.98053358633524	-0.0476231372349535	-1.10083302076264E-06	-7.40157200532158E-07	5.27452408513315E-06	1.02939066082256E-06	0.680912220193122	0.730091807069397
11.9	-0.980934577493265	0.0364585087707951	-3.33543356282171E-06	-5.25456227344202E-06	-5.57731385441859E-06	-8.07517322668308E-06	0.765069833452549	0.643302688295193
12	-0.970962717686637	0.118385807015767	-2.98321206268207E-06	1.71350728613721E-06	-1.71829215531016E-05	-8.71138195035656E-06	0.851850383344051	0.545424604818371
12.1	-0.958971731046507	0.197185256244181	8.12899605286559E-07	-1.61067385538644E-06	8.21943544029305E-06	1.23619297456347E-05	0.912420675657882	0.423385272847663
12.2	-0.93883922474666	0.275808018661139	-4.06930326158774E-06	5.71026218352598E-06	4.82145857948301E-07	3.35663675507391E-06	0.955248329763226	0.30381982587565
12.3	-0.913945039471466	0.352157978672342	8.06722323551642E-06	6.34554354364043E-06	6.20563238636684E-07	1.10513362770675E-05	0.985264544137143	0.18071943131786
