# GHZ S RI R 50
0.2	0.986230792305492	-0.156688344731124	2.5646203221329E-06	2.25141987180435E-06	6.57411791655473E-06	-4.86862610163988E-06	-0.966727017624475	0.251435159546318
0.3	0.970270627528499	-0.233801692186825	-8.72533278923293E-07	-5.45682182466277E-06	-3.46576297130177E-06	-7.95041438995734E-06	-0.927270223872732	0.371484718120538
0.4	0.948882148508789	-0.309210128411262	-7.2833938807996E-06	-9.93747545054459E-07	4.44362176474306E-06	1.54723481432989E-06	-0.872716473443513	0.485392275939565
0.5	0.921854570622441	-0.382902419194799	6.20379149860651E-06	2.10630390284834E-06	-2.41563029006916E-06	-1.90934710270364E-06	-0.804112085699674	0.591945635636871
0.6	0.888773303151795	-0.453733181432897	-1.05575398010309E-05	2.46110276528082E-06	-2.21955236555809E-06	-1.00789243294537E-06	-0.722464763635206	0.688265095538686
0.7	0.85076503291436	-0.521533698557881	2.78632225746931E-06	-1.17230336396026E-06	-2.99075834886023E-06	5.79166569636146E-06	-0.629881415450121	0.773806125752294
0.8	0.807479969267614	-0.586677507537431	1.17918455224781E-06	-8.48247763891912E-06	-6.62536508973626E-06	-3.07393584935895E-06	-0.52712251206365	0.846892122729539
0.9	0.759151630900831	-0.648507373383728	-1.1477133854777E-06	-6.81833791043148E-07	2.54948845656155E-06	6.54991904508273E-06	-0.416136142085353	0.906294303617535
1	0.705702086996458	-0.706657855284727	-2.74756509579736E-06	-3.22561696710435E-06	-4.05642831317203E-07	-7.32343577977159E-06	-0.298860863205188	0.951087938644655
1.1	0.6483809200356	-0.760293009826146	1.8077119155965E-06	-4.94589695312911E-06	2.27154441873528E-06	-5.13963155037354E-06	-0.176668932940894	0.981035249038191
1.2	0.585666312083028	-0.809932528023498	-2.49744269672383E-06	2.49429913172738E-06	9.26729289092093E-07	-9.11860241936034E-07	-0.0514232789520052	0.995154311472418
1.3	0.517658216106356	-0.854410762224933	-1.538971857357E-06	7.20430881191284E-07	-1.35607846378295E-06	1.46486688926289E-06	0.0745860094079188	0.99358904819555
1.4	0.446713184057517	-0.892653294819456	3.92383754667927E-06	-3.24396268859323E-06	2.70842976059325E-06	1.09454653764598E-05	0.199881877839111	0.975599442887441
1.5	0.374060046834541	-0.92452456553649	-5.33936030980914E-06	1.11153380041379E-06	6.59075191907507E-06	-7.21159579162081E-06	0.321703728731904	0.942197086293031
1.6	0.300540531470426	-0.950832305674104	1.77627149742695E-06	-7.74234137923944E-06	3.63362265362954E-06	1.38271560566577E-06	0.437771157151672	0.893520978162732
1.7	0.226192445568451	-0.970982778168883	-1.94255031162461E-06	-9.6974517726524E-07	-2.35799093364853E-07	-2.08804148613361E-06	0.546104685234339	0.83156495695729
1.8	0.149632573231879	-0.985665675622366	2.85273873944891E-06	5.28217550997711E-06	4.22791625433314E-09	2.03272225866144E-06	0.646171735285148	0.756164651052023
1.9	0.0722834172334402	-0.994444505869179	5.6787432297719E-06	-2.63304180340502E-06	-3.00034800708071E-06	4.15878822534183E-07	0.735418113772732	0.66918477128674
2	-0.00506368116170323	-0.997470686087041	-1.5507967567512E-06	-2.02928698106057E-06	3.21824858946309E-06	1.14738056809495E-05	0.814062306827817	0.571470976463411
2.1	-0.0843787312922712	-0.993942514664458	-7.56147079504042E-06	2.46407212547639E-06	1.21285331260937E-06	5.15163250053336E-06	0.87917348822808	0.46398512492619
2.2	-0.161056746947125	-0.984179153159092	-8.83044621484654E-07	1.39639888499126E-06	3.01244179196419E-06	7.78278127749235E-06	0.930277102955615	0.349794300299732
2.3	-0.238122598500124	-0.968156092619496	1.84519459310155E-07	7.46134372767722E-06	7.411373112395E-07	9.39280125032416E-07	0.966245182832472	0.230627546936816
2.4	-0.31390668002845	-0.945971027356603	1.58480023892942E-06	7.1818251029057E-06	1.52614831060434E-06	6.3942812200688E-06	0.987560355498179	0.107018541187393
2.5	-0.387247750707237	-0.918742786293718	4.39546043170092E-06	-2.31919020638548E-06	-1.92038061629399E-06	-7.58099554714303E-06	0.992945861576956	-0.0174857182606387
2.6	-0.458846240204047	-0.885140843265098	6.77623478422296E-06	-5.95811525016695E-06	-1.11095285738455E-05	1.08508968120587E-05	0.982985484018381	-0.142438681256176
2.7	-0.527639945254953	-0.845853001535964	-4.44095751890991E-06	9.15881436700018E-06	-2.88455429640274E-06	-9.16934130816463E-06	0.956938422052312	-0.265212083031136
2.8	-0.592116448568328	-0.80169613568595	2.46172509258816E-06	1.14260593245395E-06	-3.130549696243E-06	1.24830451462199E-06	0.916368935495973	-0.383048907179685
2.9	-0.652580926384717	-0.753022680937707	-5.4980766634906E-06	6.02755099681818E-06	-9.20310425971257E-06	-2.72963729970264E-07	0.860914369248326	-0.494648036764411
3	-0.709455876370487	-0.699068177679426	4.70412456152333E-07	-1.47449172474677E-06	1.13334261658124E-05	1.44674138618642E-06	0.792084019921579	-0.598755571299708
3.1	-0.761940462259617	-0.641593018095157	2.42080203301838E-06	1.04936235409568E-05	4.32864032157131E-06	2.16797628601214E-06	0.710956963937715	-0.692988240524462
3.2	-0.809610527726021	-0.580225073486073	2.11302143780056E-06	6.46178092137924E-06	3.9851236263662E-06	-1.06088454859548E-05	0.618757688651002	-0.776451310953648
3.3	-0.852366045140091	-0.515484146211146	3.08694101239044E-06	4.95561676074216E-06	-2.23664968146594E-06	-9.66161234836955E-06	0.515617540910121	-0.848218091069305
3.4	-0.889098458973518	-0.447927259230139	2.12067908989163E-06	-2.60467782177787E-06	5.955331310064E-06	1.37452438616571E-06	0.405698968227952	-0.905871039752721
3.5	-0.921268799947257	-0.376723553356848	-3.23712693277198E-06	9.48623104008768E-07	-2.06911526884873E-06	3.42301825879079E-06	0.289204614068188	-0.94965588107401
3.6	-0.948256880483436	-0.303182160419725	-1.81711126801188E-06	-3.74098832865123E-06	-7.81715993087175E-06	4.11525911917371E-06	0.167360752819238	-0.979120309354097
3.7	-0.968840658442657	-0.228035615737715	8.10378058838945E-07	-8.32536578562464E-06	1.07699978333781E-05	3.68083221836713E-06	0.0421797598809053	-0.992173435341784
3.8	-0.983705389017019	-0.150844440005788	9.40933903165419E-08	1.54607832428195E-06	-6.50806801668633E-06	5.95782361759965E-06	-0.0826525140409428	-0.989230831784752
3.9	-0.992263965294333	-0.0733382270054548	-2.63334162605397E-06	-5.02250278277597E-06	-3.6915630507032E-06	8.02754237628643E-06	-0.207652553361347	-0.970704563709031
4	-0.994907608900332	0.00557831641443598	7.1262799303284E-06	-3.92643481075936E-07	-1.04642447604122E-06	-1.20368797489434E-06	-0.327208444467295	-0.937060777046676
4.1	-0.991448851530937	0.0838881159276874	6.18617084144814E-07	-4.44586146582356E-07	7.34145454807127E-06	-4.76484510111662E-06	-0.442712192383137	-0.88865785053594
4.2	-0.981861849261683	0.161824735226989	3.20626841751382E-06	2.09704488228594E-06	-7.19034204353966E-07	-7.60476973673176E-07	-0.551022002116142	-0.825530246253863
4.3	-0.966436673071844	0.237724422319364	-3.18575760897257E-06	1.37548798008919E-06	-4.98957990193526E-06	2.9862702693844E-06	-0.650278949431265	-0.75009622734288
4.4	-0.945304489570063	0.312422328935431	8.06404814489304E-07	2.64061014393885E-06	1.54473331977906E-06	-8.33076634954167E-06	-0.739333941382839	-0.662517888290945
4.5	-0.917957666681892	0.385885199538648	1.82263832951361E-06	-9.41785955248292E-07	7.63099652020373E-06	-2.64427731446498E-07	-0.816752572915277	-0.564146174194701
4.6	-0.884535715511569	0.457137787939028	-7.21741469759165E-07	6.12945046093498E-06	-1.23487906971148E-05	-6.46935257634854E-06	-0.880589846272022	-0.457169378138732
4.7	-0.846078449008804	0.524470642606712	1.20392779370557E-06	2.50926595171917E-06	1.42268070272839E-06	1.86459655926785E-06	-0.93127704196328	-0.343333278139289
4.8	-0.801560332947168	0.589876358203879	-5.16546557237334E-06	1.1131518766036E-05	5.24177379405404E-06	9.68327590040552E-06	-0.967013292020191	-0.223292768441198
4.9	-0.752223109049257	0.65089668988537	1.201602387009E-06	2.92899442312979E-06	-4.90592284605522E-07	-6.9098381086793E-06	-0.987200673672475	-0.0991419944171668
5	-0.69814707945305	0.707408463218013	4.73520783216034E-06	-9.13018877335517E-07	-3.73657459908471E-06	2.42400619967939E-06	-0.990546718461323	0.025787680634782
5.1	-0.6401452981016	0.759875024733963	4.13001622978416E-06	-1.41990858925963E-07	-2.65586717787572E-06	-9.80320151517356E-06	-0.97995134037068	0.149407627446271
5.2	-0.578239080097491	0.808055748974451	2.6179802022849E-06	-1.49793994378659E-05	1.37719736271728E-06	2.81971968825896E-06	-0.95380032148262	0.271985733024613
5.3	-0.512946299931983	0.851158670921091	-8.70376454899671E-06	-7.82272300077511E-07	-1.13406281483964E-06	1.58761208486751E-07	-0.912012276066115	0.390387590169311
5.4	-0.444761086454629	0.889082022637025	-7.17388367471981E-06	-1.10518641990194E-05	-1.37312967169642E-05	1.11804104849168E-05	-0.855172482624708	0.502148015295546
5.5	-0.373873370255133	0.921446672081508	1.9039048201703E-06	8.98123241066033E-08	-2.24475467138541E-06	1.78204110599226E-06	-0.785312334244719	0.605208473337293
5.6	-0.300392153567992	0.947791137591994	-2.40809357668511E-06	3.51189420627992E-06	-1.34137325520023E-06	1.28839747835474E-06	-0.703361520650662	0.698469964431668
5.7	-0.225011026883391	0.96859350952386	1.3047003079864E-06	1.23132382139513E-06	5.75888781231757E-06	-1.16077161835176E-07	-0.610733538474333	0.78104927722319
5.8	-0.148333524354723	0.982860076897571	2.69766643787218E-06	4.25836770451996E-06	-2.11394057688776E-06	4.23785030383515E-06	-0.508210147964693	0.851428535648167
5.9	-0.0712181345074863	0.991423122390471	-6.88010293625046E-06	-2.30850409038668E-06	-8.52595161811717E-08	6.28646965682715E-06	-0.398134538860776	0.90877165645251
6	0.00638302565194804	0.994623061806845	-1.79361042779662E-06	8.67367023667654E-08	-5.45809844173471E-06	-4.40204437564796E-06	-0.280994506253707	0.952465894588345
6.1	0.0847691151520822	0.991034541423155	5.60673064624942E-08	-9.92585422096402E-06	-9.79888563076385E-07	-3.21988578344998E-06	-0.158607320702584	0.979930594303343
6.2	0.163089894191968	0.980993756620369	-1.02680085089519E-06	3.11508789896962E-06	-1.76614399344882E-06	4.21724926225106E-06	-0.0335934792584974	0.991321185830835
6.3	0.24055590488351	0.964628952048682	-8.08669108041122E-07	2.83317902207645E-06	-2.94362647325637E-06	2.39615321771626E-06	0.0914588253563719	0.986848097960466
6.4	0.316434589478487	0.942340563800285	-5.97888584539841E-06	5.55043291833331E-06	-2.3847212400905E-06	-7.51248258766507E-07	0.215099390878748	0.967060844017319
6.5	0.390934010677581	0.913997831178444	1.40357619771066E-06	-5.28290802934468E-06	-1.45122291792413E-06	-2.37905669083242E-06	0.335552406968121	0.931198426778522
6.6	0.461709411177096	0.879437284034939	3.65577423883643E-06	2.08626711163951E-07	1.13097589682148E-05	-2.6836902675082E-06	0.448893788241385	0.880664608379269
6.7	0.529589990936715	0.839915304136293	-7.76331704317945E-07	8.47510772861521E-07	-3.77072618510975E-06	5.23144643110933E-06	0.554905163971367	0.817520101565825
6.8	0.594288308502311	0.795203953644402	-1.75541744086781E-06	4.48760934834215E-06	1.45381142794933E-06	-8.83258094502173E-07	0.652557658579734	0.741712515120661
6.9	0.65515020993888	0.745539853395952	5.91772762234308E-06	2.24985596803649E-06	-9.31776670538952E-07	2.4148640159515E-06	0.740019435246694	0.654305077280177
7	0.711875458337277	0.691164128906537	1.14440420748817E-06	-4.1495576923232E-06	-1.43097156234151E-06	2.91618903295185E-06	0.8161272313358	0.556455201758549
7.1	0.764135969900173	0.632673649917554	2.4062114258608E-07	-7.1814454912632E-07	1.96768717429171E-06	9.19156238494318E-06	0.879036604882435	0.449665583208009
7.2	0.811687156221952	0.569784888270765	1.38652106871602E-06	-2.41356232926542E-06	-1.0082995167419E-06	-8.56754419297324E-06	0.927963361611003	0.336190696059718
7.3	0.853898740929235	0.502908575647236	4.83678458220072E-06	7.22535079168704E-06	-9.7145583451026E-06	2.33451880798219E-06	0.962000456527749	0.217228895113545
7.4	0.890635365240109	0.432783728615887	5.08925652581695E-06	-6.84984809737099E-07	1.93227975629813E-06	-9.62753558439564E-06	0.980703798362658	0.0948596537304059
7.5	0.92184978947483	0.360652640490919	2.74037487878832E-06	-5.29330147280701E-06	2.09346910801016E-06	-7.25887024485369E-06	0.984432654973856	-0.0279385069426815
7.6	0.948111632653284	0.285512044083587	-3.08758745406996E-07	-5.62586759057395E-06	1.67350947391794E-05	3.8734325757403E-06	0.973417824904835	-0.151498460262455
7.7	0.967993373144302	0.208449982594561	3.51049956552838E-06	1.14159153894082E-07	3.26179120606632E-07	-2.91855663048826E-06	0.946713119867497	-0.272551266711072
7.8	0.981707157338409	0.130166374933382	-1.09521872447172E-05	-1.93215448937706E-06	-2.07762535052377E-07	3.43153467116737E-06	0.905328417800942	-0.389273984090066
7.9	0.989315720614592	0.0511007679635115	2.34825745570615E-06	2.03249005085131E-06	-6.9223069184705E-06	-4.71828397260395E-06	0.850058455018965	-0.499815762618067
8	0.991220711875979	-0.0287896628040338	2.34379973057367E-06	2.95594648766958E-06	-9.31227919941728E-06	-7.61081553560333E-06	0.78165567856979	-0.603539578998244
8.1	0.98548269689428	-0.109120830956587	3.829747688128E-06	-3.06116990928064E-06	2.15113327886327E-06	-3.17902492348767E-06	0.699585331876661	-0.697491745360651
8.2	0.97340116670072	-0.187692454273169	-4.03722082807918E-06	1.40921509291346E-06	-6.75242197728012E-06	3.49517236822867E-07	0.606997648396849	-0.77987323746865
8.3	0.954876895969315	-0.265442725463397	9.86577860651739E-06	3.11067464722435E-07	6.22977222249023E-06	1.0461125707703E-05	0.504616109506943	-0.85010848231887
8.4	0.930041155799253	-0.34159120000243	1.2821932478017E-06	2.5597002203102E-06	3.46004360097778E-06	1.8284527809718E-06	0.394017406641273	-0.907106858339243
8.5	0.899052153015586	-0.415903083627047	-4.8516512356211E-06	4.96004970857263E-06	2.8591725217346E-06	-3.02032676118037E-06	0.276841513010443	-0.94925595048378
8.6	0.8618438182904	-0.487287384764403	-4.50592995860128E-06	2.08398524786861E-06	-3.05138821447102E-06	8.12212341698349E-06	0.155908103832722	-0.976889975769707
8.7	0.819128410437768	-0.555378956867495	-1.02428865052358E-06	1.2164861581146E-06	-6.49888718414463E-07	3.46745271394807E-06	0.0319603717511735	-0.989392560554427
8.8	0.771059581133726	-0.619631018199735	-1.59180139669244E-06	3.08273226054236E-06	-6.0211438422615E-06	1.27936894997808E-06	-0.0926225420599159	-0.986510570525903
8.9	0.718175544548333	-0.679810473316388	3.18336784285251E-06	-1.83265494731829E-06	-3.17190549949903E-06	-4.61297924810493E-07	-0.216766259829771	-0.96727337817516
9	0.660432461942979	-0.735230399975855	-7.30143727431224E-06	1.34941540904335E-06	-3.98584828537578E-06	7.24236367525824E-07	-0.336595891179121	-0.931998579883545
9.1	0.598774870903804	-0.786049004555649	-3.35985231843048E-06	-1.88894908127791E-06	-9.87089201839912E-07	2.13823278255362E-06	-0.451300836438867	-0.882848399084654
9.2	0.532628829424967	-0.831702083631358	5.99599406897118E-06	-1.64033685033913E-06	1.98596890058299E-06	8.49587642697743E-06	-0.559139718401684	-0.81955963275036
9.3	0.463025473687101	-0.87179249528364	-3.40140529793718E-07	1.07213762683386E-06	1.36852750509212E-05	1.18525127574951E-05	-0.658088460773552	-0.742454309094382
9.4	0.390085697821553	-0.90563409320409	1.73458892564319E-06	-2.66436376277936E-06	4.29219640364272E-06	1.76179523837713E-06	-0.74563714248875	-0.65328240160085
9.5	0.315042926349554	-0.933683036084058	-6.50849793350648E-06	-4.90143736167127E-06	-1.94175911491203E-06	-5.71255688424846E-06	-0.821314745748072	-0.554138511519127
9.6	0.235784667508331	-0.956028155873895	-1.16976917177701E-05	-2.72574834637013E-07	-5.92918651227801E-06	-4.02547511290197E-06	-0.884644596116903	-0.446596366634401
9.7	0.155050676666533	-0.970506101662413	1.47032671742141E-06	-4.77838150420541E-07	-2.92287723623422E-06	1.64154189126862E-06	-0.934197601181107	-0.331499357683177
9.8	0.0738763698802001	-0.977888000619898	2.20807891643525E-06	1.40385685566759E-06	1.51245810628608E-05	-3.49849274561318E-06	-0.968722391333114	-0.21116620439643
9.9	-0.00725354129579044	-0.978133641222317	-3.47104021481578E-06	8.98221273520985E-06	1.37755712433953E-05	5.00439895389742E-06	-0.988413216951385	-0.0868351418342142
10	-0.0872250748495606	-0.971456918669041	-3.64875280785164E-06	1.62008970446763E-06	1.9273706642666E-05	-1.81693287988188E-05	-0.991369568739329	0.0396143769103907
10.1	-0.165844513332473	-0.957833642891391	-1.48225617173755E-06	2.30560937472612E-06	-8.43299368435087E-06	-4.31968843108227E-06	-0.978137013404113	0.164825122630231
10.2	-0.241978232395682	-0.93820257207863	-2.31227223232065E-06	-1.24399554929321E-06	-1.29421660494563E-05	7.23289085517769E-06	-0.949130395781634	0.287098534607898
10.3	-0.315058095661965	-0.91281308430436	5.77168025616898E-06	3.93736224018165E-06	-6.16085089932223E-06	1.37581460340425E-06	-0.90559908474311	0.404401707031981
10.4	-0.385719054763873	-0.882602410786659	2.10429337292046E-06	1.0510586182983E-06	7.13682461164045E-07	-8.2359716152096E-06	-0.847408423006676	0.515693361881665
10.5	-0.453838650005336	-0.846276686147605	4.3761846298623E-07	-3.06040611436515E-07	-6.52521843356328E-07	-5.63905963832859E-06	-0.774212532357929	0.618601598453483
10.6	-0.51762368854483	-0.804169480857274	5.09481927038037E-06	-2.60560764532916E-06	-9.7541287809754E-06	-7.89197948938645E-06	-0.689131173488373	0.709651482970603
10.7	-0.576859861006701	-0.757542249542924	-2.81683237571838E-06	-5.03579721782938E-07	-5.22834608443527E-06	-7.17636004427204E-06	-0.594316148323007	0.789612534634875
10.8	-0.631736290750096	-0.707751257389326	-3.61766690897657E-06	-3.44683572951809E-06	-1.19747737287656E-05	9.15234989081697E-06	-0.490433221660087	0.85701213689154
10.9	-0.682860506437764	-0.655118966348334	-1.13974351880692E-05	-1.04223491809784E-05	-4.47252569468017E-06	1.09699959513457E-05	-0.379315715750893	0.911448957259952
11	-0.729033915264616	-0.600598808376651	1.01198740619598E-06	1.40935235720471E-06	8.66338041376441E-06	-5.5060062493712E-06	-0.260829788316466	0.951133013820872
11.1	-0.773314581382118	-0.544209128357214	-3.27874566086437E-07	-3.63447572448106E-06	1.01867098482723E-05	-1.02095377606729E-05	-0.139497562089932	0.974867604704607
11.2	-0.814462089355425	-0.484005246007325	-1.03368455708804E-06	-3.91588493138865E-06	2.1611999073774E-06	-6.31621745397075E-06	-0.0158453265673038	0.98367328053312
11.3	-0.851562079972715	-0.419884588598045	1.63333113378685E-06	-1.20521488536532E-05	3.56756681763587E-06	-2.82437814908514E-06	0.107610792651494	0.977129004214747
11.4	-0.883127532755068	-0.353011717645001	9.87289487938117E-07	1.83296405833638E-08	-5.6915376839309E-06	6.46604763794123E-06	0.229862117071919	0.955669327303184
11.5	-0.910643354831737	-0.284326514033528	6.55238601329413E-06	-1.23922109404513E-06	8.24512851930084E-06	-3.09556510945393E-07	0.348183295738888	0.918825703158738
11.6	-0.933621530872452	-0.211692769718756	-6.39483910108677E-07	-5.33354582436629E-06	1.43959553486866E-06	-3.08370584138093E-06	0.4612099049549	0.867033655049641
11.7	-0.949188038544601	-0.13581889628673	-9.57085867752607E-08	-6.05139929457869E-06	8.92330373355855E-07	-2.66013455346019E-06	0.566391763413776	0.801728801860678
11.8	-0.958312919729349	-0.0583233719607279	-1.07203873787573E-06	-7.40744333240665E-07	5.16796856635232E-06	1.07692204159607E-06	0.662846992344508	0.724318516238383
11.9	-0.960941795925536	0.0205946574975316	-3.22128822212724E-06	-5.20765894650938E-06	-5.39458663823301E-06	-8.00825945312073E-06	0.748794082169071	0.636627782146074
12	-0.956771240020536	0.0987572942265614	-2.94464844159809E-06	1.64658171282156E-06	-1.67511001620722E-05	-8.73622274022625E-06	0.825350292784054	0.537614453861547
12.1	-0.9475979761253	0.177038350183194	8.23180928769337E-07	-1.56816611748759E-06	7.87353578887365E-06	1.22627232522143E-05	0.885990139688033	0.428051504566932
12.2	-0.93060435583921	0.25518715556053	-4.09632541094652E-06	5.55022913053297E-06	4.19268623774851E-07	3.30965508105549E-06	0.932623522060784	0.313053034866916
12.3	-0.907601077737898	0.33141458775032	7.83455988759065E-06	6.37596551705216E-06	4.30018602147912E-07	1.08848288170649E-05	0.964729032383453	0.192812270147816
