# GHZ S RI R 50
0.2	0.989841463811316	-0.155840551910293	2.56797019035945E-06	2.26367350152332E-06	6.60452520151555E-06	-4.87026845598468E-06	-0.970102288303941	0.249609847614702
0.3	0.974560870432681	-0.233219946433463	-8.62106882280004E-07	-5.48076863173067E-06	-3.45930863667457E-06	-7.99089414954505E-06	-0.932206045520348	0.369795355833061
0.4	0.954167733792423	-0.309087090592568	-7.31932861347361E-06	-1.01984285412384E-06	4.46285783994768E-06	1.56816480272678E-06	-0.8795462136769	0.484801542568151
0.5	0.927830702471558	-0.384715207054361	6.24275876103584E-06	2.12951613950428E-06	-2.42923193774527E-06	-1.92576045377433E-06	-0.81138179555026	0.594577324985584
0.6	0.893732322146372	-0.456201090971232	-1.06218498814177E-05	2.4653445071772E-06	-2.23159949385503E-06	-1.01594848571086E-06	-0.728277165031152	0.691380447407535
0.7	0.855909776492495	-0.524392915432053	2.80559934648904E-06	-1.17587013728814E-06	-3.01773071589526E-06	5.8242154186614E-06	-0.636145229474856	0.777723234370063
0.8	0.812656258308599	-0.590488863690615	1.1977983177565E-06	-8.54097743565931E-06	-6.66844738511778E-06	-3.10368489829547E-06	-0.533287888668377	0.852417308648555
0.9	0.763740787427444	-0.653325166419551	-1.15588557826092E-06	-6.87823917945283E-07	2.5639606950771E-06	6.60126574882336E-06	-0.421558396231498	0.913399995831116
1	0.709472570432025	-0.711241805178268	-2.76681558992754E-06	-3.25149107274515E-06	-4.05053985316773E-07	-7.37925785546516E-06	-0.303180047632449	0.959653897407753
1.1	0.653003482694831	-0.765223326190301	1.82492268502853E-06	-4.98560036486024E-06	2.29265351897165E-06	-5.18070095672022E-06	-0.179080643419583	0.990786945233616
1.2	0.590145761360393	-0.815967470116132	-2.5186381602894E-06	2.51602921979406E-06	9.34595859189584E-07	-9.19805822381266E-07	-0.051597350763107	1.00522938330272
1.3	0.521321946898071	-0.861296742159438	-1.55130812367954E-06	7.28188455272137E-07	-1.3660715303366E-06	1.47876678866063E-06	0.0768834367826232	1.00314617730761
1.4	0.449166145864572	-0.899347685406334	3.94845398329131E-06	-3.27680932361412E-06	2.75036136175523E-06	1.10261262323633E-05	0.204072680310166	0.984132999316474
1.5	0.378422348914137	-0.93137547078863	-5.3796926002554E-06	1.12846604423813E-06	6.63158908723767E-06	-7.27846981461474E-06	0.328067318981564	0.950204623653664
1.6	0.303568663101117	-0.961902582007197	1.77435915893793E-06	-7.81695135232233E-06	3.66992055729063E-06	1.38681523401657E-06	0.44536579759551	0.899608175153236
1.7	0.226235518490496	-0.982940251657967	-1.9641041782376E-06	-9.72500992030856E-07	-2.44914408029629E-07	-2.10699371277941E-06	0.554197470864246	0.83682380299953
1.8	0.147644469495859	-0.997446607391812	2.89948731615553E-06	5.32114988514351E-06	1.19243961331923E-08	2.05183985076746E-06	0.654680339851333	0.760484239948065
1.9	0.0695765277167401	-1.00589933178988	5.72685146334059E-06	-2.67563488140658E-06	-3.02863348112702E-06	4.28790907872608E-07	0.743643160577658	0.673870746793266
2	-0.00884563246634478	-1.01164679761468	-1.5804992328445E-06	-2.05182907529585E-06	3.30807500796686E-06	1.16228019439897E-05	0.827473651633479	0.577772338056991
2.1	-0.0930610329944701	-1.00763643202715	-7.63801288077652E-06	2.56185622364548E-06	1.27343510675831E-06	5.20783807892958E-06	0.894897331779457	0.462637047940995
2.2	-0.17196303356919	-0.99598096423122	-8.79712580936324E-07	1.42021484819647E-06	3.1191233159209E-06	7.84086805282217E-06	0.943337816779545	0.344999346419817
2.3	-0.251002550223532	-0.978366387583943	2.59527494454131E-07	7.53763226278664E-06	7.580939312805E-07	9.41852567493665E-07	0.977492448635654	0.224124943386799
2.4	-0.328773028964841	-0.954116678431764	1.67609886420872E-06	7.23886038909604E-06	1.60861519361414E-06	6.44385886218905E-06	0.997520480253111	0.0991229580204167
2.5	-0.403387229438383	-0.924033032757574	4.41145535754007E-06	-2.39393591720182E-06	-2.0287815751217E-06	-7.63312198381893E-06	1.00206301056385	-0.0274585354611978
2.6	-0.475381444942714	-0.888093204289257	6.76254582758331E-06	-6.09613581440125E-06	-1.10735642546091E-05	1.10868811837028E-05	0.989741749657861	-0.154309033830391
2.7	-0.544727677920908	-0.846699900572406	-4.35766644820864E-06	9.2988346406377E-06	-3.03250676696763E-06	-9.2115504211247E-06	0.961734394540092	-0.278560895968178
2.8	-0.610046072698707	-0.800141903281057	2.49949976453663E-06	1.11616097888441E-06	-3.13888239560905E-06	1.30495687073896E-06	0.918395760170673	-0.397968190486119
2.9	-0.671349620782254	-0.747388197723888	-5.44284896957598E-06	6.16742496548421E-06	-9.28221176886358E-06	-1.22815708957215E-07	0.859551117895642	-0.510121353066072
3	-0.723609952235627	-0.688270748417184	4.451796297894E-07	-1.49099343098181E-06	1.14195458089298E-05	1.24150969805904E-06	0.787581534214852	-0.614128062868927
3.1	-0.773485109809831	-0.633096043331961	2.61306414866689E-06	1.04854039819082E-05	4.38087854451595E-06	2.09902060490825E-06	0.70241449471594	-0.708021636397687
3.2	-0.821502377163716	-0.570781618809724	2.23197293087936E-06	6.44090602697866E-06	3.80861330705026E-06	-1.07056528479859E-05	0.606328142829548	-0.789145715186464
3.3	-0.863371174333694	-0.503823513672255	3.17913614277114E-06	4.90451319445179E-06	-2.41291775928824E-06	-9.63016885606098E-06	0.499741251439326	-0.857462362853096
3.4	-0.897148301080558	-0.433899073374367	2.07080172531895E-06	-2.63564757283627E-06	5.96590785872599E-06	1.26821679752036E-06	0.387412967788088	-0.908997860920505
3.5	-0.925538249335295	-0.365319577692633	-3.21883274697892E-06	9.8645993155272E-07	-2.0228073586487E-06	3.44142846622958E-06	0.276452523480595	-0.947799214155425
3.6	-0.955113550994688	-0.291689640107748	-1.87328304291661E-06	-3.72004307474201E-06	-7.76882644087284E-06	4.23307181817563E-06	0.15377231902052	-0.980206590253269
3.7	-0.97445390534829	-0.213750145841605	6.75593892345753E-07	-8.33589708540141E-06	1.08261616156547E-05	3.50565971911618E-06	0.0261699172073546	-0.989774030648805
3.8	-0.986815479397594	-0.134874681247545	1.18974756320892E-07	1.54157872553731E-06	-6.39896985271246E-06	6.05185974791123E-06	-0.0981590613176462	-0.982785946218672
3.9	-0.992240889152595	-0.0562486233368897	-2.70582059580035E-06	-4.96869042201455E-06	-3.55621064292885E-06	8.06577208333655E-06	-0.220907167754884	-0.961529301507919
4	-0.990723439925021	0.0222504967158662	7.10315578230625E-06	-5.15507742058069E-07	-1.06493477396483E-06	-1.18276057904492E-06	-0.339750229293602	-0.927967638490008
4.1	-0.984914822477142	0.0985480309093844	6.07279698759073E-07	-4.5351964230606E-07	7.21621740627326E-06	-4.87354346648604E-06	-0.456047378770286	-0.875777803935494
4.2	-0.973740578698962	0.175071471572756	3.21977253108781E-06	2.0273044682183E-06	-7.2704347194488E-07	-7.42801607189641E-07	-0.561657392150203	-0.809118660072129
4.3	-0.957270234027614	0.249633447009529	-3.13858315912262E-06	1.41472870771358E-06	-4.90257370610712E-06	3.041075149972E-06	-0.657480736763989	-0.731739715052041
4.4	-0.93613412882229	0.324628153766046	8.37836887186761E-07	2.61030026034174E-06	1.4162353670133E-06	-8.29277171385665E-06	-0.7434383342531	-0.643513968622683
4.5	-0.903195755441822	0.40125333429339	1.79731604451455E-06	-9.68584217324361E-07	7.58850987516774E-06	-3.94906088951291E-07	-0.818334646926423	-0.543948307325954
4.6	-0.864277023270576	0.465540931478442	-5.98485071540343E-07	6.0835313284542E-06	-1.23513879795676E-05	-6.17226083936757E-06	-0.878261079108355	-0.436811611508631
4.7	-0.826213073106532	0.528246390478433	1.23354706773907E-06	2.45832079350905E-06	1.43840641871446E-06	1.81749182350949E-06	-0.925916806371283	-0.323398740825999
4.8	-0.78196720840948	0.591023592933689	-4.9070673239057E-06	1.10727481539369E-05	5.33797607871031E-06	9.46583146558601E-06	-0.958814767757837	-0.203541480645253
4.9	-0.731313404634171	0.650836256907742	1.23642213296314E-06	2.86216453829242E-06	-6.08731099326761E-07	-6.7948122488114E-06	-0.975267652244504	-0.078161887369537
5	-0.673189769098746	0.700021016119459	4.61592237176299E-06	-9.68968088801103E-07	-3.61506120066312E-06	2.43052201367766E-06	-0.968550049552855	0.0438485856827479
5.1	-0.622411895668829	0.746443432924174	4.0396849661633E-06	-1.79119749912525E-07	-2.69405658091052E-06	-9.5662236481711E-06	-0.957625457569161	0.158437568973477
5.2	-0.563971607772814	0.794807176083115	2.4397137828144E-06	-1.46927432275751E-05	1.37225498033527E-06	2.75023364856832E-06	-0.931531296568995	0.277776898728756
5.3	-0.500299230100095	0.837347894018027	-8.52681931780776E-06	-7.08532721664489E-07	-1.10928923742639E-06	1.62914996390872E-07	-0.888805582513827	0.392062299855795
5.4	-0.433473002914797	0.874644227101091	-7.06418187567547E-06	-1.07995244996221E-05	-1.34099716432199E-05	1.09974132421549E-05	-0.832199132609406	0.498599530426347
5.5	-0.362393074286965	0.905309353978531	1.87331254491292E-06	8.31762978954999E-08	-2.20354765349139E-06	1.7592871644252E-06	-0.765440808405478	0.596871568050317
5.6	-0.291949613251175	0.928168213601835	-2.34574951431946E-06	3.46288896284464E-06	-1.31036347111562E-06	1.27296818810435E-06	-0.686082442553907	0.688460161099134
5.7	-0.220527241791124	0.948038964900261	1.28391131021066E-06	1.20108259053252E-06	5.64322432563668E-06	-1.38552455930187E-07	-0.595119752147055	0.768379222969159
5.8	-0.147802287568183	0.96206152383624	2.64725742630032E-06	4.1605526779614E-06	-2.05976950844548E-06	4.14979975266519E-06	-0.495372547781433	0.835336189731739
5.9	-0.0760922085609012	0.972502647640861	-6.71271727680281E-06	-2.27710552243813E-06	-1.03616170144634E-07	6.14007483723171E-06	-0.390789523371666	0.889966241629036
6	0.00217252988715838	0.983565361957726	-1.76621652537334E-06	6.89866760339053E-08	-5.3321067184907E-06	-4.38273366558709E-06	-0.278246885599534	0.937221339367784
6.1	0.0850512387210627	0.976467906519816	8.81660069354933E-08	-9.8017688096497E-06	-9.57017388126332E-07	-3.18293124274313E-06	-0.155320889085823	0.963451073893253
6.2	0.160553033561653	0.963544085646626	-1.01921156075059E-06	3.06867926642042E-06	-1.75054380696386E-06	4.15358130730995E-06	-0.0340783480613497	0.973315605657221
6.3	0.234173611454112	0.947192322583156	-8.05256995355001E-07	2.78907517100475E-06	-2.9074958388664E-06	2.35208493759276E-06	0.0865950401755469	0.969620017606094
6.4	0.308309912463422	0.928436029389118	-5.92142603459711E-06	5.45874905380195E-06	-2.35159004217193E-06	-7.49840201813945E-07	0.207781936272201	0.954015141267152
6.5	0.387718792416789	0.896772787461032	1.36905543098382E-06	-5.21867134385554E-06	-1.43972904691021E-06	-2.34369973990109E-06	0.333065713072476	0.916541966048263
6.6	0.448924505110115	0.857347836320583	3.57757928925581E-06	2.00381836530464E-07	1.10644162983332E-05	-2.63779342027954E-06	0.437933438070221	0.861500411569818
6.7	0.510692091286003	0.822183848875911	-7.61720356132424E-07	8.25170760259138E-07	-3.70394390974247E-06	5.09738278639634E-06	0.53792729542888	0.80257225763973
6.8	0.572296024099357	0.781744062112121	-1.74486811550132E-06	4.37091224087651E-06	1.4258551824143E-06	-8.52771524725165E-07	0.632185741528961	0.731211865881069
6.9	0.631179894056194	0.736678974662476	5.74797436293729E-06	2.25540114776661E-06	-9.33701115911751E-07	2.34545085481322E-06	0.717156076391566	0.649071799598721
7	0.688453346543339	0.686471699925559	1.19225852352893E-06	-4.04128729089767E-06	-1.45125809031925E-06	2.8291920177765E-06	0.794227435482023	0.556893756687769
7.1	0.740066207477096	0.629885517451004	2.47571647740962E-07	-7.02794883908811E-07	1.79644874285788E-06	9.07152053849872E-06	0.857316402303307	0.452386261161603
7.2	0.78652410021231	0.570197502461992	1.3971126970379E-06	-2.35363978480374E-06	-8.71244896134219E-07	-8.43799278606054E-06	0.905681910083937	0.342642072637694
7.3	0.827871748260505	0.506560118260172	4.6502432234575E-06	7.16272597458917E-06	-9.57274161028951E-06	2.15841265467463E-06	0.939334290328016	0.227587073479025
7.4	0.862042894419556	0.440965317037756	4.98474334075634E-06	-5.94434294164862E-07	2.0308719015652E-06	-9.38217411550323E-06	0.955973966697432	0.111784350869507
7.5	0.895558384686863	0.379408770092282	2.81122097527153E-06	-5.09195906323876E-06	2.23145738389689E-06	-7.02618126272645E-06	0.967032341110827	0.00181412039854434
7.6	0.929006940469384	0.306316724164677	-1.38857937246421E-07	-5.54622769588498E-06	1.63576239928893E-05	4.30328253756566E-06	0.966612547754145	-0.122922614993762
7.7	0.951623963544257	0.230761828879142	3.46289867898711E-06	2.14880275698198E-07	4.06999523035628E-07	-2.87225193282302E-06	0.944292922193403	-0.244274206477815
7.8	0.968093145664944	0.155482101647491	-1.07798155722906E-05	-2.24686665280246E-06	-3.10482247418281E-07	3.38967870182898E-06	0.908085363839435	-0.360089268024389
7.9	0.981082583012106	0.0815486246260787	2.26423471528488E-06	2.1002416118107E-06	-6.71816409537796E-06	-4.92587288306662E-06	0.861536430189281	-0.46981994382998
8	0.996959109681884	-0.000431722729597857	2.2632771487254E-06	3.05111594161539E-06	-9.12627787453639E-06	-7.96204519143867E-06	0.804701155042216	-0.585513859407967
8.1	0.990403871906016	-0.0895549756821535	3.9210401213755E-06	-2.99762656351065E-06	2.23415732142678E-06	-3.15275165586621E-06	0.714714609385441	-0.688384356701239
8.2	0.977646679769453	-0.167539151455365	-4.07961685506584E-06	1.33215272337519E-06	-6.78261529677881E-06	2.13758406580744E-07	0.620371598304135	-0.769585238558313
8.3	0.961370708885522	-0.244695565446201	9.88752819547095E-06	5.09036397621338E-07	6.03844959902557E-06	1.06152281711106E-05	0.519167896822853	-0.840119163555116
8.4	0.939695754082368	-0.321163058328416	1.23599249934474E-06	2.58920071277782E-06	3.43209298911873E-06	1.89797606903976E-06	0.410631343065896	-0.897598467552675
8.5	0.91178190155659	-0.397362113997977	-4.9580268873533E-06	4.85292479359448E-06	2.92397806053964E-06	-2.95716515419511E-06	0.298653418438226	-0.943656809451109
8.6	0.876658717044186	-0.470168025353288	-4.57478127683746E-06	1.9829308551795E-06	-3.26106650279607E-06	8.08082145925033E-06	0.176113495534154	-0.978653487602808
8.7	0.836672736361793	-0.540226481054848	-1.05934670891297E-06	1.20189448791836E-06	-7.33520337542607E-07	3.47754995623248E-06	0.0490834101134066	-0.99428036975666
8.8	0.790740078326736	-0.60745298571215	-1.67053610810461E-06	3.07911594576234E-06	-6.10466883305158E-06	1.16721375856837E-06	-0.0786889297965376	-0.993476592904712
8.9	0.738178655008891	-0.670647181864343	3.24668671786604E-06	-1.80103396748684E-06	-3.19825909750581E-06	-5.17152191710114E-07	-0.206988636954431	-0.972976297221509
9	0.681706084873509	-0.725674543178167	-7.34781056022937E-06	1.25433921986342E-06	-4.01099309742871E-06	6.72287028455367E-07	-0.321220218723662	-0.933562530677358
9.1	0.623557279637597	-0.780308251629797	-3.33646696545265E-06	-1.96073000748713E-06	-1.03194571882096E-06	2.12748057562933E-06	-0.433918343492604	-0.893471254808757
9.2	0.557985845204492	-0.829966165669412	6.06513163489102E-06	-1.52708661626041E-06	1.82349909643408E-06	8.5869022750753E-06	-0.545255562687883	-0.835097288743717
9.3	0.487742490643434	-0.873045676211311	-3.65206674699219E-07	1.07256086079265E-06	1.35319905479896E-05	1.22257780261684E-05	-0.648080263347257	-0.761124219452142
9.4	0.414386023819434	-0.90618965135494	1.80609213644964E-06	-2.64121604125832E-06	4.27847003536341E-06	1.87061441885237E-06	-0.737159036172492	-0.673256292278637
9.5	0.349111102256696	-0.937966681183529	-6.43243995232695E-06	-5.17244263108835E-06	-1.78227082255191E-06	-5.84676038642807E-06	-0.816837096016444	-0.587066357192309
9.6	0.265759461085485	-0.972863721985461	-1.1952797625836E-05	-5.80758660252337E-07	-5.95810742323793E-06	-4.26879823247343E-06	-0.898207874217632	-0.477621733311049
9.7	0.179434536329785	-0.990663056701321	1.51449536140173E-06	-4.5814337380874E-07	-3.0251671835496E-06	1.61845942018008E-06	-0.954388517897167	-0.354596104428855
9.8	0.0948576255627221	-1.00019265425899	2.23442924738958E-06	1.47878027996352E-06	1.55511095333188E-05	-3.29822180162945E-06	-0.9922705030744	-0.22816707144765
9.9	0.0116257835853838	-1.00309708219478	-3.71141586084283E-06	9.15226625332153E-06	1.40417702640573E-05	5.36492704148047E-06	-1.01351230257081	-0.0979834571353773
10	-0.072565848509945	-1.00162892813922	-3.7664246522585E-06	1.6134322944879E-06	2.00248965266377E-05	-1.83865839881002E-05	-1.01671246648854	0.0311361578078863
10.1	-0.157760679749147	-0.988362083356058	-1.54994425161165E-06	2.3458404455345E-06	-8.59428470079462E-06	-4.53894683235544E-06	-1.00757930390081	0.159881796132138
10.2	-0.237753225942799	-0.968739530167253	-2.36040447607102E-06	-1.30652606075809E-06	-1.33859995426501E-05	7.27223825249899E-06	-0.980975906802319	0.288610042900698
10.3	-0.3151451883912	-0.943652440407844	5.90070243867669E-06	4.11779474686168E-06	-6.35952953202156E-06	1.34950728645019E-06	-0.938490200713401	0.413020261625684
10.4	-0.390866990907826	-0.912457830770044	2.16656271890787E-06	1.10433861793621E-06	8.07277252433421E-07	-8.50836575205841E-06	-0.880156261252171	0.53399427402087
10.5	-0.462316119875695	-0.873176239726493	4.53125321819591E-07	-3.17111185364772E-07	-6.77758930285687E-07	-5.84001981544941E-06	-0.796611657930638	0.646097332196661
10.6	-0.528562545061059	-0.829589049021303	5.2410109359304E-06	-2.70430922205373E-06	-1.00819827912016E-05	-8.09713939675047E-06	-0.706331722289548	0.73490818514071
10.7	-0.591141638033208	-0.78133744632512	-2.90194411110722E-06	-5.0571264290295E-07	-5.41441462026151E-06	-7.36389117680689E-06	-0.609968678522995	0.817465364461198
10.8	-0.650381913139432	-0.728964734452692	-3.74804128129035E-06	-3.52398557689876E-06	-1.22660983899039E-05	9.50438013429625E-06	-0.502112491960671	0.889419063585501
10.9	-0.705770919722684	-0.668876851172895	-1.18271961817751E-05	-1.05657975524945E-05	-4.46159755340837E-06	1.13173550608042E-05	-0.382055687462596	0.946025738656995
11	-0.743602246468135	-0.608147030289565	1.04260264214992E-06	1.42747142649311E-06	8.78065038518591E-06	-5.68078114250041E-06	-0.260041875381968	0.978202150131234
11.1	-0.789630985510103	-0.557570459882549	-3.51856213951955E-07	-3.72258163544052E-06	1.03929988351675E-05	-1.05056403982297E-05	-0.140922657924241	1.00719118326779
11.2	-0.835355765348563	-0.494807321169771	-1.09265041132253E-06	-4.01354613417957E-06	2.16957832584725E-06	-6.50407428714113E-06	-0.00977471687070427	1.01971624676271
11.3	-0.874792065860923	-0.426123951641513	1.5402923254093E-06	-1.23962427246341E-05	3.63177923250795E-06	-2.94125801145069E-06	0.122277513353705	1.0127548826484
11.4	-0.904827889921242	-0.354239866613524	1.01256600576935E-06	5.77054646717983E-09	-5.75056093549294E-06	6.70508756149094E-06	0.252084346844589	0.98779903176524
11.5	-0.931275939580719	-0.287867126706765	6.71227316047969E-06	-1.35819401181946E-06	8.46266161441364E-06	-4.25677494255018E-07	0.375931320729026	0.945589427805312
11.6	-0.959438465413431	-0.210407263489031	-7.53106439512687E-07	-5.46449520752151E-06	1.42225125703526E-06	-3.19216487958859E-06	0.492947688140951	0.887819073485288
11.7	-0.974360101320714	-0.128261985924802	-2.21675045896145E-07	-6.19495258231735E-06	8.59425002036276E-07	-2.7423343986149E-06	0.60080048994044	0.815970901916321
11.8	-0.981737148827252	-0.0457379004673494	-1.11069587308695E-06	-7.3388172400561E-07	5.30145758302717E-06	9.90436117869497E-07	0.69735399738074	0.731762795013241
11.9	-0.981357067521586	0.0385474819572428	-3.38448276765049E-06	-5.25090102490734E-06	-5.65437478548801E-06	-8.06640058135387E-06	0.781827742777839	0.641403660038175
12	-0.97180083503942	0.120866312053588	-2.98377530789215E-06	1.74397955955408E-06	-1.73273640040872E-05	-8.62047562460467E-06	0.864990583708006	0.537532195898918
12.1	-0.959079309651133	0.200498134936476	8.03766123983407E-07	-1.62344336175505E-06	8.34791330752083E-06	1.2348484487321E-05	0.920612788416514	0.415907027968559
12.2	-0.93856671922974	0.279716171111236	-4.0429364498524E-06	5.76757771279119E-06	5.10505330367827E-07	3.36789218759346E-06	0.961691884819518	0.296990765434691
12.3	-0.913158791927017	0.357348413005568	8.1612238352239E-06	6.30560910576153E-06	7.19908123563985E-07	1.10988932974362E-05	0.990354425785682	0.173515771668125
