# GHZ S RI R 50
0.2	0.985186065958324	-0.157037230606184	2.56372201602869E-06	2.24784381752346E-06	6.56528413532314E-06	-4.86833262169808E-06	-0.965777192069932	0.251915944557739
0.3	0.968991549724994	-0.234116436827872	-8.75649187314644E-07	-5.44986404419601E-06	-3.46776974428511E-06	-7.93861901461341E-06	-0.92588966640123	0.371890596359986
0.4	0.94725075502317	-0.309390970375182	-7.27273312520489E-06	-9.86186223508888E-07	4.43789212249331E-06	1.54113868277633E-06	-0.870809205327321	0.485434049413466
0.5	0.920072191544122	-0.382458849441492	6.19234771298047E-06	2.10033225068284E-06	-2.411502739104E-06	-1.90490117862366E-06	-0.802225787447767	0.590980351607623
0.6	0.887299165703288	-0.453219456242356	-1.05401792423851E-05	2.4596309320053E-06	-2.21625545641532E-06	-1.00577595530866E-06	-0.721091898457472	0.687293949883537
0.7	0.849150180478959	-0.520921262723377	2.78102256254361E-06	-1.17131997274553E-06	-2.98334693326943E-06	5.78271241784831E-06	-0.628402863079292	0.772666335508842
0.8	0.805795985141485	-0.585744592851352	1.17406555423079E-06	-8.46619878272416E-06	-6.61336138067675E-06	-3.0657070269776E-06	-0.525694420082328	0.84537134143765
0.9	0.757602871277841	-0.647178403348763	-1.14538043788666E-06	-6.80164885280956E-07	2.5452236703606E-06	6.53543145732229E-06	-0.414886106719192	0.904411227545418
1	0.704470931757374	-0.705225045853723	-2.7416946210025E-06	-3.21834839833434E-06	-4.05170846366922E-07	-7.30726944937962E-06	-0.297815396721546	0.948825662360946
1.1	0.647097373552468	-0.758704329004825	1.80327612967529E-06	-4.93406450782105E-06	2.26599177531597E-06	-5.12734340438018E-06	-0.17598924407033	0.978389723985933
1.2	0.584567119519678	-0.808049600371855	-2.49128110660678E-06	2.48736455254613E-06	9.24440755364342E-07	-9.0932296692573E-07	-0.0511944062965857	0.992156719409514
1.3	0.516851259984185	-0.852331041787493	-1.53511059916691E-06	7.17763662446878E-07	-1.35305640499862E-06	1.46025601699634E-06	0.0740961414050135	0.990414889422011
1.4	0.446281074476728	-0.890735890984958	3.91644318296649E-06	-3.23305942613731E-06	2.69376505423435E-06	1.09202411436852E-05	0.198695756100921	0.972689511662199
1.5	0.373022435099625	-0.922818674051385	-5.3279265683505E-06	1.1059434136551E-06	6.58000347261215E-06	-7.19148980420903E-06	0.319748621702004	0.939641681771196
1.6	0.299772613360035	-0.948041360826557	1.77739721645363E-06	-7.72245939594878E-06	3.62390851861075E-06	1.3819218213255E-06	0.435481915291559	0.891899633657088
1.7	0.226240623567852	-0.968062451049859	-1.93709110876634E-06	-9.69291472076328E-07	-2.33291996264395E-07	-2.08336990579283E-06	0.543802412123882	0.830446505016467
1.8	0.150225884692164	-0.982961609233096	2.84112263168108E-06	5.2736938663838E-06	2.12271565139616E-09	2.02833063989815E-06	0.643962285530358	0.755466118301761
1.9	0.0729305417859168	-0.992010587873052	5.66839093346434E-06	-2.62366824663042E-06	-2.99423191414123E-06	4.13004013164942E-07	0.733593057046671	0.668352687104853
2	-0.00430673590187131	-0.994199692454021	-1.54376592675721E-06	-2.02351053659349E-06	3.19774655623716E-06	1.14366274354599E-05	0.810737212323841	0.569820053404631
2.1	-0.0822167633049374	-0.990902147263966	-7.54431240199005E-06	2.43889763044426E-06	1.19711464931718E-06	5.13885165809309E-06	0.875069565198744	0.464690913472643
2.2	-0.158483570013962	-0.981730213627786	-8.8433836211061E-07	1.39096153340599E-06	2.98648297177987E-06	7.77168301371848E-06	0.927105866733502	0.351505382271152
2.3	-0.235183487695006	-0.966057724282792	1.66400048045184E-07	7.44577046702834E-06	7.37315741505765E-07	9.39024965035205E-07	0.963772088132885	0.23273910114154
2.4	-0.310516239068768	-0.944290874317862	1.56435853186471E-06	7.17043685937163E-06	1.50770515066412E-06	6.38441586155582E-06	0.985654957968414	0.109294926969318
2.5	-0.383521287539943	-0.917691581191748	4.39214074250809E-06	-2.30285364560301E-06	-1.89662309528309E-06	-7.56987217406787E-06	0.99131062373135	-0.015017681743332
2.6	-0.454981672509001	-0.88465079102862	6.77900866531269E-06	-5.92794159848559E-06	-1.11170150046426E-05	1.07992868866011E-05	0.981887989544217	-0.139732399569585
2.7	-0.523629344969437	-0.845906700652477	-4.45893948544126E-06	9.12752243161165E-06	-2.85192383164288E-06	-9.1594987708924E-06	0.956194938568742	-0.262286569847877
2.8	-0.587874888986582	-0.80237679637488	2.45322310144552E-06	1.14852130419609E-06	-3.12864117831257E-06	1.23558492884915E-06	0.916243367227901	-0.379769395276571
2.9	-0.6480289878912	-0.754874396825475	-5.51119493037365E-06	5.9950596192989E-06	-9.18494119929936E-06	-3.08089390560564E-07	0.861586925059853	-0.491280936104419
3	-0.706265440286568	-0.702671849894701	4.7695802801141E-07	-1.47083302771727E-06	1.13156017999191E-05	1.49914952768155E-06	0.793369982992321	-0.595471797243864
3.1	-0.759835734761362	-0.644544945562131	2.37343276307873E-06	1.05026893362541E-05	4.31820886973916E-06	2.18698273130894E-06	0.713145935999404	-0.689579483447208
3.2	-0.807590621215478	-0.583273037536317	2.08453285686105E-06	6.47233599948104E-06	4.03318717328057E-06	-1.05928881777938E-05	0.621970321372848	-0.773478019447327
3.3	-0.850681767877182	-0.518982005601425	3.0664580988036E-06	4.97358671633784E-06	-2.19385077233283E-06	-9.67923157587979E-06	0.519887519368508	-0.846047199515695
3.4	-0.888314973537516	-0.451964608662852	2.13606558072961E-06	-2.60025121796401E-06	5.9604429189022E-06	1.4032062803895E-06	0.410861805753107	-0.905489559825442
3.5	-0.921747620360599	-0.379642297109688	-3.24590396398518E-06	9.4253628804823E-07	-2.0816637850271E-06	3.42473144520786E-06	0.292436507245628	-0.951122348110131
3.6	-0.947618414434375	-0.305768581844454	-1.80723214053361E-06	-3.74862027542524E-06	-7.83404272032903E-06	4.09481072929752E-06	0.170540931659724	-0.979249059153498
3.7	-0.968306927711619	-0.231385285400777	8.40168282484192E-07	-8.33090213619339E-06	1.07679973439753E-05	3.72201241191034E-06	0.0461845134235626	-0.993163426887606
3.8	-0.983705529208048	-0.154619035597446	8.89644317696239E-08	1.54860964852829E-06	-6.53765796882968E-06	5.94418740895147E-06	-0.078774315277021	-0.991461288870725
3.9	-0.992960241091925	-0.0774143122607151	-2.62169086687166E-06	-5.03822913089861E-06	-3.72205135360623E-06	8.02812939372182E-06	-0.204630343667837	-0.973899640634011
4	-0.996685478685827	0.00152347955251783	7.13627355382277E-06	-3.67722727906543E-07	-1.04339718007369E-06	-1.20886855197541E-06	-0.324918699570043	-0.940052295234347
4.1	-0.9939563264557	0.0804238785110926	6.21690210248111E-07	-4.43072701462732E-07	7.37589640126475E-06	-4.74580215872931E-06	-0.440261483453143	-0.892302227072341
4.2	-0.984849838720622	0.158939560638822	3.20751218958793E-06	2.11465575584985E-06	-7.18248317894358E-07	-7.65235377423119E-07	-0.549296716676004	-0.829932128973645
4.3	-0.969581456787945	0.235502889247034	-3.20028724585363E-06	1.3699520027046E-06	-5.01493585533972E-06	2.98027182558593E-06	-0.649482869201373	-0.754830882517751
4.4	-0.947911298163555	0.310330330500616	8.02787009568721E-07	2.65001305812774E-06	1.56790001701103E-06	-8.35124010303099E-06	-0.739336625267094	-0.667196743860922
4.5	-0.921676318818073	0.382292789898974	1.82843128977117E-06	-9.37461112671844E-07	7.64359272407633E-06	-2.40652324954229E-07	-0.817343715368026	-0.569051253464561
4.6	-0.890048629984097	0.455240426452845	-7.48981910579E-07	6.1431364747501E-06	-1.23556799258819E-05	-6.5378666970517E-06	-0.882259564662831	-0.461833449630351
4.7	-0.851529141594996	0.5238021110967	1.19782422686529E-06	2.52214355195037E-06	1.41984718812381E-06	1.87626674864216E-06	-0.933506909039062	-0.347549410457002
4.8	-0.806919155201544	0.589886680668415	-5.22953911894839E-06	1.11489097634158E-05	5.21994689847357E-06	9.73870471956622E-06	-0.969594511520482	-0.227274116928454
4.9	-0.757935772107239	0.65106477099566	1.19224394922736E-06	2.94674061918281E-06	-4.58987992538546E-07	-6.94030546826159E-06	-0.990303151290156	-0.103668447010063
5	-0.705410818487478	0.709708578225768	4.77029307608495E-06	-8.97372551395979E-07	-3.77203420794282E-06	2.42278299941302E-06	-0.996750066885738	0.0217437951186314
5.1	-0.64509314319191	0.764315600843218	4.15751574979665E-06	-1.33158944828548E-07	-2.65015464733158E-06	-9.87395876737443E-06	-0.985990899272486	0.148455485019125
5.2	-0.581884404798077	0.81240154137162	2.66195989702177E-06	-1.50694084496779E-05	1.38075328925526E-06	2.84008496113375E-06	-0.959281166477722	0.271781915165453
5.3	-0.515935444885863	0.855621527815523	-8.76025488477354E-06	-7.97518516867335E-07	-1.14172539391963E-06	1.58493798896531E-07	-0.917589790014734	0.391034159152775
5.4	-0.447102672391395	0.893703936541838	-7.22291544616016E-06	-1.1124017925052E-05	-1.38206265531219E-05	1.12563376055886E-05	-0.860709720185977	0.504103397162513
5.5	-0.376004464692097	0.926337715366224	1.91345986192687E-06	8.87700211713399E-08	-2.25454309388101E-06	1.79267520516981E-06	-0.789996375601211	0.608680602012198
5.6	-0.301538620728483	0.953541674000841	-2.42160087225606E-06	3.52959994987264E-06	-1.34872043062428E-06	1.29477192912497E-06	-0.706846407543283	0.702525222664392
5.7	-0.224781745610453	0.974453877557438	1.31256961850644E-06	1.23839748110378E-06	5.79282804096647E-06	-1.17585896678328E-07	-0.61321310977823	0.785629882640858
5.8	-0.146646962290999	0.988589917134599	2.71943793018321E-06	4.28339606472014E-06	-2.12349138698498E-06	4.26751547023523E-06	-0.509452023531762	0.856552931467741
5.9	-0.0673733395753811	0.996240618537549	-6.93661958294071E-06	-2.30432398821822E-06	-6.68667489006632E-08	6.33199031363592E-06	-0.397308596954211	0.914058469175611
6	0.0105551609437832	0.995600540027376	-1.80085140576109E-06	9.82099277390293E-08	-5.50900190679939E-06	-4.38736354589722E-06	-0.278518438644881	0.955244686445024
6.1	0.0865755926382442	0.991768226082733	1.01798176814806E-08	-9.94472078335347E-06	-9.96645151479142E-07	-3.22138127743734E-06	-0.157305923957166	0.981872572708959
6.2	0.164520869717388	0.982127874924092	-1.01553485129812E-06	3.12331395858525E-06	-1.75138328444335E-06	4.22990778604142E-06	-0.0323196957677485	0.993246783573395
6.3	0.242151218026686	0.96604056532243	-7.9885564974685E-07	2.83850610089456E-06	-2.93718972379391E-06	2.40901737232863E-06	0.093060048708077	0.988721899392106
6.4	0.318245617641041	0.943047710420953	-5.96120333316339E-06	5.57058977630427E-06	-2.38741006226642E-06	-7.43482879179638E-07	0.217008289480379	0.967950077556237
6.5	0.39040168022553	0.91590881609651	1.40210650310038E-06	-5.28329734464226E-06	-1.45188434083103E-06	-2.37865255568199E-06	0.335014361349057	0.932871220217853
6.6	0.463958145599788	0.883861215763012	3.6684948227284E-06	2.08963584247938E-07	1.13487591097335E-05	-2.69421187625955E-06	0.450939903274679	0.884819213639848
6.7	0.533801257958817	0.843408649518392	-7.78670133349275E-07	8.52355231826877E-07	-3.78058251959271E-06	5.25997437188989E-06	0.558965828415913	0.820675642076999
6.8	0.599424747662811	0.797748354337917	-1.75495622593147E-06	4.51344366157309E-06	1.45921560540536E-06	-8.90606210340469E-07	0.657624152739092	0.743749342073497
6.9	0.66095500894523	0.746992481550271	5.95828670063687E-06	2.24542224759004E-06	-9.30045855645342E-07	2.43145514990303E-06	0.745829359530397	0.654942623909656
7	0.7175304720954	0.69144862364806	1.12792740297948E-06	-4.17574960511055E-06	-1.42243055540126E-06	2.93792244389584E-06	0.821435875718155	0.555487653482259
7.1	0.769822753427176	0.63260118254058	2.3816311594624E-07	-7.21300091919794E-07	2.01388319818042E-06	9.20973700029334E-06	0.884110067843348	0.44848359885482
7.2	0.817578857464238	0.569105667987111	1.38220864241718E-06	-2.42542435855669E-06	-1.04094421667338E-06	-8.58909643468015E-06	0.933236300983415	0.334384485978634
7.3	0.860042738252535	0.501788875000201	4.87175351428102E-06	7.23659277564234E-06	-9.74060687832897E-06	2.36772981976521E-06	0.967626467198389	0.214876170744454
7.4	0.897994938152181	0.43110754795502	5.11504421048187E-06	-6.96943843772993E-07	1.92672517336381E-06	-9.68160730489393E-06	0.987899896998402	0.0912632098792573
7.5	0.929776867528754	0.355586748148104	2.73689409635622E-06	-5.34901873184531E-06	2.07532551185013E-06	-7.32726064576523E-06	0.990961630778556	-0.0364124849066928
7.6	0.953883659953341	0.279400920865665	-3.47088432788456E-07	-5.6568346071606E-06	1.68583177678836E-05	3.78749807701979E-06	0.976514363898253	-0.160348724366448
7.7	0.973095381144311	0.201606464164539	3.53099918911135E-06	9.00823063925446E-08	3.07459677618571E-07	-2.93722795638316E-06	0.94833729272892	-0.281992321374878
7.8	0.985957201241273	0.122137523879665	-1.10240504580406E-05	-1.85169333744979E-06	-1.80522020237352E-07	3.45077147136597E-06	0.90492863770892	-0.399400404225684
7.9	0.991839262978052	0.0409921956717809	2.3779167290086E-06	2.01571855788761E-06	-6.99658199932794E-06	-4.66415025291287E-06	0.846380000743835	-0.510626481245293
8	0.988150912648906	-0.0388338089430536	2.37224628055036E-06	2.92532968272189E-06	-9.38003384085955E-06	-7.49609161850786E-06	0.772654851652924	-0.610309151727937
8.1	0.982009947528859	-0.115305786724454	3.7970886200237E-06	-3.07893886889085E-06	2.12258630803162E-06	-3.18471368909747E-06	0.692906808933469	-0.699917085177174
8.2	0.970115649324938	-0.193361502569174	-4.01833941457471E-06	1.4294440281224E-06	-6.73272935537907E-06	3.88590171856342E-07	0.601308304151551	-0.781795494817326
8.3	0.950960569650868	-0.270720737170748	9.83982928938582E-06	2.58071689420776E-07	6.26761993697634E-06	1.03989528276396E-05	0.499084010706677	-0.851367513777927
8.4	0.925337418966867	-0.346230469064562	1.28985021743827E-06	2.54706515393282E-06	3.45852140159593E-06	1.80831455369568E-06	0.388565819263186	-0.907889437033568
8.5	0.893747038069318	-0.41942722357858	-4.82071679389773E-06	4.97472598164121E-06	2.84048834442871E-06	-3.0288196063375E-06	0.270303115297213	-0.949054753300863
8.6	0.856525120932008	-0.490011153371919	-4.48232192498936E-06	2.10376098070843E-06	-2.99774202218512E-06	8.11777225055589E-06	0.150057246184347	-0.974397000117747
8.7	0.813569984187385	-0.557429944159066	-1.01406920536012E-06	1.21753294092747E-06	-6.29011026382831E-07	3.45831688377532E-06	0.0273672277000522	-0.985772892892165
8.8	0.765378053956204	-0.620811259149832	-1.56981400022812E-06	3.07638095189557E-06	-5.98771290646515E-06	1.30241610219133E-06	-0.0956838043845983	-0.982097836199282
8.9	0.712916922062662	-0.680080152403379	3.16035504059009E-06	-1.83286766613436E-06	-3.15624013659744E-06	-4.48732714369797E-07	-0.217440580114185	-0.963313358297032
9	0.655469032987807	-0.73580287073139	-7.27465451444043E-06	1.35493174632387E-06	-3.97124479913258E-06	7.2729006809483E-07	-0.337974964177529	-0.930839780945076
9.1	0.593174249175411	-0.785759232999455	-3.3551123570043E-06	-1.87565198870434E-06	-9.79220939664616E-07	2.13469915370021E-06	-0.453763732713885	-0.880171812004003
9.2	0.527349290524221	-0.830455030417846	5.97622302299288E-06	-1.64985893102055E-06	2.00036197620762E-06	8.46864600874744E-06	-0.561062710712698	-0.816295756779982
9.3	0.458386340709534	-0.86996940830525	-3.36884457391495E-07	1.07056328323221E-06	1.3682724670922E-05	1.17943554053163E-05	-0.659601623172642	-0.738798261161244
9.4	0.386198210820355	-0.904508899595332	1.72532559090978E-06	-2.66642973094105E-06	4.292637186509E-06	1.747951477507E-06	-0.747350666393716	-0.649695222295242
9.5	0.307919923127154	-0.932487271225262	-6.52575384820767E-06	-4.84962480945664E-06	-1.97391291383551E-06	-5.68803019208189E-06	-0.823293335762468	-0.546814025449163
9.6	0.229810412432592	-0.950589758437136	-1.16338363427491E-05	-2.14080009601218E-07	-5.91575421393891E-06	-3.9741646785938E-06	-0.881383930770833	-0.438845124828099
9.7	0.151521529975781	-0.964372303454621	1.46040936671718E-06	-4.79766043959572E-07	-2.90097090642017E-06	1.64142146257803E-06	-0.92890628040221	-0.326032952677482
9.8	0.0719239784139008	-0.971941475624524	2.19938683130765E-06	1.39071605688507E-06	1.50328368107391E-05	-3.51640156481081E-06	-0.96254852920092	-0.207491655946322
9.9	-0.00839411950645435	-0.972606440395777	-3.43252273434117E-06	8.93954712983883E-06	1.37094564830606E-05	4.94710471646408E-06	-0.981864078798457	-0.0848824781454166
10	-0.087621530797742	-0.965320128245038	-3.62617901974652E-06	1.61539750874059E-06	1.9142735746547E-05	-1.80902875500635E-05	-0.985210229985399	0.0405034705338439
10.1	-0.164569024774404	-0.952603484189745	-1.47240485372587E-06	2.29630466416954E-06	-8.39765242830822E-06	-4.2889439528882E-06	-0.971436047082548	0.165004043948024
10.2	-0.240644380503027	-0.933868488634239	-2.30305907408557E-06	-1.23380302548243E-06	-1.28656693932095E-05	7.21996593672043E-06	-0.942016980025223	0.286009470855064
10.3	-0.313742587244077	-0.908504225670245	5.7470423223031E-06	3.90225997908161E-06	-6.12248464252367E-06	1.38123775875645E-06	-0.897963844319601	0.401840574655222
10.4	-0.383871704635718	-0.878128568868316	2.09070848878969E-06	1.03861115644939E-06	6.90571601318578E-07	-8.17548002462063E-06	-0.839038716919042	0.510212944311002
10.5	-0.451570004452682	-0.842053293663288	4.33736354112047E-07	-3.03010674484401E-07	-6.4378635142611E-07	-5.58744445106907E-06	-0.769406002516448	0.608974901865905
10.6	-0.514882786690182	-0.79988468906842	5.05940201946577E-06	-2.57397016850551E-06	-9.65921915658219E-06	-7.84914903207977E-06	-0.68761324046236	0.701086716211003
10.7	-0.573482486347033	-0.753095340606767	-2.79344304539013E-06	-5.07160553267843E-07	-5.16826568246102E-06	-7.13415903862613E-06	-0.594224672279804	0.781315001542659
10.8	-0.627092462045677	-0.703455786310293	-3.57800464492059E-06	-3.43330362740513E-06	-1.19157556005253E-05	9.0405693254737E-06	-0.491645228150345	0.849136176664527
10.9	-0.676409732357887	-0.652548192745803	-1.1262808738289E-05	-1.04086725630588E-05	-4.49844363848131E-06	1.08694859055639E-05	-0.382588989294544	0.903694404824116
11	-0.72521498481143	-0.600493963175334	1.00145969988093E-06	1.40873382922438E-06	8.6562041466902E-06	-5.44402824098299E-06	-0.265503950920786	0.946635840488839
11.1	-0.769523516045658	-0.541661095302118	-3.16092024813314E-07	-3.61737791355842E-06	1.01647529022763E-05	-1.01304652968867E-05	-0.14238858894149	0.970571227706689
11.2	-0.809020875237769	-0.4818506284802	-1.01432683812606E-06	-3.89710803902191E-06	2.17059092536186E-06	-6.27276822383287E-06	-0.0194307422474755	0.978891767900084
11.3	-0.845352498713477	-0.419152854881901	1.6749463019031E-06	-1.1979301469815E-05	3.55987975042785E-06	-2.79394631636811E-06	0.103071182747632	0.972855507085229
11.4	-0.877495158853416	-0.353925741336611	9.82598815304496E-07	2.26633977512253E-08	-5.69391324236512E-06	6.41038786187462E-06	0.224617718302919	0.95226320783597
11.5	-0.905867799829445	-0.284025690544074	6.52437288732723E-06	-1.2088736454961E-06	8.20526553902451E-06	-2.77584766217327E-07	0.342350655578161	0.916436028301575
11.6	-0.926503999055959	-0.21234871764995	-6.09682120776571E-07	-5.30792028110164E-06	1.44706122450306E-06	-3.05995084743987E-06	0.455363710136056	0.866002479800317
11.7	-0.941892980122554	-0.1387087109316	-6.05284298879137E-08	-6.02433242963309E-06	9.03530946382664E-07	-2.64287146914437E-06	0.560982605339468	0.801895134668335
11.8	-0.951538806526073	-0.0630910219540596	-1.06381431637084E-06	-7.44538826191112E-07	5.14324423208313E-06	1.10403595912321E-06	0.658532981679024	0.725364072931947
11.9	-0.954948296422569	0.0135611621473427	-3.18530231649382E-06	-5.21172570530751E-06	-5.338133930599E-06	-8.01687105819396E-06	0.746524309201758	0.636651256304651
12	-0.953597768465939	0.0906177155167591	-2.94185340351572E-06	1.62631490856223E-06	-1.66476026640619E-05	-8.78534782498913E-06	0.819507498125427	0.536125848836268
12.1	-0.946243534069997	0.168348885858452	8.30358714112654E-07	-1.55849708975941E-06	7.77518816902137E-06	1.22747779849659E-05	0.880572716891796	0.429611346575678
12.2	-0.931120519910532	0.246905677017266	-4.11925339415355E-06	5.51527218993921E-06	3.99576121108325E-07	3.30507589476427E-06	0.928219109301579	0.314840793992828
12.3	-0.909242955724597	0.323946056194215	7.78462377202872E-06	6.4017544335367E-06	3.73543082570889E-07	1.08628275313827E-05	0.960061480258226	0.194644807034623
