# GHZ S RI R 50
0.2	0.986069964494449	-0.156947586653524	2.56462988742135E-06	2.25108059269256E-06	6.57332782157863E-06	-4.86882035853207E-06	-0.966810535351558	0.251360842435439
0.3	0.970041981439914	-0.234082051653858	-8.72709884455211E-07	-5.45625247756878E-06	-3.46580809337404E-06	-7.94947991786031E-06	-0.927409478939439	0.371381806347577
0.4	0.948630127573927	-0.309430305089416	-7.28257315670208E-06	-9.93876328517677E-07	4.44309050246916E-06	1.54721152198399E-06	-0.872936753559474	0.485273423437043
0.5	0.921861281751359	-0.383129055913845	6.2039028450799E-06	2.1072133208493E-06	-2.41553643434725E-06	-1.90976734658616E-06	-0.804477320542323	0.591876023707385
0.6	0.888807480599265	-0.454378507223484	-1.05592149573289E-05	2.46204363637393E-06	-2.21997995652618E-06	-1.00795422858731E-06	-0.722853559706573	0.688310364679018
0.7	0.850534350511716	-0.522392989098331	2.7864812877154E-06	-1.17286205116321E-06	-2.99024925940572E-06	5.79281012817613E-06	-0.630316355057272	0.773912428067282
0.8	0.806931187205194	-0.587580529686736	1.17747271397237E-06	-8.48307613494792E-06	-6.62627951059956E-06	-3.07268856212304E-06	-0.527594304539045	0.847106991384008
0.9	0.758205766235651	-0.649207483705339	-1.14771548733647E-06	-6.81491128467357E-07	2.55060835483395E-06	6.54850455285898E-06	-0.416580349139393	0.906630630788657
1	0.704668190241825	-0.706633276136599	-2.7465070173431E-06	-3.22450987769531E-06	-4.05345067752868E-07	-7.32080167259309E-06	-0.299213887961277	0.951498020730458
1.1	0.64798357296564	-0.759888427958581	1.80885431104532E-06	-4.94397853275668E-06	2.27262635125956E-06	-5.13750874974766E-06	-0.176870233879643	0.981463039496495
1.2	0.585752120008571	-0.809564042403411	-2.49807104060761E-06	2.4928315962949E-06	9.26956694741223E-07	-9.11317981679537E-07	-0.0514090034970292	0.995452295410932
1.3	0.518102214693656	-0.854291420520957	-1.53914890866465E-06	7.19774879923812E-07	-1.35656136070038E-06	1.46423131792592E-06	0.0747511687050419	0.993650080745986
1.4	0.447205710117596	-0.892970790004764	3.9248376130489E-06	-3.24344974283883E-06	2.7064460348477E-06	1.09469690923205E-05	0.200085576846979	0.975525217946461
1.5	0.374645178903129	-0.925333304441277	-5.34124273711893E-06	1.11194244928583E-06	6.59305795348807E-06	-7.21416264862819E-06	0.321852929845618	0.942137198026342
1.6	0.300767770324676	-0.952434813260866	1.77450266703968E-06	-7.74754585976138E-06	3.63626482787237E-06	1.38220876091964E-06	0.437846529359744	0.893592260468596
1.7	0.225819565422613	-0.972785273853693	-1.94426068595542E-06	-9.69102857151951E-07	-2.37221517895888E-07	-2.08909190159781E-06	0.546164422026113	0.831758112073801
1.8	0.148876661089412	-0.987415711398976	2.85797949484528E-06	5.28272270427409E-06	5.70333544820659E-09	2.03372546691404E-06	0.646233718267927	0.756392158066573
1.9	0.0712875345529831	-0.995969352258404	5.67881335877434E-06	-2.63810247353137E-06	-3.00109580624403E-06	4.18211020065884E-07	0.735416519031196	0.669375504751775
2	-0.00579823485737689	-0.998813149848242	-1.55224615561988E-06	-2.02925885373901E-06	3.22457971999847E-06	1.14761863413638E-05	0.813909610359796	0.571741222078475
2.1	-0.0851513769492726	-0.995791478626027	-7.56509976033822E-06	2.4695552641104E-06	1.21628730550837E-06	5.15434446746455E-06	0.879016011762343	0.464294516540098
2.2	-0.16238786289751	-0.986175781535273	-8.82562106127504E-07	1.39801232312196E-06	3.02044114986045E-06	7.78567421648349E-06	0.93000456159532	0.350146789280669
2.3	-0.240014784110522	-0.969922909826137	1.91955484590677E-07	7.46525067985785E-06	7.42466772849883E-07	9.39066211578159E-07	0.965938619608787	0.23110162051354
2.4	-0.316242691704704	-0.947179497344077	1.59388992215552E-06	7.18230152944196E-06	1.53427918385403E-06	6.39456805664217E-06	0.987337657236887	0.10750722845317
2.5	-0.38956034267007	-0.919099337281718	4.39203763206607E-06	-2.32478544524155E-06	-1.93020506248281E-06	-7.57783126941773E-06	0.992616118359276	-0.0171694208748755
2.6	-0.460645809973454	-0.885119118606222	6.76716713946455E-06	-5.96323408303999E-06	-1.10934826324684E-05	1.08588775435838E-05	0.982448750081998	-0.14198266203829
2.7	-0.529086734836304	-0.845854045674818	-4.43137040374777E-06	9.15968855898619E-06	-2.89170648053603E-06	-9.16372908226355E-06	0.956464992966805	-0.264621310061102
2.8	-0.593424785050684	-0.801838655877609	2.46223570392629E-06	1.14040267633772E-06	-3.1289958836034E-06	1.25064409571034E-06	0.916004380550004	-0.382471874259582
2.9	-0.653816157365231	-0.75317810224362	-5.49325999349315E-06	6.03163629009744E-06	-9.20305852123496E-06	-2.65836174474712E-07	0.860615077278257	-0.494211410332714
3	-0.71023906176014	-0.699366539703771	4.69527429692324E-07	-1.47505975693025E-06	1.13363686730983E-05	1.43955736608153E-06	0.79155612732223	-0.598588050929648
3.1	-0.762690236174749	-0.642626048256822	2.42851816842815E-06	1.04967153490075E-05	4.33192211143021E-06	2.16618921558066E-06	0.70996329200881	-0.692605077195547
3.2	-0.810842709199304	-0.581550220048622	2.11916803758798E-06	6.46434433783948E-06	3.97979838947866E-06	-1.06185861734921E-05	0.617604510841472	-0.77566775659477
3.3	-0.853995046983561	-0.516730388938338	3.09359379138335E-06	4.95634386161508E-06	-2.24694197852918E-06	-9.66643853768959E-06	0.514482128174488	-0.847061237978256
3.4	-0.890941272864584	-0.448839327421569	2.1190761537669E-06	-2.60860956160086E-06	5.96046740970965E-06	1.36875255426302E-06	0.404627195918858	-0.904411559983488
3.5	-0.922845549576951	-0.377329210023624	-3.23692677781467E-06	9.52464973095675E-07	-2.06586183004167E-06	3.42621566913337E-06	0.288223769997358	-0.947778965084077
3.6	-0.9497551631993	-0.303977288807584	-1.82101220074608E-06	-3.74010461649606E-06	-7.81501529642974E-06	4.12348008841076E-06	0.166791156965708	-0.976946720748437
3.7	-0.970514306261721	-0.228739297539182	8.0235269289547E-07	-8.32754999564335E-06	1.07754038224426E-05	3.67088978937599E-06	0.0420191868872423	-0.989945601719313
3.8	-0.985398155091819	-0.151245543942653	9.5616686974465E-08	1.54601898071531E-06	-6.50234569948733E-06	5.96435536429212E-06	-0.0824139863727845	-0.987181218731904
3.9	-0.99364238979129	-0.0734169426876982	-2.63735445118411E-06	-5.01993468567719E-06	-3.68457662168598E-06	8.0300502381161E-06	-0.20722499536461	-0.969217575270969
4	-0.995688351897496	0.00527224731442739	7.12662007556748E-06	-3.9758486402744E-07	-1.04734308819798E-06	-1.20307044817624E-06	-0.327485248861167	-0.936094802276493
4.1	-0.992353411401636	0.0830163722481436	6.18442596073511E-07	-4.45093420123674E-07	7.33972862130363E-06	-4.77076158844045E-06	-0.443500148297964	-0.887091858341945
4.2	-0.983153170035051	0.160882036691162	3.20868942823786E-06	2.09588324326386E-06	-7.19751153163743E-07	-7.60321774844145E-07	-0.551614153806304	-0.823582819459032
4.3	-0.96798103569466	0.237036136703794	-3.18658597631846E-06	1.37815425986893E-06	-4.99036913721372E-06	2.99088197027229E-06	-0.65062029507301	-0.74806654436226
4.4	-0.946753577529612	0.312257412232866	8.08490230687068E-07	2.64148348344689E-06	1.54029308416884E-06	-8.33609755183851E-06	-0.739415677170332	-0.66070081183789
4.5	-0.918548465071145	0.385983175338792	1.8230862848859E-06	-9.43133115860544E-07	7.63464929394969E-06	-2.68245547992063E-07	-0.817203066458868	-0.562783153549355
4.6	-0.884590183451408	0.456437624576655	-7.19841135513311E-07	6.13270839766739E-06	-1.23571975879087E-05	-6.46797273172633E-06	-0.881580850808625	-0.455323268425236
4.7	-0.846358619601969	0.523178624820179	1.20503714982725E-06	2.51025818913235E-06	1.42376583628061E-06	1.86522554218023E-06	-0.932179355899092	-0.340880429565196
4.8	-0.802179454324957	0.588358520199418	-5.16727898213325E-06	1.11384456116337E-05	5.24578646255529E-06	9.68829343143581E-06	-0.967592016327939	-0.220423849593521
4.9	-0.753069217785924	0.64942954230554	1.20289751502608E-06	2.93074257694796E-06	-4.92086140062335E-07	-6.91435812424313E-06	-0.987408399065943	-0.0959946020334149
5	-0.698932764974506	0.705801151686789	4.73751407461052E-06	-9.15455737889582E-07	-3.73770344839808E-06	2.4268920701734E-06	-0.990337287452459	0.0294584345228688
5.1	-0.641487261164972	0.758058430199889	4.13160443158924E-06	-1.43895646371794E-07	-2.66131585209626E-06	-9.80593377123361E-06	-0.978624763146316	0.153322662415147
5.2	-0.580027407358919	0.80672193012008	2.61059191156469E-06	-1.49859239718649E-05	1.3792220823862E-06	2.81991472588411E-06	-0.951482733939772	0.275422922479084
5.3	-0.514703111849156	0.850470906810359	-8.70610961642552E-06	-7.76654222839101E-07	-1.1341951851893E-06	1.59547891987432E-07	-0.909110354217175	0.392999754824467
5.4	-0.4459834555109	0.888930926484321	-7.18104849574185E-06	-1.1047742124597E-05	-1.37247549564811E-05	1.11893886653387E-05	-0.852263765141408	0.503724533794068
5.5	-0.374193659068878	0.921004805549581	1.9041853479633E-06	8.90267774564255E-08	-2.24429510116603E-06	1.78320817940649E-06	-0.783305463957183	0.606450915491738
5.6	-0.300855592268384	0.946677811351864	-2.406700563453E-06	3.51459531796852E-06	-1.3410170534572E-06	1.28967624397807E-06	-0.701144719773561	0.700388300758529
5.7	-0.225697337914663	0.967496779273034	1.30613823155475E-06	1.23035505217047E-06	5.76000084418252E-06	-1.21531630101011E-07	-0.607592835512954	0.782689321088398
5.8	-0.148954627389271	0.981913211206138	2.70301177399279E-06	4.25487499649567E-06	-2.10853539385695E-06	4.24045212975474E-06	-0.50440138869201	0.852061605041876
5.9	-0.0715458228851056	0.990570502191605	-6.88043371812924E-06	-2.29628880730504E-06	-7.50944989743811E-08	6.28351257054034E-06	-0.39421870305316	0.907741255608689
6	0.00680264813734739	0.993531831610705	-1.79138316805481E-06	8.97411114396893E-08	-5.45939784759027E-06	-4.38749821160043E-06	-0.27836709135915	0.949773232050047
6.1	0.0853585060059328	0.988606298315836	3.79016044200473E-08	-9.90701280659002E-06	-9.8387658362214E-07	-3.21195788522804E-06	-0.157634414307439	0.976797159493057
6.2	0.162608098589035	0.977768310347217	-1.01961067815346E-06	3.10795865222574E-06	-1.75537548661883E-06	4.20812462733059E-06	-0.034176711858326	0.988382896511001
6.3	0.238950734373916	0.961728002213428	-8.04605900959248E-07	2.82527708215424E-06	-2.93350702853447E-06	2.39080340543834E-06	0.0897475813008279	0.984911814582654
6.4	0.314484581802207	0.940377859886428	-5.96549686002966E-06	5.5363111398442E-06	-2.37893018609956E-06	-7.49822440441025E-07	0.213027107924784	0.966487359017219
6.5	0.389449706076629	0.912403921755319	1.40311360153222E-06	-5.27520375267505E-06	-1.44854812840377E-06	-2.3761707859235E-06	0.334110170568862	0.932097910579902
6.6	0.459958689811642	0.877808825855184	3.65252322735624E-06	2.08764222540098E-07	1.12999946308474E-05	-2.68032106935148E-06	0.448664472486771	0.881872687658789
6.7	0.527623100750093	0.838778272342446	-7.75908660350136E-07	8.46957801530545E-07	-3.76873113764437E-06	5.22808780100265E-06	0.555280704814924	0.81848936639845
6.8	0.592362100634636	0.794576048516851	-1.75489615500139E-06	4.48535449162892E-06	1.45318217018913E-06	-8.82737019985753E-07	0.653156880789569	0.742366460228184
6.9	0.653473890297025	0.745394617654666	5.91445715033436E-06	2.24992293373022E-06	-9.31797447330805E-07	2.41352678019036E-06	0.740512399527353	0.654686834825479
7	0.710733868565906	0.691132961178844	1.14604639013124E-06	-4.14730984778778E-06	-1.43187370758723E-06	2.91429180976003E-06	0.816385001403168	0.556960479560755
7.1	0.763018109994884	0.632438235740944	2.40996592505323E-07	-7.17858947248289E-07	1.96187197491632E-06	9.19088411002152E-06	0.879427298074688	0.450260774159219
7.2	0.810440732393367	0.569730473439718	1.38785947542086E-06	-2.41207896987451E-06	-1.0022286128451E-06	-8.56632533241101E-06	0.928360898001836	0.336711062202628
7.3	0.85268416671057	0.503212676078171	4.82866195532892E-06	7.22793849860858E-06	-9.71411130522016E-06	2.32473320055293E-06	0.962328783135227	0.217777466597893
7.4	0.889637807286268	0.43351713816689	5.08862299649668E-06	-6.7780573781632E-07	1.94486398889609E-06	-9.62191761065764E-06	0.98100576668661	0.0956130084216766
7.5	0.921444938483933	0.361827818106051	2.7519185472682E-06	-5.28699007896516E-06	2.10938241919487E-06	-7.25388820023888E-06	0.985159535508087	-0.0267845550048163
7.6	0.948522165204951	0.286519799387795	-2.94134352201775E-07	-5.63239148813399E-06	1.67417780607631E-05	3.92179383073945E-06	0.974898962148523	-0.150727319410987
7.7	0.968806223780939	0.208958586044462	3.51645742435747E-06	1.22595923574699E-07	3.33603417105286E-07	-2.92296739921264E-06	0.94832312218412	-0.272431681439032
7.8	0.98255499891977	0.130270836274133	-1.09713294612136E-05	-1.95735433013133E-06	-2.14827627439366E-07	3.43830066641331E-06	0.906759490047398	-0.389587849028222
7.9	0.990024158519858	0.0510478838274382	2.35010677759603E-06	2.04058478821092E-06	-6.92977142053275E-06	-4.73940105926675E-06	0.851345178197758	-0.500453828916784
8	0.992303033828885	-0.0289981667972363	2.34684595488197E-06	2.96612731606115E-06	-9.32869786487752E-06	-7.64045043592863E-06	0.782855768755483	-0.605289866263726
8.1	0.98633656252503	-0.109878056231257	3.83773174298307E-06	-3.06824451955159E-06	2.15545672893651E-06	-3.1861703351378E-06	0.699034058834844	-0.699855640533238
8.2	0.973824904047531	-0.188636318357187	-4.0416773421927E-06	1.41360613234695E-06	-6.76113245838223E-06	3.54206808936549E-07	0.605028530651494	-0.781699070897221
8.3	0.954916565184668	-0.266286905307159	9.87163089583684E-06	3.0432275098681E-07	6.2406699258917E-06	1.04627285799821E-05	0.501779212778703	-0.851015079562727
8.4	0.929869216982273	-0.342161029500786	1.28349037121715E-06	2.55905261144287E-06	3.46097186660833E-06	1.82670179081606E-06	0.390976741855448	-0.906965533555571
8.5	0.898860656243175	-0.416153145128747	-4.85070696526434E-06	4.95970786737415E-06	2.85860993223166E-06	-3.02011262453902E-06	0.274111554659227	-0.948944599335406
8.6	0.861872349084079	-0.487246522228334	-4.50665472034533E-06	2.08497474129514E-06	-3.05107626740205E-06	8.12424418361867E-06	0.152258452001558	-0.976536684298453
8.7	0.819528963424458	-0.555284241694057	-1.02392236463842E-06	1.21742339516253E-06	-6.4815813405695E-07	3.46886271953409E-06	0.0275127691452036	-0.987939540901989
8.8	0.771779636796694	-0.619722105030674	-1.58877098514115E-06	3.08487606351864E-06	-6.02068109088802E-06	1.28593865789E-06	-0.0971995086082302	-0.983598680518558
8.9	0.718980572276296	-0.680156186861004	3.17961737676415E-06	-1.8372046586797E-06	-3.17178910701403E-06	-4.56154113349968E-07	-0.220724244952299	-0.962977011682489
9	0.661254108262599	-0.735477151848943	-7.29035216787728E-06	1.36058787188514E-06	-3.97981866179242E-06	7.30350228405949E-07	-0.339419022757231	-0.927018938579688
9.1	0.599956856959336	-0.786291295552945	-3.35577269193999E-06	-1.88209114244269E-06	-9.83110683681683E-07	2.13541450035472E-06	-0.453169686685848	-0.877780320801639
9.2	0.534017988719139	-0.832033607548466	5.9847600367305E-06	-1.63904036182604E-06	1.98474013124328E-06	8.4800519015976E-06	-0.56014658485353	-0.814786397259137
9.3	0.464559583465361	-0.872111809390328	-3.40026835293516E-07	1.07031998870068E-06	1.36591271987055E-05	1.18392629889816E-05	-0.658494304964634	-0.738370894011317
9.4	0.391732011568542	-0.905800011045774	1.73535888765273E-06	-2.6590562443144E-06	4.2847962443696E-06	1.76434380259954E-06	-0.745608601859967	-0.650312497147179
9.5	0.317251641809787	-0.933361261963444	-6.49725249848878E-06	-4.91263391836149E-06	-1.93020951542966E-06	-5.71472489124798E-06	-0.822459689664127	-0.553162528848758
9.6	0.239018463410148	-0.956044202959136	-1.17077700806066E-05	-2.9233874368042E-07	-5.92780863778571E-06	-4.03899313694375E-06	-0.888231364898139	-0.444838010284897
9.7	0.158906124081257	-0.971265565576393	1.47292304552504E-06	-4.76659919812761E-07	-2.9288987943069E-06	1.64014140549949E-06	-0.938137659122767	-0.327913329476222
9.8	0.0781130440945622	-0.979588550794563	2.2103760097275E-06	1.40829660939138E-06	1.51529166444418E-05	-3.48973674184909E-06	-0.971855207139691	-0.206288710292975
9.9	-0.00293226890789015	-0.980954571782876	-3.48361253114009E-06	8.99549022785617E-06	1.37961641868947E-05	5.02312015037166E-06	-0.989905843012288	-0.0816380314113208
10	-0.0831456254826496	-0.975502910758752	-3.656556079088E-06	1.62012359712839E-06	1.93224749151115E-05	-1.81867113059211E-05	-0.992028148470717	0.0433949868086164
10.1	-0.162666560484912	-0.96316868089124	-1.48753176090661E-06	2.31009881839202E-06	-8.45022218407963E-06	-4.336319590791E-06	-0.979815071179587	0.168200575654262
10.2	-0.240405425471134	-0.944195184096373	-2.31885846294847E-06	-1.2475596054515E-06	-1.29791287393107E-05	7.25343009131819E-06	-0.951103611520969	0.291187639386794
10.3	-0.315267525056286	-0.918465048103561	5.79095680184721E-06	3.9433483279006E-06	-6.17670179588934E-06	1.3848331701446E-06	-0.907117396686098	0.409053850826296
10.4	-0.387457906133752	-0.886879198236833	2.11106619701164E-06	1.05048019193808E-06	7.03033914613539E-07	-8.25735710893583E-06	-0.84843297689339	0.520034156734279
10.5	-0.455836958941851	-0.848080686728318	4.37786773404862E-07	-3.07785425659892E-07	-6.67992601462164E-07	-5.64944599912425E-06	-0.776065589063647	0.622830085064049
10.6	-0.518366904473626	-0.804418811181635	5.09126287079604E-06	-2.62377136390054E-06	-9.78736494522371E-06	-7.86869350554311E-06	-0.691374003937914	0.714825926456177
10.7	-0.576489649404418	-0.757110548086535	-2.81790056322793E-06	-4.95347142760025E-07	-5.24841594105197E-06	-7.16021288276904E-06	-0.596591789822905	0.79548217935333
10.8	-0.630369704104371	-0.707191684430426	-3.62424879870803E-06	-3.43564310760395E-06	-1.19445324514893E-05	9.17723669220768E-06	-0.492407947847435	0.863953755395688
10.9	-0.680934397045719	-0.654527005397484	-1.1408099632517E-05	-1.0384999063315E-05	-4.44281583287797E-06	1.09677491056138E-05	-0.380281329357481	0.918573080341309
11	-0.726271198814648	-0.599563541859997	1.01234046667198E-06	1.40593845044821E-06	8.64333331506282E-06	-5.50923405637993E-06	-0.262639240031014	0.957754485822039
11.1	-0.769297833701281	-0.54374637434651	-3.3024625542432E-07	-3.6319169794448E-06	1.01729392512562E-05	-1.02102396881675E-05	-0.141753223040694	0.984105906277373
11.2	-0.809961061599425	-0.484511842070332	-1.03739779350908E-06	-3.9148462254343E-06	2.15515707385274E-06	-6.31818654598642E-06	-0.0158725784785176	0.994886896608733
11.3	-0.847124760484091	-0.421232105603967	1.61591034048482E-06	-1.2058999049788E-05	3.56464922602025E-06	-2.8307448142148E-06	0.110773150478629	0.988763282747796
11.4	-0.878983470253594	-0.354586337468941	9.87887825779034E-07	1.6227128775058E-08	-5.68092290352813E-06	6.48188984149417E-06	0.235851360148185	0.966198517782935
11.5	-0.90579445149826	-0.285836743678162	6.55035150471841E-06	-1.25786500612281E-06	8.24607261654003E-06	-3.32742219217763E-07	0.355472438565466	0.927541455701897
11.6	-0.928314445595294	-0.214546191531078	-6.54702356758509E-07	-5.33018352959441E-06	1.43028243310185E-06	-3.08698614666186E-06	0.469799100797092	0.874516210419206
11.7	-0.944597169237459	-0.139766703251521	-1.12266155530045E-07	-6.04825847597944E-06	8.8460740209035E-07	-2.66131758165955E-06	0.576318317106166	0.807127609938353
11.8	-0.954899577869974	-0.0627320273027622	-1.0732113423748E-06	-7.37621425783338E-07	5.16742816607819E-06	1.06341881162242E-06	0.673083891179662	0.726794081502977
11.9	-0.958860408036707	0.0163356064347056	-3.22723678946312E-06	-5.19956581596949E-06	-5.40346397308745E-06	-7.99514309935883E-06	0.75761052480254	0.635938978622283
12	-0.95545734215987	0.0964205887866381	-2.94512970264732E-06	1.6491135979629E-06	-1.67644353374527E-05	-8.7307042540864E-06	0.830436126828772	0.536518432798126
12.1	-0.945283844758062	0.174809826001294	8.23199130436069E-07	-1.57149939472637E-06	7.89730912621848E-06	1.22764007637887E-05	0.890192225351114	0.427579625509939
12.2	-0.928328043029919	0.252655340547142	-4.09772849076686E-06	5.56799632597492E-06	4.24708548319963E-07	3.3163409050458E-06	0.935947369922886	0.312470938822913
12.3	-0.905878876702043	0.328946057167054	7.86574922088873E-06	6.37665106153437E-06	4.51708342144202E-07	1.09105472135547E-05	0.966847624189916	0.192091998289448
