# GHZ S RI R 50
0.2	0.985244788375398	-0.157018849383497	2.56380494500271E-06	2.2481142198494E-06	6.56595969862311E-06	-4.86838996742609E-06	-0.965886112549954	0.251887687183159
0.3	0.969079752598427	-0.234080590406596	-8.75384687513722E-07	-5.45044916113578E-06	-3.46759723588476E-06	-7.939611917927E-06	-0.9260434316205	0.371886387538974
0.4	0.947417145707939	-0.309355924824362	-7.27387583635934E-06	-9.86936600674616E-07	4.43851389839604E-06	1.54175440487501E-06	-0.871033985983467	0.48549494156937
0.5	0.920298370591594	-0.382561736612899	6.19394123587331E-06	2.10054843826129E-06	-2.41217436224545E-06	-1.90524776912148E-06	-0.802392268238314	0.591242536602665
0.6	0.887459143905575	-0.453378081418879	-1.054153823597E-05	2.46083683354337E-06	-2.21666299523515E-06	-1.00574717518865E-06	-0.721110202133253	0.687497363998649
0.7	0.84929468892163	-0.521137336356213	2.78136004795631E-06	-1.17170282378756E-06	-2.98337623906391E-06	5.78381252834766E-06	-0.628422769739916	0.772847762973365
0.8	0.805885089098429	-0.586039565388151	1.17340336289199E-06	-8.46767081172324E-06	-6.61472696623021E-06	-3.06553342041671E-06	-0.525700346473646	0.845560978366762
0.9	0.757567895896153	-0.647533489268511	-1.14564476806872E-06	-6.8011017597072E-07	2.54649747891867E-06	6.53606169726186E-06	-0.414883808957789	0.904601441880193
1	0.704289063282243	-0.705485199230744	-2.74241847354845E-06	-3.21836692402792E-06	-4.06148777795883E-07	-7.30805347816222E-06	-0.297846563216264	0.949039369290644
1.1	0.64696724650288	-0.758898157604714	1.80323241205812E-06	-4.93511226128516E-06	2.26601867261272E-06	-5.12846210859617E-06	-0.176053941076784	0.9786974746909
1.2	0.584444203052381	-0.808261726324753	-2.49181929723353E-06	2.48838770679388E-06	9.24641796404527E-07	-9.09698344968509E-07	-0.051247922794824	0.992650130985762
1.3	0.516729024463604	-0.852603686618433	-1.53562418155896E-06	7.18391065378228E-07	-1.35333774922742E-06	1.46116600658481E-06	0.07423190617803	0.991065904679754
1.4	0.446057101237876	-0.891021903209459	3.91677259461831E-06	-3.23566277219718E-06	2.69864498101596E-06	1.09233974630334E-05	0.199055430504411	0.973211339475428
1.5	0.372933287417034	-0.922998846586238	-5.32875743426548E-06	1.1080256435281E-06	6.57902768337328E-06	-7.19538539292302E-06	0.320219885142107	0.939918112243459
1.6	0.29958993750606	-0.94847887060142	1.77467189416584E-06	-7.7244171473535E-06	3.6250412004676E-06	1.38073255191578E-06	0.435901573874637	0.891808547165315
1.7	0.225762098959077	-0.968412057972099	-1.93758195512898E-06	-9.68392738340805E-07	-2.34280263427652E-07	-2.08329506580586E-06	0.544046744186312	0.830155941961306
1.8	0.149586491961244	-0.98303747993089	2.84320111208418E-06	5.27128294764741E-06	3.1290774704826E-09	2.02794469503258E-06	0.643986711955125	0.755044771662949
1.9	0.072390106344087	-0.99172594122318	5.66520314918287E-06	-2.62444185314045E-06	-2.9928659391453E-06	4.1381264727255E-07	0.733255347670065	0.667989469844004
2	-0.0044934633962248	-0.993953237651138	-1.54373733276429E-06	-2.02303642103864E-06	3.1984412363916E-06	1.14345229628906E-05	0.810525123363705	0.569965706204744
2.1	-0.0824925659610615	-0.990710283152568	-7.54168961505033E-06	2.44161081827499E-06	1.19905999120541E-06	5.13726349216767E-06	0.875099255528416	0.46443263182853
2.2	-0.158699449350745	-0.981494161359805	-8.8343678201571E-07	1.3907059027303E-06	2.98815633642274E-06	7.76725510210615E-06	0.926825915633527	0.351119455087571
2.3	-0.23538504443945	-0.965851091422917	1.68275633074101E-07	7.4419003920942E-06	7.37184172097824E-07	9.38348219963238E-07	0.963229762941553	0.232442382529211
2.4	-0.31077480333323	-0.944064307923922	1.5645087999793E-06	7.16632590768934E-06	1.50777660383565E-06	6.38073954346865E-06	0.984902390159224	0.109212152916668
2.5	-0.383778798500346	-0.917328409291247	4.38970116179159E-06	-2.30180806949372E-06	-1.89592679943396E-06	-7.56575397339826E-06	0.990493064496728	-0.0148012768791711
2.6	-0.455103605899546	-0.884225619973923	6.77606898231175E-06	-5.92420914854494E-06	-1.11122988584411E-05	1.07926069807846E-05	0.981096372092243	-0.139201796497531
2.7	-0.523631926518414	-0.845517808824055	-4.45856387732886E-06	9.12314460287033E-06	-2.84934488563134E-06	-9.15624810158325E-06	0.955644438166692	-0.261575126915074
2.8	-0.587847359010493	-0.802065222007592	2.45223826206014E-06	1.14840280264302E-06	-3.12769447807273E-06	1.23479681910756E-06	0.915828564864432	-0.379114060640681
2.9	-0.648108719915701	-0.754490539397812	-5.50965407896564E-06	5.99310195027229E-06	-9.18213223708595E-06	-3.08210318582178E-07	0.86116004307226	-0.49067332302324
3	-0.706004079470411	-0.701876273687214	4.76391933205451E-07	-1.47024287583102E-06	1.13105612671033E-05	1.49582739198221E-06	0.792924565311062	-0.594851845610547
3.1	-0.759134243438441	-0.644180739053888	2.37290162475263E-06	1.04946638219233E-05	4.31527660880628E-06	2.18486730936237E-06	0.712622404203069	-0.688980201633108
3.2	-0.80697270660817	-0.583173624053693	2.08329525013099E-06	6.4671218188451E-06	4.02936332701554E-06	-1.05848147714102E-05	0.6213476769753	-0.772802971126228
3.3	-0.850153137478828	-0.518956689481097	3.06417107335039E-06	4.96892340649255E-06	-2.1927390040585E-06	-9.67047953099133E-06	0.519149464014807	-0.845245898971383
3.4	-0.887746555831111	-0.451839803595396	2.1332603691855E-06	-2.5973259768882E-06	5.95341492803695E-06	1.40097081540652E-06	0.409906511498282	-0.904302359779512
3.5	-0.920772982593961	-0.379858913420569	-3.24176325880422E-06	9.392246457171E-07	-2.08069843765087E-06	3.41851910669253E-06	0.292140254264902	-0.949159562339931
3.6	-0.947135235346715	-0.306394918014885	-1.8029212523018E-06	-3.74669918283907E-06	-7.83026088964512E-06	4.08552636742986E-06	0.170755213857395	-0.97782460585905
3.7	-0.968098980995793	-0.231868324056589	8.4459883798686E-07	-8.32361127377061E-06	1.07569555196344E-05	3.72559527959461E-06	0.0463600495734749	-0.991775116185654
3.8	-0.983589688946931	-0.15495108238676	8.78394388640833E-08	1.54736857464217E-06	-6.53619511197884E-06	5.93475840120487E-06	-0.0784276661266868	-0.989956144068237
3.9	-0.992809432738057	-0.077566757602604	-2.61534647239158E-06	-5.03664975822199E-06	-3.72613875787836E-06	8.01879883739027E-06	-0.203905249880622	-0.972354598814264
4	-0.996250786130169	0.00144362280754478	7.1336373507403E-06	-3.6183889905218E-07	-1.04199743128199E-06	-1.2092101347314E-06	-0.323840888660214	-0.938923039541319
4.1	-0.993324104744276	0.0801111474675338	6.21594393190045E-07	-4.42534700936669E-07	7.37450360344404E-06	-4.73968037301536E-06	-0.439326267515298	-0.891368958070441
4.2	-0.984141529293399	0.158365704519067	3.20428432481939E-06	2.11458827267316E-06	-7.17394887950981E-07	-7.65012826297075E-07	-0.548279440202943	-0.829056484659002
4.3	-0.968928548645242	0.234597812095746	-3.1980935352295E-06	1.36695216613333E-06	-5.01195186166388E-06	2.97480546819262E-06	-0.648327287555065	-0.754120432840937
4.4	-0.947676796900234	0.309195479710751	7.99598399545354E-07	2.64828590110343E-06	1.57413420452747E-06	-8.34202201656825E-06	-0.738101972550726	-0.666823896120553
4.5	-0.921543207673135	0.381765790756811	1.82872156026274E-06	-9.35597412483371E-07	7.64160025946677E-06	-2.33921061413663E-07	-0.816329187937747	-0.568936920698481
4.6	-0.889382814786252	0.454310542942021	-7.51134595558598E-07	6.13991091912209E-06	-1.23471376927695E-05	-6.5398050573535E-06	-0.88131645769063	-0.461859434861599
4.7	-0.851131913525258	0.522469122124137	1.19606288982445E-06	2.52123157701158E-06	1.418237795969E-06	1.87581552621852E-06	-0.932752170302207	-0.347779216314256
4.8	-0.806914011620253	0.588458004303825	-5.2314577508132E-06	1.11415789345844E-05	5.21364325438245E-06	9.73615626698781E-06	-0.96916141840073	-0.227626413594618
4.9	-0.758209655582364	0.649932618531309	1.19161644298881E-06	2.94573356782115E-06	-4.58373837808583E-07	-6.9377828680609E-06	-0.990305400346781	-0.103744308367927
5	-0.705131820409627	0.708463517003399	4.76485187601959E-06	-8.97669761857261E-07	-3.76727352876342E-06	2.42115004813028E-06	-0.996115178539904	0.0221988850068726
5.1	-0.645578614101278	0.76240827821207	4.15217405136815E-06	-1.31149039487355E-07	-2.64234949066955E-06	-9.8623036157558E-06	-0.985284140098693	0.148107314539847
5.2	-0.583002837050295	0.810841986538628	2.66825187041293E-06	-1.50495397559869E-05	1.37729524081602E-06	2.83752773209628E-06	-0.958901220914266	0.271379813344379
5.3	-0.51729924883979	0.854413629063184	-8.74768746704937E-06	-8.0405323261424E-07	-1.14031562740366E-06	1.57286411240273E-07	-0.917220906816795	0.390600771773495
5.4	-0.448620388407979	0.892759190499958	-7.19597708401247E-06	-1.11181754540397E-05	-1.38167083809381E-05	1.12195011633543E-05	-0.860364325267378	0.503369264954355
5.5	-0.377502049961298	0.925581279296529	1.91178319855795E-06	9.27963078511218E-08	-2.25662816198666E-06	1.78645711904593E-06	-0.790092128542661	0.607535441189355
5.6	-0.303327236842487	0.952672369078518	-2.42704422568054E-06	3.5238632905433E-06	-1.35053966382783E-06	1.29183568391486E-06	-0.707552890958229	0.70146790484245
5.7	-0.227080970120075	0.973851080094266	1.30974046916212E-06	1.2404071072574E-06	5.79087114563284E-06	-1.06616953829962E-07	-0.614368688055966	0.784736685982773
5.8	-0.14939652058328	0.988453911877391	2.70950015348046E-06	4.28767873781759E-06	-2.13176262718814E-06	4.26160438130044E-06	-0.511080349274141	0.855870495835032
5.9	-0.070740964180569	0.996830451760456	-6.92735237112103E-06	-2.32178498137196E-06	-8.37224334763111E-08	6.32896196509348E-06	-0.399648480960179	0.913685737208475
6	0.00709010296722427	0.998297708685358	-1.80240646818695E-06	9.07645227357807E-08	-5.49421523691524E-06	-4.41312201657139E-06	-0.281695739450089	0.956377020420366
6.1	0.0849537667973333	0.99535830569187	4.57650739055972E-08	-9.96914646967633E-06	-9.87577727895251E-07	-3.23286904361562E-06	-0.15949921797208	0.984391499248936
6.2	0.164121745466608	0.985560530245315	-1.02733363367755E-06	3.13035936800673E-06	-1.76854727221118E-06	4.23841409357956E-06	-0.0334674204995828	0.996187809799134
6.3	0.242418305238179	0.968907759162627	-8.07317512720764E-07	2.84653619569457E-06	-2.95204976490045E-06	2.41125854008456E-06	0.0926940913709792	0.991520305670782
6.4	0.318559140038634	0.945721270625166	-5.99053906392901E-06	5.58044051946921E-06	-2.39448064128083E-06	-7.49803775128598E-07	0.216883187630869	0.970783299185174
6.5	0.391961962759805	0.918359246456348	1.40866394707829E-06	-5.30288296076045E-06	-1.45678733729638E-06	-2.38797126323614E-06	0.336361031057801	0.935770079049384
6.6	0.465105544107983	0.88477845311728	3.67696450391745E-06	2.07195058039219E-07	1.13729175093433E-05	-2.70727933858013E-06	0.452297216301353	0.886188227365516
6.7	0.534390076525832	0.84423096528888	-7.79419418248696E-07	8.54020175367015E-07	-3.78366687838264E-06	5.26974321528555E-06	0.559948915836277	0.821776922223761
6.8	0.599873089899874	0.798524075726769	-1.75460170270633E-06	4.51902130543618E-06	1.4603108304764E-06	-8.92247281433375E-07	0.658503868995319	0.74463617035723
6.9	0.66128339239461	0.747741119871739	5.96207278978977E-06	2.24365808250826E-06	-9.29332236237531E-07	2.43300661663519E-06	0.746495824313142	0.6556802713008
7	0.718002338421799	0.692304192708813	1.13005118381784E-06	-4.17629905322354E-06	-1.42408241521065E-06	2.93803176165732E-06	0.822208589074031	0.556423004072869
7.1	0.770427931610246	0.633161615867396	2.38607812698013E-07	-7.2201467753682E-07	2.01364850139475E-06	9.22018010047391E-06	0.88511018207384	0.448987192857837
7.2	0.818149065839338	0.569438434425401	1.38307160012869E-06	-2.4286142866412E-06	-1.04468961883501E-06	-8.59862877224102E-06	0.934104848142622	0.334481107497555
7.3	0.860541803235002	0.501795833654882	4.88321127879011E-06	7.23981800560394E-06	-9.74864789821372E-06	2.37879416854009E-06	0.968186104936747	0.214497618064185
7.4	0.897957233960036	0.430622600406073	5.11548945289681E-06	-7.06380290627566E-07	1.90994256497948E-06	-9.68829124275177E-06	0.987415886804919	0.090473300664515
7.5	0.928773424553782	0.355866046637213	2.72618776387573E-06	-5.34401614669592E-06	2.06325868709669E-06	-7.31838766463585E-06	0.989434034572202	-0.035624905587226
7.6	0.953403193559154	0.280089288698207	-3.48182029560695E-07	-5.65027917422612E-06	1.68400517300941E-05	3.77872907008899E-06	0.975872951952174	-0.159142120839332
7.7	0.972580256481652	0.202354065462355	3.52662453923505E-06	8.98672123857327E-08	3.06992497784478E-07	-2.93359575622981E-06	0.947793987890871	-0.280565331585545
7.8	0.985364915393161	0.123225706411112	-1.10080438928071E-05	-1.85495377433509E-06	-1.82086904981377E-07	3.44597052340194E-06	0.904683026463986	-0.397521185715981
7.9	0.991342392684679	0.0429983741663336	2.37164429401346E-06	2.01721556610667E-06	-6.98023867161231E-06	-4.67010584852693E-06	0.846966180666414	-0.508024781459654
8	0.989857748168061	-0.0358772787693039	2.36576945472046E-06	2.93558563497891E-06	-9.36684358913047E-06	-7.53244371861721E-06	0.775886154803056	-0.608615353092275
8.1	0.984667485364288	-0.114274711437631	3.8114881197005E-06	-3.08215352278512E-06	2.13260335601049E-06	-3.19046540781213E-06	0.695457619845283	-0.70090075240724
8.2	0.972659880839591	-0.193078788154439	-4.03054469450077E-06	1.43223218748027E-06	-6.75249068861268E-06	3.87412335669887E-07	0.602742463255604	-0.783399877957756
8.3	0.95354072385656	-0.270990927351571	9.8699995177531E-06	2.55129258369858E-07	6.29071812313227E-06	1.04283573778232E-05	0.49972123812883	-0.85324245347253
8.4	0.927908971275842	-0.347080930532817	1.296798380873E-06	2.55328575301617E-06	3.47119265064112E-06	1.80971319920015E-06	0.388438803477675	-0.9097395425639
8.5	0.896191875268619	-0.420981423265178	-4.82347695361912E-06	4.99394072129222E-06	2.84195425656109E-06	-3.04036286040177E-06	0.270062047226969	-0.950715967589013
8.6	0.858462408678368	-0.49210954725732	-4.48957491967889E-06	2.11442299350142E-06	-2.99368811502674E-06	8.13994124603714E-06	0.14922800075046	-0.976583877508415
8.7	0.815047589525685	-0.559835883577224	-1.0147026255366E-06	1.22194485288894E-06	-6.2541743713802E-07	3.4675283085903E-06	0.0256545006348754	-0.987868878046031
8.8	0.766369434270566	-0.623516104951135	-1.56852597922601E-06	3.086859343078E-06	-6.00065054795733E-06	1.31596098387213E-06	-0.098228169758528	-0.983903603308901
8.9	0.71317641880403	-0.683110177703738	3.16501492306931E-06	-1.84559297917518E-06	-3.16630296014233E-06	-4.42521615377984E-07	-0.221207852034312	-0.964461608624339
9	0.654742123641169	-0.73843689666021	-7.28338331517962E-06	1.38449868787389E-06	-3.97605578047766E-06	7.4340731218284E-07	-0.342002834057415	-0.929641895205392
9.1	0.592167260376762	-0.788060604696431	-3.36425749469402E-06	-1.86560079588219E-06	-9.72654354535355E-07	2.13978030328823E-06	-0.456682971289635	-0.878304494450562
9.2	0.525829115421159	-0.832495944130662	5.97188920001233E-06	-1.67046369010879E-06	2.02948898916513E-06	8.46364901858372E-06	-0.563437792558505	-0.813888227424031
9.3	0.456384699900788	-0.87160184089394	-3.33268527496391E-07	1.07119447169453E-06	1.37150707398688E-05	1.17449158239131E-05	-0.661256325891248	-0.736073135861936
9.4	0.383526318775247	-0.905365587868814	1.71494888391679E-06	-2.66843929860711E-06	4.29269406213928E-06	1.7325267540148E-06	-0.74825352736503	-0.64664416658798
9.5	0.306445018223887	-0.931940222406585	-6.52093635484557E-06	-4.8330624738447E-06	-1.9778654562083E-06	-5.67588400813879E-06	-0.822820716032658	-0.545016358680555
9.6	0.228691264810485	-0.951413650330877	-1.1633157512041E-05	-1.99576129778351E-07	-5.92022211987083E-06	-3.96647541228461E-06	-0.882546750242498	-0.43783621924952
9.7	0.149445959424678	-0.965289951492147	1.45943401692516E-06	-4.82711627686603E-07	-2.89764389533136E-06	1.64726932909266E-06	-0.930547113310753	-0.324029712223231
9.8	0.0691516684902821	-0.972295378247645	2.20180398340934E-06	1.38501659968824E-06	1.50187870213917E-05	-3.55033803170842E-06	-0.963892618097622	-0.204737105313318
9.9	-0.0114165047656278	-0.971984413566089	-3.40918390940381E-06	8.94032535100634E-06	1.37099196193475E-05	4.9115657373587E-06	-0.982580658952694	-0.0816125262790207
10	-0.0902690046847482	-0.964119403336033	-3.61875854744904E-06	1.62211729349053E-06	1.90815026907828E-05	-1.81160205082285E-05	-0.984967316254498	0.0437916577418336
10.1	-0.16723854379899	-0.950591590013148	-1.46532961666422E-06	2.29554718912504E-06	-8.39265419920423E-06	-4.26485972149227E-06	-0.970818945031729	0.167847438927079
10.2	-0.242430984528471	-0.931111276972931	-2.30067614736124E-06	-1.22860583713448E-06	-1.28336907530388E-05	7.2243971359362E-06	-0.941188037508861	0.288582092740687
10.3	-0.314559639762861	-0.905831953580188	5.74206363476942E-06	3.89295928939131E-06	-6.11327580255242E-06	1.38369663925334E-06	-0.897183191721667	0.404109253206891
10.4	-0.384323703776767	-0.875925095498208	2.09020904783046E-06	1.03757010962709E-06	6.87815327224824E-07	-8.1725016325663E-06	-0.838920490573463	0.512702397642225
10.5	-0.451935039277938	-0.839894475387027	4.3375700151511E-07	-3.03905434737041E-07	-6.52051558570507E-07	-5.59215647937541E-06	-0.768538012711434	0.613342149380663
10.6	-0.515006991007154	-0.797744742826479	5.05465210445361E-06	-2.58857192229058E-06	-9.68425536877838E-06	-7.82664007452795E-06	-0.684705518904566	0.704856655215582
10.7	-0.573282173135416	-0.751141444688784	-2.7947581701323E-06	-4.9892421434688E-07	-5.18889674688648E-06	-7.11853368376331E-06	-0.59059029228542	0.784089176048941
10.8	-0.626775777494287	-0.701888076218978	-3.58661211896072E-06	-3.42118704740976E-06	-1.18837168602984E-05	9.07192645378146E-06	-0.487875414855315	0.85078719756926
10.9	-0.676787849340544	-0.650993314563418	-1.12934700565965E-05	-1.03648086285475E-05	-4.45873483744888E-06	1.08798986104197E-05	-0.378633761465161	0.904880202824424
11	-0.724560649367213	-0.597431217862753	1.00436676683717E-06	1.4021921946069E-06	8.61853682211286E-06	-5.46338862627225E-06	-0.261207801439132	0.946099197632993
11.1	-0.767722717985161	-0.53998643979251	-3.23080257440844E-07	-3.60928750227901E-06	1.01225071215672E-05	-1.01311363856928E-05	-0.139745934000389	0.969399962457833
11.2	-0.807540763870005	-0.480797253806807	-1.02033621836078E-06	-3.8888213702338E-06	2.15477384493727E-06	-6.26689393012596E-06	-0.0172642149999816	0.977968626936653
11.3	-0.844095893337022	-0.418144336559289	1.64710035236517E-06	-1.19635493145753E-05	3.54828745568755E-06	-2.79692654728671E-06	0.105151100319984	0.971778176063927
11.4	-0.876037846225873	-0.352508931000348	9.80679256849993E-07	2.04688164439837E-08	-5.66848168305754E-06	6.40999530673961E-06	0.226465628272919	0.950777013477686
11.5	-0.903281190154692	-0.283400551170721	6.50785870654035E-06	-1.21584388923511E-06	8.18634383919018E-06	-2.89154086509809E-07	0.343717669743049	0.91459233290656
11.6	-0.92485817950655	-0.212562765666194	-6.16815952123515E-07	-5.29662587004214E-06	1.43944552820809E-06	-3.05625936432845E-06	0.456103963925122	0.863785447521087
11.7	-0.940740128071711	-0.138689487508799	-7.07016309552876E-08	-6.01067450626481E-06	8.96975340511848E-07	-2.63847139098793E-06	0.560912801579813	0.799379641733054
11.8	-0.950655306232754	-0.0627879292815991	-1.06213315490735E-06	-7.40773842192045E-07	5.13104059791453E-06	1.09262963069864E-06	0.657258247931734	0.722653163473572
11.9	-0.954241427147032	0.0145290923456919	-3.17988764988084E-06	-5.19040053109997E-06	-5.3282962868026E-06	-7.98360130549997E-06	0.743113071931571	0.634642837220006
12	-0.952124684775888	0.0922727219835591	-2.93326921871195E-06	1.62162027145237E-06	-1.65992640169791E-05	-8.75955644592741E-06	0.81628964340862	0.536880430965047
12.1	-0.943969110037778	0.170122605905687	8.27504272274194E-07	-1.55445096066666E-06	7.75784207048424E-06	1.22379119075147E-05	0.877643140344931	0.430450884718273
12.2	-0.928074074133122	0.248298359430629	-4.10704949897345E-06	5.4975301116694E-06	3.97924221623584E-07	3.29479340902238E-06	0.924947990179946	0.316891494504271
12.3	-0.90566389611064	0.324591758273578	7.7558305435685E-06	6.38952777251073E-06	3.6289801072215E-07	1.08308162318427E-05	0.957561465167189	0.198172877010315
