# GHZ S RI R 50
0.2	0.986723337780648	-0.156750094004518	2.56519038227564E-06	2.25326525542225E-06	6.57873043444225E-06	-4.86902707897362E-06	-0.967378136120064	0.251055544690008
0.3	0.970820986547437	-0.233929526736174	-8.70866662464371E-07	-5.46045780348179E-06	-3.46465605378519E-06	-7.95659341039253E-06	-0.928233391781918	0.371109981079562
0.4	0.949558808869634	-0.309368005358571	-7.28868694115876E-06	-9.98247644967041E-07	4.44637192646134E-06	1.55072952889977E-06	-0.874040165731963	0.485195621416498
0.5	0.922841391731481	-0.383321442217917	6.20990188283981E-06	2.11122464873992E-06	-2.41756150003023E-06	-1.91248805807179E-06	-0.805617471772755	0.592240829798851
0.6	0.889691458849913	-0.454592744784672	-1.0570099418395E-05	2.46134512126864E-06	-2.22182483812479E-06	-1.0095702490167E-06	-0.723861690573122	0.688744239807188
0.7	0.851513023243742	-0.522658024162841	2.78991207624444E-06	-1.17311316403271E-06	-2.99557995010108E-06	5.797968114303E-06	-0.631414144284493	0.774529214223143
0.8	0.807975637851105	-0.587993746504845	1.18179730364236E-06	-8.49299201908623E-06	-6.63329088275878E-06	-3.07868505014052E-06	-0.528668460064499	0.848013912210182
0.9	0.759240606724569	-0.649792073695157	-1.14904476833406E-06	-6.82703002785818E-07	2.55219215005922E-06	6.55784177726391E-06	-0.417519468448188	0.907817661056622
1	0.705673286893859	-0.707289807889519	-2.74957133965531E-06	-3.22951974696259E-06	-4.04317482445579E-07	-7.33091542089856E-06	-0.299928940718847	0.952933652494316
1.1	0.649065782666339	-0.760718847603938	1.81226817331177E-06	-4.95080243473993E-06	2.27673975994102E-06	-5.14453547523784E-06	-0.1772407875209	0.983032869954456
1.2	0.586764344253056	-0.810602112517566	-2.50186714712006E-06	2.49621998191853E-06	9.28364214101608E-07	-9.12555591861608E-07	-0.051436881868777	0.99697172990468
1.3	0.518954282573172	-0.855448301574697	-1.54128213407937E-06	7.20720304219375E-07	-1.35846460307297E-06	1.46620393764562E-06	0.0749559852208039	0.995017962749925
1.4	0.447943612192839	-0.894099129318854	3.93020882157621E-06	-3.24769065131461E-06	2.70975503927061E-06	1.09617603420291E-05	0.200437946448819	0.976897261810149
1.5	0.37556141489904	-0.92665835641358	-5.34927192441723E-06	1.11340014349097E-06	6.60319306668774E-06	-7.22469668832066E-06	0.322607685468222	0.943605958136707
1.6	0.30136233945934	-0.954256191680231	1.77646012710593E-06	-7.76099908382994E-06	3.64265473760804E-06	1.38406407040836E-06	0.438882696460346	0.894929829534961
1.7	0.226057807212247	-0.974716833538545	-1.94805022892499E-06	-9.70281048267636E-07	-2.38260921230185E-07	-2.09278940324149E-06	0.547471069980689	0.833036097065405
1.8	0.148849208617373	-0.989418396636181	2.86544992672045E-06	5.29162956637002E-06	6.5038784163573E-09	2.03757943435425E-06	0.647799195408872	0.757560278537554
1.9	0.0710512149534881	-0.998110564766938	5.68974388308516E-06	-2.64612509039895E-06	-3.00728854684469E-06	4.20378871444492E-07	0.737282733335523	0.670550355468803
2	-0.0065714849909596	-1.00126864225896	-1.55809304125393E-06	-2.03292999127745E-06	3.24358492180923E-06	1.15021946847711E-05	0.816681269184879	0.572546169041759
2.1	-0.0865421120700165	-0.997903864194906	-7.57773931727998E-06	2.48542818192181E-06	1.22610935245477E-06	5.16361053026758E-06	0.881699372842801	0.464006245701683
2.2	-0.164029190508851	-0.988021769737602	-8.82312653264199E-07	1.40203360638786E-06	3.03751252759873E-06	7.79675308351519E-06	0.932403595440842	0.34947595116785
2.3	-0.241932389292678	-0.971543863397568	2.03779549822571E-07	7.4796390448267E-06	7.45366937590912E-07	9.39774741617615E-07	0.968229775106863	0.230104119469829
2.4	-0.318444132486652	-0.948519856198098	1.60952375943223E-06	7.19370703221252E-06	1.54842574028834E-06	6.40452233750356E-06	0.98956406848078	0.106102074108465
2.5	-0.39197299352555	-0.920095347571737	4.39545089812786E-06	-2.33815543037119E-06	-1.94939069323023E-06	-7.58799985636222E-06	0.994680555421856	-0.0192161010387768
2.6	-0.463247674800537	-0.885780363830664	6.76476369269172E-06	-5.98831825289345E-06	-1.10870914811317E-05	1.09017734842968E-05	0.983941217410259	-0.144595303894019
2.7	-0.531876715571786	-0.846096053571603	-4.41568580510669E-06	9.18324423041622E-06	-2.91774548410349E-06	-9.16974610624885E-06	0.957210514722946	-0.267518011653919
2.8	-0.596333767115075	-0.801550797429609	2.46812682034499E-06	1.13579481689564E-06	-3.12985873709763E-06	1.25989165214301E-06	0.916058767098023	-0.385282375493093
2.9	-0.656630624394034	-0.752193667199299	-5.48390511692475E-06	6.05289474666038E-06	-9.21437455724308E-06	-2.42193479431039E-07	0.860250265064278	-0.496801530295034
3	-0.712380824597662	-0.69805588073507	4.66010994127432E-07	-1.47751786982484E-06	1.13495206201671E-05	1.41074482806388E-06	0.790910179128835	-0.601111953509837
3.1	-0.764904943153846	-0.641384435747205	2.45744304642006E-06	1.04992722634822E-05	4.34109518376465E-06	2.15690206413443E-06	0.708811758759954	-0.695085971944372
3.2	-0.812999904202715	-0.579899226060367	2.13801848996453E-06	6.46346545940733E-06	3.95435808711962E-06	-1.0637087791451E-05	0.61595842594893	-0.777853502183701
3.3	-0.8558639805303	-0.514709186352	3.1085710903383E-06	4.95048524692175E-06	-2.27423382673255E-06	-9.66525718938105E-06	0.512404804454809	-0.848762342196812
3.4	-0.892341148552747	-0.446660249978651	2.11326995418226E-06	-2.61457149459333E-06	5.96554799182775E-06	1.35448694957125E-06	0.402498129348794	-0.905393853725165
3.5	-0.924242246959925	-0.375405955001983	-3.23737116622224E-06	9.60553216184046E-07	-2.05976908789869E-06	3.43364088703614E-06	0.286546546153234	-0.948903804425081
3.6	-0.95122690749737	-0.301412091645981	-1.8333741417586E-06	-3.73759774217976E-06	-7.80884229918933E-06	4.14955230430931E-06	0.164241555683404	-0.978014482937885
3.7	-0.971446897368945	-0.225760062631176	7.77099839783637E-07	-8.3333606996105E-06	1.07910079857717E-05	3.63927193314369E-06	0.0392355802030296	-0.990230703293807
3.8	-0.985766749463042	-0.148090395216548	1.00487564123134E-07	1.54609852193387E-06	-6.48524040131583E-06	5.98620638393285E-06	-0.0850797278815817	-0.986938133219251
3.9	-0.993430889796881	-0.0702247297308059	-2.6546868795662E-06	-5.01187292689948E-06	-3.65813958534953E-06	8.04376558944797E-06	-0.209808128075499	-0.968739438147285
4	-0.994946402637644	0.00827991726381317	7.12309478951602E-06	-4.24804180045592E-07	-1.05166291789894E-06	-1.1987161216177E-06	-0.330507089655232	-0.935313686551657
4.1	-0.991320484733211	0.0858718699748957	6.16187752893719E-07	-4.46960004978875E-07	7.31486971621208E-06	-4.79341113139595E-06	-0.446586194770603	-0.885211199241092
4.2	-0.981790162278258	0.163656144092541	3.21161496234146E-06	2.08211241585995E-06	-7.21401480463184E-07	-7.56848046645714E-07	-0.554153223307175	-0.820841530050602
4.3	-0.966304817735861	0.239743411013502	-3.17759191842577E-06	1.38610213908578E-06	-4.97367827834965E-06	3.00210566362455E-06	-0.652433209280526	-0.744782056205701
4.4	-0.944657540338911	0.31512626482335	8.15453402603093E-07	2.63550187708666E-06	1.51286496914294E-06	-8.32967594607752E-06	-0.740492843602666	-0.657072985340175
4.5	-0.915224499434137	0.388531596032012	1.81670090822051E-06	-9.47961743197916E-07	7.62086291741596E-06	-2.94659226864007E-07	-0.817378147390206	-0.558935171835428
4.6	-0.881171507730453	0.457942105818612	-6.99299537271568E-07	6.12117391516638E-06	-1.23494412112679E-05	-6.41532748484314E-06	-0.880997917338889	-0.451662718643472
4.7	-0.842863569292217	0.52430625406088	1.20942905124735E-06	2.50092152388005E-06	1.42579268251937E-06	1.85676999732716E-06	-0.930972455138917	-0.33732147021244
4.8	-0.798400066860204	0.589041064329892	-5.12230225501413E-06	1.11237124795471E-05	5.25929063140336E-06	9.64803134846754E-06	-0.965644148445888	-0.216957095990414
4.9	-0.74885565742856	0.649411435357976	1.20671158421711E-06	2.9181245275828E-06	-5.08655825175368E-07	-6.8907494558186E-06	-0.984354986188249	-0.0927951390016398
5	-0.695078972846821	0.704302298138395	4.71903369765535E-06	-9.19266945063552E-07	-3.72056254445932E-06	2.42374422111023E-06	-0.98639254121307	0.0310529234967311
5.1	-0.638540509800016	0.756570298234257	4.11930760768068E-06	-1.4805385763634E-07	-2.66437015003043E-06	-9.77417645843617E-06	-0.975237508644254	0.154210496166708
5.2	-0.577124376141513	0.805085085760728	2.58785683774875E-06	-1.49470884763223E-05	1.37831592612548E-06	2.81067245975973E-06	-0.947922778091154	0.275826190260728
5.3	-0.511987683582812	0.848450888490539	-8.68459066892511E-06	-7.66788086524331E-07	-1.13115568860662E-06	1.60167707721035E-07	-0.905605512381524	0.392625497000971
5.4	-0.443530368624426	0.886630363070834	-7.17606329582367E-06	-1.10164303204582E-05	-1.3683637829775E-05	1.11782084158279E-05	-0.849123689871627	0.502721861726223
5.5	-0.371961611771891	0.918258688074126	1.90015799442263E-06	8.54869701977483E-08	-2.23623239582901E-06	1.78323179350237E-06	-0.780634198049505	0.605174747518946
5.6	-0.299208079979078	0.943669990714464	-2.3931978596308E-06	3.50774933586303E-06	-1.33463500858789E-06	1.28794591234822E-06	-0.698554639074447	0.698944206598794
5.7	-0.224507195145001	0.964410540553933	1.30313673391252E-06	1.22446304348845E-06	5.7398678654975E-06	-1.2827095198125E-07	-0.605146041541746	0.780813063424334
5.8	-0.148279497085768	0.978826418623514	2.6960543914723E-06	4.23734998621651E-06	-2.09782231797022E-06	4.2263444805022E-06	-0.502330237970212	0.849743082747926
5.9	-0.0712876840067086	0.987938056165818	-6.85667017994344E-06	-2.28904753948293E-06	-7.54040718324914E-08	6.26199301980975E-06	-0.392682864506588	0.905332973462524
6	0.00785600954631485	0.9909434713436	-1.78686955478327E-06	9.0140713627077E-08	-5.44726618655245E-06	-4.37461779237471E-06	-0.276539046166332	0.947308820864367
6.1	0.0858223857796112	0.985014138340035	3.15951352946245E-08	-9.87352446312205E-06	-9.82551528553858E-07	-3.20047937837315E-06	-0.15635698038573	0.973351561458233
6.2	0.162362021909639	0.974207252756201	-1.01568930566984E-06	3.0970516849415E-06	-1.7487383046164E-06	4.1933941423925E-06	-0.0337466282565685	0.98480516120568
6.3	0.23833184857771	0.958284123121081	-8.0211152358245E-07	2.81545698169593E-06	-2.9236300178503E-06	2.38227052302297E-06	0.089622507682604	0.981411887321103
6.4	0.31395178310254	0.936791414734879	-5.94348993718341E-06	5.51830028977791E-06	-2.37079691810385E-06	-7.46690591999899E-07	0.212842858742785	0.962886070611001
6.5	0.387963329781576	0.907287917443361	1.39417449906385E-06	-5.24943584855092E-06	-1.44220736841155E-06	-2.36379574656076E-06	0.332906310953955	0.927000934880735
6.6	0.456364271731734	0.873552217260306	3.63232688631107E-06	2.12747414711788E-07	1.12421754819163E-05	-2.64987272181984E-06	0.445185747346503	0.877691274908255
6.7	0.52335808554859	0.835565916925956	-7.73986077594996E-07	8.40938929136765E-07	-3.76196166778845E-06	5.1932879731756E-06	0.551018135629662	0.815525417371311
6.8	0.587619004463408	0.792301857966892	-1.75995851778716E-06	4.45963982771497E-06	1.44909474182419E-06	-8.74436932902509E-07	0.648389822193258	0.740558967064726
6.9	0.648563209465873	0.744108748243453	5.88231885917182E-06	2.2621618907557E-06	-9.36736354439731E-07	2.40036264824196E-06	0.735663544583324	0.654096616042175
7	0.705896848212388	0.690468317233732	1.15753359550893E-06	-4.13170136411378E-06	-1.43820048300217E-06	2.90110612386983E-06	0.811778356075769	0.557059022163529
7.1	0.757944471540922	0.632461818102147	2.42330465262169E-07	-7.14987297904081E-07	1.92947786210703E-06	9.16863846091304E-06	0.874579468724613	0.451200500897369
7.2	0.805323575482567	0.57058763095008	1.39076160913054E-06	-2.39974821248035E-06	-9.72227537435477E-07	-8.54100136806636E-06	0.9236364187197	0.338726006753827
7.3	0.847562571011117	0.504955287135599	4.78645388250847E-06	7.21907361285954E-06	-9.6877407214112E-06	2.28277271929693E-06	0.957860158083232	0.220915038304835
7.4	0.884661600833583	0.436612620955958	5.0717543920947E-06	-6.52434347904802E-07	1.98022321863739E-06	-9.57561453158225E-06	0.977216489832763	0.100430060502395
7.5	0.918056650164548	0.365903401844341	2.77558868288059E-06	-5.25858509827568E-06	2.14584721158321E-06	-7.22445221088612E-06	0.983853968264143	-0.0214203487863061
7.6	0.945712044835534	0.290398865888494	-2.658282634745E-07	-5.62433641602904E-06	1.66941547143792E-05	3.99783546632462E-06	0.974199065773897	-0.145974793789744
7.7	0.966605942100751	0.213355778390004	3.51040491012904E-06	1.40635959355704E-07	3.48241821827141E-07	-2.91673530026724E-06	0.948639416107218	-0.267379041196366
7.8	0.981387663778533	0.134895567530839	-1.09525747770198E-05	-2.01432050850499E-06	-2.32982737763653E-07	3.43454668487166E-06	0.90841164075552	-0.384939631750246
7.9	0.990212399945906	0.0552502681096906	2.34124183096397E-06	2.05271396251625E-06	-6.90977697149333E-06	-4.77464977109085E-06	0.854144117426827	-0.497131607008374
8	0.992471232914748	-0.0271072405264102	2.34104449421155E-06	2.97317711012279E-06	-9.3154283459794E-06	-7.66635699722527E-06	0.784285181312054	-0.604167778517691
8.1	0.984749099028406	-0.107106422625456	3.83913321287649E-06	-3.05322774762349E-06	2.15999651380779E-06	-3.1752701854788E-06	0.699400879052099	-0.696862643560115
8.2	0.972576708813309	-0.184653068383543	-4.0385885808139E-06	1.39595171728449E-06	-6.74861922350566E-06	3.28779466579583E-07	0.60662561620857	-0.77787149046684
8.3	0.954452636519549	-0.261711564531093	9.85146913575064E-06	3.46113426514155E-07	6.18384068317097E-06	1.04695308217411E-05	0.504593547692431	-0.84726931603995
8.4	0.930247142803296	-0.337384288855902	1.26866232713679E-06	2.56049552453133E-06	3.44562469079407E-06	1.8400884882223E-06	0.394999261834969	-0.903727467876705
8.5	0.899875679379751	-0.41136733309553	-4.8738970380567E-06	4.92540658575177E-06	2.87284497482326E-06	-2.99978177256111E-06	0.27888944949381	-0.947154465878165
8.6	0.863663250842587	-0.482367300004257	-4.51721570422675E-06	2.0592206052184E-06	-3.09581857226985E-06	8.10514700356924E-06	0.156826986113401	-0.975499247655323
8.7	0.822121018488967	-0.550577092825853	-1.03050457117533E-06	1.21194292229739E-06	-6.66852495914054E-07	3.46546559120539E-06	0.03224587120214	-0.987461429789833
8.8	0.775071592058387	-0.615242852675962	-1.60524710731979E-06	3.07715990245652E-06	-6.0286054220389E-06	1.25464727449256E-06	-0.092352368097082	-0.983653096588643
8.9	0.723037270169532	-0.675764705663975	3.18881640981326E-06	-1.82070617922003E-06	-3.16919324282146E-06	-4.72431776436047E-07	-0.215304792103981	-0.963272476176241
9	0.666799293774828	-0.731596273560931	-7.29828808154732E-06	1.31324797010157E-06	-3.98407066598129E-06	7.04508753431083E-07	-0.332682256634836	-0.929466323439645
9.1	0.606231316921365	-0.783777365039232	-3.34777939489441E-06	-1.9071813760776E-06	-9.98780993239937E-07	2.13176630080661E-06	-0.447911947943169	-0.882286514335922
9.2	0.540689267422494	-0.830765653992905	6.00846667283599E-06	-1.60404111237455E-06	1.93440706637509E-06	8.51146502304771E-06	-0.556150835646294	-0.820336928710018
9.3	0.47129774655388	-0.872046517225765	-3.47615164096121E-07	1.07133592270507E-06	1.36258481644108E-05	1.1957913135229E-05	-0.655970379601455	-0.744617235328322
9.4	0.398798882554188	-0.906703201276733	1.75782577664876E-06	-2.65785674492744E-06	4.28919156595575E-06	1.79688250971513E-06	-0.74425531264409	-0.657115622388243
9.5	0.3238410020872	-0.937119549243712	-6.5077207400766E-06	-4.97232660226317E-06	-1.91174350928601E-06	-5.75562821717372E-06	-0.824112024923827	-0.56050631108492
9.6	0.243195326528102	-0.959889730507298	-1.17601324586928E-05	-3.30983176389506E-07	-5.94191955581177E-06	-4.07627119412396E-06	-0.890996757035438	-0.4498174317268
9.7	0.16260021307493	-0.974793521240848	1.4801548977192E-06	-4.73902572783102E-07	-2.94544817210387E-06	1.63735568290055E-06	-0.940928999064072	-0.332183646845813
9.8	0.0815521261513357	-0.983340472594128	2.21449461220779E-06	1.42065523946027E-06	1.52223244379776E-05	-3.45573814097089E-06	-0.975062270788164	-0.210114048429769
9.9	0.000117763481082785	-0.985327389987854	-3.52315195834653E-06	9.02159447132734E-06	1.38371089234458E-05	5.08248118221984E-06	-0.993504332655819	-0.084934571242767
10	-0.0813662786087727	-0.980131658488279	-3.67406452173569E-06	1.6165654753809E-06	1.94398944473571E-05	-1.82029657048931E-05	-0.996277003647181	0.0403873361361715
10.1	-0.161235972011257	-0.967319755914159	-1.49980177099514E-06	2.31456538283834E-06	-8.46973699679209E-06	-4.37702081859632E-06	-0.984800975738548	0.166227552451854
10.2	-0.239268746369151	-0.948453707416195	-2.32506951082992E-06	-1.25901604162315E-06	-1.3052529808826E-05	7.24822453476388E-06	-0.956315734141978	0.290355921751425
10.3	-0.314579010686599	-0.922729093451999	5.80701742826413E-06	3.97464364790403E-06	-6.20726086446892E-06	1.37610308968343E-06	-0.912256504483166	0.409445872428147
10.4	-0.387032309488869	-0.891016524669729	2.11883547330098E-06	1.05903442815554E-06	7.20942209104515E-07	-8.2938088695584E-06	-0.852629513954347	0.521653749721659
10.5	-0.455466058913452	-0.852424584429169	4.39844564894369E-07	-3.08199827747911E-07	-6.61476207315033E-07	-5.67078724026984E-06	-0.779310860623495	0.623248388587339
10.6	-0.518436163582471	-0.809294403004834	5.1183969599351E-06	-2.62112931011469E-06	-9.80620954657163E-06	-7.92542058938576E-06	-0.696323525766918	0.715754004585256
10.7	-0.57752319265283	-0.762317783134593	-2.83088752544177E-06	-5.04658717334857E-07	-5.25751246590949E-06	-7.20895643755489E-06	-0.60175609454199	0.798298936751214
10.8	-0.632514963262438	-0.711951497348005	-3.63882244654319E-06	-3.46014580128471E-06	-1.20244032802454E-05	9.20909991717498E-06	-0.496499687819418	0.868356895743239
10.9	-0.683004216379802	-0.658302406684824	-1.14521228641837E-05	-1.04484153377712E-05	-4.47675670334152E-06	1.10162729486371E-05	-0.382895715512993	0.923188911231131
11	-0.728304555514146	-0.604984678001721	1.01498464230175E-06	1.41619269336098E-06	8.70478778732146E-06	-5.52142140776756E-06	-0.265710371538844	0.962572400551812
11.1	-0.773881728137913	-0.548533644403258	-3.30185788365574E-07	-3.65701679284976E-06	1.02491837263521E-05	-1.02736994342351E-05	-0.143281283591414	0.990590523211325
11.2	-0.815209739618708	-0.487875053042634	-1.04564803011858E-06	-3.93992786153927E-06	2.16676474583129E-06	-6.36013180480788E-06	-0.0156181506417845	1.00133283413896
11.3	-0.852543655226002	-0.423630097377486	1.61576724041189E-06	-1.21352147627122E-05	3.58438756784364E-06	-2.85132303345266E-06	0.112334169404152	0.994845782349734
11.4	-0.884501861811069	-0.356667156874783	9.94090977217756E-07	1.53296505487319E-08	-5.70994474465057E-06	6.52822869584585E-06	0.238577186473256	0.971795432416973
11.5	-0.913048301805203	-0.287130422206593	6.59207966511098E-06	-1.2799933080317E-06	8.30120251813428E-06	-3.52132068911523E-07	0.359206242244179	0.932386371669219
11.6	-0.935294741594566	-0.213322340722926	-6.74279750336694E-07	-5.35967000217378E-06	1.42960943125782E-06	-3.10939928679556E-06	0.474298885552966	0.878640869515358
11.7	-0.950660271375561	-0.137383125795151	-1.31814025122249E-07	-6.08051864249819E-06	8.81042161715433E-07	-2.67843771546141E-06	0.581563193796024	0.810433376677608
11.8	-0.960133366201672	-0.0594794271050051	-1.08109557996385E-06	-7.3788042873325E-07	5.19726538044148E-06	1.05197097988094E-06	0.678993621531988	0.729257268335704
11.9	-0.963374156740038	0.0202115788627055	-3.26223981932088E-06	-5.21535231330441E-06	-5.45958379782826E-06	-8.0178737774992E-06	0.764520475637483	0.637259198699899
12	-0.959143389044054	0.100409047577121	-2.95152342056416E-06	1.67066389778739E-06	-1.68849912184516E-05	-8.69449307972555E-06	0.837419923180264	0.534364624630015
12.1	-0.948465110906749	0.179548696864362	8.19400986656182E-07	-1.58083355222899E-06	7.97952525210762E-06	1.22871640514031E-05	0.894806776179343	0.425421478939513
12.2	-0.930695173954339	0.257883899979086	-4.09017492336886E-06	5.6056604207238E-06	4.39924606167186E-07	3.32699961177031E-06	0.940710300866955	0.310431332335278
12.3	-0.907387695197814	0.334711132636809	7.92510860130614E-06	6.36572377904208E-06	5.02882777737208E-07	1.09507704459126E-05	0.971841100831499	0.189047646922532
