# GHZ S RI R 50
0.2	0.988464818168588	-0.156374411156857	2.566799608846E-06	2.25923206249116E-06	6.59352589361453E-06	-4.86977534572747E-06	-0.968998145694395	0.250093721674864
0.3	0.972872213707734	-0.233716588461288	-8.65838053093305E-07	-5.47214909179757E-06	-3.46159877387532E-06	-7.97633218503114E-06	-0.930631757023809	0.370175392172981
0.4	0.952066860204237	-0.309422781483253	-7.30644480964522E-06	-1.01080338944425E-06	4.45592091230352E-06	1.56085932433812E-06	-0.877412103532127	0.484762052687382
0.5	0.925557463225684	-0.384385463227788	6.22932668506203E-06	2.12191168928412E-06	-2.42448095652986E-06	-1.92027847947958E-06	-0.809242964949568	0.593435585758634
0.6	0.891772016298076	-0.455836058285242	-1.0600524280679E-05	2.46445820124349E-06	-2.22767588858574E-06	-1.01318428996188E-06	-0.726718193323966	0.690161583938668
0.7	0.853709103124211	-0.523961684805629	2.79902684799697E-06	-1.17495852669251E-06	-3.00811364235827E-06	5.81362152785987E-06	-0.634491030377461	0.776291633119173
0.8	0.810265150003798	-0.589699463028491	1.19043822787168E-06	-8.52115933940398E-06	-6.65411481509395E-06	-3.09274680888272E-06	-0.531711811941309	0.850525079751211
0.9	0.761357518066719	-0.652041268533587	-1.15308778019656E-06	-6.85572930976509E-07	2.55965534819315E-06	6.58285637453055E-06	-0.420221689432414	0.911067396340844
1	0.707320531865003	-0.70965010412002	-2.75976733874711E-06	-3.24185033691844E-06	-4.05444952399422E-07	-7.35858893105126E-06	-0.302132378039836	0.956877704321955
1.1	0.650853798255392	-0.763260264641856	1.81901451979681E-06	-4.97071506959665E-06	2.28531909150092E-06	-5.16526537252445E-06	-0.178530503789318	0.98759059776248
1.2	0.588249894477572	-0.813572023642053	-2.51077281664993E-06	2.50770583390708E-06	9.31675970488898E-07	-9.16761690559242E-07	-0.0515532508694857	1.00176070502202
1.3	0.519818758583162	-0.858627320669173	-1.54639486274946E-06	7.25294886277982E-07	-1.36200475786573E-06	1.4734441756127E-06	0.0763051356232952	0.99953003872875
1.4	0.448033711938882	-0.896820018463671	3.93749276116173E-06	-3.2646824560928E-06	2.73667808303539E-06	1.09926082928634E-05	0.202860766892569	0.980632085360895
1.5	0.376699594212609	-0.928842110800571	-5.36345113870505E-06	1.12354911178111E-06	6.61315103087103E-06	-7.25430238510825E-06	0.325957566756257	0.94694588744355
1.6	0.302340366570182	-0.958240415045199	1.77241343087889E-06	-7.79025559186316E-06	3.65711020432641E-06	1.3840734252701E-06	0.442672848532471	0.897245551366667
1.7	0.225933632994119	-0.979117625761088	-1.95679594094751E-06	-9.70837856002417E-07	-2.42415381661441E-07	-2.10018377357712E-06	0.551280305975591	0.834954822200352
1.8	0.14802215205946	-0.993754799661145	2.88475262002271E-06	5.30666226690785E-06	9.85168660651538E-09	2.04515701614267E-06	0.65160561756512	0.759062337144058
1.9	0.0702106364318452	-1.00233354049188	5.70946287760457E-06	-2.66196996178022E-06	-3.0186543498514E-06	4.24924631845522E-07	0.740609071651081	0.672378741745128
2	-0.00759056214108871	-1.00722269220931	-1.57021415162015E-06	-2.04428640559424E-06	3.27651672077176E-06	1.15723489186216E-05	0.822557253045168	0.575939371352839
2.1	-0.0901599615812479	-1.00382762141037	-7.61449443389843E-06	2.52885534424408E-06	1.25286065901996E-06	5.19040362807742E-06	0.889361715748193	0.463519732584782
2.2	-0.168613108770762	-0.992993271033013	-8.81075255787281E-07	1.41270014897215E-06	3.08452582296888E-06	7.82380333620642E-06	0.938730578623696	0.347038314946334
2.3	-0.247269269542596	-0.975896575591811	2.35255311176886E-07	7.51425992363054E-06	7.52733235179921E-07	9.41188705064376E-07	0.973516323148975	0.226786185325055
2.4	-0.324600852851923	-0.952173610930397	1.64709020400185E-06	7.22121887741749E-06	1.58242002225377E-06	6.42853582346499E-06	0.994054893689794	0.102287322210977
2.5	-0.398824335412166	-0.92275120447421	4.40631028827274E-06	-2.37007091485572E-06	-1.99418516468735E-06	-7.6164205445057E-06	0.998941015134656	-0.0236148836696052
2.6	-0.470523283672635	-0.887510128674939	6.76744779839522E-06	-6.05153523961444E-06	-1.10860082611365E-05	1.10106672652388E-05	0.987532227213055	-0.149793793785117
2.7	-0.539628943136426	-0.846925851334728	-4.38623112578007E-06	9.25515454607075E-06	-2.98457882083566E-06	-9.20005599008857E-06	0.960434391723263	-0.273617686777746
2.8	-0.604758899514903	-0.801326924299862	2.48830187386795E-06	1.12527577718115E-06	-3.13756380681566E-06	1.28707537208503E-06	0.918230091945465	-0.392743156119203
2.9	-0.665973336763845	-0.749998829356745	-5.46391000124832E-06	6.12600189991642E-06	-9.26224531875785E-06	-1.71309193232372E-07	0.860560857793735	-0.505035471910494
3	-0.719857433932009	-0.69256927475402	4.53660545914513E-07	-1.48692682668233E-06	1.14013438086976E-05	1.30851377683769E-06	0.789456535936678	-0.609352132236763
3.1	-0.770590417366436	-0.636784582954811	2.55445421672926E-06	1.0497465906364E-05	4.36826437700478E-06	2.12277930727696E-06	0.705332807654445	-0.703331249451888
3.2	-0.818794219399468	-0.574881627223783	2.1968632051126E-06	6.45412192286956E-06	3.8680639183856E-06	-1.06862570160959E-05	0.610396087989731	-0.785147027431263
3.3	-0.861190632760856	-0.508523952094172	3.1541219335196E-06	4.92567365986995E-06	-2.36108224672385E-06	-9.65042447152704E-06	0.504848770448247	-0.854512206296062
3.4	-0.896051044622149	-0.439095048693622	2.08793232085612E-06	-2.62933545537941E-06	5.96933876852757E-06	1.30125979164413E-06	0.393169655818812	-0.907997197488326
3.5	-0.925411967059838	-0.36936383817478	-3.22648459525366E-06	9.76534690803789E-07	-2.03744820784283E-06	3.43888525498557E-06	0.28024311688822	-0.948084679892147
3.6	-0.953969684537159	-0.295969880737912	-1.85737858494265E-06	-3.72857303903272E-06	-7.78803044954328E-06	4.19989328574983E-06	0.158134965287036	-0.979412944761649
3.7	-0.973820775324809	-0.218939341370785	7.16508734001434E-07	-8.33773630678496E-06	1.08157810489216E-05	3.56041224520677E-06	0.0313641847625222	-0.99023966178507
3.8	-0.987030263664932	-0.140475894734266	1.11637241799497E-07	1.54368191256932E-06	-6.43457979178597E-06	6.02691063275456E-06	-0.0931629265175141	-0.984647778326026
3.9	-0.993380473845885	-0.0620450345641293	-2.68490535288863E-06	-4.98679913774242E-06	-3.59845266980793E-06	8.05719485703075E-06	-0.216695209265907	-0.964401082002553
4	-0.992995852935066	0.0165702705226023	7.11371740690211E-06	-4.77113811606654E-07	-1.05960784070774E-06	-1.1898887951724E-06	-0.336003592435671	-0.930955146630656
4.1	-0.988011263135923	0.0933329526882994	6.11252109044427E-07	-4.51015458360076E-07	7.26043933482085E-06	-4.84264084470396E-06	-0.452263872019829	-0.879846691815079
4.2	-0.977558113392454	0.170343955232085	3.21829180522564E-06	2.05092493723611E-06	-7.25152674363851E-07	-7.48984169585799E-07	-0.558763124315309	-0.814236062553858
4.3	-0.961566753089028	0.245522460963197	-3.15640809953029E-06	1.40404398138114E-06	-4.93453731461278E-06	3.02724868506544E-06	-0.655725082881963	-0.737448377715177
4.4	-0.940437123133323	0.320681729783033	8.29000118259896E-07	2.62233569917397E-06	1.45733839040542E-06	-8.31302017870239E-06	-0.742670387073582	-0.649478677532203
4.5	-0.909065952220522	0.396553456388687	1.80729054838325E-06	-9.60980810449075E-07	7.60994871359729E-06	-3.53441563704278E-07	-0.818623067761654	-0.550417977699275
4.6	-0.871534722565731	0.462931879887704	-6.38367544263868E-07	6.10509774590449E-06	-1.23646998474384E-05	-6.27380556086343E-06	-0.880077327835941	-0.443006201560349
4.7	-0.833338887557726	0.526845221121997	1.2253522286136E-06	2.47726470231799E-06	1.43488500212478E-06	1.83452543262048E-06	-0.92865598205348	-0.329139945958797
4.8	-0.789131534716603	0.590367687311557	-4.99602455378869E-06	1.11033593991761E-05	5.31232562447078E-06	9.54625241865576E-06	-0.962368242028903	-0.2090165431346
4.9	-0.738999901916217	0.650659008687446	1.22672341178796E-06	2.88698101349508E-06	-5.71576330470691E-07	-6.83973916428982E-06	-0.979974551675993	-0.0838250355390439
5	-0.681958370290442	0.702334177737894	4.65901555740876E-06	-9.53735800513624E-07	-3.65723187518377E-06	2.43243089416279E-06	-0.976328003065328	0.0396873993893409
5.1	-0.628821082682214	0.750424900975903	4.07188881467479E-06	-1.69103894548192E-07	-2.68814912941374E-06	-9.64890196579142E-06	-0.964746326056843	0.157320841133416
5.2	-0.569466975126511	0.798834592379451	2.49195590031215E-06	-1.47967056236526E-05	1.37612080735002E-06	2.77393098468458E-06	-0.938201976685069	0.2774741968966
5.3	-0.505240985725471	0.841826007979849	-8.58932582871245E-06	-7.28287062143793E-07	-1.11785357428468E-06	1.62250983674914E-07	-0.895486482737863	0.392804851203035
5.4	-0.437715957036364	0.879539276669242	-7.10738880334909E-06	-1.08826531969287E-05	-1.3514806201118E-05	1.10671416763067E-05	-0.838697409460843	0.50061309719202
5.5	-0.366301969686831	0.910650280107308	1.88418793759855E-06	8.51909431536924E-08	-2.2178557520296E-06	1.76776608410663E-06	-0.771239960295293	0.600218583503844
5.6	-0.294834889960312	0.93433074632283	-2.36706419740171E-06	3.48230391770799E-06	-1.3212013192917E-06	1.27938119031246E-06	-0.69097084086904	0.692612035855462
5.7	-0.222145673263779	0.954402612302322	1.29226919662103E-06	1.21114497196609E-06	5.68500912215428E-06	-1.34315964407285E-07	-0.599005989466129	0.773265923892119
5.8	-0.148048853255806	0.968427879326808	2.66850437602147E-06	4.19255098828119E-06	-2.07517997916461E-06	4.18242881195605E-06	-0.497977057525801	0.840862537861219
5.9	-0.0744788069320315	0.978025311219291	-6.77029610608101E-06	-2.28005032813079E-06	-9.08205551123298E-08	6.1883557668626E-06	-0.391483370909896	0.895485245178743
6	0.00360127177899553	0.986286169285836	-1.77409425865721E-06	7.64835623243621E-08	-5.37454784046524E-06	-4.38130670751767E-06	-0.278145890888561	0.940700894821392
6.1	0.0850350837835991	0.979711284426582	6.75084027200958E-08	-9.83338432037721E-06	-9.66885793369725E-07	-3.1910920420842E-06	-0.156136198076548	0.967083883619245
6.2	0.160781473858659	0.967272871583645	-1.01743752173521E-06	3.08012334165482E-06	-1.74932452965265E-06	4.16967837347045E-06	-0.0344943928773759	0.977404527389526
6.3	0.23495783427124	0.951177183926146	-8.03783314457259E-07	2.79908957405975E-06	-2.91332488529021E-06	2.36374949614658E-06	0.0869128823736329	0.973961637866335
6.4	0.309396892814099	0.931991256175023	-5.93283433703136E-06	5.48123949957788E-06	-2.35931000065527E-06	-7.49469920480615E-07	0.208586894666501	0.957868739394452
6.5	0.387786022861199	0.902051342876769	1.38014332600487E-06	-5.23783176539206E-06	-1.44287858673414E-06	-2.35453735376094E-06	0.332901463859749	0.92204355952147
6.6	0.452479433073195	0.864007878026583	3.60332771545378E-06	2.0141829655005E-07	1.11436804530562E-05	-2.65801220385865E-06	0.441535819095252	0.868414652885448
6.7	0.516226546616392	0.827457269208548	-7.66003397500947E-07	8.32971951968928E-07	-3.72269904243197E-06	5.14366130670121E-06	0.543825452358602	0.807808332331692
6.8	0.578883711887876	0.785721301896584	-1.74540694977237E-06	4.40993181613767E-06	1.43436420827819E-06	-8.63605329753898E-07	0.639294163609341	0.734720694242565
6.9	0.638481798481547	0.739257098903213	5.80338022445612E-06	2.24988221885489E-06	-9.31556592409369E-07	2.36811414216682E-06	0.724963361892875	0.650636550868112
7	0.695725396264823	0.687696920700431	1.17528884186438E-06	-4.07495424503285E-06	-1.44340079773174E-06	2.85653720103778E-06	0.801511930060653	0.556665577521283
7.1	0.747532900419116	0.630341443762825	2.45330805096269E-07	-7.07543816776796E-07	1.8503934797842E-06	9.10808781592585E-06	0.86461002040792	0.451428340928501
7.2	0.794220592536964	0.569610273792235	1.39386345449756E-06	-2.37223283416514E-06	-9.13678332166929E-07	-8.47825928698283E-06	0.913104731172794	0.340363957524004
7.3	0.835787082200869	0.505012141422183	4.70712476453497E-06	7.18314890201679E-06	-9.61741555814406E-06	2.21158356753782E-06	0.946788893290868	0.223995057909078
7.4	0.870776967345174	0.437997105256275	5.01783741348865E-06	-6.2147505426834E-07	2.00260325772161E-06	-9.45885098678017E-06	0.963948261698543	0.106003409906468
7.5	0.903462183620467	0.373323275667045	2.79152108825253E-06	-5.15227995581327E-06	2.19201266169004E-06	-7.096271604502E-06	0.972479209687784	-0.00766913100974337
7.6	0.935041293953377	0.299664739460607	-1.85826673078825E-07	-5.57388138549239E-06	1.64784816866736E-05	4.18923867410904E-06	0.96925332544272	-0.13210580770518
7.7	0.956964177313359	0.223371824331369	3.48088702464101E-06	1.87129128547385E-07	3.85052213419251E-07	-2.88907186477623E-06	0.945628661249273	-0.253781757081423
7.8	0.972420786911629	0.146982876150045	-1.08437421050073E-05	-2.16003379090744E-06	-2.81564373210278E-07	3.40625374061125E-06	0.907553423458897	-0.370083243383564
7.9	0.983305836181916	0.0716679411651268	2.29052070381614E-06	2.08292440300464E-06	-6.78323110581063E-06	-4.87132250701372E-06	0.857998190339553	-0.479802842576671
8	0.995247163984409	-0.00928516444184877	2.2878974221815E-06	3.0279640820205E-06	-9.18719744822109E-06	-7.87317615623996E-06	0.798029465242524	-0.592042511982027
8.1	0.989141536471136	-0.0959064695651747	3.89975309320084E-06	-3.01879010192197E-06	2.21332232615685E-06	-3.16362262248463E-06	0.710013765055528	-0.692597903931809
8.2	0.976357035270283	-0.174422245973019	-4.07067076172986E-06	1.35681596728463E-06	-6.7799682253235E-06	2.55158200285833E-07	0.615354689207939	-0.774188740354291
8.3	0.95901525305181	-0.251777575277464	9.88615896459038E-06	4.47645777157382E-07	6.10134963626128E-06	1.05730278086061E-05	0.513153938917996	-0.844199874936282
8.4	0.93610613165843	-0.327952047304271	1.25072735053565E-06	2.58063453210399E-06	3.44167667215443E-06	1.87674000773475E-06	0.403671058907255	-0.900945311472883
8.5	0.907169089828611	-0.403318135003636	-4.92477716867622E-06	4.88682121718302E-06	2.90371782130847E-06	-2.97715474119496E-06	0.290086327546192	-0.945378432357418
8.6	0.871473102357926	-0.475514236446721	-4.55286004981787E-06	2.01461133431716E-06	-3.19491383118863E-06	8.09335687640687E-06	0.167837326359464	-0.977896628908355
8.7	0.830811217575877	-0.544899712706439	-1.04814613204723E-06	1.20663071628977E-06	-7.067199503441E-07	3.47446767189469E-06	0.0414818885459087	-0.992108617106801
8.8	0.784350378687475	-0.611296135036591	-1.64447217174292E-06	3.08085706318742E-06	-6.07776596446935E-06	1.20495242933028E-06	-0.08539204834911	-0.990052926361713
8.9	0.731691188188514	-0.673716360713686	3.22526429908383E-06	-1.81308714785474E-06	-3.19007423625785E-06	-4.97326115707084E-07	-0.212291126137143	-0.969415766353272
9	0.674624174634494	-0.72881232096283	-7.32928776058037E-06	1.29203952302735E-06	-4.00094909678389E-06	6.92886579393055E-07	-0.328202202240722	-0.930668031758006
9.1	0.615478648555629	-0.781924049874434	-3.34226133345692E-06	-1.93315289422198E-06	-1.01486768165001E-06	2.12966853948634E-06	-0.440733733130602	-0.887188595071459
9.2	0.549923166542973	-0.830091513307037	6.03539230049326E-06	-1.56347385682962E-06	1.87609554908992E-06	8.54710074497904E-06	-0.550205181490408	-0.827303798488382
9.3	0.480148683048058	-0.87199704747508	-3.56878844287728E-07	1.07102085399126E-06	1.35622286179988E-05	1.20928596512842E-05	-0.651109997882477	-0.752673874863832
9.4	0.407098548323778	-0.905122223626687	1.78246728333847E-06	-2.64384575916012E-06	4.27581013111429E-06	1.83602618264532E-06	-0.73912981376015	-0.665043740069155
9.5	0.339264300910094	-0.934950028694648	-6.44099831803752E-06	-5.0875290943139E-06	-1.82289369474741E-06	-5.79834646443704E-06	-0.817343580055303	-0.57569897504434
9.6	0.258524141024873	-0.966199566776987	-1.18634065795654E-05	-5.04440532926336E-07	-5.93745401397302E-06	-4.1998345163809E-06	-0.893873817467725	-0.467548850887086
9.7	0.174526859176758	-0.983664021411747	1.50110192765118E-06	-4.61649212631417E-07	-2.99519871237533E-06	1.62021503878179E-06	-0.948428174846502	-0.346734074489414
9.8	0.0913723505488989	-0.993211587744749	2.22389622868786E-06	1.45908951997213E-06	1.54240022233364E-05	-3.33559562026651E-06	-0.985169929563712	-0.221971907384379
9.9	0.00904827400305658	-0.995998777502588	-3.65244066684265E-06	9.09505192143394E-06	1.39528844794425E-05	5.27695159269501E-06	-1.00549622050333	-0.0937515739768353
10	-0.0735930549653295	-0.993904484143628	-3.73469588100775E-06	1.60981363660588E-06	1.98342598140119E-05	-1.82941176381971E-05	-1.00853714789542	0.0337885989347172
10.1	-0.15727796983469	-0.981765777435239	-1.53400216981593E-06	2.33331332397105E-06	-8.54579817918012E-06	-4.48833839769795E-06	-0.998839805403274	0.161056064421704
10.2	-0.237147682177765	-0.962789318336036	-2.34682567146776E-06	-1.29119709601858E-06	-1.32717946451616E-05	7.25411997689571E-06	-0.972018596448209	0.287954378475014
10.3	-0.314362701734215	-0.93756497672409	5.86402753548758E-06	4.07007263184237E-06	-6.30540692042266E-06	1.35478315794693E-06	-0.929429185480425	0.410356337277138
10.4	-0.389485760227152	-0.905997103627873	2.14832207203506E-06	1.08979127435191E-06	7.83324597874829E-07	-8.42994374483409E-06	-0.871461299032203	0.528192208231865
10.5	-0.460232136281002	-0.866295681239757	4.48743419615463E-07	-3.13770175118355E-07	-6.68637848920194E-07	-5.7821585752208E-06	-0.792069142068602	0.637932020417028
10.6	-0.525142250327077	-0.8222151194745	5.19598211128711E-06	-2.67496576952088E-06	-9.9831196519176E-06	-8.03300654347914E-06	-0.703228763782686	0.728242148860288
10.7	-0.586035996075941	-0.773992953786094	-2.87390277891582E-06	-5.04709868880074E-07	-5.35375583812407E-06	-7.30143413667433E-06	-0.607356453903218	0.810161856833995
10.8	-0.643304095571061	-0.722382571996817	-3.70302322539399E-06	-3.49832328526459E-06	-1.21684164051471E-05	9.38236375416468E-06	-0.500913392787248	0.881140465106477
10.9	-0.697171816715942	-0.664756512048641	-1.1677512571234E-05	-1.05188940387168E-05	-4.46760491194166E-06	1.11971841081861E-05	-0.383440081287256	0.937632119640162
11	-0.737446407092971	-0.605390713502844	1.03121144285837E-06	1.42086675882051E-06	8.73782628973019E-06	-5.61570572705387E-06	-0.26245386721911	0.972268342604076
11.1	-0.781748580587948	-0.553290775935613	-3.39995123146879E-07	-3.69141911357362E-06	1.03286032960275E-05	-1.03906673379988E-05	-0.142931138474756	1.00041858039798
11.2	-0.825749072079432	-0.492189522559008	-1.06868252813511E-06	-3.98169811648466E-06	2.17334614915267E-06	-6.43848167498719E-06	-0.0133950167481076	1.01285394603497
11.3	-0.864561733166026	-0.42566237573419	1.58242601784169E-06	-1.22831418666942E-05	3.61378670120292E-06	-2.89984281574101E-06	0.117229526629287	1.00652365919575
11.4	-0.895384439178231	-0.355569031422321	1.00452360816197E-06	1.05053644986635E-08	-5.73669716187342E-06	6.62486282207036E-06	0.245909175239175	0.982475912041096
11.5	-0.921517023581971	-0.28853148490938	6.66048504698474E-06	-1.31602354739378E-06	8.39153240590244E-06	-3.83618398152102E-07	0.368732266709135	0.941400489390061
11.6	-0.948046991960482	-0.21389497431887	-7.12658969436527E-07	-5.42279131806913E-06	1.43006807102693E-06	-3.15619832789527E-06	0.485241236700175	0.885269104555865
11.7	-0.963930163030293	-0.134444256724845	-1.76713145309466E-07	-6.14969308830865E-06	8.72093208682567E-07	-2.71560840323258E-06	0.593048498920104	0.814796815538903
11.8	-0.97271998416233	-0.0538249055376493	-1.0979210732892E-06	-7.37102115137542E-07	5.25884412699301E-06	1.02257216995103E-06	0.689962303828396	0.731631260118206
11.9	-0.97414329091211	0.0287528970999497	-3.32644196018136E-06	-5.2426825328718E-06	-5.56241858701324E-06	-8.05700536727443E-06	0.774530790484114	0.640946054167235
12	-0.967201293866856	0.110764702212515	-2.97727699794739E-06	1.70923885306382E-06	-1.71447112905255E-05	-8.69668905310589E-06	0.854307719033211	0.539091702652766
12.1	-0.955070139611129	0.189833210316329	8.1370522563459E-07	-1.60757398875819E-06	8.19398377260476E-06	1.23550947564878E-05	0.912436930671929	0.420863504106357
12.2	-0.936144733172394	0.268544629486945	-4.07335268679442E-06	5.7064008582432E-06	4.79439840715958E-07	3.35663727204932E-06	0.954867245517433	0.302299344029071
12.3	-0.912272410438999	0.34583607759102	8.07062142635881E-06	6.3453962188228E-06	6.23106007031921E-07	1.10539800466173E-05	0.983699905091763	0.179394992215958
