# GHZ S RI R 50
0.2	0.990356412872088	-0.155674445442806	2.56835440811353E-06	2.26527036140584E-06	6.60846129247322E-06	-4.8703598773566E-06	-0.970383646529769	0.249328037968184
0.3	0.975146080277582	-0.233152205800254	-8.60937411697454E-07	-5.48389051754266E-06	-3.45875562366496E-06	-7.99609697120761E-06	-0.932661274656671	0.369456614926981
0.4	0.954800371988267	-0.309181088425444	-7.32420894502085E-06	-1.02253000813866E-06	4.46557898753028E-06	1.57046971439E-06	-0.880263653263078	0.484503737385998
0.5	0.928203735325571	-0.385107352907973	6.24786244527339E-06	2.13104806582489E-06	-2.43125083008049E-06	-1.92724226854694E-06	-0.812223781983761	0.594681025527021
0.6	0.89372567785195	-0.456242981883304	-1.06272987685695E-05	2.46691599886528E-06	-2.23278631875478E-06	-1.01641495629114E-06	-0.728869075281667	0.69152179337131
0.7	0.856084310865895	-0.524120794536552	2.80738313406284E-06	-1.17610007886391E-06	-3.02036495658708E-06	5.82706170471084E-06	-0.636782043394613	0.777858304290703
0.8	0.813138831187662	-0.590167268360454	1.20061108915695E-06	-8.54704079410155E-06	-6.67269276935397E-06	-3.10748896588093E-06	-0.533945335062384	0.852647709496078
0.9	0.764584885341829	-0.653284927731659	-1.15692544502327E-06	-6.88723810483004E-07	2.56535573628257E-06	6.60837041601414E-06	-0.422191466032561	0.913728690468144
1	0.710193965610188	-0.71194922888445	-2.77085196081982E-06	-3.25501212840122E-06	-4.06925799765554E-07	-7.38833885383013E-06	-0.30379425334136	0.960098945300343
1.1	0.653019665605747	-0.766185130640072	1.82404201093806E-06	-4.99220350951354E-06	2.29217866528785E-06	-5.18779366602135E-06	-0.179572320326092	0.99142279993273
1.2	0.589518815589873	-0.816821823823178	-2.51869288371778E-06	2.52056375766373E-06	9.34628470927549E-07	-9.21475868982106E-07	-0.0518225630571399	1.00606049459924
1.3	0.520054504357594	-0.861736232937248	-1.55126542283689E-06	7.30546337291728E-07	-1.36498191930061E-06	1.48131388633869E-06	0.0772495466308852	1.00404811844479
1.4	0.447447591887642	-0.898905955083838	3.94350524592494E-06	-3.2822839290245E-06	2.76603839868034E-06	1.10215036927949E-05	0.204950446263657	0.984674244479649
1.5	0.37709434101905	-0.929636054819422	-5.37465826626576E-06	1.13306569626654E-06	6.61945465876851E-06	-7.27987399281105E-06	0.32913373730614	0.950537480071402
1.6	0.303224439624271	-0.959784292866421	1.77048337213075E-06	-7.81138179042593E-06	3.66748169461648E-06	1.38456111159076E-06	0.446508513926157	0.899509920024751
1.7	0.226605596383953	-0.980930394758501	-1.96288578419082E-06	-9.72223418786362E-07	-2.44498028672206E-07	-2.10585823287145E-06	0.555095927028722	0.836580124754896
1.8	0.148495425731221	-0.995713952515188	2.89624965834813E-06	5.32043761721789E-06	1.10728857961275E-08	2.05110846825528E-06	0.655385829521466	0.760170599201125
1.9	0.070937267527679	-1.00455606738906	5.7283492845409E-06	-2.67001339868277E-06	-3.02853206660114E-06	4.25977527700249E-07	0.743870746164509	0.673769376727893
2	-0.00736329963760843	-1.01150379891234	-1.57967597408997E-06	-2.05588174649712E-06	3.29750903141923E-06	1.16389471868261E-05	0.828364444954339	0.578964684479157
2.1	-0.0926653727212762	-1.00756127160774	-7.64737665968408E-06	2.56407611238875E-06	1.27438563725741E-06	5.21417130807678E-06	0.897133573805004	0.462666090587883
2.2	-0.171517409429566	-0.995489818771557	-8.8053723989716E-07	1.42122417203478E-06	3.12074027973701E-06	7.84724999215203E-06	0.945258562585031	0.344093825788367
2.3	-0.250241378194683	-0.977958839593102	2.56876732208278E-07	7.54323064792807E-06	7.58292264572892E-07	9.42825532573726E-07	0.978944830845491	0.222810945032214
2.4	-0.32780669419339	-0.954164493173194	1.6723633026728E-06	7.24699332324432E-06	1.60540099187275E-06	6.45118449622699E-06	0.998478541990967	0.0978409208775812
2.5	-0.402712465397709	-0.924786285812811	4.42092735585083E-06	-2.39379826016253E-06	-2.02506551691796E-06	-7.64755807909071E-06	1.00318591064011	-0.0282832633846115
2.6	-0.475449691575903	-0.889071762127424	6.78157037978286E-06	-6.10550881114584E-06	-1.11054174253653E-05	1.11047049708022E-05	0.991340402120646	-0.15525200211801
2.7	-0.545439766627215	-0.847555096019867	-4.37117323982199E-06	9.32355504696206E-06	-3.03924809660633E-06	-9.23728442424697E-06	0.963936329240235	-0.279915509881559
2.8	-0.611405553890799	-0.800742801154825	2.50747181543362E-06	1.11825836856687E-06	-3.14757327887522E-06	1.3103660121766E-06	0.920773770101289	-0.400325385878097
2.9	-0.67365772441763	-0.747495777305197	-5.45254521606536E-06	6.19268930270572E-06	-9.31096850605241E-06	-1.12533766830304E-07	0.861320750397056	-0.513222778533028
3	-0.726387480078918	-0.686291667145474	4.42659385082667E-07	-1.49593384616327E-06	1.14520502472532E-05	1.21661569814608E-06	0.788901565277578	-0.617229422038154
3.1	-0.775065011035308	-0.630444457583638	2.64268384876587E-06	1.04933363094406E-05	4.39211276533853E-06	2.09103288690947E-06	0.703556658375225	-0.711744262997272
3.2	-0.822617666911491	-0.567802442095356	2.24889616682737E-06	6.4415620668226E-06	3.78727992511332E-06	-1.07241429372554E-05	0.606692167737756	-0.793291597508017
3.3	-0.863986745832528	-0.500478678136377	3.19228649796479E-06	4.89929157998816E-06	-2.43692320931751E-06	-9.62900683232511E-06	0.499052414040988	-0.861761926631808
3.4	-0.896956789230523	-0.430116408616393	2.06346472862601E-06	-2.63955749361715E-06	5.96640894886396E-06	1.2530968407609E-06	0.385270274128065	-0.912586219511054
3.5	-0.923856769011519	-0.362360858502236	-3.21422428211599E-06	9.87970606052518E-07	-2.01756904912223E-06	3.43905601772828E-06	0.275226702813816	-0.949454653531463
3.6	-0.954175136265186	-0.289707234610897	-1.87607529863969E-06	-3.71964537259918E-06	-7.76778992632292E-06	4.23897248322852E-06	0.153006746798248	-0.983614862190829
3.7	-0.973573927018513	-0.211524353635746	6.65095593004154E-07	-8.33698379821664E-06	1.08308889873103E-05	3.49209904071342E-06	0.0237356244876744	-0.99322670068644
3.8	-0.985770853060074	-0.132757004414068	1.20882093947875E-07	1.54069106312544E-06	-6.38820370937163E-06	6.05712310995961E-06	-0.101675998232755	-0.985009683752663
3.9	-0.991380511378309	-0.0542604642366802	-2.70777284890122E-06	-4.96278136083111E-06	-3.54706245553282E-06	8.06255893010362E-06	-0.22425530392483	-0.961778068107968
4	-0.99002623385381	0.024735069036384	7.10125765461434E-06	-5.19484547861963E-07	-1.06537626749111E-06	-1.18188033980926E-06	-0.340996697551837	-0.927577317389236
4.1	-0.983718557262865	0.1013311493794	6.06692840534091E-07	-4.53978930767357E-07	7.20973303391624E-06	-4.87913403184371E-06	-0.456671156137882	-0.876474057897508
4.2	-0.972124682847662	0.177669443588855	3.22038356119329E-06	2.02336063201865E-06	-7.2745584085564E-07	-7.41792385690685E-07	-0.562429686762404	-0.810294709775453
4.3	-0.955565957633877	0.251697266364165	-3.13547522578681E-06	1.41601513637946E-06	-4.89712748028584E-06	3.04252812537467E-06	-0.658496785447819	-0.73292196816557
4.4	-0.935402591808586	0.326110520463038	8.37215567151042E-07	2.60943105914338E-06	1.41669571056945E-06	-8.28952545297125E-06	-0.74471339999854	-0.644492245183938
4.5	-0.903696511365795	0.404706489933134	1.80017130670944E-06	-9.70537909747033E-07	7.60122622242449E-06	-3.96929284133852E-07	-0.819518570333077	-0.544052911604646
4.6	-0.862923747846962	0.469721199622063	-5.8652813282348E-07	6.09235349683228E-06	-1.23796497559679E-05	-6.15415518541115E-06	-0.878258102789078	-0.436980855389296
4.7	-0.82418804102314	0.532133631595495	1.24019466334552E-06	2.45683714587847E-06	1.44363794991548E-06	1.81513040611997E-06	-0.925690672549826	-0.324286957143184
4.8	-0.779496996243399	0.594778179556165	-4.87873535970715E-06	1.10901582367459E-05	5.36568960440321E-06	9.45477489945475E-06	-0.958939355354512	-0.204845178378418
4.9	-0.72838602597047	0.654973019055779	1.24727191693274E-06	2.85868177313563E-06	-6.33663691998046E-07	-6.79500716182302E-06	-0.976218688619114	-0.078837716713775
5	-0.667638369007004	0.703886307171528	4.60304065689801E-06	-9.90148290395361E-07	-3.59668798206251E-06	2.44418374612276E-06	-0.967355328317768	0.0444709636587143
5.1	-0.617035166536019	0.747486490093738	4.02696329879259E-06	-1.90694687008508E-07	-2.71462031553281E-06	-9.52929045153196E-06	-0.95635692553769	0.156043430725865
5.2	-0.559297346837381	0.795123159117359	2.39685331906716E-06	-1.46550616143383E-05	1.37485091708751E-06	2.73874620437697E-06	-0.931947852781425	0.275471984159864
5.3	-0.495959802371656	0.836949467621635	-8.49866905360574E-06	-6.89980704946389E-07	-1.10514534945976E-06	1.64446326131894E-07	-0.889434742185878	0.390634061682603
5.4	-0.429941311015165	0.873465906164239	-7.04265994537386E-06	-1.0753361365286E-05	-1.33513980178035E-05	1.09619942020198E-05	-0.832089286589007	0.497602737749445
5.5	-0.359705115956166	0.904524897614809	1.86903679298806E-06	8.48190665720607E-08	-2.20033136024992E-06	1.75319650223229E-06	-0.764221846649472	0.594799192823382
5.6	-0.289016169279993	0.927153493401605	-2.34083550247686E-06	3.45854046844821E-06	-1.30787616227841E-06	1.27154424495209E-06	-0.685834505477316	0.684931232932316
5.7	-0.217835215142718	0.946310166397583	1.28201575538925E-06	1.19763962662516E-06	5.63113533432871E-06	-1.42171792096132E-07	-0.59613685709576	0.76472178209285
5.8	-0.145739186069231	0.95932533523409	2.64219343416286E-06	4.14682259407546E-06	-2.05118838099261E-06	4.13905807869764E-06	-0.49728884171525	0.831993679949176
5.9	-0.0760521223922667	0.968493210603497	-6.68120740169879E-06	-2.26924200892436E-06	-1.0546068910917E-07	6.11200006075995E-06	-0.393794777259085	0.886995614998832
6	-0.000983485319358501	0.981929717888893	-1.75999691343974E-06	6.0934862820868E-08	-5.29306303302336E-06	-4.39008312270071E-06	-0.282307545124562	0.936836082886378
6.1	0.083263949377191	0.976715460464881	1.24813774669903E-07	-9.79598517418843E-06	-9.4456834930059E-07	-3.18474328656097E-06	-0.156845064203966	0.964135077509839
6.2	0.159153389654252	0.96390682985317	-1.02811896952015E-06	3.06554560913924E-06	-1.76258126624047E-06	4.14825654562117E-06	-0.0347452984727712	0.973102328749693
6.3	0.232701467393921	0.947752418379866	-8.1287871048408E-07	2.78779442652238E-06	-2.91460172954018E-06	2.34511113752212E-06	0.0856631531843071	0.968792887159225
6.4	0.306375480791535	0.930287684310532	-5.94495488347963E-06	5.44906013949178E-06	-2.35257570980948E-06	-7.57576132952633E-07	0.206072231807981	0.954038936622948
6.5	0.389270687790752	0.900352542611427	1.37597634699798E-06	-5.23838953695003E-06	-1.4445527654988E-06	-2.35319906002893E-06	0.334475272902665	0.917454543192777
6.6	0.451384990827008	0.857493460609981	3.58240606069095E-06	1.91982044579253E-07	1.10714743128179E-05	-2.66772570408438E-06	0.438795482124073	0.858603649834279
6.7	0.512217664023506	0.821540448050322	-7.59545389032792E-07	8.26517882119464E-07	-3.69094122226728E-06	5.10346436399968E-06	0.536881888611402	0.799609966965651
6.8	0.573353250414872	0.780535378918224	-1.73282284723364E-06	4.36843485315076E-06	1.42194453312037E-06	-8.5465639326525E-07	0.630315976295784	0.728581896984018
6.9	0.631354499252663	0.734952586107259	5.73598688549641E-06	2.23614304868536E-06	-9.2580343278383E-07	2.34058876380452E-06	0.714527766646089	0.646904400945817
7	0.687772504435398	0.685280131968121	1.18943861855399E-06	-4.02313675221972E-06	-1.44661963525645E-06	2.81612954919768E-06	0.79171995522089	0.555874879028898
7.1	0.739467513147372	0.628764914696235	2.47942530202322E-07	-7.01238423285496E-07	1.78265177699287E-06	9.05723834200588E-06	0.855217034423448	0.450908712094124
7.2	0.78570751561299	0.568779340352496	1.39561700403956E-06	-2.35043889611174E-06	-8.69053813534169E-07	-8.42726429627981E-06	0.903129026960668	0.341021151769482
7.3	0.826671636194981	0.504497855810428	4.65235763685565E-06	7.14920246457015E-06	-9.55900822387952E-06	2.16607942851104E-06	0.936300033756364	0.225642511714163
7.4	0.859147208783266	0.437725370971802	4.97007357679773E-06	-6.0978385651284E-07	1.99398228285681E-06	-9.3652158055012E-06	0.95079021442127	0.10929308795218
7.5	0.889680620341412	0.378551293071755	2.78110586271167E-06	-5.06125558869205E-06	2.20163997087301E-06	-6.980550316961E-06	0.959597792789286	0.00369290857337422
7.6	0.924035230923741	0.307215541072114	-1.34516650188171E-07	-5.51054911968996E-06	1.62494682319589E-05	4.28569578479851E-06	0.9617911545673	-0.119378302052894
7.7	0.946381824335436	0.232307279008331	3.44018232077831E-06	2.17888922029589E-07	4.08012329328218E-07	-2.85311940953767E-06	0.940029444571374	-0.240202625998367
7.8	0.962303274947899	0.158381655361111	-1.06977630001079E-05	-2.25949822069163E-06	-3.1725050893097E-07	3.36492444222524E-06	0.904385585096877	-0.354578863780068
7.9	0.974876079384441	0.0878382779752543	2.2342805166959E-06	2.09787705531882E-06	-6.63716712010481E-06	-4.92882185506318E-06	0.859591358352389	-0.46090640706645
8	0.996145719593283	0.00913946640375711	2.22644478094287E-06	3.06498103457054E-06	-9.02100070194129E-06	-8.03030398769405E-06	0.810135063283024	-0.576469635338077
8.1	0.993083997421273	-0.0840804344998723	3.94969251070077E-06	-2.97402726787271E-06	2.26106484963133E-06	-3.14177258113409E-06	0.722104276538689	-0.685484522355514
8.2	0.979623724924462	-0.163988708116757	-4.09443284922509E-06	1.31335559022845E-06	-6.79677192931444E-06	1.78660631185209E-07	0.626520221384797	-0.768637645249365
8.3	0.962898077741852	-0.241835434248174	9.90599016519777E-06	5.51911431061156E-07	6.00614811773151E-06	1.06628962404063E-05	0.524743487187165	-0.840263935948413
8.4	0.941007932336526	-0.318605083773635	1.23152752089051E-06	2.59864978590996E-06	3.43463428140367E-06	1.9120342121246E-06	0.415227426454876	-0.898311007755481
8.5	0.913345542609672	-0.395311380405097	-4.96734272688132E-06	4.84636760082199E-06	2.92962571255195E-06	-2.9533264843044E-06	0.303744994877627	-0.943250693280578
8.6	0.877788523258003	-0.468740901626981	-4.58108965485223E-06	1.96616332717229E-06	-3.28949020665317E-06	8.06769178528982E-06	0.182947185848454	-0.979895360142642
8.7	0.837565886382235	-0.539001098019438	-1.06552854518326E-06	1.19856984882642E-06	-7.49087867463609E-07	3.47787886274114E-06	0.0559829038570209	-0.997868356309663
8.8	0.791541416306256	-0.606584532151274	-1.68847303615271E-06	3.07911306189597E-06	-6.12482411896974E-06	1.14258583297665E-06	-0.0729035924977187	-0.999690663563906
8.9	0.738501123562068	-0.670580870313696	3.26909292485962E-06	-1.79830973672808E-06	-3.21215312023609E-06	-5.31112213990863E-07	-0.20511369430535	-0.981121369700908
9	0.68045204033611	-0.725014129729633	-7.38021929964454E-06	1.26303405345249E-06	-4.02868944977489E-06	6.76977635871115E-07	-0.322082199069511	-0.936857859959396
9.1	0.622569650429906	-0.778974200339901	-3.34536934564841E-06	-1.96479503440985E-06	-1.03398862591329E-06	2.13310039403669E-06	-0.432125418975181	-0.896487328974611
9.2	0.556795824551283	-0.828306482033649	6.07475057812244E-06	-1.53357391248731E-06	1.83209308661159E-06	8.60073398417763E-06	-0.543394532408048	-0.838002309886869
9.3	0.486479683242171	-0.870926967225799	-3.64515200920046E-07	1.07319019836882E-06	1.35456956306293E-05	1.22195610822704E-05	-0.64543125838014	-0.763673514368619
9.4	0.412371546097757	-0.90256556100348	1.80110425443241E-06	-2.63720300014646E-06	4.27135866373225E-06	1.86455525526273E-06	-0.733693198143285	-0.674590801108777
9.5	0.351650818767093	-0.931066375336216	-6.37881374978519E-06	-5.17698537000206E-06	-1.74755032228756E-06	-5.82719497387294E-06	-0.807200592392109	-0.590398057405914
9.6	0.270609824590307	-0.971395312005395	-1.1947145377204E-05	-6.57131363077286E-07	-5.92983271332956E-06	-4.30622287887022E-06	-0.890918396985297	-0.487192174513134
9.7	0.18236288432757	-0.991032520853076	1.51874351065248E-06	-4.5064133356562E-07	-3.03739136910696E-06	1.60431615950525E-06	-0.950171408386964	-0.365521120346845
9.8	0.0966383364680936	-1.00070756049041	2.23067526037594E-06	1.49225101156414E-06	1.55924668023943E-05	-3.22629828453085E-06	-0.990679259074614	-0.239721301581801
9.9	0.0132082498820651	-1.00330267974625	-3.76908978142644E-06	9.15551950506645E-06	1.40485026978555E-05	5.45258954013766E-06	-1.0151374111223	-0.109367226978921
10	-0.070349958746671	-1.00341035149207	-3.78891082227691E-06	1.60553707418213E-06	2.01830164107444E-05	-1.83866442935916E-05	-1.01986998652627	0.0223711534636875
10.1	-0.157481420515545	-0.99085884986107	-1.56114177341397E-06	2.34970630018842E-06	-8.61137030260846E-06	-4.57616158350394E-06	-1.01073761106557	0.15156590599291
10.2	-0.2380599779511	-0.970786086563945	-2.36291786461583E-06	-1.31725774480649E-06	-1.34447251308039E-05	7.25162743934964E-06	-0.985416802379307	0.280306398754932
10.3	-0.315576738807041	-0.945855514919467	5.90116954118033E-06	4.15268043351775E-06	-6.38282841716064E-06	1.32827486852708E-06	-0.945159193563836	0.405243741841635
10.4	-0.391619739853986	-0.91533447572598	2.16922190028308E-06	1.12021605578013E-06	8.55725757458755E-07	-8.53758777742535E-06	-0.890315829090996	0.529166857793856
10.5	-0.464015184969193	-0.876935062330903	4.57676003372821E-07	-3.17355669151748E-07	-6.57063054955278E-07	-5.88382111190064E-06	-0.804196983489485	0.649387036634412
10.6	-0.532031573928157	-0.833516637884107	5.27874028563565E-06	-2.71110377119622E-06	-1.01291641678004E-05	-8.16670427902611E-06	-0.706926681512698	0.736488841386238
10.7	-0.595742157103411	-0.784741665671676	-2.91636013101702E-06	-5.12711077405209E-07	-5.43167901856444E-06	-7.41052184873232E-06	-0.608935692977927	0.815939454467672
10.8	-0.65622308263443	-0.732383090528965	-3.76145078184057E-06	-3.54809958666302E-06	-1.23442622827844E-05	9.53295842164995E-06	-0.501755183478787	0.885737300243392
10.9	-0.714829222022904	-0.671283514938667	-1.19044097593613E-05	-1.06345106334468E-05	-4.49053394711426E-06	1.13911696340103E-05	-0.382143866212614	0.943695878234627
11	-0.751043379655764	-0.604586168748467	1.04912864200027E-06	1.42748847602088E-06	8.78293478257934E-06	-5.71932316522807E-06	-0.255566286335304	0.974106225712948
11.1	-0.794227741978963	-0.556940075683182	-3.48607265185703E-07	-3.72600218409795E-06	1.04116064394496E-05	-1.05044642120372E-05	-0.139066710992008	0.99852306599254
11.2	-0.841722942890532	-0.494608771958921	-1.08818573997759E-06	-4.02285249848881E-06	2.18420852045362E-06	-6.51275916731937E-06	-0.0106826872070512	1.01036695952188
11.3	-0.882134334036089	-0.424821647962437	1.56668192611103E-06	-1.24170356415802E-05	3.64428702717921E-06	-2.94001423027729E-06	0.118174703474675	1.003137154082
11.4	-0.911415153737371	-0.350840106687685	1.0135713453498E-06	7.90907260272173E-09	-5.77046215071949E-06	6.69971310574382E-06	0.245386670183325	0.979640656533187
11.5	-0.935061329863823	-0.286923765198747	6.72821244450607E-06	-1.3260025185191E-06	8.47623533963813E-06	-3.83355546507372E-07	0.369086422637516	0.939833666403123
11.6	-0.967497126588048	-0.210421082819801	-7.3145547751357E-07	-5.49139685828513E-06	1.44289774367927E-06	-3.19939928885995E-06	0.485455196608455	0.88263930639999
11.7	-0.983422244389745	-0.125686881437452	-2.02005894080174E-07	-6.22456604484522E-06	8.72594843430459E-07	-2.75224350268154E-06	0.591976474520152	0.812468534011305
11.8	-0.990244034725661	-0.0412911713324549	-1.11383439042677E-06	-7.39971763591016E-07	5.32276212815222E-06	1.00822638175262E-06	0.687707659452487	0.73097365314959
11.9	-0.988407637662851	0.0447499491907889	-3.38703406789331E-06	-5.278056827632E-06	-5.66005778802087E-06	-8.10903280593474E-06	0.772326259707081	0.6460840503898
12	-0.975831814983798	0.126897871854868	-3.00188906261403E-06	1.7458379117365E-06	-1.73916732458184E-05	-8.69960451854294E-06	0.865854219868574	0.547668873054555
12.1	-0.963202908532845	0.205040697371999	8.07245265212393E-07	-1.63117380045652E-06	8.38907917756059E-06	1.24047938365376E-05	0.926467998120827	0.417748950360792
12.2	-0.94243649221253	0.283496926473804	-4.05067701367513E-06	5.78831348070431E-06	5.14718461431027E-07	3.37773236838709E-06	0.966686615329542	0.294499709532254
12.3	-0.917533309772808	0.359897484393577	8.18029679814639E-06	6.31804276300022E-06	7.23453243039429E-07	1.11231893757041E-05	0.994195414176293	0.169197781562128
