# GHZ S RI R 50
0.2	0.985054654639127	-0.1570925272408	2.56365713434987E-06	2.24776042244206E-06	6.56505587585485E-06	-4.86822284191311E-06	-0.965928449902244	0.251923828712554
0.3	0.968882890141514	-0.234079455498341	-8.75355730763248E-07	-5.44970889646204E-06	-3.46726294883022E-06	-7.93849831547434E-06	-0.926087655855066	0.371966836490869
0.4	0.947273906134351	-0.309252204308649	-7.27270227997488E-06	-9.87052035875246E-07	4.43776295933721E-06	1.54167798817367E-06	-0.871046643367684	0.485626790331503
0.5	0.920408868100848	-0.382396676598966	6.19294628381078E-06	2.1011244937987E-06	-2.41164308576634E-06	-1.90534623442512E-06	-0.802339566287055	0.59134767131828
0.6	0.887764845770695	-0.453518075033656	-1.05418761947658E-05	2.45988790102935E-06	-2.21659321931723E-06	-1.00596267104104E-06	-0.72110971092981	0.687591700328494
0.7	0.84948021905107	-0.521540585225372	2.7813500856749E-06	-1.1717346890496E-06	-2.98331570440588E-06	5.78385149302438E-06	-0.628421017616624	0.772985976293114
0.8	0.805838169890578	-0.586558739322791	1.17268476705508E-06	-8.46708508234247E-06	-6.61442812643153E-06	-3.06480143309697E-06	-0.525682577792282	0.845722194808116
0.9	0.757188275113269	-0.647932947517544	-1.14541338420673E-06	-6.7985659913133E-07	2.54636003092602E-06	6.53425957478308E-06	-0.414853524549454	0.904777921930479
1	0.703890086732555	-0.705305447244177	-2.74064175873126E-06	-3.21749985455879E-06	-4.04609347272448E-07	-7.30499703938583E-06	-0.297811686179633	0.949215898232085
1.1	0.647132707959551	-0.758511398679502	1.80526606011443E-06	-4.93286992832567E-06	2.26802689771766E-06	-5.12593193160305E-06	-0.176067115225913	0.978876329379117
1.2	0.585072860468627	-0.807996154830214	-2.49347762159514E-06	2.48653218016989E-06	9.25247506965321E-07	-9.09010347558573E-07	-0.0513537368637767	0.992837116114697
1.3	0.517801025420754	-0.852679288010479	-1.53666981464061E-06	7.17212785928005E-07	-1.35499694812528E-06	1.46034632673484E-06	0.0739071006560594	0.991294752551993
1.4	0.447377455390024	-0.891671550354688	3.92224183364198E-06	-3.23411193986579E-06	2.69029994158729E-06	1.09328251445705E-05	0.198589117667045	0.973632745417415
1.5	0.374266803592406	-0.924443754581291	-5.33479365689546E-06	1.10546822599424E-06	6.59047667448721E-06	-7.19799798165337E-06	0.319855583223692	0.940366870152413
1.6	0.300260883477621	-0.950561200919965	1.77789812912694E-06	-7.73228380595671E-06	3.62863740093278E-06	1.38282654949165E-06	0.435589106318392	0.892273014427327
1.7	0.225786378385695	-0.970547103525485	-1.93941781459626E-06	-9.68918938997308E-07	-2.3482000236162E-07	-2.08506285484339E-06	0.543868318685866	0.830565660261783
1.8	0.149154517048778	-0.985039552556103	2.8469928002833E-06	5.27389990210607E-06	3.8405472024938E-09	2.02933297680812E-06	0.643890414377699	0.755372180437285
1.9	0.0715822948393633	-0.993486234307024	5.66682050296971E-06	-2.62888784764283E-06	-2.99424291726764E-06	4.15641663395808E-07	0.733295734336022	0.668197210928642
2	-0.00540410143890638	-0.995239280904412	-1.54531389671026E-06	-2.02225259365593E-06	3.20662839344413E-06	1.14338475329614E-05	0.810421824268932	0.569625981804504
2.1	-0.0831738769280047	-0.992058153321517	-7.54121265685046E-06	2.44456989384131E-06	1.20104886530594E-06	5.13711202577312E-06	0.874343005529643	0.464326191071051
2.2	-0.15971764205739	-0.982964708887453	-8.82920263535737E-07	1.39137907222988E-06	2.99244163667795E-06	7.76718280023028E-06	0.926022278285197	0.351395233080576
2.3	-0.236839706169508	-0.967084914330274	1.73618903694576E-07	7.44258402813361E-06	7.37935259643009E-07	9.37922106203964E-07	0.962533350554818	0.232937889504404
2.4	-0.312557328604894	-0.944751503771304	1.5714354149607E-06	7.16389277276104E-06	1.51392983144284E-06	6.37845912673387E-06	0.984387836786038	0.109701117894616
2.5	-0.38542522478816	-0.917239501694148	4.38412563939808E-06	-2.30536662906736E-06	-1.90343293357253E-06	-7.55854343252158E-06	0.989792700201833	-0.0146076947831696
2.6	-0.456201966631528	-0.883780752699036	6.76288129260612E-06	-5.92373074295675E-06	-1.10896761002605E-05	1.0790596406473E-05	0.979945525766696	-0.138891633582688
2.7	-0.524276314853819	-0.84502116566332	-4.44670583440833E-06	9.11288153428155E-06	-2.85083976403051E-06	-9.14151372273228E-06	0.954100682891775	-0.260933838549556
2.8	-0.588106089196448	-0.801599363395442	2.44881134556722E-06	1.14603504234714E-06	-3.12263485426381E-06	1.23372171926587E-06	0.914159096641863	-0.3778738409844
2.9	-0.64781105384988	-0.754070888658562	-5.50157345489817E-06	5.98368784229873E-06	-9.16813094588501E-06	-3.08217558077898E-07	0.859812066368018	-0.489004329708514
3	-0.705045195403741	-0.702236107342544	4.76590494236563E-07	-1.46808676001517E-06	1.12951721558243E-05	1.50014770402854E-06	0.791802660830185	-0.593233090747524
3.1	-0.758484230191508	-0.645221041333797	2.36574502082134E-06	1.04882788001101E-05	4.31101434409112E-06	2.1855170076466E-06	0.711445349010727	-0.68711134952454
3.2	-0.806572094102593	-0.584492877572463	2.07999736002095E-06	6.46431390488275E-06	4.03072759830333E-06	-1.05777247818102E-05	0.620413969520073	-0.770609916236923
3.3	-0.849988983029806	-0.520468754972395	3.06148294892935E-06	4.96746667471222E-06	-2.18921966581825E-06	-9.66666043529345E-06	0.518608377249215	-0.842805204863904
3.4	-0.887879274687402	-0.453510964385563	2.13341360898948E-06	-2.59614043130367E-06	5.95160145399824E-06	1.40217204995198E-06	0.410000384513062	-0.901883899061007
3.5	-0.921421987600136	-0.381325894419454	-3.24158184587592E-06	9.40065239134534E-07	-2.079866312205E-06	3.41910841888115E-06	0.292174568377182	-0.947397429321404
3.6	-0.947579965906197	-0.307561763798047	-1.80325962369127E-06	-3.74403797147519E-06	-7.82458777254357E-06	4.08606157732451E-06	0.170634329689809	-0.97531621916957
3.7	-0.968568955903238	-0.23313744513951	8.4356798902949E-07	-8.31891399449101E-06	1.07510586256615E-05	3.72275895683423E-06	0.047110810540322	-0.98906864880083
3.8	-0.984136523716302	-0.156143098541462	8.77375658487552E-08	1.5466788675322E-06	-6.53350653317165E-06	5.93183541065943E-06	-0.0769238855564564	-0.987741991374304
3.9	-0.993161017246096	-0.0786777548533629	-2.6143753514058E-06	-5.03482594560032E-06	-3.7248124042224E-06	8.0158654502331E-06	-0.202225028080501	-0.971205654560796
4	-0.996303302290865	-0.000122311932139626	7.12964269336521E-06	-3.61635744469084E-07	-1.04141384472963E-06	-1.20853308069761E-06	-0.323306367535359	-0.93833877442029
4.1	-0.993757318955844	0.0780308696014556	6.21359971853908E-07	-4.42085639646935E-07	7.3715686782712E-06	-4.73465478060465E-06	-0.439214335281203	-0.89002034482468
4.2	-0.985073467183475	0.156244113420923	3.2016797220676E-06	2.11518817013409E-06	-7.16664764785177E-07	-7.65007121043161E-07	-0.547918277751028	-0.827354586669283
4.3	-0.970203602929358	0.232790637873311	-3.19798636221505E-06	1.36466008697668E-06	-5.01227834451747E-06	2.97097415570082E-06	-0.64765226912996	-0.752401725135312
4.4	-0.94870708971636	0.308028377766126	7.98375861454541E-07	2.64806360925431E-06	1.57714751358437E-06	-8.33968532036124E-06	-0.737118177078871	-0.665380595977235
4.5	-0.921645720756028	0.380115034804479	1.82777193331918E-06	-9.33850101638695E-07	7.63562259778229E-06	-2.29556425446122E-07	-0.815519848057668	-0.568194382296768
4.6	-0.889975559087514	0.452099588375109	-7.58714847143533E-07	6.13637940414152E-06	-1.23335697270234E-05	-6.55294700029808E-06	-0.88129695303403	-0.461008508255853
4.7	-0.851970352082721	0.520269040443227	1.19291530025264E-06	2.52282850567574E-06	1.41591370884268E-06	1.87767169038848E-06	-0.932883987598666	-0.346403198903292
4.8	-0.807874726815553	0.586237069167792	-5.2454654972614E-06	1.11373347710239E-05	5.20308137847745E-06	9.74396158449961E-06	-0.969021712061837	-0.225865336100658
4.9	-0.759288727448418	0.647463633665875	1.18780223608353E-06	2.94772481986667E-06	-4.49083518610176E-07	-6.93930802631247E-06	-0.989608256673806	-0.102086888928653
5	-0.707269915392152	0.705763945358024	4.77035371789407E-06	-8.89892727074939E-07	-3.77468060189594E-06	2.41640141399759E-06	-0.996000671257554	0.0233948620225857
5.1	-0.64812010949718	0.760716599590013	4.15751308561012E-06	-1.27003402510728E-07	-2.63542338689891E-06	-9.87740439092311E-06	-0.98487410680946	0.150507761360089
5.2	-0.585495929654022	0.809650315860728	2.68226859268162E-06	-1.50647781185498E-05	1.37679944061991E-06	2.84177154036196E-06	-0.957395888922163	0.273552565236281
5.3	-0.519694491181564	0.853737610907184	-8.75796488113608E-06	-8.09096034843708E-07	-1.14177711301345E-06	1.56948175962075E-07	-0.915386349728757	0.391989695774726
5.4	-0.45051230304477	0.892594698989304	-7.20622297510947E-06	-1.11319783942642E-05	-1.38336720787003E-05	1.12351832519063E-05	-0.85891205365533	0.504081023847821
5.5	-0.378697675884921	0.925113053226215	1.91315616597089E-06	9.13133764986763E-08	-2.25671562121899E-06	1.78949474786631E-06	-0.789574198291769	0.608598435600354
5.6	-0.304712343265035	0.951971218064254	-2.42566736711904E-06	3.52585728064535E-06	-1.35012765573444E-06	1.29281059329118E-06	-0.706486620722825	0.703506788500836
5.7	-0.228488390154907	0.973411199075104	1.31066086583279E-06	1.23985955092611E-06	5.7917468242656E-06	-1.0994215873263E-07	-0.612282384269587	0.786652062221346
5.8	-0.150576693680475	0.98840511450599	2.71285545273567E-06	4.2861423711962E-06	-2.12889730390821E-06	4.26355623214052E-06	-0.508271542970371	0.857077251401401
5.9	-0.0711217266263842	0.997315329849085	-6.93150711995967E-06	-2.31524704154399E-06	-7.72300605960208E-08	6.33066084290882E-06	-0.396412772984503	0.91381615166501
6	0.008289362008553	0.997689718026003	-1.80137645113008E-06	9.5055808201562E-08	-5.50234761612083E-06	-4.39792860397356E-06	-0.27872393724516	0.954554208653833
6.1	0.0852972930469721	0.99339026881414	2.90945339222877E-08	-9.94718961164765E-06	-9.90768317559122E-07	-3.22408262258605E-06	-0.158682374653552	0.981809344377668
6.2	0.163609527783403	0.983529370313532	-1.02307168382065E-06	3.1230785437772E-06	-1.76183162863981E-06	4.22875996388727E-06	-0.0340649409856617	0.994270158358986
6.3	0.241433535617629	0.96728198161724	-8.06119977568483E-07	2.83977041230611E-06	-2.945795103055E-06	2.40499536029819E-06	0.091550587574158	0.990651557272516
6.4	0.317789042136235	0.944163344395462	-5.9808686925334E-06	5.56573896579762E-06	-2.3890988169308E-06	-7.49456353007965E-07	0.215997805722812	0.970435514911428
6.5	0.389939371433105	0.916043721784513	1.41297396622246E-06	-5.28658273401987E-06	-1.44926407015483E-06	-2.38381353676435E-06	0.334444348264569	0.935597589954152
6.6	0.46237452910047	0.884008276101976	3.67161367696465E-06	2.16747688180639E-07	1.13653118040818E-05	-2.6733645911266E-06	0.450937896160228	0.887926868046918
6.7	0.531927761930552	0.844151528650417	-7.81351244052677E-07	8.51733738045795E-07	-3.7959301857498E-06	5.25826800284058E-06	0.559652158652333	0.823645262486318
6.8	0.597630046597586	0.799042207020364	-1.76625633506364E-06	4.51605117157143E-06	1.46294502841909E-06	-8.88917464979884E-07	0.658700653357226	0.746404444723002
6.9	0.659597783884214	0.748834366911685	5.96330904868862E-06	2.26051215547643E-06	-9.36225355286623E-07	2.43347802895172E-06	0.747088553039945	0.657292023317565
7	0.716996822806184	0.693303229547914	1.13736436484619E-06	-4.18282092659056E-06	-1.43042038197106E-06	2.9418411451722E-06	0.822804673887814	0.557681664353267
7.1	0.769493228783692	0.634164665271441	2.39424618638042E-07	-7.22645015960181E-07	2.00890664990312E-06	9.2320746460968E-06	0.885727038502587	0.450511505144292
7.2	0.817375941347997	0.570715944765686	1.38673837334287E-06	-2.42949548562804E-06	-1.03719269747587E-06	-8.60759541706768E-06	0.935024512297212	0.336043394381732
7.3	0.860035552123198	0.50351152714762	4.87772729538951E-06	7.252028369853E-06	-9.75962350748415E-06	2.36801880112927E-06	0.969306678108036	0.216172240739803
7.4	0.898217272547909	0.433075366496862	5.12235708041845E-06	-6.95677838639366E-07	1.93356994719082E-06	-9.69403939064014E-06	0.989301635461285	0.0925866319218546
7.5	0.930765041142095	0.357779041031135	2.74612389241571E-06	-5.35328751873795E-06	2.08573905299955E-06	-7.3348553925001E-06	0.992733084742623	-0.0348688008012421
7.6	0.955297561114727	0.281141768241875	-3.42789766271535E-07	-5.66479379843558E-06	1.68779723475097E-05	3.80684380522951E-06	0.9782065524329	-0.159035899244548
7.7	0.974878223107821	0.20310405689365	3.53545065070917E-06	9.4034502794574E-08	3.11046859680401E-07	-2.94067824267147E-06	0.95030998867101	-0.280601210214662
7.8	0.988220371244906	0.123207055197273	-1.10399235273645E-05	-1.86734978565039E-06	-1.84771363799189E-07	3.45619746997517E-06	0.907393409714572	-0.398419514760817
7.9	0.994612650461032	0.0413953291110779	2.38179724896843E-06	2.02237789968439E-06	-7.0090442843797E-06	-4.68079150004607E-06	0.84927160646232	-0.51076035573596
8	0.991067705188843	-0.0397468004075226	2.38105431688715E-06	2.93301890204978E-06	-9.41270171623995E-06	-7.51404366669912E-06	0.774675060786111	-0.612702165533521
8.1	0.984213780121214	-0.116570972290128	3.80180374888885E-06	-3.09178994005972E-06	2.12312272093323E-06	-3.19541722139875E-06	0.692809882427683	-0.702535052935528
8.2	0.972230437469265	-0.194707006823608	-4.0241904353522E-06	1.43935478456296E-06	-6.74600298112616E-06	4.0103963912001E-07	0.600029828943978	-0.784043659790334
8.3	0.953083388258091	-0.272300712499772	9.85817866319316E-06	2.39238755333262E-07	6.29938303233082E-06	1.04055158931135E-05	0.49694212266928	-0.853136938191616
8.4	0.927395445281367	-0.348126588784801	1.29670693513429E-06	2.54820966532504E-06	3.46705769936599E-06	1.80413958283739E-06	0.38606129589112	-0.909064866208394
8.5	0.895542915019082	-0.42157284140193	-4.82085963278069E-06	4.9896285322174E-06	2.84042786038862E-06	-3.03775272724362E-06	0.267638526570594	-0.950621708077194
8.6	0.85815471923142	-0.492182183186051	-4.48756600786023E-06	2.11631122059448E-06	-2.98887109055472E-06	8.13982666194328E-06	0.145721516505642	-0.975864235132192
8.7	0.815107551678164	-0.559700063760951	-1.01316959303506E-06	1.22227534889464E-06	-6.22096161203611E-07	3.46649281349398E-06	0.0218278966657601	-0.985882779004231
8.8	0.766777074441067	-0.623203632253995	-1.56373399523916E-06	3.0857075682034E-06	-5.99368364298416E-06	1.32124517638987E-06	-0.101639123787217	-0.980395183802461
8.9	0.714088692317626	-0.682527105457069	3.15740854748328E-06	-1.84506780574184E-06	-3.16080375404917E-06	-4.38776791445207E-07	-0.222843967849318	-0.959747722677262
9	0.656623359139375	-0.738180915233525	-7.27033867566942E-06	1.37858807701523E-06	-3.96892897186242E-06	7.40203946251512E-07	-0.342157339795513	-0.926574870833374
9.1	0.594301401661692	-0.78843475382577	-3.35963954432152E-06	-1.86476390209637E-06	-9.72369220705355E-07	2.13692697329608E-06	-0.457566032845897	-0.875352651488199
9.2	0.528162964877271	-0.83345269793492	5.967677206885E-06	-1.66587678460547E-06	2.02327662487346E-06	8.45750066514037E-06	-0.564018755062012	-0.811127098493171
9.3	0.45869337557372	-0.873151757447536	-3.33930893708341E-07	1.07072647194498E-06	1.37039361103224E-05	1.17517293430231E-05	-0.661978881292954	-0.733928894195994
9.4	0.386001405316332	-0.907598344302982	1.71911905864973E-06	-2.66876258238894E-06	4.29429262868948E-06	1.73841780914371E-06	-0.749394815524785	-0.645663835662982
9.5	0.307196386622074	-0.935537514897908	-6.54155496668414E-06	-4.84049263007685E-06	-1.987391062403E-06	-5.6890242762899E-06	-0.827316940733584	-0.544130601899036
9.6	0.228545779867708	-0.953038554689935	-1.16478601827151E-05	-1.76645298187306E-07	-5.93540434130254E-06	-3.9595583012764E-06	-0.887463614512539	-0.433770229650315
9.7	0.150243315546668	-0.966381650293739	1.45970031484553E-06	-4.85606323351021E-07	-2.89697850314037E-06	1.65353727590965E-06	-0.934371015131548	-0.318443635764252
9.8	0.0705565100949791	-0.973738919635824	2.20570575911576E-06	1.38231433682923E-06	1.50235910363969E-05	-3.5780839065842E-06	-0.966309773934289	-0.198249178567156
9.9	-0.01008478968062	-0.974184749349502	-3.39363789124367E-06	8.95071660845431E-06	1.37252517876697E-05	4.88758813960888E-06	-0.982975040675441	-0.075233228821617
10	-0.0896734570409421	-0.966273420122755	-3.6151922931365E-06	1.62699627038862E-06	1.90484447817016E-05	-1.81387121755623E-05	-0.98461866373392	0.0485740195941896
10.1	-0.166420200775382	-0.952833938995685	-1.46352787020053E-06	2.29761666144871E-06	-8.39916441024299E-06	-4.25796157041758E-06	-0.970975816185668	0.172522701812752
10.2	-0.242295475267735	-0.933673173086282	-2.30410174009421E-06	-1.22581675130491E-06	-1.28308102061942E-05	7.24917378771384E-06	-0.940941222976384	0.293740840608028
10.3	-0.315326358145456	-0.907858758575237	5.7538113229055E-06	3.88123373710896E-06	-6.11279540035839E-06	1.39868542947597E-06	-0.895825673555749	0.409489880471308
10.4	-0.385476101475843	-0.876763731726573	2.09306101282971E-06	1.03070344432807E-06	6.6168716032755E-07	-8.1729422014242E-06	-0.835798000751655	0.517096364833368
10.5	-0.452515540680958	-0.839019400491176	4.32132212329761E-07	-3.04707882391629E-07	-6.67763392751473E-07	-5.58101106540824E-06	-0.766775522899354	0.614608380334604
10.6	-0.514024173143275	-0.796291767855022	5.0405705766649E-06	-2.59566531821723E-06	-9.68594317681134E-06	-7.7921102425818E-06	-0.685403413367423	0.707403359697835
10.7	-0.571270479712908	-0.749893035416468	-2.7916620248546E-06	-4.92292049854974E-07	-5.19620215020971E-06	-7.09702968586775E-06	-0.59159333067229	0.788104894358793
10.8	-0.623965148793386	-0.700798172563808	-3.58833100173105E-06	-3.40818649625777E-06	-1.1845796184894E-05	9.08317793602922E-06	-0.488260086705655	0.85596656056634
10.9	-0.672572826867332	-0.650316514798744	-1.12821327519106E-05	-1.0324447147895E-05	-4.43270213169205E-06	1.08610194148936E-05	-0.378214738868051	0.909396741051697
11	-0.720631204620673	-0.598917927973198	1.00342028481416E-06	1.40110930675764E-06	8.6118237212747E-06	-5.45816030586904E-06	-0.263090055729902	0.950871527011724
11.1	-0.76455051041235	-0.540652084143367	-3.27614535832253E-07	-3.60924502242498E-06	1.01108812319571E-05	-1.0144774532914E-05	-0.140819562522397	0.977182873197393
11.2	-0.803617272671134	-0.481518393201813	-1.02702543570025E-06	-3.88642771094217E-06	2.14341042475948E-06	-6.26972446673101E-06	-0.0161472939102524	0.98675388204698
11.3	-0.839803974294016	-0.419538026430086	1.62281025151378E-06	-1.19631294974683E-05	3.54163203339829E-06	-2.80311634200403E-06	0.108608805684548	0.980350848133929
11.4	-0.872162992847212	-0.354691778380735	9.80760455994652E-07	1.81966881475517E-08	-5.65382094841412E-06	6.42335330916308E-06	0.231947447762456	0.958227958735572
11.5	-0.900372023693832	-0.28462362625335	6.50236162304907E-06	-1.24054830547621E-06	8.18416749851985E-06	-3.20392538576542E-07	0.349971669835066	0.920420462175742
11.6	-0.920293219200546	-0.213602710812381	-6.36107684053655E-07	-5.28574692506976E-06	1.42542691966967E-06	-3.05685737168681E-06	0.463091747421664	0.868696837822465
11.7	-0.935995594399168	-0.140930933876599	-9.03493982636659E-08	-5.99848010934263E-06	8.86503870857389E-07	-2.63617370300332E-06	0.568844972032354	0.802648171067314
11.8	-0.946547130998127	-0.0656946019631822	-1.06200539925757E-06	-7.3620673529274E-07	5.12337230872065E-06	1.07578321890665E-06	0.665449062043891	0.723582323013458
11.9	-0.951421208375232	0.0115070007779016	-3.18550941569189E-06	-5.17238591746959E-06	-5.33605110692836E-06	-7.95487202540359E-06	0.749975819031945	0.632090426765409
12	-0.949594564376505	0.0904001831666973	-2.92387229906704E-06	1.62450666923603E-06	-1.65839353322246E-05	-8.70668634628544E-06	0.818508375248862	0.532304279955776
12.1	-0.940501969979432	0.168733418255563	8.24694781196714E-07	-1.55253534799239E-06	7.75555566548975E-06	1.22100263850303E-05	0.876906541267513	0.429560649976851
12.2	-0.924134104063063	0.246545528418229	-4.10040988269542E-06	5.49587999538812E-06	3.99696860958461E-07	3.29199957738327E-06	0.924659932163505	0.317798971488544
12.3	-0.901628675402168	0.322682929533059	7.76090153984851E-06	6.37975775544779E-06	3.74417750246891E-07	1.08279502350543E-05	0.957524043728668	0.199320657611427
