# GHZ S RI R 50
0.2	0.985734837426801	-0.156787784662003	2.56413258634008E-06	2.24967244697912E-06	6.5697766160312E-06	-4.86836839619049E-06	-0.966225647482311	0.251713936955163
0.3	0.969674951753696	-0.233863308891829	-8.73998269674475E-07	-5.4533325521622E-06	-3.46662101287784E-06	-7.94453737873289E-06	-0.92652879918835	0.371739506370855
0.4	0.948112595129461	-0.309190000878507	-7.27783996884685E-06	-9.90017736979578E-07	4.44061024691061E-06	1.54419030319868E-06	-0.87166250602466	0.485463251094335
0.5	0.921009810806697	-0.382501087992675	6.19747150932083E-06	2.10358359073917E-06	-2.41325986301457E-06	-1.90714756364373E-06	-0.80305181032253	0.591432043566781
0.6	0.888159346233046	-0.453261525381262	-1.05488120507353E-05	2.45916670361652E-06	-2.21773099324605E-06	-1.00704166394557E-06	-0.721715524412988	0.687759539233941
0.7	0.850133363498963	-0.52100703982079	2.78374973466155E-06	-1.1714833760403E-06	-2.98763441101444E-06	5.78675263404885E-06	-0.629066031971662	0.773228662814139
0.8	0.806870379624627	-0.585986826211773	1.17765809482322E-06	-8.4740776870224E-06	-6.61889350860183E-06	-3.07059919900268E-06	-0.526323748630871	0.846116831456629
0.9	0.758685859927026	-0.647626858998686	-1.14644914765055E-06	-6.81162911025798E-07	2.54642012311291E-06	6.54303669717596E-06	-0.415424406189582	0.905331695215834
1	0.705484949700859	-0.70580536748734	-2.74423766234169E-06	-3.22249254841186E-06	-4.04332187125591E-07	-7.31564415100015E-06	-0.298242380157666	0.949925281462963
1.1	0.648130541497109	-0.759451144211161	1.80624909743033E-06	-4.93989281859138E-06	2.26956593213535E-06	-5.1333409388105E-06	-0.176248373667105	0.979648931798352
1.2	0.585522386176997	-0.808994164486135	-2.4948834749109E-06	2.49044184349927E-06	9.25776061015767E-07	-9.10446524377441E-07	-0.0512919335451247	0.993547051524276
1.3	0.517696363416286	-0.853417738695657	-1.53732685879522E-06	7.18675516012296E-07	-1.3550648620963E-06	1.46222883786769E-06	0.0741829723580779	0.991891915144536
1.4	0.447035914341152	-0.891826615980544	3.92213280095946E-06	-3.23732637737175E-06	2.69682041134928E-06	1.09356929158348E-05	0.198979170235579	0.974182589307372
1.5	0.373991645337078	-0.923993192866286	-5.33559173804375E-06	1.10683940420093E-06	6.59019862277764E-06	-7.2008263350716E-06	0.320420074427885	0.941088367928408
1.6	0.300510873961088	-0.94968091931652	1.78024075630267E-06	-7.73406469242757E-06	3.6293429011563E-06	1.38408218030549E-06	0.436401774110071	0.893025064503633
1.7	0.226597118789674	-0.969788965492337	-1.94013552536729E-06	-9.70512187960133E-07	-2.33904396926418E-07	-2.08648480025154E-06	0.544880835864562	0.831370349148618
1.8	0.150290115912357	-0.984668549379397	2.84647915364641E-06	5.28091692079953E-06	2.56264151349124E-09	2.0313435670631E-06	0.645149878600365	0.756204941111285
1.9	0.0728401551050594	-0.993712359219629	5.67682354298567E-06	-2.62876926129249E-06	-2.99885562538664E-06	4.141728171218E-07	0.734838537432364	0.669106138712296
2	-0.00473143614242069	-0.996218273758781	-1.54790432373801E-06	-2.02692863118768E-06	3.2097830551121E-06	1.1458589004657E-05	0.81274583343807	0.570593964660739
2.1	-0.0832929762689027	-0.99265275722307	-7.55496512230852E-06	2.4512398398837E-06	1.20470598399423E-06	5.14660348419496E-06	0.877249053750715	0.464439946311175
2.2	-0.159776400083181	-0.983164898655921	-8.84129540364711E-07	1.3940746853574E-06	2.99974631604765E-06	7.78019619187122E-06	0.928980601226589	0.350840692321393
2.3	-0.236668587193257	-0.967267809386233	1.75408223696413E-07	7.45648399350105E-06	7.39501362255978E-07	9.39532916029527E-07	0.965462968421512	0.231816251217203
2.4	-0.312201079921954	-0.94526314376955	1.57581698488804E-06	7.17887273112731E-06	1.51807470528183E-06	6.39177996601942E-06	0.987197837613731	0.108135050609133
2.5	-0.385363699812837	-0.918377638826639	4.3949430797206E-06	-2.31261150280017E-06	-1.91051022160363E-06	-7.57776954791823E-06	0.992731153312779	-0.0165142522085765
2.6	-0.456945710601948	-0.885047616550554	6.77791098005518E-06	-5.94648889478084E-06	-1.111345711595E-05	1.08310654728126E-05	0.982935564537732	-0.141575765091039
2.7	-0.525694200772578	-0.845959101061713	-4.44776798822748E-06	9.14554707808196E-06	-2.87127838002141E-06	-9.16464098863318E-06	0.956788298720159	-0.264347429021696
2.8	-0.590001692586685	-0.802015521581199	2.45771480731223E-06	1.14496110341165E-06	-3.12925670384161E-06	1.24267577160295E-06	0.916321370215641	-0.38189965972883
2.9	-0.650127835257993	-0.753924790892904	-5.50294302247397E-06	6.01134890683048E-06	-9.19281503734325E-06	-2.89045544966742E-07	0.861206657640621	-0.493331408107799
3	-0.707731039842956	-0.701171820780774	4.73734116851215E-07	-1.47243417190122E-06	1.13229223871215E-05	1.47360498748076E-06	0.792662884577718	-0.597411415240106
3.1	-0.761031155844761	-0.643202993053662	2.3963572627504E-06	1.04986269152623E-05	4.32336978303179E-06	2.17787762127681E-06	0.712015097988136	-0.691471043723014
3.2	-0.80869867204809	-0.581752717400989	2.09845690102268E-06	6.4676430276841E-06	4.01018124713183E-06	-1.06012936066521E-05	0.620426333814692	-0.775109415659722
3.3	-0.851569133094975	-0.517223586033282	3.07655473900315E-06	4.96565049513309E-06	-2.21444088921281E-06	-9.67202785828334E-06	0.51795200006609	-0.84728077373563
3.4	-0.888787762962388	-0.45004735733404	2.12961953254301E-06	-2.6030557646772E-06	5.95985320839815E-06	1.39042817488597E-06	0.408729486018299	-0.906007797315552
3.5	-0.921949248288063	-0.378127971201827	-3.24343681026069E-06	9.46981827438758E-07	-2.07594526518393E-06	3.42663990952085E-06	0.290982519898379	-0.951283851487162
3.6	-0.948139711154433	-0.304068550569878	-1.8142132766854E-06	-3.74527117133963E-06	-7.82645198792523E-06	4.10940137413777E-06	0.16874614752635	-0.979722406764669
3.7	-0.968595686809879	-0.229348200194715	8.23165754467771E-07	-8.33090546894124E-06	1.07733275302364E-05	3.69949996099384E-06	0.0441081329521407	-0.99311004121428
3.8	-0.983655631805507	-0.152433487917185	9.2029919994753E-08	1.54791925228435E-06	-6.5236143566279E-06	5.95528552580684E-06	-0.0807539828224891	-0.990880193603123
3.9	-0.992541720860452	-0.0751701747472498	-2.63084984391781E-06	-5.03124620854767E-06	-3.70472168572646E-06	8.03278646868556E-06	-0.206331823558944	-0.97296598623997
4	-0.995843496221892	0.00368919239968903	7.13230763939534E-06	-3.83843363394565E-07	-1.04569808311443E-06	-1.20595829351206E-06	-0.326540697101708	-0.939044895986594
4.1	-0.992832557804673	0.0824132769340206	6.20100935278725E-07	-4.44110072924605E-07	7.35822351823043E-06	-4.75857304002432E-06	-0.441901450132008	-0.890778855545698
4.2	-0.98347367427597	0.160771854287435	3.20830814027951E-06	2.10526781888281E-06	-7.19054934133506E-07	-7.62791272609927E-07	-0.550582407717768	-0.827958898589598
4.3	-0.968031844288916	0.237163583987158	-3.19340280868732E-06	1.37449572823058E-06	-5.00249891907838E-06	2.98630472268953E-06	-0.650344021473248	-0.752591438146276
4.4	-0.94629437706994	0.312039505163913	8.06764035299231E-07	2.64542424912262E-06	1.55057386989324E-06	-8.34438071748176E-06	-0.73981803189126	-0.66479517520964
4.5	-0.919282067798699	0.384211566915866	1.8242064863235E-06	-9.40832921617202E-07	7.63475311475373E-06	-2.58723999687553E-07	-0.817358628121188	-0.56639902669035
4.6	-0.887201454383652	0.456353954193821	-7.32385706919891E-07	6.13457408024423E-06	-1.23510096616133E-05	-6.4959436123254E-06	-0.881700812796916	-0.459249563139923
4.7	-0.848673191273297	0.524504091517339	1.2014755476171E-06	2.51445953608095E-06	1.42154564702487E-06	1.86930159166466E-06	-0.932544862614274	-0.345067450807026
4.8	-0.803961003696776	0.590304834841568	-5.19215617538671E-06	1.11375547559705E-05	5.2318119392353E-06	9.70571775066239E-06	-0.968224726282766	-0.224843152933544
4.9	-0.754669431179014	0.651202724564243	1.19641026689084E-06	2.93641690327808E-06	-4.74717998536114E-07	-6.92170592580047E-06	-0.988310449481393	-0.101170697601948
5	-0.701886000597419	0.708758228671184	4.75311068547773E-06	-9.03382791789083E-07	-3.7552415947285E-06	2.42196771586237E-06	-0.993596107756128	0.0234594391216536
5.1	-0.642391990661382	0.762878162874047	4.14491503444029E-06	-1.37797375574742E-07	-2.65418765476764E-06	-9.84120495962093E-06	-0.983083070816424	0.149149111315318
5.2	-0.579426664673117	0.810869372502951	2.63827002033088E-06	-1.50285034044407E-05	1.37975594853872E-06	2.83038127578545E-06	-0.956400194593623	0.272117547978995
5.3	-0.513656980834622	0.853829790424744	-8.73545991534595E-06	-7.87724015011782E-07	-1.13826992238584E-06	1.59007137840465E-07	-0.914650430392784	0.390871324423509
5.4	-0.445057408974337	0.891682157663973	-7.20936547236808E-06	-1.10886409863607E-05	-1.37753140670317E-05	1.12331269598603E-05	-0.857837073893881	0.503390217267128
5.5	-0.374093852253135	0.924027273151855	1.90884689603077E-06	8.70306660386594E-08	-2.24759865168445E-06	1.79008066059003E-06	-0.787376355641602	0.607446457334279
5.6	-0.300032614648395	0.95088857398643	-2.41093430464378E-06	3.52180356949241E-06	-1.34346705856812E-06	1.29238358834598E-06	-0.704478595947372	0.700959013491745
5.7	-0.22372216051102	0.971650135405223	1.30926802632914E-06	1.23344920223646E-06	5.77413150821039E-06	-1.21488599064705E-07	-0.611128591838027	0.783666377400644
5.8	-0.146109066218245	0.98570074438787	2.71159431075554E-06	4.26798031639116E-06	-2.11490496223886E-06	4.25371974519635E-06	-0.507818529874985	0.854204468754292
5.9	-0.0675091389767064	0.993623672291792	-6.91230612270645E-06	-2.29956269563205E-06	-6.93677009713206E-08	6.31067283754629E-06	-0.396384547970617	0.911591509285032
6	0.0106343788610722	0.993740715894018	-1.79689654716646E-06	9.64788924362893E-08	-5.4929706318683E-06	-4.38214959231406E-06	-0.27779249088674	0.953280293970574
6.1	0.0868165722230259	0.989402383267819	1.22466212520607E-08	-9.92366113876642E-06	-9.93858319563303E-07	-3.21476943705835E-06	-0.15653824504811	0.979502731983389
6.2	0.164324224176735	0.979626512547169	-1.01412954014941E-06	3.11604764672269E-06	-1.74863910762321E-06	4.21996277273398E-06	-0.0320602444079955	0.990666871950209
6.3	0.241531555213328	0.963603305903298	-7.9828185613037E-07	2.8317721003503E-06	-2.93161732905873E-06	2.40232775377021E-06	0.0927811419295066	0.986151685924086
6.4	0.317482342805682	0.940884637265306	-5.95069877372788E-06	5.55612871687596E-06	-2.38196585240239E-06	-7.42876803478148E-07	0.216462573174963	0.96566340659137
6.5	0.389747310685545	0.912961887322298	1.3973065606707E-06	-5.2690193507399E-06	-1.44831692316314E-06	-2.37185198282575E-06	0.334521619290811	0.929836060131377
6.6	0.461812530478728	0.880786232884443	3.65488055686588E-06	2.10500009993086E-07	1.130874087617E-05	-2.67718075047182E-06	0.448812509922246	0.881671645398739
6.7	0.530946574897892	0.840998921824497	-7.76944450303577E-07	8.4821071836544E-07	-3.77368203159656E-06	5.23574837938737E-06	0.555999638995013	0.81833725201809
6.8	0.596152827520878	0.795953466306181	-1.75655376542025E-06	4.49435818876179E-06	1.45557586259311E-06	-8.84908480070361E-07	0.654184165193332	0.742220302373522
6.9	0.657447248764611	0.745875476510606	5.93265401318452E-06	2.25086664938222E-06	-9.3222000669011E-07	2.4209644854666E-06	0.742182560587013	0.65432308635409
7	0.71405159275355	0.690889845894036	1.1362277915004E-06	-4.1613840209871E-06	-1.42656881951689E-06	2.92610563456104E-06	0.818016539764383	0.555571827150891
7.1	0.766233182053737	0.632473939617391	2.39234039347007E-07	-7.19061417997237E-07	1.98829762897952E-06	9.19259109282556E-06	0.880637445281107	0.449033331694423
7.2	0.813934168716146	0.569513530463859	1.38412839991038E-06	-2.41644730115313E-06	-1.01958321410007E-06	-8.57030339795163E-06	0.929789081776539	0.335612224113659
7.3	0.856349253700123	0.502721479411262	4.84297871699794E-06	7.22858901043799E-06	-9.72051630677521E-06	2.33990478722993E-06	0.964262536865058	0.216793948414398
7.4	0.894112790768583	0.43278703353476	5.10083122926495E-06	-6.8192487256393E-07	1.9450229112641E-06	-9.64655493366549E-06	0.984571512628335	0.094237483729267
7.5	0.926496402581776	0.35850540519371	2.74934488103843E-06	-5.32278861228968E-06	2.09730590990033E-06	-7.29774563741442E-06	0.988997500395524	-0.0321006194596798
7.6	0.95138616020883	0.282401951451437	-3.25193430376342E-07	-5.64705130503381E-06	1.68110783617497E-05	3.84330002994636E-06	0.975624267354588	-0.15640463890632
7.7	0.970939102052995	0.204913039736298	3.52428059469224E-06	1.03002614834941E-07	3.17786855765936E-07	-2.93077759489964E-06	0.948023620938374	-0.277915678015689
7.8	0.984324021647711	0.125824606377796	-1.100031947467E-05	-1.89086552035105E-06	-1.93387662450671E-07	3.44486271593872E-06	0.905407775819146	-0.395252594828415
7.9	0.991144083912957	0.0450527652559126	2.36782579653254E-06	2.0233666854466E-06	-6.97191345382976E-06	-4.68777175763015E-06	0.848008225420053	-0.506676813557934
8	0.988783801560673	-0.0357329370461666	2.36386991643342E-06	2.93345152456437E-06	-9.35947448649539E-06	-7.52709010655772E-06	0.774983332181848	-0.608032833405674
8.1	0.982018123712461	-0.112692969411663	3.80254450815931E-06	-3.06879777250049E-06	2.12902322653416E-06	-3.17840127668808E-06	0.694413002971604	-0.697712339015798
8.2	0.970270991457672	-0.190370144318068	-4.01931105781908E-06	1.41810987449431E-06	-6.72918047037665E-06	3.70956199700508E-07	0.603265212262545	-0.779354879583907
8.3	0.951612304985745	-0.26757969153424	9.8334877094437E-06	2.85131867531112E-07	6.23528130658552E-06	1.04103354241203E-05	0.501646282185928	-0.849146913456348
8.4	0.926539622607435	-0.343148403543095	1.28188749417212E-06	2.54934534549879E-06	3.45147597945127E-06	1.81717770078964E-06	0.39171530137525	-0.906043260268512
8.5	0.895368732409146	-0.416589077244066	-4.83499439259274E-06	4.95585660391419E-06	2.84923048644178E-06	-3.0176503674087E-06	0.274086309511069	-0.948056818968027
8.6	0.858490029021552	-0.4873066996293	-4.49016286933211E-06	2.08801804074931E-06	-3.02681613739747E-06	8.107798120594E-06	0.153750746366063	-0.974246377570097
8.7	0.815933295096814	-0.554940402076922	-1.01871501661174E-06	1.21450865438564E-06	-6.41284411238544E-07	3.45754881740719E-06	0.0309890369114977	-0.986212892172641
8.8	0.768055482740282	-0.618609991393708	-1.58112965432335E-06	3.07309816698327E-06	-5.99592376083961E-06	1.28319191412473E-06	-0.092248877700449	-0.983061961715735
8.9	0.71579459150703	-0.678108388228714	3.16794496902832E-06	-1.82447591503813E-06	-3.15691585742069E-06	-4.58583106923818E-07	-0.214213286343065	-0.964413459425219
9	0.658874897260407	-0.733962586658684	-7.28013725317749E-06	1.3308821835796E-06	-3.97419663545701E-06	7.14159726894312E-07	-0.333963560445223	-0.932404411139108
9.1	0.59700285393102	-0.784649562941416	-3.350190815794E-06	-1.88974106538867E-06	-9.88041446294426E-07	2.13238682339609E-06	-0.450173976363572	-0.883217619722428
9.2	0.531277224454502	-0.830042278381201	5.98940486025068E-06	-1.62911809476409E-06	1.97057969926128E-06	8.48604578412724E-06	-0.558355564406935	-0.820095827809392
9.3	0.462234266394522	-0.870164963609026	-3.41313922881776E-07	1.07098248060996E-06	1.36607292300326E-05	1.18625076043533E-05	-0.657874652129693	-0.742985707327288
9.4	0.390076898774072	-0.904932364595137	1.73803725758986E-06	-2.66450629406965E-06	4.29333933993832E-06	1.76670053924583E-06	-0.746241841199652	-0.653978370482602
9.5	0.312409389866272	-0.934156099531792	-6.52446797853938E-06	-4.88913450055002E-06	-1.95666190915156E-06	-5.71168041368948E-06	-0.823417931182765	-0.552009686977842
9.6	0.233079439220951	-0.953296042344739	-1.16711728944864E-05	-2.48141000451287E-07	-5.92365504986997E-06	-4.00409346870083E-06	-0.883111236404224	-0.443155662877113
9.7	0.154091640899662	-0.967137472824904	1.46612467973685E-06	-4.77688238454609E-07	-2.91400672710379E-06	1.6394353345187E-06	-0.93115638140231	-0.329575013757939
9.8	0.0740910135514123	-0.9748063440071	2.20313186055605E-06	1.40004631471388E-06	1.50878815096816E-05	-3.49342258273944E-06	-0.965266937151548	-0.210450796567753
9.9	-0.0065098345954708	-0.975713918509995	-3.46216627297492E-06	8.96207303864463E-06	1.3744650280424E-05	4.99151762883379E-06	-0.984940674788186	-0.0872022890137898
10	-0.0864246092621168	-0.968801665063361	-3.64067525163748E-06	1.61475987789351E-06	1.92348747476751E-05	-1.81181940273808E-05	-0.988543332161588	0.0386949982395702
10.1	-0.163957077227669	-0.95579094644269	-1.48076941064185E-06	2.30121278497837E-06	-8.41736574021018E-06	-4.31606026797989E-06	-0.975140988164829	0.163911192453646
10.2	-0.240268330126269	-0.93698562882946	-2.30888023366341E-06	-1.24148272717557E-06	-1.29199050634925E-05	7.22436886525768E-06	-0.945842601964323	0.285752219951997
10.3	-0.313668485900669	-0.911673384364167	5.76261552272724E-06	3.92421405176605E-06	-6.14658129379664E-06	1.37795402051891E-06	-0.901779584140655	0.402495763795172
10.4	-0.384136649727378	-0.881329560701382	2.09816761047782E-06	1.04477194578983E-06	7.01059224128612E-07	-8.20782312579401E-06	-0.842457927874017	0.512086567571879
10.5	-0.452094331982463	-0.845374826770683	4.35459248521178E-07	-3.0411306268352E-07	-6.45396663676332E-07	-5.60912770629356E-06	-0.771338081243633	0.611174358544628
10.6	-0.515930248593962	-0.803351810970059	5.07797091810088E-06	-2.5822069292283E-06	-9.69224503013375E-06	-7.87903339112247E-06	-0.689444956032311	0.702873604940455
10.7	-0.575202402750457	-0.756663333713018	-2.80432195820154E-06	-5.09515961227507E-07	-5.18757662867575E-06	-7.16279449493206E-06	-0.596085603991247	0.783652806948797
10.8	-0.629626223461367	-0.706661919390399	-3.5932919215395E-06	-3.44593926484811E-06	-1.19606086177727E-05	9.08015466767531E-06	-0.493012399434041	0.851955529239556
10.9	-0.679307647451024	-0.654841771515835	-1.13131143189505E-05	-1.04388505634405E-05	-4.50679750946588E-06	1.09137017375393E-05	-0.383056080906122	0.906814690929789
11	-0.727473812488766	-0.602854868528207	1.00514772780637E-06	1.41329763613749E-06	8.68439568512473E-06	-5.46428552800771E-06	-0.265780825181759	0.949260685958831
11.1	-0.772837163680979	-0.544217512695711	-3.18804937517153E-07	-3.63203522391078E-06	1.02023083062932E-05	-1.0175854664638E-05	-0.142413724778778	0.973761589602711
11.2	-0.812953137904744	-0.483617073614996	-1.02203630189019E-06	-3.91219037313622E-06	2.17380104170419E-06	-6.30050314167575E-06	-0.0186747478146133	0.982174153203041
11.3	-0.849437711115634	-0.420085235819013	1.66692543568154E-06	-1.2027868216878E-05	3.57032041682009E-06	-2.80911696378179E-06	0.104449394614294	0.975889412760361
11.4	-0.881378396383174	-0.354313824366246	9.86281848160401E-07	2.14983822694214E-08	-5.70693820093347E-06	6.44146703226759E-06	0.22653651424846	0.955042137554679
11.5	-0.910225461008919	-0.284375744807831	6.54911186814322E-06	-1.22340778715006E-06	8.23821048753415E-06	-2.90811688894029E-07	0.344861934030649	0.918846237513175
11.6	-0.9312477530529	-0.211419239993391	-6.23198223827524E-07	-5.32724314277931E-06	1.44625065513682E-06	-3.07486814481921E-06	0.458244530713062	0.867909003904598
11.7	-0.94621919552875	-0.136816690818964	-7.49178340603282E-08	-6.04560538398553E-06	9.00524598462505E-07	-2.65439223538346E-06	0.564146373674863	0.803306119517992
11.8	-0.955326964720625	-0.060513498143817	-1.06915077797825E-06	-7.44376730007258E-07	5.16290833059552E-06	1.09502805293071E-06	0.66187760256841	0.726356609174428
11.9	-0.958158767166469	0.0166626340567767	-3.20837268223753E-06	-5.22108712171473E-06	-5.37505839915492E-06	-8.0302087059278E-06	0.750228603046879	0.637501533709895
12	-0.9561404135786	0.0937870426508638	-2.94719290489325E-06	1.64063792240672E-06	-1.67310741325334E-05	-8.76638577421129E-06	0.82436019383101	0.535573048465197
12.1	-0.948462516689496	0.171852791522367	8.27698716158611E-07	-1.56563708037227E-06	7.83708081931971E-06	1.22847662702494E-05	0.884433194778953	0.427879870431391
12.2	-0.932898456665979	0.250712763817102	-4.112752257888E-06	5.54325475189999E-06	4.11192070485974E-07	3.31269795798579E-06	0.931705491942696	0.312806343991122
12.3	-0.910560495552851	0.328095316423211	7.82711875557781E-06	6.39300640504396E-06	4.10926973949074E-07	1.08909631774266E-05	0.963436310484361	0.192075129110023
