# GHZ S RI R 50
0.2	0.987132856128798	-0.156586469705382	2.56545411155599E-06	2.25495325516431E-06	6.58281904095271E-06	-4.8687900301837E-06	-0.967843807284015	0.250744608448929
0.3	0.971336528359529	-0.233754565804886	-8.69106809055521E-07	-5.46365204712294E-06	-3.46323422791401E-06	-7.9621377008194E-06	-0.928941008669315	0.370818124295589
0.4	0.950258248346925	-0.309240639728581	-7.29367256736028E-06	-1.0022625192669E-06	4.44899074253957E-06	1.55388081737799E-06	-0.875045159629139	0.485076634189339
0.5	0.923589775068569	-0.38350587029424	6.21530085010363E-06	2.11422444499867E-06	-2.41948007594371E-06	-1.9146663706899E-06	-0.806622516775694	0.592643847347172
0.6	0.890278200027217	-0.454741070598007	-1.05782021691616E-05	2.46142171241722E-06	-2.22327997834053E-06	-1.01066690154502E-06	-0.724619414082203	0.689132548175302
0.7	0.852212606182775	-0.522816444338194	2.79249651973095E-06	-1.17335361435569E-06	-2.99952471544295E-06	5.80193854515477E-06	-0.63224343207395	0.775000952629733
0.8	0.808760057863693	-0.588298567201889	1.1850154202981E-06	-8.50073804710793E-06	-6.63880785632492E-06	-3.083238726861E-06	-0.52949016031324	0.848673138933361
0.9	0.760014706690741	-0.650321016277048	-1.15014731083933E-06	-6.8363601201299E-07	2.5537397699385E-06	6.56528705150068E-06	-0.418278070338444	0.90865776297215
1	0.706284992435399	-0.707946851738746	-2.75239713811849E-06	-3.23340300560174E-06	-4.04141794192031E-07	-7.33922695196496E-06	-0.300625128327595	0.953981376144164
1.1	0.649642616752847	-0.761472039036361	1.81463736648054E-06	-4.95683809548419E-06	2.27968555753355E-06	-5.1507961189484E-06	-0.177775664968375	0.984335489870293
1.2	0.587206265103167	-0.81148755396304	-2.50497160319651E-06	2.49981709866516E-06	9.29517552586462E-07	-9.13871983369371E-07	-0.0517154222608446	0.998536878792129
1.3	0.519211446237417	-0.856409855840762	-1.54315665468363E-06	7.22183676048301E-07	-1.35985716410434E-06	1.46862576635146E-06	0.0751556817947465	0.996700554158181
1.4	0.447971090929446	-0.894907058033692	3.93321847068306E-06	-3.2532110798831E-06	2.71788463937973E-06	1.09730662219014E-05	0.20103620877337	0.978336002246057
1.5	0.375968397166696	-0.927210702119553	-5.35399883774855E-06	1.11587267786378E-06	6.60746751211468E-06	-7.23324326605854E-06	0.323496614966504	0.944813472019088
1.6	0.30177638000336	-0.955321057298249	1.77672164243933E-06	-7.76932320967019E-06	3.64667244823945E-06	1.38475166623102E-06	0.439883605126595	0.895684660093637
1.7	0.226161377474615	-0.975880129943862	-1.95032283141707E-06	-9.70810655767932E-07	-2.39027936237085E-07	-2.09491360051543E-06	0.54842977267498	0.833583302118529
1.8	0.148753786918575	-0.990521904495077	2.86959426217663E-06	5.29611006651958E-06	7.0218364970346E-09	2.03958006637573E-06	0.648687359936852	0.757927488162386
1.9	0.0710126906988346	-0.999131136628012	5.69534811091655E-06	-2.64857517200033E-06	-3.01022854658802E-06	4.20720608096811E-07	0.737890888306648	0.671038835915057
2	-0.00659045154445943	-1.00289593841468	-1.56079315989481E-06	-2.03676498897497E-06	3.24866722018372E-06	1.15234799824268E-05	0.818085821829364	0.573740385689445
2.1	-0.0874113883320046	-0.99951647048038	-7.58878662097413E-06	2.49599238212105E-06	1.23249962388058E-06	5.17152498430754E-06	0.883776601895009	0.463980612716443
2.2	-0.165143954587685	-0.989327960674025	-8.82280498667757E-07	1.4047716945325E-06	3.04872237943067E-06	7.80485555193801E-06	0.934068543571302	0.348855558353158
2.3	-0.243225652160565	-0.972701639824369	2.10447079072406E-07	7.48919487096619E-06	7.4714101474228E-07	9.40359273670263E-07	0.96956059404264	0.229246646898984
2.4	-0.319952746012414	-0.94953725767232	1.6174786749656E-06	7.20201261961845E-06	1.55566213770384E-06	6.41182356306595E-06	0.990615855303243	0.105188413629161
2.5	-0.393706409336187	-0.920899412724609	4.39992111630416E-06	-2.34549709140366E-06	-1.95896507402734E-06	-7.59755397057048E-06	0.995721529956381	-0.0201214943737394
2.6	-0.465143386297749	-0.886350382201891	6.76936434621735E-06	-6.00434841495813E-06	-1.10935542241452E-05	1.09297393089866E-05	0.984945856673622	-0.145634389486745
2.7	-0.533928181236459	-0.846428505417174	-4.41201194920076E-06	9.20420419021176E-06	-2.93385184395073E-06	-9.18176337458766E-06	0.958308054499013	-0.268851236225074
2.8	-0.598612425559764	-0.801609307421639	2.47410358650238E-06	1.13385966780789E-06	-3.13320763927724E-06	1.26693767864262E-06	0.916930688806041	-0.387168930043403
2.9	-0.659289939239234	-0.751673110975632	-5.48089908973655E-06	6.07379055920475E-06	-9.23004967022257E-06	-2.24251871543384E-07	0.860537203240947	-0.499027538971266
3	-0.714518913754089	-0.696332751143848	4.62624520294706E-07	-1.48035577767373E-06	1.13656035371524E-05	1.382368787506E-06	0.79067424662882	-0.603368401224014
3.1	-0.766349793520703	-0.639921930909701	2.48439887738734E-06	1.04983265791675E-05	4.34849077942391E-06	2.14729346280121E-06	0.708011075371117	-0.697463579539012
3.2	-0.81443959819451	-0.578362164505238	2.15410968219571E-06	6.46020896193247E-06	3.9300297329082E-06	-1.06496205663564E-05	0.614508199699668	-0.780068521460933
3.3	-0.857184122943173	-0.512849407542549	3.12095379928125E-06	4.94274712547197E-06	-2.29838909807974E-06	-9.65962870450638E-06	0.510268058246938	-0.850642953405952
3.4	-0.893187755014483	-0.444343965061437	2.10535528877763E-06	-2.61812278188761E-06	5.9649999580046E-06	1.33871113288816E-06	0.399612151783791	-0.906342383119135
3.5	-0.924176316589187	-0.37364273370636	-3.23310135984711E-06	9.63939425688082E-07	-2.0533238936521E-06	3.43317902463136E-06	0.284663761259428	-0.948535532049532
3.6	-0.951822637964983	-0.299988424873636	-1.8388540447223E-06	-3.73495036553638E-06	-7.80284467917932E-06	4.16100408554041E-06	0.162555371085419	-0.978568209470675
3.7	-0.97205506045291	-0.223892763752809	7.61579881444854E-07	-8.33331993467339E-06	1.07958153896129E-05	3.61870877885738E-06	0.0368643050612143	-0.990425164010573
3.8	-0.986127297965145	-0.145972738500248	1.03241913214604E-07	1.54519081669253E-06	-6.47134978599724E-06	5.99514807749624E-06	-0.0876064546027402	-0.986333147905437
3.9	-0.99349816615672	-0.0679068539150993	-2.66093399946329E-06	-5.00508119268142E-06	-3.64381616756034E-06	8.04501181176161E-06	-0.211890898820835	-0.967314144925502
4	-0.994492522757003	0.0107346110493139	7.12099389706705E-06	-4.36467143976502E-07	-1.05343293296098E-06	-1.19674619549178E-06	-0.331827786578072	-0.933924140830914
4.1	-0.99041505813968	0.0881117563822638	6.14995711963528E-07	-4.47943419505192E-07	7.30172601966888E-06	-4.80534631430654E-06	-0.447924663558978	-0.883803051255766
4.2	-0.980590098905863	0.165630706390612	3.21314809087287E-06	2.07431192567122E-06	-7.22303348714067E-07	-7.54872488866401E-07	-0.555281537876782	-0.819224961293844
4.3	-0.964995810910578	0.241369100110714	-3.1720126475548E-06	1.39037388884932E-06	-4.96346941904177E-06	3.007974028886E-06	-0.653314328090034	-0.743024648958477
4.4	-0.943731994427662	0.316611422126489	8.1833538429754E-07	2.63219411793918E-06	1.50033431131062E-06	-8.32475303359846E-06	-0.741211664597024	-0.655263279032953
4.5	-0.913978952151825	0.391171580262376	1.81508144104053E-06	-9.51566912428323E-07	7.62115853216989E-06	-3.0936559812609E-07	-0.817993203824695	-0.556733870090474
4.6	-0.878610308847875	0.459885151466118	-6.81512622973999E-07	6.11898912656557E-06	-1.23591866911232E-05	-6.37603933536252E-06	-0.880962875816399	-0.449346459888678
4.7	-0.840250736731518	0.525560474142124	1.21491740111217E-06	2.4946622894958E-06	1.42925071487301E-06	1.85066626207492E-06	-0.93060386946418	-0.335154746639846
4.8	-0.795824385567561	0.590016406233599	-5.08405822589277E-06	1.11233515300768E-05	5.27952858578624E-06	9.62031723457258E-06	-0.965147008548463	-0.214830668952698
4.9	-0.746066032122906	0.650567985132915	1.21464387109729E-06	2.90964002413438E-06	-5.30951933384495E-07	-6.87855175175922E-06	-0.983774054602869	-0.0901324530617273
5	-0.690845211352349	0.704621747251937	4.70106994673658E-06	-9.33528047467362E-07	-3.70023916728442E-06	2.429720528261E-06	-0.98382417658648	0.0340674077785254
5.1	-0.635258923530994	0.755301298583035	4.10468362394706E-06	-1.56882409016977E-07	-2.67729517305821E-06	-9.73423131655323E-06	-0.972411365369523	0.155328827770391
5.2	-0.574481599738975	0.803744327761396	2.54978973876554E-06	-1.4901078962607E-05	1.37910221624371E-06	2.79837434776137E-06	-0.94541831855767	0.27663923509691
5.3	-0.509558651143012	0.846934144555198	-8.65330740195078E-06	-7.50261776350594E-07	-1.12667213628829E-06	1.61347420903607E-07	-0.902831208273409	0.393183324145105
5.4	-0.441380859439124	0.88486217139201	-7.15514281135477E-06	-1.09679634347783E-05	-1.36218992819351E-05	1.1143260474969E-05	-0.845982589627946	0.50263061989684
5.5	-0.369855885584696	0.91635025889443	1.89469904924739E-06	8.53303423760363E-08	-2.22989597041232E-06	1.77800802252024E-06	-0.777547799246861	0.604012166172603
5.6	-0.297386072356738	0.941138742713994	-2.38409339897399E-06	3.49994739299279E-06	-1.33004922840764E-06	1.28541664730352E-06	-0.696073195194033	0.697139049400533
5.7	-0.223277531937353	0.961544157888621	1.29992736199489E-06	1.21974301144174E-06	5.7218961662946E-06	-1.31858457114789E-07	-0.603195004308542	0.778586565986231
5.8	-0.147721668490949	0.975662042742364	2.68841589526218E-06	4.22139546776793E-06	-2.08870300297999E-06	4.21245199334349E-06	-0.500964909243278	0.847089281555249
5.9	-0.0720231242231275	0.984678640475931	-6.82709276348676E-06	-2.2828415008489E-06	-7.81050167936304E-08	6.23595078355835E-06	-0.39238824332579	0.902323207205603
6	0.00630470723269027	0.989698192749573	-1.7821503030364E-06	8.52669250098276E-08	-5.42084809563094E-06	-4.37658914811535E-06	-0.277348573607863	0.945622525120057
6.1	0.0856881207384577	0.98389845312222	4.54827885981691E-08	-9.86262432958682E-06	-9.7695833909134E-07	-3.19834603663819E-06	-0.156207823986471	0.971998369030236
6.2	0.162147594813046	0.972538891865572	-1.01695460350317E-06	3.09259602856017E-06	-1.75001153170645E-06	4.1870643173219E-06	-0.0336924952743743	0.982965307326437
6.3	0.237562363351306	0.95646771365085	-8.03207561959078E-07	2.81122699628732E-06	-2.92166809464068E-06	2.37699427065454E-06	0.0890684164692417	0.979375678756435
6.4	0.312608686986111	0.935828800519391	-5.94413587866256E-06	5.50755148985053E-06	-2.36803170781207E-06	-7.48491937760473E-07	0.21158215980798	0.96167975853753
6.5	0.388490063477215	0.906561987167468	1.3908927121134E-06	-5.25049329165203E-06	-1.44375359751784E-06	-2.36295962788529E-06	0.33344315383609	0.926100548644612
6.6	0.455955982176325	0.870923198728257	3.62532927557723E-06	2.07444928236657E-07	1.12160766497476E-05	-2.65965054374562E-06	0.444680349367651	0.874836878125524
6.7	0.521868173257655	0.83317058800698	-7.71196764312789E-07	8.39163145262491E-07	-3.7475819421796E-06	5.181564678172E-06	0.549242786653492	0.812995254108023
6.8	0.585591954007985	0.790164760372848	-1.75234888155897E-06	4.44586974421166E-06	1.44400992154317E-06	-8.72202882777422E-07	0.645934305684753	0.738462923553654
6.9	0.645965270107156	0.742319764260228	5.85868084223729E-06	2.25292762790665E-06	-9.32913302643595E-07	2.39071711438811E-06	0.732536444959997	0.65263049494839
7	0.703132433441035	0.689337573229755	1.16041669787151E-06	-4.11280638313659E-06	-1.43768620631344E-06	2.88669121064241E-06	0.808717538294581	0.556625442049575
7.1	0.755112870895524	0.631455114565161	2.42912623503612E-07	-7.1270568495039E-07	1.90884185407207E-06	9.14794538115689E-06	0.871633154246074	0.450808506736951
7.2	0.802240440786091	0.569813126460946	1.39013569389667E-06	-2.39208638742314E-06	-9.59631142565235E-07	-8.52077857657276E-06	0.920409499170184	0.338637968171619
7.3	0.844213384551469	0.504304950953415	4.76854804791378E-06	7.2037724740932E-06	-9.66411521680019E-06	2.2695696793761E-06	0.954328308364296	0.22108542231578
7.4	0.880371522766746	0.43599401766603	5.05330500904363E-06	-6.50211139303682E-07	1.97274838955884E-06	-9.54087511385927E-06	0.97251052332583	0.101047636121013
7.5	0.9127852412052	0.367354804018261	2.76938558619499E-06	-5.22355410065897E-06	2.14682433220373E-06	-7.17937225476065E-06	0.978892526314191	-0.017626554733329
7.6	0.941642983072519	0.292747647813398	-2.46274424391717E-07	-5.60127049775878E-06	1.66100110882493E-05	4.03550272146427E-06	0.971447784925509	-0.141686857672577
7.7	0.962648422852207	0.216044318933876	3.49622905300216E-06	1.51651908255371E-07	3.564909184844E-07	-2.90419449129754E-06	0.946359953191791	-0.262915645246403
7.8	0.977383837025779	0.138468092636295	-1.09010277623559E-05	-2.04834475223853E-06	-2.45246786422689E-07	3.41991414701514E-06	0.906717594982774	-0.379638244319331
7.9	0.986644310198681	0.0607167030858422	2.32122574823664E-06	2.05759887402817E-06	-6.8576568866888E-06	-4.79394358750173E-06	0.854082561354176	-0.49034564176762
8	0.992742528774622	-0.020304457276017	2.31905414084427E-06	2.98829677964989E-06	-9.25723154640582E-06	-7.72841890652458E-06	0.788696488074944	-0.59858929854318
8.1	0.986151263980021	-0.103097814821164	3.85718489472897E-06	-3.04014372697194E-06	2.17653400820569E-06	-3.16968683960568E-06	0.703108912761973	-0.694790345822254
8.2	0.973722797219996	-0.181286111572235	-4.04719349249491E-06	1.38369683169197E-06	-6.7562482360716E-06	3.0636466259863E-07	0.609549439130856	-0.776286620611618
8.3	0.955752988413164	-0.258587706508297	9.85991100854135E-06	3.75013434972032E-07	6.15940926811573E-06	1.04975014251583E-05	0.507345334361727	-0.846011214090752
8.4	0.931860238766282	-0.334471359006255	1.2640954577805E-06	2.56571377898097E-06	3.44469102660746E-06	1.84952153074062E-06	0.39759910975785	-0.902579393911313
8.5	0.901898245694785	-0.408930321038475	-4.88386966278654E-06	4.91422354094635E-06	2.87893161512045E-06	-2.99317707105307E-06	0.282365754853192	-0.946022312034329
8.6	0.865699936795854	-0.480328319067223	-4.52468326844151E-06	2.04553054730359E-06	-3.12190928494918E-06	8.09726985868976E-06	0.16053951357634	-0.975814322396627
8.7	0.824339315719757	-0.548825450553521	-1.03526428688247E-06	1.20975916179183E-06	-6.78428181666306E-07	3.46644502834957E-06	0.0355024464297519	-0.988692002983521
8.8	0.777440047360728	-0.6139822760931	-1.6169151400701E-06	3.07710781571108E-06	-6.04164757252143E-06	1.23857029337535E-06	-0.0898291992254972	-0.98573163292041
8.9	0.72511148968377	-0.675163132465147	3.20014979012068E-06	-1.81841985393699E-06	-3.17573081695651E-06	-4.80115836636296E-07	-0.214487404303506	-0.965549709871231
9	0.668270970737871	-0.730615109449368	-7.30677509328409E-06	1.31153325036797E-06	-3.98869832295237E-06	7.03559263329611E-07	-0.331843021330722	-0.929404722558527
9.1	0.608118462081462	-0.782843423225552	-3.34583641710777E-06	-1.91209375033565E-06	-1.00186743933403E-06	2.1308218096998E-06	-0.445705830506372	-0.883142881602713
9.2	0.542511199145808	-0.830012800650233	6.01168594714528E-06	-1.59457336167798E-06	1.92095894721326E-06	8.51548333415908E-06	-0.554112632067177	-0.821742552265251
9.3	0.473002969364155	-0.871300709449157	-3.4947792684472E-07	1.07050467214125E-06	1.36017030210148E-05	1.19801609818325E-05	-0.653997919718428	-0.746343158623176
9.4	0.400191589824613	-0.905233867790955	1.76167305090932E-06	-2.65153663763093E-06	4.28117718714076E-06	1.80411882390995E-06	-0.742023907185156	-0.658673848789567
9.5	0.328083027853844	-0.934717173136373	-6.47597028852903E-06	-5.00053192260376E-06	-1.88055404157629E-06	-5.75966369367712E-06	-0.820389187350811	-0.564544704276586
9.6	0.247983869192528	-0.960800037804576	-1.17817520544388E-05	-3.90125993303927E-07	-5.93340179187632E-06	-4.11388713419048E-06	-0.890556591782839	-0.455620830312792
9.7	0.166150212357016	-0.97674126186147	1.48587446917269E-06	-4.69370734089294E-07	-2.95953715069707E-06	1.63015364824265E-06	-0.942293665670788	-0.337163563721384
9.8	0.0843401126370819	-0.985554838176925	2.2157650596053E-06	1.43225894112933E-06	1.52766892950714E-05	-3.41283387677814E-06	-0.977462520667683	-0.214362057260486
9.9	0.00268525003714286	-0.987589349836798	-3.56424244006733E-06	9.03830298638393E-06	1.38638040021289E-05	5.14449276704284E-06	-0.996781692491098	-0.0882485461020235
10	-0.0788138183607437	-0.983446966069157	-3.69208970530993E-06	1.6130146802905E-06	1.95605322867095E-05	-1.82204030017711E-05	-0.999643926079158	0.0379700196564607
10.1	-0.159990514308948	-0.970935714589043	-1.5099194422652E-06	2.31906775940423E-06	-8.48864724059121E-06	-4.41030542249678E-06	-0.988628256434781	0.164093329383038
10.2	-0.238472131530105	-0.95196695158019	-2.33010110801451E-06	-1.26884048622637E-06	-1.31145802247079E-05	7.24235750948581E-06	-0.960768145984275	0.28887852300901
10.3	-0.314206608303067	-0.926532879152522	5.81967860025632E-06	4.00462917190827E-06	-6.23485696928233E-06	1.36593948836823E-06	-0.917451452585883	0.408820404474791
10.4	-0.387473393866035	-0.895127817118182	2.12654321831758E-06	1.06972280514262E-06	7.45904412182691E-07	-8.33281930477587E-06	-0.85896787939829	0.522921122433244
10.5	-0.456768115732666	-0.856375435667486	4.42893020068408E-07	-3.09802920296932E-07	-6.61075442180966E-07	-5.70739839521919E-06	-0.783601499273848	0.628218548583497
10.6	-0.520480192824959	-0.813009270109268	5.1434682615546E-06	-2.63825407670017E-06	-9.86283168502069E-06	-7.96042872039371E-06	-0.697794965210526	0.71979309070478
10.7	-0.580113019550152	-0.76568620634674	-2.84416687318621E-06	-5.04563946032017E-07	-5.28746140284687E-06	-7.23725780503679E-06	-0.60258987403751	0.801536604187941
10.8	-0.635841413909451	-0.715202558037719	-3.65812703979674E-06	-3.47226760230121E-06	-1.20696198974479E-05	9.26089595804856E-06	-0.4972462726928	0.871372720205436
10.9	-0.687927830588604	-0.660491714917632	-1.15246605057218E-05	-1.04730279424563E-05	-4.475200405313E-06	1.10750086939919E-05	-0.38286702781599	0.926840819746609
11	-0.731609843361659	-0.604430612218712	1.02026981242817E-06	1.41674519015276E-06	8.70981978040219E-06	-5.55245493705195E-06	-0.264023180916455	0.964578844276679
11.1	-0.776275173848181	-0.549778935871152	-3.32071277255152E-07	-3.66578321342948E-06	1.02709786602826E-05	-1.03016434997768E-05	-0.143108771009987	0.992051748121443
11.2	-0.818656335473091	-0.489195717674857	-1.05054439230868E-06	-3.95214531451412E-06	2.17121510896489E-06	-6.38136578801997E-06	-0.015423948410613	1.00343273744211
11.3	-0.856617735451347	-0.424147170860766	1.61135788022635E-06	-1.21773297458092E-05	3.59412743789628E-06	-2.86381771462422E-06	0.112953098220268	0.997163748775373
11.4	-0.88820004435495	-0.355942038417382	9.96982280976968E-07	1.43622594637122E-08	-5.71981833940442E-06	6.55292482649025E-06	0.23960663696982	0.974088707347223
11.5	-0.91548407480606	-0.287500375055149	6.61217134152007E-06	-1.28402210389614E-06	8.32652683820803E-06	-3.53361394728626E-07	0.360784389419853	0.934556154594372
11.6	-0.939650028563932	-0.213840640446502	-6.80611776504364E-07	-5.38049220315312E-06	1.43316585066251E-06	-3.12272078598953E-06	0.476210063206184	0.880273724128148
11.7	-0.955513011095717	-0.136601316014445	-1.40360054996422E-07	-6.10347940535723E-06	8.80850786886513E-07	-2.68979424863816E-06	0.583485885749034	0.811647830206485
11.8	-0.96492152736942	-0.0576506059811296	-1.08602547265341E-06	-7.38648958963033E-07	5.21687725943883E-06	1.04707699810974E-06	0.680634583731045	0.730215652805172
11.9	-0.967660237672409	0.0231950546431219	-3.27879783708596E-06	-5.2266254936853E-06	-5.48636405886003E-06	-8.0346225378492E-06	0.765582877809849	0.639275918461445
12	-0.962384977566349	0.104107353294955	-2.96211425607611E-06	1.68027374902442E-06	-1.69625097509178E-05	-8.71459358280383E-06	0.841761413007335	0.537992383518756
12.1	-0.9511658883026	0.183134081468349	8.19006032205896E-07	-1.5893939224739E-06	8.04237402831349E-06	1.23191299562081E-05	0.900497270159855	0.425327884973482
12.2	-0.93300770755551	0.26147910895549	-4.08931132804489E-06	5.6362719272283E-06	4.50445328207995E-07	3.33742353249905E-06	0.945333361262281	0.308778907469022
12.3	-0.909611618722285	0.338229417473739	7.96739482176077E-06	6.36683687367593E-06	5.321409857781E-07	1.09857701907488E-05	0.975795919907815	0.186858352636888
