# GHZ S RI R 50
0.2	0.986621467811635	-0.156674447603644	2.56511898900935E-06	2.25240488891001E-06	6.57667841252448E-06	-4.86929557909207E-06	-0.966962856404825	0.251329207763307
0.3	0.970681932256366	-0.233885480758691	-8.72203884789075E-07	-5.45889982605058E-06	-3.46607725457261E-06	-7.95370143089729E-06	-0.927602927988922	0.371378892968401
0.4	0.949287207718177	-0.309378392552269	-7.28643841365219E-06	-9.94993625021296E-07	4.44537388869495E-06	1.54840275149356E-06	-0.873173405847834	0.485335819942063
0.5	0.922238520865407	-0.38320070272822	6.2071443642613E-06	2.1076331795188E-06	-2.41690577333733E-06	-1.91046356026694E-06	-0.804687157497237	0.592099176522405
0.6	0.888990560845251	-0.454058435323652	-1.05623875654986E-05	2.46302940523809E-06	-2.22068068148886E-06	-1.00821321300334E-06	-0.722908650129082	0.688550257749258
0.7	0.850955993467483	-0.521790727154858	2.78759905557801E-06	-1.17295127088683E-06	-2.99197578753419E-06	5.79450288201012E-06	-0.630320552272156	0.774142871384571
0.8	0.807700386146398	-0.586920069972943	1.17952848838339E-06	-8.48695773075527E-06	-6.62893376700134E-06	-3.07533191413175E-06	-0.52753550097749	0.847352741956993
0.9	0.75941409487795	-0.64878682773912	-1.14842308598028E-06	-6.82149656534652E-07	2.55140789493958E-06	6.55353060740465E-06	-0.416447378094855	0.90687991800441
1	0.70594437280326	-0.707019747236006	-2.74970561378723E-06	-3.2271106583519E-06	-4.07026901416897E-07	-7.32773681401902E-06	-0.298999689505115	0.951753656845722
1.1	0.648577027767679	-0.760685072335096	1.80745407216843E-06	-4.94896125308032E-06	2.27148467630143E-06	-5.14291246767397E-06	-0.176546654405591	0.981678968389
1.2	0.585766124265416	-0.810346824778991	-2.49758724126437E-06	2.49609775045947E-06	9.26787469291087E-07	-9.12522326522072E-07	-0.0510396073271933	0.995597183565682
1.3	0.517597742014627	-0.854753266505442	-1.5389738766004E-06	7.2118524670808E-07	-1.3557469252323E-06	1.46568872846476E-06	0.0751377357428443	0.99374813264087
1.4	0.446535518245017	-0.89281962370002	3.92264395173009E-06	-3.24572724470869E-06	2.71309738127681E-06	1.09447767542846E-05	0.200463266656395	0.975595746818187
1.5	0.374005363727394	-0.924523699745673	-5.33919198554301E-06	1.11334200549296E-06	6.58861195967179E-06	-7.21404593211095E-06	0.322310475272517	0.942270307707746
1.6	0.300642255681485	-0.950986004635177	1.77481959139118E-06	-7.7443590075667E-06	3.63469856886931E-06	1.38214769082136E-06	0.438441720319416	0.893639656679286
1.7	0.226319669694951	-0.971304418228728	-1.94350679709723E-06	-9.69738323508047E-07	-2.36308460499181E-07	-2.08881449521911E-06	0.546818575241785	0.831750790099634
1.8	0.14976077941163	-0.98617898370556	2.8552592037491E-06	5.28462996656324E-06	4.58627224872104E-09	2.03385831864716E-06	0.646961226209543	0.756368617040231
1.9	0.072361716045638	-0.995186941260331	5.68266138946847E-06	-2.63573085753135E-06	-3.00254146336772E-06	4.16569488794663E-07	0.736254144974261	0.669417706470325
2	-0.00521172345150777	-0.998576626890421	-1.55300966206684E-06	-2.03131362135485E-06	3.22434138413692E-06	1.14864112333855E-05	0.81523264293252	0.571842026405761
2.1	-0.0851014757430691	-0.995033193242918	-7.56901715255718E-06	2.47203921475034E-06	1.2177163252604E-06	5.15708064213074E-06	0.880666881624247	0.463830626648547
2.2	-0.162048802281623	-0.984982462736002	-8.8285161672826E-07	1.39862052396955E-06	3.0220391643812E-06	7.78867802137416E-06	0.931628658955163	0.349266309713974
2.3	-0.239215925138889	-0.968706607453688	1.91392778876087E-07	7.46868200775028E-06	7.42724548483741E-07	9.39560436888446E-07	0.967467411250937	0.229882460131256
2.4	-0.315025921768811	-0.946328536539555	1.59331453437719E-06	7.18732877544972E-06	1.53384180192782E-06	6.39906977987962E-06	0.988688373384236	0.106091491605017
2.5	-0.388412966468176	-0.918966431614066	4.39729990366396E-06	-2.32636100524881E-06	-1.93066729012344E-06	-7.58646280578064E-06	0.994051234687737	-0.018632743068857
2.6	-0.46010044552109	-0.88521388108069	6.77519670633777E-06	-5.97257423652264E-06	-1.1106441527694E-05	1.0875654133555E-05	0.983964322598487	-0.143904777415914
2.7	-0.528992237144469	-0.845734179061062	-4.43184472317244E-06	9.17405129251886E-06	-2.90068813370363E-06	-9.17390265514912E-06	0.957737046069382	-0.26695043297803
2.8	-0.593566142199365	-0.801348864367645	2.46587338640851E-06	1.13954121669583E-06	-3.13131975720143E-06	1.25466284238742E-06	0.916885355153539	-0.385071506136694
2.9	-0.654130926029321	-0.752360128243901	-5.4912220899046E-06	6.04266129268415E-06	-9.2109966458282E-06	-2.55983079611915E-07	0.860976284732879	-0.496810428943683
3	-0.710837094946712	-0.697946960755763	4.67660795140065E-07	-1.47620840223943E-06	1.13422160813883E-05	1.42447130925959E-06	0.791696847343501	-0.600799585954739
3.1	-0.763061161298479	-0.640411773666654	2.44094862746527E-06	1.04917573613924E-05	4.33376612023622E-06	2.1604627088732E-06	0.710208739128477	-0.694835877116954
3.2	-0.810667537078643	-0.578894333996714	2.12462717079523E-06	6.45943572858758E-06	3.96758055809007E-06	-1.061788933513E-05	0.617728197660806	-0.778010524712429
3.3	-0.853233396036076	-0.513917703115792	3.09565148145475E-06	4.95100070044729E-06	-2.25318661777667E-06	-9.65898254330218E-06	0.514369556648682	-0.849440368575398
3.4	-0.889592648967026	-0.446173001800476	2.11633073058703E-06	-2.60786865997128E-06	5.95705512807399E-06	1.36486265372375E-06	0.404307817006612	-0.906624730471129
3.5	-0.921308216586026	-0.37516162960097	-3.23555560649427E-06	9.52536182898126E-07	-2.06460636505763E-06	3.42517918210123E-06	0.288201845931636	-0.949990062740409
3.6	-0.948306987961533	-0.301751322854435	-1.82235040893958E-06	-3.73902387612226E-06	-7.81262874919134E-06	4.1262467590754E-06	0.166393488173961	-0.979744953589856
3.7	-0.96869342530751	-0.226536828217359	7.97769817596798E-07	-8.32631516954594E-06	1.07752042699909E-05	3.66443469381024E-06	0.0408985701486674	-0.992641775609819
3.8	-0.983307836408487	-0.149410445217184	9.64081331204369E-08	1.54554872698402E-06	-6.49742705555985E-06	5.96617410038166E-06	-0.084062646728068	-0.989335083492714
3.9	-0.991701953595049	-0.0720382129541608	-2.63931689852559E-06	-5.01687223442097E-06	-3.67893098118168E-06	8.02955794192617E-06	-0.208946914449057	-0.970396660176706
4	-0.994252282939453	0.00676513431848	7.12303272258503E-06	-4.01878153868176E-07	-1.047608807215E-06	-1.20184872738215E-06	-0.328175071683921	-0.936602329661125
4.1	-0.990767641059217	0.0849664613626736	6.17807599173068E-07	-4.45144713215707E-07	7.33246945475984E-06	-4.77169630062019E-06	-0.44352665100489	-0.888172337912485
4.2	-0.981203187130259	0.162870493172781	3.20749024783959E-06	2.09291936497225E-06	-7.19620392085427E-07	-7.59458195522795E-07	-0.551696675166585	-0.825038441795122
4.3	-0.965784213951856	0.238794996059026	-3.18378098371735E-06	1.37860848015179E-06	-4.98560935521324E-06	2.9910191198486E-06	-0.650910632339372	-0.749589070531861
4.4	-0.94464810539201	0.313581647697202	8.09308325364274E-07	2.63967866004205E-06	1.53550969477736E-06	-8.33234293631129E-06	-0.739979343928524	-0.661874611138973
4.5	-0.917001097572809	0.387306012205763	1.82140867961363E-06	-9.44520336247012E-07	7.63121620214813E-06	-2.75584089057782E-07	-0.817247248889627	-0.563152977557033
4.6	-0.883143941375761	0.458192182041665	-7.11315813917889E-07	6.1278248670637E-06	-1.23537750917861E-05	-6.44604571932041E-06	-0.88064063922207	-0.456046894757934
4.7	-0.844698375782026	0.525199111594805	1.20642088843384E-06	2.50556100841826E-06	1.42410411940082E-06	1.86111290646193E-06	-0.930986079586824	-0.342260318626744
4.8	-0.800191047323847	0.590470553249438	-5.14758567053214E-06	1.11268124296671E-05	5.24797019483886E-06	9.66788694474345E-06	-0.966457102146106	-0.222284093487177
4.9	-0.750690169288493	0.651458342393426	1.20353067909753E-06	2.92443446834961E-06	-4.97723140526737E-07	-6.90168305694793E-06	-0.986350986015158	-0.0980766634485842
5	-0.696170721690498	0.70753322914158	4.72696861888339E-06	-9.16071141686568E-07	-3.72846323130394E-06	2.42376100269779E-06	-0.988924778547341	0.0266161710970644
5.1	-0.63842691522438	0.759443910556402	4.12356878586628E-06	-1.4361264371037E-07	-2.656132295563E-06	-9.78686376032798E-06	-0.978335071644456	0.149402156383553
5.2	-0.576686537650337	0.80748475656301	2.60944896609768E-06	-1.4959447264911E-05	1.37620568945221E-06	2.81535285431413E-06	-0.95242569450215	0.27173634648759
5.3	-0.511471202156609	0.8504445800848	-8.69251761421211E-06	-7.78952944907031E-07	-1.13252879947405E-06	1.58850682720425E-07	-0.91071893395784	0.39002558919687
5.4	-0.443383716019202	0.888251392679744	-7.1665533599522E-06	-1.10375677863022E-05	-1.37132528576466E-05	1.11685527623415E-05	-0.853855699753595	0.501670883447064
5.5	-0.372502801237244	0.920565479434257	1.90232604983943E-06	8.94726991512066E-08	-2.24263091706313E-06	1.78086363219275E-06	-0.783931587280859	0.604474071204237
5.6	-0.298982400070483	0.946723187767843	-2.40434461162984E-06	3.51011095250832E-06	-1.3396117305195E-06	1.28796731336111E-06	-0.702076808579738	0.697481571049722
5.7	-0.223554761647228	0.967265720729548	1.30410360365325E-06	1.22924980604257E-06	5.75285401404874E-06	-1.19484226951115E-07	-0.60946210582753	0.779877439483763
5.8	-0.146882288783588	0.981123921837771	2.69743208714227E-06	4.25142613965648E-06	-2.10847237991509E-06	4.23428993874756E-06	-0.506950463306468	0.849968775637854
5.9	-0.0700118721036774	0.989131022586826	-6.87194574660327E-06	-2.30024830119522E-06	-8.06054625527947E-08	6.27755700864839E-06	-0.397005783972772	0.906917362660213
6	0.00728126947961849	0.992005971649328	-1.79117376095843E-06	8.7989211375062E-08	-5.45424003724455E-06	-4.39206601062444E-06	-0.27997029972522	0.950368159962092
6.1	0.0851892137155772	0.98752765539404	4.09345322397582E-08	-9.90778785359683E-06	-9.82972374117296E-07	-3.21251382621157E-06	-0.157747720028169	0.976939418977346
6.2	0.162130665683172	0.977179174746824	-1.01952964249557E-06	3.10759263477433E-06	-1.75522301627883E-06	4.20762479438384E-06	-0.033900553293441	0.987733532437399
6.3	0.238408298981467	0.961549256358874	-8.04177883560466E-07	2.82434354361616E-06	-2.9323664503052E-06	2.39013301758362E-06	0.0898754501111709	0.98366888574898
6.4	0.313968372492957	0.940577274732482	-5.962474673846E-06	5.53387412879772E-06	-2.37782294885648E-06	-7.49386829942554E-07	0.21295175959126	0.96503884569675
6.5	0.389247615429743	0.91294907139968	1.40077525973656E-06	-5.2716105398762E-06	-1.44804877276839E-06	-2.37404297517932E-06	0.333981523122029	0.929817056026841
6.6	0.460035590609997	0.878395525930213	3.64794764040933E-06	2.08811323382591E-07	1.12861190419712E-05	-2.67602458503707E-06	0.44707036595086	0.879288248704389
6.7	0.527887247276315	0.839284207931217	-7.75305340356375E-07	8.45519073202322E-07	-3.76631192928022E-06	5.21967518346175E-06	0.552891554318582	0.81670114251723
6.8	0.592656446151003	0.794919877633126	-1.75576976793484E-06	4.47872914917763E-06	1.45200819359952E-06	-8.80690769021634E-07	0.650569645567635	0.741416427426038
6.9	0.653572878192208	0.745568733888894	5.90549075632617E-06	2.25224631803019E-06	-9.32729241727202E-07	2.40985626744747E-06	0.738140392814732	0.654521921804754
7	0.710425178283077	0.691518730438531	1.14967806677395E-06	-4.14182957253234E-06	-1.43379732909244E-06	2.90971856468968E-06	0.814595422547584	0.557125262192852
7.1	0.762806586142973	0.633234118224365	2.41626132481888E-07	-7.17050506374392E-07	1.95003881670287E-06	9.18622656711461E-06	0.877749430196786	0.450514523764514
7.2	0.81044952918569	0.570590957884359	1.38973278427559E-06	-2.40895354182325E-06	-9.91793142573444E-07	-8.56200831632807E-06	0.926878634969927	0.337360122637465
7.3	0.852791545478651	0.503985151972295	4.81790259272915E-06	7.23000041777183E-06	-9.71204707645876E-06	2.31231516856743E-06	0.961261832584436	0.218745138152173
7.4	0.889645802128087	0.434203301577412	5.08749351542229E-06	-6.7174177438202E-07	1.95512325264628E-06	-9.61609773644922E-06	0.980400971062494	0.0967617403884069
7.5	0.921390528749841	0.362728830368729	2.7583475272008E-06	-5.28284854844004E-06	2.11840034608298E-06	-7.25033480291702E-06	0.985284150172773	-0.0255563653901457
7.6	0.948584408211122	0.28737457857539	-2.89353498884791E-07	-5.63453941812544E-06	1.67440074257147E-05	3.93761649802952E-06	0.975479441422823	-0.150152682812585
7.7	0.968745285196749	0.209849421610974	3.51756285331139E-06	1.2406530958138E-07	3.34900926864203E-07	-2.92379209567651E-06	0.948777833754364	-0.272280758886833
7.8	0.982407213577364	0.131393232007459	-1.09719319598209E-05	-1.95952109269919E-06	-2.15471844200066E-07	3.43856198855201E-06	0.90698864172173	-0.389431550187648
7.9	0.990023318416035	0.0525342842747936	2.34900308531559E-06	2.0408746536236E-06	-6.92690386230127E-06	-4.74051988342346E-06	0.851551496611019	-0.499819834054959
8	0.992884054309737	-0.0275853788589779	2.34464550940074E-06	2.96685418560589E-06	-9.32233930438558E-06	-7.64421235794208E-06	0.783723102852408	-0.604059734173304
8.1	0.986790196991817	-0.10879615699089	3.83891989985939E-06	-3.06398300664388E-06	2.15733595480933E-06	-3.18326086626071E-06	0.700879354673372	-0.6984042191992
8.2	0.974238765938782	-0.187525869984766	-4.04253887351302E-06	1.40824286301655E-06	-6.76006293652041E-06	3.45684423657108E-07	0.607978778113599	-0.780548586974395
8.3	0.955399791698587	-0.265203487932268	9.87215458836826E-06	3.18925850269688E-07	6.22583928947111E-06	1.04729726497267E-05	0.505545554397235	-0.850604505187184
8.4	0.930434130250013	-0.341157091050576	1.28048167207346E-06	2.56193053356829E-06	3.45991187492365E-06	1.83229356310587E-06	0.394980967636984	-0.907440250629579
8.5	0.899509669989069	-0.415347370714015	-4.85785498135058E-06	4.95533858949937E-06	2.86293686975331E-06	-3.01756400769323E-06	0.278106558978181	-0.949524766279401
8.6	0.862412603993846	-0.48667015902086	-4.51028046587995E-06	2.07841961297476E-06	-3.06363147862891E-06	8.1205338810301E-06	0.157324914623468	-0.977451015259742
8.7	0.819894054146377	-0.554826432561818	-1.02644624740133E-06	1.21583438705393E-06	-6.54766853609332E-07	3.46854967283469E-06	0.0333538228829714	-0.990230730789599
8.8	0.771957753769758	-0.619296143951096	-1.59629338112682E-06	3.08313540473753E-06	-6.02674582238432E-06	1.27365522819885E-06	-0.0913704079975743	-0.987624554161286
8.9	0.719019716023148	-0.679703063591514	3.18702631171348E-06	-1.83135928255478E-06	-3.17371492356277E-06	-4.64160748306864E-07	-0.21580415665225	-0.968467674090345
9	0.661245547283578	-0.735062190383281	-7.30400764042369E-06	1.34360900671105E-06	-3.98724112366112E-06	7.21064197070766E-07	-0.335291893556611	-0.933069669087064
9.1	0.599746340423842	-0.785981341464192	-3.35799938009975E-06	-1.89465053707964E-06	-9.90651870346148E-07	2.13738150717921E-06	-0.449936590395007	-0.884882866149778
9.2	0.5336648221548	-0.831691203384285	6.00378774182407E-06	-1.63062763772928E-06	1.97194201759171E-06	8.50629796197464E-06	-0.558486118218449	-0.822109302580232
9.3	0.464141561283745	-0.871749237530093	-3.42547337783643E-07	1.07274441090565E-06	1.36789266926743E-05	1.18919564615259E-05	-0.658091435072108	-0.744956335783426
9.4	0.391417593632033	-0.905319857216237	1.74181769395269E-06	-2.66414228693719E-06	4.2938464123302E-06	1.77221987042903E-06	-0.745818262695291	-0.655423568983207
9.5	0.317445772554763	-0.933513947702927	-6.50578790253259E-06	-4.92613387159105E-06	-1.92980901718607E-06	-5.7265456914766E-06	-0.821347392653515	-0.556707474145683
9.6	0.238320077156216	-0.956885179762357	-1.17249725663949E-05	-3.0177155719733E-07	-5.93352820093134E-06	-4.0495608702719E-06	-0.885469239995804	-0.449342237624767
9.7	0.157480580611065	-0.971818169355846	1.47539010381315E-06	-4.75952863466275E-07	-2.93444503363867E-06	1.63968772114107E-06	-0.935513578091328	-0.333983177996516
9.8	0.0763836169938203	-0.979673051613986	2.21213112987574E-06	1.41266408680456E-06	1.51786916205843E-05	-3.4789891109027E-06	-0.970442789576289	-0.213382285989845
9.9	-0.00461410262552972	-0.980659097974332	-3.49983505854188E-06	9.00897182612649E-06	1.38171804981892E-05	5.04738960709246E-06	-0.990578905478147	-0.0886698477408039
10	-0.0848995544826986	-0.975253277827797	-3.66613286540374E-06	1.62284223684172E-06	1.93764365808165E-05	-1.82248008425626E-05	-0.993788057352494	0.0383184243973476
10.1	-0.164676003089303	-0.962550423999396	-1.48967572285032E-06	2.31530429971568E-06	-8.4688551111549E-06	-4.34193515782308E-06	-0.980761045383945	0.164039631560092
10.2	-0.242240324248698	-0.943270953333714	-2.32297987870649E-06	-1.24852099505196E-06	-1.29962172767967E-05	7.2701345904762E-06	-0.951836134321396	0.286975034014235
10.3	-0.316762992859442	-0.917539053249591	5.79941631680973E-06	3.94683423185376E-06	-6.1842244972171E-06	1.38826062756368E-06	-0.908128739440269	0.404960950572359
10.4	-0.388450582155322	-0.886469724567579	2.11332497105383E-06	1.05140368445793E-06	7.03130946955014E-07	-8.26593295953326E-06	-0.849507736382114	0.516936942478866
10.5	-0.457126545153783	-0.849219124160221	4.38185663448169E-07	-3.07780332183671E-07	-6.65930404676028E-07	-5.65315144706911E-06	-0.775037592827553	0.620092303814945
10.6	-0.521337293470381	-0.806206980840608	5.09858896125532E-06	-2.61970054930505E-06	-9.78572454663306E-06	-7.88699648413928E-06	-0.689578753057474	0.710115561281726
10.7	-0.580817082278243	-0.758548780098707	-2.82086529434115E-06	-5.00080773974189E-07	-5.24489273533568E-06	-7.17718203395452E-06	-0.595224822090646	0.789737941353071
10.8	-0.635698021372322	-0.707845961210577	-3.62558687001253E-06	-3.44628055385435E-06	-1.19768545159024E-05	9.17620683941051E-06	-0.49158628981401	0.85754024878047
10.9	-0.686660470955955	-0.654053447659415	-1.14208146641051E-05	-1.04174552312323E-05	-4.4627939207345E-06	1.0985519894308E-05	-0.380184726500702	0.912482734888498
11	-0.731698954539751	-0.598696716033429	1.01376930971732E-06	1.4087502554615E-06	8.66042017885648E-06	-5.51673305807852E-06	-0.261084486256504	0.952039787327129
11.1	-0.77552573644878	-0.542524299389942	-3.30292378220402E-07	-3.63606701778396E-06	1.01854033195473E-05	-1.02209023428796E-05	-0.139677647192365	0.975727805946935
11.2	-0.816524766238658	-0.482054999393695	-1.03695464442535E-06	-3.91770774418221E-06	2.15838036350217E-06	-6.32170666345103E-06	-0.0157564712443444	0.984590633789636
11.3	-0.853268186454859	-0.417583501667007	1.62558793789878E-06	-1.2061112628469E-05	3.56780590348051E-06	-2.82880324913501E-06	0.107959686152624	0.978036737899627
11.4	-0.88413893087939	-0.350511219399143	9.87844529264305E-07	1.77013063461195E-08	-5.6904878723226E-06	6.47328550387878E-06	0.230474589044497	0.956602361217064
11.5	-0.911149028499868	-0.282370471096107	6.5572230400211E-06	-1.24262458554383E-06	8.25167344355476E-06	-3.12829967312926E-07	0.349248858362184	0.919735800479184
11.6	-0.934257528706641	-0.209767268577601	-6.43122908224736E-07	-5.33923497269717E-06	1.43954009178205E-06	-3.08798400848471E-06	0.462655053402521	0.867725103427929
11.7	-0.949442178394817	-0.133815841426211	-9.97812603490442E-08	-6.05872653260035E-06	8.91681133991955E-07	-2.66396635267578E-06	0.568174770034779	0.802267152029134
11.8	-0.958098552402033	-0.0565408478656065	-1.0739895034614E-06	-7.4102038277765E-07	5.1756848329291E-06	1.07488075064998E-06	0.665051495534477	0.724727767999447
11.9	-0.959950208269716	0.0215960805757905	-3.22970211487858E-06	-5.21510138805247E-06	-5.40829988981074E-06	-8.0194709909683E-06	0.752265099774721	0.637110622288329
12	-0.956267827990651	0.0990846826348503	-2.9500119073398E-06	1.65348361147345E-06	-1.67998892554889E-05	-8.74015436916861E-06	0.830139557701277	0.536824082585545
12.1	-0.947645967342199	0.176414711998344	8.22279481205778E-07	-1.57361710010539E-06	7.91619754596482E-06	1.2278428200005E-05	0.891124162355012	0.424324275731856
12.2	-0.931676817155506	0.254500626609604	-4.09114970111153E-06	5.57331299733225E-06	4.28785505370636E-07	3.31600533787719E-06	0.936266262958271	0.307216465566345
12.3	-0.90965075447565	0.331172549218262	7.86875520117155E-06	6.3632679331406E-06	4.64678002194107E-07	1.09034339206094E-05	0.966166511887352	0.185866560938691
