# GHZ S RI R 50
0.2	0.988151865316536	-0.156247641524411	2.56639897528679E-06	2.2577623779629E-06	6.58987946320764E-06	-4.86958104734536E-06	-0.968390981397528	0.250476870319168
0.3	0.972516606896615	-0.233554462408529	-8.67387874790946E-07	-5.46924480679982E-06	-3.46281512340348E-06	-7.97131089625209E-06	-0.929722152968796	0.370560973488821
0.4	0.951569251414811	-0.309256729913647	-7.30206437977719E-06	-1.00664787570303E-06	4.45369963840955E-06	1.55769655443419E-06	-0.876146788639922	0.484978872891934
0.5	0.924717767048153	-0.383950399586137	6.22395397844387E-06	2.11750220814802E-06	-2.4227959259906E-06	-1.91748005352085E-06	-0.807832146813584	0.593171521080084
0.6	0.890976051358283	-0.454914783686853	-1.05893627553258E-05	2.46414332373613E-06	-2.22564274536127E-06	-1.01171098230219E-06	-0.725408832144132	0.689765113756088
0.7	0.853118359042947	-0.522715231686226	2.79587199819954E-06	-1.17411957361174E-06	-3.00405219434772E-06	5.80787212413905E-06	-0.633041883577766	0.775672918374152
0.8	0.809996755347827	-0.588231716900353	1.18873650942581E-06	-8.51186326932591E-06	-6.64695592886801E-06	-3.08904407229797E-06	-0.53024341416297	0.8495448472279
0.9	0.761599250850615	-0.650619675523698	-1.15191801294691E-06	-6.849497565543E-07	2.55682416450669E-06	6.5764782493372E-06	-0.418890486965765	0.909726296119352
1	0.707751674093581	-0.709021434408821	-2.75829165863633E-06	-3.23890806354729E-06	-4.06494840339166E-07	-7.35298866530272E-06	-0.30105684161356	0.95524148668224
1.1	0.650486956788019	-0.762914044469044	1.81478542359708E-06	-4.96682231019213E-06	2.28054310065817E-06	-5.16141685320769E-06	-0.177879001209717	0.985753878442085
1.2	0.587411207416516	-0.812994485352251	-2.50667260337156E-06	2.50611513477849E-06	9.30161377859988E-07	-9.16187054023025E-07	-0.0514516043022473	1.00000870551616
1.3	0.518738200829467	-0.85763573807952	-1.54423748029416E-06	7.24967360437324E-07	-1.35980186411091E-06	1.47213330288192E-06	0.0759444357696671	0.998119215037264
1.4	0.447054215837873	-0.89537407933013	3.93192154795968E-06	-3.26073169944391E-06	2.734140178693E-06	1.0977696349768E-05	0.202258246694974	0.979451733876422
1.5	0.375425284452887	-0.926696672858506	-5.35446172831834E-06	1.12107055236689E-06	6.60269122690406E-06	-7.24127888858174E-06	0.325071394148675	0.945798442179288
1.6	0.301849258923369	-0.954741052590944	1.77411042470912E-06	-7.77270803132998E-06	3.64848925086074E-06	1.3837138574903E-06	0.441691434413544	0.896187806610501
1.7	0.226536747263219	-0.975426186008775	-1.95164055018955E-06	-9.71058853605844E-07	-2.39520483589765E-07	-2.0961142545419E-06	0.550175187171607	0.833873177886026
1.8	0.149310525877224	-0.990258641371737	2.87199867758344E-06	5.30022092590481E-06	7.08008728070078E-09	2.0411915697998E-06	0.650382814020951	0.758066992389546
1.9	0.0718319596246762	-0.999185851532231	5.70230510896123E-06	-2.64956071130992E-06	-3.01358759899019E-06	4.20193326581017E-07	0.73933766363793	0.671352069809871
2	-0.00602150975799229	-1.00405594620383	-1.56394754238489E-06	-2.04189325908889E-06	3.25348556293744E-06	1.15511554462965E-05	0.820618734862936	0.57497552596048
2.1	-0.0881776822357905	-1.00037804000562	-7.6026527396079E-06	2.50965567294564E-06	1.24078803767659E-06	5.18148135810641E-06	0.887481638193592	0.463524907791144
2.2	-0.165945272354248	-0.989499591952251	-8.8213555486253E-07	1.40807655122285E-06	3.06257173181508E-06	7.8142044178149E-06	0.937289576979442	0.347301514382543
2.3	-0.243788441364294	-0.972702204284109	2.17915754161931E-07	7.50053227788459E-06	7.49189163980874E-07	9.41095281921702E-07	0.972260801611563	0.227131548783716
2.4	-0.320357393650917	-0.949723469376281	1.62566717484347E-06	7.21309541651414E-06	1.56314974796005E-06	6.42160325288375E-06	0.992802229279099	0.102861032093881
2.5	-0.394383474542338	-0.921497320027599	4.40786442325195E-06	-2.35421928187355E-06	-1.96936555451699E-06	-7.61293095839995E-06	0.997922106131939	-0.0224303437627569
2.6	-0.466491678930096	-0.886927353895452	6.77932428233291E-06	-6.02792585418086E-06	-1.11085479621097E-05	1.09711596647697E-05	0.987165908623859	-0.148417400682055
2.7	-0.535833907953432	-0.846616688422866	-4.40801516698561E-06	9.23706538184431E-06	-2.95789238305048E-06	-9.20174669640158E-06	0.960493420593954	-0.272192045220831
2.8	-0.600993720669612	-0.801246889019348	2.48340260841758E-06	1.13102731066863E-06	-3.13857919496048E-06	1.27774815352473E-06	0.918684396482799	-0.391330530841024
2.9	-0.662286043218319	-0.750490735771176	-5.47617754755799E-06	6.1055336668188E-06	-9.25374790933076E-06	-1.96863822272942E-07	0.861288453595844	-0.503617874515325
3	-0.717353457239516	-0.693276456103332	4.57415997012589E-07	-1.48456992060296E-06	1.13892457768693E-05	1.33892653410543E-06	0.79066413922807	-0.607656188427203
3.1	-0.76812266795658	-0.636435396662726	2.52453565673112E-06	1.04937765512993E-05	4.35841431845569E-06	2.13208621719069E-06	0.707520645161449	-0.701886866437106
3.2	-0.81574666780864	-0.574475402927496	2.17614372534536E-06	6.4530337976851E-06	3.89388590264332E-06	-1.06632485222299E-05	0.613216974382361	-0.784384207601563
3.3	-0.857865510978519	-0.508502055959626	3.13605689517067E-06	4.93039610649998E-06	-2.3294525745054E-06	-9.64808221586339E-06	0.508056969688047	-0.854599258481061
3.4	-0.892849671998106	-0.439621788640747	2.09468956639126E-06	-2.62139162258685E-06	5.96178393300032E-06	1.3186684804728E-06	0.396405299242575	-0.909150027942996
3.5	-0.922534281422088	-0.369915020368331	-3.22699611104291E-06	9.67250735113641E-07	-2.04533453960342E-06	3.43118095303183E-06	0.282789281220265	-0.949732091594459
3.6	-0.950921539708179	-0.296827208397373	-1.84476605298571E-06	-3.73146303175011E-06	-7.79503406570792E-06	4.17331542718527E-06	0.160846546275369	-0.981347067698886
3.7	-0.970932690001159	-0.220344745715038	7.42808625588414E-07	-8.33185233116253E-06	1.07997518965393E-05	3.59339356134113E-06	0.0337613882672359	-0.992899163321862
3.8	-0.984551757195278	-0.142491160718353	1.06592694136321E-07	1.5437201810662E-06	-6.452829139499E-06	6.00471291821487E-06	-0.0914074846216219	-0.987538825859462
3.9	-0.991777136187177	-0.0646058214952083	-2.66798863504053E-06	-4.99502487669182E-06	-3.62469652145108E-06	8.04414843528673E-06	-0.215328980545101	-0.966795035426432
4	-0.992666920648077	0.0143028699590309	7.11517154072843E-06	-4.50631258724004E-07	-1.05513403148554E-06	-1.19377661646344E-06	-0.333505682093667	-0.932863310355763
4.1	-0.987990450392204	0.0918307273883731	6.13286183182451E-07	-4.48894415742371E-07	7.28262604775263E-06	-4.81719150728574E-06	-0.449038899229856	-0.883317624468506
4.2	-0.977575092661822	0.169092259756595	3.21343148135504E-06	2.06425883153074E-06	-7.23015932893028E-07	-7.52219146560343E-07	-0.556225303100039	-0.818902407369282
4.3	-0.961676061918323	0.244243736050211	-3.16415289497397E-06	1.39462880415102E-06	-4.94947580959767E-06	3.01331245634172E-06	-0.654169108190167	-0.742662468039343
4.4	-0.940952233120443	0.318899276810921	8.21276321114544E-07	2.62743083920421E-06	1.48558162999854E-06	-8.31595121709899E-06	-0.742094620271961	-0.65462388185793
4.5	-0.911528338193895	0.394732011082449	1.81268737278285E-06	-9.55767954516629E-07	7.61979786003156E-06	-3.27310212133433E-07	-0.818372401499834	-0.555115441372255
4.6	-0.874714958741488	0.463122135004594	-6.58198182513232E-07	6.11358337381383E-06	-1.23665978461759E-05	-6.32249035815873E-06	-0.879837585107494	-0.447943374406491
4.7	-0.836151830632094	0.528164690858265	1.2209238257311E-06	2.48507927739608E-06	1.43256766007183E-06	1.84173125333228E-06	-0.928938529250949	-0.334558634354654
4.8	-0.791596992149267	0.592343580431478	-5.03400410863636E-06	1.11124327354662E-05	5.29849891163623E-06	9.57844580307852E-06	-0.963465670699748	-0.214775626689267
4.9	-0.741408704382722	0.65303550887795	1.22226339804513E-06	2.89679851173518E-06	-5.55582771509397E-07	-6.85708555210595E-06	-0.982242109646304	-0.08974223420121
5	-0.684233983631961	0.706084624324617	4.67464821877985E-06	-9.47674274115327E-07	-3.67271573218861E-06	2.43266473157726E-06	-0.979931891576454	0.034425797117684
5.1	-0.629449475581051	0.754508184617162	4.08276269382195E-06	-1.63904178331676E-07	-2.68180460504438E-06	-9.67783834593015E-06	-0.969075956972486	0.152532540453096
5.2	-0.569374887281621	0.802376963309819	2.51795108446762E-06	-1.48307268873728E-05	1.37589911489388E-06	2.78276386968559E-06	-0.943716883936933	0.273629631034833
5.3	-0.504914029875059	0.844863272660144	-8.61004426969454E-06	-7.40343827079249E-07	-1.12085599209512E-06	1.61327804316915E-07	-0.901587755606974	0.390577308684253
5.4	-0.437640111344508	0.882114088427989	-7.11433446164927E-06	-1.09155594455982E-05	-1.35577707524992E-05	1.10811714875297E-05	-0.844446283468623	0.500187220761008
5.5	-0.366981071636572	0.913824383042322	1.88796767726769E-06	8.74315023416609E-08	-2.22435258325445E-06	1.76896868690452E-06	-0.775362056378367	0.600530916698223
5.6	-0.294659188346084	0.938435636316303	-2.37717948605342E-06	3.48796703480479E-06	-1.32602971720218E-06	1.28090606601803E-06	-0.694972350874368	0.692282172141835
5.7	-0.221019537091928	0.958354166321777	1.29466644627878E-06	1.21571419994778E-06	5.70078156022496E-06	-1.29246274188464E-07	-0.603551519191351	0.773526129650162
5.8	-0.146276676419244	0.971811673610652	2.67405589222822E-06	4.20660429595703E-06	-2.08378420743666E-06	4.19371953497923E-06	-0.502572910472722	0.842344421171182
5.9	-0.0724486760277726	0.980254329562533	-6.79075774205094E-06	-2.28614644657627E-06	-9.04393326458371E-08	6.2068484618633E-06	-0.395371683404987	0.8983654087192
6	0.00392078932544631	0.987579742170536	-1.77781786162401E-06	7.67801142732568E-08	-5.38618137751031E-06	-4.39010566888786E-06	-0.28074306359384	0.94445662503709
6.1	0.0845137663391557	0.982629615544234	7.36700959839925E-08	-9.85902066689042E-06	-9.67468212301944E-07	-3.20001331123957E-06	-0.157193794843063	0.971230929287304
6.2	0.160850669538434	0.97114956043649	-1.02197256308048E-06	3.08916153602375E-06	-1.75661104495598E-06	4.18174499272031E-06	-0.034235928850619	0.98118193247996
6.3	0.235800130732836	0.955320851417609	-8.07031193413936E-07	2.80791023907096E-06	-2.92326069854524E-06	2.370671016417E-06	0.0879488131619607	0.977029665037368
6.4	0.310425115956298	0.935974516193471	-5.95242676168534E-06	5.49595139050244E-06	-2.36619854965761E-06	-7.524586792848E-07	0.209744622188441	0.960172302398516
6.5	0.388981941456715	0.907478710992847	1.38977678499203E-06	-5.25572148011959E-06	-1.44607270841729E-06	-2.36439134863182E-06	0.333935420880115	0.924516506576188
6.6	0.456070751442279	0.869456417470414	3.61905655688613E-06	2.01784346189432E-07	1.11918578060763E-05	-2.67117562243632E-06	0.443317689982263	0.870526728338403
6.7	0.520963863799432	0.831737103529348	-7.68459361737675E-07	8.37187229956334E-07	-3.73362263038218E-06	5.16876017298176E-06	0.545893662408787	0.809500859031939
6.8	0.584201071593426	0.788825583711664	-1.74587807472982E-06	4.4305980635686E-06	1.43892303077385E-06	-8.69303539567379E-07	0.641780094702345	0.736034247296869
6.9	0.643871991454556	0.741120126323891	5.83160472001734E-06	2.2456572799414E-06	-9.29886238487895E-07	2.37966198050514E-06	0.727906146431198	0.651397561222898
7	0.700558936288693	0.688960365256799	1.16708582122152E-06	-4.09048644286039E-06	-1.43949847199186E-06	2.86920536465279E-06	0.804682105991659	0.556740719105669
7.1	0.752634539783851	0.631449780852529	2.44383049684481E-07	-7.10116318416242E-07	1.87677284932815E-06	9.12957790287358E-06	0.86797004089357	0.450883342216283
7.2	0.799692150350494	0.569983071978422	1.39248433273719E-06	-2.38321619686801E-06	-9.37400284701643E-07	-8.50304376831765E-06	0.916617913338641	0.339171648874726
7.3	0.841476010553344	0.504416481078927	4.74444200427299E-06	7.19564554500039E-06	-9.64575195386893E-06	2.2468257470019E-06	0.950541636458146	0.221981386817829
7.4	0.876528423458958	0.435905092654336	5.03704754161133E-06	-6.43928405776416E-07	1.97397829259743E-06	-9.50756930418674E-06	0.967766173600751	0.102358769582522
7.5	0.90768268459194	0.369683866751309	2.76907740527337E-06	-5.18633569771034E-06	2.1556709682628E-06	-7.13303533401756E-06	0.974259592522312	-0.0127763920606072
7.6	0.938069994712276	0.296064060446093	-2.20832841597438E-07	-5.58234380354301E-06	1.65329874885569E-05	4.09392469988245E-06	0.96979172760401	-0.136826772232966
7.7	0.959182874187976	0.21960014339387	3.48507509531351E-06	1.65179811561618E-07	3.67032648402116E-07	-2.89400718286949E-06	0.945157901212431	-0.258492799232927
7.8	0.973770748361714	0.143067656376448	-1.08562990598725E-05	-2.0900056098937E-06	-2.59616033543385E-07	3.40764444686549E-06	0.90590250796558	-0.374473453203355
7.9	0.983442313384558	0.0677665361981846	2.30004049427204E-06	2.06562148404672E-06	-6.80337653527784E-06	-4.82200746037716E-06	0.854910935507837	-0.483083139706647
8	0.994359486251895	-0.0116486054373868	2.29415086049349E-06	3.00978770141976E-06	-9.19429977792627E-06	-7.81230752894973E-06	0.795139526618463	-0.592176683460421
8.1	0.989368368265292	-0.0980391881375573	3.88581574584525E-06	-3.02533096858555E-06	2.20138216058378E-06	-3.16527128902155E-06	0.709830288535926	-0.692635836762165
8.2	0.976480972924237	-0.177261116130973	-4.06427259314825E-06	1.36752271063074E-06	-6.77500248345593E-06	2.74245087161825E-07	0.615839446124821	-0.775198450598577
8.3	0.958555503577353	-0.2550200869531	9.88520230635345E-06	4.18621289259749E-07	6.13088230168807E-06	1.05527546674846E-05	0.513707635571703	-0.845914408995842
8.4	0.934913745482271	-0.331313890482275	1.25925011036842E-06	2.57730881752246E-06	3.44851431257159E-06	1.86626891580231E-06	0.403621275139397	-0.903262432910891
8.5	0.905367543067494	-0.406570533235667	-4.90434492061223E-06	4.90768418406784E-06	2.891267398445E-06	-2.98945848578122E-06	0.2890580374867	-0.946588580022123
8.6	0.868933151011447	-0.47876168171577	-4.5398067968703E-06	2.03005411586285E-06	-3.15972056713553E-06	8.09656243741485E-06	0.168242850809235	-0.978163716524557
8.7	0.827428381945406	-0.547786647159269	-1.0429402950867E-06	1.20812026027667E-06	-6.95040680984866E-07	3.4716605664112E-06	0.043083485917846	-0.993108266094766
8.8	0.780331155804093	-0.613590120847934	-1.63530763649235E-06	3.08039191094988E-06	-6.06682739454965E-06	1.21701116477878E-06	-0.0833354882994312	-0.992359910705262
8.9	0.727348634833909	-0.675529952741801	3.22087415134104E-06	-1.81620810563988E-06	-3.18874814905023E-06	-4.92816800353399E-07	-0.210947433213226	-0.973453868670043
9	0.669477037202058	-0.730533731207657	-7.3340206764874E-06	1.30683169532189E-06	-4.00355566234485E-06	7.00949343735829E-07	-0.329314337387098	-0.934523253126732
9.1	0.609466614665947	-0.782700043096434	-3.35080991316951E-06	-1.92477962273506E-06	-1.00935207159187E-06	2.13446795027114E-06	-0.442072194923748	-0.889669944389972
9.2	0.54354242943653	-0.829875017100594	6.03249884884099E-06	-1.58634598599257E-06	1.90832709744367E-06	8.54424298010362E-06	-0.551776395693823	-0.8287892390554
9.3	0.473760459188796	-0.870949992630206	-3.52308552006261E-07	1.07246604189225E-06	1.36126829929085E-05	1.20344919823098E-05	-0.652441887178572	-0.752887471155292
9.4	0.400554738220382	-0.903729666042838	1.76794518254585E-06	-2.6511694300461E-06	4.28235787019945E-06	1.81321152939493E-06	-0.740367132478727	-0.663642861980095
9.5	0.332178749414976	-0.932100790959779	-6.44961524769448E-06	-5.03478155067008E-06	-1.85014871346966E-06	-5.76964751074715E-06	-0.815286903080339	-0.57100380552285
9.6	0.252366076613699	-0.962604098377876	-1.18179022186091E-05	-4.57174259327694E-07	-5.92973589092467E-06	-4.16039737945667E-06	-0.887671294647966	-0.465369662599334
9.7	0.168482135459458	-0.979585994966227	1.49386755213657E-06	-4.64590592799927E-07	-2.97856567021052E-06	1.62339097499979E-06	-0.941632097737961	-0.347318077392977
9.8	0.0854894322032464	-0.988277152139658	2.21931903601105E-06	1.44720571440991E-06	1.53546947665628E-05	-3.36567903319715E-06	-0.978902882724797	-0.224499509184137
9.9	0.00354811906607302	-0.989978310038751	-3.61753891622828E-06	9.06901734035376E-06	1.39121890383246E-05	5.22464560964639E-06	-1.00080065971186	-0.0974206179415769
10	-0.0779702580253182	-0.987018819844518	-3.7188644734239E-06	1.61363544701809E-06	1.97267570866633E-05	-1.82832038992701E-05	-1.00462506136213	0.0314536166177803
10.1	-0.160903526795571	-0.974569721107442	-1.52104058331987E-06	2.32927387243552E-06	-8.52751888351005E-06	-4.44511357670708E-06	-0.993335192876228	0.158593211239524
10.2	-0.239824412125479	-0.955082392818042	-2.33952511193268E-06	-1.27857288263166E-06	-1.31895261694018E-05	7.25768309239075E-06	-0.965961100852592	0.283983116407063
10.3	-0.315728975564408	-0.92977382159759	5.84146408770623E-06	4.03579964268302E-06	-6.26886856096443E-06	1.36106259348848E-06	-0.923703047875839	0.404881980987033
10.4	-0.389400253794475	-0.898952338959751	2.13665557403561E-06	1.08093644778898E-06	7.69473659246875E-07	-8.38036721690865E-06	-0.866672141162386	0.521819979189891
10.5	-0.459751677528971	-0.861140708091938	4.46394704051449E-07	-3.11687252911356E-07	-6.61016379259082E-07	-5.74966937457064E-06	-0.78736185645313	0.631986367930296
10.6	-0.525586635932662	-0.817867678487561	5.17420447594661E-06	-2.65618817373672E-06	-9.92611538958716E-06	-8.0060693158969E-06	-0.697216622772677	0.720812803053009
10.7	-0.586758070254819	-0.769656082681335	-2.86030815586441E-06	-5.06259936666325E-07	-5.31997585370291E-06	-7.27571563659924E-06	-0.601431817961168	0.800579486948237
10.8	-0.64395849978128	-0.718285696807324	-3.68021682445481E-06	-3.4898236815069E-06	-1.21323397117512E-05	9.3184270319741E-06	-0.496454865754844	0.869146467649788
10.9	-0.698055132017852	-0.661439925557639	-1.16138024975446E-05	-1.05128857282006E-05	-4.4802040773887E-06	1.11497423800533E-05	-0.38186730941255	0.925437802004347
11	-0.739428683604368	-0.601499361295758	1.02749776181546E-06	1.41726199333159E-06	8.7152910263603E-06	-5.59497600283687E-06	-0.2597437819041	0.961449443601993
11.1	-0.783016347905471	-0.548847707341227	-3.35616819651869E-07	-3.6737571401235E-06	1.02861618867872E-05	-1.03326106455298E-05	-0.140310273562059	0.985620387294379
11.2	-0.826717894792188	-0.487676040896712	-1.05566870514425E-06	-3.96250445895582E-06	2.1736543014029E-06	-6.40025906962244E-06	-0.0144918328807692	0.995971451861805
11.3	-0.864986369180149	-0.420979213102816	1.60904726241123E-06	-1.22095492412826E-05	3.60186520467497E-06	-2.87310084378779E-06	0.111578211639028	0.989296404786206
11.4	-0.895227490110821	-0.351099147885736	9.98705502062086E-07	1.42619243913583E-08	-5.72887187254666E-06	6.56495720293274E-06	0.236220737117977	0.967089224264885
11.5	-0.920854769869273	-0.28468774156286	6.63022241732453E-06	-1.27364321984385E-06	8.34670123404872E-06	-3.37338538068955E-07	0.357171068637351	0.929071417169252
11.6	-0.947814532544713	-0.210625854588524	-6.76277067281289E-07	-5.40411048438126E-06	1.44339685448438E-06	-3.13397953268061E-06	0.471965620776753	0.875005457936484
11.7	-0.963442506120021	-0.131121679001444	-1.38197595623991E-07	-6.12960944675007E-06	8.85829860733318E-07	-2.70088313141385E-06	0.578128680799859	0.807587161591241
11.8	-0.971471784459429	-0.0509405709559354	-1.09047106456681E-06	-7.41572860851051E-07	5.23807526785885E-06	1.05099092820698E-06	0.674736461895451	0.728320139705635
11.9	-0.971869435099938	0.0303184193037399	-3.29288705972318E-06	-5.24589747882062E-06	-5.50974416625289E-06	-8.06412592759048E-06	0.761067544497606	0.641655883180829
12	-0.96509777169278	0.109801801660503	-2.97464938230453E-06	1.69076541804859E-06	-1.70501267873639E-05	-8.7410929315737E-06	0.845133067808003	0.542110504038059
12.1	-0.954618809111638	0.187619719173767	8.17546067764185E-07	-1.59821711577267E-06	8.1114315963889E-06	1.23445446248474E-05	0.906484997461117	0.422257288081932
12.2	-0.93687610236048	0.265943759908932	-4.07996970355378E-06	5.66498774711037E-06	4.63300049757312E-07	3.3443540006798E-06	0.949478586884574	0.302353040606517
12.3	-0.913847462957455	0.34265891824702	8.00162929062464E-06	6.35228591188169E-06	5.68327533341941E-07	1.10030851350738E-05	0.978241564307502	0.179281613269446
