# GHZ S RI R 50
0.2	0.985501284229783	-0.156911163985566	2.56399104687148E-06	2.24861831462443E-06	6.56723506658049E-06	-4.86857068449971E-06	-0.965985342372066	0.251948584225612
0.3	0.969404948522167	-0.23395973976556	-8.74789645870961E-07	-5.45133648228664E-06	-3.46704091755442E-06	-7.94119368807291E-06	-0.926152935022202	0.371945304072937
0.4	0.947847167913242	-0.309184579730575	-7.27493071667343E-06	-9.88809956443867E-07	4.43893814161898E-06	1.54306355299065E-06	-0.871208915776648	0.485555399752706
0.5	0.921051562419994	-0.382484861396221	6.19585493323062E-06	2.10304377149544E-06	-2.41262897824218E-06	-1.90665403101594E-06	-0.802689192919214	0.591469475496278
0.6	0.888215921065851	-0.453665465658959	-1.05460010572205E-05	2.46090222044488E-06	-2.2174676345813E-06	-1.00634705114979E-06	-0.721245917481955	0.687821089969697
0.7	0.849932889134232	-0.521591744611728	2.78245167755458E-06	-1.17188916778602E-06	-2.98492525390142E-06	5.78562988746874E-06	-0.628575642289887	0.773145497257352
0.8	0.806376117323845	-0.586609089853369	1.174503400708E-06	-8.47048674704851E-06	-6.61674996020007E-06	-3.06713185359682E-06	-0.525900925788339	0.845923222481158
0.9	0.757816956125673	-0.648093907994927	-1.1459036843064E-06	-6.80407218826186E-07	2.54660817568491E-06	6.53813339121174E-06	-0.41510423804381	0.905055680187376
1	0.704433758949607	-0.705666752700591	-2.74202093161068E-06	-3.21971841735792E-06	-4.04184843804431E-07	-7.30949903054431E-06	-0.298099012355725	0.949585262801763
1.1	0.647552894412752	-0.758910663397423	1.80664027563992E-06	-4.93588593551153E-06	2.26970157339944E-06	-5.12904701976773E-06	-0.176353095188281	0.979385747366069
1.2	0.585350098916316	-0.808434850684284	-2.49519087073386E-06	2.48824861199074E-06	9.25883259191406E-07	-9.09637851504391E-07	-0.051619531293081	0.993548856684014
1.3	0.51790193876128	-0.853083210816158	-1.53771465951856E-06	7.18000181503654E-07	-1.35578566232965E-06	1.46166546376113E-06	0.0738954553001304	0.992311488680269
1.4	0.447253027268779	-0.891924225504992	3.92349820203599E-06	-3.23785682115144E-06	2.69656855662899E-06	1.09389273191538E-05	0.199055987069998	0.974690013886967
1.5	0.374251940167753	-0.924220176608849	-5.33638950813467E-06	1.10810982504548E-06	6.59002573833537E-06	-7.20350800286389E-06	0.320668731334228	0.941312787134655
1.6	0.300638413520741	-0.950506123901036	1.7767167931344E-06	-7.73547737733923E-06	3.63026515500062E-06	1.3824690269475E-06	0.436614295965865	0.892834084025682
1.7	0.226137730582944	-0.970658351049982	-1.94036484568251E-06	-9.68990240550805E-07	-2.3526093131974E-07	-2.08586935353343E-06	0.544807059386431	0.830912035296351
1.8	0.149447782814559	-0.985196093461638	2.84881380951297E-06	5.27567576790473E-06	4.09904746926238E-09	2.03015452781381E-06	0.644731329468061	0.755582993801073
1.9	0.0719407473816091	-0.993583443495166	5.66889161643614E-06	-2.62932432707662E-06	-2.99526313966685E-06	4.15550909891476E-07	0.733828039553332	0.668397896586229
2	-0.00476058325657299	-0.995735464552656	-1.54579079818979E-06	-2.02482951192879E-06	3.20424617686764E-06	1.14458408777384E-05	0.811161323980612	0.570675612715446
2.1	-0.0831185732578808	-0.99280911048992	-7.54939315642876E-06	2.44955362999659E-06	1.20389814856256E-06	5.14281451767941E-06	0.876074771267338	0.464700443591896
2.2	-0.159819261704685	-0.983502015174029	-8.83074268166544E-07	1.39291402173027E-06	2.99820852035322E-06	7.77242320161384E-06	0.927521745130666	0.351089395074703
2.3	-0.23695264501212	-0.967599953143954	1.76104240339769E-07	7.44772899094477E-06	7.38748770171682E-07	9.38343034960206E-07	0.963688578523022	0.232363023698111
2.4	-0.312749287991049	-0.945342786093178	1.57363534106952E-06	7.1686990880884E-06	1.51596941300443E-06	6.38272097483529E-06	0.985188938021885	0.109101186821306
2.5	-0.385823840586032	-0.91788069126903	4.38799079285203E-06	-2.30766915880378E-06	-1.90552409515489E-06	-7.56530717906524E-06	0.990510901895081	-0.0149879157449971
2.6	-0.456824139395108	-0.88436344600612	6.76986465300617E-06	-5.93056634614689E-06	-1.11010625493004E-05	1.08029741184066E-05	0.980732740432829	-0.139184328776264
2.7	-0.525099886565926	-0.84551370631436	-4.45136170221088E-06	9.12618991086633E-06	-2.85626572955989E-06	-9.15367279343674E-06	0.955229733906547	-0.261252934077194
2.8	-0.589196979758268	-0.802005727593252	2.45321831250741E-06	1.14673186759453E-06	-3.12702152647978E-06	1.23710634921639E-06	0.915480720214656	-0.378672656398078
2.9	-0.649430272673091	-0.754214979079211	-5.50628605451575E-06	5.99858289731954E-06	-9.18434658161528E-06	-3.01296264012875E-07	0.860893841211253	-0.490250833626044
3	-0.706751844947246	-0.701200962749418	4.75077091440803E-07	-1.47111699950654E-06	1.13151522571267E-05	1.48511407982624E-06	0.792622802683658	-0.594611648540905
3.1	-0.759400959613673	-0.644098228561909	2.38476288671196E-06	1.04944656440537E-05	4.31860636025418E-06	2.18070172131373E-06	0.712016577303989	-0.688827266978622
3.2	-0.807420781990597	-0.58339476112466	2.09168474894869E-06	6.46592835321161E-06	4.01720484366735E-06	-1.05920052091774E-05	0.620476039541422	-0.772507300096279
3.3	-0.850773379902221	-0.519174582258191	3.07147286966104E-06	4.96490269495257E-06	-2.20668466821756E-06	-9.66803207095224E-06	0.518026933978452	-0.844721004074372
3.4	-0.888391458708141	-0.451821485962869	2.12850856258964E-06	-2.59995111080025E-06	5.95389115216074E-06	1.39110387895368E-06	0.408498627379425	-0.903340574843135
3.5	-0.920939183003257	-0.379928987555524	-3.23834658675754E-06	9.42115376858781E-07	-2.07539591173794E-06	3.41830781554519E-06	0.291095173333654	-0.947353763560654
3.6	-0.947656899742775	-0.306900622518758	-1.80576838674361E-06	-3.7438584909931E-06	-7.82403406054867E-06	4.09137540026442E-06	0.170178894092145	-0.976212831401592
3.7	-0.968961188546876	-0.232146404864923	8.35341139095388E-07	-8.32175161125918E-06	1.07573929194761E-05	3.71275440693326E-06	0.0457999979883448	-0.99004617036477
3.8	-0.984513382642569	-0.154871770862192	8.94355742967014E-08	1.54652393861736E-06	-6.52673483341412E-06	5.93879811581158E-06	-0.0787618268589528	-0.988067210338011
3.9	-0.993487067342987	-0.0771222037023057	-2.61816944857778E-06	-5.03164246046917E-06	-3.71727478705943E-06	8.01751795468178E-06	-0.203948869787642	-0.970562776450541
4	-0.996334575486176	0.00183863836399823	7.13122243433049E-06	-3.67300100199953E-07	-1.04263000519751E-06	-1.2080351648367E-06	-0.324098454637424	-0.937496486479302
4.1	-0.993306590203908	0.0800320423628208	6.20927328945401E-07	-4.42941589324952E-07	7.36707024092645E-06	-4.7447133164676E-06	-0.439991439522602	-0.889465536993123
4.2	-0.984273319834121	0.15809957191568	3.20439121859203E-06	2.11074493059318E-06	-7.17666927345803E-07	-7.63998350102355E-07	-0.548695745808156	-0.826706090977927
4.3	-0.969237851417249	0.234322076228745	-3.19518313429748E-06	1.36833940383394E-06	-5.00681159738406E-06	2.97646939306022E-06	-0.648364373335449	-0.751603294314425
4.4	-0.948194615243332	0.309203872517129	8.00006272163086E-07	2.64647983846212E-06	1.57046581994707E-06	-8.33768300859898E-06	-0.737744259159837	-0.664481795043738
4.5	-0.921529216059179	0.382584125004503	1.82857505739411E-06	-9.36038208832767E-07	7.64180965248823E-06	-2.35637130109893E-07	-0.816146817802226	-0.566932163411528
4.6	-0.888396686019112	0.4545925072905	-7.47447616246912E-07	6.14111567984371E-06	-1.2352654901168E-05	-6.53299894770716E-06	-0.881333686185074	-0.459586899363084
4.7	-0.850061172684251	0.522215087741321	1.19822843520115E-06	2.52074337495763E-06	1.41994120356592E-06	1.87504223245012E-06	-0.932676309756736	-0.345195359485795
4.8	-0.8058646923332	0.587912868849745	-5.22099768339943E-06	1.11495403263976E-05	5.22497861868101E-06	9.73289620982656E-06	-0.968866220535958	-0.224775404977413
4.9	-0.757129529900353	0.649350218344155	1.19630011774517E-06	2.94445423656561E-06	-4.68983301806475E-07	-6.93833275329709E-06	-0.989779917251809	-0.100523528399575
5	-0.703420332981809	0.707340345793467	4.76017238968759E-06	-9.06552535242007E-07	-3.76018683848056E-06	2.42713042418406E-06	-0.994577428244027	0.0259942836850952
5.1	-0.644719606266691	0.760304061945318	4.14761501917094E-06	-1.37169671527781E-07	-2.65419974301661E-06	-9.84801784070144E-06	-0.982814999613266	0.151263205679874
5.2	-0.582901136636134	0.808998783967116	2.64385210309284E-06	-1.50356691231189E-05	1.37969140259603E-06	2.83225464380753E-06	-0.955935721830111	0.274051137380028
5.3	-0.517379820648134	0.852970021782277	-8.73546283507726E-06	-7.9109109519724E-07	-1.13837033488565E-06	1.5857749995713E-07	-0.913764846212192	0.392613383424369
5.4	-0.448499775416448	0.891592230272896	-7.19287635536053E-06	-1.10902534991983E-05	-1.37798485419786E-05	1.12113280856334E-05	-0.856749948226328	0.504391136757019
5.5	-0.376831527370502	0.924122407473254	1.90884547352124E-06	9.18516498918649E-08	-2.25236696535505E-06	1.78462019453569E-06	-0.787141541814018	0.607852528063807
5.6	-0.302979924479742	0.950436105973674	-2.42053737670323E-06	3.52094157673896E-06	-1.34749766989294E-06	1.29116322011625E-06	-0.704751601488314	0.701967973839179
5.7	-0.227339379187653	0.971513704431243	1.30866139270883E-06	1.23684638508934E-06	5.78038703366263E-06	-1.12343331253438E-07	-0.611242041969346	0.784839053776589
5.8	-0.150108289779604	0.986198287761318	2.7076219408375E-06	4.27498913788492E-06	-2.12247068692006E-06	4.25392996190187E-06	-0.50784854425209	0.855086825585985
5.9	-0.0720306951738855	0.994822854934707	-6.90676349350767E-06	-2.31016417926677E-06	-7.95794641202576E-08	6.30890345226866E-06	-0.396967094991668	0.91161817362139
6	0.00568628678888445	0.997453381879495	-1.79661643273809E-06	8.88086995439068E-08	-5.47224629569324E-06	-4.40380091179399E-06	-0.280742834782642	0.953889332488239
6.1	0.0844269990291018	0.994445459155244	5.83226682918612E-08	-9.94364173834388E-06	-9.80946753453824E-07	-3.22587261821395E-06	-0.159428097003828	0.982364860139219
6.2	0.163477543196922	0.984376960886271	-1.03044236503019E-06	3.12151012724396E-06	-1.77190392414052E-06	4.22577775392168E-06	-0.0341554225343385	0.994658821791575
6.3	0.241503209557867	0.967786102949814	-8.12044226599176E-07	2.83998496032629E-06	-2.95221082286016E-06	2.40085284342189E-06	0.0915815075057002	0.990710328828929
6.4	0.317489637039756	0.945046887092453	-5.99825945471011E-06	5.56139874009039E-06	-2.39057879396379E-06	-7.54746556352827E-07	0.215589154465589	0.97089208607348
6.5	0.3919011849311	0.917545863963813	1.41611642956051E-06	-5.30124419513918E-06	-1.45355694431222E-06	-2.39013874366474E-06	0.336256997635126	0.936681575992734
6.6	0.464198113749548	0.882743437207871	3.67417932970195E-06	2.09400787553407E-07	1.13664474869279E-05	-2.69804172375623E-06	0.452474156106131	0.886152557864301
6.7	0.532559989945498	0.842517334984585	-7.79187418317317E-07	8.52528958028454E-07	-3.7833512354702E-06	5.26128142416993E-06	0.559778372063711	0.821582763157059
6.8	0.597658518126283	0.797280115694399	-1.75571051393057E-06	4.51186807503285E-06	1.45908978120071E-06	-8.90002522234823E-07	0.658057756332206	0.744387959691083
6.9	0.658895554230353	0.74701751316546	5.95046183761355E-06	2.24515555705989E-06	-9.2992102742056E-07	2.42825656917027E-06	0.745596086804176	0.655506451434098
7	0.715858017352472	0.691982376735324	1.13519357623181E-06	-4.16774100390522E-06	-1.42669421562003E-06	2.93096436954522E-06	0.821097190136788	0.556795939634744
7.1	0.768249344373071	0.632797193672175	2.39500961552563E-07	-7.21088009257848E-07	1.99825244683768E-06	9.21592542017456E-06	0.884126598122125	0.449447658522546
7.2	0.815778297960038	0.569326601436581	1.3846123731582E-06	-2.42548562040012E-06	-1.03507568482053E-06	-8.5936893914595E-06	0.932963696409713	0.334960443655557
7.3	0.858079058533353	0.501956237053805	4.87493713010274E-06	7.2366478973414E-06	-9.74193465833078E-06	2.37113919322947E-06	0.966720297533453	0.214998271170536
7.4	0.895170503448636	0.430965784694481	5.10760206933098E-06	-7.05639275920784E-07	1.90636832234441E-06	-9.67357011174432E-06	0.985078550265541	0.0911840457723199
7.5	0.925552902843819	0.357361324082232	2.72139390728911E-06	-5.32502349972161E-06	2.06201011218295E-06	-7.29359199906865E-06	0.986500877504265	-0.0329663066396214
7.6	0.951007574988498	0.282267085663728	-3.36309167770713E-07	-5.63442697531233E-06	1.67835530315116E-05	3.80003184235662E-06	0.974172637106846	-0.155537126693003
7.7	0.970577305043906	0.2047941844765	3.51616523439761E-06	9.82379677802095E-08	3.13281359936616E-07	-2.92432684527218E-06	0.946840863436663	-0.276421071683341
7.8	0.983746745984883	0.125959132274044	-1.09726046720514E-05	-1.8839079677492E-06	-1.92226757827782E-07	3.43610630664479E-06	0.904709355803568	-0.393059057876082
7.9	0.990138985313594	0.0463348001953461	2.35854584489901E-06	2.02190538110881E-06	-6.94659431725442E-06	-4.68673262507695E-06	0.848221142570829	-0.503440167337847
8	0.990682707723531	-0.0321301949738018	2.35242486856074E-06	2.94576317163991E-06	-9.33220993717541E-06	-7.5732271098973E-06	0.779322987988856	-0.605630351576996
8.1	0.98606083475139	-0.112134554934342	3.82270784584901E-06	-3.07468833806557E-06	2.14272686185095E-06	-3.18749377874091E-06	0.69764869640729	-0.700247644952905
8.2	0.973835274724438	-0.19141237566961	-4.0351726402054E-06	1.42583989906268E-06	-6.75668184451225E-06	3.75658675385206E-07	0.603693151838029	-0.782921113268743
8.3	0.954702172934377	-0.269470363744732	9.87228719956822E-06	2.69255623886507E-07	6.27755469031384E-06	1.04401182825616E-05	0.500040922941113	-0.852551019541864
8.4	0.929172571372558	-0.345625193823811	1.29373943840465E-06	2.55494957616528E-06	3.46911210282529E-06	1.81399441616663E-06	0.388558976780785	-0.908647176496963
8.5	0.897617510556979	-0.419649291659785	-4.82875147212318E-06	4.9848942034746E-06	2.84520418090322E-06	-3.03499261204729E-06	0.270694768365843	-0.949757618401499
8.6	0.859971111768307	-0.490787859865064	-4.4936081049564E-06	2.1059168822278E-06	-3.00914410061674E-06	8.13430257315432E-06	0.149213528616601	-0.976362347002403
8.7	0.81684088557907	-0.558509689260225	-1.01730283286147E-06	1.22064064382397E-06	-6.31862612676506E-07	3.46784856828022E-06	0.0248220889487796	-0.987378586105683
8.8	0.768509417916557	-0.622357579329775	-1.57452142936891E-06	3.08669521826094E-06	-6.00716349310979E-06	1.30754567998649E-06	-0.0995143121198806	-0.982856159246215
8.9	0.71548352939883	-0.682292877524958	3.17037933503967E-06	-1.84475570691315E-06	-3.16952955159303E-06	-4.45990761857124E-07	-0.222910935804975	-0.962677954730378
9	0.657081643375788	-0.737517223670053	-7.28628304138851E-06	1.38634198283309E-06	-3.97764088692117E-06	7.44408240354005E-07	-0.343286990783482	-0.926344900162056
9.1	0.595089909345588	-0.787437959541389	-3.36300731576928E-06	-1.86536257889897E-06	-9.72570065970347E-07	2.13900727855225E-06	-0.456801907632784	-0.874904343884348
9.2	0.528839542400666	-0.83239060904655	5.96848887473958E-06	-1.66793419869047E-06	2.02611968279275E-06	8.45874707085654E-06	-0.562777942091977	-0.810665255981746
9.3	0.459275424017998	-0.871810454149952	-3.33599448017278E-07	1.06996631347805E-06	1.36948077143166E-05	1.17419910628508E-05	-0.659917373571275	-0.73355196735349
9.4	0.386076707964949	-0.90544796019205	1.71590999585226E-06	-2.66288146463633E-06	4.28498703747669E-06	1.73541751356645E-06	-0.746463877796118	-0.645125133103646
9.5	0.310188664993389	-0.93134281788049	-6.50166472269748E-06	-4.84886691359998E-06	-1.95948245764187E-06	-5.67752820260004E-06	-0.821461080994509	-0.546012518595041
9.6	0.233112795534345	-0.952467053063184	-1.1647798006665E-05	-2.32066385837016E-07	-5.91696509327041E-06	-3.98805774793032E-06	-0.884499622896629	-0.439058193940309
9.7	0.153422929746571	-0.967223935878222	1.46300722811193E-06	-4.80780199548851E-07	-2.90606294159305E-06	1.64468303787618E-06	-0.933646865225725	-0.323476826006178
9.8	0.0727290291865934	-0.974787709889465	2.2039763462461E-06	1.390884819347E-06	1.50526455032731E-05	-3.53511126456649E-06	-0.966864488461131	-0.202830563689564
9.9	-0.00823490284312423	-0.97489760979589	-3.42654681688914E-06	8.95277073556097E-06	1.37293943462949E-05	4.93760253712305E-06	-0.984697059604328	-0.0790538249939145
10	-0.0873808677828912	-0.967740705977037	-3.62722314967915E-06	1.62110481452675E-06	1.91367128579421E-05	-1.81283086776182E-05	-0.986468041584735	0.0457372920462484
10.1	-0.165400459180569	-0.954605869295955	-1.47058511813061E-06	2.2981269819503E-06	-8.40330629062004E-06	-4.2820674855378E-06	-0.973154779342331	0.169609730777579
10.2	-0.241426680003868	-0.935010575041639	-2.30399417997241E-06	-1.23353019927808E-06	-1.2867209058976E-05	7.22524637775843E-06	-0.94393858735733	0.29101370894703
10.3	-0.314315169607814	-0.909416426685751	5.7509315738677E-06	3.90715747210383E-06	-6.12811646741665E-06	1.38077908788574E-06	-0.900033338323195	0.40715251158575
10.4	-0.384853846802375	-0.878790681739587	2.09496815239155E-06	1.04246317334449E-06	6.97651562087575E-07	-8.19438176371603E-06	-0.842217002244103	0.516328008493835
10.5	-0.452462168991426	-0.84126606996681	4.35337264885607E-07	-3.05124162391629E-07	-6.55470439889946E-07	-5.61309314106199E-06	-0.771980971326094	0.618902879112266
10.6	-0.51450008161646	-0.798510044774391	5.06703313055464E-06	-2.60388362815742E-06	-9.72595450290709E-06	-7.83782988010596E-06	-0.686855030165763	0.711531864266439
10.7	-0.572004813185992	-0.752018719440769	-2.80299575234453E-06	-4.95185966961849E-07	-5.2153755782659E-06	-7.12784797718992E-06	-0.591604191850322	0.791192053380924
10.8	-0.625192436075095	-0.703272561661336	-3.60171528567049E-06	-3.42179836265149E-06	-1.18926601987055E-05	9.11663353312285E-06	-0.487934980984838	0.858019932620953
10.9	-0.675767621643066	-0.65253296929753	-1.13396232189257E-05	-1.03571593920266E-05	-4.44097118444248E-06	1.0911078644588E-05	-0.377585342083714	0.911802740370605
11	-0.722767925972932	-0.597865023539749	1.00773771756602E-06	1.40096876111306E-06	8.61243823229751E-06	-5.48370951519504E-06	-0.26026973750199	0.951559022620267
11.1	-0.765039843964555	-0.541730839551785	-3.26250483460652E-07	-3.61337330034084E-06	1.01268549716422E-05	-1.01511070056593E-05	-0.140052595511082	0.97616490921311
11.2	-0.805366403789382	-0.48331722830672	-1.02610630884756E-06	-3.89533089997202E-06	2.15280868541422E-06	-6.28109692140817E-06	-0.0163069906508735	0.986287486892817
11.3	-0.842549521674687	-0.420835889430083	1.63248813071842E-06	-1.19915972363276E-05	3.55162732189933E-06	-2.8082774792759E-06	0.108192856099862	0.980335857121264
11.4	-0.874910321864659	-0.354732390244888	9.82716531633601E-07	1.84718303124876E-08	-5.6666865127437E-06	6.43481693512344E-06	0.231377617210758	0.95852370294759
11.5	-0.901452759002053	-0.285780726356819	6.51686725940457E-06	-1.23237977554425E-06	8.20041105200561E-06	-3.07726981506452E-07	0.34956730782785	0.921065378969635
11.6	-0.923824589948842	-0.215710351198486	-6.31571579550662E-07	-5.30423440223444E-06	1.43405040612048E-06	-3.06528801166846E-06	0.462699807598713	0.869192640467607
11.7	-0.940723211872193	-0.141636381302943	-8.79627603846844E-08	-6.01885062018551E-06	8.9069183123315E-07	-2.6447102090108E-06	0.568127592868932	0.80320820834663
11.8	-0.951628641553109	-0.0650231449222134	-1.06525934261959E-06	-7.38382913192148E-07	5.13894489232787E-06	1.07878251283911E-06	0.664176474232476	0.724452519283246
11.9	-0.956221101214396	0.0139448893934828	-3.19297689274496E-06	-5.18494161305244E-06	-5.34858625566533E-06	-7.97419829967934E-06	0.747856152253813	0.634990604859491
12	-0.953210801302439	0.0939705888697107	-2.93488980926077E-06	1.62684730185073E-06	-1.66287191259202E-05	-8.7511002835554E-06	0.819678949095781	0.538606720783686
12.1	-0.943053046645793	0.172577503881516	8.26463884818703E-07	-1.55848736728631E-06	7.79094819350559E-06	1.22468736371375E-05	0.881102654804293	0.432500625586518
12.2	-0.925772205003689	0.250154717413799	-4.10592040794536E-06	5.51368139004173E-06	4.03710840904801E-07	3.30006848722415E-06	0.928425450203283	0.319101489197475
12.3	-0.902926879109445	0.325603748881073	7.78122179094465E-06	6.39177872695307E-06	3.79186265096042E-07	1.08529609328328E-05	0.961253352154553	0.200219789337669
