# GHZ S RI R 50
0.2	0.985450864446344	-0.156876423060588	2.56383153366656E-06	2.24912504293464E-06	6.56834155064432E-06	-4.86794028256067E-06	-0.966231078957922	0.251742146514155
0.3	0.969390917057336	-0.233846174783959	-8.73816383325608E-07	-5.45216600459259E-06	-3.46588716374555E-06	-7.9428359360931E-06	-0.926538006998232	0.371783736881027
0.4	0.947937355054267	-0.309039859941506	-7.27625962908163E-06	-9.90536549735718E-07	4.43955292855537E-06	1.54431537656968E-06	-0.871694393223976	0.48553413953507
0.5	0.921175842889223	-0.382382903820977	6.19672545138974E-06	2.10423749771449E-06	-2.41282654813737E-06	-1.90731968530098E-06	-0.803036599385847	0.591585787814167
0.6	0.888460004050314	-0.453531842247228	-1.05487139034849E-05	2.45872152910018E-06	-2.2176524928821E-06	-1.00710758547681E-06	-0.721647768387986	0.68785115340134
0.7	0.850269299472464	-0.521579950386838	2.78355105071198E-06	-1.17157112952488E-06	-2.98718429552166E-06	5.78662321984473E-06	-0.629024597447475	0.773295651548734
0.8	0.806710492709918	-0.586717968074527	1.17653998322739E-06	-8.47304871390073E-06	-6.61833260190751E-06	-3.06943096947305E-06	-0.526315049744651	0.846172057161894
0.9	0.758077706239104	-0.648265062794127	-1.14616539813582E-06	-6.80813945509263E-07	2.54637479555779E-06	6.54066910774053E-06	-0.415475190528463	0.905380375415407
1	0.704704441649607	-0.705745229130523	-2.74219912575756E-06	-3.22128795959778E-06	-4.0278568772635E-07	-7.31184831349131E-06	-0.298418710353239	0.949996732707347
1.1	0.647975291825394	-0.759053690657654	1.80863329323671E-06	-4.93740554849363E-06	2.27193024773234E-06	-5.13052538125753E-06	-0.176605879354667	0.979870723555621
1.2	0.585871086631344	-0.808693168866414	-2.49707802826727E-06	2.48878317011418E-06	9.26579820442007E-07	-9.09829560609064E-07	-0.0517878957422193	0.99408317142775
1.3	0.518521080576113	-0.853502885722571	-1.53878386812521E-06	7.17870384926357E-07	-1.35700666217829E-06	1.46199723587431E-06	0.0737305691555307	0.992776414042491
1.4	0.447978055623206	-0.89250433546512	3.92741601246751E-06	-3.23793574990168E-06	2.69296556363079E-06	1.09468227814628E-05	0.198754305459846	0.975139247073735
1.5	0.375075600543134	-0.925213843969091	-5.34119788897987E-06	1.10618578516829E-06	6.59902723619267E-06	-7.20575354528589E-06	0.320397388655533	0.941786236258546
1.6	0.30104555788098	-0.951768424573254	1.78080012507733E-06	-7.74165296076091E-06	3.63298381911545E-06	1.38486459143085E-06	0.436368580001751	0.893348080817566
1.7	0.226281188747546	-0.971898604457401	-1.94180095714422E-06	-9.70144943738075E-07	-2.35079800986357E-07	-2.08764361312195E-06	0.544730665991054	0.831442286897311
1.8	0.149421405230624	-0.986404746378117	2.85055211988523E-06	5.2801707406358E-06	3.89705699893117E-09	2.03177383329483E-06	0.64479715634345	0.756084640123587
1.9	0.0717774411140233	-0.994824101855894	5.67393469345233E-06	-2.63148215225553E-06	-2.99790212380657E-06	4.15836708980868E-07	0.734119574254079	0.66893114181518
2	-0.00526909285731206	-0.99695758846558	-1.54781586314909E-06	-2.02596320292122E-06	3.21106655457483E-06	1.14542515202774E-05	0.811826997023379	0.570737054461677
2.1	-0.083662299866564	-0.993803859072386	-7.55286026835356E-06	2.45273961294564E-06	1.20581780161792E-06	5.14529119458953E-06	0.876267707172257	0.46457060848649
2.2	-0.160467644374394	-0.984521101934911	-8.83363610276848E-07	1.3940033340401E-06	3.00175974438393E-06	7.776872944762E-06	0.927726406883727	0.351141296879727
2.3	-0.237810030886284	-0.968536168174115	1.78646798825083E-07	7.45307379420828E-06	7.39588836524972E-07	9.38784093730771E-07	0.964043721898915	0.232420470259414
2.4	-0.313779410555447	-0.946080890146568	1.57839627083184E-06	7.17315254716792E-06	1.52029240900969E-06	6.38662832004194E-06	0.985718605601822	0.109023303814711
2.5	-0.386884590228745	-0.918365068113937	4.38897178690851E-06	-2.31208680070098E-06	-1.9119176424741E-06	-7.56844250694658E-06	0.991061529291978	-0.0154160829716205
2.6	-0.457834245543779	-0.884690526481256	6.76810980722412E-06	-5.93822076254262E-06	-1.10973567379065E-05	1.08159717431004E-05	0.981079345718935	-0.139879692315289
2.7	-0.526074548003949	-0.845702801287985	-4.44489758009761E-06	9.13142146418636E-06	-2.86409633412379E-06	-9.15307756389318E-06	0.955174515574559	-0.262126806606998
2.8	-0.590102393885662	-0.802013900449053	2.45403578103748E-06	1.14495987172031E-06	-3.12611870969343E-06	1.23935526282641E-06	0.91503638316513	-0.379393560003298
2.9	-0.650073967231951	-0.754003129431764	-5.50144830304798E-06	6.00133160224505E-06	-9.18314127030676E-06	-2.95133704606725E-07	0.860334344034691	-0.490754291417242
3	-0.706969781941857	-0.701326757946304	4.74345740923156E-07	-1.47089287585457E-06	1.13125485904571E-05	1.48010343188147E-06	0.792007191779307	-0.595102321263871
3.1	-0.759977924950101	-0.644391712357932	2.38836227368669E-06	1.04933508437744E-05	4.31925145703665E-06	2.17913546913144E-06	0.711223438417339	-0.68919260749245
3.2	-0.808051775237692	-0.583540262442913	2.09460189532247E-06	6.46506241165992E-06	4.0125072029906E-06	-1.05939187318803E-05	0.619649051871017	-0.772683173810802
3.3	-0.851381507508848	-0.519242222192878	3.07377795309179E-06	4.96350904499667E-06	-2.21115550886806E-06	-9.66705956873863E-06	0.517243686405045	-0.844702574441466
3.4	-0.888964119146518	-0.4519378364915	2.12789656799577E-06	-2.60095587897977E-06	5.95504138287671E-06	1.3892983495542E-06	0.408020121223085	-0.903178008207687
3.5	-0.921935248483079	-0.380029417515256	-3.23978355286422E-06	9.44722085444365E-07	-2.07456305593152E-06	3.42173752598455E-06	0.290674700385254	-0.947827527817078
3.6	-0.948514518934889	-0.306404663590668	-1.81005400230861E-06	-3.74281373716315E-06	-7.8215210535921E-06	4.10040197823739E-06	0.169121628445925	-0.976255637295496
3.7	-0.969518988030714	-0.231588232888671	8.28126865970914E-07	-8.32313392789874E-06	1.07614830384161E-05	3.70363478687172E-06	0.04504812259135	-0.989685816108228
3.8	-0.984891894063374	-0.154301402341833	9.07161463643783E-08	1.54668437258024E-06	-6.5228555243243E-06	5.94504288658357E-06	-0.0791796110823059	-0.987743673505776
3.9	-0.993640962052275	-0.0765825432175492	-2.62359165225005E-06	-5.03026265756425E-06	-3.7104136266514E-06	8.02289530557329E-06	-0.204300858445706	-0.970582211665275
4	-0.996323367568681	0.00214077119880431	7.1302510598002E-06	-3.75698524699609E-07	-1.0439788257633E-06	-1.20671218240323E-06	-0.325047042044754	-0.937578900811993
4.1	-0.99337474110513	0.0802066540709911	6.20306856835883E-07	-4.43404725931357E-07	7.36020221821154E-06	-4.75036636213728E-06	-0.441044896364256	-0.888963402207533
4.2	-0.984382992655534	0.158293925847394	3.20504526040235E-06	2.10733444354134E-06	-7.18056915475633E-07	-7.63133576678938E-07	-0.549565201158642	-0.82588304435097
4.3	-0.96932969508437	0.234657802496095	-3.19322394062478E-06	1.37046324984461E-06	-5.00308938883295E-06	2.97956638657995E-06	-0.649017590718651	-0.750616070130631
4.4	-0.947955270758642	0.309868565033189	8.02627370111766E-07	2.64521267032507E-06	1.56153556914599E-06	-8.33794575578715E-06	-0.738209113269366	-0.663394194794789
4.5	-0.920479585293531	0.38272959569566	1.82587746699809E-06	-9.37793934181235E-07	7.63553269084359E-06	-2.45840015873209E-07	-0.816372821717521	-0.565862767762436
4.6	-0.887800753254653	0.454267662507642	-7.41740181013948E-07	6.13603495557292E-06	-1.23465422456644E-05	-6.51685766986793E-06	-0.881602801525618	-0.458513534903759
4.7	-0.849536362934932	0.52196784975895	1.19915390971763E-06	2.5177864250208E-06	1.42019903786956E-06	1.87244395882673E-06	-0.932813528484572	-0.343901505049514
4.8	-0.805236626581377	0.587642121832539	-5.20803039763139E-06	1.11434444734831E-05	5.22754209373862E-06	9.72029766427391E-06	-0.968657278473068	-0.223301969435578
4.9	-0.756309212626115	0.64879149079591	1.19643721229008E-06	2.94042486285062E-06	-4.72028429492112E-07	-6.9300532752847E-06	-0.988908617964727	-0.0991524002165252
5	-0.703296924437386	0.706280163200655	4.7565181789318E-06	-9.04682884546968E-07	-3.75770740313454E-06	2.42426251465078E-06	-0.993788928035701	0.026449471256757
5.1	-0.644736299692528	0.760035107932341	4.14652066233078E-06	-1.37826755705291E-07	-2.65515838767563E-06	-9.84503063451751E-06	-0.9822735150574	0.152287178423189
5.2	-0.582526777091874	0.808742818743301	2.63801833419196E-06	-1.50316320760705E-05	1.38017699919171E-06	2.83087348867742E-06	-0.954776473073176	0.274973572663746
5.3	-0.516877518684565	0.852562840229547	-8.73396787623653E-06	-7.87390638919735E-07	-1.13806959545728E-06	1.59005354832461E-07	-0.912430537439879	0.393045041508899
5.4	-0.447868252136423	0.891111223942476	-7.20153879152254E-06	-1.10848637909669E-05	-1.37713969000883E-05	1.12221243116492E-05	-0.855609607455282	0.504496650097002
5.5	-0.376080852203068	0.923316847526944	1.90822192376551E-06	8.87939517915381E-08	-2.24863557282508E-06	1.78746564427095E-06	-0.786257341328255	0.608116896408878
5.6	-0.302384862537031	0.94955959179058	-2.41337411158196E-06	3.52028559710138E-06	-1.3443758895852E-06	1.29151798875905E-06	-0.703488684295738	0.702412722052598
5.7	-0.226696857603154	0.970630096273877	1.30853452733245E-06	1.23403875078119E-06	5.77377835435068E-06	-1.18487807219736E-07	-0.60960709573176	0.785028922911618
5.8	-0.149410545165001	0.985322618056257	2.70872711636061E-06	4.26782425167922E-06	-2.11617222367773E-06	4.25133829128729E-06	-0.5060301321755	0.854896936600237
5.9	-0.0709903270064564	0.994172379737147	-6.90451417843151E-06	-2.30268242066433E-06	-7.40018162172218E-08	6.30506944202039E-06	-0.395009923723377	0.911163558969608
6	0.00780405554034097	0.995885395888771	-1.795637131272E-06	9.27157127069748E-08	-5.47952930723265E-06	-4.38986026720534E-06	-0.278229724846957	0.952569121147643
6.1	0.0856133399326521	0.99171769523245	3.63781099111135E-08	-9.92562029839569E-06	-9.86240912652318E-07	-3.2178302848609E-06	-0.157829072100249	0.97997837882051
6.2	0.163894225074276	0.981565021425056	-1.02292675234883E-06	3.11626110664853E-06	-1.76088788518479E-06	4.21930151507251E-06	-0.0333964468842153	0.992161116053155
6.3	0.241413677788771	0.965118621259087	-8.06427374085738E-07	2.83403191311049E-06	-2.94188764802851E-06	2.3987073627728E-06	0.0917896479042702	0.988349953238995
6.4	0.317390080901451	0.942298457570503	-5.9755017367308E-06	5.55331014190654E-06	-2.38497467767019E-06	-7.4991071974949E-07	0.215732641021746	0.968460651008772
6.5	0.390491957851124	0.913946136442179	1.40865114156052E-06	-5.28109964067876E-06	-1.44876805071676E-06	-2.38028862760656E-06	0.335068452123947	0.933496988880933
6.6	0.461891846648731	0.880584203806974	3.66219291593429E-06	2.12930507510763E-07	1.13331902591002E-05	-2.67642483890688E-06	0.450482636098648	0.884496607545202
6.7	0.530389198830639	0.840894003973251	-7.78443193695447E-07	8.49337961419702E-07	-3.78129507222528E-06	5.24301200998028E-06	0.558007790427352	0.820437621071719
6.8	0.595429494482486	0.796059277143995	-1.75913796484179E-06	4.50009209538917E-06	1.45752918873514E-06	-8.85963938094672E-07	0.656264014942042	0.743598908526705
6.9	0.656787488970978	0.746243883320581	5.93827306662677E-06	2.25239869847037E-06	-9.32857712188236E-07	2.4232586883463E-06	0.743933792111985	0.655095483399607
7	0.713897020214821	0.691279953465796	1.13855269704562E-06	-4.16426189892974E-06	-1.4286966202731E-06	2.92791320716568E-06	0.819460448204736	0.556352525723894
7.1	0.766132474790088	0.632391614591182	2.39591805317318E-07	-7.20006999977768E-07	1.99045117536792E-06	9.20495233477484E-06	0.882225989395457	0.449480624701229
7.2	0.813669269360692	0.569306804582736	1.38472819921087E-06	-2.42038876555914E-06	-1.02537183072463E-06	-8.5812197968121E-06	0.93117221418761	0.335498204696079
7.3	0.855983488289822	0.502422042653004	4.85650662751814E-06	7.23116953093808E-06	-9.72868720912648E-06	2.35345721652015E-06	0.965083896800973	0.216115984919799
7.4	0.893398028734432	0.432300529862429	5.10107595064635E-06	-6.91914954768816E-07	1.92711446812529E-06	-9.65322127261612E-06	0.984158372156978	0.0932516386740246
7.5	0.92519030521572	0.358644188902416	2.73753724800804E-06	-5.31872030842087E-06	2.08363853722755E-06	-7.28976080980416E-06	0.987332573158563	-0.0316546259024573
7.6	0.950476189383449	0.282985234534477	-3.26687618504976E-07	-5.6371318109223E-06	1.67833023229082E-05	3.83050129892922E-06	0.974386973930267	-0.154918156901656
7.7	0.970230019214032	0.205619412085821	3.51747227963243E-06	1.03966898099039E-07	3.18142550757728E-07	-2.92503927307934E-06	0.947208838429203	-0.27573908831529
7.8	0.983819342141278	0.126626494563758	-1.09787729313677E-05	-1.89867047740638E-06	-1.96543264199629E-07	3.43852040492864E-06	0.905304264793538	-0.39273547913758
7.9	0.99085561056593	0.0462009090358189	2.36129179362195E-06	2.02495628608955E-06	-6.95489794056592E-06	-4.69405653868497E-06	0.848854244713606	-0.504182871343583
8	0.989953889859156	-0.0341039577577762	2.358623302103E-06	2.94082696558848E-06	-9.34815476500792E-06	-7.55363317794467E-06	0.777405758683709	-0.607119436223592
8.1	0.983885127268475	-0.112480264412178	3.8114033181952E-06	-3.07223809260982E-06	2.13484575529268E-06	-3.18303323072831E-06	0.695317831499529	-0.699124129300981
8.2	0.972016420494684	-0.19079326409544	-4.02579596995125E-06	1.42256029800659E-06	-6.74099603392114E-06	3.74836853328889E-07	0.602437228767774	-0.78098648750597
8.3	0.953285102867946	-0.268395819998849	9.849290125017E-06	2.74632695162953E-07	6.25669052271102E-06	1.04197866693397E-05	0.499616598349248	-0.850409087966064
8.4	0.928122868856097	-0.344283724375068	1.28739418237243E-06	2.55062873637612E-06	3.45862094890435E-06	1.81422988292141E-06	0.389028173620743	-0.906598776787368
8.5	0.89680714360942	-0.418013627305369	-4.8318053608068E-06	4.96713646420113E-06	2.84720858734697E-06	-3.02437959566516E-06	0.271476593151642	-0.948537380139806
8.6	0.85969797836763	-0.488846952272262	-4.49229370967817E-06	2.09639145458323E-06	-3.0191949092915E-06	8.12083427784387E-06	0.149834383244676	-0.974998894119928
8.7	0.817048932861752	-0.556530594419052	-1.01792967173503E-06	1.21768398205257E-06	-6.36301099504058E-07	3.46282330048661E-06	0.0257973251087042	-0.985879624648994
8.8	0.769106268002297	-0.620344543312041	-1.5767970237946E-06	3.08003673435098E-06	-6.00057993552379E-06	1.29693818886401E-06	-0.0980454524442306	-0.981199424555431
8.9	0.716570378621315	-0.680091537858198	3.16681674557704E-06	-1.83550682748189E-06	-3.16209528645129E-06	-4.5041020513538E-07	-0.220212099292699	-0.960901233358471
9	0.659183918905683	-0.735646546556846	-7.27602109638577E-06	1.36005801303253E-06	-3.97199882401766E-06	7.30084690180799E-07	-0.339384399061709	-0.926710777451089
9.1	0.597466196784933	-0.78622994492722	-3.35365890195191E-06	-1.87485133617515E-06	-9.78803977744807E-07	2.13377496737756E-06	-0.454041946954649	-0.876366450889632
9.2	0.531542679645428	-0.831721130654386	5.97222360468312E-06	-1.6470768586087E-06	1.99666985293918E-06	8.46289053588887E-06	-0.560591001020792	-0.812818519650212
9.3	0.462158104220928	-0.871780454302298	-3.37327196734629E-07	1.06934083114694E-06	1.36618342963991E-05	1.1793120063309E-05	-0.658666457942886	-0.736254235327272
9.4	0.389404577051525	-0.906133226612451	1.72726058804863E-06	-2.66083998357508E-06	4.28514948101402E-06	1.75224724524066E-06	-0.746102618525319	-0.648380323574514
9.5	0.31237707445174	-0.934012983574871	-6.51226968701348E-06	-4.87345521379963E-06	-1.95572829017066E-06	-5.69699918298145E-06	-0.823688733224772	-0.548900535699381
9.6	0.233929192606474	-0.953848817053201	-1.16636050601437E-05	-2.38371575371808E-07	-5.92300534892307E-06	-3.99655251215015E-06	-0.886391915694421	-0.43971876715246
9.7	0.154784220849535	-0.968113516173418	1.46475639663194E-06	-4.79804027008848E-07	-2.91019731699012E-06	1.64335172769057E-06	-0.934875881801758	-0.323940106499756
9.8	0.0745054774591174	-0.975907828117971	2.20444090090237E-06	1.3948160489079E-06	1.5071205863188E-05	-3.52072008082149E-06	-0.967895258762807	-0.203268611362743
9.9	-0.00639485674423225	-0.976630909187301	-3.4398903232773E-06	8.9584007340709E-06	1.37383738436087E-05	4.95773354183189E-06	-0.985487366832025	-0.0795874246832149
10	-0.0861910549553078	-0.969541727677054	-3.63178834775664E-06	1.61781953282324E-06	1.91725166558574E-05	-1.81177904676453E-05	-0.987581156373468	0.044795955206286
10.1	-0.163887402787114	-0.956388298084371	-1.47587849979544E-06	2.29855801430379E-06	-8.40657898674189E-06	-4.30013212667955E-06	-0.974713347831766	0.169112561089738
10.2	-0.240135327495011	-0.937290405271992	-2.30616570735565E-06	-1.23817560095642E-06	-1.28959187919548E-05	7.22148368984818E-06	-0.94547231753122	0.29104577238332
10.3	-0.313512207031758	-0.911808592661644	5.75805909563546E-06	3.91728200308839E-06	-6.13919552905157E-06	1.37922888129916E-06	-0.901183200591029	0.407719686908867
10.4	-0.384323517089099	-0.880985339189129	2.09799397746163E-06	1.04364390050416E-06	6.97597322787983E-07	-8.20579696664451E-06	-0.842198881870397	0.516942157748172
10.5	-0.451883975673937	-0.843414333420772	4.35387641961844E-07	-3.0514044867656E-07	-6.55368355277136E-07	-5.61364661370242E-06	-0.772020507631016	0.617271113088679
10.6	-0.513931078155679	-0.800841693278029	5.07179999202436E-06	-2.59951302424754E-06	-9.72143656045201E-06	-7.85127087319636E-06	-0.689076286324125	0.710300183737858
10.7	-0.571753927145198	-0.754569022835033	-2.80521645862389E-06	-4.9908253974484E-07	-5.21198311842428E-06	-7.14134455375924E-06	-0.594540264875056	0.791237699313028
10.8	-0.625269675105445	-0.705612439030234	-3.6030854559568E-06	-3.42984759309045E-06	-1.1917286589968E-05	9.11691981620888E-06	-0.490633219891339	0.859329753014387
10.9	-0.675189791296147	-0.654569899294804	-1.13378897896694E-05	-1.03809632189881E-05	-4.45856086446087E-06	1.09161540695906E-05	-0.379752142580345	0.913292683553222
11	-0.722633164339913	-0.601786521009346	1.00707013028789E-06	1.40649472893693E-06	8.64485559292337E-06	-5.47791713143594E-06	-0.263520689709553	0.953895631644027
11.1	-0.76658607658803	-0.544586824497538	-3.25105572063674E-07	-3.62459972083274E-06	1.01637913806305E-05	-1.01761018555504E-05	-0.141877895655303	0.980205916559354
11.2	-0.806755899925561	-0.485385990666594	-1.02857585049196E-06	-3.9055152765276E-06	2.15872970019459E-06	-6.29732401951545E-06	-0.0168172412344622	0.990398290737443
11.3	-0.843758259187749	-0.422720451227605	1.6355626415039E-06	-1.20201949427161E-05	3.55987664489228E-06	-2.81518712597716E-06	0.10864683397927	0.984274465119486
11.4	-0.87629687752465	-0.35690863495449	9.85273032936991E-07	1.84136949166332E-08	-5.68072160588382E-06	6.45215591975406E-06	0.232706564144762	0.962174182969641
11.5	-0.904227733486686	-0.287130745989681	6.53398720294464E-06	-1.2433207196137E-06	8.22337231843173E-06	-3.17960657297114E-07	0.351488632121034	0.924224621177442
11.6	-0.925584521067477	-0.215732461620723	-6.40056129671194E-07	-5.3135831876794E-06	1.43261157938558E-06	-3.0731558228283E-06	0.465200800907498	0.872088693381909
11.7	-0.941856883019648	-0.141787037108064	-9.49430837822506E-08	-6.02931109844911E-06	8.89255203194132E-07	-2.65036056033303E-06	0.571352477189957	0.805599088713436
11.8	-0.952543727470451	-0.0653045437507698	-1.067941137199E-06	-7.38675047408297E-07	5.14941518800304E-06	1.07565017447119E-06	0.668092410073809	0.726142560246901
11.9	-0.957156854225379	0.0134587186994351	-3.20560376374242E-06	-5.19338176553659E-06	-5.36899885166328E-06	-7.98672389609685E-06	0.75269712373932	0.635327529931575
12	-0.9544936943806	0.0932792784075612	-2.93751442003776E-06	1.63526666807952E-06	-1.66762073283622E-05	-8.73754645525383E-06	0.823070130858785	0.535946994037497
12.1	-0.944571523684049	0.172267949339345	8.26049614900836E-07	-1.56186142100739E-06	7.81677093389347E-06	1.22576228365712E-05	0.882499840543411	0.431137555922938
12.2	-0.927409570828869	0.250316155162904	-4.10873715071841E-06	5.52959265311323E-06	4.08036533731985E-07	3.30657674451984E-06	0.930189452728388	0.318263006559959
12.3	-0.9044366271402	0.326501631403218	7.80954235570082E-06	6.39456589623768E-06	3.97129962418722E-07	1.08778576267165E-05	0.963209777059003	0.198938455146147
