# GHZ S RI R 50
0.2	0.988544174893644	-0.156189868150925	2.5668219184049E-06	2.25895448539563E-06	6.59288682305275E-06	-4.86996821063155E-06	-0.968725175362094	0.250329933332464
0.3	0.9729831516214	-0.233541310208421	-8.664777081193E-07	-5.47168612796134E-06	-3.46238929432853E-06	-7.97537780321185E-06	-0.930207580977718	0.370420094079951
0.4	0.952156228311203	-0.309302738226376	-7.30592972694075E-06	-1.00923042778129E-06	4.45579724345402E-06	1.55980710819963E-06	-0.876852967268971	0.484945657790923
0.5	0.925417746487545	-0.384278639683448	6.22861356639366E-06	2.11962845348956E-06	-2.42452460101036E-06	-1.91915513857903E-06	-0.808589967169838	0.593550083916346
0.6	0.891502160292137	-0.455394315786892	-1.05960370308435E-05	2.46598736361232E-06	-2.22708539262146E-06	-1.0122967733313E-06	-0.725936302574367	0.690167403400965
0.7	0.853598443885379	-0.523275957429388	2.79775780059246E-06	-1.17487254024015E-06	-3.00613228388456E-06	5.81172501023215E-06	-0.633631207688978	0.776120932777169
0.8	0.810396848443211	-0.588926655116761	1.18942453190938E-06	-8.51816461524125E-06	-6.6519244883083E-06	-3.09117428543657E-06	-0.5308437729585	0.850148334389026
0.9	0.761813868588619	-0.651427817913924	-1.15286312519331E-06	-6.85373262005951E-07	2.55937099910673E-06	6.58129967349044E-06	-0.419442405160219	0.910482711151067
1	0.707747779003674	-0.70969199641245	-2.76059712764073E-06	-3.24104215017351E-06	-4.07435133009834E-07	-7.35834490096003E-06	-0.301561142633359	0.956148585287772
1.1	0.650598269950069	-0.763519649771749	1.81618991573611E-06	-4.97107578193117E-06	2.28233676118485E-06	-5.16584746155205E-06	-0.178276771383723	0.986852957104423
1.2	0.587507312602899	-0.813669521890738	-2.50896107264264E-06	2.5088190008742E-06	9.31011712060934E-07	-9.17176677659941E-07	-0.051683383831607	1.00131542993668
1.3	0.518739724804083	-0.858379960836563	-1.54575957321769E-06	7.26218724169934E-07	-1.36090468591569E-06	1.47416849547505E-06	0.0760910911463324	0.999633351380184
1.4	0.446822444021232	-0.896056797856671	3.93407106033881E-06	-3.26653678544989E-06	2.74366354370557E-06	1.09875586809732E-05	0.202938586135369	0.980912160906985
1.5	0.375469477401656	-0.927189180633238	-5.35834552602393E-06	1.12566519785166E-06	6.60351646336311E-06	-7.25202423377316E-06	0.326227204556246	0.946992959500798
1.6	0.301824745276374	-0.955782583815694	1.76924764832041E-06	-7.78074783398185E-06	3.65271436656509E-06	1.38189816812675E-06	0.443044489473675	0.896774502270067
1.7	0.226124332873684	-0.976506364013981	-1.95395291152096E-06	-9.70002819315463E-07	-2.41595903480291E-07	-2.09743554128881E-06	0.551404673824053	0.834140651575739
1.8	0.148639519256888	-0.991195143632686	2.87865460942013E-06	5.30064174678858E-06	8.9978569072803E-09	2.0423839131729E-06	0.651461684731949	0.758085032880945
1.9	0.071168298537416	-0.999864817247027	5.70289449964576E-06	-2.65482395816697E-06	-3.01460435064783E-06	4.22545878383557E-07	0.740049104282653	0.671358982426737
2	-0.00646244904832442	-1.0050308345442	-1.56662333493374E-06	-2.04306220174853E-06	3.2630657179016E-06	1.15608424589816E-05	0.821760092128671	0.575510004087056
2.1	-0.0891362483432523	-1.00144685412542	-7.6064695701319E-06	2.52121036839487E-06	1.24823790937669E-06	5.18465610807186E-06	0.888996278696141	0.463051179199229
2.2	-0.167098565768883	-0.990398365775601	-8.80862257097175E-07	1.40995165921406E-06	3.07401088868352E-06	7.81467458008622E-06	0.938231485854385	0.346377536452537
2.3	-0.245147372523558	-0.973500956599819	2.26804066560807E-07	7.50321906860574E-06	7.50587573370186E-07	9.40585216016155E-07	0.972727035640371	0.226119693503877
2.4	-0.321984844153048	-0.950326405124741	1.63414952058083E-06	7.21353759553934E-06	1.57073731076194E-06	6.4218687663481E-06	0.992861428192796	0.101906792061331
2.5	-0.396168580193689	-0.921714997535238	4.40637625289858E-06	-2.35962807465946E-06	-1.97818884686862E-06	-7.61265661612987E-06	0.997710031882201	-0.0232632924997282
2.6	-0.468235087971428	-0.88686557682118	6.77470711941474E-06	-6.03531184831028E-06	-1.10999468339154E-05	1.09834380273398E-05	0.986623669324072	-0.148994755849149
2.7	-0.537566430207922	-0.846383331235395	-4.40168965212111E-06	9.24371150193984E-06	-2.96654445524178E-06	-9.2022129977874E-06	0.959980269933611	-0.272460369744898
2.8	-0.60283344622365	-0.800854113095311	2.48571468244123E-06	1.12942427597166E-06	-3.13910328186432E-06	1.28120238853022E-06	0.91824827497125	-0.391523576939179
2.9	-0.664364074749979	-0.749665412205628	-5.47393127954957E-06	6.11618452380342E-06	-9.26121253105847E-06	-1.87107554236661E-07	0.860879582378135	-0.503767850903971
3	-0.718859021665399	-0.691496620283092	4.55298808639403E-07	-1.48641236003618E-06	1.13997958719599E-05	1.32109506008931E-06	0.790380462579815	-0.607927556951828
3.1	-0.768953119967277	-0.635090871637568	2.54417173536812E-06	1.04941223463516E-05	4.36416008832224E-06	2.12538324422312E-06	0.707016602311059	-0.702531708234888
3.2	-0.816557075121816	-0.573193501187559	2.18944979889162E-06	6.45043606352387E-06	3.87386751030562E-06	-1.06737358291716E-05	0.612192314170556	-0.785098999798001
3.3	-0.858574983685108	-0.50711550497698	3.14650709166244E-06	4.92317726674364E-06	-2.35021650276742E-06	-9.64222582307514E-06	0.506446090982038	-0.855123899779582
3.4	-0.893244181389539	-0.437980426573524	2.08731828530681E-06	-2.62411132568149E-06	5.96031350217257E-06	1.30444721648648E-06	0.394159573492021	-0.908947705998242
3.5	-0.922204512982293	-0.368783513697617	-3.22218601664946E-06	9.70224405514156E-07	-2.03874770240464E-06	3.42992559661332E-06	0.281305272951394	-0.948412977263825
3.6	-0.951224981808103	-0.296104154805123	-1.84886872433801E-06	-3.72761317083174E-06	-7.78657832737769E-06	4.18176054309794E-06	0.159579540598362	-0.980690259269324
3.7	-0.971378373555845	-0.219252306382484	7.28957100689533E-07	-8.32824602008544E-06	1.07993154565101E-05	3.57392277267668E-06	0.0320583489998576	-0.991909527694931
3.8	-0.984864965557537	-0.141110044106017	1.08985589952708E-07	1.54224694960591E-06	-6.43773010832909E-06	6.01002739319812E-06	-0.093096109602856	-0.985998464082642
3.9	-0.991799308412401	-0.0629581745182039	-2.67255932569778E-06	-4.98650447036892E-06	-3.60983517148958E-06	8.04168155391249E-06	-0.216668061916697	-0.964832738692938
4	-0.992098622265383	0.0159939136511701	7.10926406089532E-06	-4.61352093224147E-07	-1.05621584580843E-06	-1.1912641500886E-06	-0.334595324804366	-0.931030485079713
4.1	-0.987081956981862	0.0931446085134865	6.11772208143457E-07	-4.49490441231795E-07	7.26557675573964E-06	-4.82485653411608E-06	-0.450333297592977	-0.881073832881306
4.2	-0.976540969726607	0.170064610204634	3.21174183294609E-06	2.05587950563181E-06	-7.2309813859601E-07	-7.49885483648453E-07	-0.557130475195645	-0.816147083692961
4.3	-0.960714201524881	0.244857549616248	-3.15659280647907E-06	1.39551578249466E-06	-4.93672135606474E-06	3.01312185154349E-06	-0.654447622303404	-0.739621585594647
4.4	-0.94051390369862	0.319460732484853	8.2046403288023E-07	2.62276337244968E-06	1.48118217070675E-06	-8.3020943443657E-06	-0.741714354624216	-0.651761449203687
4.5	-0.910900222435289	0.396431079825925	1.81175844597848E-06	-9.55574363347933E-07	7.61636487181694E-06	-3.28138798076736E-07	-0.817759477149559	-0.552543831828439
4.6	-0.872941047040832	0.464368337373102	-6.5333571855725E-07	6.11196306673892E-06	-1.23671036871211E-05	-6.31092439900718E-06	-0.878896434502135	-0.445584647196832
4.7	-0.834145181966311	0.528897322754505	1.22327331075992E-06	2.48326622312848E-06	1.43419621157687E-06	1.83983327862932E-06	-0.927907028265422	-0.332444986433505
4.8	-0.789429125740473	0.59263883026403	-5.01628326688369E-06	1.11176385735158E-05	5.3117429267844E-06	9.56848394754371E-06	-0.962405770054553	-0.212768272578115
4.9	-0.73911949332143	0.653178078851674	1.22812700994465E-06	2.8931112599879E-06	-5.70293740860372E-07	-6.85343985737631E-06	-0.98122438477414	-0.0874706815368808
5	-0.681013128442244	0.705315073060402	4.66447822973701E-06	-9.58186238630567E-07	-3.66036414360921E-06	2.43813521092353E-06	-0.977570860606688	0.0369838789697127
5.1	-0.62750684911047	0.752340777654003	4.07432879806032E-06	-1.69655629068126E-07	-2.69083772115647E-06	-9.65443125896122E-06	-0.966533106891965	0.153610565579891
5.2	-0.568369681953296	0.800389386785427	2.49432679940918E-06	-1.48051076062951E-05	1.37674250713366E-06	2.77562189587101E-06	-0.941452631688642	0.27438924592979
5.3	-0.504318786305265	0.843048733147046	-8.5917571113098E-06	-7.30312309807499E-07	-1.11822403992295E-06	1.62064747052664E-07	-0.899223291122564	0.390974550989634
5.4	-0.437342416446018	0.880394052465043	-7.09981756826382E-06	-1.08872726965352E-05	-1.35220712460937E-05	1.10576922693817E-05	-0.842094077369908	0.499885148210195
5.5	-0.366689383096164	0.912076160478406	1.88500426515326E-06	8.8019545343272E-08	-2.2215787677499E-06	1.7653707878756E-06	-0.773651334099826	0.5995160878982
5.6	-0.294898186199895	0.936193550994036	-2.37251500655166E-06	3.48346764890941E-06	-1.32363574596271E-06	1.27939545782473E-06	-0.693901248123543	0.691286623709105
5.7	-0.222074949613693	0.956166169018868	1.29242863570039E-06	1.21288000851166E-06	5.68927868935593E-06	-1.30701223568494E-07	-0.602815789788144	0.772453701786927
5.8	-0.148126432277546	0.969851473324395	2.66689256121687E-06	4.19536434649556E-06	-2.07822528124872E-06	4.18249928481686E-06	-0.502260665652344	0.841021707300104
5.9	-0.0755044754387987	0.978860397426321	-6.76277111515372E-06	-2.28527944294984E-06	-9.71243176922437E-08	6.1835303739118E-06	-0.396018222732623	0.896717799585611
6	0.000265377486849825	0.988673920905871	-1.77280527147339E-06	6.96081060274726E-08	-5.3529426925928E-06	-4.39802091564716E-06	-0.282858237736264	0.944001405587311
6.1	0.082513976555477	0.984790918394715	1.16149203875106E-07	-9.84825034921245E-06	-9.52629423346621E-07	-3.20079687818506E-06	-0.158907368456086	0.972044578276707
6.2	0.159929812088379	0.973487862426317	-1.03598545693914E-06	3.08547299189851E-06	-1.77568320537472E-06	4.17509317805209E-06	-0.0354359353658458	0.982665485205626
6.3	0.235682374975338	0.957309973185352	-8.19396723711673E-07	2.80883934325117E-06	-2.93700700994863E-06	2.36253280555739E-06	0.0873686114054439	0.978723187891327
6.4	0.310602548228607	0.937756156427047	-5.98405768202393E-06	5.48962488078478E-06	-2.3693079509667E-06	-7.61843062911273E-07	0.209506085980562	0.962083309964298
6.5	0.39069452404831	0.908444487832468	1.39946022191002E-06	-5.2695433226397E-06	-1.44775082994497E-06	-2.3728299587297E-06	0.335457069871168	0.926147206173648
6.6	0.45652282558699	0.868343846899312	3.62232191682454E-06	2.02058159628214E-07	1.12020391447751E-05	-2.67330664875717E-06	0.444153193367903	0.870167518774541
6.7	0.520210316829343	0.830798519100086	-7.68752636517603E-07	8.36989018182792E-07	-3.73538678036515E-06	5.16784782183459E-06	0.545765060853869	0.809126070722853
6.8	0.582933268288088	0.788180909988386	-1.74699750874848E-06	4.4280878848094E-06	1.43869948393349E-06	-8.68359384402826E-07	0.641179216731302	0.735772164841135
6.9	0.642240982579296	0.740806990720569	5.82442877136563E-06	2.24641174553981E-06	-9.30180209724328E-07	2.3767266408708E-06	0.726814223825862	0.651343604542173
7	0.699007252128069	0.689102963848732	1.17313580549886E-06	-4.08427931603888E-06	-1.4431132017316E-06	2.86375374781631E-06	0.803617747382088	0.557312497778181
7.1	0.751115765447681	0.631501739058629	2.45349368182585E-07	-7.10012253926937E-07	1.86579324419984E-06	9.13457247253502E-06	0.867083937114466	0.451224288290173
7.2	0.798021728820661	0.570072227295738	1.39375624744004E-06	-2.38362778839089E-06	-9.34995464467164E-07	-8.50641767471317E-06	0.915461360036576	0.339335023525385
7.3	0.839632453372505	0.504380742676431	4.75043423790792E-06	7.19286906591054E-06	-9.64514677261899E-06	2.25439040203546E-06	0.948839094719657	0.221847351710069
7.4	0.873828728688658	0.435610655516366	5.02929012052659E-06	-6.54162081572589E-07	1.9506440543767E-06	-9.4999204621288E-06	0.964451553105446	0.10223185328204
7.5	0.903854827338619	0.370943094444034	2.75077877434601E-06	-5.16840798213839E-06	2.13737258835336E-06	-7.10621430998798E-06	0.969729653820521	-0.0100593582272574
7.6	0.934927452775009	0.298263097977339	-2.18600747627674E-07	-5.55664457472574E-06	1.64558430221093E-05	4.07863657655222E-06	0.966562285143273	-0.132587009589915
7.7	0.956325945578979	0.22259558645062	3.46704284054436E-06	1.69981474368282E-07	3.69848228402714E-07	-2.87866095258377E-06	0.943067593444902	-0.252950397699762
7.8	0.971540245696278	0.146736905766115	-1.07976407220304E-05	-2.11608291841526E-06	-2.69689898256757E-07	3.39054815904693E-06	0.905641954637039	-0.36835437219574
7.9	0.982019637640568	0.0724630467938799	2.28097223929206E-06	2.06994743350859E-06	-6.75362294825459E-06	-4.83950970591641E-06	0.856788277228502	-0.476794756901465
8	0.995804042348875	-0.00646423257552683	2.27463936252965E-06	3.02320146173775E-06	-9.14266213869307E-06	-7.8673687042179E-06	0.800291881252573	-0.588029083548163
8.1	0.991712657241398	-0.0953467159451068	3.90440201701147E-06	-3.0152169871445E-06	2.2176286258842E-06	-3.16203256562375E-06	0.713853750514486	-0.692162355629079
8.2	0.978469422299977	-0.175214858215239	-4.07531708571434E-06	1.35841165686598E-06	-6.78772781345043E-06	2.55520779168722E-07	0.618481134732972	-0.775323276169348
8.3	0.960600440316534	-0.25331267615462	9.90310355763506E-06	4.4094928472928E-07	6.11956500319754E-06	1.05861920698906E-05	0.515605706269597	-0.846320125179916
8.4	0.937091111396498	-0.329989874198192	1.25791314229081E-06	2.58400545196979E-06	3.45234801339879E-06	1.87478006599926E-06	0.404928362325175	-0.903676633391232
8.5	0.907639499563807	-0.405796957760182	-4.91636684892264E-06	4.90679296711816E-06	2.89848137845408E-06	-2.98904219643384E-06	0.290658512235113	-0.947119909192322
8.6	0.870945627336306	-0.478320099728534	-4.55117928110733E-06	2.02434223588726E-06	-3.18088304583423E-06	8.10340614495986E-06	0.169193207011966	-0.979842459236405
8.7	0.829398250217365	-0.547480514582769	-1.04761599829122E-06	1.20892396488993E-06	-7.03192505679167E-07	3.47831739736233E-06	0.0429234350859892	-0.99504343021695
8.8	0.782379213563221	-0.613501748449031	-1.64554041807196E-06	3.08712462915596E-06	-6.0875709807301E-06	1.21052998251166E-06	-0.0846002408343358	-0.99434428141873
8.9	0.729334375450772	-0.675866830295106	3.23595961595514E-06	-1.82165424940055E-06	-3.20203156447228E-06	-4.97223503173323E-07	-0.213997573652567	-0.974928727184315
9	0.671231799529917	-0.730668025074004	-7.35947274958179E-06	1.32206871651473E-06	-4.01746723737652E-06	7.09220766915872E-07	-0.332784301623239	-0.933153256447079
9.1	0.611732512499123	-0.783288512359095	-3.36372047686178E-06	-1.92454165854219E-06	-1.00857924669685E-06	2.14231974041349E-06	-0.444324995477297	-0.887686660304203
9.2	0.545536313208996	-0.831134802981362	6.04103246567668E-06	-1.60376275868218E-06	1.93230737162385E-06	8.55712610037035E-06	-0.553199741842001	-0.826178315217571
9.3	0.475190837318867	-0.872606952756799	-3.50095812596025E-07	1.07428944774225E-06	1.36537234460003E-05	1.20133850637624E-05	-0.652774902604127	-0.750412675927928
9.4	0.401024023337887	-0.905002801328264	1.7623074043418E-06	-2.65385307371244E-06	4.28467107358003E-06	1.80439784056324E-06	-0.739864734083181	-0.661524015663321
9.5	0.334212724677861	-0.93248300070521	-6.44353562211583E-06	-5.03663829900201E-06	-1.84565333496939E-06	-5.76825072144612E-06	-0.813754755305188	-0.571465847046631
9.6	0.254148851292532	-0.965419408596505	-1.18391710820821E-05	-4.60832725571887E-07	-5.93946589592333E-06	-4.16934416920094E-06	-0.889391844885201	-0.466696449285163
9.7	0.168659846620225	-0.982774472997756	1.49625429649845E-06	-4.66659502728981E-07	-2.98276007153209E-06	1.6288053244707E-06	-0.944467065414144	-0.347144803431534
9.8	0.0845276730532213	-0.991124024347265	2.22439072211057E-06	1.44662872791992E-06	1.53733553324279E-05	-3.38953084822071E-06	-0.981821191367122	-0.223220404702231
9.9	0.00189289605808858	-0.992161899808672	-3.60974005439837E-06	9.08454447487565E-06	1.3935575885164E-05	5.2122982642679E-06	-1.00340521318928	-0.0952728133030029
10	-0.0799672950109933	-0.989008177898083	-3.71985055683492E-06	1.62106107774794E-06	1.97165898594921E-05	-1.83318527752069E-05	-1.00652587425537	0.0337391371266149
10.1	-0.163732936027809	-0.975578385612334	-1.51839856045861E-06	2.33169075005164E-06	-8.53494012135546E-06	-4.43520722154942E-06	-0.995440065032217	0.160673288173136
10.2	-0.242339882004188	-0.954982558369341	-2.34027393384973E-06	-1.2776090328627E-06	-1.31872102328252E-05	7.26417429644301E-06	-0.96836078733362	0.286281223561236
10.3	-0.317670918023762	-0.929208762496606	5.84251707798993E-06	4.04003018482074E-06	-6.27230919067744E-06	1.35914495064011E-06	-0.926667012787434	0.407470366093352
10.4	-0.391041063300025	-0.898176867026034	2.13895144789935E-06	1.0853833411189E-06	7.81037133414597E-07	-8.39362058544728E-06	-0.870918841927366	0.525614955458692
10.5	-0.46087781594319	-0.859849866976154	4.48155887596304E-07	-3.12758494611712E-07	-6.62141974636249E-07	-5.77155347968668E-06	-0.790827637083218	0.639359875048472
10.6	-0.525833989062693	-0.816744676046649	5.19040749486933E-06	-2.67270984052141E-06	-9.97363943694325E-06	-8.02384196761133E-06	-0.697842029652188	0.728890624399277
10.7	-0.586568668732002	-0.769194742141126	-2.87181980507428E-06	-5.02155917927782E-07	-5.35457391234377E-06	-7.29124074507632E-06	-0.599955580412167	0.808291460430888
10.8	-0.643940128280758	-0.718699896342013	-3.70313199161115E-06	-3.49199276827464E-06	-1.21496078196188E-05	9.38567303315238E-06	-0.493446062515587	0.876108843382083
10.9	-0.699421897652034	-0.661934382810992	-1.16952791998642E-05	-1.05015419479285E-05	-4.45039914696084E-06	1.12053598972336E-05	-0.377402495825738	0.931515052778945
11	-0.73978309009462	-0.600212583573871	1.03463495274937E-06	1.41443466122685E-06	8.70097878540313E-06	-5.63807998350146E-06	-0.254468294805428	0.964746484787737
11.1	-0.782777849065804	-0.549477264818319	-3.45588547057888E-07	-3.67850892732213E-06	1.02752828375188E-05	-1.03748889859898E-05	-0.136944918470068	0.988452015836075
11.2	-0.827603428674068	-0.488696518918401	-1.06929953196776E-06	-3.9680198366184E-06	2.15999789145943E-06	-6.4202830721523E-06	-0.0109015267085276	0.999205308350884
11.3	-0.86668654486083	-0.421669541985602	1.57172780618371E-06	-1.22421463336876E-05	3.60026563339952E-06	-2.8915700432623E-06	0.115829582193409	0.992262969332545
11.4	-0.897125887245125	-0.350795819707014	1.00053835593899E-06	1.05149232051945E-08	-5.71427886200464E-06	6.59829092636284E-06	0.240956941928069	0.96920053059047
11.5	-0.921941292508745	-0.284990472986997	6.63645140510092E-06	-1.29746626951057E-06	8.35870957321458E-06	-3.65339229947245E-07	0.36185676592332	0.930076801008268
11.6	-0.950670131657968	-0.210857636689987	-6.99241135248741E-07	-5.41141942909415E-06	1.43348478997298E-06	-3.14559210957357E-06	0.476293030220105	0.875024255425898
11.7	-0.966989859210776	-0.129921370167658	-1.66384186202964E-07	-6.13649815179559E-06	8.74571562690724E-07	-2.70824575065674E-06	0.581754855391174	0.806648560009353
11.8	-0.975221619842398	-0.0480964690395839	-1.09442157547096E-06	-7.36586666873672E-07	5.24496996908704E-06	1.02615851213069E-06	0.676967518179589	0.726580226569399
11.9	-0.975788208944796	0.0355331672684834	-3.31323108672608E-06	-5.22626210417102E-06	-5.54059709288966E-06	-8.03194128885383E-06	0.760197458164354	0.640243602437014
12	-0.965921080273718	0.11744426323576	-2.96704821888506E-06	1.69957429316989E-06	-1.70680479823582E-05	-8.67845214495527E-06	0.845430113987049	0.544056340640601
12.1	-0.952847855603737	0.195486336242186	8.11001710527658E-07	-1.59966273748314E-06	8.1483719696947E-06	1.2303599611436E-05	0.907003429367906	0.423915114383469
12.2	-0.932513686893668	0.272647497239976	-4.05832822754723E-06	5.66848944828272E-06	4.72042187472566E-07	3.33835518354539E-06	0.950478995914096	0.304854948675955
12.3	-0.908134488723606	0.347364553791512	8.00530627979466E-06	6.33003888908999E-06	5.88945879785174E-07	1.09901928854155E-05	0.980566113517746	0.181997317546411
