# GHZ S RI R 50
0.2	0.985822382322719	-0.156979405030968	2.56441966844196E-06	2.24969312369891E-06	6.56997046946043E-06	-4.86903056426098E-06	-0.966322189075888	0.251707311114628
0.3	0.969738522685395	-0.234125030182293	-8.74162121840967E-07	-5.45359295755594E-06	-3.46697212756517E-06	-7.94486885688502E-06	-0.926665313689944	0.371687559515593
0.4	0.948198715883846	-0.30944404829166	-7.27844415508982E-06	-9.90653973949706E-07	4.44090862441785E-06	1.54466611193537E-06	-0.87193710710396	0.48538012438805
0.5	0.921384809495945	-0.382941841636551	6.19976165066063E-06	2.10466425789228E-06	-2.41410387936109E-06	-1.90798663311492E-06	-0.803518577090929	0.591587692026661
0.6	0.888372659051979	-0.454179259008366	-1.05519060511898E-05	2.46255785438797E-06	-2.21874730913197E-06	-1.00686101964695E-06	-0.721984438941806	0.688020269165766
0.7	0.850035791833489	-0.522105581302579	2.78413412992392E-06	-1.17260094029882E-06	-2.98672575080435E-06	5.7891335068675E-06	-0.629380219876567	0.773454529474323
0.8	0.806434211569319	-0.587156827583491	1.17503283277954E-06	-8.47619758269686E-06	-6.6212763413692E-06	-3.06898567324009E-06	-0.526702453045563	0.846426308678256
0.9	0.757800023208971	-0.648674779666188	-1.14677975929424E-06	-6.80782108107526E-07	2.54902630691096E-06	6.54252929064325E-06	-0.415806647745728	0.90574911435395
1	0.704326876389793	-0.706185473109369	-2.7444169063656E-06	-3.22150359834046E-06	-4.05615445965706E-07	-7.31446937283303E-06	-0.298612839387539	0.950429453710974
1.1	0.647484991228252	-0.759392502142088	1.80674519036865E-06	-4.93951959100488E-06	2.2700680047008E-06	-5.13290875297251E-06	-0.176546314544821	0.980272924155028
1.2	0.585218372180338	-0.808930843761149	-2.49566139423388E-06	2.49047618851954E-06	9.26062684797519E-07	-9.10457037850526E-07	-0.0514197193479288	0.99428228842928
1.3	0.517598905349556	-0.853528457929343	-1.53782969279146E-06	7.19055877857943E-07	-1.35544380177876E-06	1.46286522737461E-06	0.0744646324078011	0.992716409305851
1.4	0.446749619674939	-0.892189120539862	3.92179594008904E-06	-3.24085696060566E-06	2.7041905701003E-06	1.09384094104931E-05	0.199780598249917	0.974815804105632
1.5	0.37390902376394	-0.924335881663656	-5.33627945744706E-06	1.11157159910057E-06	6.58623707144556E-06	-7.20842119163492E-06	0.321458667849218	0.941439133206367
1.6	0.300319489721938	-0.950902787527898	1.77250642492497E-06	-7.73884660783423E-06	3.63218213874101E-06	1.38065493927876E-06	0.437402400580249	0.892938543138976
1.7	0.225715043030231	-0.97113469244518	-1.94179673955722E-06	-9.68200303341816E-07	-2.36656531806504E-07	-2.08661590335063E-06	0.545582660561519	0.831082890942901
1.8	0.148993727703231	-0.985708792660163	2.8534177835396E-06	5.27669769782702E-06	5.30844646904492E-09	2.03119726744821E-06	0.645521696091792	0.755768610022228
1.9	0.0715391586838716	-0.99415295396163	5.67122241870562E-06	-2.63363143488878E-06	-2.99695067420465E-06	4.17214800097996E-07	0.734590597739684	0.668669057322619
2	-0.00517672530362375	-0.996643360769204	-1.54845510894059E-06	-2.02621704645533E-06	3.21339913517405E-06	1.14564555738844E-05	0.81237441712737	0.571127921247713
2.1	-0.0839358813683763	-0.993769631629486	-7.55492474394614E-06	2.45893404513782E-06	1.20981063360493E-06	5.14700529332852E-06	0.877520057675848	0.464478326119751
2.2	-0.160812576267031	-0.984361858913859	-8.8253505186051E-07	1.39499014136572E-06	3.00825626909026E-06	7.77647721290393E-06	0.928718288060541	0.350532249231226
2.3	-0.238102377823	-0.968383455445031	1.83369363759224E-07	7.45393792636738E-06	7.40277665966204E-07	9.3844081715925E-07	0.964698805891798	0.2316413252399
2.4	-0.314068862153505	-0.946011381743159	1.58209986955848E-06	7.17342158253998E-06	1.52360648503263E-06	6.38681214454476E-06	0.986074169042504	0.108258537214414
2.5	-0.387279476211139	-0.918368088478049	4.38942843591796E-06	-2.31458512734676E-06	-1.91556973016337E-06	-7.57006554577542E-06	0.991352859224302	-0.0160053236333744
2.6	-0.458374099202874	-0.884704640213247	6.76896410116653E-06	-5.94400558969153E-06	-1.10983037593281E-05	1.08259911861492E-05	0.981438589884599	-0.140408236954784
2.7	-0.526787564127862	-0.845716062642557	-4.44384535108553E-06	9.14104665844633E-06	-2.87105655379418E-06	-9.1590075281586E-06	0.955832879411904	-0.262673545205676
2.8	-0.591076811022367	-0.802028345288683	2.45753979398082E-06	1.14435031244627E-06	-3.12855603636121E-06	1.24303854758467E-06	0.915894783313703	-0.380324810920824
2.9	-0.651521719814149	-0.753879853583394	-5.50240462338334E-06	6.01465819577815E-06	-9.19525167538633E-06	-2.86150762513469E-07	0.861009118620198	-0.492049714264882
3	-0.708588249605876	-0.700363496228828	4.72702599717452E-07	-1.47342998546381E-06	1.13287751655229E-05	1.46478624807123E-06	0.792415472628811	-0.59646185365901
3.1	-0.761074159759838	-0.643357209948013	2.40600978205408E-06	1.04985034659723E-05	4.32609258821031E-06	2.17449856477263E-06	0.711382744706103	-0.690679888506962
3.2	-0.809158228928271	-0.582477585589601	2.10516643723704E-06	6.46689114079316E-06	4.00066858187297E-06	-1.06073077605937E-05	0.619406844315211	-0.774151708064144
3.3	-0.852420575039281	-0.517958365082221	3.08264513890903E-06	4.96204933585829E-06	-2.22620898592321E-06	-9.66958867137352E-06	0.516561090401297	-0.846026726217651
3.4	-0.8897152233951	-0.450305843804652	2.12435713786338E-06	-2.60456293826259E-06	5.95809388184375E-06	1.38062401035391E-06	0.406742657039406	-0.904053529514104
3.5	-0.921818371182056	-0.378579424521388	-3.23779801129566E-06	9.46799931962099E-07	-2.07116270597493E-06	3.42196254324058E-06	0.289776033793797	-0.94755138138384
3.6	-0.948659606035624	-0.305536875742362	-1.81257157072799E-06	-3.74287175221006E-06	-7.82147094535922E-06	4.10575084125279E-06	0.168758565170672	-0.976674709473773
3.7	-0.96976598077413	-0.230524313442087	8.20619133153264E-07	-8.32568224294739E-06	1.07672090081174E-05	3.69449181966411E-06	0.0440617666108284	-0.990206542948103
3.8	-0.985013058913447	-0.153100631733636	9.23251295068367E-08	1.54646612880928E-06	-6.5161225675002E-06	5.95138450614839E-06	-0.0805750948780888	-0.987824403649252
3.9	-0.993652902931425	-0.0752543559136845	-2.62743010970067E-06	-5.0264947707792E-06	-3.7021127499332E-06	8.02404654056754E-06	-0.205655043932163	-0.969982215197985
4	-0.996096645850056	0.00369032678306298	7.12990344597893E-06	-3.81768135588983E-07	-1.04500222487381E-06	-1.2058185917686E-06	-0.325753655503065	-0.936818436341898
4.1	-0.992813412839265	0.0817318167377268	6.19762889497989E-07	-4.44088108911567E-07	7.35433218878496E-06	-4.75850522356635E-06	-0.441707970714405	-0.888380064082071
4.2	-0.983593749211669	0.159684989931348	3.20687685655358E-06	2.1032452148473E-06	-7.18802829708512E-07	-7.62163095164801E-07	-0.550136919645139	-0.825232467836151
4.3	-0.968423553315205	0.235781982843745	-3.19073212724208E-06	1.37330424963926E-06	-4.99832450719932E-06	2.9837375151782E-06	-0.649436934535244	-0.749897245713609
4.4	-0.947353467742122	0.310662006783073	8.03808052869198E-07	2.64381543061201E-06	1.55634237726798E-06	-8.33581427013893E-06	-0.738450910245976	-0.662676926386996
4.5	-0.920167257556758	0.384293391245741	1.8263126015992E-06	-9.39062132488898E-07	7.63901655427994E-06	-2.49412652690513E-07	-0.816508306625734	-0.565002092308819
4.6	-0.88650567939284	0.45563162629761	-7.35218250650247E-07	6.13798940128089E-06	-1.23559289727907E-05	-6.50467570593721E-06	-0.881224505428471	-0.457689478678313
4.7	-0.848188169476727	0.522746092952501	1.20135246870652E-06	2.51627899279232E-06	1.42175533243049E-06	1.87082398941495E-06	-0.932222210748757	-0.34341704476694
4.8	-0.804032678272655	0.588118585885442	-5.19756149175564E-06	1.11454778245757E-05	5.2346163379973E-06	9.71385398811664E-06	-0.968128766464203	-0.223095351068975
4.9	-0.755200504301316	0.649376994134133	1.19949684379389E-06	2.93861626896593E-06	-4.7962554899735E-07	-6.9283907915472E-06	-0.98870131776984	-0.0987940291106839
5	-0.701151682672293	0.706658909417727	4.74972733234272E-06	-9.11362005284325E-07	-3.74957778827465E-06	2.42762424051353E-06	-0.992594152504643	0.0273939724486074
5.1	-0.643102050227371	0.759025153346113	4.13982001345717E-06	-1.40088727427007E-07	-2.65681343017673E-06	-9.82772796474776E-06	-0.980837590031119	0.151755620805023
5.2	-0.581651302301792	0.807701607679254	2.63045959753633E-06	-1.50118439392123E-05	1.37904272319742E-06	2.82665186686274E-06	-0.954077697810048	0.274191848344531
5.3	-0.516342849308308	0.851623235523276	-8.72161324658963E-06	-7.86205973050639E-07	-1.13645763428987E-06	1.58789477812374E-07	-0.911943306917263	0.39238377411501
5.4	-0.447661725762198	0.890212698706228	-7.18325216406189E-06	-1.10729295789489E-05	-1.37580906221949E-05	1.1195968470599E-05	-0.85505196959236	0.503729775814956
5.5	-0.376064418182591	0.922648165082146	1.90691098976305E-06	9.17569630730313E-08	-2.25008276159646E-06	1.78281341809246E-06	-0.785795532559125	0.606797659371165
5.6	-0.302529632820484	0.948728229539472	-2.41706140672393E-06	3.51778834929257E-06	-1.34573139553125E-06	1.29012292949322E-06	-0.703742870278308	0.700813727601309
5.7	-0.227259414862319	0.96978327415956	1.30722445087537E-06	1.23510646194683E-06	5.77318076801516E-06	-1.13094446229387E-07	-0.610447619678637	0.783558577893179
5.8	-0.15039822960234	0.984496623928689	2.7035687890607E-06	4.26913078586079E-06	-2.11972856078823E-06	4.24782490001165E-06	-0.507328983949408	0.853623438678937
5.9	-0.0728122912370122	0.993320563166635	-6.89465579624818E-06	-2.3101103022226E-06	-8.27365471107053E-08	6.29890041385756E-06	-0.396916975603718	0.910031061535365
6	0.00496586238602568	0.996687503083047	-1.79502601610481E-06	8.68356764010156E-08	-5.46248539581737E-06	-4.40542960449006E-06	-0.281021613942751	0.952723291202174
6.1	0.0841437976674321	0.993368116717638	6.29434117001097E-08	-9.93681545300805E-06	-9.78764054777731E-07	-3.22412670626155E-06	-0.159543156501491	0.981104524961941
6.2	0.162981889088657	0.983024456801182	-1.03040017793731E-06	3.11848743874091E-06	-1.7715161640283E-06	4.22158170110353E-06	-0.0345241036959768	0.993244668985664
6.3	0.24071728883155	0.966437653591561	-8.11930680387483E-07	2.8371947476541E-06	-2.95003310786483E-06	2.39798942062503E-06	0.0908889858579912	0.989370119630643
6.4	0.316651744721293	0.944025966590023	-5.99460766500613E-06	5.55682158869783E-06	-2.3888060605927E-06	-7.54467639910785E-07	0.214794600088935	0.969938034966868
6.5	0.391642684891369	0.916211974451424	1.41175312641382E-06	-5.29846834447647E-06	-1.45407239469133E-06	-2.38755314017135E-06	0.336045466581959	0.935534289052926
6.6	0.463177585351344	0.880941186997674	3.66894312617084E-06	2.07135562882477E-07	1.13484635160265E-05	-2.70017940021242E-06	0.451569611059299	0.884537188501571
6.7	0.531039059217156	0.841087696012549	-7.77838231378432E-07	8.5122076651852E-07	-3.77669016630673E-06	5.25310746544104E-06	0.558363922207572	0.820321554266262
6.8	0.595899164176882	0.796224861622823	-1.75375605509156E-06	4.50375526418764E-06	1.45680361457066E-06	-8.88144635982693E-07	0.656372696725482	0.743519276591503
6.9	0.656993374251777	0.746346713931533	5.93779198601544E-06	2.24475830268278E-06	-9.29733039655053E-07	2.42307742554532E-06	0.743733274437422	0.655093804598428
7	0.714018024019698	0.691644313181927	1.13901213366865E-06	-4.1595348186692E-06	-1.42837380538912E-06	2.92434368690337E-06	0.819360596532121	0.556843678680951
7.1	0.766356086561948	0.632587639420431	2.40107894746326E-07	-7.19936963962695E-07	1.98449585313757E-06	9.20746539270124E-06	0.882414613080257	0.449646854134047
7.2	0.813779472471066	0.56934758524587	1.38576218757729E-06	-2.4208455954667E-06	-1.02364266218703E-06	-8.58426674913746E-06	0.931195039198131	0.335439818551847
7.3	0.855980527670719	0.502220992197887	4.85965338120093E-06	7.2326887148306E-06	-9.73157828445913E-06	2.35624356940608E-06	0.964903965338709	0.215786687324658
7.4	0.892816324059826	0.431596375267626	5.09939542359028E-06	-6.97737507123795E-07	1.91554098720289E-06	-9.65381057758602E-06	0.983062603174982	0.0925266080672132
7.5	0.923383560201955	0.35897837971983	2.72876206116823E-06	-5.30784262866544E-06	2.07542897227134E-06	-7.27406429797068E-06	0.985166783587193	-0.0304337035204203
7.6	0.949618869477834	0.284048518656721	-3.19948858978131E-07	-5.63003982552248E-06	1.67568139733007E-05	3.84421028533832E-06	0.974001071132294	-0.15326589331046
7.7	0.969515694783176	0.206653995242468	3.5140930650032E-06	1.08303095233943E-07	3.21534469687369E-07	-2.92193726796059E-06	0.947156598988882	-0.274351792069245
7.8	0.982968606867743	0.128029397024147	-1.09654027008019E-05	-1.91739263675459E-06	-2.02763745448591E-07	3.43507349141492E-06	0.905519263252955	-0.391112690420283
7.9	0.989832676534749	0.0488481371928097	2.35238577168414E-06	2.03080912644627E-06	-6.93284794489883E-06	-4.71250017801771E-06	0.849774950429337	-0.501558176740566
8	0.99165566504548	-0.029865204987511	2.34645481432636E-06	2.95834195413408E-06	-9.32217941905485E-06	-7.61646878561666E-06	0.781857985766041	-0.60498355190001
8.1	0.986847648760775	-0.110713206657893	3.83583896332458E-06	-3.07074255551779E-06	2.15346083930796E-06	-3.18759762808341E-06	0.699290883710286	-0.700445719619242
8.2	0.97447140434159	-0.189979648786954	-4.04335564587781E-06	1.41923102394673E-06	-6.7661729752492E-06	3.62000552856139E-07	0.604991356954485	-0.783048012580609
8.3	0.955447415578145	-0.267994394132623	9.88344480111884E-06	2.89157228594522E-07	6.26428008607776E-06	1.0464934654771E-05	0.501260596451417	-0.852671582612288
8.4	0.93013890691598	-0.34418296178148	1.29050635878198E-06	2.56000199713445E-06	3.46953028652915E-06	1.82218322741376E-06	0.389797140782308	-0.908751752274293
8.5	0.898812324020184	-0.418405579676594	-4.84235901796655E-06	4.9796281841559E-06	2.85341137520981E-06	-3.03196986496288E-06	0.27223349019683	-0.950132378207892
8.6	0.861306809933884	-0.48973269536101	-4.50315645640201E-06	2.09922804092412E-06	-3.0292348363192E-06	8.13769229303371E-06	0.150480432277184	-0.977301801752464
8.7	0.818363723395363	-0.557707382550752	-1.020963201226E-06	1.2205945393463E-06	-6.38981512627029E-07	3.47175581471801E-06	0.0256765402054802	-0.988546914748841
8.8	0.770135989359561	-0.621900510638645	-1.58163721742322E-06	3.08961884007281E-06	-6.01917459003097E-06	1.30106262861245E-06	-0.099140632409244	-0.984121876617854
8.9	0.717035545450851	-0.682145555407994	3.17771779075755E-06	-1.84525940599437E-06	-3.17483345266616E-06	-4.49605722372041E-07	-0.223094402221299	-0.963665883768158
9	0.658660942781257	-0.737343415004987	-7.29585847506677E-06	1.38388527458146E-06	-3.98286116261112E-06	7.43052136184571E-07	-0.343100158558762	-0.926755519474274
9.1	0.596911183522678	-0.787539611227235	-3.36503425128419E-06	-1.87072753051486E-06	-9.75739088962239E-07	2.14050273036281E-06	-0.456409086657931	-0.875856166094268
9.2	0.530678777952354	-0.832761602973444	5.97748511069934E-06	-1.66356752237866E-06	2.0195229427776E-06	8.47113569493375E-06	-0.562565825694709	-0.811861793057988
9.3	0.4610470964128	-0.8723519489284	-3.35216225419235E-07	1.07082467171021E-06	1.36972069665539E-05	1.1771356380731E-05	-0.659842401122503	-0.734888107401442
9.4	0.38781534814685	-0.905826734842736	1.72110336640552E-06	-2.66284633735974E-06	4.28635022401815E-06	1.74287314368091E-06	-0.746265486583439	-0.646533134697228
9.5	0.312809135892571	-0.931993355908343	-6.49906557737639E-06	-4.86995205728546E-06	-1.9491051108854E-06	-5.6893525004231E-06	-0.821370351905796	-0.54854066093108
9.6	0.235389893849603	-0.954207455650595	-1.16714861060473E-05	-2.53990213036623E-07	-5.92187350496814E-06	-4.00720754348887E-06	-0.885798664768001	-0.441586162471141
9.7	0.155172127058644	-0.969240873059368	1.46678480831251E-06	-4.79630814129255E-07	-2.91458378244651E-06	1.64384646242995E-06	-0.935482096387869	-0.325436967676544
9.8	0.0741535187729904	-0.976954440056214	2.20680436941742E-06	1.39676401587147E-06	1.50892783218094E-05	-3.52261201311498E-06	-0.968988682332145	-0.204337761079482
9.9	-0.0069770925126624	-0.977273583444065	-3.44524136830381E-06	8.96898069841912E-06	1.3754638817205E-05	4.96554940081569E-06	-0.986979699682303	-0.080109490606294
10	-0.0864641120624152	-0.970612932348009	-3.63743559035845E-06	1.62159259939891E-06	1.91995620458147E-05	-1.8153833371302E-05	-0.988808921203723	0.044896017691768
10.1	-0.165111654618784	-0.957551849837949	-1.47605931056044E-06	2.30227942581549E-06	-8.41944259088656E-06	-4.2994958338715E-06	-0.975884012904364	0.169052252960368
10.2	-0.241542658089956	-0.937947620550691	-2.30872865967712E-06	-1.23857838658065E-06	-1.29056167544617E-05	7.23246373733681E-06	-0.946951245815306	0.290988592783394
10.3	-0.314863670885673	-0.912311439996564	5.76338315590297E-06	3.92221728681532E-06	-6.14573821788792E-06	1.37969327089858E-06	-0.903244776951662	0.407754083679591
10.4	-0.385860192467872	-0.881483871162384	2.10063552377926E-06	1.04695806430965E-06	7.05012051037732E-07	-8.21871520102595E-06	-0.845512829472079	0.517853773930362
10.5	-0.453738103295119	-0.843585060655346	4.36694313845942E-07	-3.06104639614368E-07	-6.5778807570897E-07	-5.63073862076055E-06	-0.774375026920238	0.621324013070921
10.6	-0.515970640934634	-0.800580381321518	5.07999085379414E-06	-2.61241287895441E-06	-9.75457466208283E-06	-7.856209252223E-06	-0.688749931840583	0.713828227749858
10.7	-0.573732523663393	-0.753821698701331	-2.81041321267707E-06	-4.95435692403494E-07	-5.23145430840616E-06	-7.14433425953586E-06	-0.593285499697349	0.793750876314312
10.8	-0.627252538535868	-0.704716826821514	-3.61297769718618E-06	-3.42835959294766E-06	-1.19175183614403E-05	9.1470924699923E-06	-0.489176940777274	0.860983574773809
10.9	-0.678093973846897	-0.653194738924078	-1.13766775100558E-05	-1.03684209412758E-05	-4.43923259280382E-06	1.09407342333564E-05	-0.377939742315644	0.914973108960845
11	-0.724261653003018	-0.597949933891833	1.01051111468175E-06	1.40226653579846E-06	8.62103194433928E-06	-5.49965713916501E-06	-0.260092657364467	0.954039807731838
11.1	-0.766555054712607	-0.542330072847346	-3.28926511326531E-07	-3.62027044586799E-06	1.01409786296386E-05	-1.01767078918237E-05	-0.139935782026223	0.978860191389737
11.2	-0.807217195837025	-0.483769521374815	-1.03174040493526E-06	-3.90285071147346E-06	2.15195346473127E-06	-6.2965614210544E-06	-0.0155429756890461	0.989139983167444
11.3	-0.844582889729994	-0.420965957890249	1.6217493017338E-06	-1.2019655827409E-05	3.55601388437008E-06	-2.81862619569446E-06	0.109662782056436	0.98303399350805
11.4	-0.876778606668776	-0.354493981956465	9.84739168790736E-07	1.71841722179955E-08	-5.66952865491567E-06	6.45553964968337E-06	0.233430992624126	0.960837917246786
11.5	-0.903187117805507	-0.285801076265166	6.52924267000194E-06	-1.24363786626604E-06	8.21762573008816E-06	-3.19222412556578E-07	0.352039884002336	0.922856130260387
11.6	-0.926011198093942	-0.215374650818492	-6.42115114646576E-07	-5.31471771782849E-06	1.43188311048869E-06	-3.07445486611014E-06	0.465446794817657	0.870454176449708
11.7	-0.942827633135551	-0.140750966362415	-9.98224273865208E-08	-6.03041546054304E-06	8.87292688782659E-07	-2.65159656662719E-06	0.571028727869821	0.803918242852796
11.8	-0.953488757058106	-0.0636974625968114	-1.06854306061342E-06	-7.37502467034138E-07	5.14981562103425E-06	1.07032550452029E-06	0.667026950514417	0.724635577730689
11.9	-0.957780406240672	0.0156956746079623	-3.20732024011106E-06	-5.18709462340297E-06	-5.37131842363637E-06	-7.97671234681411E-06	0.750505713008552	0.635023216744175
12	-0.954182335773185	0.095958784119173	-2.93747872796848E-06	1.6354250008012E-06	-1.66768392934983E-05	-8.73689324415194E-06	0.823117083705258	0.538269301677466
12.1	-0.943657590704609	0.174594250842019	8.24314278090068E-07	-1.56310048094709E-06	7.83268841065553E-06	1.22502435479367E-05	0.884183918808178	0.430954628743534
12.2	-0.926118468330894	0.252155606578229	-4.09910025816576E-06	5.53206687110496E-06	4.1223479666288E-07	3.30422565423306E-06	0.930925639420161	0.317048561260824
12.3	-0.903158782666091	0.327645681243668	7.80886132701297E-06	6.38219572677585E-06	4.06650645424096E-07	1.08684843074562E-05	0.963287218864036	0.197806941057058
