# GHZ S RI R 50
0.2	0.986098589404945	-0.156714886356815	2.56453243338975E-06	2.25051918332124E-06	6.57196306423499E-06	-4.86887637554038E-06	-0.966408087297269	0.251684346557495
0.3	0.970096103133083	-0.233843056364321	-8.73537251426716E-07	-5.45509091717378E-06	-3.46660993100387E-06	-7.94739029231767E-06	-0.92677489676329	0.371709055163608
0.4	0.948608139653663	-0.309218321022473	-7.28055325251603E-06	-9.91633974325618E-07	4.44210759561395E-06	1.54554846779982E-06	-0.872038613249906	0.485474948672968
0.5	0.921604296950215	-0.382739743174945	6.20099231785776E-06	2.10502245038002E-06	-2.41459246517391E-06	-1.90833898558614E-06	-0.803510158109032	0.591738020857184
0.6	0.888576998359438	-0.453634397164252	-1.0553314464688E-05	2.46136718510663E-06	-2.21883526048052E-06	-1.00726629773073E-06	-0.721932000809548	0.68812122000112
0.7	0.850495735310895	-0.521393492909239	2.7848752376767E-06	-1.17215525122523E-06	-2.98856833135953E-06	5.7894203496993E-06	-0.629289299622079	0.773563295692999
0.8	0.807191973252297	-0.586437587106608	1.17767335320036E-06	-8.47811300716077E-06	-6.62218123428042E-06	-3.07161642206597E-06	-0.526555985460341	0.846519885565163
0.9	0.758910764231836	-0.648157166364657	-1.14708455898668E-06	-6.81388506552929E-07	2.54832414798584E-06	6.54603293084231E-06	-0.415629137544391	0.905812541983531
1	0.705545922593108	-0.706288879835	-2.74593578345817E-06	-3.22372683001698E-06	-4.05378538282133E-07	-7.31912418883528E-06	-0.298427786154737	0.950486114859315
1.1	0.648231134548235	-0.759869925336564	1.8068104885365E-06	-4.94267670056021E-06	2.27035884685211E-06	-5.13626584085664E-06	-0.176376857611623	0.980322454145681
1.2	0.585589065083563	-0.809450991483544	-2.4961629604744E-06	2.4923062532711E-06	9.26252452448345E-07	-9.11129724196649E-07	-0.0513379204040762	0.994366834074861
1.3	0.51768372275423	-0.853899628656363	-1.53823472131442E-06	7.1960379608246E-07	-1.35564217569858E-06	1.46364069201286E-06	0.0744059552800115	0.992882508624258
1.4	0.446840352772063	-0.892241987930559	3.9229677961595E-06	-3.24139281301477E-06	2.70413528569322E-06	1.09412627017038E-05	0.199599321729483	0.975096741103804
1.5	0.373994586368684	-0.924140166932848	-5.3373388753936E-06	1.11019148565165E-06	6.589222679988E-06	-7.20752698395952E-06	0.321345755886996	0.941802230684761
1.6	0.300621111521042	-0.95022155080697	1.77686240857464E-06	-7.73833196426927E-06	3.63163917741383E-06	1.38273193919066E-06	0.437437514803468	0.893284287957927
1.7	0.226440559551857	-0.97041629350624	-1.94141961994164E-06	-9.69743790275085E-07	-2.35204659123077E-07	-2.0871226896458E-06	0.545777204471864	0.831375125184552
1.8	0.149951381615704	-0.985194146615882	2.85029701376834E-06	5.28061262210082E-06	3.75014251228782E-09	2.03186474129895E-06	0.645866349505916	0.756030377798576
1.9	0.0725329291815141	-0.994026036929034	5.67648361739208E-06	-2.63120297469443E-06	-2.99904231935754E-06	4.15347204817998E-07	0.735173519547296	0.668943565294525
2	-0.00475475360772749	-0.996808520107451	-1.5490628050643E-06	-2.02809373874692E-06	3.21279289456879E-06	1.14656395531701E-05	0.813323504173406	0.571126356226037
2.1	-0.083815969668118	-0.993416750493385	-7.5586143853478E-06	2.45872919587702E-06	1.20946926607015E-06	5.14944066269871E-06	0.878429635278482	0.464233032788389
2.2	-0.160483954811483	-0.983721114417065	-8.83277117117167E-07	1.39536737246946E-06	3.00755608255371E-06	7.78062332866887E-06	0.929745065370939	0.350163086626796
2.3	-0.237477812923673	-0.967705292159588	1.81302037229394E-07	7.45792669964898E-06	7.40396055627959E-07	9.39151224518365E-07	0.965819418182362	0.231046552251021
2.4	-0.313147897773691	-0.945562697801233	1.58093480969638E-06	7.17875650289878E-06	1.52264680747762E-06	6.39159785534673E-06	0.987200471376718	0.107457400994192
2.5	-0.386395053931202	-0.918428496419193	4.39410845540106E-06	-2.31567762586394E-06	-1.91550862192931E-06	-7.57762777332505E-06	0.992570975960936	-0.016975516790681
2.6	-0.457923699826889	-0.884916592853705	6.77568298924835E-06	-5.95088442002782E-06	-1.11092317602307E-05	1.08384193613795E-05	0.982671256279995	-0.141813669637019
2.7	-0.526641322415242	-0.845735892173769	-4.444487474434E-06	9.15067263550866E-06	-2.87685337854202E-06	-9.16603602032725E-06	0.956716900026809	-0.264426810525224
2.8	-0.591025828517354	-0.80172931093015	2.45957914970764E-06	1.1438625934624E-06	-3.12985454052552E-06	1.24529560064443E-06	0.916362000474953	-0.382147200414019
2.9	-0.651417933236443	-0.753354872151513	-5.50080903276848E-06	6.01976037139578E-06	-9.19844540536549E-06	-2.81032423179494E-07	0.861131379203323	-0.493738658670349
3	-0.708656365549775	-0.699714088929733	4.71840320063774E-07	-1.47368777815821E-06	1.13294955866873E-05	1.45818158658448E-06	0.792458674205956	-0.59785678198527
3.1	-0.761221351842506	-0.64206780170386	2.41078630539332E-06	1.04948822873461E-05	4.32620672590764E-06	2.17180643689811E-06	0.711579473257611	-0.692063529227049
3.2	-0.80887671372055	-0.580802834588084	2.10691588428189E-06	6.46359127207447E-06	3.99495359224744E-06	-1.06048378317499E-05	0.619631844845939	-0.775655816225253
3.3	-0.851705018543871	-0.516211399948161	3.08251880520799E-06	4.95908864919801E-06	-2.22763370125865E-06	-9.66476093114665E-06	0.516737896978223	-0.847634527992936
3.4	-0.888658672684367	-0.448785267356882	2.12360906408691E-06	-2.60373347149206E-06	5.95613904634683E-06	1.38006748443271E-06	0.406964590356681	-0.90573838985946
3.5	-0.920988948480853	-0.377316533890236	-3.23815719126043E-06	9.47282275480948E-07	-2.07109012584915E-06	3.42267192385776E-06	0.28997449220462	-0.949748892622118
3.6	-0.947748446331587	-0.303922145951665	-1.81429968475871E-06	-3.74222724549177E-06	-7.81998369877781E-06	4.10937531771227E-06	0.168349489903432	-0.978978118292974
3.7	-0.968483834080374	-0.228981156626308	8.17308977526215E-07	-8.32569217344071E-06	1.07682590112993E-05	3.69011186604567E-06	0.0433037731120492	-0.992340284070741
3.8	-0.983540443450052	-0.151877305772714	9.28823122659627E-08	1.54644996636114E-06	-6.51405403674925E-06	5.95379352080975E-06	-0.0816213568972127	-0.98967538559642
3.9	-0.99231177226666	-0.0744241739479974	-2.62982871863312E-06	-5.02545526457507E-06	-3.69854812262251E-06	8.02601703573927E-06	-0.206828107742839	-0.971305384624293
4	-0.995230447488714	0.00452686176795181	7.12801400088288E-06	-3.85532609615259E-07	-1.04540744015646E-06	-1.204968999131E-06	-0.326443180497532	-0.937600101883921
4.1	-0.991960141831619	0.0829587912303155	6.19395870765288E-07	-4.44135081057686E-07	7.35014594145468E-06	-4.75924429794409E-06	-0.441903369253041	-0.889440304507374
4.2	-0.982536416394669	0.161033959542268	3.20636418894779E-06	2.10167663767985E-06	-7.18766038351767E-07	-7.61713794222959E-07	-0.550406857862425	-0.82653264923461
4.3	-0.967190646850601	0.237107950546311	-3.18947771129109E-06	1.37387616246585E-06	-4.99611471830066E-06	2.98441148916519E-06	-0.649923872643972	-0.751199892399071
4.4	-0.946003767510815	0.311833902075029	8.05137192908812E-07	2.64301509305885E-06	1.55159045918593E-06	-8.3355180171483E-06	-0.739195178129139	-0.663618169624789
4.5	-0.91906122226384	0.385139091393273	1.82460698644267E-06	-9.40467109869462E-07	7.6355175331133E-06	-2.56855541592715E-07	-0.816832095379813	-0.565301512202752
4.6	-0.885852084031985	0.45692872696037	-7.28913782793307E-07	6.13432267747003E-06	-1.23532812532301E-05	-6.48841602407998E-06	-0.880937779631507	-0.458187513400269
4.7	-0.847301567031195	0.52451728208813	1.20272667882868E-06	2.51300808507215E-06	1.4223297383282E-06	1.86788988739345E-06	-0.931748610693223	-0.344220914936205
4.8	-0.802726952383225	0.590070588005482	-5.18194041829307E-06	1.11389146811982E-05	5.23826590137269E-06	9.69909530521579E-06	-0.967577009719634	-0.224116200503143
4.9	-0.753463082860711	0.65115945056811	1.20012459720435E-06	2.93404841846474E-06	-4.84059180377619E-07	-6.91932842658147E-06	-0.9879581297678	-0.100050793975311
5	-0.699527380198383	0.708237997694247	4.7442076195562E-06	-9.11219801228319E-07	-3.74490232065854E-06	2.42558792357266E-06	-0.991938267196179	0.0252566962493815
5.1	-0.640958310834531	0.76090100068593	4.13648937174104E-06	-1.40999333712767E-07	-2.65712463701545E-06	-9.81924731702113E-06	-0.981084648411809	0.149438663967267
5.2	-0.578899470671368	0.809034664499879	2.62486760834861E-06	-1.50010585095775E-05	1.37867043860805E-06	2.82417256002999E-06	-0.954865785529473	0.272139829435419
5.3	-0.513487271858934	0.852221109125832	-8.71652785145138E-06	-7.83671601223573E-07	-1.13573331005915E-06	1.58961834788055E-07	-0.913077877117092	0.390790296899405
5.4	-0.445123315815134	0.890209748829818	-7.185993842906E-06	-1.10652871219749E-05	-1.37474835823241E-05	1.11985286421487E-05	-0.856132393048174	0.502851348862356
5.5	-0.374123946358079	0.922649366970326	1.90585406304823E-06	8.95965605443704E-08	-2.24674842526106E-06	1.78421402497571E-06	-0.78601016553902	0.606169260370041
5.6	-0.300354885437734	0.949098900648845	-2.41092951528774E-06	3.51626717083758E-06	-1.34297397961656E-06	1.29001619416281E-06	-0.703798865734623	0.699511344121711
5.7	-0.224663723306481	0.969848979988991	1.30670792234488E-06	1.2326200355731E-06	5.76640252014792E-06	-1.17626425711554E-07	-0.610899355769163	0.782177375066302
5.8	-0.147656195633827	0.983995590520167	2.7035402821264E-06	4.26268477225855E-06	-2.11455887024082E-06	4.24467078004235E-06	-0.508044002111535	0.852586808178296
5.9	-0.0701320714792437	0.99217275003731	-6.89118583156116E-06	-2.30414557235162E-06	-7.87332062726127E-08	6.2944605079482E-06	-0.397506566359865	0.909754471261125
6	0.00720216507260754	0.99454722931768	-1.7940772575201E-06	8.93020391299691E-08	-5.46611847989907E-06	-4.39577142812381E-06	-0.280310639977715	0.952759362087571
6.1	0.0850816643661017	0.991061693590922	4.73518247243282E-08	-9.9254070962109E-06	-9.82665903161177E-07	-3.21886465124011E-06	-0.158293911956765	0.98015606713287
6.2	0.163231761870086	0.981156352339664	-1.02471898674151E-06	3.11524911822001E-06	-1.76326837000593E-06	4.21769999798763E-06	-0.0334241356092656	0.991599178583825
6.3	0.240676575544684	0.96500488649541	-8.07525617090706E-07	2.8331250999334E-06	-2.94237889281841E-06	2.39693958701109E-06	0.091596836302091	0.987280972725826
6.4	0.31658205346459	0.942761268421109	-5.97788016203287E-06	5.5508866325233E-06	-2.38468965428605E-06	-7.50911604908835E-07	0.215248167498715	0.967504514866571
6.5	0.390904110807245	0.915004843871323	1.40651252567384E-06	-5.28456349294235E-06	-1.45079774037368E-06	-2.38072177323695E-06	0.335486538204604	0.932211573317095
6.6	0.462545251784605	0.880672958865146	3.66014412526646E-06	2.09077577902059E-07	1.13234608424094E-05	-2.68628528674154E-06	0.449726241646861	0.881928373652687
6.7	0.530792915441715	0.840858175760571	-7.77085906121926E-07	8.48880053646213E-07	-3.77403168589564E-06	5.23957092443032E-06	0.556155769602351	0.818445059492644
6.8	0.595700800145413	0.795911328165437	-1.75539632331566E-06	4.49471669110784E-06	1.45532786430683E-06	-8.85256997937305E-07	0.65404511872377	0.742326635199867
6.9	0.65670219024319	0.745967087390589	5.92813307347543E-06	2.24832488739892E-06	-9.31171706571998E-07	2.4191212738859E-06	0.7416416348553	0.654536425199052
7	0.713389747908564	0.691356872507665	1.14074510950113E-06	-4.15538588450239E-06	-1.4290764410197E-06	2.92102410016466E-06	0.817607776968737	0.556383318338888
7.1	0.765701918662583	0.632751616389379	2.40205173749143E-07	-7.18977560981332E-07	1.97739427172432E-06	9.19783194593944E-06	0.880556252386746	0.449491942603296
7.2	0.813303907568005	0.569699115927797	1.38601312704915E-06	-2.4169658166633E-06	-1.01585092951631E-06	-8.5750754583998E-06	0.929527928023273	0.335794042015099
7.3	0.855602401525057	0.502687927618003	4.84717170271572E-06	7.23006323340194E-06	-9.72377574705481E-06	2.3438366925475E-06	0.963639850461937	0.216616336406899
7.4	0.892606809189311	0.432300818491027	5.09674605275754E-06	-6.89753235342303E-07	1.92832504008836E-06	-9.64404655010861E-06	0.982579803205463	0.0937781788278901
7.5	0.923679646778183	0.359437393151267	2.73675875209876E-06	-5.30670736050288E-06	2.08564996588772E-06	-7.27463629720956E-06	0.985761519545588	-0.0299220420746796
7.6	0.94957544555823	0.284209209093126	-3.18487978384399E-07	-5.6322148897408E-06	1.67619421162755E-05	3.85033490490323E-06	0.974184989803477	-0.153374760902859
7.7	0.969325282615838	0.206929153952894	3.51472662413478E-06	1.08048830308367E-07	3.21364229337695E-07	-2.92248208489248E-06	0.947162373964581	-0.274580442312907
7.8	0.982794701236039	0.128364712266319	-1.09664228071695E-05	-1.91202622878468E-06	-2.0107976113226E-07	3.43519782739536E-06	0.905299227748361	-0.391405362586703
7.9	0.989867719975424	0.0489187382441245	2.35411651275977E-06	2.02795599909744E-06	-6.93660117965722E-06	-4.70431857608865E-06	0.84925948599426	-0.501925132491791
8	0.99087570780679	-0.0305460924560038	2.34859074936728E-06	2.94998433312224E-06	-9.32314209874354E-06	-7.58898438851611E-06	0.780269025434316	-0.60461828356037
8.1	0.985357922375632	-0.11046551699228	3.82418801035174E-06	-3.06564321360901E-06	2.14593679322469E-06	-3.18107614087563E-06	0.698707870815886	-0.698246759270779
8.2	0.973171894701683	-0.189190971884715	-4.03402072341126E-06	1.41465025376525E-06	-6.74997380927639E-06	3.59185274510068E-07	0.606002724796932	-0.780673161590015
8.3	0.954342778590797	-0.266944207943698	9.86214439272465E-06	2.97124083271958E-07	6.2418510612403E-06	1.04480867579538E-05	0.503429033693496	-0.850737392444533
8.4	0.929198853527835	-0.34295358502614	1.28487886272601E-06	2.5569668119306E-06	3.46085904119899E-06	1.82327846374679E-06	0.39266840662299	-0.907539446352223
8.5	0.898007520420726	-0.417002443206459	-4.84283679201948E-06	4.96528253635897E-06	2.85383835905414E-06	-3.02337660315212E-06	0.275227643339418	-0.949270738797211
8.6	0.860698066603833	-0.48819576323473	-4.49984054861038E-06	2.08927547675348E-06	-3.03731854994201E-06	8.12123671343148E-06	0.154477996436898	-0.976424797511237
8.7	0.817875239067235	-0.556071659945661	-1.02178886540381E-06	1.21686157026817E-06	-6.44651501240046E-07	3.46544848557416E-06	0.0307326210848496	-0.988649159376706
8.8	0.769771278348649	-0.62008801115226	-1.5865764010662E-06	3.08167195744282E-06	-6.01381585402265E-06	1.285350406655E-06	-0.0935636665364104	-0.985558840895634
8.9	0.716970435045688	-0.680087922395873	3.17867879256086E-06	-1.83358754656182E-06	-3.16919345708736E-06	-4.58127884690959E-07	-0.217342473646616	-0.966436784039093
9	0.659162648430114	-0.735524349502299	-7.29670329485814E-06	1.35454057313769E-06	-3.98327387006033E-06	7.27040412997259E-07	-0.337560478602596	-0.931370181395721
9.1	0.597398997642465	-0.78605799689232	-3.35988230724065E-06	-1.88435959392695E-06	-9.84292450483942E-07	2.13802784365251E-06	-0.45221787942561	-0.881670334033556
9.2	0.531301748438219	-0.831465961090985	5.99048692569523E-06	-1.64546857335608E-06	1.99345553699176E-06	8.48842164218581E-06	-0.559801026443017	-0.818162528829761
9.3	0.461818734865828	-0.871351127956899	-3.38833927596511E-07	1.07177167994001E-06	1.36881812727488E-05	1.18308670995107E-05	-0.65845934635638	-0.740920678298444
9.4	0.38896391003989	-0.905237083347486	1.73076839490308E-06	-2.66477933192065E-06	4.29175234570345E-06	1.75620438678436E-06	-0.745888503142408	-0.651754843395367
9.5	0.313462751061842	-0.932815335111998	-6.50892813548434E-06	-4.88691952172915E-06	-1.94807210983784E-06	-5.7038489853654E-06	-0.821194802624849	-0.551980036627967
9.6	0.234907436119787	-0.954566998609662	-1.16826138496284E-05	-2.62319382562801E-07	-5.92483351968131E-06	-4.01518970278344E-06	-0.883664114886121	-0.444823183201012
9.7	0.154659201421349	-0.969136038142052	1.46840479368392E-06	-4.78217057498411E-07	-2.91862966752469E-06	1.64152980629661E-06	-0.933033016667649	-0.330118316167557
9.8	0.0737768804839691	-0.976664011879638	2.20671273089026E-06	1.40122352256907E-06	1.51077590178683E-05	-3.5036704265575E-06	-0.967401181346639	-0.210041929289101
9.9	-0.00719894427885035	-0.977057016652505	-3.46283955705234E-06	8.9755716152479E-06	1.37652120086823E-05	4.99212511394253E-06	-0.986976486576194	-0.0860011847125006
10	-0.0869470059705582	-0.97043372713166	-3.64500211085987E-06	1.62034241088699E-06	1.92496739286042E-05	-1.8162657504704E-05	-0.989917720305775	0.0402602019103123
10.1	-0.165498500825534	-0.957215861389059	-1.47978371775549E-06	2.30496991408757E-06	-8.42995778990281E-06	-4.31139887154877E-06	-0.976546630254608	0.165255552269831
10.2	-0.241907598764408	-0.937707200666907	-2.31144049578727E-06	-1.24101120799515E-06	-1.2925432108126E-05	7.2379901825828E-06	-0.947453416069415	0.287262300582402
10.3	-0.315187007257012	-0.912142614966971	5.76898499539386E-06	3.9273491118487E-06	-6.15258206218055E-06	1.38021952602141E-06	-0.903793366773807	0.404223555251162
10.4	-0.38584275780739	-0.881658989675942	2.10182168622332E-06	1.04756627035522E-06	7.05465776530628E-07	-8.22337806160723E-06	-0.845586805282664	0.514836454612238
10.5	-0.453863358731137	-0.845074768643086	4.36747425943407E-07	-3.05629159778201E-07	-6.53072254532254E-07	-5.62883406324666E-06	-0.77324357844294	0.617311366352296
10.6	-0.517355858816191	-0.802772759799967	5.0860759479417E-06	-2.60233921848377E-06	-9.73980055050325E-06	-7.87736558312316E-06	-0.688368131153784	0.708692244068819
10.7	-0.576286388018072	-0.755910189349451	-2.81170363888519E-06	-5.02427253783759E-07	-5.21933242863781E-06	-7.16276602655659E-06	-0.593644422239229	0.788401762203614
10.8	-0.630663464656116	-0.706227824247611	-3.61017951473006E-06	-3.44102393944332E-06	-1.19539284597083E-05	9.13278407646578E-06	-0.48999489097376	0.855672327158905
10.9	-0.681463122659213	-0.654061188327783	-1.13719481466149E-05	-1.04108573116809E-05	-4.4710260405006E-06	1.09486029820349E-05	-0.379378252295175	0.910047210530074
11	-0.728100935545263	-0.599642170112015	1.01020909550215E-06	1.40777677624719E-06	8.65347873067951E-06	-5.49602935326931E-06	-0.261040217436268	0.950211021489582
11.1	-0.77189567859466	-0.542958677567472	-3.26229311354593E-07	-3.62833984242139E-06	1.01722803660083E-05	-1.0188991966153E-05	-0.139685922539601	0.973763272270429
11.2	-0.812677919703999	-0.483078855242643	-1.0296297350553E-06	-3.9097157044699E-06	2.16112326323336E-06	-6.30404900812244E-06	-0.0163584414353751	0.982611460061296
11.3	-0.849632431099099	-0.419356251220945	1.63980642298343E-06	-1.20315958574402E-05	3.56397877456374E-06	-2.81715861308167E-06	0.106908905022243	0.976271795182638
11.4	-0.881304832251342	-0.352785093565849	9.85852699534226E-07	1.90807662128588E-08	-5.68843037468413E-06	6.45224990370002E-06	0.229035611001594	0.955018763447576
11.5	-0.908644361445551	-0.283958504586129	6.54302788881612E-06	-1.23210619840804E-06	8.232368510385E-06	-3.02574684011292E-07	0.347222089475589	0.918406563406993
11.6	-0.931295319378081	-0.211946117299931	-6.32574160320126E-07	-5.32641144951431E-06	1.44092756204287E-06	-3.07755620483996E-06	0.460258032081404	0.866884693344612
11.7	-0.947045609862261	-0.136596519735183	-8.81333683793458E-08	-6.04409405990861E-06	8.94514141435694E-07	-2.65577167659162E-06	0.565524216530717	0.801795591293338
11.8	-0.956441189538918	-0.0594751634506563	-1.07005430517233E-06	-7.4133983732713E-07	5.16149898901761E-06	1.08226958139533E-06	0.662148799563138	0.724502462973624
11.9	-0.959326772295106	0.0190192456220629	-3.21262930959081E-06	-5.20698528924273E-06	-5.38090183329672E-06	-8.00772826066304E-06	0.748344440803445	0.636592694900927
12	-0.955783995333326	0.0971966219682355	-2.94399754025943E-06	1.64142297065122E-06	-1.67249416392951E-05	-8.74901069904055E-06	0.824135365655068	0.537823743369671
12.1	-0.94672860197376	0.175265111984461	8.24744198603725E-07	-1.56616287592145E-06	7.85285044037183E-06	1.22657656904306E-05	0.885454149163754	0.428575685094394
12.2	-0.930071847927152	0.253309088908592	-4.10048236162514E-06	5.5430115760593E-06	4.15404626478886E-07	3.30851701154801E-06	0.932181729530399	0.313258017587133
12.3	-0.907416478539198	0.32948126684271	7.82369530776822E-06	6.38011029447161E-06	4.1891719976513E-07	1.08789963769965E-05	0.963955839994234	0.192877634849893
