# GHZ S RI R 50
0.2	0.985677618161816	-0.156844673474075	2.56417007939213E-06	2.24908662170743E-06	6.56842300241314E-06	-4.86875296440764E-06	-0.96608052059098	0.251926257156837
0.3	0.96962072590454	-0.233908279359859	-8.74517495545997E-07	-5.45231658408788E-06	-3.46701166957352E-06	-7.94278983770248E-06	-0.926284969587698	0.371933567661399
0.4	0.948119382180022	-0.309170154777447	-7.27658178980911E-06	-9.89601672632516E-07	4.43987362479183E-06	1.54376968684835E-06	-0.871411009682347	0.485586818245565
0.5	0.921314644053082	-0.382611299609042	6.19784346870284E-06	2.1033420144738E-06	-2.41346260648146E-06	-1.90709914184572E-06	-0.80287538696298	0.591690231940908
0.6	0.888362719161939	-0.453765962204931	-1.05477588191358E-05	2.46226825569728E-06	-2.21796821296068E-06	-1.00634436331268E-06	-0.721274562814514	0.688017392069688
0.7	0.850104359823036	-0.521664005359528	2.78293039330547E-06	-1.17224019241525E-06	-2.98523228365252E-06	5.78687255038605E-06	-0.628598910983814	0.773311068708404
0.8	0.806577884965225	-0.586720185089333	1.17437875403874E-06	-8.4724679095438E-06	-6.61839698881526E-06	-3.0675234828335E-06	-0.525914260868303	0.846097077646822
0.9	0.75802100016854	-0.648301771873234	-1.14627030865352E-06	-6.80509007962355E-07	2.54779879328217E-06	6.53974447869742E-06	-0.415107838240772	0.905235326760515
1	0.704526697597929	-0.705982961547659	-2.74332695925866E-06	-3.22031666618455E-06	-4.0535743750614E-07	-7.31169186179948E-06	-0.298123882482502	0.949791094063377
1.1	0.647525546364406	-0.759250352551296	1.80628299993032E-06	-4.93783983377182E-06	2.26945811720781E-06	-5.13115256017662E-06	-0.176388092148469	0.979669777001888
1.2	0.585191511483664	-0.808772729662502	-2.4955009462806E-06	2.48981426842074E-06	9.26001769196962E-07	-9.10213674852304E-07	-0.0516358798957699	0.993984995359718
1.3	0.517613037908739	-0.853378876838973	-1.53806814989441E-06	7.18866973442236E-07	-1.35578687762397E-06	1.46276514512708E-06	0.0740674889391876	0.99289796550845
1.4	0.446819457400174	-0.892067379058937	3.92298201923554E-06	-3.24071870144318E-06	2.70277614936447E-06	1.0940644040733E-05	0.199473046791232	0.975175696055065
1.5	0.373943051582838	-0.924055378580233	-5.3362304321135E-06	1.11052407961531E-06	6.58726392102327E-06	-7.20684818080735E-06	0.321229316880379	0.941604604221742
1.6	0.300461719585609	-0.950406243913971	1.77402530522373E-06	-7.73601625591405E-06	3.6307077229869E-06	1.38120056618525E-06	0.437191190916234	0.892784316570765
1.7	0.225908047722892	-0.970519789503083	-1.9405383143286E-06	-9.68307642117754E-07	-2.35906537361262E-07	-2.0856506617605E-06	0.54523997504931	0.830671608384388
1.8	0.149197573210286	-0.98493713031312	2.8498639931437E-06	5.27399493826077E-06	4.68168580903271E-09	2.02982152395522E-06	0.644990217607015	0.755223617709663
1.9	0.0718224841927805	-0.993166795129157	5.66708113567463E-06	-2.62926206992369E-06	-2.99441643740126E-06	4.15778014448158E-07	0.733779321866527	0.668085992848074
2	-0.00465961135930425	-0.995529240274857	-1.545795195616E-06	-2.02511291526294E-06	3.20377590417262E-06	1.14470769107648E-05	0.811286279798929	0.570886424597834
2.1	-0.0832713690861394	-0.992615416880927	-7.54909201135973E-06	2.45231278674195E-06	1.20574465359706E-06	5.14276850555238E-06	0.876590106005114	0.464446720858908
2.2	-0.159911972581487	-0.983176306464966	-8.8249723019752E-07	1.39298054449453E-06	3.00021357560779E-06	7.770281181563E-06	0.927778368337095	0.35056623559079
2.3	-0.236956707523878	-0.967292224193585	1.77508539450287E-07	7.44600374036851E-06	7.38762994307176E-07	9.37986712092447E-07	0.963679323381266	0.23180386887854
2.4	-0.312726569716677	-0.945106387308618	1.57364500259661E-06	7.16711443200596E-06	1.51595382314388E-06	6.38130459554862E-06	0.98493030704333	0.108666633599558
2.5	-0.385849655103528	-0.917697472850961	4.38774023351481E-06	-2.30726896555569E-06	-1.90500474578694E-06	-7.56477585012896E-06	0.990205884511169	-0.0151557503827476
2.6	-0.456905598616195	-0.884176167754305	6.77045496006365E-06	-5.93016342001639E-06	-1.11021134257061E-05	1.08023347958859E-05	0.980486293671174	-0.139173690680487
2.7	-0.525218481661724	-0.845307720473841	-4.45243929656598E-06	9.12746043218111E-06	-2.85634883273186E-06	-9.15524386648837E-06	0.955193599110872	-0.261168482621298
2.8	-0.589393524455796	-0.80178516932386	2.45386934517453E-06	1.14678419861125E-06	-3.12762386884737E-06	1.23764950580639E-06	0.915545553710107	-0.378746230328637
2.9	-0.649846321480505	-0.753854667262923	-5.50623667617968E-06	6.0016271009253E-06	-9.18691598444484E-06	-2.99015030632168E-07	0.860857707067683	-0.490443959022136
3	-0.707039624324233	-0.700220436463384	4.74177019063158E-07	-1.47153470805865E-06	1.13169832699511E-05	1.47802152129647E-06	0.792531565224099	-0.594772477852815
3.1	-0.759195168501109	-0.64322360323597	2.39023545829885E-06	1.04899809325378E-05	4.31862079196671E-06	2.17752106537758E-06	0.711875777450647	-0.689114866058509
3.2	-0.807140572651887	-0.582622432988827	2.09423051841389E-06	6.46212194289656E-06	4.00992594786363E-06	-1.05897061603674E-05	0.620150387423664	-0.772843007848187
3.3	-0.850427530250848	-0.518395178898853	3.07246545866767E-06	4.96040772103507E-06	-2.21075120052646E-06	-9.66135366430137E-06	0.517443048459923	-0.845018186960172
3.4	-0.887862428973858	-0.450930333547742	2.12512060344273E-06	-2.59874573064151E-06	5.94920483549501E-06	1.38653706853468E-06	0.40752561433766	-0.903289059414572
3.5	-0.919894837163205	-0.379406001560064	-3.23460214635928E-06	9.40483880828613E-07	-2.0734305927762E-06	3.41388145398422E-06	0.29065557340253	-0.946483179097446
3.6	-0.947050789748347	-0.306815540042111	-1.80369288284485E-06	-3.74216279947939E-06	-7.8205769087806E-06	4.08685233711237E-06	0.170141652784653	-0.975976198848038
3.7	-0.968542913567902	-0.231933695274331	8.35600345892996E-07	-8.31693319638456E-06	1.07509315370907E-05	3.7115883371562E-06	0.0454338970241751	-0.989842976708101
3.8	-0.984123501917927	-0.154589850999049	8.9189879055875E-08	1.54550641336506E-06	-6.52311029706059E-06	5.93406343176056E-06	-0.0792301910192395	-0.987564094512667
3.9	-0.993115435477185	-0.0767607250067163	-2.6149027196597E-06	-5.02910387126547E-06	-3.7172505702909E-06	8.01107212510791E-06	-0.204169848793826	-0.969655464018836
4	-0.995835090066635	0.00234390752026455	7.12873616384789E-06	-3.65018755961834E-07	-1.04188652079477E-06	-1.20790924165605E-06	-0.323705435014669	-0.936689362308493
4.1	-0.992580648148492	0.0804680725358721	6.20671882665913E-07	-4.42712991106333E-07	7.36401419188336E-06	-4.74222918149502E-06	-0.439554828422592	-0.888967080105071
4.2	-0.983400703209183	0.158340007513335	3.20238956422223E-06	2.1095143663047E-06	-7.17213055441008E-07	-7.63544476649089E-07	-0.548223348250714	-0.82631500308759
4.3	-0.96837239834806	0.234245663953942	-3.1928340756446E-06	1.36684260920724E-06	-5.00323868719822E-06	2.9734657730217E-06	-0.647838509725464	-0.751308073502349
4.4	-0.947760813636018	0.308855845347593	7.98021078016751E-07	2.64492593882459E-06	1.57366930531518E-06	-8.33064104656119E-06	-0.737203155662508	-0.664337104369554
4.5	-0.921403771331113	0.382956727570824	1.82902799288924E-06	-9.35253359628393E-07	7.64208292752152E-06	-2.32275640702355E-07	-0.815675029092233	-0.566766810149717
4.6	-0.887631380836631	0.454889679031554	-7.46263721911177E-07	6.14032775736136E-06	-1.23519480736334E-05	-6.52986540984522E-06	-0.880647132417344	-0.459548451998365
4.7	-0.849311416808782	0.52224143231683	1.19847896356063E-06	2.51971912022413E-06	1.41997271552464E-06	1.87415420159188E-06	-0.932053946539353	-0.34544238840864
4.8	-0.805237049627749	0.587853979427947	-5.21573545338406E-06	1.1148315289264E-05	5.2269174772836E-06	9.72845288986188E-06	-0.968503691088933	-0.22518994971357
4.9	-0.756560129704668	0.649518405217656	1.19815391416182E-06	2.94292403624461E-06	-4.73883882988894E-07	-6.93642276515899E-06	-0.989819668452248	-0.100682339905963
5	-0.702045763984451	0.707359528237824	4.75416319094041E-06	-9.10964772746734E-07	-3.75351260401611E-06	2.42882285710669E-06	-0.993855818144247	0.0263286794100434
5.1	-0.643830756415584	0.759398931350884	4.14184592294508E-06	-1.38450195534408E-07	-2.65402866250172E-06	-9.8334947000811E-06	-0.982080713813356	0.150556664861234
5.2	-0.582532502055797	0.80814608663782	2.63840750304627E-06	-1.5016355808465E-05	1.37826144061055E-06	2.82836845261589E-06	-0.955743728701251	0.273326629960797
5.3	-0.517239004322943	0.852183087067766	-8.72245999309991E-06	-7.90882099623546E-07	-1.1367046337255E-06	1.58217843549291E-07	-0.913647246307353	0.392053975862944
5.4	-0.448621706797124	0.890814901950158	-7.1734300297688E-06	-1.10773018715972E-05	-1.37653502487661E-05	1.11834758874916E-05	-0.856509364004857	0.50376121808684
5.5	-0.377114286051394	0.923527336609322	1.90695139327347E-06	9.43850134210562E-08	-2.25272872917307E-06	1.77987751119496E-06	-0.786939097549715	0.60677948461027
5.6	-0.303407967262435	0.949740912410067	-2.42249496554697E-06	3.51664920764236E-06	-1.34795419976224E-06	1.28915382918644E-06	-0.705107683983154	0.700654168565887
5.7	-0.228140156822146	0.970853294533993	1.30662328748391E-06	1.23728509722232E-06	5.77670667283491E-06	-1.06752171769444E-07	-0.612150316664973	0.783614262153439
5.8	-0.151322845049332	0.985644171248146	2.70074116331055E-06	4.27472612944474E-06	-2.1256015756355E-06	4.24826905116824E-06	-0.509243032285983	0.854083792874375
5.9	-0.0740209591126806	0.994501874372961	-6.89509711839332E-06	-2.31909363890626E-06	-9.00310643164422E-08	6.30163988733185E-06	-0.399005982894161	0.910943806790837
6	0.00301360611907147	0.998910211576275	-1.79637602842441E-06	8.27448897913827E-08	-5.45580699477223E-06	-4.42086855943121E-06	-0.28344074764538	0.954675384506011
6.1	0.0831464143967981	0.996907372036708	8.77882146906126E-08	-9.95776113201012E-06	-9.72824752485517E-07	-3.23340760364855E-06	-0.161019745668404	0.984238814475556
6.2	0.163113040467725	0.986842416937043	-1.03987826015572E-06	3.125530691E-06	-1.78545482757222E-06	4.23033770511845E-06	-0.034870666938277	0.996675973891229
6.3	0.241657078849616	0.969923413473375	-8.1909781158948E-07	2.84526239883316E-06	-2.96355328588302E-06	2.40122512162071E-06	0.0914070644399239	0.992510503520315
6.4	0.317659543953381	0.947212224533374	-6.02216387859851E-06	5.56700404041943E-06	-2.39569525874316E-06	-7.6026425222359E-07	0.21549758472472	0.972783510181703
6.5	0.393469535152973	0.919778309882981	1.42134997386917E-06	-5.31796382756981E-06	-1.4578708990488E-06	-2.39795963114466E-06	0.337645456684292	0.938632903363017
6.6	0.465624938274354	0.883360850575278	3.68076191332018E-06	2.06566677259681E-07	1.13838983619298E-05	-2.71263765721637E-06	0.45368143185512	0.886411698255622
6.7	0.533449659811143	0.842907089078128	-7.79275584325609E-07	8.5394712000958E-07	-3.78291324024269E-06	5.26924186440991E-06	0.560364303974267	0.821656842150249
6.8	0.598358889728253	0.79752228331665	-1.75313687770258E-06	4.5154371421272E-06	1.45913207601764E-06	-8.91555294238549E-07	0.658408869883544	0.744394927608322
6.9	0.659344853937625	0.747141526437513	5.95138622982918E-06	2.24043655981119E-06	-9.2799357723636E-07	2.42864402327804E-06	0.745678580914993	0.655517108940714
7	0.716241605661531	0.692259863696246	1.13577187727171E-06	-4.16561034850619E-06	-1.42682396226373E-06	2.92930336275652E-06	0.821288333425225	0.55710323878846
7.1	0.768726042257581	0.632891442266181	2.39764727876497E-07	-7.21390443909526E-07	1.9973460315003E-06	9.2208227063402E-06	0.884508704470519	0.449382421674551
7.2	0.81619652092017	0.56921128466005	1.38461672288496E-06	-2.4275013431184E-06	-1.03878858424702E-06	-8.59871356924613E-06	0.933172666083584	0.334599470709088
7.3	0.858378228247446	0.501500451629707	4.88482525284442E-06	7.2360221980655E-06	-9.74519975323204E-06	2.38204599634434E-06	0.966628586460046	0.214263438820462
7.4	0.894841349618133	0.429964813544087	5.10575831779972E-06	-7.15869327590437E-07	1.88672490487729E-06	-9.67661023757353E-06	0.983944637087361	0.0900593429053986
7.5	0.924020855083881	0.357204223256065	2.70740531675328E-06	-5.31781383716506E-06	2.04641094221277E-06	-7.28116178011402E-06	0.984204491729821	-0.0323574229907137
7.6	0.949949054230055	0.282722089998376	-3.38115527984408E-07	-5.62365160625829E-06	1.67535360338619E-05	3.78559224098186E-06	0.972894771870118	-0.154284677256905
7.7	0.969451074178716	0.205419535392862	3.50915034661717E-06	9.74812768173025E-08	3.12188995033092E-07	-2.91852959803646E-06	0.945723126975943	-0.274898213059825
7.8	0.982515461843232	0.127036671483599	-1.09478797523645E-05	-1.88507500987169E-06	-1.93455710399311E-07	3.42855417493844E-06	0.903931751549802	-0.391001770191901
7.9	0.988946394628886	0.0485515125623785	2.34983887727948E-06	2.02187546212144E-06	-6.92325421317845E-06	-4.68935136482639E-06	0.848322641214948	-0.50038870825885
8	0.991748438676917	-0.0288067312246084	2.34252120731722E-06	2.95384755659773E-06	-9.30686823190328E-06	-7.60514870915736E-06	0.782310949955013	-0.603086217743443
8.1	0.988298956291468	-0.110754448714948	3.83589635564408E-06	-3.07347908174636E-06	2.15286737558927E-06	-3.18965671348675E-06	0.700532568237975	-0.700494752011139
8.2	0.975892138861109	-0.190840891527983	-4.04525825727588E-06	1.42530557019075E-06	-6.7717532547725E-06	3.70377375043283E-07	0.60568384222522	-0.783928605145596
8.3	0.956703212554087	-0.26939056789447	9.89536752148545E-06	2.72512904704963E-07	6.28949959277033E-06	1.04662715753038E-05	0.501424888651333	-0.85395323258559
8.4	0.931122825931198	-0.345997848433782	1.29814028215484E-06	2.56044317406882E-06	3.4783722537406E-06	1.81660838478562E-06	0.3892668561279	-0.910160502399124
8.5	0.899490617522653	-0.420597214267197	-4.83140176410399E-06	4.99764566506243E-06	2.84666760581409E-06	-3.04266107671516E-06	0.271384821474573	-0.950978360047262
8.6	0.861388317291416	-0.492200005248753	-4.49932256353258E-06	2.11128796363817E-06	-3.0096667248761E-06	8.14799866955363E-06	0.149783272597491	-0.978201944906397
8.7	0.817869501536974	-0.56014578819865	-1.01855932710058E-06	1.22329882584847E-06	-6.31386915512954E-07	3.47435360558582E-06	0.0248046145296906	-0.989556212209858
8.8	0.769163584142434	-0.624215509567798	-1.5761628915752E-06	3.09415913491609E-06	-6.0192551528832E-06	1.31368086867149E-06	-0.100287699684903	-0.985284528954172
8.9	0.715562783004651	-0.684451249950364	3.1770920457162E-06	-1.85342939070747E-06	-3.17881347701605E-06	-4.4366576697023E-07	-0.225149405769999	-0.964966485714445
9	0.656282694509983	-0.739316485502648	-7.29838812821064E-06	1.40839903195977E-06	-3.98428161339887E-06	7.56422573092646E-07	-0.346152538896106	-0.926368212445029
9.1	0.594130577402875	-0.788925842765496	-3.37167137336956E-06	-1.85919152397234E-06	-9.68390131068353E-07	2.14398412511935E-06	-0.458608842496063	-0.874411406784457
9.2	0.52747605039672	-0.833667435094095	5.96815717978838E-06	-1.68461170075465E-06	2.04952839669033E-06	8.45915720072923E-06	-0.564258833800788	-0.80972180290242
9.3	0.457554876964625	-0.872729188657652	-3.30833294141312E-07	1.07081997990396E-06	1.37250341698959E-05	1.17065303852659E-05	-0.660810582826399	-0.732248611010907
9.4	0.383764126756192	-0.905644858650576	1.70749286742386E-06	-2.66465565343852E-06	4.28523980111895E-06	1.72286643016398E-06	-0.746666322981495	-0.643323444750586
9.5	0.309343175315641	-0.930169733239647	-6.49321417007618E-06	-4.83690744615038E-06	-1.95929297193512E-06	-5.66668577586523E-06	-0.819764541952113	-0.545249736146766
9.6	0.232749759460049	-0.953027484429119	-1.16479076987574E-05	-2.29599595638553E-07	-5.91784084668133E-06	-3.98682475048761E-06	-0.8841095024033	-0.439798687529136
9.7	0.152040231402733	-0.968070398283824	1.46295776180461E-06	-4.82200661340374E-07	-2.90535341075512E-06	1.64768214967514E-06	-0.93402036681192	-0.323835210359302
9.8	0.0706476997440442	-0.975200783431968	2.20572250353306E-06	1.38840456135279E-06	1.50494199550942E-05	-3.55281605251537E-06	-0.967476131120247	-0.202823283128674
9.9	-0.0105339336919433	-0.974521344797709	-3.41610570003952E-06	8.95593683128974E-06	1.37338896328354E-05	4.92161636091372E-06	-0.98546607053372	-0.0785664536028114
10	-0.0893412057682211	-0.967160168997233	-3.62517405433796E-06	1.62616752642511E-06	1.91127469800693E-05	-1.81554887625705E-05	-0.986789533410793	0.0467432606891818
10.1	-0.167713977167081	-0.953506786639982	-1.46643319631481E-06	2.29897100195241E-06	-8.40480601345628E-06	-4.26749858156547E-06	-0.973121922370041	0.170416800850436
10.2	-0.24323016809811	-0.933233048387943	-2.30326550678463E-06	-1.23051104916108E-06	-1.28506222495583E-05	7.23094207748093E-06	-0.943889610841714	0.291610361444432
10.3	-0.315431646432649	-0.907619936097364	5.74882187372789E-06	3.90336758505407E-06	-6.12431401724427E-06	1.38172764084186E-06	-0.900330513714438	0.407590849700466
10.4	-0.385666951036503	-0.877359978069546	2.09517471608615E-06	1.04328458554615E-06	7.00068807649774E-07	-8.19611901895122E-06	-0.843462428378525	0.517382877086501
10.5	-0.453289731238943	-0.840047684015351	4.35905945894366E-07	-3.05840756958516E-07	-6.59301319664714E-07	-5.62203160534248E-06	-0.772218551149093	0.622408577735421
10.6	-0.515393962732165	-0.797403498037353	5.06949988171584E-06	-2.61555427632759E-06	-9.75153694198454E-06	-7.83239069543357E-06	-0.684723211858234	0.714424012600417
10.7	-0.572857436595607	-0.750963732061201	-2.80647211175762E-06	-4.90142734159041E-07	-5.23399146515237E-06	-7.12401574928203E-06	-0.588524511636502	0.79290369204888
10.8	-0.626173018511838	-0.702520957963555	-3.61121377432228E-06	-3.41689691838472E-06	-1.18825369599084E-05	9.14724277418807E-06	-0.484717870333219	0.858576668567191
10.9	-0.677665895731049	-0.65158074681912	-1.13758141941036E-05	-1.0335240149013E-05	-4.41558499710639E-06	1.09312994680235E-05	-0.374321429694648	0.912015856079846
11	-0.723779726125713	-0.595132113378137	1.0112327795611E-06	1.39644402572096E-06	8.58688106637434E-06	-5.50586817565079E-06	-0.256020152262706	0.950248371228818
11.1	-0.764980627507079	-0.5402865310184	-3.31851706922284E-07	-3.60854195315946E-06	1.00980060814319E-05	-1.01558369957849E-05	-0.137305907623287	0.973436723823472
11.2	-0.805804982121095	-0.482274174897965	-1.03082586388717E-06	-3.89081722546573E-06	2.14220936932683E-06	-6.27921915976489E-06	-0.0145010892812611	0.983420850912369
11.3	-0.84326862541511	-0.419550593151411	1.61356209146982E-06	-1.19849216421051E-05	3.54479429474871E-06	-2.8113893650902E-06	0.109305298570599	0.977348581086087
11.4	-0.875348732574909	-0.35284085617228	9.81599366297698E-07	1.70158188510313E-08	-5.65069593713608E-06	6.43559704895831E-06	0.23177587878214	0.955486035074834
11.5	-0.900749533233887	-0.284745265378716	6.50778911241974E-06	-1.23409505714154E-06	8.1896197073647E-06	-3.1149742184367E-07	0.349438078726474	0.918142074559356
11.6	-0.924360693963	-0.215287520858261	-6.34466665971268E-07	-5.30059429355714E-06	1.43127528092016E-06	-3.0642975593211E-06	0.461914304981112	0.866168754101611
11.7	-0.941675156637518	-0.140581120658423	-9.34445455611114E-08	-6.01429587828066E-06	8.87592350813896E-07	-2.64356534716186E-06	0.566479034117565	0.800349120543872
11.8	-0.952560304249849	-0.0634318389598378	-1.06485954849112E-06	-7.36491346288613E-07	5.13447410380323E-06	1.07235140760975E-06	0.661552207826586	0.72204785633611
11.9	-0.956948978547937	0.0161649726465542	-3.19188845428772E-06	-5.17376227309745E-06	-5.34618662476976E-06	-7.95665005456587E-06	0.743931965285857	0.633974791353466
12	-0.952853203578605	0.0966857271348872	-2.93111608414232E-06	1.62503310233357E-06	-1.66086378965536E-05	-8.73899573125768E-06	0.817545668711629	0.540366196426002
12.1	-0.94211979588328	0.175078322820332	8.24289285012354E-07	-1.5570884218918E-06	7.78977782788585E-06	1.2225630194622E-05	0.880085992726266	0.432965796576921
12.2	-0.924232075485889	0.252226600750509	-4.09597533363239E-06	5.50562475853859E-06	4.04501615856071E-07	3.29392935319256E-06	0.927064669413488	0.319618858958519
12.3	-0.901068485924836	0.326938434931358	7.76560349401688E-06	6.38134532583267E-06	3.76486985298355E-07	1.08328859659892E-05	0.960190559746767	0.201380992515276
