# GHZ S RI R 50
0.2	0.987083844944731	-0.156575335614214	2.56552728980283E-06	2.25430606390166E-06	6.58133971980144E-06	-4.86928929167296E-06	-0.967521307095721	0.250942844019105
0.3	0.971229350703361	-0.233821326341096	-8.70521187938374E-07	-5.46259481502417E-06	-3.46496904001878E-06	-7.95997643289826E-06	-0.928445285609204	0.371021992189857
0.4	0.949963872666915	-0.309407849846648	-7.29208324276262E-06	-9.98805646338357E-07	4.44843202159998E-06	1.55151037485249E-06	-0.874316010551819	0.485184455290604
0.5	0.922872394975821	-0.383497485107373	6.21268591415284E-06	2.11060073838577E-06	-2.41889256367402E-06	-1.91265004301697E-06	-0.80581918675589	0.592408881067652
0.6	0.889492077643955	-0.454269289793823	-1.05714333891365E-05	2.46288120296195E-06	-2.22227315970594E-06	-1.00947917199752E-06	-0.72391353726039	0.688877420795674
0.7	0.851572107837693	-0.52200550776486	2.79051770266241E-06	-1.17328533721661E-06	-2.99634423919755E-06	5.79909021547202E-06	-0.63140683962969	0.774648473169975
0.8	0.80840302390551	-0.587253591070048	1.182823846892E-06	-8.4957369802611E-06	-6.63527428450685E-06	-3.08020586307235E-06	-0.528578741607972	0.848118457132403
0.9	0.760140708283553	-0.649297651735952	-1.14967449886026E-06	-6.83132798236507E-07	2.55341043599938E-06	6.56166657711728E-06	-0.417350362703137	0.90788515488184
1	0.706612708663115	-0.707671700229611	-2.75300822903532E-06	-3.23120586936663E-06	-4.07286085854882E-07	-7.33684002104413E-06	-0.299684589698138	0.95298029657933
1.1	0.649199989244044	-0.761497586735733	1.80923165081861E-06	-4.95537559876233E-06	2.27382707326103E-06	-5.14961780422045E-06	-0.176867205496358	0.983032744721643
1.2	0.586232246563631	-0.811294537064997	-2.499879156082E-06	2.49972110680351E-06	9.27641598185177E-07	-9.13850614669011E-07	-0.0509284577783757	0.996887011477063
1.3	0.517825053895047	-0.855727698880134	-1.54018802024325E-06	7.22520517709134E-07	-1.35647749702618E-06	1.46767899527469E-06	0.0756256964725138	0.994731906549867
1.4	0.446590241957532	-0.893601614201754	3.92436512625661E-06	-3.24966405251484E-06	2.71930292312049E-06	1.09519908742366E-05	0.201027034930697	0.976295249929436
1.5	0.374311296539607	-0.925284847195475	-5.34318800336014E-06	1.11524755167221E-06	6.59241905721519E-06	-7.22100274490094E-06	0.322996566708592	0.942974817414333
1.6	0.300776881769389	-0.952084381173836	1.77514994741627E-06	-7.75251619319841E-06	3.63863071311888E-06	1.38285741165301E-06	0.439194344024943	0.894288347949409
1.7	0.226259092716168	-0.972454127809184	-1.94599209081876E-06	-9.70377691382375E-07	-2.3709838472204E-07	-2.09116920055111E-06	0.54769935033207	0.832438229197172
1.8	0.149593813567692	-0.987359725896331	2.86025260661424E-06	5.29049649397531E-06	5.13532033595433E-09	2.03640844214379E-06	0.647981543168828	0.757029408655231
1.9	0.0721919655867691	-0.996504378172596	5.69061184868534E-06	-2.64060565327644E-06	-3.00691005559444E-06	4.17701750856448E-07	0.737416031966798	0.670216322999086
2	-0.00574868237400615	-1.00037144836948	-1.55731872149786E-06	-2.03462805995045E-06	3.23729661265707E-06	1.15082181669473E-05	0.817305605674762	0.572610216143736
2.1	-0.0862594723229373	-0.996552825520791	-7.57947960138285E-06	2.48441001797443E-06	1.2253372205776E-06	5.16470788274816E-06	0.882849620547274	0.463559813301571
2.2	-0.163361179007136	-0.986261856834653	-8.82773912589006E-07	1.40178072591987E-06	3.03509922331357E-06	7.79786484233908E-06	0.933570185325538	0.348621617863704
2.3	-0.240687483190013	-0.969845686325614	1.999217674006E-07	7.48057714879246E-06	7.44962328727864E-07	9.40266024525431E-07	0.969307707554412	0.228961848979527
2.4	-0.316673794340061	-0.947329048873169	1.60473329323932E-06	7.19769278021536E-06	1.54420535643943E-06	6.40815769337592E-06	0.990481821514428	0.104895475422979
2.5	-0.390252423869732	-0.919819463791581	4.40179073830081E-06	-2.33694007494335E-06	-1.94518552750943E-06	-7.59724659324189E-06	0.99587233356383	-0.0202547851228918
2.6	-0.462180313948936	-0.885867504581545	6.77684012367766E-06	-5.99481730611221E-06	-1.11072617874963E-05	1.09140316950888E-05	0.985569968010475	-0.146071229857409
2.7	-0.531308948953218	-0.846081608834069	-4.42078372955598E-06	9.19829341239852E-06	-2.92399588088369E-06	-9.18338745482441E-06	0.95893130519002	-0.269624656179138
2.8	-0.596083025664449	-0.801281937843927	2.47217846838411E-06	1.13571172630983E-06	-3.13323831393169E-06	1.26362047402805E-06	0.917471178181011	-0.388070183956361
2.9	-0.656739571125958	-0.751684836168914	-5.48318296031792E-06	6.06455566148024E-06	-9.22382471065784E-06	-2.3299890859515E-07	0.860901394033416	-0.499884052231054
3	-0.712934262750854	-0.696756255526717	4.64060732064083E-07	-1.47862913834127E-06	1.13549850056483E-05	1.39510150664111E-06	0.791058474216658	-0.603770495941451
3.1	-0.76511430856586	-0.639270864523919	2.46793853825394E-06	1.04917832634204E-05	4.34150804314323E-06	2.15112067387821E-06	0.7089781352131	-0.697663912650079
3.2	-0.812707942387147	-0.577389985162722	2.14092232441034E-06	6.45747819146348E-06	3.94434056487405E-06	-1.06323246120053E-05	0.615989876543234	-0.780456216402682
3.3	-0.855049166414992	-0.512004635317676	3.10816958484853E-06	4.9452438501373E-06	-2.27647020778732E-06	-9.656612707287E-06	0.512200422478252	-0.85138596883728
3.4	-0.890915416267934	-0.443985039854122	2.11086432901763E-06	-2.6124200217958E-06	5.96010433560309E-06	1.35228349135065E-06	0.401969273062335	-0.90777407734967
3.5	-0.922382641603379	-0.373285397408528	-3.23528117724148E-06	9.58314534544623E-07	-2.05973630015559E-06	3.4300095627655E-06	0.286532528816782	-0.95093650976987
3.6	-0.949530444676946	-0.299462358796437	-1.8317085544949E-06	-3.73731353582714E-06	-7.80835355775222E-06	4.14599665374607E-06	0.164169580077178	-0.98092779232538
3.7	-0.969454051489269	-0.223886349652676	7.78218582546654E-07	-8.3309087411454E-06	1.07874108545356E-05	3.63998525263712E-06	0.0383361325765365	-0.993223377645849
3.8	-0.983573680403134	-0.146647764633146	1.00140088417376E-07	1.5455595249333E-06	-6.48409934799948E-06	5.98273613347367E-06	-0.0866065373096336	-0.989346659073076
3.9	-0.991514031828594	-0.0692691523159902	-2.65212403941452E-06	-5.01085170631847E-06	-3.65931786713272E-06	8.03963187427698E-06	-0.211292959906987	-0.969985670915042
4	-0.993637607730893	0.00945316264309836	7.12131497488476E-06	-4.22220357087665E-07	-1.05096292455329E-06	-1.1987563370319E-06	-0.330472863619338	-0.9359995759953
4.1	-0.989822130600108	0.0875662773020707	6.1618059519966E-07	-4.4666416834752E-07	7.31462634114689E-06	-4.79002005902363E-06	-0.44577872700036	-0.887018181546937
4.2	-0.979903402266893	0.165367402715984	3.21066300136514E-06	2.08250168783237E-06	-7.21123848942496E-07	-7.56891137615199E-07	-0.55359999200799	-0.823433765235202
4.3	-0.964183845869391	0.241138427396976	-3.17735933702611E-06	1.38571441377759E-06	-4.97337724665163E-06	3.001410359045E-06	-0.6524113320006	-0.747684242193833
4.4	-0.942791496107944	0.315930043151877	8.15692689390342E-07	2.63551639851813E-06	1.51223411890499E-06	-8.3300543925438E-06	-0.741138543517405	-0.659702750475759
4.5	-0.914217186776904	0.389566046551122	1.81647778029679E-06	-9.49692182731851E-07	7.62286894565764E-06	-3.00835289026506E-07	-0.817824820890665	-0.560559135706582
4.6	-0.880083395231628	0.459427275922702	-6.90039806626525E-07	6.11853243541955E-06	-1.23513414518549E-05	-6.39366051441121E-06	-0.8804770495508	-0.453517971234073
4.7	-0.841758977668408	0.525942090536856	1.21085524051976E-06	2.4963241291685E-06	1.42618306412583E-06	1.85273243923605E-06	-0.930295472061789	-0.339868335216747
4.8	-0.797260711346408	0.590917401751321	-5.10502892412862E-06	1.11114940895864E-05	5.25975620434338E-06	9.62905264128588E-06	-0.965266726636221	-0.219989192264253
4.9	-0.747492901838101	0.651629775843676	1.20711785233132E-06	2.91263657528314E-06	-5.1325948606445E-07	-6.87962331512493E-06	-0.984429995686051	-0.0957842845023163
5	-0.692855357447434	0.706632000279811	4.70837845256212E-06	-9.2049319695884E-07	-3.71101646777217E-06	2.42109794861567E-06	-0.985870270042788	0.0278675333508612
5.1	-0.635822295988255	0.758292882404686	4.11043720605164E-06	-1.47245080060999E-07	-2.65746032515671E-06	-9.75340378925675E-06	-0.975706427551072	0.149675080064806
5.2	-0.574129334070099	0.806186807586494	2.5893835199998E-06	-1.49173140604936E-05	1.37445404437228E-06	2.80588303985709E-06	-0.949850102903767	0.271654725327342
5.3	-0.509042593152945	0.848779528352484	-8.66861820831056E-06	-7.71589160548066E-07	-1.12925984394737E-06	1.59080408846393E-07	-0.908174552124732	0.389440539523126
5.4	-0.441230546478673	0.886291561082257	-7.15293889301948E-06	-1.10073096080887E-05	-1.36747890129966E-05	1.11459947588724E-05	-0.851465009307946	0.500623499410836
5.5	-0.370577968068795	0.918346039732805	1.89840057733629E-06	8.78543189379751E-08	-2.2365846541481E-06	1.77881231340828E-06	-0.781745608138275	0.603007076150451
5.6	-0.29743317213851	0.944294569148139	-2.39506069605498E-06	3.50310627429051E-06	-1.33501991115249E-06	1.28579494030448E-06	-0.700132112964906	0.695643470827931
5.7	-0.222331052128491	0.964701038986755	1.30112710902747E-06	1.22518263492587E-06	5.73688480419198E-06	-1.22100621427283E-07	-0.607855599481938	0.777688042210255
5.8	-0.146066074031727	0.978451524172693	2.69035292964212E-06	4.23954739246204E-06	-2.10235887875546E-06	4.22282707622357E-06	-0.505815346931417	0.847528324721393
5.9	-0.0696760197466953	0.986672273030266	-6.85441251743007E-06	-2.29853738072198E-06	-8.38301194011679E-08	6.26263977454368E-06	-0.396455957053387	0.904588235780816
6	0.00810554253827253	0.989887352544348	-1.7893363344489E-06	8.7473715369597E-08	-5.44754130839267E-06	-4.38880118189832E-06	-0.279117730949949	0.948541984489444
6.1	0.0859649388652793	0.984442895681713	3.10206120635694E-08	-9.89442171239583E-06	-9.84838792510276E-07	-3.20718867948308E-06	-0.156639814537344	0.974286106972594
6.2	0.16217524094768	0.973689834193936	-1.0134469334995E-06	3.10261086122094E-06	-1.74622739066667E-06	4.20136392559073E-06	-0.0333464888961827	0.984473214858211
6.3	0.237719879801197	0.95808604135593	-7.98626864973318E-07	2.81805408196523E-06	-2.92186470674026E-06	2.38758364673448E-06	0.089682660095601	0.980195196481385
6.4	0.313009914319843	0.937499999085409	-5.93938003697584E-06	5.52538571467068E-06	-2.37206126526667E-06	-7.44521852880564E-07	0.212357973409428	0.961801057530632
6.5	0.38817038344308	0.909193101089278	1.38794646149225E-06	-5.25429760313003E-06	-1.44619335909137E-06	-2.36321528538019E-06	0.333142134465709	0.925718864813365
6.6	0.457565899073204	0.874944236109271	3.63188505690948E-06	2.06989705143843E-07	1.12356052849035E-05	-2.66698588298849E-06	0.444447153973856	0.8754292329102
6.7	0.524918826775532	0.836553250589318	-7.72507436636631E-07	8.41456742549142E-07	-3.75338266961163E-06	5.19520454418228E-06	0.549496747944202	0.813780159326113
6.8	0.589338894483018	0.792791539851454	-1.7538060909793E-06	4.45832090097472E-06	1.44708581074028E-06	-8.7538465409088E-07	0.646714276563814	0.739392485368576
6.9	0.650038454963361	0.744093017262704	5.8779519865061E-06	2.25411267955056E-06	-9.33436698356195E-07	2.39859354213254E-06	0.734120765807895	0.653495865485372
7	0.706869902084902	0.690557522603995	1.15579619367634E-06	-4.1261012978354E-06	-1.4361262269646E-06	2.89719764296306E-06	0.810833694421449	0.556773356895333
7.1	0.759081760947778	0.63274041283719	2.42342329895297E-07	-7.14390478653175E-07	1.92557982611615E-06	9.16233832884657E-06	0.873843344440301	0.45070269056251
7.2	0.806628335912506	0.570654392641543	1.39071007710578E-06	-2.3980391485353E-06	-9.69198554293462E-07	-8.53665315161428E-06	0.922994830501212	0.338375732180985
7.3	0.848867647802947	0.504649177237716	4.78215362657854E-06	7.21855104062767E-06	-9.68546424316235E-06	2.27834605443498E-06	0.957553209083094	0.2206564493556
7.4	0.88560867357838	0.435831562430962	5.07135078323544E-06	-6.50949147325143E-07	1.98265683658816E-06	-9.57395956038217E-06	0.977123153497916	0.0999811709020334
7.5	0.918388059852068	0.365515634103054	2.7792277172517E-06	-5.25549124803395E-06	2.15113757315671E-06	-7.2215091535874E-06	0.984114903439309	-0.0214584585390036
7.6	0.946384751960544	0.289999350407278	-2.61849538230111E-07	-5.63070836041561E-06	1.67094334294087E-05	4.01489649313752E-06	0.975388408654328	-0.147012676170295
7.7	0.966858009594487	0.212587372719418	3.51603250296527E-06	1.39255355641589E-07	3.47461412592754E-07	-2.92151686521066E-06	0.949025387562324	-0.269568525211581
7.8	0.980880495248292	0.134446814072798	-1.09649588816765E-05	-2.00377713272248E-06	-2.29308747607642E-07	3.43797871954351E-06	0.907584667419369	-0.386843452721451
7.9	0.989335912275854	0.0559317141462692	2.34258256362952E-06	2.05114778593204E-06	-6.91288407355096E-06	-4.77003752050255E-06	0.852916423618585	-0.497413079898468
8	0.993089720859682	-0.0252680330356376	2.33976740388492E-06	2.97645143830148E-06	-9.31367991676396E-06	-7.67742450518292E-06	0.785148574276252	-0.602992054658718
8.1	0.986100715018582	-0.106507265382889	3.84534562498125E-06	-3.05545197946399E-06	2.1641234770297E-06	-3.17837762159312E-06	0.701593631677347	-0.69665318427541
8.2	0.973731485572622	-0.184594803149841	-4.04458502917381E-06	1.3966965268255E-06	-6.75805093130463E-06	3.27252135048463E-07	0.609455332357746	-0.778306697621723
8.3	0.955432318868179	-0.261958044676906	9.86720374087597E-06	3.48646252297574E-07	6.19165937701633E-06	1.04875677629334E-05	0.507845173387875	-0.848480999533262
8.4	0.931091498313995	-0.337846582577364	1.27175318915343E-06	2.56492533030529E-06	3.45258247027628E-06	1.84256002420291E-06	0.398043490852554	-0.905667166577173
8.5	0.900698571425636	-0.41220485516534	-4.87489176622735E-06	4.93558738247755E-06	2.87334135198345E-06	-3.00589330060752E-06	0.281852318932178	-0.948611579844025
8.6	0.864105162300033	-0.48368241732524	-4.51935482036109E-06	2.0621576596236E-06	-3.09487751467779E-06	8.11142704084653E-06	0.161135238906852	-0.977286050412925
8.7	0.822064072475685	-0.552185670232759	-1.03125366914583E-06	1.21285413885482E-06	-6.67304245945895E-07	3.46804309067459E-06	0.0372700624216038	-0.990724875073843
8.8	0.774422259538958	-0.617083437885468	-1.60731588375773E-06	3.07980972030905E-06	-6.0345683103937E-06	1.25478527812929E-06	-0.0875437204031365	-0.988749923161906
8.9	0.721591211198034	-0.677760571647585	3.19335238047036E-06	-1.82252827468053E-06	-3.17328694601881E-06	-4.73630275906074E-07	-0.212002122273941	-0.969798003785837
9	0.664331233087211	-0.733237013078086	-7.30611482096941E-06	1.31588835497365E-06	-3.98834523821973E-06	7.0593647360165E-07	-0.33042330637905	-0.935335827316173
9.1	0.603171338281609	-0.784790672921223	-3.35052508170787E-06	-1.91060429079814E-06	-1.00073223525658E-06	2.13360506975966E-06	-0.445719512946788	-0.889092214915185
9.2	0.537278908397793	-0.831011148972323	6.0181690258997E-06	-1.60364334300647E-06	1.93333991939493E-06	8.52505233963004E-06	-0.55547784901888	-0.82734930724955
9.3	0.467840820978187	-0.871552143575165	-3.48203620644047E-07	1.07301214005534E-06	1.36468835121966E-05	1.1977281547765E-05	-0.65642706320543	-0.750560660214949
9.4	0.395460390556563	-0.905311906598503	1.75801785912179E-06	-2.66141211404561E-06	4.29434140888018E-06	1.79619019751266E-06	-0.744905523974331	-0.660959427713297
9.5	0.322136489711698	-0.935108008370782	-6.50438671227327E-06	-4.97308402122324E-06	-1.90938694777827E-06	-5.75470257197333E-06	-0.821811003901308	-0.562837246276928
9.6	0.241688791080464	-0.959288400193739	-1.17635514990316E-05	-3.43753124561649E-07	-5.93943767987456E-06	-4.08397828530327E-06	-0.886981700552247	-0.454440475251413
9.7	0.160402372367168	-0.974248433998056	1.48161347738794E-06	-4.72581382117685E-07	-2.94911149608489E-06	1.63516716634661E-06	-0.937379081821058	-0.338726995681887
9.8	0.0791225376005311	-0.982324761466736	2.21475943721401E-06	1.42447985161697E-06	1.52396028633951E-05	-3.44094576398085E-06	-0.972940549771927	-0.217862097079046
9.9	-0.00198274194745435	-0.983796828724979	-3.54029535994852E-06	9.03070004123408E-06	1.38514946377006E-05	5.10828714744722E-06	-0.993763897382061	-0.0926691229233381
10	-0.0829416783900421	-0.979006072572297	-3.68408408426123E-06	1.6191601988675E-06	1.94969002402799E-05	-1.82412539016628E-05	-0.997574460923276	0.0349445054513237
10.1	-0.163181550496003	-0.966317329365496	-1.50136716338471E-06	2.32036947480534E-06	-8.49023364335261E-06	-4.38044357226647E-06	-0.985022392307543	0.161543314843069
10.2	-0.241098672123584	-0.947372082452171	-2.32976872723347E-06	-1.2591617275488E-06	-1.30674886053913E-05	7.27015625295065E-06	-0.956328563769427	0.285402891634287
10.3	-0.316182965678731	-0.921962426824434	5.81784391369986E-06	3.9757977487774E-06	-6.21470702692165E-06	1.38253158696604E-06	-0.91266824654977	0.404447474206253
10.4	-0.388478140300666	-0.891085510087393	2.12202718642747E-06	1.05901650559832E-06	7.16756284188587E-07	-8.30421616239146E-06	-0.853452229328639	0.517751179305495
10.5	-0.45779148983783	-0.854144597243215	4.40097213513658E-07	-3.08819713465982E-07	-6.65998571382909E-07	-5.67628115587658E-06	-0.777279772871384	0.620674258163265
10.6	-0.523063441236396	-0.811230276829852	5.11940878275081E-06	-2.62456666341723E-06	-9.81399814108749E-06	-7.92439031149771E-06	-0.69242832527654	0.709930112367055
10.7	-0.583647669738285	-0.763253702969607	-2.83124825471654E-06	-5.04936046542769E-07	-5.25772500705526E-06	-7.21035221299442E-06	-0.598700560755777	0.790206557261838
10.8	-0.639527325728414	-0.711709688630702	-3.63796679228697E-06	-3.46306246630991E-06	-1.20326891106418E-05	9.20517536029682E-06	-0.494925538750791	0.859126133602288
10.9	-0.69064996000741	-0.65649543893825	-1.14608254607311E-05	-1.04606416425294E-05	-4.48324316097815E-06	1.10257829066235E-05	-0.382674846844974	0.91478081332183
11	-0.734916941574045	-0.601353943428242	1.01623966504325E-06	1.41502680932219E-06	8.69832110331587E-06	-5.52922469309825E-06	-0.26322723874478	0.954468615531287
11.1	-0.780012186624277	-0.545040318662189	-3.30445271279723E-07	-3.65260865698119E-06	1.02351623275006E-05	-1.02633088037676E-05	-0.140900787252675	0.978876647155546
11.2	-0.821446382687406	-0.483537876148555	-1.04245750998595E-06	-3.93472250532442E-06	2.16638351100609E-06	-6.35007547270266E-06	-0.0159804316486095	0.987630553500942
11.3	-0.858189758827444	-0.418167408726248	1.62607949767697E-06	-1.21123621192554E-05	3.58123690941808E-06	-2.84248807422163E-06	0.108319420419015	0.980782538483091
11.4	-0.888666256804714	-0.350657611949002	9.91865627050031E-07	1.7271653807299E-08	-5.7103130725539E-06	6.50246578246117E-06	0.231360782240514	0.959219344075017
11.5	-0.916344936608266	-0.282523745098528	6.58616344805438E-06	-1.25344873843605E-06	8.28907568021022E-06	-3.20743967298529E-07	0.350909723806661	0.922149336052124
11.6	-0.939560864551588	-0.208402297092049	-6.53398045383514E-07	-5.36153317326842E-06	1.44146843908459E-06	-3.10341839089288E-06	0.464860339908069	0.869719611871762
11.7	-0.953976522090311	-0.131628371192853	-1.09742146536326E-07	-6.08348374339251E-06	8.91148578961341E-07	-2.67632661509725E-06	0.570863300906885	0.803913385491848
11.8	-0.961831257114501	-0.0539957028511141	-1.07952462453515E-06	-7.42229318695095E-07	5.19824930736192E-06	1.07067766570829E-06	0.668289589883892	0.726115242139648
11.9	-0.962541599451758	0.0239558358374915	-3.25225283820105E-06	-5.23262229712905E-06	-5.44490525774968E-06	-8.04569709303162E-06	0.757083470391462	0.638477411351035
12	-0.959067471367633	0.100947561332754	-2.95891803461571E-06	1.66880392515973E-06	-1.68989803419049E-05	-8.73483467566405E-06	0.836124428352725	0.535581627571452
12.1	-0.951006345201689	0.178200524207133	8.20795555688037E-07	-1.58232055851449E-06	7.98449587726136E-06	1.23031848102383E-05	0.895916670681247	0.421135726645052
12.2	-0.935451465983812	0.257062498219643	-4.08837468690506E-06	5.60794425500187E-06	4.41316954712755E-07	3.32719787526545E-06	0.940175359236821	0.303241085973903
12.3	-0.913350216306622	0.334852028703605	7.92126200341926E-06	6.35716592484333E-06	5.07061938963025E-07	1.0941555405545E-05	0.969333024446058	0.181234238049685
