# GHZ S RI R 50
0.2	0.988097208926668	-0.156300020910742	2.56632522710409E-06	2.25773697062084E-06	6.58978257962374E-06	-4.86942112227495E-06	-0.968413866518492	0.250403614511524
0.3	0.972445212582082	-0.233612237494621	-8.67255101059396E-07	-5.46916027797379E-06	-3.46258020471005E-06	-7.97123450539232E-06	-0.92978012961927	0.370462473115831
0.4	0.951482825859814	-0.309311099980374	-7.3019225874137E-06	-1.00689509120537E-06	4.45357932252965E-06	1.55783367589932E-06	-0.876246112487877	0.484866471081992
0.5	0.924635221313078	-0.383990460056823	6.2238033148114E-06	2.11788308415466E-06	-2.4226692494388E-06	-1.91762499805466E-06	-0.807981524168418	0.593045103517155
0.6	0.890908368473955	-0.454972967476099	-1.05899146673423E-05	2.46344583640748E-06	-2.22564557046072E-06	-1.01191096548848E-06	-0.725633593830588	0.689659563260394
0.7	0.853035072795103	-0.522789385724563	2.79611243861176E-06	-1.17399655543461E-06	-3.00462016173741E-06	5.80800089697501E-06	-0.633316070487558	0.775617673523898
0.8	0.809893549193804	-0.58830259866189	1.1893737049825E-06	-8.51238493350619E-06	-6.64722278026614E-06	-3.08969371129173E-06	-0.530547283578536	0.849548557998545
0.9	0.761476686788321	-0.650665613334398	-1.15195824170067E-06	-6.85073616805059E-07	2.55658937493659E-06	6.57712245435067E-06	-0.419198916196847	0.909794408231478
1	0.707643998946778	-0.709005485073386	-2.75821297576276E-06	-3.23934304102746E-06	-4.059306289633E-07	-7.35350553962317E-06	-0.30133713168091	0.955363704496333
1.1	0.65044351364617	-0.762876973348531	1.8153661717658E-06	-4.96703680006482E-06	2.28117651251641E-06	-5.16160452969306E-06	-0.17809861109226	0.985908067770179
1.2	0.587407508971121	-0.812962049823273	-2.50698464894577E-06	2.50610227679859E-06	9.30276277675625E-07	-9.16181460916327E-07	-0.0515644450807763	1.00014290696561
1.3	0.518736501501088	-0.857624352717398	-1.54428898945871E-06	7.24955687172083E-07	-1.35986308384033E-06	1.47214338729769E-06	0.0759293702098085	0.998182331244919
1.4	0.447018301713552	-0.895395258518376	3.93190473360878E-06	-3.26092133884778E-06	2.734534826331E-06	1.09778448158664E-05	0.202283988037953	0.979484670108467
1.5	0.375353007718345	-0.926771149544631	-5.35481129254683E-06	1.12151987658119E-06	6.6027279970569E-06	-7.24229800500338E-06	0.325088155238799	0.945882244653026
1.6	0.30174515525872	-0.954857973454841	1.77365200037463E-06	-7.77402105379652E-06	3.64915665699107E-06	1.38358008673925E-06	0.441708602942546	0.896379829547216
1.7	0.226419715074559	-0.975569160976787	-1.95213793446315E-06	-9.71057235291964E-07	-2.39783780952517E-07	-2.09651725369529E-06	0.550243379234423	0.834155030660027
1.8	0.149184343197805	-0.990433892609104	2.87332183227381E-06	5.30123568182467E-06	7.31208830024875E-09	2.04170631246855E-06	0.650528124667708	0.758390926921153
1.9	0.0716903482495019	-0.999386448538421	5.70357631505289E-06	-2.65107080112832E-06	-3.01438937763213E-06	4.20712516478126E-07	0.739573958565704	0.671663340473017
2	-0.00615242785401498	-1.00425386862497	-1.56463365843978E-06	-2.04223409387341E-06	3.25587110485197E-06	1.15538174999959E-05	0.820885702699852	0.575204548682265
2.1	-0.088267305666618	-1.00065165426106	-7.60477614382689E-06	2.51098741448582E-06	1.2415529012496E-06	5.18296367164338E-06	0.887741037854558	0.463755613965908
2.2	-0.166079694924677	-0.989870970978217	-8.82355448113078E-07	1.40865891266681E-06	3.06427419896342E-06	7.81684796977038E-06	0.937606704180782	0.347516881224562
2.3	-0.244013807369771	-0.973132923138076	2.1874085518496E-07	7.50361852061366E-06	7.49591762729924E-07	9.41411796037631E-07	0.972638499464942	0.227292515033686
2.4	-0.320689423216948	-0.95016883477572	1.62737991085731E-06	7.21610788158316E-06	1.56472649784604E-06	6.42426935696755E-06	0.993234626891179	0.102930357721103
2.5	-0.394807476716562	-0.921913957261596	4.40948674521841E-06	-2.35607388409737E-06	-1.97160168468846E-06	-7.61609860940077E-06	0.998366071248425	-0.0224785175345234
2.6	-0.466986087477295	-0.887326537328752	6.78151165199595E-06	-6.03219609930024E-06	-1.11119226366639E-05	1.09786960967728E-05	0.987606251477831	-0.148555080606196
2.7	-0.536415726797453	-0.847007612295166	-4.40847190560532E-06	9.24308067569562E-06	-2.96147672426187E-06	-9.20617476545311E-06	0.96093047498563	-0.272424777935151
2.8	-0.601678256112915	-0.801622364771526	2.48522011436791E-06	1.13115042782632E-06	-3.14024002650313E-06	1.27928408961866E-06	0.919112840323646	-0.391652435433722
2.9	-0.663071102746992	-0.750835428440574	-5.47846603759098E-06	6.11125518438828E-06	-9.26032845671123E-06	-1.94614587979894E-07	0.861707521473922	-0.504043325054841
3	-0.718248696517757	-0.693616547536371	4.57380733317575E-07	-1.4858966340647E-06	1.13988311362018E-05	1.33689917815922E-06	0.791015858972391	-0.60822766923718
3.1	-0.769170572976962	-0.636691967085273	2.53058931731878E-06	1.0502448047994E-05	4.36315262368391E-06	2.1324736885843E-06	0.707731131865352	-0.702548172569071
3.2	-0.816900676358208	-0.574597707318006	2.18112088939376E-06	6.45816194952871E-06	3.89275494185876E-06	-1.06751071924518E-05	0.613272375004628	-0.785095907888227
3.3	-0.859085035704822	-0.50847867165837	3.14166259227599E-06	4.93346793084076E-06	-2.33677294496966E-06	-9.6561010658017E-06	0.507956077686032	-0.855328579963114
3.4	-0.894117024004354	-0.439440724226277	2.09513491261065E-06	-2.62523006934402E-06	5.96841061055036E-06	1.31631700594159E-06	0.396154994175511	-0.90990033393089
3.5	-0.923837137238393	-0.369508781530061	-3.22935616627043E-06	9.70684921805405E-07	-2.0446454029062E-06	3.43607355430387E-06	0.282277866178145	-0.95051577901306
3.6	-0.952117722323948	-0.296207319683234	-1.84953932545905E-06	-3.73303582459449E-06	-7.79804462157662E-06	4.1835574716992E-06	0.160110857339748	-0.981944526675318
3.7	-0.972024233909148	-0.219569861089672	7.35657513114722E-07	-8.33913414880865E-06	1.08116339158909E-05	3.58620549946275E-06	0.0329149291534116	-0.993358828197908
3.8	-0.985528685889657	-0.141559550187992	1.08257449779732E-07	1.54476370712978E-06	-6.45148281120614E-06	6.01582371867889E-06	-0.0923684454727556	-0.987899867199119
3.9	-0.992604609254732	-0.0635267246436747	-2.67553782839061E-06	-4.99541309596188E-06	-3.61799317921639E-06	8.05383224475844E-06	-0.216446982394608	-0.967062255718033
4	-0.993318524470324	0.0154783815140158	7.11885653612995E-06	-4.59715686839503E-07	-1.05724237603014E-06	-1.19318124895289E-06	-0.334847499623171	-0.93293407183518
4.1	-0.988492612016703	0.0930792279694565	6.13021648398553E-07	-4.49922778223395E-07	7.28015075915321E-06	-4.82913700371568E-06	-0.450471731315433	-0.883048166747181
4.2	-0.977913385943115	0.17041090114935	3.21759443137783E-06	2.06086170344066E-06	-7.24337460811193E-07	-7.51580358174026E-07	-0.557609951627575	-0.818314754068199
4.3	-0.961826437278828	0.245610811288385	-3.16336962691803E-06	1.39940702290553E-06	-4.94712283921537E-06	3.02107787342481E-06	-0.655420298404803	-0.741799519085123
4.4	-0.940879600518261	0.320277244263598	8.25032885721682E-07	2.62698540441503E-06	1.4747241275754E-06	-8.32005921447388E-06	-0.743139658322475	-0.653565325025954
4.5	-0.911231590279436	0.395991842510572	1.81169999591714E-06	-9.58196381658684E-07	7.62034508937363E-06	-3.37051506379327E-07	-0.819227157977026	-0.553966062687713
4.6	-0.874331171724469	0.46428233162726	-6.511984990623E-07	6.11520788178701E-06	-1.23756740705934E-05	-6.30903420920916E-06	-0.880554453744336	-0.446680363458616
4.7	-0.835629837290742	0.529247359948506	1.22396919476974E-06	2.48399416693395E-06	1.43489495303068E-06	1.84031490752586E-06	-0.929457905959107	-0.333168315852946
4.8	-0.790936518938376	0.593306515339047	-5.02142094466899E-06	1.11191918763858E-05	5.3101070467422E-06	9.57301357982228E-06	-0.963740583413474	-0.213308435585592
4.9	-0.740660807286118	0.653836114565154	1.22557045619562E-06	2.8954672797303E-06	-5.63367059059593E-07	-6.8565845623016E-06	-0.982265175515943	-0.0882981554179689
5	-0.683509367620542	0.706766901576272	4.67385286783499E-06	-9.52861671850527E-07	-3.67023559939343E-06	2.43682918892551E-06	-0.979848650380271	0.0358146252382491
5.1	-0.628659120212514	0.755186578220279	4.08280538416802E-06	-1.68737336310166E-07	-2.69339394209712E-06	-9.67523008895996E-06	-0.968780589236374	0.154018584899426
5.2	-0.568479883400889	0.802978248918394	2.49991442619997E-06	-1.48340930252602E-05	1.37932023600581E-06	2.78114131463333E-06	-0.943126950227295	0.275036254589336
5.3	-0.503935351575096	0.845360767872752	-8.6109272149333E-06	-7.29596344244705E-07	-1.12064935805924E-06	1.62725688409391E-07	-0.900787516014249	0.391808085908356
5.4	-0.43658341288893	0.882487040581572	-7.1281444865508E-06	-1.09058465220896E-05	-1.35427997554741E-05	1.10982215766358E-05	-0.843528547760742	0.501213990486535
5.5	-0.365882569292701	0.91400672683106	1.88775412301452E-06	8.49260265301966E-08	-2.22163182419787E-06	1.77159447908222E-06	-0.774414925521472	0.601420290888778
5.6	-0.293618015323886	0.938460018724684	-2.37222869614088E-06	3.48999335241475E-06	-1.32409206949673E-06	1.28221177808614E-06	-0.693904457805545	0.6930840004913
5.7	-0.220031819528715	0.958269870706742	1.295696693662E-06	1.21377657825839E-06	5.69878069426754E-06	-1.36002170509958E-07	-0.602347332590908	0.774141032332323
5.8	-0.145328434251375	0.971656310952765	2.67791428515137E-06	4.20188045499578E-06	-2.0781113068941E-06	4.19452760909227E-06	-0.501286333871783	0.842737985471554
5.9	-0.0714760693863316	0.980042573355546	-6.79041634125152E-06	-2.27723511506029E-06	-8.31778002150901E-08	6.20421046267359E-06	-0.394026735905224	0.898509215112102
6	0.00495486672253023	0.98717514223167	-1.77663291964765E-06	7.88880209548813E-08	-5.38819505029015E-06	-4.38088032694506E-06	-0.279431854240398	0.944257674711666
6.1	0.0854758485129952	0.982068270685674	6.30434929744969E-08	-9.85161187051575E-06	-9.70164426502477E-07	-3.19654564683927E-06	-0.15606260308937	0.97084317983877
6.2	0.161833780183787	0.970441909815522	-1.01802506874289E-06	3.08794884051733E-06	-1.75099314373101E-06	4.18048953511915E-06	-0.0331485908771932	0.980668395105697
6.3	0.236786250781095	0.954356136325263	-8.03243585042182E-07	2.80671797810744E-06	-2.91838074337978E-06	2.37220505142438E-06	0.0890259818519593	0.976285328977121
6.4	0.311288219789094	0.934669088678762	-5.94025287487354E-06	5.49850235339973E-06	-2.36503273981447E-06	-7.48829291113009E-07	0.210697896061248	0.959081368360297
6.5	0.389445379148657	0.905917435068212	1.38207693262347E-06	-5.25150137823828E-06	-1.44723220057375E-06	-2.36006768839367E-06	0.334474665696157	0.923191905172476
6.6	0.456204783804917	0.867961551219479	3.61513036792029E-06	1.97886241046538E-07	1.11763765822605E-05	-2.67946939453062E-06	0.443578220245993	0.869259621260138
6.7	0.520882002659781	0.830288536929795	-7.66792659979818E-07	8.36904496712984E-07	-3.72452025358566E-06	5.16609248841886E-06	0.545938263383225	0.808215688303491
6.8	0.583912347996458	0.787431574419967	-1.740235140128E-06	4.42662196060273E-06	1.436487911803E-06	-8.69396503871751E-07	0.641571127122308	0.734754637412815
6.9	0.643401345323962	0.739795446193585	5.82612442233494E-06	2.23888778537326E-06	-9.27107534499846E-07	2.37743507839242E-06	0.72743786730221	0.650158458393774
7	0.699908306634086	0.687684197024328	1.16279603841403E-06	-4.0862510342261E-06	-1.43572321540591E-06	2.86666699424276E-06	0.803913885181801	0.555586691249675
7.1	0.751772583963672	0.630265181192787	2.43608997441444E-07	-7.09284112825484E-07	1.87978241586473E-06	9.11579721266281E-06	0.866943895685212	0.449933844003055
7.2	0.798648599163585	0.5689393624241	1.38933240200966E-06	-2.38040788247355E-06	-9.40055980441911E-07	-8.49023256985894E-06	0.915409063157846	0.338443474135017
7.3	0.840291400080514	0.503547819067348	4.73983172010516E-06	7.18334849654536E-06	-9.63066130619144E-06	2.24675594366304E-06	0.949198222844442	0.22150138144801
7.4	0.875272370824056	0.435233687983331	5.02948619336959E-06	-6.43992772612833E-07	1.96915113681809E-06	-9.49393936716757E-06	0.966373040995129	0.102145780097509
7.5	0.906411221024213	0.369093880010621	2.76434941191904E-06	-5.17964973351512E-06	2.15145235768012E-06	-7.12355255407864E-06	0.972850027087929	-0.0128627272328615
7.6	0.936641050818664	0.295629246446121	-2.21193003033499E-07	-5.57395700060875E-06	1.65087362487459E-05	4.0857480349838E-06	0.968252663794253	-0.136606757379858
7.7	0.957732912820883	0.219425738097109	3.4797278769723E-06	1.65442770194313E-07	3.66899930180115E-07	-2.88953286749748E-06	0.943777442166088	-0.257900765516373
7.8	0.972377053935717	0.143071260639753	-1.08403562362905E-05	-2.09105691652344E-06	-2.60500232277926E-07	3.40278529277169E-06	0.904772695939324	-0.373710800652397
7.9	0.982078096081175	0.0678142769995787	2.29632551431982E-06	2.0640030027966E-06	-6.79292034613535E-06	-4.81882218190214E-06	0.853934785803545	-0.482333543349097
8	0.992714845772685	-0.0114679858616883	2.28979726356514E-06	3.00657367267626E-06	-9.17855217481906E-06	-7.80526115724803E-06	0.7940084075393	-0.591269104603171
8.1	0.987664144003089	-0.0974070246593537	3.88213788186692E-06	-3.01850358994079E-06	2.20022038765883E-06	-3.15931208747183E-06	0.70885423941281	-0.691351885721978
8.2	0.974905489021416	-0.176282392215526	-4.05968126539775E-06	1.36234959762432E-06	-6.76574073732583E-06	2.68428214930835E-07	0.615132442600691	-0.773698150999777
8.3	0.957163462300476	-0.253777993488165	9.87146796375972E-06	4.27140867940067E-07	6.11290434425104E-06	1.05441380853041E-05	0.513291270137017	-0.844288043841489
8.4	0.933732066157343	-0.329873506592496	1.25493613996493E-06	2.57528878575307E-06	3.44211073454781E-06	1.86744966676239E-06	0.403524195322606	-0.901603222166148
8.5	0.904403181179914	-0.404966407899741	-4.90434000219306E-06	4.89650225762772E-06	2.89137406970144E-06	-2.98275664247113E-06	0.289214234574138	-0.94503436223985
8.6	0.868232334003358	-0.477020389094671	-4.53740916071619E-06	2.02287787857208E-06	-3.16554091618135E-06	8.08468899372246E-06	0.168559768803233	-0.976671558266982
8.7	0.827015880207418	-0.545962896099039	-1.04331754365856E-06	1.20576292241298E-06	-6.983428584953E-07	3.46752016231131E-06	0.0435980274546663	-0.991675265765116
8.8	0.78022527802082	-0.611728851010327	-1.63754732656668E-06	3.0757116956084E-06	-6.06291934720319E-06	1.20867633340665E-06	-0.082595109556964	-0.991035974719515
8.9	0.727585430704664	-0.673679977913514	3.22068420574442E-06	-1.81064302830832E-06	-3.1856145890982E-06	-4.96530334050431E-07	-0.209944444521943	-0.972341486464113
9	0.670071944194498	-0.728803890904553	-7.33168951896824E-06	1.29579955380191E-06	-4.00226566420275E-06	6.94934088551157E-07	-0.328210843457464	-0.933835729054905
9.1	0.610338557091598	-0.781124737167819	-3.34688540284421E-06	-1.92860944837556E-06	-1.01187554534446E-06	2.13226392997845E-06	-0.441030220894593	-0.889185659167499
9.2	0.544661870107399	-0.828480414755867	6.03265174138434E-06	-1.57758307827458E-06	1.89602851261219E-06	8.54399748229999E-06	-0.550641147093203	-0.828522691491813
9.3	0.475094880493635	-0.869779440949673	-3.5374713360303E-07	1.07167583886183E-06	1.35918445219986E-05	1.2050730104481E-05	-0.651269244635427	-0.752968894013265
9.4	0.402044982401997	-0.902888224521801	1.77169115531423E-06	-2.64827937246391E-06	4.27923380165699E-06	1.81936899779574E-06	-0.73933028256771	-0.664151349748035
9.5	0.333524940131004	-0.931596992725664	-6.44316434050377E-06	-5.04339863261687E-06	-1.84260898554393E-06	-5.77223437909466E-06	-0.81466213517647	-0.57177033636171
9.6	0.253682965869866	-0.962120034731837	-1.1816526657427E-05	-4.71896083747071E-07	-5.92413839235295E-06	-4.16751646672659E-06	-0.88727140734175	-0.466104220907541
9.7	0.169890182171828	-0.979264307471185	1.49436191576894E-06	-4.62624086810358E-07	-2.98045345471314E-06	1.61942016198781E-06	-0.941383404596014	-0.348116667423483
9.8	0.0869230682807508	-0.988188756211457	2.2173340486569E-06	1.45010925466855E-06	1.5358716965837E-05	-3.34520299832381E-06	-0.97883065522997	-0.225371590946409
9.9	0.00494624965830026	-0.990132479625984	-3.62982834295761E-06	9.06421621163721E-06	1.39052628111277E-05	5.24349489854364E-06	-1.00089754493822	-0.0983579416366056
10	-0.07665476092747	-0.987290137793191	-3.72127189643987E-06	1.60818648626641E-06	1.97538157415745E-05	-1.82543946417684E-05	-1.00499824695484	0.0303690025612386
10.1	-0.159551250643139	-0.974976208047331	-1.52506838593407E-06	2.32714941678787E-06	-8.52157221437194E-06	-4.45968843742199E-06	-0.994113660910899	0.157524789987048
10.2	-0.238455747172851	-0.955696551345662	-2.33809161225863E-06	-1.28302574853032E-06	-1.32063756150116E-05	7.23734057409599E-06	-0.967082391506987	0.283043965915968
10.3	-0.314394087028153	-0.930628274520261	5.8372582076449E-06	4.04830938958891E-06	-6.27452297957501E-06	1.35056414268583E-06	-0.925125671553539	0.404112614618601
10.4	-0.388180009821047	-0.90004514716263	2.13617860654021E-06	1.08555687917494E-06	7.85189946804823E-07	-8.38478339174922E-06	-0.868374588103913	0.521203638112951
10.5	-0.458697641589395	-0.862402858863724	4.47362487159005E-07	-3.1112638850024E-07	-6.50882428754114E-07	-5.7558893190338E-06	-0.789584922389969	0.631568500262166
10.6	-0.524678191274688	-0.819296969587027	5.18505560365866E-06	-2.64968022648822E-06	-9.92272695857975E-06	-8.03360460296423E-06	-0.699827042129099	0.721110337712908
10.7	-0.586106366822112	-0.77128164055765	-2.86327644175253E-06	-5.11869277272806E-07	-5.31458027135337E-06	-7.29465399038356E-06	-0.604035669237712	0.801437598488526
10.8	-0.643519291214753	-0.720030159641676	-3.68045432354792E-06	-3.50094575539796E-06	-1.21655865897277E-05	9.31388982111734E-06	-0.498826917163544	0.870712239730998
10.9	-0.697911531459666	-0.663324191768248	-1.16179891195963E-05	-1.05473323521868E-05	-4.50387982561496E-06	1.1161904829539E-05	-0.383975802723895	0.92738536531999
11	-0.739775396009212	-0.60355908427112	1.02757853499911E-06	1.42150111239756E-06	8.7403576511186E-06	-5.59403463097894E-06	-0.261747581669284	0.963835406953567
11.1	-0.783824814750234	-0.550732535489297	-3.32431222049567E-07	-3.6822806441677E-06	1.03200786514762E-05	-1.03445655554262E-05	-0.141864346673939	0.988628790049502
11.2	-0.827824805773289	-0.489429013213531	-1.05488899939071E-06	-3.97264777550374E-06	2.1839947913569E-06	-6.41346004233139E-06	-0.0153693059281277	0.999337593013102
11.3	-0.866408046753932	-0.422682311078216	1.62081876003613E-06	-1.22387970818856E-05	3.61262717501935E-06	-2.87792896381476E-06	0.111419060165661	0.992811005186494
11.4	-0.897046533820748	-0.352646146311273	1.0013380079002E-06	1.46980993348462E-08	-5.7466248817861E-06	6.58001338283315E-06	0.236780544472864	0.970556621529123
11.5	-0.92304914250869	-0.285767680429428	6.64803278441359E-06	-1.27693026370611E-06	8.36909774901536E-06	-3.38080432781119E-07	0.358290521978861	0.932321363329441
11.6	-0.950089954688774	-0.211296728590184	-6.79079824987986E-07	-5.41805826210721E-06	1.44655328546975E-06	-3.14242179525674E-06	0.473643214440933	0.878039664302271
11.7	-0.965840570772693	-0.131452493533386	-1.40756993570574E-07	-6.14547358637834E-06	8.87160009721041E-07	-2.70821321587092E-06	0.580340100879087	0.810243029474615
11.8	-0.973983855081993	-0.0508573717827999	-1.0936952744873E-06	-7.42896803590278E-07	5.25219492694218E-06	1.05085591408965E-06	0.677368285600782	0.730439831959952
11.9	-0.974536905622013	0.0309062779560153	-3.30502272423605E-06	-5.25670350851406E-06	-5.52952766936552E-06	-8.08040943654299E-06	0.763772375929493	0.643009762168955
12	-0.967657080139737	0.111058190644385	-2.9803461050178E-06	1.69746063346039E-06	-1.7098970940484E-05	-8.74721981029956E-06	0.847539467282343	0.542990988294736
12.1	-0.956871036932496	0.189390605413785	8.18058721669294E-07	-1.60273345379094E-06	8.14165934227803E-06	1.236656786446E-05	0.908766870907342	0.423134544187073
12.2	-0.938719836185835	0.268073643334732	-4.08437766743927E-06	5.68256337955489E-06	4.67624498079564E-07	3.35197585801692E-06	0.9519931293229	0.303087169025615
12.3	-0.915279838720644	0.345038568494753	8.02827040778516E-06	6.35915009899583E-06	5.81775491939701E-07	1.10295310376531E-05	0.980993199533914	0.179614363380561
