# GHZ S RI R 50
0.2	0.988110994397721	-0.156309561340511	2.56630087128461E-06	2.25816904640759E-06	6.59078260820656E-06	-4.86914520918331E-06	-0.968654656120562	0.250278973264734
0.3	0.972505784486415	-0.233557990425604	-8.66382098841912E-07	-5.46993731619988E-06	-3.46155823267666E-06	-7.97275767955926E-06	-0.930140460830978	0.370361390693291
0.4	0.951697748630862	-0.309198094522456	-7.30330030612784E-06	-1.00903293583563E-06	4.45417257208649E-06	1.55934971186661E-06	-0.876760379538585	0.484873185601165
0.5	0.925112614334831	-0.384049746758191	6.22592987473348E-06	2.11969786775551E-06	-2.4233252608287E-06	-1.91876340318287E-06	-0.808456256291286	0.593348152496591
0.6	0.891408249652176	-0.45531588360602	-1.05939020617022E-05	2.46340394099848E-06	-2.2263507449099E-06	-1.01246482184294E-06	-0.725970681801392	0.689911929380776
0.7	0.853447848032913	-0.523375266717038	2.79723540949625E-06	-1.17429084972256E-06	-3.0060718245366E-06	5.81004023253694E-06	-0.633710556028254	0.775906370120811
0.8	0.810102021833271	-0.589076674291027	1.18975964710397E-06	-8.51554439941921E-06	-6.64970379171863E-06	-3.09079520938473E-06	-0.530956396572512	0.849930347892866
0.9	0.761321584203402	-0.651459630640343	-1.15231386072028E-06	-6.85211036614191E-07	2.55761880184096E-06	6.57884564422706E-06	-0.419608092630025	0.910264965837803
1	0.707286694749352	-0.709303285587422	-2.75814075941204E-06	-3.24016425782895E-06	-4.04970598508005E-07	-7.35456136162106E-06	-0.301783725060214	0.955946173768127
1.1	0.650552552797331	-0.762967267112678	1.81805509522272E-06	-4.96803473078479E-06	2.28410961186906E-06	-5.16247862544595E-06	-0.178570301546813	0.986690312127809
1.2	0.587827456182236	-0.813177068978793	-2.50988828133437E-06	2.50652967546532E-06	9.31346940668956E-07	-9.1633090823891E-07	-0.0520071740338198	1.00120902066793
1.3	0.519410549928934	-0.858142002392644	-1.54613376827083E-06	7.25015581348622E-07	-1.36184418529706E-06	1.47302470942584E-06	0.0756992633514761	0.999510279750315
1.4	0.447676273194488	-0.896259594799882	3.93700833687345E-06	-3.26383841363865E-06	2.73545840460631E-06	1.09908312538021E-05	0.20238359728038	0.980798411727107
1.5	0.376281064689758	-0.927970268792746	-5.36107890687353E-06	1.1224737371016E-06	6.61083240539037E-06	-7.25025360865078E-06	0.325507128087364	0.946920551451262
1.6	0.302211394613766	-0.95692326148406	1.77324096534147E-06	-7.78365498927653E-06	3.65385464236316E-06	1.38402989238713E-06	0.442200984390946	0.896940337454872
1.7	0.226125055633996	-0.977663404375168	-1.954501521896E-06	-9.70772408821998E-07	-2.41259999980034E-07	-2.09828634577066E-06	0.550644501988737	0.834440589524478
1.8	0.148409407690034	-0.992231987315946	2.87888128520064E-06	5.30238264278228E-06	8.78643116237622E-09	2.04293949055135E-06	0.650769777993805	0.758457174646058
1.9	0.070781489897842	-1.00071221052409	5.70376110291745E-06	-2.65519034557283E-06	-3.01505721026784E-06	4.22592947482125E-07	0.739481508239004	0.671731753019546
2	-0.00673969920857445	-1.0055271127766	-1.56624894715628E-06	-2.0427427488104E-06	3.26199447483637E-06	1.15588113276482E-05	0.821016758986612	0.575627660468036
2.1	-0.0890365048722857	-1.00215311635201	-7.60672543707343E-06	2.51775035812227E-06	1.24592915650055E-06	5.18463305480207E-06	0.887923943735816	0.463628688204715
2.2	-0.167164470179079	-0.99140941760978	-8.81497565782688E-07	1.40978050313788E-06	3.07140594440014E-06	7.8167384904421E-06	0.937371327526616	0.347317597671264
2.3	-0.245512767267524	-0.974542472150509	2.2503681623238E-07	7.50453368398663E-06	7.5048730960949E-07	9.40923769861398E-07	0.97213112265395	0.227232893405444
2.4	-0.322604652944736	-0.951168693703636	1.63370539164177E-06	7.21449330690966E-06	1.57035499574413E-06	6.42272968966866E-06	0.992560941539934	0.103037627876237
2.5	-0.396769132483528	-0.922182451422122	4.40589101590805E-06	-2.35931778586114E-06	-1.97789385526325E-06	-7.61179963004208E-06	0.997493992585399	-0.0222830279091673
2.6	-0.468537761976869	-0.887221350234003	6.77370746650307E-06	-6.03278243404585E-06	-1.10984566399103E-05	1.09790006098136E-05	0.986442698718216	-0.147978795043874
2.7	-0.537646785311959	-0.846850103628927	-4.40259088192157E-06	9.23951789296745E-06	-2.96320778993331E-06	-9.19991630348175E-06	0.959844250995445	-0.271480323306415
2.8	-0.602771809956378	-0.801500738892225	2.48440898041117E-06	1.12998801513213E-06	-3.13849895334697E-06	1.27954288700793E-06	0.918147768292533	-0.39052545685014
2.9	-0.664134296661252	-0.75050546951759	-5.47511322830183E-06	6.11108404298753E-06	-9.25771602409488E-06	-1.91870585643192E-07	0.860903857307008	-0.502832915167818
3	-0.718487610655815	-0.692948759467039	4.56511940053581E-07	-1.48569227230441E-06	1.1396187445127E-05	1.33086425938784E-06	0.790332927343348	-0.607216356163814
3.1	-0.769005220064126	-0.63693295859864	2.53520177527633E-06	1.04982726956218E-05	4.36302778571285E-06	2.1296796161212E-06	0.706793997628989	-0.701646671643723
3.2	-0.816998673645008	-0.575193880363573	2.18508142710725E-06	6.4547425330545E-06	3.8840387435199E-06	-1.06747860248583E-05	0.612087564870885	-0.784055720849847
3.3	-0.859410559761525	-0.509131879827316	3.14470735922503E-06	4.92834279705341E-06	-2.34448410101084E-06	-9.64953815937325E-06	0.506569830221695	-0.854027940767262
3.4	-0.894484612143621	-0.439895394285124	2.0906270297161E-06	-2.62500184674127E-06	5.96442201004565E-06	1.30913719589652E-06	0.394575755413477	-0.908039829351424
3.5	-0.923813975133082	-0.370246468393317	-3.22519557389756E-06	9.70723884915842E-07	-2.04097782213824E-06	3.4327737106533E-06	0.281388096987738	-0.947897510910291
3.6	-0.952620520187266	-0.297267379809981	-1.84929694173329E-06	-3.72966904956554E-06	-7.79091354417585E-06	4.18281116030005E-06	0.159614122800275	-0.979569857672161
3.7	-0.972854820979135	-0.220391101009218	7.31813984438393E-07	-8.33272476167975E-06	1.08043510024208E-05	3.57910854265457E-06	0.0326412302900467	-0.990782618061028
3.8	-0.98644235699385	-0.142032564369751	1.08614916320039E-07	1.5433488235475E-06	-6.44393719788325E-06	6.01233539740163E-06	-0.0921617675065265	-0.985262725759426
3.9	-0.993250748441973	-0.0636256960048699	-2.67361080796871E-06	-4.99093729045533E-06	-3.61430415260966E-06	8.04719631645016E-06	-0.215760520550545	-0.964772015868459
4	-0.993291122027012	0.0152527537698743	7.11470898258639E-06	-4.60487308628779E-07	-1.05680983692202E-06	-1.19234355552185E-06	-0.334462666600396	-0.931307124059878
4.1	-0.988365121040256	0.092246123034314	6.12385971799256E-07	-4.49776663137573E-07	7.27277620269417E-06	-4.82780666192729E-06	-0.450575096949755	-0.880956433931692
4.2	-0.977964757992716	0.169252098026825	3.21476600945232E-06	2.05804025399486E-06	-7.23764749093947E-07	-7.50651344808058E-07	-0.557415667451566	-0.815819890084254
4.3	-0.962152078009583	0.24429760301041	-3.15965810241127E-06	1.39754587661106E-06	-4.94136672917537E-06	3.01716907221336E-06	-0.654746925015587	-0.739236912648098
4.4	-0.941581860876741	0.319210539055825	8.22642127530949E-07	2.62461946169741E-06	1.47788155333955E-06	-8.31023218141822E-06	-0.742021953208622	-0.651419674199288
4.5	-0.911364730595461	0.395731716230789	1.81165595748544E-06	-9.56726592580069E-07	7.61785561334183E-06	-3.32177776575504E-07	-0.81834786527233	-0.552434431970343
4.6	-0.873676614369657	0.463272187244215	-6.52942759534333E-07	6.11342260730211E-06	-1.23705000037425E-05	-6.31127328045142E-06	-0.88004234296119	-0.445110408102763
4.7	-0.835116543903642	0.527704544864123	1.22355249162542E-06	2.48399874620012E-06	1.43455188953597E-06	1.84038996945961E-06	-0.929085971926519	-0.33141755227651
4.8	-0.790647698385869	0.591490186800693	-5.01968014394E-06	1.11207300334405E-05	5.31214693367365E-06	9.5725852959849E-06	-0.963397857669233	-0.211346269624729
4.9	-0.740517742061472	0.652089533061093	1.22764395158573E-06	2.89472426955391E-06	-5.68184946807779E-07	-6.85646092414278E-06	-0.981883547799299	-0.0859484494156346
5	-0.682924092058682	0.704466466958914	4.66929702753773E-06	-9.56960311715257E-07	-3.66491419433129E-06	2.43875730530087E-06	-0.978586104369464	0.0386214528683606
5.1	-0.629268847930901	0.752183648134145	4.07862495060421E-06	-1.70542077726832E-07	-2.6953681902803E-06	-9.66421452423816E-06	-0.966925750838036	0.156310534649719
5.2	-0.569896053540541	0.800492738213437	2.49092182772186E-06	-1.48189737616926E-05	1.37899109205851E-06	2.77752601777388E-06	-0.940806724818817	0.276965207036605
5.3	-0.505595560346824	0.843433467985355	-8.59910093099274E-06	-7.26345534130608E-07	-1.1190434396323E-06	1.62789201411342E-07	-0.89806170162726	0.393035918637426
5.4	-0.43813206061941	0.881013672154309	-7.11372695946185E-06	-1.08895717787305E-05	-1.35231355166068E-05	1.10766088705468E-05	-0.840874758908975	0.501402717191942
5.5	-0.366908264748335	0.912389985067751	1.88558626937946E-06	8.61779933119016E-08	-2.22041575433914E-06	1.76803191619463E-06	-0.772811105736032	0.601040770072538
5.6	-0.295140470261787	0.936234930820453	-2.37079153126348E-06	3.48565896973541E-06	-1.32309299748135E-06	1.28048550396954E-06	-0.69262460158712	0.693208310721549
5.7	-0.222292197099842	0.95625839493123	1.29368891351969E-06	1.21253624815947E-06	5.6913913647768E-06	-1.34324549470637E-07	-0.600887107681982	0.774135783838248
5.8	-0.148136788822585	0.97013586012145	2.67160748586284E-06	4.19586672111521E-06	-2.0763389564863E-06	4.18653480610684E-06	-0.499875420218637	0.842155820876566
5.9	-0.074875814666764	0.979389722420943	-6.77211282530343E-06	-2.27958555427264E-06	-8.99567400592986E-08	6.18973165503357E-06	-0.393318120185157	0.897112129865234
6	0.00194586277745959	0.988425241102738	-1.77377105533919E-06	7.38375017844365E-08	-5.3667373333085E-06	-4.38818793668114E-06	-0.280297881450099	0.943125815352186
6.1	0.0840121624393678	0.983558877977311	9.20460147349222E-08	-9.84562268265038E-06	-9.60170447355141E-07	-3.19752239604203E-06	-0.157408942628111	0.970694783946357
6.2	0.161043754928944	0.97168235347314	-1.02766298405857E-06	3.08535040222017E-06	-1.7641040705264E-06	4.17582902508699E-06	-0.0345374231354801	0.981336459689828
6.3	0.23628503006417	0.955253408270165	-8.12153658416018E-07	2.80678344727064E-06	-2.92784029558926E-06	2.36570302450447E-06	0.0878795555872489	0.977513721752149
6.4	0.310882201117558	0.935540060849488	-5.96328216854029E-06	5.49092241953617E-06	-2.36650444766249E-06	-7.56112481411413E-07	0.209783794796702	0.960876966371763
6.5	0.390003620194724	0.906063093765791	1.39159663306578E-06	-5.25935212522505E-06	-1.44676860438335E-06	-2.36634136794637E-06	0.33487224311969	0.92527716008458
6.6	0.455612710281864	0.866809346518586	3.61746251552834E-06	2.00614890335138E-07	1.11859474370334E-05	-2.67328606195306E-06	0.444145382824294	0.870321309612265
6.7	0.519411771724107	0.829428743410909	-7.67624383581182E-07	8.36469123339373E-07	-3.72944030208338E-06	5.16421139748119E-06	0.546320895971007	0.8090099173028
6.8	0.582110242062417	0.786952977332638	-1.74356513133309E-06	4.42498579615063E-06	1.43707187597446E-06	-8.68224112637362E-07	0.641787796266301	0.735309697729722
6.9	0.64151207298014	0.739758809679069	5.82161162975413E-06	2.24263711679615E-06	-9.28631303082107E-07	2.37558249902727E-06	0.727292004836419	0.65059909617657
7	0.698419533600127	0.687923039628616	1.16871823018441E-06	-4.08309587706409E-06	-1.43967155428039E-06	2.86349628836285E-06	0.803654274989958	0.556358581991683
7.1	0.750318122444894	0.630253669596746	2.44484292763859E-07	-7.09339843928877E-07	1.87078485009363E-06	9.12192351159977E-06	0.866832381705509	0.450544090894584
7.2	0.797029181740755	0.568979238292845	1.39097846472567E-06	-2.38079356263387E-06	-9.3667222257426E-07	-8.49423317416933E-06	0.91511431921973	0.338794611735299
7.3	0.838535769757424	0.503624153805078	4.74211753910102E-06	7.18333021296153E-06	-9.63155228187242E-06	2.24922690733488E-06	0.948409653003865	0.221568984733782
7.4	0.872994672177956	0.435361007926966	5.02416321778851E-06	-6.48268751977606E-07	1.95810440199373E-06	-9.48698002029769E-06	0.964364909999247	0.102332605182261
7.5	0.90370227649614	0.370356949999124	2.75666940659055E-06	-5.16578313351377E-06	2.14534525935582E-06	-7.10441256441891E-06	0.970163217931001	-0.0107066876595769
7.6	0.934552454523372	0.297416812973289	-2.15035947995458E-07	-5.55874514143064E-06	1.64589663795015E-05	4.09085834114672E-06	0.966413146568164	-0.133483760837767
7.7	0.955951738213016	0.221600876430714	3.46915691937853E-06	1.71304189624906E-07	3.71089864333368E-07	-2.88033603066875E-06	0.942675776102107	-0.253948682281813
7.8	0.971050451942148	0.145583560222439	-1.08055890760742E-05	-2.11541091781702E-06	-2.69203666309786E-07	3.3929655021506E-06	0.904843115038116	-0.369377109498019
7.9	0.981399555948813	0.0709375397677515	2.28434014483326E-06	2.06898418877348E-06	-6.76234887046191E-06	-4.83588468139843E-06	0.855551302828334	-0.478049087101182
8	0.994004203054175	-0.00825821355423471	2.27888480591093E-06	3.01752621789676E-06	-9.15202114034158E-06	-7.84680257991922E-06	0.797604843161718	-0.589035227646123
8.1	0.989550521012229	-0.0958536934128597	3.89534077625508E-06	-3.01535562900418E-06	2.21082249296586E-06	-3.16002905405026E-06	0.710979540348019	-0.691732345573538
8.2	0.976669373165175	-0.175217291810844	-4.06788476769036E-06	1.35951623151598E-06	-6.7769364094422E-06	2.60491584864516E-07	0.615843771931257	-0.774324462444745
8.3	0.959032788960823	-0.25302404963623	9.88615424501096E-06	4.34657637885693E-07	6.11484639527713E-06	1.05643958569525E-05	0.513149781975277	-0.844801770765263
8.4	0.935728290120644	-0.329453234414416	1.2558785312233E-06	2.57893007636381E-06	3.44605219047951E-06	1.87075119449695E-06	0.402938241789883	-0.901730035995411
8.5	0.9064485514457	-0.404940588999242	-4.91057523548634E-06	4.8983854282196E-06	2.89509264406281E-06	-2.98394643054885E-06	0.288955877069694	-0.945378947500575
8.6	0.87017713025054	-0.477203388340516	-4.54491802640473E-06	2.02233075843475E-06	-3.17555796197415E-06	8.09322065902864E-06	0.167211751284314	-0.977806514576218
8.7	0.829009400424368	-0.546308534319662	-1.04554492445297E-06	1.20736466427879E-06	-7.00895436766357E-07	3.47304508477736E-06	0.0409941068158177	-0.992310262179449
8.8	0.782277782061979	-0.612334143339335	-1.64078585878067E-06	3.08160416308658E-06	-6.0746485861858E-06	1.21085284120297E-06	-0.0860107159327509	-0.990760211751431
8.9	0.729479826267034	-0.674642741779913	3.22631287327012E-06	-1.81740851450219E-06	-3.1931253736298E-06	-4.94928786725283E-07	-0.214030661348264	-0.97076135803893
9	0.671719053645151	-0.729539948056012	-7.33740324956758E-06	1.31311141409253E-06	-4.00541149875186E-06	7.04369970966469E-07	-0.33172731378466	-0.930154642472734
9.1	0.612346951856668	-0.782111597640755	-3.35132742419178E-06	-1.92238428041757E-06	-1.00786798557422E-06	2.134666653152E-06	-0.4433106828806	-0.884974957240188
9.2	0.546505611483922	-0.829907046797349	6.02688338719902E-06	-1.58854070202778E-06	1.91170007133491E-06	8.53648211677353E-06	-0.551812891683849	-0.82405024756745
9.3	0.476549375858429	-0.871452354293275	-3.5170313825825E-07	1.07113789713352E-06	1.35969013918289E-05	1.20170883009109E-05	-0.651443020876869	-0.749017509476096
9.4	0.40284010361823	-0.904232632232898	1.76653430444667E-06	-2.64592200842102E-06	4.27445028753185E-06	1.81261692518091E-06	-0.73880309812217	-0.661094843190773
9.5	0.335323279754219	-0.932200998815778	-6.43247287052293E-06	-5.04450141209369E-06	-1.83560462123183E-06	-5.76845426942802E-06	-0.814414021739884	-0.571395970367425
9.6	0.255637385036906	-0.964051037139201	-1.18264160049538E-05	-4.76495327740395E-07	-5.92769995304523E-06	-4.17316786188674E-06	-0.890364561984917	-0.465496920525154
9.7	0.171172838924961	-0.981567735477136	1.49557351222511E-06	-4.63780458123582E-07	-2.98253753239799E-06	1.62239430669784E-06	-0.945194912045946	-0.345485893823175
9.8	0.0876476641705128	-0.990517830268372	2.2201601763184E-06	1.44928062502867E-06	1.53669704265372E-05	-3.36060395896376E-06	-0.982087314265304	-0.221302079547499
9.9	0.00528328017954776	-0.992275381484592	-3.6219146140615E-06	9.07102574341481E-06	1.3915380440394E-05	5.23124210267879E-06	-1.00284431942925	-0.093488872260082
10	-0.0765562318934904	-0.989410065239215	-3.71942859288026E-06	1.61134750019547E-06	1.97353224789567E-05	-1.8270124294419E-05	-1.00578989409858	0.0343695260870515
10.1	-0.159916119108408	-0.976676664376996	-1.52370419857811E-06	2.32691952864457E-06	-8.52032007620437E-06	-4.45507306590877E-06	-0.995433707318549	0.161025874681344
10.2	-0.238776601700987	-0.956933949790522	-2.33774488528504E-06	-1.28303128029266E-06	-1.32053494116219E-05	7.23567293922297E-06	-0.968599996002716	0.286881128457102
10.3	-0.314667726468156	-0.931652265470794	5.83792341688918E-06	4.05170877741353E-06	-6.27717594308306E-06	1.34890392556973E-06	-0.926677185068478	0.408251623485943
10.4	-0.388718785414819	-0.900681003406418	2.13852099742714E-06	1.08799051937268E-06	7.90113989055106E-07	-8.39558534432221E-06	-0.870379143096616	0.52578206692482
10.5	-0.458925916495572	-0.861798908825436	4.48296690845897E-07	-3.12341582478237E-07	-6.57531114514158E-07	-5.77076496556383E-06	-0.791621427115827	0.637979134580355
10.6	-0.52352080403316	-0.818382398472251	5.19044408067411E-06	-2.66737691140581E-06	-9.96298480968376E-06	-8.02865961327322E-06	-0.700431453552946	0.728548876460138
10.7	-0.583982447914035	-0.770890776772056	-2.86994500483436E-06	-5.04559748092389E-07	-5.34521285473772E-06	-7.29259966637054E-06	-0.603213122296869	0.809308848604779
10.8	-0.641060829518236	-0.720464519309633	-3.69711982390776E-06	-3.49388945487618E-06	-1.21524233072659E-05	9.36686717466724E-06	-0.496758634570023	0.878268650599284
10.9	-0.696019842800791	-0.664091831509468	-1.16677704747012E-05	-1.05131389253273E-05	-4.46605123778098E-06	1.11886450115025E-05	-0.380727031194402	0.934134733225751
11	-0.737010678430867	-0.6034068260191	1.03140896403451E-06	1.41728007363755E-06	8.7167065762544E-06	-5.61807261249531E-06	-0.258891686236966	0.96827168002011
11.1	-0.780261690571617	-0.552059592024998	-3.39361250525837E-07	-3.68190740717367E-06	1.03013753980511E-05	-1.03646278528363E-05	-0.140773498379313	0.994266672730773
11.2	-0.82470432487112	-0.491600157257133	-1.06400363873731E-06	-3.9730081536175E-06	2.17182159451067E-06	-6.42228513074692E-06	-0.0131742930032331	1.00628632368561
11.3	-0.863915814633024	-0.42518224887428	1.5893291481077E-06	-1.2253724198433E-05	3.60801370854224E-06	-2.89012312096697E-06	0.115616340794727	0.999967945808481
11.4	-0.895002448646759	-0.354743189328774	1.0020204871627E-06	1.14529661104695E-08	-5.72888173409389E-06	6.60286130796363E-06	0.242637451653517	0.976541301873845
11.5	-0.920271641665307	-0.28812547788439	6.64480311600012E-06	-1.29924428478577E-06	8.36925541772187E-06	-3.65976655496612E-07	0.364413409575142	0.936552167104479
11.6	-0.94801488110974	-0.214367847111151	-6.99109936675251E-07	-5.41452348695748E-06	1.43459346751658E-06	-3.14721844734721E-06	0.479961100002453	0.881148310983383
11.7	-0.964702080405946	-0.134419422423029	-1.6419419659473E-07	-6.14012171044255E-06	8.76088290774739E-07	-2.70949170966818E-06	0.586684827992242	0.811744767350683
11.8	-0.973816010003215	-0.0531501458562717	-1.09479864220445E-06	-7.37755135196195E-07	5.2482173240385E-06	1.02992630412173E-06	0.682699773547377	0.730014779096467
11.9	-0.975616474046979	0.0303323583853017	-3.31193153268397E-06	-5.23466777321327E-06	-5.53906418742732E-06	-8.04526539594314E-06	0.765812106522663	0.641275332633152
12	-0.967274513629343	0.113062046448271	-2.97320581630925E-06	1.6983248478288E-06	-1.70810990290555E-05	-8.71112611050717E-06	0.847651206812191	0.543547576430476
12.1	-0.954269414595269	0.19195068136862	8.14978045165935E-07	-1.6017179009405E-06	8.14691441479673E-06	1.2340400269567E-05	0.908263261777915	0.425360811766795
12.2	-0.934346029025755	0.269839290116862	-4.0759606191974E-06	5.67887195691059E-06	4.69337718094167E-07	3.34787436131288E-06	0.951889233488538	0.307015225331321
12.3	-0.910080947946889	0.345618819310582	8.02483400488338E-06	6.35450882439028E-06	5.83079032145651E-07	1.10234411208282E-05	0.982111990524964	0.184426454261405
