# GHZ S RI R 50
0.2	0.985673834721708	-0.156910906315776	2.56420134201525E-06	2.24888764570154E-06	6.56797263098854E-06	-4.8689269950738E-06	-0.965972941256813	0.251921366596853
0.3	0.969571441330829	-0.234044673541997	-8.74940812323357E-07	-5.45198757114724E-06	-3.46752595411894E-06	-7.94212385032043E-06	-0.926147840660922	0.371875474542911
0.4	0.94796365400967	-0.309357898126902	-7.27602275988757E-06	-9.88672533360605E-07	4.43964072739579E-06	1.54311583604853E-06	-0.871254462850555	0.485442039337665
0.5	0.921013019181994	-0.382743364476375	6.19713785621387E-06	2.1026440584519E-06	-2.41326001589826E-06	-1.90667898820698E-06	-0.802822884817377	0.591420913405393
0.6	0.887984653403481	-0.453781426571722	-1.05462993777257E-05	2.46263343359014E-06	-2.21775804794706E-06	-1.00607927036583E-06	-0.721303925324674	0.687805976023536
0.7	0.849722144193841	-0.521537953399365	2.78249604009138E-06	-1.17218658755132E-06	-2.9845875463001E-06	5.78618342696044E-06	-0.628640634131504	0.773093276096478
0.8	0.806267980580585	-0.586475586761635	1.17419772345077E-06	-8.47139378970608E-06	-6.61756592799257E-06	-3.06710836874331E-06	-0.525987079562433	0.845869835558143
0.9	0.75786870967954	-0.648022883809029	-1.14617190887899E-06	-6.80475532175886E-07	2.54749920200919E-06	6.5392865375712E-06	-0.415197504870788	0.905008222866596
1	0.704439117077046	-0.705909150174363	-2.74355363615849E-06	-3.22004252792359E-06	-4.05957020693413E-07	-7.31155167453187E-06	-0.298192298895176	0.949545544814066
1.1	0.647203379878761	-0.759217824980794	1.80491175827804E-06	-4.93754088045574E-06	2.26797707321818E-06	-5.13093036105121E-06	-0.176406552302225	0.979353004380834
1.2	0.584695243602449	-0.808619937088489	-2.49390462871034E-06	2.48971357247461E-06	9.2541352417468E-07	-9.10180970459481E-07	-0.0515934292247705	0.9935244066629
1.3	0.516942003017917	-0.852992728235875	-1.53693888247505E-06	7.18998927867853E-07	-1.35449956353828E-06	1.46240915093148E-06	0.0741419877823069	0.992295072010386
1.4	0.446085694317366	-0.891386849206162	3.91899163782241E-06	-3.23975385748678E-06	2.70468056927126E-06	1.09317533813808E-05	0.19953824952481	0.974538815969259
1.5	0.373146387532456	-0.923017244746571	-5.33152076943763E-06	1.11122639625528E-06	6.57968649304346E-06	-7.20293145313818E-06	0.321197809138313	0.941094398823506
1.6	0.300103998741533	-0.948965154840403	1.77223041741636E-06	-7.72978338130906E-06	3.62780710671277E-06	1.37991052274733E-06	0.437141688568285	0.892474117653712
1.7	0.226062431658526	-0.969141392307179	-1.93910823222453E-06	-9.68032488470096E-07	-2.35376692643205E-07	-2.08434457601676E-06	0.545185782127941	0.830506198612754
1.8	0.149690857900797	-0.983821188198454	2.8469605085764E-06	5.27256515210175E-06	4.04485258772827E-09	2.02892969417217E-06	0.644980871049088	0.755173124921762
1.9	0.0724478597387753	-0.992394325304251	5.66648991376943E-06	-2.62668086202728E-06	-2.99377795357829E-06	4.14666986319085E-07	0.733845201234007	0.668040356153103
2	-0.00410529289911376	-0.994973224326653	-1.54469423328E-06	-2.02525282725049E-06	3.198762096095E-06	1.14457824144942E-05	0.811225651759025	0.570858458039358
2.1	-0.0827660598467923	-0.992133833502341	-7.54964519168041E-06	2.44887985821061E-06	1.2034372989234E-06	5.14294412374273E-06	0.876685062437976	0.464603478637456
2.2	-0.159359356089538	-0.982707552888504	-8.83096985281625E-07	1.39260197089997E-06	2.99687368286623E-06	7.77157711939469E-06	0.928021161046882	0.350641346683033
2.3	-0.236269941002202	-0.966904231015039	1.74045120832614E-07	7.4464890888862E-06	7.38365432016805E-07	9.38382001342612E-07	0.963968421531234	0.231775980504558
2.4	-0.311897616595525	-0.944932665830576	1.5700335430364E-06	7.16889387190508E-06	1.51275340815391E-06	6.38295011646985E-06	0.985211549498667	0.108579161880934
2.5	-0.385069229507079	-0.917876844524976	4.39050730495073E-06	-2.30542521155871E-06	-1.90116072516983E-06	-7.56832561493831E-06	0.990558098035798	-0.0152021154708861
2.6	-0.456383573088055	-0.884534923479523	6.77683113178184E-06	-5.92995498565532E-06	-1.11130910230524E-05	1.08025511082969E-05	0.981018229738157	-0.139314668544205
2.7	-0.524931908940653	-0.845708651948153	-4.45880721521932E-06	9.13163684172829E-06	-2.85468095234646E-06	-9.16223936992538E-06	0.955852544188495	-0.261418100496579
2.8	-0.589308073862844	-0.802188998617549	2.45541623180998E-06	1.14839432718265E-06	-3.1303964878644E-06	1.23767323261705E-06	0.916340743108039	-0.379138626422871
2.9	-0.650001065261684	-0.754310328545648	-5.512551239049E-06	6.00579269525903E-06	-9.1951258398972E-06	-3.01356316872508E-07	0.861718443336555	-0.490992821614831
3	-0.707719116353282	-0.700525020121829	4.747942655504E-07	-1.47306198199692E-06	1.13288959565788E-05	1.48046386246589E-06	0.793467140515258	-0.595393942593741
3.1	-0.759929260845874	-0.642995598784721	2.39359945269883E-06	1.05003976062373E-05	4.32319301290904E-06	2.17934026745791E-06	0.712957628362603	-0.689958831960494
3.2	-0.807717662597886	-0.582156097145889	2.09709603233222E-06	6.4679832550134E-06	4.0123063014753E-06	-1.06003180093321E-05	0.621169913572934	-0.773991847950817
3.3	-0.850850728973471	-0.51782993570688	3.0760448942702E-06	4.96451995231693E-06	-2.21424304963467E-06	-9.66993059330488E-06	0.518305475745763	-0.846419940740888
3.4	-0.888180438531904	-0.450347327848811	2.12656026077378E-06	-2.60160902664918E-06	5.95503631895783E-06	1.38659181675496E-06	0.40814208684766	-0.904939452667427
3.5	-0.920118054927619	-0.378716629284119	-3.23684308537403E-06	9.423980535589E-07	-2.07385534104824E-06	3.41735011412298E-06	0.290855495773199	-0.948179388133419
3.6	-0.947064469865826	-0.306169187835806	-1.80612107894326E-06	-3.74418715165951E-06	-7.8247075419532E-06	4.09214679654559E-06	0.170202914207253	-0.977714212563266
3.7	-0.968443454120071	-0.231380439943433	8.32863035515783E-07	-8.32256179354644E-06	1.07592419299607E-05	3.70972686156148E-06	0.0451007449733688	-0.991699671847831
3.8	-0.983980639302878	-0.154181033073012	8.99673145122105E-08	1.54626832923212E-06	-6.52369733224997E-06	5.94023629303817E-06	-0.0800348206122407	-0.9892848474404
3.9	-0.993108363345923	-0.0765023478353604	-2.61835592488266E-06	-5.02965411901099E-06	-3.71464408814379E-06	8.01585631750549E-06	-0.205295065423968	-0.970932848234454
4	-0.996133272565054	0.00271318895633987	7.1305627173727E-06	-3.67624060976206E-07	-1.04259671364493E-06	-1.20787432838711E-06	-0.324557206860299	-0.937498141736283
4.1	-0.992921007658896	0.0811083538938436	6.20793212954374E-07	-4.43036253110061E-07	7.36558274037755E-06	-4.74587275759876E-06	-0.440173358557407	-0.889963421398992
4.2	-0.983721875499016	0.159125302335344	3.20433686357713E-06	2.10983937959358E-06	-7.17709888463079E-07	-7.63754281556524E-07	-0.54896216713176	-0.827410176913644
4.3	-0.968673537263748	0.235119032512782	-3.19437058485836E-06	1.36813916636551E-06	-5.00550582325218E-06	2.97595789260708E-06	-0.648747480943312	-0.752331215015784
4.4	-0.948118075541954	0.309683179893302	7.98739784153514E-07	2.64650714385054E-06	1.57395229278134E-06	-8.33596354996671E-06	-0.738217490862603	-0.665122135382815
4.5	-0.922228197799621	0.383933149083937	1.83063393261463E-06	-9.35880794414028E-07	7.6484842666367E-06	-2.31827892174859E-07	-0.816536815049224	-0.567245835994256
4.6	-0.888397155212703	0.456554446422264	-7.46699926740171E-07	6.14711325460902E-06	-1.2365911361034E-05	-6.53626182223007E-06	-0.881226542236736	-0.460016360989277
4.7	-0.849662168637517	0.524193579803998	1.20040795821231E-06	2.52228886287181E-06	1.42200403797758E-06	1.87594466760638E-06	-0.932531600047426	-0.346019829250839
4.8	-0.805187062400366	0.589840682831089	-5.2176352320327E-06	1.11622294377037E-05	5.23591196369528E-06	9.73727756515271E-06	-0.968982129463252	-0.225866517034521
4.9	-0.756254780946546	0.651408778046832	1.20061389687313E-06	2.94562407165059E-06	-4.77146343155163E-07	-6.94371883194725E-06	-0.990404335452171	-0.101435977011911
5	-0.701474598131946	0.709386434824554	4.7588566505764E-06	-9.14933067793057E-07	-3.75615367596035E-06	2.4338476539196E-06	-0.99457342651221	0.0256804527825989
5.1	-0.642702521425059	0.761186712137653	4.14547096057502E-06	-1.41570488249133E-07	-2.66352820048114E-06	-9.84041930698854E-06	-0.982857653513655	0.1498374470076
5.2	-0.581197013209546	0.809543041581932	2.62969081366524E-06	-1.50311859329201E-05	1.3815142184934E-06	2.82979017076005E-06	-0.956829720179819	0.272740914932453
5.3	-0.515852750172032	0.85324780910129	-8.73049165314272E-06	-7.84628419881686E-07	-1.13754387269062E-06	1.5925460128147E-07	-0.914867887557255	0.391857273176908
5.4	-0.447343326944432	0.891592825094621	-7.18896401407268E-06	-1.10798365109881E-05	-1.37664947696139E-05	1.12045971566968E-05	-0.857555099493701	0.504024380944628
5.5	-0.376079042008186	0.924357133896795	1.90835597868551E-06	9.28065608281665E-08	-2.25275748146131E-06	1.78305458718209E-06	-0.787409292674274	0.60715406203598
5.6	-0.302112285811821	0.950695014832343	-2.42103405374817E-06	3.52152549157378E-06	-1.34776187795025E-06	1.29136889920937E-06	-0.705465356839493	0.700709520085644
5.7	-0.226530721857033	0.971543871024003	1.30882589982279E-06	1.2365751311642E-06	5.78015336953227E-06	-1.13334747109258E-07	-0.612534027905516	0.78370741222548
5.8	-0.149529411161541	0.985849855569524	2.70740319909293E-06	4.27264556514581E-06	-2.12069236652352E-06	4.25261565512242E-06	-0.509489953870889	0.854291353168591
5.9	-0.0722907879783259	0.993925811153578	-6.89768132708905E-06	-2.30821230933062E-06	-8.03706978118274E-08	6.30089459273762E-06	-0.398953072499067	0.911156046887993
6	0.00386242749204843	0.997645623738635	-1.79456355561744E-06	8.49843924999988E-08	-5.45633134549821E-06	-4.40963059297139E-06	-0.283118303652676	0.954630028569707
6.1	0.0832462200748667	0.995854240967933	8.04400313506228E-08	-9.94575339821151E-06	-9.73996907241342E-07	-3.22878032907154E-06	-0.160612055930446	0.983826383202358
6.2	0.162823937537217	0.986082020624441	-1.03756438435575E-06	3.12195951932001E-06	-1.78185036621718E-06	4.22562678004709E-06	-0.0346520774622076	0.995957024293513
6.3	0.241255207339053	0.969534965367123	-8.18116936016022E-07	2.84231514550208E-06	-2.96034363629905E-06	2.39883547999448E-06	0.0913822042749203	0.991746688474639
6.4	0.317280929430718	0.947091540695464	-6.01839281351152E-06	5.56242729644853E-06	-2.39390455431602E-06	-7.59953502917811E-07	0.215331702743668	0.972073619887885
6.5	0.393305076230277	0.920272306443639	1.42198410007818E-06	-5.31714058925554E-06	-1.45734415354976E-06	-2.39790304385507E-06	0.337495779870984	0.93814733735839
6.6	0.466218387550189	0.883828709885822	3.6817661965601E-06	2.05551894897555E-07	1.1386032154168E-05	-2.71663607082383E-06	0.453695707393751	0.885802160509841
6.7	0.534282989070922	0.843069313712115	-7.79047902109238E-07	8.54580345893557E-07	-3.78122954503801E-06	5.27262130095021E-06	0.560295850407787	0.821005681219123
6.8	0.599247037818611	0.797418236653681	-1.75076670845415E-06	4.51759034245791E-06	1.45892819276489E-06	-8.92667180397861E-07	0.658309370415544	0.743768437580335
6.9	0.660122182249181	0.746763891720783	5.95391153021903E-06	2.23652312584998E-06	-9.26398705124527E-07	2.42968436705016E-06	0.745574250102106	0.654887330485214
7	0.716730928389293	0.691827187111343	1.13271696398943E-06	-4.16573469411546E-06	-1.42457625794628E-06	2.92982434047546E-06	0.821145933822459	0.556456953880666
7.1	0.769182308352034	0.632523729480974	2.3943226377153E-07	-7.21382466645907E-07	2.000846938883E-06	9.21863665451216E-06	0.884332218856947	0.448720388891099
7.2	0.816644098897697	0.568753693327877	1.38362199293377E-06	-2.42795791181781E-06	-1.04210741509916E-06	-8.59801214040202E-06	0.932952088558732	0.333938479507385
7.3	0.858783518775659	0.500896776020631	4.88863887575562E-06	7.2341437704401E-06	-9.74469453175491E-06	2.38690473404041E-06	0.966409495594799	0.213566602697827
7.4	0.895151280294942	0.429096945287807	5.10613051146665E-06	-7.20035014370004E-07	1.87942570780488E-06	-9.67987838062243E-06	0.983677399892858	0.0891392377426975
7.5	0.923810042752631	0.356140258276272	2.69967225300967E-06	-5.31998062507126E-06	2.03626181944363E-06	-7.28193728135395E-06	0.983361065124863	-0.0333296626573132
7.6	0.949511216247767	0.282009923544929	-3.42826730512107E-07	-5.61896071787188E-06	1.67438015782438E-05	3.76781403036772E-06	0.972095371616497	-0.15472831081932
7.7	0.968967775467833	0.204887923289289	3.50612235103628E-06	9.53424257713251E-08	3.10206949469632E-07	-2.91614646238549E-06	0.945088668161612	-0.275186800815896
7.8	0.981983903883391	0.12657444853199	-1.0938906894388E-05	-1.88021030275273E-06	-1.92277646694405E-07	3.42562725543846E-06	0.903412860750465	-0.391293758280209
7.9	0.988079544868878	0.0481208536710822	2.34751937552565E-06	2.01934247465086E-06	-6.91625381904289E-06	-4.68328305523125E-06	0.847540445060919	-0.500508758961308
8	0.990840492349886	-0.028736599160255	2.33822359291821E-06	2.95152820954786E-06	-9.29190408214811E-06	-7.60085076006513E-06	0.781922509421862	-0.602504148115306
8.1	0.987544601620576	-0.11064091040296	3.83471974097991E-06	-3.06747423369697E-06	2.15338417999726E-06	-3.18489406501451E-06	0.700795682740104	-0.699918927512832
8.2	0.974939273283182	-0.19081491236617	-4.04273718879359E-06	1.42069394984317E-06	-6.76588268046557E-06	3.64495144996653E-07	0.606133518484227	-0.783541009505811
8.3	0.955470178539933	-0.26923587677938	9.88584045215005E-06	2.8136364976263E-07	6.27397199624841E-06	1.04622480090098E-05	0.501990054182506	-0.853652780802424
8.4	0.929692677255235	-0.345558223182955	1.29451533480732E-06	2.55956258400642E-06	3.4736404451557E-06	1.81850910171592E-06	0.389826703842754	-0.909945084208986
8.5	0.898054853599199	-0.419837744941761	-4.83110528925941E-06	4.98927852972126E-06	2.84657194114394E-06	-3.03764339682871E-06	0.271919392042075	-0.950424574994086
8.6	0.860007198074091	-0.491225998164017	-4.49655319462923E-06	2.104412849983E-06	-3.01465495439119E-06	8.13604393564026E-06	0.150983113816315	-0.977551487311365
8.7	0.816585388106951	-0.558937273305064	-1.01915318783097E-06	1.22080246386015E-06	-6.35259176671088E-07	3.47018122157033E-06	0.0264919909628568	-0.989357834675409
8.8	0.768085891738877	-0.622818659321102	-1.57980650614213E-06	3.08981624641734E-06	-6.01738806958715E-06	1.30379778205384E-06	-0.0984639200103609	-0.985774973111979
8.9	0.714794882298779	-0.682985916376077	3.17997664250934E-06	-1.84805297109022E-06	-3.17788998165684E-06	-4.48909177704793E-07	-0.223674110132961	-0.966210429529265
9	0.655708844194133	-0.737939507493711	-7.30526931103002E-06	1.39985754092079E-06	-3.98802191898294E-06	7.51751066740985E-07	-0.3454816459482	-0.927657528408924
9.1	0.593734492563053	-0.787516882247255	-3.37296518199463E-06	-1.86338600575315E-06	-9.7088191739196E-07	2.14497613117836E-06	-0.457981568306066	-0.875437743043409
9.2	0.527296727750079	-0.832254647584662	5.97319860439099E-06	-1.68294875555103E-06	2.04693139575836E-06	8.46614085028434E-06	-0.563588770546334	-0.810635760944354
9.3	0.457609109436224	-0.87133700148474	-3.31359872883538E-07	1.07117050237543E-06	1.37268646256159E-05	1.17165462030314E-05	-0.659928026643156	-0.733085737040372
9.4	0.383978118542258	-0.904353876986778	1.70841151275532E-06	-2.66458293598421E-06	4.28538558194566E-06	1.72420334360459E-06	-0.745641402559613	-0.644066019713894
9.5	0.309719122649157	-0.928753484921004	-6.48752105044116E-06	-4.83682366033676E-06	-1.95584281549572E-06	-5.66426213960569E-06	-0.817797571565286	-0.54561286340411
9.6	0.233573265443145	-0.951864811293897	-1.16402132000289E-05	-2.42799106415993E-07	-5.9094971897692E-06	-3.99106170717116E-06	-0.881284022775781	-0.441427733982961
9.7	0.152963847903006	-0.967218999872098	1.46307346756799E-06	-4.79916944081249E-07	-2.90657106239203E-06	1.64287578291561E-06	-0.931502840359203	-0.326598168664137
9.8	0.0716694367075962	-0.974592318611037	2.20318562772146E-06	1.39167757994534E-06	1.50527087452969E-05	-3.5284685148897E-06	-0.96565310405356	-0.206344783191667
9.9	-0.00939613624749498	-0.974192853242982	-3.4318437366304E-06	8.95177281973058E-06	1.37280394647069E-05	4.9456937504681E-06	-0.984714607452481	-0.0824172831436608
10	-0.0881026835344238	-0.967329458498792	-3.63012272609045E-06	1.62176012276876E-06	1.91534201713547E-05	-1.81387906798932E-05	-0.986820034859875	0.0433631590030655
10.1	-0.16683480858072	-0.954245527948283	-1.47004025884249E-06	2.29910489525994E-06	-8.40648629209746E-06	-4.27986238894266E-06	-0.973290554869195	0.167144273492894
10.2	-0.24287826365619	-0.934149749555804	-2.3034191494485E-06	-1.23333753625284E-06	-1.28645461608043E-05	7.22309339114184E-06	-0.944508540386276	0.28822865194294
10.3	-0.315481882794181	-0.908400827209472	5.74643073846823E-06	3.91010299929046E-06	-6.12728024045569E-06	1.37599160846798E-06	-0.901567191125239	0.404242346208556
10.4	-0.385784070514114	-0.877947842644199	2.09356367848513E-06	1.04611183359136E-06	7.11391518647322E-07	-8.19451022049218E-06	-0.845403779595563	0.514373994053846
10.5	-0.453461266627661	-0.840770709836717	4.36540181752706E-07	-3.04934981084233E-07	-6.47625652978367E-07	-5.62338964663722E-06	-0.77438802267311	0.620263087179437
10.6	-0.515856267936609	-0.798112219389731	5.07745608943068E-06	-2.60471709614482E-06	-9.73689733533958E-06	-7.85797598175259E-06	-0.686499024251497	0.712575747795325
10.7	-0.573490701140211	-0.751579122737523	-2.80702624702432E-06	-4.96959419664687E-07	-5.22059580693382E-06	-7.14047482129321E-06	-0.590061700374966	0.791071725884519
10.8	-0.626951473887296	-0.703111830255634	-3.60606683878532E-06	-3.42768519535563E-06	-1.19122502850825E-05	9.1268216627754E-06	-0.486251145264286	0.856584039838054
10.9	-0.678707515626135	-0.652208575091726	-1.13653440161573E-05	-1.0370752356213E-05	-4.44392069641034E-06	1.09331979201489E-05	-0.376135728774536	0.910318477602053
11	-0.725217979355933	-0.595466590433804	1.0102455322983E-06	1.39942129293603E-06	8.6041368164297E-06	-5.49904046615142E-06	-0.257003390319212	0.949035111209483
11.1	-0.766393665099814	-0.540466918658474	-3.26719683447268E-07	-3.61105824150198E-06	1.01186470691279E-05	-1.01466593452767E-05	-0.137982337829204	0.971193587225165
11.2	-0.807386963326867	-0.482372455845497	-1.02494507336158E-06	-3.89456693931865E-06	2.15370329797707E-06	-6.2789876278789E-06	-0.0158561824992366	0.980703105061077
11.3	-0.844987945785434	-0.419526482752453	1.63597209800102E-06	-1.19897631934014E-05	3.55209038616908E-06	-2.80687914114205E-06	0.107117466121405	0.974779940520005
11.4	-0.877116264100183	-0.352720949189445	9.82263403940524E-07	1.88799285768571E-08	-5.6668457911989E-06	6.42949961683589E-06	0.228940654867941	0.953491927591472
11.5	-0.902567040133494	-0.284672292847865	6.51591869646367E-06	-1.22088639791599E-06	8.19713392785235E-06	-2.93839379692058E-07	0.346507238272113	0.916906311515897
11.6	-0.926576036197885	-0.215122757684634	-6.2341194359679E-07	-5.30923048279812E-06	1.4401117254539E-06	-3.06524746661566E-06	0.458967232746225	0.865417629352581
11.7	-0.943980048437121	-0.140001847151562	-8.13483939363487E-08	-6.02452945500193E-06	8.94459946795257E-07	-2.64617162692773E-06	0.563493233932126	0.800323147121642
11.8	-0.954675058025648	-0.0625048647893752	-1.06558438194959E-06	-7.39739256041754E-07	5.14229387455658E-06	1.08333350490726E-06	0.658895972835733	0.722964656052824
11.9	-0.958587517416019	0.0171939198029927	-3.19147655915838E-06	-5.18790331018512E-06	-5.34640360348163E-06	-7.97895682469721E-06	0.742343662027323	0.635854581847738
12	-0.954264084802062	0.0973085009625746	-2.93760474544668E-06	1.62537175843614E-06	-1.66301429392213E-05	-8.76834501985671E-06	0.817839099404704	0.542486830636121
12.1	-0.943493191534434	0.175406588212364	8.2653518970323E-07	-1.55905863720259E-06	7.79474543701366E-06	1.22497055618231E-05	0.88202514980434	0.4337031563294
12.2	-0.925729043046744	0.252268357149379	-4.10354625096678E-06	5.51188116712239E-06	4.03940716510782E-07	3.29864599248553E-06	0.929319600203448	0.318724089424204
12.3	-0.902949748249293	0.326637652098362	7.77324595064141E-06	6.39028013007997E-06	3.74710116920583E-07	1.08454403680779E-05	0.961954857687396	0.199192570454101
