# GHZ S RI R 50
0.2	0.985282989292686	-0.157051802624888	2.56388022584231E-06	2.24784649372631E-06	6.56537053914524E-06	-4.86870195591316E-06	-0.965756609536636	0.251989776971904
0.3	0.969097595796052	-0.234161390734533	-8.75811935147778E-07	-5.44996937801587E-06	-3.46805837202763E-06	-7.93871526833188E-06	-0.925843202659715	0.37194572477354
0.4	0.947376404767447	-0.309441858960844	-7.27299163594403E-06	-9.8629436016904E-07	4.43804059922222E-06	1.54123931537316E-06	-0.870793448990609	0.485456298833073
0.5	0.920301809790255	-0.382610092139026	6.19339227604686E-06	2.10050604288473E-06	-2.41193794165573E-06	-1.90514257653711E-06	-0.80228219836147	0.591108658675047
0.6	0.887421326474071	-0.453532188945317	-1.05408478028991E-05	2.46148474373786E-06	-2.21662867962369E-06	-1.00553704979547E-06	-0.721006365662801	0.687444355757429
0.7	0.849164855192262	-0.521267914121702	2.78098184606099E-06	-1.17178922166344E-06	-2.9826309028866E-06	5.78343272170492E-06	-0.628322146895845	0.772748531959398
0.8	0.805708843873767	-0.586113658962933	1.17282290551586E-06	-8.46663516217902E-06	-6.61402674025453E-06	-3.06480208138383E-06	-0.525647562444942	0.845442908159775
0.9	0.75737459931523	-0.647536522788168	-1.145489783706E-06	-6.7998237353527E-07	2.54626906469334E-06	6.53502901319664E-06	-0.414866215430539	0.904486502856862
1	0.704100093965262	-0.705416597851561	-2.74192335774198E-06	-3.21784378213736E-06	-4.0601477847659E-07	-7.30681386168851E-06	-0.297846608905432	0.948912605158024
1.1	0.646826019508553	-0.758744520545206	1.80312192082448E-06	-4.93407040654197E-06	2.26582798844471E-06	-5.12736049531751E-06	-0.17606871522785	0.978547125980917
1.2	0.584349369698658	-0.808074566521571	-2.49147733377294E-06	2.48768635203684E-06	9.24513915228796E-07	-9.09440955689226E-07	-0.0512875710646546	0.992462357883292
1.3	0.516653045708838	-0.852391665480687	-1.53535915908325E-06	7.18176742353182E-07	-1.35314415369514E-06	1.46081551980981E-06	0.0741913192609309	0.99092088276677
1.4	0.4459421235273	-0.890834728356222	3.9159318573449E-06	-3.23545773053934E-06	2.6990427167094E-06	1.09215225943181E-05	0.199127174196782	0.973144016604593
1.5	0.372740655303127	-0.922720473681618	-5.32762336071398E-06	1.10883726598035E-06	6.5765295518432E-06	-7.1953755565854E-06	0.320347331915343	0.939892086573687
1.6	0.299537287180346	-0.94819881927177	1.77297220927523E-06	-7.72338052182688E-06	3.62465318269845E-06	1.37983874643297E-06	0.436068155939141	0.891802767442046
1.7	0.225746474876749	-0.96819678993879	-1.93744029665129E-06	-9.67947828276777E-07	-2.34566893846336E-07	-2.08294570209674E-06	0.544178341057948	0.830162426658582
1.8	0.149581544308284	-0.982855785516638	2.84358058796075E-06	5.27019341870203E-06	3.4168933961578E-09	2.02768055187942E-06	0.644100185721414	0.755070046669485
1.9	0.0723793548237739	-0.991512425473474	5.66380229143044E-06	-2.62477030487453E-06	-2.99226404103155E-06	4.14162672889577E-07	0.733318986448738	0.667960888647847
2	-0.00431074505295447	-0.993679209283365	-1.54323488204376E-06	-2.02269697049721E-06	3.1968494202921E-06	1.14321840321907E-05	0.810366930240917	0.570086468358439
2.1	-0.0822520790725055	-0.990650470053695	-7.54167035935634E-06	2.44107552924275E-06	1.19870608773766E-06	5.13722090589047E-06	0.875154658506305	0.464680623644718
2.2	-0.158502546855312	-0.981492458622557	-8.83394796859265E-07	1.39062565331481E-06	2.9879568678967E-06	7.76684339894827E-06	0.926892309285873	0.35126922379889
2.3	-0.235202857615691	-0.965889965604272	1.68089103787246E-07	7.441157873518E-06	7.37088847754885E-07	9.38270917759823E-07	0.963240958898752	0.232571510680571
2.4	-0.310626184529736	-0.944134588463326	1.56385460553799E-06	7.16544091980191E-06	1.50717841144224E-06	6.37995861676054E-06	0.984851649924934	0.109353503315632
2.5	-0.383654868177439	-0.917392486343602	4.38933333307634E-06	-2.30089580615394E-06	-1.89466765992495E-06	-7.56485377220313E-06	0.990381203189168	-0.0145819838153122
2.6	-0.454966325657928	-0.884305047405246	6.77648132896983E-06	-5.92202984374761E-06	-1.11132039399807E-05	1.07888985354582E-05	0.980991881901414	-0.138852482994505
2.7	-0.523499697926782	-0.845656710469895	-4.46122135781301E-06	9.121818990233E-06	-2.84666034485942E-06	-9.1570596241766E-06	0.955692370371101	-0.26108315981756
2.8	-0.587760411456376	-0.80229590086265	2.45226766013305E-06	1.14932704690113E-06	-3.12855398548022E-06	1.23403531383745E-06	0.916100501388964	-0.378627948566877
2.9	-0.648149068756265	-0.754824052849079	-5.5132643355943E-06	5.99333401450895E-06	-9.18498616622271E-06	-3.11129877916114E-07	0.861593367499672	-0.49029481253873
3	-0.706245074839613	-0.702105310905539	4.76935763849939E-07	-1.47091743844062E-06	1.13161849282891E-05	1.49887518253177E-06	0.793432509455168	-0.594590946120096
3.1	-0.759280515243747	-0.644370382074506	2.37332744655631E-06	1.05003470490529E-05	4.31736731383804E-06	2.18634811866804E-06	0.713165999915282	-0.688853203609419
3.2	-0.807166706736661	-0.583424587006603	2.08416502777936E-06	6.47061226492142E-06	4.03186932435972E-06	-1.05902622709279E-05	0.621849445100061	-0.772792124501427
3.3	-0.850424194274853	-0.519208324337131	3.0658822767055E-06	4.97146281970693E-06	-2.19409303197112E-06	-9.67550156339232E-06	0.519572235620848	-0.845332420693501
3.4	-0.888101292547476	-0.452007831863926	2.13389853798176E-06	-2.59885297830095E-06	5.95642091302998E-06	1.4007883274906E-06	0.410146121330576	-0.90448276407945
3.5	-0.92095693484389	-0.379896616041128	-3.24222038127838E-06	9.39767101049193E-07	-2.08066329151072E-06	3.41935950673849E-06	0.292189469665832	-0.949060280853109
3.6	-0.947328562025187	-0.306654053205104	-1.8031090768278E-06	-3.74786798596126E-06	-7.83272936489638E-06	4.08600556910424E-06	0.171045139983549	-0.977783330609042
3.7	-0.968443405821764	-0.232091621535082	8.4471651810214E-07	-8.32629573232494E-06	1.07604732204232E-05	3.72659196716394E-06	0.0465237062087125	-0.991878207168106
3.8	-0.983999220128341	-0.155066754659798	8.80130469010342E-08	1.54776247329194E-06	-6.53731688892228E-06	5.93693880807186E-06	-0.0784249034719781	-0.990060108183633
3.9	-0.993234379731742	-0.0775531731996532	-2.61628392894953E-06	-5.03733191413363E-06	-3.72608852452986E-06	8.02060451026729E-06	-0.204020353846954	-0.972373341578284
4	-0.996613654749229	0.00158361888315496	7.13552683831018E-06	-3.62078720763002E-07	-1.04229883271268E-06	-1.20951067603542E-06	-0.323941717712167	-0.938876619226272
4.1	-0.993614523727793	0.0802779922867075	6.2173814864334E-07	-4.42764558323302E-07	7.37627859284321E-06	-4.74223983081861E-06	-0.439506285758018	-0.891312853372147
4.2	-0.984398206483789	0.158551378930959	3.2056111405543E-06	2.11461944709464E-06	-7.17745473060347E-07	-7.65105218929781E-07	-0.548483731858318	-0.828908790803781
4.3	-0.969153714487097	0.234776365789387	-3.19857537991253E-06	1.36780370625048E-06	-5.01256488931959E-06	2.97632615316872E-06	-0.648492420397957	-0.753894866224711
4.4	-0.947950401633818	0.309301850938628	7.99686751317509E-07	2.64862056636326E-06	1.5743676856502E-06	-8.34305822318619E-06	-0.738166021919726	-0.666592891187121
4.5	-0.922016789869093	0.382078799768653	1.82969158313392E-06	-9.35402135873623E-07	7.64455202231285E-06	-2.31718988230254E-07	-0.816426337598457	-0.568785045542534
4.6	-0.889567442135205	0.454773129626526	-7.52439563656709E-07	6.14340395455872E-06	-1.23534537690713E-05	-6.54537715255168E-06	-0.881427367364002	-0.461649071055903
4.7	-0.851190455521068	0.522831971163061	1.19663865357038E-06	2.52285295186185E-06	1.41899025366864E-06	1.87705492721893E-06	-0.932847710710491	-0.34756140637252
4.8	-0.806933558209562	0.588729841620129	-5.23476629267613E-06	1.11487793490848E-05	5.21705143714819E-06	9.74239632988924E-06	-0.96927152792434	-0.227420660946684
4.9	-0.758282629386098	0.6501943910993	1.19285767994293E-06	2.94771944514337E-06	-4.59592855674005E-07	-6.94275997699235E-06	-0.99055789985092	-0.10351792511439
5	-0.704956740364772	0.708842923320323	4.76724477909789E-06	-9.00571292678727E-07	-3.76831538067476E-06	2.42446372904772E-06	-0.996317978100987	0.0228423921462035
5.1	-0.645398052917053	0.762389802026539	4.15336522838812E-06	-1.32813345108805E-07	-2.64700005969922E-06	-9.86422068133017E-06	-0.985153178959067	0.148591179540079
5.2	-0.583062798819596	0.810823395048815	2.66392697919137E-06	-1.50547807812657E-05	1.37865268163529E-06	2.83787943111944E-06	-0.958822605499203	0.271783690496838
5.3	-0.517431156321904	0.854508884901995	-8.74974848989475E-06	-8.0129011320087E-07	-1.14049657058488E-06	1.57700290579985E-07	-0.917111019091812	0.391032496455984
5.4	-0.448742731472169	0.892920635420915	-7.19867207734743E-06	-1.11172095759227E-05	-1.38150288612141E-05	1.12229626173244E-05	-0.860173534320302	0.503739644361462
5.5	-0.377580957591592	0.925771585522501	1.91199949971952E-06	9.31112903325777E-08	-2.25718473785774E-06	1.78631445783339E-06	-0.789931882318036	0.60777019189323
5.6	-0.303428244250282	0.952755242911307	-2.42823208562403E-06	3.52499107036323E-06	-1.35114771461196E-06	1.29221266239145E-06	-0.707504052289787	0.701696890514975
5.7	-0.227321551686451	0.973928035049211	1.31018687481293E-06	1.24080244800527E-06	5.79278314334966E-06	-1.06716120656273E-07	-0.614349883937731	0.784985230753944
5.8	-0.149734822538942	0.988571871269487	2.71030152270925E-06	4.28834948422909E-06	-2.13191273463564E-06	4.26257461938867E-06	-0.511060168605464	0.856092417496446
5.9	-0.0712295400903402	0.996930854263844	-6.92641713558202E-06	-2.32100687626207E-06	-8.33277962254054E-08	6.32798465297675E-06	-0.399688837708623	0.913747412464558
6	0.00620327382500385	0.99877857457966	-1.80157078653276E-06	8.95944249351425E-08	-5.4887402268534E-06	-4.41436694486557E-06	-0.282228138819923	0.956492380550683
6.1	0.0844589446027653	0.99633179278126	5.54781023506396E-08	-9.9693535492108E-06	-9.84453220240022E-07	-3.23391274629692E-06	-0.159995910373621	0.985013672725133
6.2	0.164021944000836	0.986578621811942	-1.03069988819995E-06	3.1305147167979E-06	-1.77324228992117E-06	4.23826344074447E-06	-0.0337134034695345	0.99702343980242
6.3	0.242640672664437	0.969781414947179	-8.10078742116683E-07	2.84778463295368E-06	-2.95588703708794E-06	2.41054079611349E-06	0.0927468002187235	0.99238384175424
6.4	0.318827487032479	0.946421701078673	-5.99901509624069E-06	5.58153447958132E-06	-2.39605682124314E-06	-7.51895685812308E-07	0.217018148801163	0.971585252607175
6.5	0.392615589832188	0.919207332054143	1.41174355183287E-06	-5.30964203394853E-06	-1.45819155381622E-06	-2.39148797909892E-06	0.336936663668814	0.936871956575457
6.6	0.465924075131421	0.884967433723128	3.68092938981405E-06	2.05694963927918E-07	1.13836165589862E-05	-2.71544131335314E-06	0.453250689076168	0.886654331589437
6.7	0.534957745756917	0.844237922431115	-7.79466303112537E-07	8.55074672934358E-07	-3.78323714816633E-06	5.27565009536287E-06	0.560748712627558	0.821950759775444
6.8	0.600333503109153	0.798460951604346	-1.75261804297232E-06	4.52222736806543E-06	1.46044092364298E-06	-8.93571820943609E-07	0.659203251406055	0.744628761513118
6.9	0.661627107411831	0.747599012640088	5.96479489744113E-06	2.24015433411823E-06	-9.27905257377602E-07	2.43412659623276E-06	0.747005263205092	0.655505587861259
7	0.718260412985684	0.692175877579589	1.1283508081238E-06	-4.17604604838589E-06	-1.4227861097116E-06	2.93808282302107E-06	0.822532155233654	0.556318480537145
7.1	0.770654988373051	0.632941190985645	2.38507495444853E-07	-7.22122724406685E-07	2.01540281849273E-06	9.22070033118196E-06	0.885453294568139	0.448797555423602
7.2	0.818276489917149	0.569150984258172	1.38253279555568E-06	-2.4294710719743E-06	-1.04761321157356E-06	-8.59976553466965E-06	0.934321217184932	0.334156923673483
7.3	0.860600702275394	0.501427536359605	4.88791637000081E-06	7.23856243620353E-06	-9.74916916556863E-06	2.3843655900599E-06	0.96823696621815	0.214024658789289
7.4	0.897863114400039	0.430014769188135	5.11521031899594E-06	-7.11606322641578E-07	1.90032060394888E-06	-9.69104246608401E-06	0.98706820405492	0.0897251365966883
7.5	0.928064175924535	0.355352471787297	2.71716445741269E-06	-5.34277080603431E-06	2.05235202557612E-06	-7.31460210758717E-06	0.98821150095194	-0.0358918225322958
7.6	0.952743441734325	0.28001239981834	-3.50888437812428E-07	-5.64361196003015E-06	1.68228279923432E-05	3.76514272428589E-06	0.974934283224556	-0.158713726473668
7.7	0.971951674380016	0.202428195645449	3.52235505734533E-06	8.91061655629717E-08	3.06077176791806E-07	-2.93008714467977E-06	0.947078890721599	-0.279850197337209
7.8	0.984743711477613	0.123443954421661	-1.09943635043647E-05	-1.85551925656147E-06	-1.82742244607634E-07	3.44178907592753E-06	0.904267163636933	-0.39662078346427
7.9	0.990569439128848	0.0435082000740958	2.36723276771517E-06	2.01660977810304E-06	-6.9682299515076E-06	-4.66985005032026E-06	0.846788054074685	-0.506879583187045
8	0.989605028563328	-0.03461480876846	2.35946151711083E-06	2.93778182322548E-06	-9.34869232095798E-06	-7.54357826472895E-06	0.776722409272501	-0.607356272140608
8.1	0.985039624682895	-0.113520977752069	3.81671915927993E-06	-3.07831181058853E-06	2.13740728805333E-06	-3.18880992488224E-06	0.69641681577034	-0.700745051968709
8.2	0.972952983799116	-0.192608972075677	-4.0335813178382E-06	1.42948336802165E-06	-6.75588139564212E-06	3.81894165324161E-07	0.603222248202471	-0.783538204435948
8.3	0.953762154191009	-0.270607297812826	9.874275604645E-06	2.61138231225411E-07	6.2873126701911E-06	1.04367932594357E-05	0.499880482868073	-0.853392765474356
8.4	0.928090551516166	-0.346729884829683	1.29644703888421E-06	2.55493189238808E-06	3.47210979222837E-06	1.81182340703665E-06	0.388341172511168	-0.909801407767129
8.5	0.896389038858965	-0.420680112564522	-4.82506239841032E-06	4.99448519395497E-06	2.84289914220639E-06	-3.0407047281004E-06	0.269941732834163	-0.9505543476894
8.6	0.858587976860064	-0.491871823135712	-4.49064937253586E-06	2.1134481413963E-06	-2.99622146093015E-06	8.14004615913127E-06	0.149080365324494	-0.97655757157498
8.7	0.81514544348614	-0.559577149837514	-1.01527858922232E-06	1.22190042737782E-06	-6.26578187297764E-07	3.46807133784074E-06	0.0253050811787706	-0.987833193518717
8.8	0.766506682046971	-0.623254266301523	-1.57002892041994E-06	3.08753160296186E-06	-6.00326260880769E-06	1.31465322367764E-06	-0.098750798287007	-0.983831603074433
8.9	0.713350491002901	-0.682943920286785	3.16770080296322E-06	-1.84635341564115E-06	-3.1685550866182E-06	-4.43449666768487E-07	-0.222099120571165	-0.964391338562037
9	0.654756062506899	-0.73823333008265	-7.28873232039468E-06	1.38928082340928E-06	-3.97898203177255E-06	7.46007633405559E-07	-0.34333846538853	-0.928791609772976
9.1	0.592290054046121	-0.787744738208069	-3.3668649479036E-06	-1.8640531626629E-06	-9.71584936145327E-07	2.14129314272708E-06	-0.457491740399893	-0.876924189862552
9.2	0.525966448890303	-0.832170120219263	5.97102898611028E-06	-1.67507551342128E-06	2.03600252781959E-06	8.4626845727841E-06	-0.563766080455985	-0.812281615959194
9.3	0.456525164419672	-0.871216355621703	-3.3245102912988E-07	1.07106018013041E-06	1.37182886374032E-05	1.17319753957047E-05	-0.660996103337537	-0.734516726935833
9.4	0.383509701062214	-0.904899480660655	1.71229688979494E-06	-2.66745073089822E-06	4.29055485952707E-06	1.72899349140528E-06	-0.747581797789147	-0.645316312522337
9.5	0.306780637124624	-0.930794213931312	-6.51238157642045E-06	-4.82848705330335E-06	-1.97453520427422E-06	-5.66951833013694E-06	-0.821496812736865	-0.544242633026103
9.6	0.22964033680546	-0.950836914559381	-1.16267998221069E-05	-2.06718334145844E-07	-5.91457823392923E-06	-3.96803923478138E-06	-0.881789959956047	-0.437918909888796
9.7	0.150209853509024	-0.96508513467156	1.45918056950051E-06	-4.81941246627488E-07	-2.89743278973664E-06	1.64552352688755E-06	-0.930234785743306	-0.324020721442479
9.8	0.0697131006749705	-0.9721899525451	2.20062564670376E-06	1.38523728518117E-06	1.50148179072217E-05	-3.54443595782041E-06	-0.96368243827045	-0.204611160435586
9.9	-0.0109983749524602	-0.971803366056424	-3.41073743125462E-06	8.93541102915108E-06	1.37024894422434E-05	4.91408158390021E-06	-0.982369958748925	-0.0814600132067473
10	-0.089701711632855	-0.963971997824953	-3.61808304471835E-06	1.62010580597217E-06	1.90817006184721E-05	-1.81019436681006E-05	-0.984689008240067	0.0438529998365809
10.1	-0.166859023379381	-0.950536378639027	-1.46555981474603E-06	2.29388605325052E-06	-8.38701736684846E-06	-4.26621333271759E-06	-0.97070259994811	0.167679607779561
10.2	-0.242052266118597	-0.930911757454548	-2.298691672397E-06	-1.2293586140288E-06	-1.28312507217074E-05	7.21266346464593E-06	-0.941319877791732	0.288322523217881
10.3	-0.314062769101525	-0.905593388938408	5.73576910565919E-06	3.8961918155764E-06	-6.11152134450796E-06	1.3775488361594E-06	-0.897639782491544	0.403763278773201
10.4	-0.383783873403248	-0.875710992919063	2.08835289185408E-06	1.03995679137725E-06	6.9801524903709E-07	-8.16952207414547E-06	-0.840042834092185	0.512396480085513
10.5	-0.451347191152349	-0.839537971113799	4.34336665982291E-07	-3.0350884318759E-07	-6.4541435096071E-07	-5.59557564978399E-06	-0.770160839075701	0.614168584527715
10.6	-0.514178609617068	-0.797359457488129	5.05931164433746E-06	-2.58638989803906E-06	-9.68402786002183E-06	-7.83791897094383E-06	-0.685607947392427	0.706274173502219
10.7	-0.572223953107573	-0.750866551890479	-2.79572791202731E-06	-5.00490605307837E-07	-5.1877055646342E-06	-7.12412461156801E-06	-0.590950558571124	0.785532240870064
10.8	-0.625588242066559	-0.701941916159439	-3.58642543986373E-06	-3.42384115696196E-06	-1.18915359523427E-05	9.0701187177714E-06	-0.487971878044453	0.852020695969027
10.9	-0.675958730798058	-0.65138558838812	-1.12955548225446E-05	-1.03718566240693E-05	-4.4632528195007E-06	1.08832709064893E-05	-0.378633746595739	0.906041285251978
11	-0.723804321914601	-0.597221385250949	1.00445111458982E-06	1.40198783700799E-06	8.61735794835255E-06	-5.46395523279014E-06	-0.26087661057856	0.946950653842368
11.1	-0.766426879930248	-0.540262472701504	-3.21432864420244E-07	-3.60872568130224E-06	1.01249810649379E-05	-1.01247176911116E-05	-0.139893544844615	0.970072522690325
11.2	-0.806488473279209	-0.481521989941663	-1.01839245296059E-06	-3.88969752033288E-06	2.15824091330283E-06	-6.26631915175093E-06	-0.0174632642095253	0.97896996002135
11.3	-0.843400482773056	-0.419037144534296	1.65246883212674E-06	-1.19661103140054E-05	3.55039887149689E-06	-2.79622372339891E-06	0.105167482905778	0.972955077845922
11.4	-0.875620216574725	-0.353253928509084	9.80936451253002E-07	2.07010978136705E-08	-5.67147819381165E-06	6.41039632191523E-06	0.226706474728441	0.951922643012505
11.5	-0.902504264905542	-0.284232088417447	6.50907306692622E-06	-1.21347803439238E-06	8.18739394289215E-06	-2.86035806454346E-07	0.344062529038667	0.915652060001631
11.6	-0.924564163738818	-0.213882135302072	-6.15033714306609E-07	-5.2987271244881E-06	1.44110722252021E-06	-3.05679396594497E-06	0.456533053978393	0.864742596330668
11.7	-0.94096177739288	-0.139853769300226	-6.94685579433569E-08	-6.01282172987653E-06	8.97845848584628E-07	-2.63921969396168E-06	0.561358625766289	0.800171740950224
11.8	-0.95124823974584	-0.0636191126993936	-1.06232059953439E-06	-7.41040915016517E-07	5.13216080571222E-06	1.09333137736271E-06	0.657543291318262	0.723214129069872
11.9	-0.955159046340648	0.0143245393853128	-3.17926033860133E-06	-5.19035040592426E-06	-5.32730478420367E-06	-7.9835607411516E-06	0.742676587980319	0.635162258573849
12	-0.952674280720931	0.0928465355615354	-2.93419899201263E-06	1.62003004419839E-06	-1.65946706017143E-05	-8.76879263514827E-06	0.815780913375457	0.538650161078344
12.1	-0.943880989615019	0.170980777928559	8.28205760560357E-07	-1.55446314940223E-06	7.75507824480199E-06	1.22429801136175E-05	0.877858044552224	0.432265551147772
12.2	-0.927438423803986	0.248947187216643	-4.10947479901591E-06	5.49627572133147E-06	3.96656779718284E-07	3.29516404370453E-06	0.925376894088862	0.318679095694084
12.3	-0.904793156338525	0.324798570546895	7.75269672178807E-06	6.39458484785072E-06	3.56572228401622E-07	1.08318879567389E-05	0.958282240419406	0.199991345426565
