# GHZ S RI R 50
0.2	0.986060939360573	-0.156873149921527	2.56460427531699E-06	2.25068570428581E-06	6.57238961519471E-06	-4.86896036003247E-06	-0.966622307982051	0.251559092153079
0.3	0.970040233789747	-0.234000139709102	-8.7321260357339E-07	-5.45545636745597E-06	-3.46625987888018E-06	-7.94807296103454E-06	-0.927094582974341	0.371593070124878
0.4	0.948586411733096	-0.309333335659865	-7.28108692812451E-06	-9.92678336597522E-07	4.44230997183844E-06	1.54627139471903E-06	-0.87246221241374	0.485426393545818
0.5	0.921810196033484	-0.382889882179478	6.20193956718948E-06	2.10654001434406E-06	-2.4147730343618E-06	-1.90916012337773E-06	-0.803973950465151	0.591793032138997
0.6	0.888867124913897	-0.454127926234697	-1.05568604310785E-05	2.46114653492897E-06	-2.21943723791813E-06	-1.00779153615603E-06	-0.722449050027157	0.688227841051148
0.7	0.850610352839805	-0.522139308597305	2.78579730419393E-06	-1.17253141930338E-06	-2.98957433134661E-06	5.79131747114981E-06	-0.629875457413829	0.773793915650799
0.8	0.807033335844238	-0.587293358599439	1.1774042950676E-06	-8.48063737378718E-06	-6.62430730089011E-06	-3.07202551334506E-06	-0.527151556502245	0.84690953541785
0.9	0.758374852813658	-0.648878499398015	-1.14731866792159E-06	-6.81366031300493E-07	2.54936807584264E-06	6.54669887144383E-06	-0.416165981302719	0.906357541391706
1	0.704953802088276	-0.706364818557893	-2.7453848563388E-06	-3.22388722771303E-06	-4.04451379788213E-07	-7.31876788908864E-06	-0.298836688232096	0.951141349585182
1.1	0.648240256914175	-0.75969504752344	1.80891406327911E-06	-4.94228972843999E-06	2.27257158988718E-06	-5.13570633558781E-06	-0.176604897318895	0.981003155217971
1.2	0.586029182255993	-0.809384722073493	-2.49786037152236E-06	2.49154159395742E-06	9.26875556075922E-07	-9.10843416383916E-07	-0.0513631351563775	0.994920965890271
1.3	0.518445214752275	-0.854124446199368	-1.53909390428398E-06	7.19011902830134E-07	-1.35683904745559E-06	1.4633766661513E-06	0.0744382443519496	0.993218200778572
1.4	0.447692279726773	-0.892924522373045	3.92649420584592E-06	-3.24142846815617E-06	2.70082160948248E-06	1.09483354164077E-05	0.19960082354971	0.975429239371946
1.5	0.374889603377031	-0.925516338493672	-5.34240598050751E-06	1.11016990533645E-06	6.5966057437473E-06	-7.21280723429851E-06	0.321439710313972	0.942200600073521
1.6	0.300877452820716	-0.952350877336283	1.77650517527132E-06	-7.74751996968788E-06	3.63611736238391E-06	1.38317778298408E-06	0.437545621679892	0.89378216932289
1.7	0.226020346340757	-0.972620503377644	-1.94405085174484E-06	-9.69532726718872E-07	-2.36761960620078E-07	-2.08914794839828E-06	0.546006564237293	0.831945699635604
1.8	0.149096914147941	-0.987265447659258	2.85715952943653E-06	5.28330752844262E-06	5.36503293656667E-09	2.03376847251911E-06	0.646209533380033	0.756590670737139
1.9	0.0713774794313334	-0.995863123827481	5.67893205549014E-06	-2.63863145794884E-06	-3.00122551356783E-06	4.18439059222413E-07	0.735680133891636	0.66944656566709
2	-0.00592806901545968	-0.998319936193148	-1.55216062715339E-06	-2.0278142710648E-06	3.22670325330454E-06	1.14697769765424E-05	0.813914599144282	0.571167006314333
2.1	-0.0848533427584708	-0.99507363612969	-7.56081495959546E-06	2.46675604767202E-06	1.21466968317429E-06	5.15134708527396E-06	0.87850864671123	0.464184836493971
2.2	-0.161886688255481	-0.985546250299328	-8.82506475830635E-07	1.39712365240987E-06	3.01700154379364E-06	7.78277634306349E-06	0.929679094300846	0.35031704857442
2.3	-0.239386374234339	-0.969359809943566	1.9009358404277E-07	7.46217803648016E-06	7.419324975427E-07	9.38851138656747E-07	0.965790344874073	0.231317950857293
2.4	-0.315503154611838	-0.946701271923461	1.59193457912875E-06	7.17949243324235E-06	1.53248872125886E-06	6.39208741522868E-06	0.987314295176394	0.107634436151152
2.5	-0.388737371018121	-0.918758577330022	4.39000545882339E-06	-2.32280096075306E-06	-1.92792196563877E-06	-7.57398869883288E-06	0.992498402886118	-0.0172123525004835
2.6	-0.459825835791105	-0.884862820385041	6.76372275951871E-06	-5.95793273159928E-06	-1.10880404287545E-05	1.08494556665152E-05	0.982114587682204	-0.142061066664725
2.7	-0.528232199188405	-0.845602410113339	-4.4305452731681E-06	9.15009668061073E-06	-2.88605746601686E-06	-9.15660541915457E-06	0.955770343289886	-0.264481885201832
2.8	-0.592415189757403	-0.801573603698297	2.45912894075247E-06	1.14080127190457E-06	-3.12670680202215E-06	1.2474993384127E-06	0.915243423471901	-0.381785862197295
2.9	-0.652462617020977	-0.753094023842257	-5.49329242251038E-06	6.02075339181896E-06	-9.19376703499145E-06	-2.73868145472389E-07	0.860203000675667	-0.493100754288984
3	-0.70903404305951	-0.699995310468845	4.71130020985037E-07	-1.47341027449381E-06	1.13265324673056E-05	1.45339504920348E-06	0.791571402024412	-0.597384316566569
3.1	-0.761949974844656	-0.643043421043781	2.41552117662732E-06	1.04963945987473E-05	4.32808719945258E-06	2.17059954732498E-06	0.710361783631449	-0.691394869095402
3.2	-0.809986548329385	-0.581894631128669	2.11175037909513E-06	6.46501898599999E-06	3.99015182504808E-06	-1.06117335612033E-05	0.618354292526382	-0.774594619521628
3.3	-0.853073662723669	-0.517259480093763	3.08750075203991E-06	4.95909202579841E-06	-2.23563860722276E-06	-9.6675053778634E-06	0.515580743941568	-0.846171555301865
3.4	-0.890214306027815	-0.449741909329655	2.12282371274701E-06	-2.60664649829712E-06	5.96026704555169E-06	1.37644816439205E-06	0.406219448275456	-0.904024762381278
3.5	-0.922855820204383	-0.37801142235406	-3.23953664161052E-06	9.51503164774011E-07	-2.0689135525217E-06	3.42746634134261E-06	0.289249998852724	-0.948432238677275
3.6	-0.949437381599215	-0.304186082307411	-1.81976072305206E-06	-3.74090366504981E-06	-7.81679783448094E-06	4.12087816117984E-06	0.167334828611352	-0.976989956603079
3.7	-0.970053957944937	-0.229097969597607	8.07364420224945E-07	-8.32786532031553E-06	1.0774251507736E-05	3.67762471991179E-06	0.0429291642655388	-0.989974816414727
3.8	-0.984966237691405	-0.151718368792247	9.47923790669434E-08	1.54655576397158E-06	-6.50767668289168E-06	5.9626295770369E-06	-0.0813694970396022	-0.987582387948383
3.9	-0.993281310139064	-0.0740143324020049	-2.63714399832236E-06	-5.02251617799917E-06	-3.68796198205821E-06	8.03224661890347E-06	-0.206471046798472	-0.970074545093841
4	-0.995577290502491	0.00458304522303012	7.12654251051141E-06	-3.96800828772137E-07	-1.04719409929563E-06	-1.20316426571435E-06	-0.327340192000276	-0.936780055383981
4.1	-0.992407203403515	0.0825097481309182	6.18526936928418E-07	-4.44856347762089E-07	7.34056729605663E-06	-4.7679950175389E-06	-0.443329051013837	-0.887474430208199
4.2	-0.983206881332074	0.160520241256216	3.20749828459814E-06	2.09675832400427E-06	-7.19379169864944E-07	-7.6047879268347E-07	-0.551422521278971	-0.823821916068088
4.3	-0.967950924835138	0.236811418158929	-3.18664164910212E-06	1.37672981569372E-06	-4.9907751672902E-06	2.98852786349982E-06	-0.650333024023288	-0.748198426081397
4.4	-0.946351066216018	0.312060600359549	8.07764473211822E-07	2.64098593601536E-06	1.54156413341994E-06	-8.33371513519726E-06	-0.738957439376175	-0.660753802547115
4.5	-0.918145099673152	0.384848311236124	1.82181937812243E-06	-9.41312544418211E-07	7.62748770558805E-06	-2.64139908293637E-07	-0.816448304674642	-0.563061702716381
4.6	-0.88515355882656	0.455605086879044	-7.27057493676408E-07	6.12891411973026E-06	-1.2343368948462E-05	-6.48013491120815E-06	-0.880990138513245	-0.455864248637234
4.7	-0.846866801449853	0.522829924141145	1.20208035762031E-06	2.51143369459909E-06	1.42152709679954E-06	1.86670132593946E-06	-0.93167588169945	-0.34146095810263
4.8	-0.802470293146319	0.588085175956775	-5.17912376782692E-06	1.11323619010976E-05	5.23506012100674E-06	9.69355632394382E-06	-0.967008320658485	-0.221072379778579
4.9	-0.753335957896005	0.648752101537463	1.1984882651769E-06	2.93214892537572E-06	-4.81959944742633E-07	-6.91426018052169E-06	-0.986603876721701	-0.0971685625463136
5	-0.700361800918432	0.705218925561278	4.74337471416132E-06	-9.0674489737733E-07	-3.74574155108753E-06	2.42146856622676E-06	-0.990723897980534	0.0274505389501014
5.1	-0.642558561774088	0.758600889245482	4.13726354565869E-06	-1.39092868297319E-07	-2.65299675656871E-06	-9.82216899575234E-06	-0.97955759469011	0.152369189371823
5.2	-0.580654591274554	0.807233371002113	2.62949953519685E-06	-1.50031747534573E-05	1.37815294884373E-06	2.82508722086014E-06	-0.952276074451993	0.274612020881035
5.3	-0.515270145152312	0.850906284822721	-8.71942922286006E-06	-7.85105758609426E-07	-1.13614620894747E-06	1.58865003127866E-07	-0.910177974696979	0.392221530824367
5.4	-0.446537200846179	0.889372376241357	-7.19218767161745E-06	-1.10693966413857E-05	-1.37520804547549E-05	1.1207397551892E-05	-0.853710230860479	0.503310422490837
5.5	-0.374946238075076	0.921429504900709	1.90618870666559E-06	8.80288540746544E-08	-2.24557625741176E-06	1.78632032250166E-06	-0.784777892178448	0.606722235032643
5.6	-0.301649175437433	0.947535515483285	-2.40813711274698E-06	3.51640346346862E-06	-1.34179180684225E-06	1.2903221460308E-06	-0.702280789819254	0.700964267786409
5.7	-0.226297114796121	0.968605064189095	1.30669787328774E-06	1.23154107970379E-06	5.76395148716334E-06	-1.2007480715871E-07	-0.608591185804155	0.783454441366582
5.8	-0.149360337084734	0.983308671503152	2.70377366398057E-06	4.25970354444791E-06	-2.11204815982664E-06	4.24341030137676E-06	-0.505286173730778	0.853148085675659
5.9	-0.0713075417679335	0.992347846819042	-6.89021565730197E-06	-2.30113221262782E-06	-7.65037330493238E-08	6.29286332281707E-06	-0.394641176021613	0.90936005446442
6	0.00775033795890514	0.994249303944108	-1.79308244531661E-06	9.18531729217487E-08	-5.46983721395411E-06	-4.38574639902456E-06	-0.277843426229947	0.950867534543085
6.1	0.085312931848268	0.989429818084683	3.649390056037E-08	-9.90664305518414E-06	-9.8429525572833E-07	-3.21169660546061E-06	-0.157664464024527	0.977705496824117
6.2	0.162948603435781	0.97924359664218	-1.02145330109295E-06	3.10903034735505E-06	-1.75805288396802E-06	4.20941332965261E-06	-0.0339038585492662	0.989767855973499
6.3	0.240090976993249	0.963110583737223	-8.05927632576305E-07	2.82756470294612E-06	-2.93659022848355E-06	2.39224492882877E-06	0.090779453602973	0.98623470917666
6.4	0.316194856729651	0.940606632194583	-5.96570944683575E-06	5.54110969898238E-06	-2.3802405855401E-06	-7.49151707429355E-07	0.214723454911541	0.966698770070608
6.5	0.389321698937472	0.91162276607943	1.40458301072296E-06	-5.26907008953285E-06	-1.44577089842221E-06	-2.37455011830271E-06	0.334030087489429	0.931151180471538
6.6	0.459602326938412	0.878486252732254	3.65201018588563E-06	2.14644372281278E-07	1.13037713718817E-05	-2.66196873504183E-06	0.448232380838201	0.882400293750332
6.7	0.527666839112494	0.839544650037259	-7.77566254627399E-07	8.46208007962722E-07	-3.77845936074786E-06	5.22499579216934E-06	0.555258699507099	0.819189530102122
6.8	0.59252494153984	0.795401481795773	-1.76300477992458E-06	4.48675322948828E-06	1.45575712208947E-06	-8.81392685211776E-07	0.653330944941143	0.743175503241442
6.9	0.653884302515978	0.746244120974586	5.92093050478809E-06	2.26141816312521E-06	-9.36510226384855E-07	2.41615014498567E-06	0.741076704682035	0.655482451140387
7	0.711167452039916	0.691731146722211	1.14797677186118E-06	-4.15578042964491E-06	-1.43449395084716E-06	2.92030163429557E-06	0.816952308295332	0.557260278731643
7.1	0.763396638376712	0.633221750044376	2.4098725474679E-07	-7.18609503876547E-07	1.96671448525618E-06	9.19884240155883E-06	0.879788756216586	0.450799665553823
7.2	0.810989440271817	0.570615000345497	1.38885047734893E-06	-2.41395589623368E-06	-1.00322981617842E-06	-8.57282679552529E-06	0.928921063844271	0.337391529171636
7.3	0.853408047560066	0.504236547526966	4.83081527115758E-06	7.23430431998433E-06	-9.72183034579498E-06	2.32451788992516E-06	0.963128879038159	0.218605556594233
7.4	0.890983383248122	0.43484789461201	5.09544752656258E-06	-6.74658620554634E-07	1.95480535452947E-06	-9.63229488491046E-06	0.982687500010388	0.096606653480235
7.5	0.923773827432586	0.361961484019284	2.75766868591719E-06	-5.30306589362926E-06	2.11254293907817E-06	-7.27529554402801E-06	0.987504699893008	-0.0277707038295692
7.6	0.949916069667484	0.286105259244864	-3.0409600349714E-07	-5.63998740498479E-06	1.67724788395166E-05	3.89907595293665E-06	0.975594714784183	-0.151820731931083
7.7	0.970232951969729	0.208751799110543	3.51962821973539E-06	1.18072021166549E-07	3.30041326166919E-07	-2.92590803569607E-06	0.949113121916547	-0.273046710878513
7.8	0.984456611001524	0.12969170850255	-1.09860213634371E-05	-1.94514299034908E-06	-2.10560136417068E-07	3.44238271667826E-06	0.907910974594289	-0.390679618898431
7.9	0.992211401506331	0.0490145886773574	2.35844975752273E-06	2.03800496839555E-06	-6.95132725431993E-06	-4.72990219714447E-06	0.852015631962635	-0.503035061368541
8	0.99177289791606	-0.0326446163641002	2.35727123206424E-06	2.95425908037919E-06	-9.3530881538088E-06	-7.59638871414621E-06	0.780120059274009	-0.607646246230458
8.1	0.984592988498059	-0.111200991681902	3.82272933003316E-06	-3.06873751725272E-06	2.14412676262757E-06	-3.18305013246288E-06	0.696804720251355	-0.699231004000992
8.2	0.972538358252316	-0.18905103471283	-4.03250906058686E-06	1.41426192912686E-06	-6.74750724516592E-06	3.59265883263506E-07	0.604025806912899	-0.780614284036207
8.3	0.953975404187785	-0.266377010692182	9.85528335863262E-06	3.00448688427891E-07	6.23383819102401E-06	1.04431636732267E-05	0.501493319947781	-0.849969089498725
8.4	0.92910975362025	-0.34216182614773	1.28102021684871E-06	2.55562011800832E-06	3.45549693776358E-06	1.82484640670375E-06	0.391258243948707	-0.906283600531921
8.5	0.898054958120062	-0.415943537637032	-4.85124452077558E-06	4.95494976027065E-06	2.85897875660834E-06	-3.01726616216144E-06	0.273988295245052	-0.948856745719587
8.6	0.8612609524572	-0.486805395115973	-4.50449422759637E-06	2.08495727177338E-06	-3.04840867971421E-06	8.12157173162261E-06	0.152003351593053	-0.975787546049401
8.7	0.818982535455532	-0.554683555773568	-1.02293139016642E-06	1.21664072666647E-06	-6.47098949625014E-07	3.46626938673937E-06	0.0277224224461956	-0.986920221365446
8.8	0.771340000503763	-0.618767117720749	-1.58729568873475E-06	3.08130246365976E-06	-6.01411699972913E-06	1.28394766101756E-06	-0.0964069959752044	-0.982416901964491
8.9	0.719074459789999	-0.678706968759136	3.17612481917915E-06	-1.83157833350754E-06	-3.1663578517742E-06	-4.58127320878887E-07	-0.218669752546231	-0.962023850260832
9	0.66232531370645	-0.734516340447056	-7.29027995480218E-06	1.34296934183694E-06	-3.97975030997854E-06	7.20737757654416E-07	-0.337233687887291	-0.928459740911289
9.1	0.600982076320454	-0.785858778620075	-3.35560332836324E-06	-1.88854914597483E-06	-9.87052259878204E-07	2.1356254240228E-06	-0.452587601172822	-0.879172729638771
9.2	0.53515852913341	-0.83202000392889	5.99236988357714E-06	-1.6351170370627E-06	1.97883798872692E-06	8.49051929324099E-06	-0.559911727402963	-0.816005532273551
9.3	0.465690919806054	-0.87264033971193	-3.41029851704098E-07	1.07154915602697E-06	1.36709148755727E-05	1.18619147549361E-05	-0.658709453565061	-0.739544748512951
9.4	0.393016537337273	-0.907277727903156	1.73927208347234E-06	-2.66404743253137E-06	4.29301753992306E-06	1.76859588295016E-06	-0.746491070934954	-0.65172954014365
9.5	0.316129269006209	-0.936504748299204	-6.52508609945295E-06	-4.90876502716661E-06	-1.94886017232046E-06	-5.72395490885869E-06	-0.825307968277911	-0.552762793007292
9.6	0.236380377148493	-0.956868293943517	-1.17074404064526E-05	-2.56711810116E-07	-5.93947191658346E-06	-4.02054975916977E-06	-0.888979264202645	-0.442450176773082
9.7	0.156692140881529	-0.971053333378292	1.47043978269542E-06	-4.79640021353044E-07	-2.92235100164896E-06	1.6454211003441E-06	-0.937586157766595	-0.325983152421503
9.8	0.0761253377534414	-0.978968489984497	2.21045971710447E-06	1.40211673843975E-06	1.51271264862745E-05	-3.51580244116765E-06	-0.970774310929964	-0.204821079991564
9.9	-0.00506456441905297	-0.980097658612081	-3.46012108671293E-06	8.98762152959327E-06	1.3783464500467E-05	4.98761608569523E-06	-0.988487568882899	-0.0806456926873497
10	-0.0856871725444717	-0.973443900326334	-3.64543330534347E-06	1.62172577990982E-06	1.92493289196047E-05	-1.81722652001442E-05	-0.990782396462634	0.0440603913071793
10.1	-0.164088422614947	-0.960143855568757	-1.48202517298306E-06	2.30608038959096E-06	-8.43453597104129E-06	-4.31873448035694E-06	-0.978249978510957	0.1690260954458
10.2	-0.240959936844278	-0.940937536732838	-2.31428063792532E-06	-1.24301388438453E-06	-1.29435889406005E-05	7.24543328920445E-06	-0.949062132936426	0.291734557725529
10.3	-0.314958274741999	-0.915093134241188	5.77888869968801E-06	3.93064296334881E-06	-6.16086981530616E-06	1.38471815045018E-06	-0.904617855697765	0.409206447114581
10.4	-0.386123878835279	-0.883688484944847	2.10563008536125E-06	1.0463899312465E-06	6.96696697671035E-07	-8.23430267135086E-06	-0.845038332025542	0.519257017891236
10.5	-0.453715550015698	-0.845696261409816	4.3640134475863E-07	-3.06266829203885E-07	-6.60784788980776E-07	-5.62881734263427E-06	-0.773858870807979	0.619266721008011
10.6	-0.515899468168997	-0.802984273089948	5.08459663333194E-06	-2.60669078161523E-06	-9.74720502780553E-06	-7.87052976369764E-06	-0.691402853234698	0.712170181066188
10.7	-0.574157694299547	-0.756390194177938	-2.81340734745938E-06	-5.00270234470935E-07	-5.22778028686159E-06	-7.16159258498138E-06	-0.596917022102556	0.793982718755192
10.8	-0.628113628063825	-0.706741840954845	-3.61572345141415E-06	-3.43804482992357E-06	-1.19476674177087E-05	9.15070541149106E-06	-0.492284361426384	0.862828875530945
10.9	-0.677824926431826	-0.654782347499857	-1.13754842007736E-05	-1.03970745836302E-05	-4.46016873366716E-06	1.09474865427295E-05	-0.380307274892043	0.916848808572893
11	-0.724623178039303	-0.602398637840987	1.00998477397532E-06	1.40972093969866E-06	8.66488743960885E-06	-5.49405378180942E-06	-0.263947586745059	0.957108370068133
11.1	-0.769498613855945	-0.545138604690359	-3.29057995536275E-07	-3.63572329488335E-06	1.01874912095144E-05	-1.02162887159821E-05	-0.141631119581247	0.984016694831575
11.2	-0.809922646166325	-0.485217446238676	-1.03715497831101E-06	-3.91605498797736E-06	2.15659495013972E-06	-6.3196226771843E-06	-0.015542069920127	0.994083235237155
11.3	-0.846854558760404	-0.422003617064439	1.61977559678311E-06	-1.20582840095969E-05	3.56550541799386E-06	-2.82954912212723E-06	0.110743463716458	0.987597161993575
11.4	-0.879131098925596	-0.355979251276149	9.88152510704702E-07	1.66796085905759E-08	-5.68542687663251E-06	6.48109849876188E-06	0.235471695043204	0.965001587996112
11.5	-0.907593637278411	-0.286103213246576	6.55191983153095E-06	-1.26176983890564E-06	8.2487105716895E-06	-3.37231015237713E-07	0.354782283179993	0.926397383166193
11.6	-0.928902647417045	-0.213515190479182	-6.56601965387748E-07	-5.32683228561484E-06	1.42813955341751E-06	-3.08581820967388E-06	0.468847541730632	0.873638036771983
11.7	-0.944517374632436	-0.138884604613554	-1.12879412378464E-07	-6.04403074828128E-06	8.83686673204915E-07	-2.65956410703787E-06	0.575279157513278	0.806521015591263
11.8	-0.954487343891652	-0.0619768141954381	-1.07255025674497E-06	-7.37128965364671E-07	5.16418510721291E-06	1.06262156417321E-06	0.672217693936152	0.726470971488649
11.9	-0.95843901814028	0.0169586227507982	-3.22859970137381E-06	-5.19555130259595E-06	-5.4053656204899E-06	-7.98873410493708E-06	0.757260602132935	0.635082081718468
12	-0.955061897678986	0.0966442431060844	-2.93803861097459E-06	1.64964105385001E-06	-1.67451372825154E-05	-8.69587474890047E-06	0.828067343720424	0.533786005354399
12.1	-0.944774866650238	0.175626059521966	8.21436349886607E-07	-1.56744630818621E-06	7.87547646179401E-06	1.22473164973616E-05	0.886150898325869	0.427995236941921
12.2	-0.927252850519813	0.25362287270083	-4.09358542767429E-06	5.55303865526718E-06	4.2116530994941E-07	3.30972360531527E-06	0.933223491068105	0.314624733799771
12.3	-0.90403890356793	0.329864882920778	7.84582336703564E-06	6.37125939507655E-06	4.41858579434969E-07	1.08905835806288E-05	0.965513900817226	0.194560719246685
