# GHZ S RI R 50
0.2	0.984880888295166	-0.157111156015977	2.56338263219714E-06	2.24757686695017E-06	6.5644867649735E-06	-4.86767264723627E-06	-0.965934904897164	0.251853018014329
0.3	0.968696610540052	-0.234043741121731	-8.75063625632625E-07	-5.44916066755599E-06	-3.46660406692171E-06	-7.93777973306619E-06	-0.926117740131561	0.371896608354136
0.4	0.947084118236507	-0.309162712264723	-7.27165939122419E-06	-9.87279180820537E-07	4.43707983408069E-06	1.54168823154862E-06	-0.871053959180775	0.485564198672167
0.5	0.920252295503814	-0.382176756634964	6.19130690147134E-06	2.10168930362045E-06	-2.41082820809425E-06	-1.90533827185486E-06	-0.802320240313572	0.591143717437991
0.6	0.887789687831658	-0.453306998224456	-1.05416715052234E-05	2.45700705572338E-06	-2.21616196709165E-06	-1.00644825063906E-06	-0.721287626648426	0.687381802964246
0.7	0.849536834979563	-0.521407393633901	2.78150962041801E-06	-1.17108631162174E-06	-2.98447598456387E-06	5.78299898267546E-06	-0.628637783625738	0.772862985923968
0.8	0.805884110658937	-0.586441965902743	1.17441387942722E-06	-8.466456865051E-06	-6.61348516148931E-06	-3.06605540998938E-06	-0.5259093562977	0.84564256300686
0.9	0.757223319313785	-0.647758060933272	-1.14516205847525E-06	-6.80069268968832E-07	2.54462793109554E-06	6.53432669983421E-06	-0.415085518991757	0.904739318846437
1	0.704056856870185	-0.705012673417929	-2.73931933882874E-06	-3.21806259721459E-06	-4.02197599320039E-07	-7.30438667728625E-06	-0.298012604550747	0.949206048174461
1.1	0.647478190529157	-0.75824754057014	1.80708393789568E-06	-4.93182081583749E-06	2.26988901692421E-06	-5.12468741184282E-06	-0.176243609776325	0.978842475926133
1.2	0.585585791446707	-0.807794635690316	-2.49446820681718E-06	2.48519651858374E-06	9.25608698458298E-07	-9.08515665122071E-07	-0.0515275056620644	0.992707120291353
1.3	0.518483251438338	-0.852597321528972	-1.53703285766707E-06	7.16213981654197E-07	-1.3558339105875E-06	1.45941998046116E-06	0.0735403079639312	0.991038991156634
1.4	0.448253073330576	-0.891824397899056	3.92532813743545E-06	-3.23135173786695E-06	2.68182834895067E-06	1.09363358184935E-05	0.197949808566351	0.97353220768123
1.5	0.375047334970396	-0.925093530906748	-5.33790695339947E-06	1.10197083024582E-06	6.59866517604403E-06	-7.19618120453707E-06	0.319150827998197	0.940498075042934
1.6	0.300746591895686	-0.951261868303763	1.78319086463292E-06	-7.7354243914528E-06	3.62980329248287E-06	1.38560392641259E-06	0.434939416280704	0.892757588417229
1.7	0.226227808985795	-0.971304011911708	-1.94009056441981E-06	-9.70404784176603E-07	-2.33967921570217E-07	-2.08639172223623E-06	0.543474977663947	0.831234123634818
1.8	0.14953901934606	-0.985944193691103	2.84679029153165E-06	5.27865893038245E-06	3.01735837066192E-09	2.03071996143259E-06	0.643772430978851	0.756136593124914
1.9	0.0717501322993302	-0.994602063076924	5.67206349110765E-06	-2.63005760830265E-06	-2.99683475525822E-06	4.15441921897498E-07	0.733628046130675	0.668905663232513
2	-0.00564650299813308	-0.996151340730142	-1.546398574921E-06	-2.02290128465037E-06	3.21020998810847E-06	1.14385321907836E-05	0.810763213172947	0.56956302159648
2.1	-0.0831996205166189	-0.992864986279763	-7.54458470190153E-06	2.44334685234391E-06	1.20004997610802E-06	5.1392800658326E-06	0.874106220128937	0.464631503073053
2.2	-0.159871716133416	-0.983923699113209	-8.83851954387903E-07	1.39204000069596E-06	2.99232272941278E-06	7.7729515863707E-06	0.926078962781063	0.352015919229096
2.3	-0.237197722577293	-0.968000704254049	1.73171116800917E-07	7.44822856701793E-06	7.38420593841954E-07	9.38689156825107E-07	0.96294001350979	0.233552729851813
2.4	-0.313046284927849	-0.945520410852998	1.5737684690849E-06	7.16902308730566E-06	1.51609334457831E-06	6.38300850284052E-06	0.985126725796062	0.110079654555514
2.5	-0.385918278223524	-0.917859106914897	4.38579862858735E-06	-2.3082104719481E-06	-1.90716331636555E-06	-7.56215468768904E-06	0.990574129568026	-0.0146997926687733
2.6	-0.456671469166139	-0.884333335089908	6.7630038496005E-06	-5.92887314579412E-06	-1.10894233623421E-05	1.07994457690574E-05	0.980544382098757	-0.139322496612762
2.7	-0.524743634595915	-0.845509856001117	-4.44381386782374E-06	9.1159733336724E-06	-2.85482992155541E-06	-9.1417634936137E-06	0.954268020235656	-0.261513280735839
2.8	-0.58850565135429	-0.801990477070061	2.44913472146349E-06	1.14552083693468E-06	-3.12244633382215E-06	1.23445210641447E-06	0.914062159461502	-0.378203249258899
2.9	-0.647895485587594	-0.754478279401405	-5.50109382930117E-06	5.98357305797386E-06	-9.16767993727625E-06	-3.07891439588136E-07	0.859805121678621	-0.489138728165711
3	-0.705141990361887	-0.703377356222381	4.77280390107754E-07	-1.46809866362562E-06	1.12961796776555E-05	1.50514071584497E-06	0.791855639506879	-0.593446723019369
3.1	-0.759253725187713	-0.64623568092876	2.36400664098461E-06	1.04958379586675E-05	4.31313481115528E-06	2.1882849865571E-06	0.711476941484666	-0.687246335863636
3.2	-0.807415198507764	-0.585280924670355	2.08059307856528E-06	6.46961081520267E-06	4.03547275589779E-06	-1.05852368742107E-05	0.620561584122254	-0.77069697770338
3.3	-0.850870934081818	-0.521197878767966	3.06355458689858E-06	4.97232413113634E-06	-2.18987853328657E-06	-9.67560608619625E-06	0.518953437235173	-0.842904779281918
3.4	-0.888931327100228	-0.454353001741659	2.1365980472639E-06	-2.59913899182167E-06	5.95905338304147E-06	1.40496810762293E-06	0.410781653297132	-0.902313039098647
3.5	-0.923187678406354	-0.381740478530204	-3.24667322541622E-06	9.44080275500076E-07	-2.08109891725818E-06	3.42669730281054E-06	0.292323755528838	-0.948939276474146
3.6	-0.948834679424386	-0.307226847189255	-1.80891023616874E-06	-3.74575735015087E-06	-7.82784915005238E-06	4.09817632893801E-06	0.170001201955599	-0.976002417570631
3.7	-0.969483966518554	-0.232858792657488	8.37508226638953E-07	-8.3268214639759E-06	1.07634272389575E-05	3.71721195585041E-06	0.0468492499062739	-0.989503272139112
3.8	-0.984920999069787	-0.155889547316183	8.9150605887143E-08	1.54811447904599E-06	-6.53479833518039E-06	5.94323698750924E-06	-0.0770250934017409	-0.988437493814163
3.9	-0.993809407677348	-0.0784847675274094	-2.62268139539913E-06	-5.03673862711354E-06	-3.71926992468209E-06	8.02793346924828E-06	-0.202637767384896	-0.972369452748022
4	-0.996997072943201	-0.000129852455319189	7.13265565866856E-06	-3.70738263506858E-07	-1.04343323461056E-06	-1.20781664401233E-06	-0.324650883471991	-0.939285669862279
4.1	-0.994671855530827	0.0780969262039034	6.21234706663822E-07	-4.4284088413444E-07	7.37054277246483E-06	-4.74339011537122E-06	-0.440635106188979	-0.890285953061908
4.2	-0.986097286141818	0.156554981813879	3.20520534984888E-06	2.11374759225903E-06	-7.17692914675285E-07	-7.64847826054142E-07	-0.549281471643311	-0.827267324506758
4.3	-0.971152127993602	0.233498108014388	-3.19906641717364E-06	1.36849032495933E-06	-5.01322949006384E-06	2.97757488550014E-06	-0.648944090956657	-0.752032005258222
4.4	-0.949025021169099	0.309172064428858	8.02558913617069E-07	2.64885765518739E-06	1.5668845121711E-06	-8.34777165031761E-06	-0.738262685448544	-0.664712889581423
4.5	-0.921290050472706	0.380304597402822	1.82594082528933E-06	-9.36040239972042E-07	7.63295220637735E-06	-2.39840242673275E-07	-0.816386857590276	-0.567511333185865
4.6	-0.890407504550764	0.452272895305449	-7.55414084089785E-07	6.1361831938497E-06	-1.23358196244485E-05	-6.54582505184119E-06	-0.88232536200005	-0.460165592679325
4.7	-0.85226593311422	0.520795836952964	1.19439610843173E-06	2.52253780593618E-06	1.41708588428707E-06	1.87717850218181E-06	-0.933719269208173	-0.345146289688035
4.8	-0.80783812901671	0.586797802725887	-5.24013958627827E-06	1.11403814209879E-05	5.20812830249454E-06	9.74176194030712E-06	-0.969352631743387	-0.224333055759376
4.9	-0.759001466037187	0.6475684347155	1.18776818353269E-06	2.94717033560054E-06	-4.49392591609678E-07	-6.93813243247368E-06	-0.989150017696617	-0.100877256686994
5	-0.708064153918672	0.705743836494557	4.77480052886486E-06	-8.87571191909193E-07	-3.77929226498396E-06	2.41595665470933E-06	-0.996318613678309	0.0236990123313859
5.1	-0.648403458873382	0.761881753337285	4.16290049960184E-06	-1.28605136098936E-07	-2.64227745523428E-06	-9.88939783737679E-06	-0.985216073315652	0.152101765698236
5.2	-0.585048148854319	0.810663223366093	2.67561386895609E-06	-1.50838674584053E-05	1.38022368353171E-06	2.84415462116879E-06	-0.956858405168026	0.275094456785184
5.3	-0.518941641448554	0.854516094265817	-8.7703253039993E-06	-8.01996859221117E-07	-1.14314369098852E-06	1.5822145291294E-07	-0.914624450631618	0.393125179979941
5.4	-0.449435901892633	0.893220653635604	-7.23610104182881E-06	-1.11364588676528E-05	-1.38353461437495E-05	1.12757509403021E-05	-0.858281312716353	0.505102812819638
5.5	-0.377450818142043	0.925330577220163	1.91444078352492E-06	8.61410241923818E-08	-2.25305269112756E-06	1.79662269185917E-06	-0.788931557847979	0.610074272457279
5.6	-0.303384753922121	0.952194618882574	-2.41755325185444E-06	3.53053037487812E-06	-1.3470718563954E-06	1.29552884410522E-06	-0.705059526390294	0.705201319188702
5.7	-0.22678527136264	0.973505115919712	1.31304053344993E-06	1.23690212904789E-06	5.79054146492343E-06	-1.22070229832059E-07	-0.610125488862452	0.788046367267577
5.8	-0.14847809652017	0.988294565101844	2.72181974689727E-06	4.2796078551921E-06	-2.11928812846695E-06	4.26759065014126E-06	-0.50553375299332	0.857982604123155
5.9	-0.0681612893367404	0.99696651436023	-6.93957059678286E-06	-2.29751182381206E-06	-6.04664354317137E-08	6.33262360472184E-06	-0.392963566434588	0.91416647372121
6	0.0122389203319868	0.995044123762788	-1.79973421110531E-06	1.03586972997532E-07	-5.51969790035112E-06	-4.36877609433577E-06	-0.274431660005231	0.952904340981674
6.1	0.0872686285554069	0.989351367820809	-1.12014270072059E-08	-9.91732148511266E-06	-1.00081395156813E-06	-3.2103587922266E-06	-0.156033492966501	0.978591838403736
6.2	0.164361330753516	0.979558532095556	-1.00992125882026E-06	3.11481757787412E-06	-1.74265689728037E-06	4.21871156731295E-06	-0.032671392281249	0.990880030891811
6.3	0.241529009711949	0.963673255624482	-7.96406313166684E-07	2.83061042229699E-06	-2.92877954849141E-06	2.40248394362694E-06	0.0921914974910183	0.987483198684512
6.4	0.317890301353137	0.94033785635281	-5.94448823515857E-06	5.55473147002554E-06	-2.38065228754386E-06	-7.41434316342415E-07	0.216526559083879	0.966980004246412
6.5	0.387908313640541	0.911642805905791	1.40346470629014E-06	-5.25883990089925E-06	-1.44239681506814E-06	-2.37053238315869E-06	0.33272139739992	0.931590269966277
6.6	0.459987906273625	0.881825471981144	3.65803620684031E-06	2.2066185197838E-07	1.13275637446354E-05	-2.64913409450936E-06	0.448881152499845	0.886252544373996
6.7	0.530001969165289	0.842397538849393	-7.80449549205803E-07	8.48530670082785E-07	-3.79300443408829E-06	5.23982813407503E-06	0.558135452897705	0.822376419051377
6.8	0.595739315307729	0.797629562806977	-1.76910434459804E-06	4.5049460267354E-06	1.46136552965958E-06	-8.85191236655241E-07	0.657256881085902	0.745414183547672
6.9	0.657909604270201	0.747770116208212	5.95400407573412E-06	2.26686198441291E-06	-9.38802638712723E-07	2.42966096398365E-06	0.74586513783584	0.656533389133383
7	0.715322416622588	0.69214336972695	1.13704583731721E-06	-4.18111052339894E-06	-1.42994413336295E-06	2.94061762252045E-06	0.821357085992848	0.556664642170475
7.1	0.767566011978506	0.633407714027515	2.39003146311198E-07	-7.21449306857493E-07	2.00585304904442E-06	9.21663903531122E-06	0.88387758307617	0.450191065374424
7.2	0.81544161037577	0.570408638770709	1.38574825527485E-06	-2.42388704960172E-06	-1.02929593020151E-06	-8.59180969457453E-06	0.933316486580265	0.336347447389056
7.3	0.858159025763615	0.503824357003934	4.85755601489031E-06	7.24511730289421E-06	-9.7441383437312E-06	2.3490313913674E-06	0.967891869214636	0.217215031050755
7.4	0.897048191961446	0.434375071739181	5.11772174438056E-06	-6.79822542923665E-07	1.95934662171431E-06	-9.67578125021887E-06	0.989174063535818	0.0945559138562392
7.5	0.931311614573797	0.358336801166816	2.76401493587545E-06	-5.35414403992584E-06	2.10776426270261E-06	-7.34035675338362E-06	0.994438189604205	-0.0347695594081727
7.6	0.955189635443385	0.280997335793341	-3.37098869384885E-07	-5.67059088494823E-06	1.68901138628006E-05	3.82843000826936E-06	0.978568077278401	-0.15955161497618
7.7	0.974931999466931	0.203022274375153	3.53879472996312E-06	9.7361608002184E-08	3.14040139509315E-07	-2.94324664141935E-06	0.950728416382103	-0.281073017183293
7.8	0.988673289953782	0.122708220466457	-1.10542907690383E-05	-1.87301444736493E-06	-1.86005168099E-07	3.46080921398244E-06	0.907840242775626	-0.399482442843752
7.9	0.995320625594247	0.0396416413895289	2.38800582171916E-06	2.02266156146035E-06	-7.02576844593489E-06	-4.6796271094917E-06	0.849090426577824	-0.513090551851263
8	0.988657725187437	-0.0436887720208077	2.39022740649955E-06	2.91930098583781E-06	-9.4319327495226E-06	-7.46507349375111E-06	0.770179050352159	-0.61495432672908
8.1	0.980278045245277	-0.117414713657238	3.78179750017876E-06	-3.08611512936775E-06	2.10948634736379E-06	-3.18652254119355E-06	0.688874341187303	-0.70068534751586
8.2	0.968757597321578	-0.194268558638702	-4.00738926802349E-06	1.43431618690368E-06	-6.71826840749606E-06	4.00838744635696E-07	0.597652806102708	-0.781171441805843
8.3	0.949932930932745	-0.271101707062642	9.81669049723241E-06	2.45447976297313E-07	6.26537168276867E-06	1.03665173428648E-05	0.495701374110706	-0.849842850174511
8.4	0.924550372041483	-0.346297932459664	1.28652088240103E-06	2.53985531347786E-06	3.44908946999196E-06	1.80294018699007E-06	0.386044625391915	-0.905783629162391
8.5	0.892977581246955	-0.418970451168679	-4.82034047766383E-06	4.96161621789255E-06	2.84039132064338E-06	-3.02095868839329E-06	0.267889449297123	-0.948098975438807
8.6	0.85640609975519	-0.488913922248217	-4.48022196324765E-06	2.10139033823051E-06	-2.99803688170039E-06	8.11224522681513E-06	0.146179534848993	-0.972746767233647
8.7	0.814113940741304	-0.55614684921391	-1.01284763345197E-06	1.21667585678107E-06	-6.27587778299938E-07	3.45532808706537E-06	0.0231606846347154	-0.982562562736881
8.8	0.766493034772562	-0.61935514901078	-1.56572987607333E-06	3.07231228008337E-06	-5.97753710493546E-06	1.3034502209814E-06	-0.0992365205471304	-0.976950507570471
8.9	0.714827394096903	-0.678270834703821	3.15044891586022E-06	-1.82813378168413E-06	-3.14689264424757E-06	-4.466327469057E-07	-0.218387236976649	-0.956641964079462
9	0.658907201700357	-0.734535844820837	-7.25523854524172E-06	1.33688915365636E-06	-3.9606218855543E-06	7.17478018159496E-07	-0.336697908184929	-0.926869710468896
9.1	0.597011951894752	-0.78548731510274	-3.34516612013022E-06	-1.87838343342609E-06	-9.81368288083525E-07	2.12877409638548E-06	-0.453672579434972	-0.876655546366985
9.2	0.531547976057877	-0.831109316666527	5.9713210101371E-06	-1.63499369162931E-06	1.97976978321797E-06	8.4609903771342E-06	-0.560711530668839	-0.813278546993484
9.3	0.462648576592304	-0.871617613911327	-3.39241546777909E-07	1.06937666086599E-06	1.36501795031685E-05	1.18216493748513E-05	-0.659657446872897	-0.73683833155903
9.4	0.390723760005273	-0.907337461780147	1.73460118591034E-06	-2.66487356862331E-06	4.29293068289291E-06	1.76167405613601E-06	-0.748285909729635	-0.649491458827497
9.5	0.309906433583262	-0.937648908624389	-6.55096509093091E-06	-4.86809709927175E-06	-1.98164861844803E-06	-5.70984372380738E-06	-0.829328188418072	-0.54684087876956
9.6	0.23015409854098	-0.952975170814234	-1.16543869218018E-05	-1.91186728324947E-07	-5.93393333981191E-06	-3.96920918264318E-06	-0.888101750241786	-0.434165198624709
9.7	0.15308517012043	-0.965915674024553	1.4609344266378E-06	-4.82549530441764E-07	-2.90090300447775E-06	1.64756305238129E-06	-0.934113987045025	-0.319267321263581
9.8	0.0742543082986516	-0.97391094187776	2.20307888263768E-06	1.38846498047354E-06	1.50386765991464E-05	-3.54138320403923E-06	-0.965925721510576	-0.199517227006322
9.9	-0.00620542277586909	-0.975551127416741	-3.41792994081262E-06	8.94806594109167E-06	1.37219687838414E-05	4.9246355032477E-06	-0.98255394283746	-0.0770799049607416
10	-0.086535791004252	-0.96797463551306	-3.62115928813007E-06	1.61774362145162E-06	1.91061534445981E-05	-1.80939270702316E-05	-0.985044085397672	0.0460676306989165
10.1	-0.162854810747535	-0.955076984766212	-1.47217128472101E-06	2.29614957486786E-06	-8.39703991062691E-06	-4.28819286490253E-06	-0.972134434889019	0.170499502041575
10.2	-0.239402288894773	-0.936827331113378	-2.30513910491904E-06	-1.2330643597833E-06	-1.28684666844716E-05	7.23211173355543E-06	-0.942288915203664	0.292236394128187
10.3	-0.313350850695409	-0.911059736907644	5.75642298114396E-06	3.89547106197947E-06	-6.12379888038672E-06	1.39161709071604E-06	-0.896850996046067	0.408488549829748
10.4	-0.383923733121366	-0.879444814820051	2.09347612050134E-06	1.03284785004948E-06	6.68158249459829E-07	-8.17707179983312E-06	-0.835627605242138	0.515563993624737
10.5	-0.450786182962996	-0.841680641687257	4.32146876764629E-07	-3.03553791189844E-07	-6.56894097462517E-07	-5.57531961565365E-06	-0.767881691702254	0.610008140723873
10.6	-0.512222311006657	-0.799130748413325	5.0471599389745E-06	-2.57774080993887E-06	-9.65588459582512E-06	-7.82126145844226E-06	-0.689709913272563	0.704123123918237
10.7	-0.569768619845813	-0.753014817206176	-2.79120909633021E-06	-5.02469663231258E-07	-5.17333404040426E-06	-7.11885477260902E-06	-0.596899132759791	0.786734254686995
10.8	-0.622692180860872	-0.703569568922614	-3.57968959209776E-06	-3.42276621031278E-06	-1.18851570938462E-05	9.05055817465326E-06	-0.493477105089026	0.856255954971828
10.9	-0.67024604985594	-0.653403012781483	-1.12478941811164E-05	-1.03783867855783E-05	-4.48061161111993E-06	1.08507088368432E-05	-0.383240518086404	0.910354864268409
11	-0.719780928939759	-0.604676030864555	9.99874835041957E-07	1.41051137263081E-06	8.66617341272498E-06	-5.43407197605511E-06	-0.269436093248241	0.953950555644584
11.1	-0.765702251655507	-0.544575806693348	-3.19620732522455E-07	-3.62342073840015E-06	1.01741245966183E-05	-1.01564849065324E-05	-0.144889355718291	0.982422427079914
11.2	-0.804430920964639	-0.484630093101524	-1.02241314245633E-06	-3.90061609003943E-06	2.16270526374254E-06	-6.28497109010811E-06	-0.0186016213876551	0.992211682308789
11.3	-0.840469928667211	-0.422719577585544	1.65118260290361E-06	-1.19961519935354E-05	3.55784761133753E-06	-2.80465408978537E-06	0.107350490442481	0.985913900495482
11.4	-0.873430021743311	-0.358470229863721	9.84238509856908E-07	2.00550269562613E-08	-5.6858070429059E-06	6.43601297015194E-06	0.231915918779884	0.963791271435158
11.5	-0.903515436771884	-0.286984677204953	6.52748961063658E-06	-1.24293799451694E-06	8.21535195742746E-06	-3.1868894336391E-07	0.350937140759279	0.925706359967663
11.6	-0.921949544974673	-0.214588321243103	-6.36384810582061E-07	-5.30069527187726E-06	1.43027694626548E-06	-3.06499337387842E-06	0.465131250731935	0.873945243466645
11.7	-0.937059118818824	-0.142336753829544	-8.71195784602231E-08	-6.01565184342365E-06	8.90566623927025E-07	-2.64318170469482E-06	0.572220653325333	0.807478899088395
11.8	-0.947562379325016	-0.0674095536483485	-1.06495168141356E-06	-7.39252599615332E-07	5.13916590761512E-06	1.08251322607569E-06	0.670266886707871	0.727604527227569
11.9	-0.952675503813505	0.00936974919544951	-3.19672984928589E-06	-5.19357371093713E-06	-5.35502828447415E-06	-7.98756977060266E-06	0.756512341469989	0.634058185801124
12	-0.951777683535277	0.0881320043596266	-2.93192787749202E-06	1.63251404716229E-06	-1.66461660983849E-05	-8.71983256148348E-06	0.823010152739161	0.530282034194767
12.1	-0.943242262715308	0.167011662856488	8.27260569356504E-07	-1.55720393959497E-06	7.77852822014877E-06	1.22473571905157E-05	0.879412553135106	0.429252166750948
12.2	-0.927285703791323	0.245510579249564	-4.11502692159137E-06	5.51751676831245E-06	4.01804403563909E-07	3.30445051222556E-06	0.927950702342294	0.317523682759183
12.3	-0.904857301045645	0.322721926844179	7.79871444155437E-06	6.39676291178823E-06	3.87630280469878E-07	1.08706656987823E-05	0.960802881807961	0.197932652297765
