# GHZ S RI R 50
0.2	0.984919048062845	-0.157168649729813	2.56349927864557E-06	2.24730387032155E-06	6.56390620827547E-06	-4.86808422594124E-06	-0.965792464516724	0.251932084559981
0.3	0.968702172101528	-0.2341739391915	-8.75651126841227E-07	-5.44876726633418E-06	-3.46734260869459E-06	-7.93695151461039E-06	-0.925912417819504	0.371921646107459
0.4	0.947018481155106	-0.309336710691075	-7.27116958646715E-06	-9.86320209571463E-07	4.43689415265383E-06	1.54102444371794E-06	-0.870840133881668	0.485486869335098
0.5	0.920125872210446	-0.382387969442224	6.19136883651465E-06	2.10082234348974E-06	-2.41099211383056E-06	-1.90496410790443E-06	-0.802231042680478	0.591049983190641
0.6	0.887496750270804	-0.453506555798297	-1.0540088801972E-05	2.45912587396605E-06	-2.21617012437358E-06	-1.00585360954494E-06	-0.721121311807606	0.687336490744041
0.7	0.849175615731416	-0.521484398625379	2.78084122169587E-06	-1.17143104168669E-06	-2.98289329062127E-06	5.78264556328039E-06	-0.628465518907304	0.772728904040625
0.8	0.805532776928273	-0.586425635554167	1.17289128512771E-06	-8.465256853118E-06	-6.61288545659454E-06	-3.06451466425554E-06	-0.525780618232524	0.845457445706464
0.9	0.756930807856699	-0.647723149655692	-1.14511197855209E-06	-6.79811851039665E-07	2.54525495815166E-06	6.53309657412323E-06	-0.414997415322542	0.904522135509309
1	0.70369785335726	-0.705088309776236	-2.73976866025033E-06	-3.21710539238653E-06	-4.0381971346989E-07	-7.30353864451899E-06	-0.297970895356342	0.948960973880018
1.1	0.646933538012021	-0.758257754704317	1.80521662776222E-06	-4.93147680804337E-06	2.26787660480081E-06	-5.12445201330615E-06	-0.176220393021725	0.978597191835467
1.2	0.584891036483724	-0.807684068707103	-2.49283449057348E-06	2.4855257426009E-06	9.25007859345612E-07	-9.0864141498484E-07	-0.051476160545509	0.992487411631555
1.3	0.517617173869907	-0.852307820664266	-1.53607324858121E-06	7.16835604407104E-07	-1.35451459655953E-06	1.45967193061745E-06	0.0737972477728039	0.990873131003656
1.4	0.447184908719909	-0.891279961013692	3.92063446759252E-06	-3.23264729292387E-06	2.68891943716137E-06	1.09282110948793E-05	0.198462743143072	0.973219032971281
1.5	0.373972312106668	-0.924000537938227	-5.3326454158248E-06	1.10508520436938E-06	6.58775765687577E-06	-7.19518971147468E-06	0.319617883301854	0.940062078946404
1.6	0.300125808032229	-0.949954785992559	1.77775640770479E-06	-7.72936712093095E-06	3.62723301259095E-06	1.38256134115157E-06	0.435317760727377	0.892193886712398
1.7	0.22584799612889	-0.969988792263943	-1.9387611455991E-06	-9.6894443744581E-07	-2.34453416773518E-07	-2.08454310257383E-06	0.543612494354532	0.83064858767168
1.8	0.149348513398187	-0.984592845906706	2.8455312553982E-06	5.27357464086917E-06	3.45675575389801E-09	2.02900170359526E-06	0.643698143723828	0.755574788554206
1.9	0.071818110221035	-0.993152568475098	5.6666036842703E-06	-2.62766484382627E-06	-2.993969696444E-06	4.15106297562829E-07	0.733199620534665	0.668391980199102
2	-0.00509147260426676	-0.99488503595141	-1.54441844005794E-06	-2.02220918813494E-06	3.20282189251399E-06	1.14321132616887E-05	0.810140057156691	0.569792618612138
2.1	-0.0827049386006011	-0.991874063316047	-7.54189995340365E-06	2.44109355756267E-06	1.19870525422894E-06	5.13737416502896E-06	0.874139704670579	0.464798339297028
2.2	-0.159238346287264	-0.982931851123763	-8.83575455251209E-07	1.39107889807103E-06	2.98925325755418E-06	7.76893947462095E-06	0.926010779519318	0.351896924693772
2.3	-0.236355191327922	-0.967173536041261	1.7041385702355E-07	7.44351835754425E-06	7.37614010456219E-07	9.38350139022659E-07	0.962644012951229	0.233410248623846
2.4	-0.312079081071728	-0.944970660509345	1.56851433236981E-06	7.16575145029612E-06	1.51134762829829E-06	6.38016490984697E-06	0.9845916495443	0.110124212774121
2.5	-0.385001907641533	-0.917605628155738	4.3862495638142E-06	-2.3038134085825E-06	-1.90027129632264E-06	-7.56121705405475E-06	0.990072071722183	-0.0141994961842822
2.6	-0.45588150509164	-0.884254676788385	6.76798438632772E-06	-5.92260905484613E-06	-1.10985479333499E-05	1.07891283807546E-05	0.980375378720588	-0.138519514879604
2.7	-0.524069582151284	-0.845585964287651	-4.45286421437927E-06	9.11507040373914E-06	-2.84802783713304E-06	-9.14700813707501E-06	0.954689660265902	-0.260637829017248
2.8	-0.588023004032955	-0.802256535272158	2.44975718337101E-06	1.14774016748774E-06	-3.12498076188288E-06	1.23312179947784E-06	0.914910139697211	-0.377720139225335
2.9	-0.647883981993353	-0.754875133385137	-5.50796537394701E-06	5.98549106612428E-06	-9.17437559861528E-06	-3.12362547270472E-07	0.860648444862398	-0.489040578345924
3	-0.705517861676212	-0.703112296220177	4.77636537200031E-07	-1.46921188702873E-06	1.13047376009003E-05	1.50624018595369E-06	0.79263895228293	-0.593434825427376
3.1	-0.75914398623131	-0.645867234772591	2.36502283976708E-06	1.04994467677094E-05	4.31467607661093E-06	2.18896693899547E-06	0.712296364715004	-0.687456399260898
3.2	-0.807309950733144	-0.585032815127082	2.08060067421767E-06	6.47151572258911E-06	4.03744807697299E-06	-1.05877230683681E-05	0.621221909267695	-0.771120214937038
3.3	-0.850821217415581	-0.520924811103526	3.06391366188229E-06	4.97354966063493E-06	-2.18978183980991E-06	-9.67777311796068E-06	0.519353367359278	-0.843494962514582
3.4	-0.888844348718547	-0.453859484521593	2.13614784396412E-06	-2.59912696771901E-06	5.95867262919892E-06	1.40424242074099E-06	0.410602204055835	-0.902836136279989
3.5	-0.92242704153663	-0.381360519279049	-3.2448488653043E-06	9.41720512931731E-07	-2.08139531181776E-06	3.42317300310449E-06	0.292311730114642	-0.948422766102123
3.6	-0.948402084111393	-0.307525943235484	-1.80540077278103E-06	-3.74725281153627E-06	-7.83126560215497E-06	4.09082856500837E-06	0.170702441841985	-0.976186392309952
3.7	-0.969383203907905	-0.233071747235829	8.42872578186531E-07	-8.32688605563048E-06	1.07618324680963E-05	3.72433526723886E-06	0.0470363223283964	-0.990037717371978
3.8	-0.984956537245305	-0.155999840762519	8.82671436350139E-08	1.54806179556114E-06	-6.53773145084532E-06	5.93913661430381E-06	-0.0772606881082997	-0.988736818883924
3.9	-0.994001529538649	-0.0784413359666015	-2.61848710000841E-06	-5.03800592810581E-06	-3.72482403822004E-06	8.02396411916361E-06	-0.202846537888158	-0.972090062122884
4	-0.997185906928566	0.000275246703862436	7.13513232511603E-06	-3.64419961079176E-07	-1.0426578808563E-06	-1.2091200340631E-06	-0.324028838787279	-0.938977790807613
4.1	-0.99458305421052	0.0786243142929274	6.21734818535585E-07	-4.42728532906523E-07	7.37622074278192E-06	-4.74182822390145E-06	-0.439961690151216	-0.890613748386245
4.2	-0.98580416279874	0.156986146565285	3.20568084002602E-06	2.11551370118963E-06	-7.17707305399123E-07	-7.65347258373391E-07	-0.548787371008635	-0.82785343949835
4.3	-0.97079334864712	0.23364171461925	-3.20001104570711E-06	1.3677824422058E-06	-5.01495457310204E-06	2.976606841857E-06	-0.648605749091474	-0.752734328821961
4.4	-0.949124360634228	0.308848122175383	8.00698111747995E-07	2.64954682492168E-06	1.57292633664542E-06	-8.34701224745747E-06	-0.738076261392025	-0.665521299066808
4.5	-0.922202458502249	0.380835359445469	1.82857027901905E-06	-9.3526663768179E-07	7.64056448182945E-06	-2.33049432951616E-07	-0.816443393736372	-0.568204199642758
4.6	-0.890498777992993	0.453090808510337	-7.56768792371318E-07	6.14164115441447E-06	-1.23462409488298E-05	-6.55308785281084E-06	-0.882173534895982	-0.460858045948054
4.7	-0.852300404377555	0.521322758297239	1.19499911087183E-06	2.52426396515797E-06	1.41787874319741E-06	1.87849970749664E-06	-0.933657860013643	-0.346136179354598
4.8	-0.808059744881089	0.587268627848508	-5.24447200208509E-06	1.11480044290984E-05	5.21129181949437E-06	9.74896528764406E-06	-0.969693516981484	-0.22553809026505
4.9	-0.75943309598837	0.648443212738109	1.18991459995383E-06	2.94960050404793E-06	-4.5218829989467E-07	-6.94465289044005E-06	-0.990263822826669	-0.101789720295747
5	-0.70735963509743	0.706989573600365	4.77441784758522E-06	-8.93604465400131E-07	-3.77687196706347E-06	2.42098830982892E-06	-0.996825779016516	0.0239397811045837
5.1	-0.647789067191514	0.761911695571314	4.16067954243645E-06	-1.30415321865851E-07	-2.6453635963422E-06	-9.88306810437457E-06	-0.985401499492585	0.15128536105075
5.2	-0.585002170732036	0.810685969927817	2.6716564034731E-06	-1.50777485089317E-05	1.3801436113454E-06	2.84265293839916E-06	-0.957771577969196	0.274346632811839
5.3	-0.519086301972938	0.854666153046181	-8.76455729982305E-06	-8.01771949955896E-07	-1.14240086538647E-06	1.58078782946946E-07	-0.915635264152264	0.392851777497627
5.4	-0.449814509091299	0.893395155302507	-7.22119033800987E-06	-1.11312532543755E-05	-1.38305428913045E-05	1.12550769425492E-05	-0.858981210415596	0.505005363596171
5.5	-0.377994189358863	0.925838650622385	1.91395543814627E-06	8.96912539946956E-08	-2.25601573743037E-06	1.79212237132073E-06	-0.78939009821102	0.609503972085232
5.6	-0.303888217942616	0.952647010576445	-2.42414167790953E-06	3.52937859809865E-06	-1.34978745593545E-06	1.29445191344885E-06	-0.706151704054745	0.704268020679063
5.7	-0.227553241634331	0.973947715213994	1.31234774959926E-06	1.23939160160475E-06	5.79455703342575E-06	-1.14809908257847E-07	-0.611844046643418	0.787330431475982
5.8	-0.14953613687197	0.988768285657498	2.71811786849825E-06	4.28556520116547E-06	-2.1258769193812E-06	4.26750762044904E-06	-0.507687495053946	0.857677701798686
5.9	-0.0699580837591788	0.997356934431007	-6.93641638837138E-06	-2.30786693020822E-06	-6.98433883960478E-08	6.33275950806707E-06	-0.395606879733084	0.914242107819615
6	0.00916608877320697	0.997270199465913	-1.80083412284344E-06	9.72615785285116E-08	-5.50649015362833E-06	-4.3900855653541E-06	-0.277909179747218	0.95458105714077
6.1	0.0859471044937086	0.993037116696883	1.96000298526243E-08	-9.94351362915956E-06	-9.93473263778636E-07	-3.22193757202114E-06	-0.157955176109001	0.981740656796391
6.2	0.164254376535392	0.983101112409954	-1.0196843872432E-06	3.12272232545743E-06	-1.75708549609171E-06	4.22863375880972E-06	-0.0333035340641633	0.994027291799619
6.3	0.242062521464369	0.966710772079003	-8.02945729894155E-07	2.83914526214607E-06	-2.94198125420688E-06	2.40667605279673E-06	0.092295914496573	0.990186533535041
6.4	0.318278790644911	0.943381076740564	-5.97187598525481E-06	5.56820245469812E-06	-2.38839190571447E-06	-7.46687583971127E-07	0.216588071020876	0.969686518724462
6.5	0.390185879549895	0.915510828374428	1.40847553037313E-06	-5.28532585733322E-06	-1.45038665847591E-06	-2.381713547121E-06	0.33473113015373	0.935007822257699
6.6	0.462932032520803	0.883473388354712	3.6710558815202E-06	2.13132621369206E-07	1.13603337068436E-05	-2.68385485096356E-06	0.451448670768251	0.887300880181752
6.7	0.532473333497176	0.843413247710983	-7.80187044849781E-07	8.52318252043001E-07	-3.78905969710163E-06	5.26076230998601E-06	0.560083537004166	0.822808115278756
6.8	0.598076570860589	0.798159697891261	-1.76063205461223E-06	4.51606102222078E-06	1.46136891799723E-06	-8.90124925782894E-07	0.658973223947783	0.74543274358918
6.9	0.659879527944733	0.747804352537045	5.9626324764963E-06	2.25270402424433E-06	-9.33031711108956E-07	2.43321717979683E-06	0.747145090722464	0.656198856473709
7	0.717014446806225	0.692222278184399	1.13172258928319E-06	-4.18037544159212E-06	-1.42589387777796E-06	2.94081972875833E-06	0.822530935375898	0.556588905923925
7.1	0.769339317025345	0.633115170261518	2.38619256371235E-07	-7.22081113163777E-07	2.01394606894405E-06	9.22096206512627E-06	0.885261344248718	0.449536950987372
7.2	0.81705546826291	0.569682824561381	1.38386574016125E-06	-2.42781709269043E-06	-1.04124070726252E-06	-8.59811199464983E-06	0.934390568737615	0.335166210999878
7.3	0.859582670831897	0.50252463963134	4.87622620609731E-06	7.24267536336977E-06	-9.74894469833097E-06	2.37012719846933E-06	0.968570352362383	0.215415201365376
7.4	0.897713656424492	0.43205782924105	5.11791024648754E-06	-6.97440667098494E-07	1.92761254079442E-06	-9.68709829008314E-06	0.988539082943095	0.0918101087213955
7.5	0.929934138557366	0.356586231037505	2.73918705835163E-06	-5.35075934624561E-06	2.07774389152171E-06	-7.3299927622084E-06	0.99150868413522	-0.0357529542400893
7.6	0.954202148034069	0.280250616969517	-3.4534529119701E-07	-5.6581346860128E-06	1.68606442017756E-05	3.79370613541998E-06	0.976860307397834	-0.159441092293215
7.7	0.973690278870583	0.202392066750265	3.53138165717872E-06	9.26076345575951E-08	3.0958975773755E-07	-2.93738055961673E-06	0.948980667975267	-0.280760525457476
7.8	0.986907121408242	0.122643020104591	-1.10273098656734E-05	-1.86266881647288E-06	-1.83777917284447E-07	3.45215889955237E-06	0.906067832601838	-0.398377511217729
7.9	0.993040302606687	0.0410085808154625	2.37878429194124E-06	2.01949225971139E-06	-7.00007642407359E-06	-4.67399318862308E-06	0.847844635466724	-0.510435277953204
8	0.98912550969126	-0.0394990359764049	2.37581542101789E-06	2.92898806235323E-06	-9.3936407222344E-06	-7.50505599762149E-06	0.773332479788228	-0.611569489088135
8.1	0.982657648781158	-0.115894931983651	3.79918851384765E-06	-3.08442294045656E-06	2.12288082196647E-06	-3.189301726737E-06	0.692163823643115	-0.701291100546942
8.2	0.970779514809551	-0.19390775523106	-4.02042469414297E-06	1.43411500069402E-06	-6.73796478348732E-06	3.94755644543342E-07	0.599601433383135	-0.782822814936419
8.3	0.951676888603221	-0.271313027268429	9.84586132104353E-06	2.47957838605794E-07	6.28213891652146E-06	1.03985046595163E-05	0.496703409977565	-0.851855715989638
8.4	0.926067097062003	-0.346918263153844	1.29269276991508E-06	2.54653888417174E-06	3.46126510209522E-06	1.80547060321073E-06	0.38600128194255	-0.907760339426009
8.5	0.894382711883369	-0.420137088460621	-4.81988496704234E-06	4.97996636263943E-06	2.83993842313244E-06	-3.03195223081302E-06	0.267715017030932	-0.949167807429171
8.6	0.857202853534676	-0.490619684071616	-4.48396785998396E-06	2.10962966858953E-06	-2.99259031344647E-06	8.12709601226125E-06	0.146205099373439	-0.974369441471546
8.7	0.814367043359512	-0.558030464455132	-1.01319723984524E-06	1.21975431023332E-06	-6.24901943699936E-07	3.4616546009982E-06	0.0226389151057692	-0.984549469824936
8.8	0.766285688318013	-0.621456750682088	-1.56550678182751E-06	3.08039313885125E-06	-5.98838016483991E-06	1.31283854206021E-06	-0.100563454063347	-0.979317832900983
8.9	0.7138947450602	-0.680779141788561	3.15690755815402E-06	-1.83906640358603E-06	-3.15722143564189E-06	-4.42621657056746E-07	-0.221618877890505	-0.959108763834127
9	0.656590335408669	-0.736522396700425	-7.26805881450966E-06	1.36858049818292E-06	-3.96766864449962E-06	7.3474760349405E-07	-0.341238117013227	-0.926195769100926
9.1	0.594448070387011	-0.786683563413836	-3.35553552356419E-06	-1.86744856972732E-06	-9.74203949862801E-07	2.13455792624638E-06	-0.456527170275521	-0.874881497829113
9.2	0.528585310915711	-0.831660952567461	5.96581788920453E-06	-1.65779713775819E-06	2.01204197382517E-06	8.45446877119291E-06	-0.562774018917364	-0.81080425871502
9.3	0.459430124366564	-0.871387874796734	-3.35064485195551E-07	1.06956731863125E-06	1.36795843795254E-05	1.17611102677461E-05	-0.660528678408812	-0.733864554870174
9.4	0.386956917243566	-0.906059188841453	1.72140157477739E-06	-2.66488333108225E-06	4.28935196040978E-06	1.74274626817607E-06	-0.747961757577858	-0.645894052026135
9.5	0.308144569862801	-0.933878541578829	-6.52874301750315E-06	-4.84395531367803E-06	-1.97810525093528E-06	-5.68580518205436E-06	-0.825628876361688	-0.544411013221166
9.6	0.230046797101578	-0.951438123296122	-1.1635431136421E-05	-1.96892052670495E-07	-5.92228361872525E-06	-3.96584931552409E-06	-0.885540847397652	-0.434763929808775
9.7	0.152015350718376	-0.965148751451067	1.45940560207075E-06	-4.82386254918306E-07	-2.89772191487434E-06	1.64656543868396E-06	-0.932732217408516	-0.319999227672103
9.8	0.0724626432257449	-0.972849688288316	2.20139374753384E-06	1.38577098287553E-06	1.50202709608018E-05	-3.5454642502548E-06	-0.965045986575555	-0.200191082208701
9.9	-0.00810140875131239	-0.97359697310365	-3.41051503505173E-06	8.9385543339733E-06	1.37072657723471E-05	4.91364604042144E-06	-0.982204751339021	-0.0774505895039431
10	-0.0875419953102106	-0.965954744705682	-3.61752735629602E-06	1.6184059109965E-06	1.90819628674102E-05	-1.8090080809119E-05	-0.984337408455756	0.0463084786817919
10.1	-0.164267158771016	-0.952988538941635	-1.46828863789262E-06	2.29404172186446E-06	-8.38847559782802E-06	-4.27554844237128E-06	-0.971065920795471	0.17018724061216
10.2	-0.240266630198	-0.934168609703525	-2.30119921070132E-06	-1.23076132383552E-06	-1.28455413184806E-05	7.22034425898279E-06	-0.941491905656088	0.291361296468512
10.3	-0.313421065639052	-0.908619714702189	5.74474405567939E-06	3.89408200029142E-06	-6.11567139102698E-06	1.38477140582145E-06	-0.896855331973641	0.407131856593985
10.4	-0.383772262747673	-0.877693758731007	2.09042785477451E-06	1.03576552045541E-06	6.81635007618492E-07	-8.17088309088775E-06	-0.837468520814269	0.514684271924578
10.5	-0.450974736625749	-0.840253435235257	4.33048205920157E-07	-3.0358708472554E-07	-6.52653448362246E-07	-5.58391869165038E-06	-0.769169494088246	0.612726755515124
10.6	-0.51271195665547	-0.797621020185227	5.04983609926026E-06	-2.5834825508969E-06	-9.66977182349016E-06	-7.82151646540869E-06	-0.687965128703195	0.706192584136123
10.7	-0.570122548101231	-0.751287419008342	-2.79195442600401E-06	-4.99847795358956E-07	-5.18063329171174E-06	-7.11458223535746E-06	-0.594230091138105	0.787322300180503
10.8	-0.622928886770755	-0.702310028042411	-3.5817636495445E-06	-3.41977542213306E-06	-1.18772249848727E-05	9.05814756377013E-06	-0.490974286601114	0.855539139392147
10.9	-0.671798718747105	-0.652155323689201	-1.1265473242875E-05	-1.03641474099293E-05	-4.46569557355708E-06	1.08595764585492E-05	-0.381107739125413	0.909497211790714
11	-0.720466290957587	-0.600676739703773	1.0015016885748E-06	1.40504529830024E-06	8.63443081072415E-06	-5.44551050579366E-06	-0.265651126809685	0.951714265644806
11.1	-0.764410033808012	-0.542289171352749	-3.20208515628452E-07	-3.61381494381208E-06	1.01435138387096E-05	-1.01339103533034E-05	-0.14304286102807	0.978161144536052
11.2	-0.803669115369964	-0.48329561425031	-1.01984612682894E-06	-3.89331820609585E-06	2.15955620119889E-06	-6.27261431266326E-06	-0.0182299907421463	0.98801156361226
11.3	-0.840204049457201	-0.421427193486361	1.65031302252649E-06	-1.19767912488104E-05	3.55258940672626E-06	-2.79966177113608E-06	0.106745245117843	0.981972506656048
11.4	-0.872972717812471	-0.356539051573517	9.82297084643216E-07	2.01425564817378E-08	-5.67543735261859E-06	6.42260089763829E-06	0.230400177361531	0.960162227191329
11.5	-0.901323133374762	-0.28622096802707	6.5150539360557E-06	-1.23039752036287E-06	8.19782739011346E-06	-3.05635598871664E-07	0.348815825059092	0.922604822943239
11.6	-0.921429510153131	-0.215278287066059	-6.27299029254094E-07	-5.29644016699382E-06	1.43374274804726E-06	-3.05966527368427E-06	0.462383737374315	0.871048937357327
11.7	-0.937462375851961	-0.142496080911263	-8.00549593196073E-08	-6.01059131350048E-06	8.92873704877407E-07	-2.63987891946636E-06	0.568602143898337	0.805093839986736
11.8	-0.948283851042396	-0.0670535590322252	-1.0631367996369E-06	-7.3943365357226E-07	5.13267661290651E-06	1.08604677678645E-06	0.665718809403403	0.726012617111289
11.9	-0.953252391725801	0.0105516182009108	-3.1864044908208E-06	-5.18872476267949E-06	-5.33846202618964E-06	-7.98056176782752E-06	0.751034753115643	0.634640378283325
12	-0.951774665008816	0.0896042156444422	-2.93204327840088E-06	1.62439256271964E-06	-1.66084843162688E-05	-8.74530447532941E-06	0.819442268704737	0.534501928123094
12.1	-0.942775883005696	0.168322566329501	8.28187058155236E-07	-1.55520236479725E-06	7.76044283583256E-06	1.22458506707775E-05	0.878531658566163	0.431549611644735
12.2	-0.926444682580305	0.246441687995097	-4.11417493299662E-06	5.50511024234786E-06	3.97961090370847E-07	3.2998245639701E-06	0.926615581907169	0.319204175268629
12.3	-0.903937877265493	0.322845336421039	7.77396926448845E-06	6.39895618610045E-06	3.68207809006719E-07	1.08522132442886E-05	0.959559271373233	0.200230466504274
