# GHZ S RI R 50
0.2	0.985469863030767	-0.157063781633932	2.56414868285263E-06	2.24839647447571E-06	6.56679513209055E-06	-4.86905239194529E-06	-0.965974398652403	0.251952287296106
0.3	0.969319190156453	-0.234183687394216	-8.75415608003789E-07	-5.45110638033118E-06	-3.4679019422703E-06	-7.94059854868404E-06	-0.926132269882355	0.371943145959807
0.4	0.947664903760784	-0.309453955781988	-7.27460043920125E-06	-9.87603256394256E-07	4.43888396821407E-06	1.54226457096416E-06	-0.871155804931207	0.485537021019913
0.5	0.92079523363672	-0.382700582458273	6.19534990739358E-06	2.10217343488876E-06	-2.41254234957963E-06	-1.90618911937985E-06	-0.802658233659545	0.591339221397958
0.6	0.887955916349555	-0.453907475937963	-1.05452674259872E-05	2.46190893911286E-06	-2.21747478414661E-06	-1.00606703415798E-06	-0.721328415126884	0.687729991045017
0.7	0.849587466437448	-0.521840560240864	2.78213321108423E-06	-1.17226684773955E-06	-2.98387613578494E-06	5.78581471277671E-06	-0.62866360064355	0.773109284996637
0.8	0.805949892700355	-0.586805896053805	1.17283681472419E-06	-8.47005454267287E-06	-6.61681239298359E-06	-3.06566483769684E-06	-0.52597080399473	0.845923550732305
0.9	0.757342278223828	-0.648183370152386	-1.14589801743979E-06	-6.80091408215505E-07	2.54760877554262E-06	6.53680508416576E-06	-0.415119390060022	0.905083117386326
1	0.704009963039948	-0.705643072295926	-2.74217332051318E-06	-3.21860239367571E-06	-4.05564257600157E-07	-7.30812102612379E-06	-0.297989363577999	0.949589869667908
1.1	0.647163976798591	-0.758838878568003	1.8050236374621E-06	-4.93499083549565E-06	2.26791744331318E-06	-5.12820725058738E-06	-0.176080983015539	0.979243738264539
1.2	0.58497893387132	-0.808304650280241	-2.49344961366706E-06	2.48780259817059E-06	9.25240680391692E-07	-9.09478354985247E-07	-0.0512012396775513	0.993085636318959
1.3	0.517500696651943	-0.852875144514912	-1.53656504671862E-06	7.17914334362444E-07	-1.35457256395536E-06	1.46106344388791E-06	0.0742488845555322	0.991468789199319
1.4	0.446858877813631	-0.891680547583024	3.92034495309477E-06	-3.23655478740616E-06	2.69699644120252E-06	1.09313838700228E-05	0.199193571254073	0.97379269770611
1.5	0.373702760243655	-0.924116710115973	-5.33359809593357E-06	1.10911063948682E-06	6.58492184730612E-06	-7.20203567880505E-06	0.32064394496731	0.940574285010898
1.6	0.299957667954716	-0.950229570953494	1.7731820457216E-06	-7.73319399469849E-06	3.62939637364144E-06	1.38060163111617E-06	0.436492472687216	0.892410939658955
1.7	0.225554929990823	-0.970290921488507	-1.94012911685622E-06	-9.67964932940274E-07	-2.35969267039877E-07	-2.0851379010502E-06	0.54473289432578	0.830694582974393
1.8	0.148965361196683	-0.984825462627228	2.85018664871511E-06	5.27346084951509E-06	4.8635271787762E-09	2.02971394090445E-06	0.644745773297105	0.755503646937296
1.9	0.0714626803861456	-0.993273367363965	5.66693116696599E-06	-2.63192847118998E-06	-2.994723935792E-06	4.17033240690541E-07	0.734091612063358	0.668313130630274
2	-0.0053453359016327	-0.99518918315849	-1.5465608046514E-06	-2.02280256682126E-06	3.2110836389098E-06	1.1438384400086E-05	0.811312157145704	0.570040837717826
2.1	-0.0833108969015293	-0.99214843890394	-7.54429175715828E-06	2.45044592742677E-06	1.20477403460231E-06	5.1394812357579E-06	0.875716453540082	0.464359258944954
2.2	-0.159856135080901	-0.982990036942293	-8.82421457432452E-07	1.39250717243711E-06	2.99852012103724E-06	7.76855028913651E-06	0.927245206011687	0.350996639426322
2.3	-0.236932912850179	-0.967169744534532	1.77657838713727E-07	7.44512240427745E-06	7.38697396287217E-07	9.37859311871275E-07	0.963536435560378	0.232331128447329
2.4	-0.312686755363175	-0.944954885610524	1.57523349320918E-06	7.16590471434799E-06	1.51735498891339E-06	6.38019916914278E-06	0.985173762897741	0.1089934150071
2.5	-0.385695989320061	-0.917538326800738	4.38532888954746E-06	-2.30829776779745E-06	-1.90747067833829E-06	-7.56146854840565E-06	0.990465716913768	-0.0153158671886411
2.6	-0.456670642842752	-0.884085446464303	6.76429415741086E-06	-5.93014833966207E-06	-1.10915261269302E-05	1.0801753731928E-05	0.980532617119402	-0.139633866631071
2.7	-0.524944366766559	-0.845273487118448	-4.44588265447177E-06	9.12199832243229E-06	-2.85731318077692E-06	-9.14724287795009E-06	0.954740587881132	-0.261657328107775
2.8	-0.588991310938115	-0.801777162473299	2.45185285467712E-06	1.14569522182467E-06	-3.12492136199549E-06	1.2367574489051E-06	0.914879521865828	-0.378753550430227
2.9	-0.64900788007055	-0.75410175805971	-5.50337678561482E-06	5.99466664210686E-06	-9.17885469476111E-06	-3.0168639184899E-07	0.860455297304375	-0.490064518322922
3	-0.706402130323483	-0.701720375394734	4.75571255042113E-07	-1.47033004751503E-06	1.13100984586349E-05	1.48975257357057E-06	0.792334872800181	-0.594368604283801
3.1	-0.759577565069439	-0.644548775482385	2.38006096745971E-06	1.04957526182616E-05	4.3177050160662E-06	2.18269922687098E-06	0.711822027929329	-0.688432363671211
3.2	-0.807644843791035	-0.583708262880954	2.08924015902234E-06	6.46763588626853E-06	4.02216475619656E-06	-1.05916790699397E-05	0.620459074894551	-0.771996004869617
3.3	-0.850987099215135	-0.519495751580652	3.06965869300928E-06	4.9675934381581E-06	-2.20228966329338E-06	-9.67135909869531E-06	0.518273222540139	-0.84412884525711
3.4	-0.888693934958818	-0.452312284786243	2.13133328304126E-06	-2.60002218333467E-06	5.95627298578127E-06	1.39566057775521E-06	0.409227635259873	-0.902942650911984
3.5	-0.921773856942978	-0.380178078599997	-3.24145888514008E-06	9.42917293551744E-07	-2.07747348316606E-06	3.42150258677794E-06	0.291493109596947	-0.947806507035152
3.6	-0.948096714896893	-0.306634309873047	-1.80712376439604E-06	-3.74487713629045E-06	-7.82610338764529E-06	4.09432301588659E-06	0.170114504338469	-0.976083410773568
3.7	-0.969111171329378	-0.231959960487102	8.35403120389512E-07	-8.32435940689475E-06	1.07608265556514E-05	3.71365332877792E-06	0.0461017243253614	-0.989811366735034
3.8	-0.984529943217552	-0.15475567455299	8.96310766521888E-08	1.54716960974593E-06	-6.52889286945364E-06	5.94197782560889E-06	-0.0782774302814638	-0.98813958001712
3.9	-0.993390452398881	-0.0770987169442506	-2.6214554662088E-06	-5.03276559593303E-06	-3.71553421668791E-06	8.0226409135541E-06	-0.20368714239089	-0.971101659308816
4	-0.996272963392698	0.0017086702729502	7.1312981026216E-06	-3.71794934185799E-07	-1.0434335534824E-06	-1.20743219732434E-06	-0.324520055976873	-0.937945309743513
4.1	-0.993336942853972	0.0799625635139457	6.20678309768973E-07	-4.43180934683783E-07	7.36434298316526E-06	-4.7475957235929E-06	-0.440452273775889	-0.889463086834313
4.2	-0.984273874032761	0.158124165419946	3.20482360039766E-06	2.10930849208154E-06	-7.17872877915828E-07	-7.63644069220088E-07	-0.549028854473008	-0.82645987472581
4.3	-0.969107514542253	0.234453114898022	-3.19443275471407E-06	1.36928836621764E-06	-5.00535614530543E-06	2.97788068820195E-06	-0.648475561429168	-0.751229552319179
4.4	-0.947610249383916	0.309369504101872	8.01282373357233E-07	2.64560376456509E-06	1.56575102182166E-06	-8.33710545458038E-06	-0.737577730072181	-0.664062811494141
4.5	-0.920621981921825	0.381732861989474	1.82648142599557E-06	-9.35736546933482E-07	7.63428683045757E-06	-2.37957553720215E-07	-0.815624332718884	-0.566757516818051
4.6	-0.888353091868949	0.453519055714409	-7.49980328951793E-07	6.13568291833206E-06	-1.23391494427859E-05	-6.53395775123447E-06	-0.880875569595387	-0.459671596940712
4.7	-0.850206772960371	0.521271315810498	1.19568682179819E-06	2.52006268811178E-06	1.41772752370263E-06	1.87491533767546E-06	-0.932182334342595	-0.345347158464984
4.8	-0.806075580935387	0.586910424021603	-5.22810754237068E-06	1.11377003626233E-05	5.21264782349198E-06	9.73166663225386E-06	-0.968201241504397	-0.225048417516205
4.9	-0.757474717248436	0.647969893231921	1.19115815774347E-06	2.94409700060837E-06	-4.58542575057704E-07	-6.93406799985038E-06	-0.988796267916858	-0.101318543507511
5	-0.704945128501994	0.70591620271422	4.76293654514577E-06	-8.9625082633358E-07	-3.76612621196731E-06	2.41927109986471E-06	-0.994543036117346	0.0242452020802469
5.1	-0.646184778560129	0.759969052691475	4.15112116150174E-06	-1.30566836503037E-07	-2.64036586553697E-06	-9.86011062330919E-06	-0.98332582035365	0.150342098796615
5.2	-0.584071119117512	0.808776429293936	2.66908992335016E-06	-1.50461343839043E-05	1.37674270784592E-06	2.83706032283306E-06	-0.956311412382938	0.273113076595765
5.3	-0.518567469394652	0.852812451144347	-8.74654486397217E-06	-8.04266200778839E-07	-1.14017612986925E-06	1.57225283048564E-07	-0.91448457141597	0.391505286311515
5.4	-0.449705894638078	0.891595092258246	-7.19645411750012E-06	-1.11165891036474E-05	-1.3814519957142E-05	1.12199095774932E-05	-0.858035126655496	0.503452519429031
5.5	-0.378181501102992	0.924168460168423	1.91133246394494E-06	9.22218312692352E-08	-2.25554937874594E-06	1.78666166885989E-06	-0.788796710178393	0.607554981049003
5.6	-0.304491142409329	0.950918945190964	-2.42526229123451E-06	3.52259976077531E-06	-1.34966549810316E-06	1.29145333693504E-06	-0.70624237205176	0.702161206059359
5.7	-0.228746917556647	0.972386485929755	1.30903557805867E-06	1.23953476093555E-06	5.78729374642079E-06	-1.07028531872397E-07	-0.612611491173117	0.785317714162717
5.8	-0.151345541321469	0.98753737497276	2.70710834257424E-06	4.28445171135965E-06	-2.13032946436732E-06	4.25811346499388E-06	-0.509138109239831	0.855924485005063
5.9	-0.0725680160784539	0.996760739869615	-6.92067868860097E-06	-2.32170660597684E-06	-8.54224371738485E-08	6.32343548498502E-06	-0.397859636658753	0.913015892744148
6	0.00628545657011988	0.998495313120745	-1.8005128005083E-06	9.03378067620869E-08	-5.487582838763E-06	-4.40945219824997E-06	-0.280660421726091	0.95488385501498
6.1	0.0843344610815344	0.995104641002484	5.34972106601769E-08	-9.95381580794276E-06	-9.83532364335638E-07	-3.22868204530093E-06	-0.159781635157931	0.983042765569733
6.2	0.163571532461094	0.985288121546111	-1.0304350001586E-06	3.12513080856725E-06	-1.77228793482404E-06	4.2308102368577E-06	-0.0343165819757932	0.995651444565501
6.3	0.242082902357328	0.968577989173188	-8.10968537317925E-07	2.84345918233971E-06	-2.95363686410745E-06	2.40531581302231E-06	0.0919766004166073	0.991699052145303
6.4	0.318583540039494	0.944978527046465	-5.9941394194378E-06	5.57189082735231E-06	-2.39274902613494E-06	-7.52058740214571E-07	0.216637236152231	0.971079910921305
6.5	0.391440486247472	0.916511148490529	1.41242882660712E-06	-5.29702413766843E-06	-1.45330226430221E-06	-2.38729299529916E-06	0.335854275056014	0.935852714599052
6.6	0.463428717047253	0.883191456100457	3.67385868389248E-06	2.12113183951219E-07	1.13679341361085E-05	-2.68949992007149E-06	0.451819975805758	0.886813314370832
6.7	0.532228136505329	0.843237071688545	-7.80291893297655E-07	8.52343351729216E-07	-3.78962751466172E-06	5.26097088285066E-06	0.559661281602607	0.822476735461399
6.8	0.597535636032529	0.798192504460926	-1.76155208762095E-06	4.51434129247898E-06	1.46125872835327E-06	-8.89445288093802E-07	0.658238754239128	0.745406323686501
6.9	0.659140417539042	0.748051530060427	5.95742841002422E-06	2.25479184623046E-06	-9.33874792412437E-07	2.43108533367672E-06	0.746238352818781	0.656521524717977
7	0.716301018208061	0.692768842111596	1.13717227863939E-06	-4.17640738515647E-06	-1.42937776952562E-06	2.9371125933709E-06	0.821850132029999	0.557330416518921
7.1	0.768681422832887	0.633671132757275	2.39559286592589E-07	-7.21899850639292E-07	2.00275945499178E-06	9.22496590462392E-06	0.884741308865268	0.450155640713437
7.2	0.816362792529323	0.57027681311597	1.38614895964909E-06	-2.42715979045893E-06	-1.03434463691506E-06	-8.60069417371532E-06	0.933799883006181	0.335779012002812
7.3	0.85882466664703	0.503081230278163	4.87375534087525E-06	7.24517747296722E-06	-9.75065709227305E-06	2.36646722073003E-06	0.96783482508853	0.215988675924663
7.4	0.896546859598641	0.432543784864789	5.11500576123535E-06	-6.98091993963316E-07	1.9246254970913E-06	-9.68225310102512E-06	0.98719073859248	0.0924786205061193
7.5	0.928304566877796	0.357987185947502	2.73672068139466E-06	-5.33970204260215E-06	2.07742038626249E-06	-7.31563749161546E-06	0.98993280441204	-0.0335924634475677
7.6	0.953266738907933	0.282061644572032	-3.38143026857993E-07	-5.65108113621496E-06	1.68338747849312E-05	3.80880493283052E-06	0.976426687242958	-0.157032950615266
7.7	0.972993092001996	0.204432209171001	3.52668271903778E-06	9.7866998086462E-08	3.13664303006766E-07	-2.93311778599028E-06	0.949072747494495	-0.278174875277806
7.8	0.986540145938476	0.125053242950236	-1.10112528147469E-05	-1.88465423654447E-06	-1.91095173000503E-07	3.44800173861391E-06	0.906941833413738	-0.395641423433544
7.9	0.993217035407503	0.0440282510718678	2.37119931099288E-06	2.02576245450171E-06	-6.98169560305E-06	-4.69314566890479E-06	0.849812769709487	-0.507599674741382
8	0.991230084904511	-0.0362004501376598	2.36766898989989E-06	2.94245603625757E-06	-9.37743711415613E-06	-7.55254877001981E-06	0.777366366648383	-0.609952624966948
8.1	0.985175459490445	-0.114188519591872	3.81647268202257E-06	-3.08246756980094E-06	2.13625662418727E-06	-3.19185931957169E-06	0.695501141048305	-0.701750586976789
8.2	0.973210816449667	-0.192592144676125	-4.03385928961037E-06	1.43009484533351E-06	-6.75657433633937E-06	3.82699077031374E-07	0.602313457471754	-0.783764229789433
8.3	0.954303195912335	-0.270334585373385	9.87364976813762E-06	2.6304636488796E-07	6.28491365662898E-06	1.0437410193899E-05	0.499046162160761	-0.853198601307517
8.4	0.928897181444791	-0.346422638654741	1.29435121471098E-06	2.555047866755E-06	3.46987069614279E-06	1.81361765729943E-06	0.387918491197921	-0.909385191732891
8.5	0.897269819698508	-0.420324139093521	-4.83412978810792E-06	4.98940778496866E-06	2.84838338243225E-06	-3.0377505147941E-06	0.269572919578509	-0.95099566052102
8.6	0.859794307078221	-0.491369597178172	-4.49697154872102E-06	2.11177465607128E-06	-3.00614345075057E-06	8.14571996267179E-06	0.147596525759489	-0.976901855268573
8.7	0.816670399769979	-0.55916245409112	-1.0166841850576E-06	1.22263134838387E-06	-6.28494546462291E-07	3.47101741170296E-06	0.0232785819908599	-0.987381129003404
8.8	0.768269669446594	-0.622927902226433	-1.57112918060838E-06	3.0894255869416E-06	-6.00709934010154E-06	1.3152713745371E-06	-0.100785085007389	-0.982282418751925
8.9	0.715431393960288	-0.682544626450306	3.16712358154576E-06	-1.8464278650569E-06	-3.16819945702094E-06	-4.43087106102574E-07	-0.2230394122336	-0.961750937158006
9	0.657686191255359	-0.738133577171677	-7.28716714691192E-06	1.38149317582304E-06	-3.97811528275858E-06	7.41761300550633E-07	-0.342892637371993	-0.927369025605851
9.1	0.595499943884807	-0.78843058604599	-3.36592827736898E-06	-1.86823219673843E-06	-9.74175790408164E-07	2.14092589226587E-06	-0.457805644363893	-0.875966486217837
9.2	0.52926448118322	-0.833579919659877	5.97649235445687E-06	-1.66960405094361E-06	2.02804168180619E-06	8.47006012836071E-06	-0.564113773988748	-0.811547796058872
9.3	0.45963989536284	-0.873301390768742	-3.34005001101047E-07	1.07182363336447E-06	1.37196845833676E-05	1.17598081613434E-05	-0.661682559143833	-0.734254269891579
9.4	0.386651692103691	-0.907536221007838	1.71906359508513E-06	-2.66954116649148E-06	4.29539383824766E-06	1.73812636934405E-06	-0.748630970060896	-0.645916325290221
9.5	0.308732623447976	-0.934969306317886	-6.53358350503895E-06	-4.84638764521753E-06	-1.98005481600761E-06	-5.68931119661964E-06	-0.825508673832006	-0.545342145538367
9.6	0.230186261333584	-0.953890116414642	-1.16556272493143E-05	-1.92965579957497E-07	-5.93398080309269E-06	-3.97053654783392E-06	-0.886762056664888	-0.436168524216002
9.7	0.150952777839504	-0.96762260650538	1.46131700556755E-06	-4.84655740705405E-07	-2.90082031859491E-06	1.65220400965414E-06	-0.934511816476185	-0.320701517547727
9.8	0.0705428012543712	-0.974818146604071	2.20611954953362E-06	1.38473236400917E-06	1.50355399353456E-05	-3.56977375955927E-06	-0.966972952379673	-0.200281454824375
9.9	-0.0104704241386095	-0.97481303876875	-3.40161666493535E-06	8.95294978260531E-06	1.37288965488405E-05	4.89966052701754E-06	-0.984129113404141	-0.0768585076200377
10	-0.0900395108438695	-0.966715300571788	-3.61812970586261E-06	1.6257707589464E-06	1.9069527487955E-05	-1.81375048593973E-05	-0.985830765859906	0.0474471995811614
10.1	-0.167078547566882	-0.952824846132335	-1.46524637642952E-06	2.29694117255235E-06	-8.39742165977257E-06	-4.26410200905296E-06	-0.972263077203032	0.171446716291837
10.2	-0.242493785685403	-0.933170472306098	-2.30266078473853E-06	-1.22878598473622E-06	-1.28405731290269E-05	7.23329955291832E-06	-0.942542458666913	0.292723576948251
10.3	-0.314887588975542	-0.907476337557715	5.74869344710292E-06	3.89374857658384E-06	-6.11789005725206E-06	1.38758228512338E-06	-0.898014664303565	0.408628596455663
10.4	-0.384810547498145	-0.876811592243213	2.09300127225809E-06	1.03704946251125E-06	6.82503103296739E-07	-8.18095330531749E-06	-0.83901195615845	0.516946393212277
10.5	-0.451866698823072	-0.839631195789537	4.33784765682973E-07	-3.04551646765705E-07	-6.57955931790109E-07	-5.59567980916581E-06	-0.769499748059797	0.616569657679759
10.6	-0.513684748232737	-0.79723795240702	5.05669486288236E-06	-2.59567148060966E-06	-9.70030015968378E-06	-7.82441778462948E-06	-0.686790647313987	0.709605246430494
10.7	-0.571252787935127	-0.750994522405706	-2.79843758649647E-06	-4.95919222979237E-07	-5.20359092793518E-06	-7.11970307920023E-06	-0.592162614387566	0.790300552085451
10.8	-0.624362576423087	-0.702004036051269	-3.59604976400577E-06	-3.41815887112912E-06	-1.18791457706205E-05	9.10147106371936E-06	-0.488202789501005	0.857839651396716
10.9	-0.673783227034264	-0.651419395136468	-1.13137503711314E-05	-1.03480907429176E-05	-4.44131775870578E-06	1.08900517075699E-05	-0.37762757130664	0.911234736358653
11	-0.721528354578226	-0.599007077187513	1.0059798073491E-06	1.40245690306839E-06	8.62064015137029E-06	-5.47282794626392E-06	-0.261491813719758	0.951827443435631
11.1	-0.765208665658774	-0.541593213831614	-3.28132237824797E-07	-3.61445392643861E-06	1.01253595617965E-05	-1.01595516585099E-05	-0.139798485416022	0.977292027107319
11.2	-0.804999884105035	-0.482612361251082	-1.02916436416748E-06	-3.89319223389708E-06	2.14665920551989E-06	-6.28095836048063E-06	-0.0153712649341532	0.986790983478904
11.3	-0.841761308582126	-0.420345829971621	1.62207837651744E-06	-1.19862155488575E-05	3.5474252906428E-06	-2.80952823256123E-06	0.109285143995682	0.980349074672106
11.4	-0.874258019484199	-0.35495430388507	9.82427975499364E-07	1.77655722518808E-08	-5.66035922846653E-06	6.43688107118979E-06	0.232509976406065	0.958147464503456
11.5	-0.902129387579579	-0.285161013172481	6.5130489992461E-06	-1.24313906733251E-06	8.19772072733738E-06	-3.21594248058764E-07	0.350514084342087	0.920275100038323
11.6	-0.92309441002993	-0.214047929218301	-6.39419096806683E-07	-5.29645712507885E-06	1.42722692068398E-06	-3.06372768476027E-06	0.463489352942669	0.868345722542324
11.7	-0.939143272859054	-0.140431883184465	-9.5193619806474E-08	-6.00986323761664E-06	8.86143468154759E-07	-2.64189763408056E-06	0.568909198423611	0.802242692630907
11.8	-0.949612594240567	-0.0643178695813362	-1.0644305338864E-06	-7.36272069008204E-07	5.13252745063799E-06	1.07220844512202E-06	0.665077511012973	0.723313116750597
11.9	-0.954054475482339	0.0140782819847633	-3.19517135857043E-06	-5.17524392524129E-06	-5.35145012039952E-06	-7.95878359884483E-06	0.749245355263787	0.632953222413155
12	-0.951448288787591	0.0934246573075691	-2.92574291869994E-06	1.62855687676684E-06	-1.6608646468667E-05	-8.70301379371857E-06	0.818637932830999	0.534149557283075
12.1	-0.941583360095842	0.172265056206721	8.23338926946367E-07	-1.55483411357856E-06	7.77751229558718E-06	1.22096689484454E-05	0.87776339758133	0.430644539525802
12.2	-0.924269947485729	0.250098768677609	-4.09566563058892E-06	5.5020492565634E-06	4.03416444845765E-07	3.29257475804132E-06	0.925536155181349	0.318884662636583
12.3	-0.900999518017296	0.325868591845443	7.76711704436623E-06	6.37606917989711E-06	3.81834396344352E-07	1.08303473405163E-05	0.958981107329294	0.200588224460368
