# GHZ S RI R 50
0.2	0.987095963830861	-0.156568726306732	2.56554375222381E-06	2.25393603253912E-06	6.58048106490435E-06	-4.86951528476811E-06	-0.967355392547019	0.251097570951724
0.3	0.971234535337439	-0.233832566783031	-8.70935222173205E-07	-5.46187424921697E-06	-3.4653156772773E-06	-7.95871905471E-06	-0.928182149013835	0.371144328370495
0.4	0.949937710184888	-0.309397021358557	-7.29083155872299E-06	-9.98171505859812E-07	4.44772713300552E-06	1.55095375958366E-06	-0.873988004205055	0.485208049546383
0.5	0.92293954859237	-0.383444848130633	6.2118451497218E-06	2.1105503087499E-06	-2.41852818871841E-06	-1.91249535598522E-06	-0.805595875182467	0.592336199134191
0.6	0.889545192831445	-0.45435244718542	-1.05702686236922E-05	2.4633473566764E-06	-2.22212936922682E-06	-1.00923645503498E-06	-0.723667040642369	0.688864142310365
0.7	0.851536661592371	-0.522091927023792	2.78998649182665E-06	-1.17329172050707E-06	-2.99545628467994E-06	5.79836648273746E-06	-0.631150772452881	0.774557875375411
0.8	0.808311469735982	-0.587306230602116	1.1822223686733E-06	-8.49411377400106E-06	-6.63410003508207E-06	-3.07931107876425E-06	-0.528373018755069	0.84797477621712
0.9	0.760003805728837	-0.649290337486147	-1.14941607720023E-06	-6.82966355672379E-07	2.55287828230258E-06	6.56013819555312E-06	-0.417203347646379	0.907712376891016
1	0.706456741318659	-0.707558169397033	-2.75210838903063E-06	-3.23051717039455E-06	-4.06767928655332E-07	-7.33494819700846E-06	-0.299610663907096	0.952777049036955
1.1	0.649133966376245	-0.761281830103892	1.8095370263348E-06	-4.95391426967239E-06	2.27404979564446E-06	-5.1480403857238E-06	-0.176901356215182	0.982836684797529
1.2	0.586255880722512	-0.811061929964307	-2.49999842002712E-06	2.49876143390218E-06	9.27682890431397E-07	-9.13496812698063E-07	-0.0510892108751309	0.996764498197654
1.3	0.517931800074724	-0.855523583135848	-1.54028886441181E-06	7.22163228502267E-07	-1.3567453086843E-06	1.46733478579669E-06	0.0754217258915072	0.994817059385591
1.4	0.446684665635445	-0.893505138944112	3.92487532631346E-06	-3.24962583985983E-06	2.71873693506229E-06	1.09529725227343E-05	0.200993872371958	0.976532680493663
1.5	0.374343565022512	-0.925130107883465	-5.34321843816484E-06	1.11566855407018E-06	6.59202195045089E-06	-7.22164619344336E-06	0.323094029075149	0.943190169993056
1.6	0.300911815757752	-0.952007344988887	1.77424786939524E-06	-7.75242370892516E-06	3.63864665457179E-06	1.38241387567688E-06	0.439364988283811	0.894393448604886
1.7	0.226331035524277	-0.972436629962983	-1.9459352971992E-06	-9.70059313527206E-07	-2.373269773946E-07	-2.09095539024501E-06	0.547807992507412	0.832457994685769
1.8	0.149597558484503	-0.987319104367393	2.86053514789667E-06	5.28934982938992E-06	5.40338203378224E-09	2.03611172062016E-06	0.648024812523422	0.75700510960608
1.9	0.0721589975935449	-0.996329130406141	5.68865587068457E-06	-2.6405390919261E-06	-3.00599540783376E-06	4.17947429988739E-07	0.737317698019248	0.670110450384708
2	-0.00551021657611228	-1.0000799633871	-1.55643823970836E-06	-2.03420042312316E-06	3.23421844820726E-06	1.15048442627493E-05	0.816923152832534	0.572757916824919
2.1	-0.0859631647086337	-0.996503175224667	-7.57883260635593E-06	2.48320305875606E-06	1.22457286660062E-06	5.16421159846968E-06	0.882723097078971	0.463837716615445
2.2	-0.163122230188065	-0.98625672306745	-8.82665358081024E-07	1.4014604707487E-06	3.03412579845654E-06	7.79646129464303E-06	0.933409296892666	0.348809321984342
2.3	-0.240476120734854	-0.96986281054306	1.99308902491974E-07	7.47849159969546E-06	7.44683177270004E-07	9.40057455311617E-07	0.969047977030057	0.229174763556055
2.4	-0.316507955392803	-0.947341308334614	1.60319223219654E-06	7.19535836844121E-06	1.54279240048053E-06	6.40609495162361E-06	0.990118753510533	0.105187957933086
2.5	-0.390089830414352	-0.919759606333624	4.40055412268959E-06	-2.33492799175514E-06	-1.94256578942441E-06	-7.59461058209713E-06	0.99541212462031	-0.0197876236662701
2.6	-0.461927284698987	-0.885793537327102	6.77639411530335E-06	-5.98965703287811E-06	-1.11069602147066E-05	1.09051224719341E-05	0.985105143576515	-0.145338815489219
2.7	-0.530982688683397	-0.846081596721873	-4.42447122263586E-06	9.19328628912356E-06	-2.9182180648812E-06	-9.18233751411672E-06	0.958686876041378	-0.268624469697363
2.8	-0.595744485811027	-0.801413248524568	2.47121492188922E-06	1.13701404238321E-06	-3.13359253485129E-06	1.26164014335152E-06	0.917534531380544	-0.387018242860596
2.9	-0.656505177121704	-0.751948089735095	-5.48719194297335E-06	6.06157766141807E-06	-9.22422420688395E-06	-2.38620717305673E-07	0.861205265158032	-0.498912187137117
3	-0.712828027476682	-0.696862394039955	4.64861152356873E-07	-1.47883311949762E-06	1.13575346470075E-05	1.40064051990286E-06	0.791522267786645	-0.602927370328925
3.1	-0.764773528878075	-0.639460452595477	2.46516062549998E-06	1.04950584730899E-05	4.34184668703487E-06	2.15302134734869E-06	0.709539189380528	-0.696986060017223
3.2	-0.812424264291404	-0.577758769560808	2.13977501648176E-06	6.4595353203329E-06	3.9479770496622E-06	-1.06338052607937E-05	0.616543208958989	-0.779942756558523
3.3	-0.854881901529846	-0.512457619006361	3.10798376568353E-06	4.94686397492048E-06	-2.27528084060434E-06	-9.65911433811258E-06	0.512696574807697	-0.851011219305397
3.4	-0.890884867724411	-0.44437949509969	2.11115693781705E-06	-2.61269372564243E-06	5.96078609062237E-06	1.35254187698897E-06	0.402246891408832	-0.907504216955668
3.5	-0.922127353066203	-0.373614550328313	-3.23453630671139E-06	9.57553156505703E-07	-2.05969537790849E-06	3.42874725064927E-06	0.286699697881871	-0.950234427447006
3.6	-0.949411770663642	-0.300158845962793	-1.82995798469027E-06	-3.7378814663247E-06	-7.80967977636442E-06	4.14231923254613E-06	0.164743381180611	-0.980379736074772
3.7	-0.969621644996454	-0.224550404259292	7.81061397570519E-07	-8.33087875633958E-06	1.07864806839688E-05	3.64374010656395E-06	0.0388178835815777	-0.992873138234835
3.8	-0.98389761079602	-0.147179116999265	9.96804035071684E-08	1.54555979659784E-06	-6.48574808467428E-06	5.98070183979915E-06	-0.0862258365948434	-0.98902209853664
3.9	-0.991901905238131	-0.0696319054376599	-2.65002611020435E-06	-5.01150539959295E-06	-3.66212039691054E-06	8.03766530377488E-06	-0.210942873448372	-0.969619662260129
4	-0.993946930110171	0.00922347295836974	7.1223646729826E-06	-4.18684865430045E-07	-1.0504829722668E-06	-1.19942634773781E-06	-0.330041008231332	-0.935697722791587
4.1	-0.990078295931317	0.0872932939318807	6.16466329256654E-07	-4.4654923266383E-07	7.31784273771188E-06	-4.7885453471965E-06	-0.445471067031117	-0.886798402920038
4.2	-0.98018823250576	0.165063228081662	3.21060975293425E-06	2.08376325457507E-06	-7.21029727043256E-07	-7.5722298546251E-07	-0.553336289641421	-0.823179169256754
4.3	-0.964518274144705	0.240794456518968	-3.17802098520171E-06	1.38480918406909E-06	-4.97467566717703E-06	3.00005218365821E-06	-0.652128784144475	-0.74741292204845
4.4	-0.943317757903308	0.315512210819949	8.1414283811441E-07	2.63592543505597E-06	1.51703266588122E-06	-8.32897279004169E-06	-0.74078083306482	-0.659527482259881
4.5	-0.915053960397966	0.389564315022961	1.81814548339137E-06	-9.48405648395841E-07	7.6264291206722E-06	-2.93851196364196E-07	-0.817636338668693	-0.560570971908462
4.6	-0.880499403340498	0.459638248674752	-6.94371418370748E-07	6.12259070514967E-06	-1.23564073830998E-05	-6.40607406640042E-06	-0.880421890128869	-0.453460479233198
4.7	-0.842051295885986	0.526051750008661	1.21070366665399E-06	2.49890544997803E-06	1.42649956486243E-06	1.85488837139491E-06	-0.930327779506729	-0.339788582799035
4.8	-0.797545366218775	0.59096079258266	-5.11291355738326E-06	1.11200328364043E-05	5.26167480692188E-06	9.63930299723976E-06	-0.965423189228008	-0.219898001737633
4.9	-0.7478773375129	0.651751003743109	1.2082716445123E-06	2.91573688103328E-06	-5.13533371522409E-07	-6.88685640186032E-06	-0.984872228754752	-0.0955884159410153
5	-0.69284307303828	0.706942487402802	4.7116590138897E-06	-9.23771728217507E-07	-3.71268737406852E-06	2.42504223348971E-06	-0.986211842407799	0.0287391247431427
5.1	-0.635899475260691	0.758049800910474	4.11190313628669E-06	-1.48780262950833E-07	-2.66195599313937E-06	-9.75605073076995E-06	-0.97559992435322	0.150326454613899
5.2	-0.574572348912012	0.806032131956679	2.58564084318381E-06	-1.49228740042755E-05	1.37575284888607E-06	2.80635854849407E-06	-0.949799705928511	0.272256858040929
5.3	-0.509571651913181	0.848842962017704	-8.67003388692872E-06	-7.69137121058598E-07	-1.1293676674225E-06	1.59435412586415E-07	-0.908026217423358	0.390095470335212
5.4	-0.441718362636921	0.886488302397404	-7.15289608734682E-06	-1.10052813716544E-05	-1.36720852023885E-05	1.11456448206056E-05	-0.851175408216862	0.501157216318344
5.5	-0.370947274892356	0.918597939921535	1.89839362101092E-06	8.87324224098727E-08	-2.23744558054347E-06	1.77781110709688E-06	-0.7815440987207	0.603328596338781
5.6	-0.297825409051719	0.944371941869204	-2.3968906430469E-06	3.50370912048038E-06	-1.3358560140782E-06	1.28589046643245E-06	-0.700091143484157	0.696008130891569
5.7	-0.222922486514765	0.964788928735429	1.30132117115291E-06	1.22568666509928E-06	5.73846347993378E-06	-1.21383011412369E-07	-0.607827767678533	0.778084609795267
5.8	-0.146798723786672	0.978622454291004	2.69032792066747E-06	4.23999131927786E-06	-2.10272800918401E-06	4.22302260587757E-06	-0.505781536705613	0.847862500036231
5.9	-0.0706609237344987	0.986872297296066	-6.85108932602329E-06	-2.29826409009659E-06	-8.44833784219998E-08	6.25982589361882E-06	-0.39656433337236	0.90466084264064
6	0.00658355587990724	0.990816143185347	-1.7880292342197E-06	8.51983817290869E-08	-5.43782239152072E-06	-4.39204720191924E-06	-0.280028817693893	0.948779303682574
6.1	0.0851365626091332	0.986110578338559	4.79437481887031E-08	-9.89539792654282E-06	-9.79456801771208E-07	-3.20920642426723E-06	-0.157490414805449	0.975338053022822
6.2	0.16195345391133	0.975430486976206	-1.01941094208136E-06	3.1029600842699E-06	-1.75455363214856E-06	4.20119983867988E-06	-0.0338317453884409	0.98589869186042
6.3	0.237938195203376	0.95963915658233	-8.0381026360878E-07	2.82005285467453E-06	-2.92881376873735E-06	2.38587209523649E-06	0.0896032852016454	0.981716643233463
6.4	0.313269139031347	0.938879043549733	-5.95535617925917E-06	5.52539434231212E-06	-2.3744852054122E-06	-7.48776055428282E-07	0.212380840560096	0.96333380389502
6.5	0.389075332357102	0.910786028271164	1.39492844893949E-06	-5.26466811170252E-06	-1.4475523692892E-06	-2.36944234318324E-06	0.33391110682838	0.927739680056208
6.6	0.458656737972536	0.875539014999927	3.63811524675699E-06	2.06435779239981E-07	1.1254053921604E-05	-2.67432592779495E-06	0.445775870407449	0.876512961069211
6.7	0.525662436055214	0.836912010515063	-7.73075339027425E-07	8.42815748083626E-07	-3.75565675555728E-06	5.20314970007819E-06	0.550663905772743	0.814458346361275
6.8	0.58996741441096	0.793045660444868	-1.75290482929015E-06	4.46333731024549E-06	1.44790740234941E-06	-8.76985347077851E-07	0.647802187397058	0.739781689197326
6.9	0.650540665482085	0.744234403974792	5.88269699208467E-06	2.25115691581231E-06	-9.32237840955727E-07	2.40053945773943E-06	0.734981397248871	0.653607918003118
7	0.707323667343452	0.690725622439248	1.1546919756064E-06	-4.12664309207371E-06	-1.4353835159575E-06	2.89775435712963E-06	0.811489410129615	0.556977286927895
7.1	0.759558977940082	0.632741936569911	2.42382484207943E-07	-7.14796419094466E-07	1.92771604295229E-06	9.16692823938874E-06	0.874602250359112	0.450718751673911
7.2	0.807020611322557	0.570527455895766	1.39053162545784E-06	-2.40025492083328E-06	-9.73735915877769E-07	-8.54183745821856E-06	0.923616431726535	0.338118598055556
7.3	0.849213637470413	0.504348713826101	4.79170982685614E-06	7.21928199070014E-06	-9.6900593091065E-06	2.28835461178312E-06	0.957948315127262	0.220078548188139
7.4	0.885709290624909	0.435110388131047	5.07233749057556E-06	-6.59903209197337E-07	1.9670836617161E-06	-9.5813218736231E-06	0.976836513351183	0.0989282179949067
7.5	0.917577841507724	0.364982430165078	2.76560620674769E-06	-5.25491131106928E-06	2.13435057683885E-06	-7.21741036215156E-06	0.982511201205001	-0.0217044846515674
7.6	0.945635501161856	0.290006329615453	-2.67553179843012E-07	-5.62162493936303E-06	1.66876801415054E-05	3.99048221080936E-06	0.974097796065149	-0.146329586660188
7.7	0.966107438315575	0.212790719139457	3.5096531330963E-06	1.37117067734385E-07	3.45259283169699E-07	-2.91634025707213E-06	0.947998431868715	-0.268381920936364
7.8	0.980109010967865	0.134840957651385	-1.09438154992755E-05	-2.00076925323118E-06	-2.29129445043851E-07	3.43137951120484E-06	0.906948487425371	-0.385316528198865
7.9	0.98838070311978	0.0567688681629092	2.33631383557175E-06	2.04917590385042E-06	-6.89547542260721E-06	-4.7666968722597E-06	0.852684181669879	-0.495471071756448
8	0.993046554495464	-0.0233755828220768	2.33135019119402E-06	2.97881640544515E-06	-9.28907409929008E-06	-7.69052070135741E-06	0.786537874921181	-0.601015518074565
8.1	0.987001404811215	-0.105572312816796	3.85154217460278E-06	-3.05179170998453E-06	2.16960699955322E-06	-3.17708230495513E-06	0.703030534473572	-0.696476483212692
8.2	0.974488048458769	-0.184171564769837	-4.04823651510014E-06	1.39492058772613E-06	-6.76280610752137E-06	3.2293810325553E-07	0.610103720523939	-0.778582229969004
8.3	0.956058362411838	-0.261748427474294	9.87370184350139E-06	3.51694536050565E-07	6.19280718761825E-06	1.04963466478878E-05	0.507961623020198	-0.848799459927822
8.4	0.931607185340088	-0.337759377076136	1.27277999790149E-06	2.56656242947787E-06	3.45502538474487E-06	1.84356515906676E-06	0.397720977916274	-0.905850237430392
8.5	0.901162411553481	-0.412236134451364	-4.87420048914735E-06	4.93889472325529E-06	2.87289461807014E-06	-3.00786875127724E-06	0.281493504643257	-0.948461079312311
8.6	0.864374367506235	-0.483806538467618	-4.5197574669997E-06	2.06286015370011E-06	-3.09451677195934E-06	8.1127953954802E-06	0.160672951098748	-0.977355338304053
8.7	0.822227354748818	-0.552248491458801	-1.03153045145051E-06	1.21321988918486E-06	-6.67439427197921E-07	3.46905157636849E-06	0.036453397085947	-0.990726284866872
8.8	0.774588416325797	-0.617113743688806	-1.60820835169591E-06	3.08134896852752E-06	-6.0376845063095E-06	1.2552900100885E-06	-0.0886334417030941	-0.988629496654132
8.9	0.721744780985526	-0.677922505419709	3.19643966949032E-06	-1.8249378765493E-06	-3.17670433072713E-06	-4.73644103276416E-07	-0.213665919191799	-0.96959973954274
9	0.664150608832863	-0.7332989150646	-7.3122631719816E-06	1.32647179551213E-06	-3.99171714221903E-06	7.117006466367E-07	-0.332702770635024	-0.933807121616028
9.1	0.603092695899711	-0.784675850780713	-3.35450697373406E-06	-1.90628345600919E-06	-9.97906914752241E-07	2.13582015972394E-06	-0.447148945553988	-0.886754893530101
9.2	0.537127893758575	-0.830871537885539	6.01456239739907E-06	-1.61300154185259E-06	1.94665471702162E-06	8.52048498878781E-06	-0.556189491474381	-0.824624665490669
9.3	0.467597473395148	-0.871314766993516	-3.46361067986612E-07	1.07272368309605E-06	1.36543465540722E-05	1.19482057428889E-05	-0.656282821722595	-0.747876342984593
9.4	0.39486550578674	-0.90487445582019	1.75231819328192E-06	-2.66037815118898E-06	4.29130759361497E-06	1.78829964750292E-06	-0.744229415936293	-0.658521425780692
9.5	0.32207622961994	-0.933543770953366	-6.49274817263624E-06	-4.96233293730718E-06	-1.90674238126008E-06	-5.74327141450435E-06	-0.820097025192333	-0.561263939633098
9.6	0.242479500566164	-0.958576055656917	-1.17537238542391E-05	-3.47645259528305E-07	-5.9330875884828E-06	-4.08271710691349E-06	-0.886278681822189	-0.453990845309861
9.7	0.160862917512989	-0.973977827906209	1.48083208320502E-06	-4.72377604222746E-07	-2.94753681087962E-06	1.63440144200782E-06	-0.937268624964079	-0.337924777067983
9.8	0.0792671280118715	-0.982079303769734	2.21376177446924E-06	1.42312771403053E-06	1.52297330285662E-05	-3.44235167479082E-06	-0.97283064646381	-0.216751012501243
9.9	-0.0020185193823588	-0.983312793003521	-3.53573281286411E-06	9.02448696978276E-06	1.38418991740834E-05	5.10153623418202E-06	-0.993450700047372	-0.0914302069364517
10	-0.0827361638417253	-0.978463674963988	-3.6811021711484E-06	1.61846529752272E-06	1.94797646797902E-05	-1.82303429024398E-05	-0.996938678891802	0.0360229184297792
10.1	-0.163215889763954	-0.965745475604264	-1.49963597649792E-06	2.31822106278828E-06	-8.48225727181627E-06	-4.37521435462818E-06	-0.984468299976598	0.162219119333741
10.2	-0.24101819268055	-0.946470589400989	-2.3268575153745E-06	-1.25829007645532E-06	-1.30545010821434E-05	7.25894137716426E-06	-0.955981576688227	0.285886544383993
10.3	-0.315817261920645	-0.920964504432936	5.80914110290065E-06	3.97530839777695E-06	-6.20901061522795E-06	1.37709340069752E-06	-0.912644955473601	0.404719555425977
10.4	-0.387985864525188	-0.890116721504876	2.11935554124016E-06	1.06075069067192E-06	7.25878404451502E-07	-8.29772782363217E-06	-0.854302440856719	0.517990592103325
10.5	-0.457150507276278	-0.852920013705868	4.40590510286243E-07	-3.08522306488631E-07	-6.60725315948688E-07	-5.67939337408026E-06	-0.778696283207334	0.622562700842053
10.6	-0.521945282484427	-0.809973126718419	5.12192325253252E-06	-2.62520196398785E-06	-9.81750822603267E-06	-7.92886412019535E-06	-0.692565704678585	0.712433812559611
10.7	-0.582077017757618	-0.762211889651364	-2.8318178499479E-06	-5.04434485716518E-07	-5.26007784730616E-06	-7.21045177377598E-06	-0.59803359612294	0.792450800844609
10.8	-0.637692214268666	-0.711242538048632	-3.63878133389991E-06	-3.46220783746535E-06	-1.20305271106868E-05	9.20800505466711E-06	-0.493978446026708	0.86084450198788
10.9	-0.68938060291375	-0.656600548353402	-1.14672340817828E-05	-1.04564316530889E-05	-4.47851138600513E-06	1.10292762906755E-05	-0.381649364521507	0.916269746720936
11	-0.733648317416103	-0.600453812150808	1.01678592116201E-06	1.41303700385422E-06	8.68675052303197E-06	-5.5331171370368E-06	-0.261874796225468	0.955221952831065
11.1	-0.77782544242273	-0.54497489476508	-3.29869336925281E-07	-3.64938543639718E-06	1.02268513365029E-05	-1.02533900412477E-05	-0.140591933015722	0.979371630901565
11.2	-0.819579962203181	-0.484157680236284	-1.04100727446455E-06	-3.93317165873915E-06	2.16695533419474E-06	-6.34662266014214E-06	-0.0158693327098268	0.988667820060261
11.3	-0.856751830034019	-0.419058115233211	1.6272001950192E-06	-1.21093078858604E-05	3.58074642055648E-06	-2.84137411497216E-06	0.108701411573616	0.982077794514986
11.4	-0.887559518458893	-0.351307621236822	9.91571226233508E-07	1.71547315554687E-08	-5.70787427277856E-06	6.501166422273E-06	0.231995121251158	0.960420591497775
11.5	-0.914548613506246	-0.283393631455671	6.58270204544567E-06	-1.25134618838022E-06	8.28445342124925E-06	-3.18808902074799E-07	0.351531697292122	0.923187917759029
11.6	-0.93849855805064	-0.210088713868487	-6.52158822578919E-07	-5.36044310294713E-06	1.4417706834888E-06	-3.10241742147856E-06	0.465474304642094	0.870602801577856
11.7	-0.953673776971204	-0.133147981085602	-1.09734002960187E-07	-6.08183456261241E-06	8.90897550857476E-07	-2.67560442113445E-06	0.571361815367542	0.8045465942498
11.8	-0.962088752292936	-0.0550830034624247	-1.07910098163072E-06	-7.41735404724127E-07	5.19589025883378E-06	1.06950111268702E-06	0.668375605052012	0.726420363493282
11.9	-0.963501691679062	0.0237948579109692	-3.24915662570575E-06	-5.22722419436141E-06	-5.43969608591943E-06	-8.03738109831676E-06	0.755644051547066	0.638712519957303
12	-0.959233678213863	0.101848923889517	-2.95797945206715E-06	1.66513917015229E-06	-1.68789356085308E-05	-8.74168904940575E-06	0.834734010024123	0.538004003219184
12.1	-0.950215903861962	0.17949415518962	8.21244742655037E-07	-1.58105606789666E-06	7.97362370291419E-06	1.23012592219967E-05	0.895436615884254	0.423805312389918
12.2	-0.93378985043975	0.257930755721217	-4.08970917904515E-06	5.60122547738551E-06	4.38607147573839E-07	3.32529217486796E-06	0.94003219757221	0.306155274899358
12.3	-0.911329551248859	0.334912384588449	7.90968215372663E-06	6.36220362591387E-06	4.94728107206648E-07	1.09357812088619E-05	0.969759601903193	0.18440169779851
