# GHZ S RI R 50
0.2	0.986498121289752	-0.156664006462826	2.56482228018755E-06	2.25265309323314E-06	6.57710967844151E-06	-4.8684746668784E-06	-0.967177680847042	0.251176462285883
0.3	0.970612103913174	-0.233750455575162	-8.70980674976313E-07	-5.45911646679697E-06	-3.46430333241452E-06	-7.95451031434583E-06	-0.927941852130616	0.371238171190424
0.4	0.949401379856419	-0.30912383441058	-7.28682236614588E-06	-9.976266686368E-07	4.44528083566493E-06	1.55010344020852E-06	-0.873661183026265	0.48528850393545
0.5	0.922700627258247	-0.383047171402233	6.20807436728501E-06	2.11018134806318E-06	-2.41691646483295E-06	-1.9117383632826E-06	-0.805135246206066	0.592271426061927
0.6	0.889605473215478	-0.45424221673652	-1.05663207226813E-05	2.46059746508778E-06	-2.22104868161334E-06	-1.00918576003145E-06	-0.723334660722525	0.688653325111791
0.7	0.851499855149625	-0.522297416621743	2.78888138195171E-06	-1.17266216625329E-06	-2.99449761348149E-06	5.79579699592366E-06	-0.630853996410992	0.774322100991249
0.8	0.808018885362278	-0.587650151249775	1.18158269841742E-06	-8.48963748193647E-06	-6.63060809371735E-06	-3.07767473599979E-06	-0.52812267738866	0.847654133621997
0.9	0.759328742752011	-0.649510300459335	-1.14856837804224E-06	-6.82509828831998E-07	2.55084258229518E-06	6.5554956934211E-06	-0.417074320527539	0.907310218151164
1	0.705714993747129	-0.707124007137523	-2.74845278144376E-06	-3.22858832270333E-06	-4.03752313962581E-07	-7.32845997486515E-06	-0.299690608713648	0.952347103986451
1.1	0.648992903085149	-0.760572097361219	1.81215411643288E-06	-4.94928171161844E-06	2.27651171038093E-06	-5.14292421653169E-06	-0.177293019496589	0.982529172685206
1.2	0.586652438757766	-0.810440411959604	-2.50188552625948E-06	2.49565417692553E-06	9.28369429491447E-07	-9.12347139547826E-07	-0.0517659746958057	0.996803292339248
1.3	0.518885761369615	-0.855318627578652	-1.54151865456865E-06	7.20633526465952E-07	-1.35876038987282E-06	1.46621413898474E-06	0.074594929374767	0.995269871422462
1.4	0.447881239035695	-0.894003637120767	3.9309045089555E-06	-3.24782361911819E-06	2.70935267541786E-06	1.09632765197188E-05	0.200207842233907	0.977193219206507
1.5	0.375511733395056	-0.926384695691032	-5.34887586622235E-06	1.11260587588384E-06	6.60345034702968E-06	-7.22312777193411E-06	0.322377938525865	0.943673665076251
1.6	0.301404888235636	-0.953856251219216	1.77764332942028E-06	-7.75824219128646E-06	3.64123854867198E-06	1.38445191804877E-06	0.438597937441717	0.894712531394456
1.7	0.226093696228146	-0.974199947160002	-1.94688252243579E-06	-9.70314046084302E-07	-2.37619071587306E-07	-2.09185866372456E-06	0.547013936456491	0.832623856382798
1.8	0.148888528485553	-0.988693617067635	2.8621156903235E-06	5.28885928814927E-06	5.95342472123676E-09	2.03621874310818E-06	0.647127594182833	0.757057190183487
1.9	0.0712438526257445	-0.997105955956327	5.68558031751295E-06	-2.64149147371329E-06	-3.00470664459E-06	4.18822938175048E-07	0.736276414311687	0.670078363613557
2	-0.00599083954408334	-1.00020567673128	-1.55528464002742E-06	-2.03222753900901E-06	3.232624502773E-06	1.14943007545869E-05	0.815480985569115	0.572602971115304
2.1	-0.0858091896336676	-0.996929257276776	-7.57327780112804E-06	2.47854694502165E-06	1.22179458795298E-06	5.16026858102835E-06	0.880813570283612	0.464208808547032
2.2	-0.163079127923222	-0.987108583492598	-8.82540538211239E-07	1.40017120383921E-06	3.02926832091966E-06	7.79207807312354E-06	0.931525065585442	0.349694378384069
2.3	-0.240793646576734	-0.970808641513152	1.97144637329089E-07	7.4731191678644E-06	7.43888975677719E-07	9.39576476751825E-07	0.967279514896323	0.230441172501418
2.4	-0.317195498823056	-0.948015973138238	1.600497382713E-06	7.18927414528304E-06	1.54029096299046E-06	6.40069858342582E-06	0.988513995385473	0.106704813399062
2.5	-0.390706995996436	-0.919819399394565	4.3954107285148E-06	-2.33092294847941E-06	-1.93834376903285E-06	-7.58526173002986E-06	0.993712267053856	-0.018135451520806
2.6	-0.461973246802772	-0.885662029790096	6.76968102462145E-06	-5.97586485547288E-06	-1.10966651335841E-05	1.08808127529537E-05	0.983310976651589	-0.143142506370137
2.7	-0.530554545340766	-0.846146949068087	-4.42718105202876E-06	9.17387668616519E-06	-2.90377860173336E-06	-9.17076051550318E-06	0.957076349209176	-0.265935497246192
2.8	-0.595000384302416	-0.801818416791804	2.46586292860507E-06	1.13879515910947E-06	-3.13063727251168E-06	1.2552895187381E-06	0.916265627206823	-0.383895093173562
2.9	-0.655470122619326	-0.752667379717618	-5.49015375641386E-06	6.04399347873574E-06	-9.21135120165743E-06	-2.5408882415512E-07	0.860530500304108	-0.495615276095894
3	-0.711385252984756	-0.698249046936466	4.67391152596666E-07	-1.47648918137788E-06	1.13438946375979E-05	1.42213872721526E-06	0.791265469774722	-0.599955596923747
3.1	-0.763564303579221	-0.641670109846516	2.44473701038558E-06	1.04950327825059E-05	4.33598616404748E-06	2.16008884131153E-06	0.709361596178844	-0.694091468091987
3.2	-0.811651837079382	-0.580455550624556	2.12911285101413E-06	6.46129410387616E-06	3.9636814120977E-06	-1.0624981835847E-05	0.616601197663493	-0.777070774572926
3.3	-0.854664250530554	-0.515447943185253	3.100838478404E-06	4.95052295635557E-06	-2.26178558604479E-06	-9.66106648865848E-06	0.513045669933321	-0.848239870501826
3.4	-0.891312784728828	-0.447388988364776	2.11413736239471E-06	-2.61031445603498E-06	5.95929059382862E-06	1.35931834674692E-06	0.402851662303672	-0.904991497132123
3.5	-0.92297321497856	-0.376273423103494	-3.23490675389001E-06	9.54843474516784E-07	-2.06219042666956E-06	3.42667582807314E-06	0.287076574215392	-0.947903981406877
3.6	-0.950357361155855	-0.302763584642992	-1.82555707858925E-06	-3.73828880890525E-06	-7.81084747601717E-06	4.1330040185985E-06	0.165370269530339	-0.977490246834035
3.7	-0.971013765107061	-0.227111962657789	7.91036300801944E-07	-8.32830523198864E-06	1.07799485317933E-05	3.65614202261177E-06	0.040252031877994	-0.990040057032597
3.8	-0.985652919842775	-0.149368319168608	9.77105384912416E-08	1.54573199485913E-06	-6.49357059256608E-06	5.97259737656822E-06	-0.0841535237896532	-0.986764380308155
3.9	-0.993592412698937	-0.07134779997744	-2.64420883304407E-06	-5.01597107329941E-06	-3.67316488629268E-06	8.03473641060948E-06	-0.208716118364779	-0.968401545446406
4	-0.995198584813601	0.00744962075609969	7.12554477101209E-06	-4.10122502595414E-07	-1.04940807715429E-06	-1.20116156742506E-06	-0.328797904559331	-0.935220227673951
4.1	-0.991426825908605	0.0851356167378709	6.17221589468603E-07	-4.46091086769338E-07	7.32626028694765E-06	-4.78287611302323E-06	-0.444878385340415	-0.885832940379503
4.2	-0.981794400646589	0.162825571066851	3.20978857447322E-06	2.08753512258196E-06	-7.20572418870012E-07	-7.58173189926125E-07	-0.552731255163054	-0.821883182336237
4.3	-0.966332003432485	0.238672353222885	-3.17999959805742E-06	1.38221764855575E-06	-4.978533082015E-06	2.99618251432876E-06	-0.651328191879182	-0.746077043617938
4.4	-0.945103657653299	0.313718202552347	8.11634486173846E-07	2.6368531283321E-06	1.52517516883636E-06	-8.32794556814416E-06	-0.739743553126075	-0.658582661565129
4.5	-0.916398372361771	0.387720409238064	1.81935346472098E-06	-9.4583276253835E-07	7.62639381149489E-06	-2.8327257238713E-07	-0.817115800142545	-0.560462758286791
4.6	-0.881945922788019	0.457494997022149	-7.04917518059042E-07	6.12484477217892E-06	-1.23526516716457E-05	-6.43014222474498E-06	-0.880939153105663	-0.453137029598806
4.7	-0.843696117818466	0.523852323561743	1.20849930349113E-06	2.50318391753179E-06	1.42541250787882E-06	1.85879588174709E-06	-0.931249617438572	-0.33888483576493
4.8	-0.799446521051508	0.58877117769533	-5.13163721663467E-06	1.11289506091968E-05	5.2580567539367E-06	9.65755633472703E-06	-0.96643224216713	-0.218515908406542
4.9	-0.750123768167305	0.649665953840132	1.2075336353692E-06	2.92116975535644E-06	-5.08278053649453E-07	-6.89764083385997E-06	-0.985890991563766	-0.093966976820825
5	-0.695581540922749	0.705146750820464	4.72096145503705E-06	-9.22941153162735E-07	-3.72093822418405E-06	2.42755795990379E-06	-0.987699123414548	0.0310079055721486
5.1	-0.638930015001399	0.75680220742223	4.11913240374122E-06	-1.49326494888296E-07	-2.66731722511144E-06	-9.77304351921284E-06	-0.976211434375684	0.153806650007435
5.2	-0.577762658079963	0.805390521958944	2.5847910530829E-06	-1.49452718952391E-05	1.37860806387683E-06	2.80999758284941E-06	-0.949195839173396	0.275660335957223
5.3	-0.512635545590991	0.848883406826656	-8.68046336862195E-06	-7.66266297338921E-07	-1.13061343768738E-06	1.601116743317E-07	-0.906737543963499	0.39287524709924
5.4	-0.444225036464605	0.887081385314247	-7.16468162544283E-06	-1.10108796900492E-05	-1.36778642288942E-05	1.11621998694066E-05	-0.849867738271697	0.503100096180352
5.5	-0.372684952952696	0.918939207135062	1.89928640702259E-06	8.80564911094441E-08	-2.23778775759206E-06	1.77945983070649E-06	-0.781094126483693	0.605214772562801
5.6	-0.299814566087746	0.944315085178805	-2.39769265013312E-06	3.50570874323253E-06	-1.33637636742125E-06	1.2866745381859E-06	-0.699352527116755	0.69870702380987
5.7	-0.225272578555659	0.965074698204441	1.30226106556048E-06	1.22629873498372E-06	5.74199336603608E-06	-1.22096348429348E-07	-0.60638066358385	0.780683566347252
5.8	-0.149220064731662	0.979600316684273	2.69259942133266E-06	4.24227683501812E-06	-2.10346250153554E-06	4.22595942921093E-06	-0.50389179125648	0.849918850833103
5.9	-0.0726742319750008	0.988835910435955	-6.85584395247843E-06	-2.29864187947635E-06	-8.35378297239406E-08	6.26384833268312E-06	-0.39461644914132	0.905884864483172
6	0.00571011350582523	0.993356742343271	-1.7886704856184E-06	8.5309912356607E-08	-5.43998275040254E-06	-4.39338609618347E-06	-0.279066827641724	0.94918106398223
6.1	0.085231805148026	0.98877040968294	5.58175506371224E-08	-9.90170477957691E-06	-9.77541214281022E-07	-3.21204045679644E-06	-0.157609720268377	0.976623863596106
6.2	0.163127916623107	0.977846269435459	-1.02392021230446E-06	3.10661447613316E-06	-1.76121810671287E-06	4.2057873645297E-06	-0.0336277417735244	0.988177500017741
6.3	0.239812191128572	0.961231519825848	-8.07091828889665E-07	2.82506084212299E-06	-2.9359733140827E-06	2.38874162958904E-06	0.0906074003431276	0.984206864672871
6.4	0.315247369532572	0.939397003686837	-5.96684741720982E-06	5.53417872767194E-06	-2.37856689823984E-06	-7.50505412091901E-07	0.213812240348161	0.965341297784388
6.5	0.390338616090246	0.910349487359177	1.39818459440625E-06	-5.27142304482938E-06	-1.44889283572126E-06	-2.37302262790047E-06	0.335060998639985	0.929832472718075
6.6	0.459272593986835	0.874982554539093	3.64347206765695E-06	2.07144287071888E-07	1.1270991780074E-05	-2.67703306523243E-06	0.447867357305949	0.87878160794363
6.7	0.525961064677047	0.836292322360396	-7.73880411553232E-07	8.44157398174232E-07	-3.75926383793339E-06	5.2111535566755E-06	0.553325905422672	0.81588352757332
6.8	0.590084547311772	0.792449660372313	-1.7525411676588E-06	4.46961907710205E-06	1.44915088314447E-06	-8.78825958398924E-07	0.650487630891609	0.740339295532297
6.9	0.650712675049011	0.743725672383393	5.89151892961245E-06	2.24890733541698E-06	-9.31335929010629E-07	2.40415076181031E-06	0.737354063467678	0.653385164328588
7	0.707770299962563	0.689964184153348	1.15018783778081E-06	-4.13264783709556E-06	-1.43288659484245E-06	2.90283894185517E-06	0.813220024878267	0.55635133624354
7.1	0.759832704619599	0.63159319792747	2.41407320334034E-07	-7.15675956091439E-07	1.94369034338272E-06	9.17016121989771E-06	0.876072795442708	0.449983124345517
7.2	0.807048759357768	0.569277411080253	1.38702967562344E-06	-2.4039806750401E-06	-9.89333278521899E-07	-8.54463973836313E-06	0.924792559244486	0.336980678591805
7.3	0.849061023634667	0.503091806022997	4.80771577964767E-06	7.21179703301823E-06	-9.68836879983811E-06	2.30858804014434E-06	0.958546590538962	0.218579982019001
7.4	0.88546850933519	0.433846919389931	5.07066798861676E-06	-6.71373219705607E-07	1.94530710197625E-06	-9.58544952800515E-06	0.976689551517734	0.0972610415683447
7.5	0.917130507162789	0.363440264482507	2.74984590916252E-06	-5.25898118338042E-06	2.11375208859252E-06	-7.21856064453166E-06	0.981267093313093	-0.0233539578501251
7.6	0.944632675380095	0.288651563405036	-2.80757945561788E-07	-5.61081575255586E-06	1.66672436714857E-05	3.94263863892946E-06	0.971864102264359	-0.146826692778861
7.7	0.965031565396637	0.211783110532667	3.50162723519373E-06	1.31031838607274E-07	3.3965894407622E-07	-2.91005098330668E-06	0.945884804523715	-0.267720019913767
7.8	0.979205359388671	0.133889977746947	-1.0921261180518E-05	-1.98456422288892E-06	-2.24946868899159E-07	3.423882331876E-06	0.905398064603134	-0.384211922940071
7.9	0.98761894445955	0.055552022668653	2.33418197489224E-06	2.04334993301838E-06	-6.8879570936625E-06	-4.75174665745724E-06	0.851609631869734	-0.494764007508314
8	0.991620874401391	-0.0245708691033984	2.33085629127808E-06	2.97095262713853E-06	-9.28218221855272E-06	-7.66636477681298E-06	0.784872619279487	-0.600811265785873
8.1	0.985851819882343	-0.106149685579819	3.84326668970705E-06	-3.0519728706678E-06	2.16337838488935E-06	-3.17529330353011E-06	0.70089544593798	-0.696344564455823
8.2	0.97375930179158	-0.184640073626618	-4.04257627532951E-06	1.39891746741546E-06	-6.75598638104227E-06	3.31513489620405E-07	0.60740727988847	-0.778340305529054
8.3	0.955626021972153	-0.262274363677546	9.86577321189181E-06	3.35952183793331E-07	6.20390342024224E-06	1.04776491517328E-05	0.50479756325954	-0.848167227971605
8.4	0.931324215291342	-0.338425275000907	1.27556526439695E-06	2.56216968370272E-06	3.45463323448726E-06	1.83646593549106E-06	0.394489609348585	-0.904714494530167
8.5	0.900839614270339	-0.412923863296907	-4.86435951635746E-06	4.94238108531875E-06	2.86696233470218E-06	-3.0098618001156E-06	0.278270369441004	-0.947509456419787
8.6	0.864098484671868	-0.484394604481693	-4.51410986291027E-06	2.06961686084269E-06	-3.07919777130783E-06	8.11427597131096E-06	0.156446132542311	-0.976189724624437
8.7	0.822008405060895	-0.552742818020433	-1.02850235790806E-06	1.2143716180953E-06	-6.60334430623293E-07	3.46796970795234E-06	0.0315803902307519	-0.988384605989981
8.8	0.774455588678912	-0.617488332881327	-1.60044199033579E-06	3.08155634367033E-06	-6.02924061695109E-06	1.26618511562655E-06	-0.0934292491764614	-0.984792622470818
8.9	0.721734571230829	-0.678203980106415	3.1883701161632E-06	-1.82908505677035E-06	-3.17340905263492E-06	-4.66445425395019E-07	-0.217562511728949	-0.964501347520661
9	0.664243853561008	-0.733558260103039	-7.297512263297E-06	1.3401879179544E-06	-3.98369165370837E-06	7.19208340594599E-07	-0.335901619218351	-0.928376370425832
9.1	0.603307442210699	-0.7849235212451	-3.35173112727171E-06	-1.89400222000992E-06	-9.9056185226146E-07	2.13353220808773E-06	-0.449706469954451	-0.880232041729102
9.2	0.537388772867675	-0.831250970797207	5.99419822784806E-06	-1.62191901268543E-06	1.96023091869288E-06	8.49239094118782E-06	-0.557233676102241	-0.817790884576292
9.3	0.467790087694934	-0.87185415123391	-3.43419771042424E-07	1.0701337094128E-06	1.36347778706923E-05	1.18882376477526E-05	-0.656171155558733	-0.741764807238754
9.4	0.394781239810417	-0.905685244590567	1.74414350115656E-06	-2.65554701735824E-06	4.28215586872669E-06	1.77789402177383E-06	-0.743713934537331	-0.653822143225318
9.5	0.321089255315257	-0.933977283917864	-6.48675521911845E-06	-4.94210543026442E-06	-1.91150265288493E-06	-5.72839175925313E-06	-0.821053683424608	-0.55778371207084
9.6	0.241835558285762	-0.958039949248938	-1.17294136894569E-05	-3.25835383420764E-07	-5.92782120975182E-06	-4.06341934108803E-06	-0.888547835901777	-0.449321039994262
9.7	0.160692235248721	-0.97335035810683	1.47657978932517E-06	-4.74110185349205E-07	-2.9377585135432E-06	1.63627602301383E-06	-0.939215385055537	-0.331854502637809
9.8	0.0791843983398186	-0.9814829383255	2.21083293249538E-06	1.41513657458571E-06	1.51837480584865E-05	-3.4632113414613E-06	-0.973576367074877	-0.209801805851982
9.9	-0.00227906457544249	-0.982509756198473	-3.50692014408899E-06	9.00162877044111E-06	1.38062253967155E-05	5.05839793173372E-06	-0.9922219032556	-0.0845151775574202
10	-0.0828689452453588	-0.97680274005578	-3.66416982195625E-06	1.61547881345956E-06	1.93803518602667E-05	-1.81743916313624E-05	-0.994570060019919	0.041131830844017
10.1	-0.162480846759338	-0.963618576922878	-1.49383515801075E-06	2.30891011712489E-06	-8.44826415943773E-06	-4.35840658512697E-06	-0.982597275263434	0.166408734819131
10.2	-0.239457353855808	-0.944295215192796	-2.31786142177727E-06	-1.25524258759274E-06	-1.30126823886847E-05	7.22536015600956E-06	-0.954122912974254	0.289859304040297
10.3	-0.313583234164181	-0.919044531189192	5.78832800293527E-06	3.96855905843183E-06	-6.19170751954626E-06	1.36753260613331E-06	-0.910548505625816	0.408309826905291
10.4	-0.385544875974311	-0.888396189562343	2.11363319021488E-06	1.06019958402481E-06	7.31477238319506E-07	-8.27831460675815E-06	-0.852246577366715	0.520560931403105
10.5	-0.454178209445122	-0.850568060087753	4.40112626094518E-07	-3.07882489291201E-07	-6.57154043820812E-07	-5.67169196905991E-06	-0.778736642063232	0.624664373974004
10.6	-0.517379904185407	-0.807793024262	5.11575935194068E-06	-2.62444641065499E-06	-9.81051051454797E-06	-7.91718384341381E-06	-0.693305984009289	0.716618712444067
10.7	-0.576393166112946	-0.761024638238633	-2.82920479182985E-06	-5.01397888361254E-07	-5.26074489096009E-06	-7.1980390590303E-06	-0.59809773338916	0.797595307136952
10.8	-0.631346241432305	-0.711318093071395	-3.63787961650247E-06	-3.45408996414775E-06	-1.20059171266773E-05	9.20914675269101E-06	-0.493362920022844	0.86630711323056
10.9	-0.682929915929122	-0.658171679815686	-1.14580997286607E-05	-1.04314452355839E-05	-4.46295742941523E-06	1.10160662834241E-05	-0.380471139429188	0.92107118807369
11	-0.727984483566973	-0.602861719122419	1.01584423625777E-06	1.41131184642468E-06	8.67624527196873E-06	-5.52813206610208E-06	-0.262356860484227	0.959507070335539
11.1	-0.772016265443282	-0.547614936218439	-3.30411312487872E-07	-3.64742589804107E-06	1.02195366808171E-05	-1.02500644595632E-05	-0.141688279638908	0.985964509583327
11.2	-0.81372258106218	-0.487787199034687	-1.04231382208381E-06	-3.93185265127122E-06	2.1639575693413E-06	-6.34600755435759E-06	-0.0154804765871691	0.996813951520915
11.3	-0.851472219799499	-0.423639756793549	1.61750012347665E-06	-1.21106195771031E-05	3.57847249562202E-06	-2.84424466476291E-06	0.111398802774928	0.990573297703158
11.4	-0.883438737374892	-0.356199357750137	9.91816835880558E-07	1.57377073217958E-08	-5.69983090792351E-06	6.51079453912325E-06	0.236677019967067	0.967906426639855
11.5	-0.910627447768217	-0.287462651392566	6.57721785099811E-06	-1.26640637746675E-06	8.28051683186977E-06	-3.38245154895639E-07	0.356633072026911	0.929111273667177
11.6	-0.934094032580831	-0.214957211315746	-6.63560358774542E-07	-5.35187809427424E-06	1.43277143205069E-06	-3.10162179877306E-06	0.471077603888995	0.875728974609115
11.7	-0.950326075018376	-0.138842089405204	-1.21979462511186E-07	-6.07134021935973E-06	8.83924429960685E-07	-2.67290719670115E-06	0.577544970308558	0.808087455011002
11.8	-0.960295338290365	-0.0607130099049921	-1.07819957399144E-06	-7.3827634325026E-07	5.18707891010785E-06	1.05800888793446E-06	0.674141783637525	0.727679040667086
11.9	-0.963860912173809	0.0195879903665987	-3.24662081056059E-06	-5.20945017984784E-06	-5.4346120202073E-06	-8.00953048675669E-06	0.758293023125734	0.637355510893701
12	-0.959367895423397	0.100196489303644	-2.9509026910973E-06	1.65986016484212E-06	-1.68324876515955E-05	-8.72475141795734E-06	0.832595829484032	0.537937139607504
12.1	-0.948645920844239	0.179369533428159	8.21674810560937E-07	-1.57708589745733E-06	7.94347194931975E-06	1.22882002753489E-05	0.891917300430158	0.428417878028276
12.2	-0.930660074009247	0.2577277407742	-4.09594925215491E-06	5.58703391133393E-06	4.31686166937727E-07	3.32240899072342E-06	0.93789755603874	0.313849446395864
12.3	-0.907098101359725	0.334209431739927	7.89287063728035E-06	6.37856917780388E-06	4.69499793347181E-07	1.09338540902762E-05	0.969936397653909	0.193637657137907
