# GHZ S RI R 50
0.2	0.989395807844955	-0.155813696638644	2.56744972416146E-06	2.2621098493307E-06	6.60059790714056E-06	-4.86984098124624E-06	-0.969550799483821	0.249877334732331
0.3	0.974048581954874	-0.233149831681282	-8.63530630299809E-07	-5.4776998743913E-06	-3.46026890080805E-06	-7.98567235506591E-06	-0.931415330001776	0.370052079196206
0.4	0.953530934693676	-0.309008652280884	-7.3150005326875E-06	-1.01591116473233E-06	4.46064102286493E-06	1.56514910145967E-06	-0.878479289087224	0.484914982347731
0.5	0.926855421184671	-0.384437920943651	6.23775366717473E-06	2.12491146703315E-06	-2.42774042401235E-06	-1.92293346229788E-06	-0.810152877823599	0.594313757476313
0.6	0.89276025868224	-0.455458371814168	-1.0610642141649E-05	2.46556720650344E-06	-2.22963177448341E-06	-1.01437300032668E-06	-0.727122333261824	0.690940706363828
0.7	0.855109392678387	-0.523363412340261	2.8024226152385E-06	-1.17522498092497E-06	-3.01336516806479E-06	5.81875649343229E-06	-0.634877223565112	0.777070112855515
0.8	0.812113823142827	-0.589268855593449	1.19538968550851E-06	-8.531910382457E-06	-6.66165132178921E-06	-3.09946257089697E-06	-0.532009435815847	0.851414253041969
0.9	0.763605534830312	-0.652155764730905	-1.15478611215211E-06	-6.87076064878579E-07	2.56182541510245E-06	6.59459844820278E-06	-0.420433346858868	0.912040406446538
1	0.709418730899301	-0.710756030391031	-2.76554017115129E-06	-3.24816119437632E-06	-4.06785959558976E-07	-7.37333338521203E-06	-0.302352118819334	0.958019731272501
1.1	0.652181614535505	-0.764912192752394	1.82038965145059E-06	-4.98173428015612E-06	2.28755576657989E-06	-5.17690214623258E-06	-0.178711912865813	0.989021636412938
1.2	0.588872266969158	-0.815363877437755	-2.51444444806437E-06	2.51473517183615E-06	9.33047642941223E-07	-9.19340707513338E-07	-0.0517468116724172	1.00368094179481
1.3	0.519823191321117	-0.860241882929487	-1.54911640390817E-06	7.28179855131419E-07	-1.36369017387057E-06	1.47778779884907E-06	0.0764545571880294	1.00201554161899
1.4	0.447715841480598	-0.897746421555044	3.94171326905457E-06	-3.27388378190068E-06	2.75099227257617E-06	1.1009864096609E-05	0.203586032321471	0.983107465467649
1.5	0.376883149802258	-0.928873549690529	-5.36928370859555E-06	1.12708405723762E-06	6.61791787159762E-06	-7.26555121889525E-06	0.327347883231399	0.949042590630159
1.6	0.302979870196012	-0.95818745757222	1.77403807099704E-06	-7.7977169561605E-06	3.66061783158608E-06	1.38536370358476E-06	0.444515316890909	0.898323521700059
1.7	0.226788634988857	-0.979096069206175	-1.95846641457926E-06	-9.72152241268764E-07	-2.42228040988841E-07	-2.10223243165592E-06	0.553085553462754	0.835412363819547
1.8	0.148930760738912	-0.993851857248782	2.88599085199459E-06	5.31260981157805E-06	9.2677195021827E-09	2.04712941663104E-06	0.653293937585132	0.759088022353796
1.9	0.0712969746021717	-1.00268021604785	5.7176390190441E-06	-2.66137302123629E-06	-3.02235394062455E-06	4.23492638425367E-07	0.74192058637959	0.672482023435431
2	-0.00700639272884552	-1.00868158110809	-1.57330605568913E-06	-2.04971217564422E-06	3.28055057138196E-06	1.16012060480303E-05	0.825089588433726	0.576849208774638
2.1	-0.0910510816745598	-1.00462463928168	-7.62648680107846E-06	2.54169364200639E-06	1.26070635240321E-06	5.19907147200175E-06	0.892766721791143	0.462518095289408
2.2	-0.169454957584928	-0.992932139048333	-8.80812514734105E-07	1.41544185198401E-06	3.09644368147758E-06	7.83098078491432E-06	0.941487697463611	0.345066129828671
2.3	-0.247818625731576	-0.975576276431831	2.41583194739548E-07	7.52304460161398E-06	7.54389595641764E-07	9.41706986175131E-07	0.975664637187451	0.2243348620667
2.4	-0.324931214364043	-0.951983344990302	1.65343755464789E-06	7.22983035868877E-06	1.58822439023286E-06	6.43613500589198E-06	0.995555810614636	0.0997249486017092
2.5	-0.399377721896604	-0.922956238481144	4.41289258026467E-06	-2.37682859676986E-06	-2.00208470980903E-06	-7.62898886435088E-06	1.00032175829343	-0.0259885646148428
2.6	-0.471717496433749	-0.88762846161475	6.77569005290605E-06	-6.06998986495795E-06	-1.10985114081439E-05	1.10431281903442E-05	0.988766715990718	-0.152407638971908
2.7	-0.541275218505456	-0.84653976417706	-4.38291943303208E-06	9.28007980294881E-06	-3.00300602980928E-06	-9.2150318344951E-06	0.961484529482956	-0.276486218433491
2.8	-0.606708430983246	-0.800262462713695	2.49494772693812E-06	1.12286433957167E-06	-3.1410531881809E-06	1.29513157693735E-06	0.918799586647635	-0.396005499684677
2.9	-0.668293442459258	-0.748001405098345	-5.45845033091071E-06	6.14884462221651E-06	-9.27778229210537E-06	-1.49835438383016E-07	0.860360202324481	-0.508291978519371
3	-0.721683824668312	-0.688620654236119	4.48844437854572E-07	-1.4895288840854E-06	1.14138056220577E-05	1.27007294161668E-06	0.789006937925189	-0.612197751733048
3.1	-0.771206324952207	-0.632471068512347	2.58827615396033E-06	1.04845556236629E-05	4.37348259496233E-06	2.10736423973092E-06	0.704809858259755	-0.706641860237408
3.2	-0.818594529678266	-0.570201840863467	2.21528609692256E-06	6.4403617137689E-06	3.82975556687268E-06	-1.06875544815133E-05	0.609180150479772	-0.788651608801717
3.3	-0.860163517016049	-0.503637546832362	3.16480934757228E-06	4.90759800766584E-06	-2.38819637744414E-06	-9.62724991441423E-06	0.502701656740573	-0.85791676976512
3.4	-0.893954518212613	-0.434142460456639	2.07486832001464E-06	-2.62880709730937E-06	5.95799696283467E-06	1.28034574088917E-06	0.389976633055365	-0.910345507160619
3.5	-0.922193910642442	-0.365794893232019	-3.21683559589066E-06	9.77820342134601E-07	-2.02798478151035E-06	3.43227713729174E-06	0.278543391350175	-0.948997985919719
3.6	-0.951797513060537	-0.292946108946586	-1.8608087924593E-06	-3.72118329291708E-06	-7.77210571723719E-06	4.20666710397635E-06	0.156336991805268	-0.982043127324168
3.7	-0.97149369500727	-0.2156090602281	6.98965382789141E-07	-8.32664145314707E-06	1.08065852389289E-05	3.53370734410271E-06	0.0281875126352334	-0.992385550183239
3.8	-0.984381779931219	-0.137370119352694	1.14214594180619E-07	1.54063402785874E-06	-6.41184783921846E-06	6.02739815751284E-06	-0.096891369369824	-0.985428466454723
3.9	-0.990769862570992	-0.0592806635236412	-2.68659291042711E-06	-4.973520980621E-06	-3.58046406983116E-06	8.04664411838246E-06	-0.21986725100373	-0.963414406986974
4	-0.990500027789995	0.0194832567158702	7.10144978072516E-06	-4.86481854544015E-07	-1.0595788500335E-06	-1.18643948827928E-06	-0.337233778411092	-0.929493482968978
4.1	-0.985107909771486	0.0963332913283442	6.09248452904034E-07	-4.51022307415695E-07	7.23744943355197E-06	-4.8438114599466E-06	-0.452817362231462	-0.87905701327314
4.2	-0.974256798431518	0.172994034591225	3.21297948409808E-06	2.04161018611666E-06	-7.24331562064112E-07	-7.4617229859617E-07	-0.559129264226407	-0.813703560898776
4.3	-0.958242816978518	0.247528422041891	-3.14661611439661E-06	1.40277565524818E-06	-4.91854953537606E-06	3.02298629859093E-06	-0.655966415302196	-0.736923461296324
4.4	-0.938068884499391	0.3222476923635	8.27201402266717E-07	2.61652128888874E-06	1.45399983736359E-06	-8.29464381779761E-06	-0.742935150816148	-0.6487878788612
4.5	-0.90732239701655	0.399857282137017	1.80575897423584E-06	-9.62133993662096E-07	7.60663400533689E-06	-3.59760256849282E-07	-0.818421882447786	-0.548881130083887
4.6	-0.868391135204346	0.466556034065006	-6.2289653526925E-07	6.10035024044417E-06	-1.23671697560952E-05	-6.23733505238009E-06	-0.878513427910073	-0.441868878594539
4.7	-0.829605769419113	0.530395995848716	1.23056995116615E-06	2.47030511923897E-06	1.43799991850893E-06	1.82789009232665E-06	-0.926833216704005	-0.328870539490986
4.8	-0.784763732881982	0.593793538077685	-4.95101007017843E-06	1.11014143620769E-05	5.3350524272389E-06	9.51281721579317E-06	-0.960711842062659	-0.209236607775208
4.9	-0.733871073907174	0.654146737283129	1.23636030484926E-06	2.87597395416387E-06	-5.99142780665055E-07	-6.82346707077768E-06	-0.978610509604639	-0.0836062817788565
5	-0.674797313612311	0.704609799264458	4.63510829547118E-06	-9.70875530129052E-07	-3.63082244622982E-06	2.4388096710619E-06	-0.972638983109648	0.0398478247926108
5.1	-0.622514107860361	0.750512175769211	4.05249389381157E-06	-1.78851580174845E-07	-2.70059805546644E-06	-9.59702487122524E-06	-0.961957198024264	0.154435467737079
5.2	-0.563685494376881	0.798282173900406	2.44924804008564E-06	-1.47347849552463E-05	1.3757549713471E-06	2.75841245003181E-06	-0.937061656796886	0.274705614818713
5.3	-0.499845304204138	0.840372691510544	-8.54845920945241E-06	-7.11020818134201E-07	-1.11212495941284E-06	1.63240398612247E-07	-0.894688421010055	0.390649860144668
5.4	-0.43325417225902	0.87722147169553	-7.07750883865665E-06	-1.08236897606306E-05	-1.34403360510474E-05	1.1018707685065E-05	-0.837463334237687	0.498805240447405
5.5	-0.362755892116815	0.908509837513381	1.87732560185611E-06	8.48405464243538E-08	-2.20973847549068E-06	1.76137320086878E-06	-0.769075109126801	0.597513293548735
5.6	-0.291350913920885	0.931987721470081	-2.3536220191335E-06	3.47180292529009E-06	-1.31452099223018E-06	1.2760823078151E-06	-0.689646586673267	0.68847085873005
5.7	-0.219004356376944	0.951469898433406	1.28778351397537E-06	1.20398032065032E-06	5.65861322231085E-06	-1.40629934147095E-07	-0.598991333357275	0.76890004681545
5.8	-0.145716411741595	0.964587632981302	2.65744543633849E-06	4.16780863996447E-06	-2.06065546742912E-06	4.16151703737831E-06	-0.499061925928979	0.836720885662543
5.9	-0.0742709948664707	0.973414444888851	-6.72409871083194E-06	-2.27021570095227E-06	-9.49226077880119E-08	6.14764265093648E-06	-0.393914017562603	0.892003081029845
6	0.00146821077233608	0.984112019647879	-1.7659461698693E-06	6.87013786552251E-08	-5.33057748114593E-06	-4.38286436463611E-06	-0.28099766268475	0.940010438371748
6.1	0.0837279987074828	0.978895408156712	1.02599723610292E-07	-9.81038342951726E-06	-9.53209577258859E-07	-3.18717218942505E-06	-0.156760988310811	0.966804147265871
6.2	0.159551412655651	0.967027921749139	-1.02673355396736E-06	3.07184473718556E-06	-1.76134184130024E-06	4.1571613301934E-06	-0.03469161064692	0.976426100335144
6.3	0.233713325958658	0.951379049014331	-8.13315521938567E-07	2.79406774097284E-06	-2.91968968080605E-06	2.35141517866395E-06	0.086349452241892	0.972543722225794
6.4	0.308025141172955	0.933271588322769	-5.95468823906403E-06	5.46113673880866E-06	-2.35726788102094E-06	-7.58338219599835E-07	0.207520333676403	0.957123123023723
6.5	0.389015982787711	0.903680235704948	1.38840596965461E-06	-5.24341766843008E-06	-1.44202381610348E-06	-2.35954971694099E-06	0.334091395916082	0.920749359315533
6.6	0.453065424959439	0.863191435109103	3.59838923873678E-06	2.01787654610487E-07	1.11289935088302E-05	-2.65240606347001E-06	0.440435835096408	0.864341539657771
6.7	0.515829155298418	0.826596816169464	-7.64929138136772E-07	8.30468002986911E-07	-3.71835355933954E-06	5.12900417868351E-06	0.540708679844877	0.804615782088958
6.8	0.578000154732416	0.784806902819952	-1.74494864363167E-06	4.39651996369411E-06	1.43136284281638E-06	-8.59940018244424E-07	0.635397651288682	0.732556355396017
6.9	0.636890380858545	0.738360422135115	5.78086019251322E-06	2.24821664471227E-06	-9.308301818856E-07	2.35891040810076E-06	0.720663603234828	0.649595519176903
7	0.693638788178018	0.687585339066248	1.18382136294159E-06	-4.057498568271E-06	-1.44727746791474E-06	2.84239656846979E-06	0.797924132737282	0.556843052746796
7.1	0.745626428028769	0.63061649391155	2.46797887372347E-07	-7.06038464428559E-07	1.82521007909184E-06	9.10127843153056E-06	0.861406487349244	0.451367682839965
7.2	0.792410144707422	0.569955441379143	1.39579820462101E-06	-2.36820471114981E-06	-9.01422381568727E-07	-8.4718094093615E-06	0.909779383669433	0.340544647950216
7.3	0.833875723965251	0.505011819182535	4.70243439312965E-06	7.17678108677852E-06	-9.60868359148761E-06	2.20906520727771E-06	0.943299321413981	0.224164009435595
7.4	0.8675434712149	0.437396970706979	5.00433959698783E-06	-6.29298062467632E-07	1.98005090798367E-06	-9.43932230984344E-06	0.958875699600892	0.106291469216017
7.5	0.898454493873719	0.374981781612493	2.77284220619316E-06	-5.12324459684612E-06	2.1759962030271E-06	-7.05555007365899E-06	0.966580854149577	-0.00360035052914554
7.6	0.930984311782116	0.302499139021571	-1.79274556060704E-07	-5.54306069216224E-06	1.6382672675765E-05	4.18225069477378E-06	0.965565354820016	-0.126991743495242
7.7	0.952841302160289	0.227015929425004	3.45914254148482E-06	1.91578498632122E-07	3.87329849691746E-07	-2.87065460452675E-06	0.942686610876852	-0.247796610576417
7.8	0.968466571597094	0.151784233691837	-1.07667135028332E-05	-2.1771372382854E-06	-2.89529094995969E-07	3.38319983403333E-06	0.905825479707732	-0.363019838764919
7.9	0.980075740196971	0.0786326067251612	2.26539733684544E-06	2.08186098941174E-06	-6.71558194391304E-06	-4.87626054884782E-06	0.858449018899083	-0.470964642655217
8	0.996685079798837	-0.00121616528294527	2.26134285254732E-06	3.03766559761105E-06	-9.11109650792194E-06	-7.92147021338503E-06	0.803918189570723	-0.584380201475206
8.1	0.992051298837357	-0.0916124116584023	3.91459855730445E-06	-3.00204667908005E-06	2.22831393477173E-06	-3.15455803187035E-06	0.716373430845827	-0.68928115325722
8.2	0.978686670021478	-0.171207197138319	-4.07700416992402E-06	1.34276280080222E-06	-6.78335242610752E-06	2.31020719117932E-07	0.621486869379081	-0.772054208832015
8.3	0.961269031771242	-0.249086343227083	9.89269400125327E-06	4.79195204528282E-07	6.07289784258046E-06	1.06007762534669E-05	0.519495773931589	-0.843293309328045
8.4	0.938402190594033	-0.325679783685803	1.24629565236127E-06	2.58652271964189E-06	3.44142566165379E-06	1.88681083462903E-06	0.409675735829745	-0.901044055482163
8.5	0.909632815121423	-0.401684444148103	-4.93366509715776E-06	4.87633364837013E-06	2.90914754072651E-06	-2.97095623364998E-06	0.296707413044167	-0.94539874724533
8.6	0.873511992387537	-0.474362682601777	-4.5606328226451E-06	1.99822241158943E-06	-3.22469565330281E-06	8.08249509787402E-06	0.175623418640968	-0.979650849758308
8.7	0.832628780825767	-0.543867060759252	-1.05450314963199E-06	1.20350780156557E-06	-7.22405537261187E-07	3.47537738687232E-06	0.0494245018669196	-0.996069262029046
8.8	0.786101736948823	-0.610448697525663	-1.66288553455093E-06	3.08082939533636E-06	-6.09842268912894E-06	1.17964257587364E-06	-0.0783971903557435	-0.996579796475048
8.9	0.733158948634036	-0.673330607399338	3.24685611773802E-06	-1.80864091583965E-06	-3.20248050840276E-06	-5.12027433340828E-07	-0.20853319995792	-0.977596030967363
9	0.675491876771666	-0.728036135752958	-7.36131102647088E-06	1.28703313829641E-06	-4.01841261930367E-06	6.90102495573873E-07	-0.325935671473593	-0.935809976754167
9.1	0.616680828073927	-0.781537688182497	-3.35209119857056E-06	-1.94501697930002E-06	-1.02161560917532E-06	2.13623255390802E-06	-0.437603278474399	-0.893283141094477
9.2	0.550698819412955	-0.830203865065499	6.05753082641644E-06	-1.56665877042193E-06	1.87940061284185E-06	8.57831866612556E-06	-0.548146251850332	-0.83341142592774
9.3	0.480345512712454	-0.872354566026377	-3.57548526953916E-07	1.0740524483628E-06	1.36027845289916E-05	1.2122055622921E-05	-0.649585055715859	-0.758263233987452
9.4	0.40642781608125	-0.904616586405802	1.783035031746E-06	-2.64800649146785E-06	4.28193017429236E-06	1.83570771595594E-06	-0.737729655538402	-0.669080187963315
9.5	0.341888779164725	-0.933536282970737	-6.42779286310346E-06	-5.10606536709091E-06	-1.80708577667064E-06	-5.80419076016574E-06	-0.812505767834538	-0.58093616394074
9.6	0.260606952558943	-0.969058022776101	-1.18995058944073E-05	-5.38412695941947E-07	-5.94474765297107E-06	-4.22930666578564E-06	-0.891064152713885	-0.475692974935411
9.7	0.174158344216964	-0.987025325757008	1.50723704268663E-06	-4.60845913504646E-07	-3.00858485171956E-06	1.62111735021678E-06	-0.947493467139953	-0.355254680405933
9.8	0.0896075362135637	-0.995951306780551	2.23013117361445E-06	1.4672168188635E-06	1.54843182971293E-05	-3.32815296702508E-06	-0.986142377860554	-0.230570194635614
9.9	0.00678205904925368	-0.997946752430586	-3.67933925737524E-06	9.12935324924668E-06	1.40059122472832E-05	5.31682366820044E-06	-1.00899805367733	-0.101525275975641
10	-0.076121377252957	-0.996425702700596	-3.75378227885149E-06	1.61915413957343E-06	1.99331740046368E-05	-1.83945802641211E-05	-1.01289990382398	0.0288495175467272
10.1	-0.161492587208385	-0.983469890120564	-1.53708561752805E-06	2.34450799373261E-06	-8.58535288462895E-06	-4.49516087082232E-06	-1.00250586662367	0.157153243002635
10.2	-0.241447810557054	-0.963263386186614	-2.35553978094077E-06	-1.29334940203855E-06	-1.33084951778638E-05	7.28907606095338E-06	-0.97584521710172	0.284397820780294
10.3	-0.318312380442769	-0.937601192259127	5.88336125044486E-06	4.08237221095214E-06	-6.32545747397001E-06	1.35994110268757E-06	-0.934260208097644	0.407461678323539
10.4	-0.393076437355055	-0.906283849506316	2.15634897289434E-06	1.09598184252381E-06	7.93175312552709E-07	-8.46418085018361E-06	-0.877920954514838	0.528172812590688
10.5	-0.463981328106061	-0.867696431065802	4.51379115897259E-07	-3.15709628089778E-07	-6.7346795690271E-07	-5.8166075844207E-06	-0.794348832605699	0.643290059914781
10.6	-0.530302803858245	-0.824306604424171	5.22301911840751E-06	-2.69598816843269E-06	-1.00493013825945E-05	-8.06848649530671E-06	-0.700577852054905	0.731220068490257
10.7	-0.592446372907485	-0.77598346422986	-2.89114113933676E-06	-5.03131471498479E-07	-5.39575854248951E-06	-7.33491307697282E-06	-0.602953181312434	0.81056335022783
10.8	-0.651180016485812	-0.724280783052869	-3.73226199025389E-06	-3.51162086518189E-06	-1.22218204988726E-05	9.46320122249722E-06	-0.496188656977281	0.879401857042337
10.9	-0.707465419311204	-0.665201225279899	-1.17913701854621E-05	-1.05448072352885E-05	-4.45600905830027E-06	1.12859991862495E-05	-0.378742430818504	0.935577769368964
11	-0.745823321517151	-0.6022168039034	1.04166007409231E-06	1.42014011131859E-06	8.737030424315E-06	-5.67766677409714E-06	-0.25475802754837	0.967888413745629
11.1	-0.78967523999162	-0.552180558839929	-3.51018553119415E-07	-3.70033336551107E-06	1.03276762305555E-05	-1.04466883092987E-05	-0.137021049867403	0.992062580456753
11.2	-0.835321845554709	-0.490095746649935	-1.08198887794969E-06	-3.9907654750898E-06	2.16338132371179E-06	-6.46308136715201E-06	-0.00998590018663839	1.00281091336924
11.3	-0.874508009455444	-0.421499371688472	1.55678523014267E-06	-1.23168923935247E-05	3.61563397744704E-06	-2.91559242751986E-06	0.117415096580358	0.995503429442437
11.4	-0.90399353379616	-0.349443836268678	1.00598521766379E-06	8.6468484971346E-09	-5.73257589189005E-06	6.64507281556101E-06	0.24314465913933	0.972302486954334
11.5	-0.928860359210739	-0.284358782133341	6.6753798581563E-06	-1.3160156508991E-06	8.40975492908803E-06	-3.80865803880048E-07	0.365072739224931	0.932990005977359
11.6	-0.958548735720699	-0.208497371293331	-7.1784835008967E-07	-5.44420008219281E-06	1.43443548174239E-06	-3.16945330940709E-06	0.48024026534122	0.877145456236499
11.7	-0.974057548299159	-0.126048502845551	-1.86170195301129E-07	-6.17350038596956E-06	8.71634264598134E-07	-2.72747563411274E-06	0.586187360042594	0.808197656438715
11.8	-0.981199697517061	-0.0434141573540078	-1.10331443705872E-06	-7.37410706548161E-07	5.2794617737634E-06	1.01523159468087E-06	0.681896877275761	0.727805485330453
11.9	-0.980190772882573	0.040543313736099	-3.35011517878917E-06	-5.24872203504847E-06	-5.60008951949012E-06	-8.06507187104073E-06	0.766789048132384	0.642070334295886
12	-0.969611440667907	0.12151175908804	-2.98124578530699E-06	1.72413433768514E-06	-1.72266560221308E-05	-8.66955004154836E-06	0.855814268995117	0.543178273820404
12.1	-0.957022502979436	0.199324841849925	8.07738694934456E-07	-1.6144957725603E-06	8.26775389675129E-06	1.23405402185717E-05	0.916484645505406	0.418585029146547
12.2	-0.937032704969018	0.276964033650198	-4.04946678893971E-06	5.72731054993621E-06	4.94778403606612E-07	3.35598099549556E-06	0.958338286968661	0.297163082310653
12.3	-0.912884109126776	0.352617102908752	8.09343606927222E-06	6.31430758051216E-06	6.64525460869843E-07	1.10502626430605E-05	0.986592253922756	0.172603184237545
