# GHZ S RI R 50
0.2	0.985451149653132	-0.156947140519037	2.56393230939614E-06	2.24906668102996E-06	6.56825585017385E-06	-4.86820596308017E-06	-0.96624678647054	0.251745250248937
0.3	0.969365172910021	-0.233949751874963	-8.74098408818292E-07	-5.45214361823269E-06	-3.46630697075388E-06	-7.94269132466307E-06	-0.926552957522861	0.371794149633015
0.4	0.947861159400693	-0.309157998410329	-7.27614623213453E-06	-9.90008331377617E-07	4.43954877614062E-06	1.54396958613435E-06	-0.871684173699572	0.485546910065139
0.5	0.921084230188766	-0.38244715622191	6.19643185934482E-06	2.10405002912376E-06	-2.41272604928568E-06	-1.90719045096537E-06	-0.803041214111432	0.591524836678063
0.6	0.888401469558013	-0.453632247383078	-1.05488212213688E-05	2.45892599605282E-06	-2.21769964447573E-06	-1.00708583651321E-06	-0.721730989924791	0.687834590670004
0.7	0.850168138591668	-0.521701511679632	2.78353350006504E-06	-1.17173198459257E-06	-2.98693289869159E-06	5.78686516763593E-06	-0.629104119147893	0.773329080456293
0.8	0.806565851240366	-0.586817428946036	1.17594769011666E-06	-8.4731211740043E-06	-6.61853918453561E-06	-3.068965890679E-06	-0.526374883027044	0.846242611796985
0.9	0.757907098627419	-0.648295919028681	-1.14617696640113E-06	-6.80704101886297E-07	2.54677897789463E-06	6.54025100769469E-06	-0.415487778896642	0.905482460482883
1	0.704597933386776	-0.705687447877235	-2.74217825119713E-06	-3.22091983883861E-06	-4.03142669151948E-07	-7.31131923267073E-06	-0.298332715724732	0.950093133564228
1.1	0.647947898611496	-0.758983160709744	1.80819103276157E-06	-4.93695830846647E-06	2.27142798065553E-06	-5.13008016604345E-06	-0.176401535583893	0.979870142583744
1.2	0.585903950761051	-0.808623624231113	-2.49646819292883E-06	2.48837224798917E-06	9.26354072296761E-07	-9.09679881582732E-07	-0.0514948116075606	0.993854976414448
1.3	0.518586773539473	-0.853439557983162	-1.53833739973106E-06	7.17610610040495E-07	-1.3566357144748E-06	1.46151701285536E-06	0.0739212344047831	0.992289400118989
1.4	0.448102901972296	-0.892505672503952	3.92682363998003E-06	-3.23670777762873E-06	2.69108320034861E-06	1.0944461768149E-05	0.198739733989266	0.974666295314052
1.5	0.375098136409138	-0.925448991336504	-5.34101114322548E-06	1.10585141182902E-06	6.59910647764794E-06	-7.20507208057086E-06	0.320281835659139	0.941472226456105
1.6	0.300905745730096	-0.951972235672648	1.78050083190447E-06	-7.74214506064788E-06	3.63324254119206E-06	1.38475265560187E-06	0.436238954263085	0.893297524294903
1.7	0.22613849563081	-0.972101695315273	-1.94213158298661E-06	-9.70076950291231E-07	-2.35309156342277E-07	-2.08787625135691E-06	0.544712970803312	0.831545846743337
1.8	0.149274356732109	-0.986667203037282	2.85186522015058E-06	5.2809160331903E-06	4.16924939061103E-09	2.03220659337948E-06	0.644918923925092	0.756276806307086
1.9	0.0715243906953768	-0.995189365802401	5.67505401984816E-06	-2.63395067407265E-06	-2.9987690891517E-06	4.16820936089545E-07	0.734509314967217	0.669088698637166
2	-0.00574619162146975	-0.997153707256916	-1.54898494739895E-06	-2.02532724578623E-06	3.21723213254061E-06	1.14535134804593E-05	0.812182830061008	0.570393218337753
2.1	-0.0839689207203257	-0.99389067462514	-7.55225147718047E-06	2.45455874891956E-06	1.20705807000777E-06	5.14498880593271E-06	0.876234713578188	0.464422392442333
2.2	-0.16078960334929	-0.984652760418724	-8.83148520097305E-07	1.39439823876828E-06	3.00400929757841E-06	7.77718736396438E-06	0.927797032062735	0.351159960512503
2.3	-0.238180781459946	-0.968618155388494	1.81126902431595E-07	7.45435645111606E-06	7.40030283102447E-07	9.38710130149709E-07	0.964259988083802	0.232440118858832
2.4	-0.314159615832487	-0.946071558572262	1.58198752590603E-06	7.17361421436581E-06	1.52350902656067E-06	6.38698601998069E-06	0.986088505750921	0.108903317164544
2.5	-0.387214376009538	-0.918275977892425	4.38780178841377E-06	-2.31474273603802E-06	-1.91641279689155E-06	-7.56763598340905E-06	0.991410063036024	-0.0158300864302539
2.6	-0.458117994364413	-0.884568367591655	6.76375580567171E-06	-5.94199889380155E-06	-1.10895330101625E-05	1.08220729344248E-05	0.981248877661857	-0.140503273829783
2.7	-0.526330390165803	-0.845540901136644	-4.43824240214645E-06	9.13190489519647E-06	-2.86898125639585E-06	-9.14909689449576E-06	0.955012346937093	-0.262800597397842
2.8	-0.590282842788015	-0.801792352601592	2.45381501623575E-06	1.14336724682914E-06	-3.12449259714154E-06	1.24051388271513E-06	0.91466909633271	-0.379855775433573
2.9	-0.650014601691075	-0.753810606370795	-5.49716640573708E-06	6.00094515101988E-06	-9.17966121001627E-06	-2.91752796572221E-07	0.859975273620473	-0.491021771391967
3	-0.706890305577746	-0.701642570426203	4.74202037733165E-07	-1.47046444922009E-06	1.13092461895263E-05	1.47963209564969E-06	0.791640329054854	-0.595305520760741
3.1	-0.760309810196006	-0.644659114468826	2.38823395819346E-06	1.04935938055001E-05	4.31929885630153E-06	2.17924952995669E-06	0.710832755276169	-0.689197430186178
3.2	-0.808421267777175	-0.583684784279585	2.09480840116421E-06	6.46583921435586E-06	4.013048086023E-06	-1.05951445600976E-05	0.619378088795185	-0.772509375474333
3.3	-0.85173776497493	-0.519358804204428	3.07410764334323E-06	4.96479830223317E-06	-2.21097655274911E-06	-9.66931286545018E-06	0.517187429392623	-0.844405854475971
3.4	-0.889373937803487	-0.452160777817208	2.12936878470374E-06	-2.60190762432668E-06	5.95777678528309E-06	1.39093956009951E-06	0.408373146724872	-0.903005345694361
3.5	-0.922766073321508	-0.380027228852631	-3.24218153736215E-06	9.4671452371945E-07	-2.07506234755804E-06	3.42540043134088E-06	0.29075123806509	-0.948353914326708
3.6	-0.948990674157844	-0.30595602270141	-1.81282583725823E-06	-3.74309762408366E-06	-7.8219329775212E-06	4.10630620240552E-06	0.168787376510442	-0.976261718590032
3.7	-0.969730428112612	-0.231201293485816	8.24766878799164E-07	-8.32594194273548E-06	1.07662536676501E-05	3.70006530569698E-06	0.0450150964862061	-0.989553123226874
3.8	-0.984968892919594	-0.153976628600252	9.14824965057003E-08	1.54721065733638E-06	-6.52243902675104E-06	5.95032215356241E-06	-0.0790464938874119	-0.987815825730712
3.9	-0.993599896586786	-0.0763549226557935	-2.62803087600975E-06	-5.03031524467197E-06	-3.70625501058772E-06	8.02842260491748E-06	-0.204325419748532	-0.971009303433629
4	-0.996305622896713	0.00219150565606735	7.13024591640909E-06	-3.81368139194936E-07	-1.04497859889737E-06	-1.2059338716869E-06	-0.325640502705674	-0.937909677809373
4.1	-0.993487544258599	0.0802726114942576	6.20045527935569E-07	-4.43752735588485E-07	7.35739291938416E-06	-4.75450249212405E-06	-0.441651223671312	-0.888886837475543
4.2	-0.984541553361986	0.15847404312924	3.20628774448739E-06	2.1058586882178E-06	-7.18480618673385E-07	-7.62820202216102E-07	-0.550071469477552	-0.825617774902284
4.3	-0.969407164294019	0.235022013159135	-3.19300941454945E-06	1.37238754833906E-06	-5.00230943716266E-06	2.98271591131879E-06	-0.649414185532133	-0.750237864653531
4.4	-0.947597796146222	0.31039899815969	8.04952460580814E-07	2.64488094518582E-06	1.55473606512788E-06	-8.34033583706801E-06	-0.738462663899929	-0.66289908740377
4.5	-0.919696921486929	0.382465047851042	1.82396960111397E-06	-9.38696577176249E-07	7.63055315653686E-06	-2.51915400234823E-07	-0.816383562653085	-0.565434165843786
4.6	-0.887649694048155	0.453791715468765	-7.40336005211763E-07	6.13237614242471E-06	-1.233995649353E-05	-6.51094248787837E-06	-0.88165906027591	-0.458119647448501
4.7	-0.849498276901519	0.521597794518021	1.19845153867889E-06	2.516517087477E-06	1.419402330108E-06	1.87151670306258E-06	-0.93274469612403	-0.343399122592379
4.8	-0.805185969409061	0.587254852119234	-5.20757120909195E-06	1.11359207936098E-05	5.22237411593152E-06	9.71593475386419E-06	-0.968305783430855	-0.222775649729096
4.9	-0.756261823030458	0.648105956927141	1.1936771598075E-06	2.93924879515922E-06	-4.67098437771448E-07	-6.92571859076213E-06	-0.988112431409988	-0.0989801979666587
5	-0.704130457485488	0.705516106976413	4.75787531773185E-06	-8.98614950601856E-07	-3.76097384482581E-06	2.41953919546322E-06	-0.993614608528176	0.0258448219616596
5.1	-0.645421752892282	0.760137388793071	4.14882052289495E-06	-1.34757636303445E-07	-2.6491039583613E-06	-9.85225518152771E-06	-0.982363383161344	0.152397078593506
5.2	-0.582862634289323	0.808874680538692	2.64894488344839E-06	-1.50391529050118E-05	1.37926258003708E-06	2.8334536038212E-06	-0.95455047720717	0.275026531436398
5.3	-0.517120724164756	0.85267511034223	-8.7414944761265E-06	-7.92126356331933E-07	-1.13917088371263E-06	1.58624581483225E-07	-0.912309935833353	0.392874701415814
5.4	-0.447998050028348	0.89127131751671	-7.21056550619664E-06	-1.10978237852303E-05	-1.37874102805476E-05	1.12360557554591E-05	-0.855801312678823	0.504358442156147
5.5	-0.376187061592979	0.923372093992533	1.90961977383323E-06	8.74747432262995E-08	-2.24891319667842E-06	1.7903425002668E-06	-0.786624705239302	0.608410398537503
5.6	-0.302512671597221	0.949807509938607	-2.41298661185999E-06	3.52222894763122E-06	-1.34438252119211E-06	1.29238349306304E-06	-0.703526068953182	0.703004663183467
5.7	-0.226618365817012	0.9710008505649	1.30938185657926E-06	1.23430800724092E-06	5.77632480362788E-06	-1.1977794404274E-07	-0.609325193691373	0.785643044703256
5.8	-0.149078186336492	0.985807191169013	2.7114065294028E-06	4.27006070559127E-06	-2.11666911593711E-06	4.25457930487548E-06	-0.505497215762133	0.8554833278907
5.9	-0.0700084435068639	0.994780718843397	-6.91410026996074E-06	-2.30179705658699E-06	-7.07366278508042E-08	6.31274381285519E-06	-0.394040933547015	0.911768275280187
6	0.0096710951638474	0.995208833393157	-1.79703862807375E-06	9.66417743010279E-08	-5.49380790304307E-06	-4.38204312769806E-06	-0.276519129061986	0.952251644109552
6.1	0.0864371084746686	0.990177025581565	1.6291779099837E-08	-9.92005208087737E-06	-9.9218550192556E-07	-3.21400747145166E-06	-0.156897417142234	0.978827364511205
6.2	0.164126200899408	0.980066089095992	-1.01671740561968E-06	3.11474541201181E-06	-1.75209368189428E-06	4.21787126447838E-06	-0.0330045295418554	0.990987560729564
6.3	0.241402559042936	0.963823495240875	-8.01351900276403E-07	2.83154596243173E-06	-2.93469328792107E-06	2.39982473804679E-06	0.0919509541384402	0.987334305674829
6.4	0.31754722088858	0.940800770961874	-5.95808582798172E-06	5.55300465372419E-06	-2.38225342605397E-06	-7.4531800911375E-07	0.216057474766411	0.967211101443477
6.5	0.389343363532767	0.91198370603305	1.40294855320339E-06	-5.26842548597722E-06	-1.44610955475641E-06	-2.3737208702768E-06	0.334066972884448	0.931763572721105
6.6	0.460524050812992	0.880107174558267	3.65663929027845E-06	2.15402996295313E-07	1.13185411010139E-05	-2.66386288521318E-06	0.449283249427221	0.884291585861664
6.7	0.529427438368157	0.840781778432838	-7.78584597500157E-07	8.48010805629848E-07	-3.78295270361015E-06	5.23570913262009E-06	0.557282501463977	0.820575821382851
6.8	0.594646535468059	0.796217663921025	-1.76306754996665E-06	4.49701547388293E-06	1.4579728642681E-06	-8.84258912129885E-07	0.655774734141072	0.743958739942665
6.9	0.656311632552176	0.746622339760366	5.93790189362251E-06	2.25967105360171E-06	-9.35830194485851E-07	2.42309225857963E-06	0.743809512301345	0.655582106454875
7	0.713595644996091	0.69154134547373	1.14021071157279E-06	-4.16762284000247E-06	-1.43039773580685E-06	2.93017256391951E-06	0.819409688196389	0.556561555108322
7.1	0.76580187380608	0.632835839972123	2.3964790804659E-07	-7.2000881146726E-07	1.98986334379379E-06	9.2053261977543E-06	0.882056667912708	0.450000090485235
7.2	0.813461792748328	0.569958752056626	1.38586250565136E-06	-2.41926301122989E-06	-1.02046944972572E-06	-8.58051379684934E-06	0.931229990217235	0.336293372702182
7.3	0.855943307299199	0.503396076235433	4.84764152937674E-06	7.23567464604208E-06	-9.73001096719119E-06	2.34210746029689E-06	0.965485459430732	0.217259565986526
7.4	0.894000296390557	0.433851036423939	5.10475470858566E-06	-6.80919105633432E-07	1.94928558382745E-06	-9.65302152611231E-06	0.985636502791599	0.0948389950771842
7.5	0.927187028186454	0.359516891000464	2.75537862069489E-06	-5.32698741166761E-06	2.10376427887271E-06	-7.30446081218611E-06	0.99030628981355	-0.0316881143128938
7.6	0.952218749141248	0.283065147425575	-3.23142661646486E-07	-5.65210630576906E-06	1.6824138206881E-05	3.85359752701457E-06	0.976523033359806	-0.155948970724869
7.7	0.972123802910147	0.205421135910273	3.52733483967363E-06	1.05699064767999E-07	3.20235398288364E-07	-2.93314591447394E-06	0.949205968935361	-0.277248356799436
7.8	0.98594535458973	0.125900713065147	-1.10133959297409E-05	-1.90200224474987E-06	-1.96347428927726E-07	3.44927071591471E-06	0.907039296769859	-0.394973418836388
7.9	0.993079794586328	0.0443454053788225	2.37186171660136E-06	2.02802412556092E-06	-6.98417161064867E-06	-4.69900062236664E-06	0.849826089117352	-0.50754188822303
8	0.990084616519239	-0.0375931046312356	2.3719643393209E-06	2.9365686423045E-06	-9.38680712056802E-06	-7.53128791693373E-06	0.775279857244405	-0.610608848629579
8.1	0.982672364349892	-0.114141567006567	3.80279015932295E-06	-3.07796391959082E-06	2.12707531614481E-06	-3.18531071881409E-06	0.693025072555586	-0.699872401750792
8.2	0.97095523692116	-0.19167441197274	-4.02080804086323E-06	1.42570868111968E-06	-6.73482067822974E-06	3.81826376516834E-07	0.600891546015908	-0.780992796062913
8.3	0.952328952368609	-0.268894501286835	9.83996595983189E-06	2.68886648485433E-07	6.25646963022247E-06	1.04062784487469E-05	0.498547639641209	-0.850096660531198
8.4	0.927242093431599	-0.344533493792943	1.28592543208239E-06	2.54804519622612E-06	3.4549344505246E-06	1.81252314223692E-06	0.388475951921653	-0.906244617869927
8.5	0.895927771995805	-0.417941560652256	-4.83308600153573E-06	4.96333558505377E-06	2.84801338972826E-06	-3.02211412455127E-06	0.270774673369366	-0.948600826320215
8.6	0.859124119966885	-0.488504446014428	-4.49162952805071E-06	2.09666081689342E-06	-3.01803776612219E-06	8.12035465057606E-06	0.148925046569671	-0.97449638206937
8.7	0.816691870740028	-0.556136442170125	-1.01719518536193E-06	1.21752696674868E-06	-6.35054151971322E-07	3.4617181971279E-06	0.0251725778757877	-0.984982933749643
8.8	0.768898929017104	-0.619845512553903	-1.57454334783213E-06	3.07824327672371E-06	-5.99558489209187E-06	1.29801648426872E-06	-0.0981957777726005	-0.979906673193015
8.9	0.716697910357638	-0.67932706398797	3.16221005658329E-06	-1.83251179818333E-06	-3.15732009220982E-06	-4.4997783614302E-07	-0.219112045277498	-0.959473881110343
9	0.660040261939913	-0.735218217997716	-7.27028365378963E-06	1.34706518426878E-06	-3.96884715032156E-06	7.23005290554426E-07	-0.337591947659233	-0.927319088900719
9.1	0.598308149251987	-0.786169733956526	-3.35048381253711E-06	-1.87978289608653E-06	-9.81962031380121E-07	2.13208097404793E-06	-0.453437625841181	-0.87747815379302
9.2	0.532555368139016	-0.831886311148018	5.97741756871388E-06	-1.63855305542326E-06	1.9844420364851E-06	8.46972802563025E-06	-0.56051629828077	-0.814171671360245
9.3	0.463301067151955	-0.872266379838506	-3.39207444616236E-07	1.07003024528229E-06	1.36600589805018E-05	1.18253051636103E-05	-0.659280064362267	-0.737659999616331
9.4	0.390915916891818	-0.907216646895914	1.73392535951558E-06	-2.66364326183227E-06	4.29098276360428E-06	1.76103995001706E-06	-0.74734548202708	-0.649955205508872
9.5	0.312390422752392	-0.936555162119054	-6.53335773129005E-06	-4.88246993042283E-06	-1.96488096874156E-06	-5.71130506190855E-06	-0.826830793532539	-0.549344266835715
9.6	0.232912200130822	-0.954693500435856	-1.16752091678141E-05	-2.22658261058025E-07	-5.93419584086677E-06	-3.99232044911981E-06	-0.888296896926492	-0.438216888923575
9.7	0.154395710111028	-0.968341929742298	1.46501944902797E-06	-4.81272750744737E-07	-2.91013172454335E-06	1.64658641937753E-06	-0.935781885421877	-0.322455321614352
9.8	0.074572285933411	-0.976192053279985	2.20631260695276E-06	1.39402706811919E-06	1.50756561086028E-05	-3.53191925538638E-06	-0.968305769566344	-0.201901362228732
9.9	-0.00626371311479623	-0.977324059586822	-3.43473515628854E-06	8.96459552026746E-06	1.37476412403821E-05	4.94969747082821E-06	-0.98543896738531	-0.0784804320990339
10	-0.0865355438249921	-0.97005257516627	-3.63115151483686E-06	1.61995390542902E-06	1.91638340546542E-05	-1.81297488089789E-05	-0.987657080210863	0.0455173116715239
10.1	-0.163797071856402	-0.956831648950505	-1.47573409932682E-06	2.30013637032132E-06	-8.41196004951659E-06	-4.29910166809664E-06	-0.974807665666762	0.170119052116688
10.2	-0.240205266464347	-0.93802048633257	-2.30850450820014E-06	-1.23722835550627E-06	-1.28985085249413E-05	7.23549472028618E-06	-0.945236349867937	0.292245544852891
10.3	-0.313884144982239	-0.912401208992895	5.76521614857256E-06	3.91199454567617E-06	-6.14012713641892E-06	1.38721443999878E-06	-0.900317702092044	0.409013282094363
10.4	-0.384693317881671	-0.881218190374194	2.09927956130058E-06	1.03974270563186E-06	6.83185828507697E-07	-8.20495341639761E-06	-0.8400809509821	0.517614664030483
10.5	-0.452049798743999	-0.843538428422663	4.34333833276357E-07	-3.05094299889775E-07	-6.6025883839438E-07	-5.60355633746775E-06	-0.770418314566658	0.615281309644164
10.6	-0.514008819207534	-0.80094954898663	5.0651795949587E-06	-2.59562427508684E-06	-9.70775381938401E-06	-7.84146315668887E-06	-0.689646179205052	0.7085672147742
10.7	-0.5718997799598	-0.754699214806902	-2.80255884842626E-06	-4.99827624376729E-07	-5.2044302687389E-06	-7.137307057581E-06	-0.595989684480694	0.79041211981494
10.8	-0.625394541118112	-0.70514844434347	-3.59945683774361E-06	-3.42806083090872E-06	-1.19102523431011E-05	9.10695200666248E-06	-0.491975226749938	0.859366770305188
10.9	-0.674244044052379	-0.654092601307644	-1.13182491851273E-05	-1.0380061334365E-05	-4.46312883053224E-06	1.09017811222594E-05	-0.380965405476112	0.913388092718602
11	-0.722255292707297	-0.60311204884067	1.00562069394678E-06	1.40882915993918E-06	8.65815958790834E-06	-5.46857447004197E-06	-0.26573218866051	0.955041798458182
11.1	-0.767337921370018	-0.544691532990258	-3.25609835075467E-07	-3.62785690043922E-06	1.01723870510588E-05	-1.01858894514343E-05	-0.142674605729998	0.982479798499221
11.2	-0.806983022687041	-0.484915961382072	-1.03053515032852E-06	-3.90676725032584E-06	2.15718642270357E-06	-6.30083215108787E-06	-0.0167265988406888	0.992457084745688
11.3	-0.843537962264685	-0.422336237170973	1.63160146405461E-06	-1.2023995776006E-05	3.55979532101809E-06	-2.81723936805204E-06	0.109274745589454	0.98609295282662
11.4	-0.87611777231893	-0.357077012286438	9.85822468674616E-07	1.80910730722211E-08	-5.68167438988313E-06	6.45763187821325E-06	0.233793543669605	0.963744517615821
11.5	-0.905094567585588	-0.286551507620212	6.53679173704108E-06	-1.25218280533591E-06	8.22843568344251E-06	-3.2828705883168E-07	0.352833773758996	0.925449730739485
11.6	-0.92516955373117	-0.214322417404862	-6.46370256535035E-07	-5.31219500078541E-06	1.42874986091879E-06	-3.0745204938804E-06	0.466844119342128	0.873196702737009
11.7	-0.940693777114925	-0.140870048676897	-1.0022439764408E-07	-6.02815246448457E-06	8.86767623901141E-07	-2.65066935456676E-06	0.573455996721699	0.806430546670553
11.8	-0.951036705999535	-0.0649386695983392	-1.06844516549999E-06	-7.37924730871473E-07	5.15011511074662E-06	1.07205582962955E-06	0.670758296429805	0.726517342729311
11.9	-0.955613001696225	0.0130521558662096	-3.21135744730531E-06	-5.19326041840839E-06	-5.37805730173514E-06	-7.9861803418943E-06	0.756266630708237	0.634423963021149
12	-0.953602215107406	0.0922769923505983	-2.93480537838075E-06	1.63980973897466E-06	-1.66891680252956E-05	-8.71091258615932E-06	0.824826850677876	0.532356114600029
12.1	-0.944222256584429	0.171315675243932	8.24496294629291E-07	-1.56207289266218E-06	7.82459695992946E-06	1.22473693697871E-05	0.882376684193878	0.428866532530775
12.2	-0.927492995413074	0.249724893894751	-4.10446275563994E-06	5.53379363023651E-06	4.10934657204461E-07	3.3066199875841E-06	0.93006649609183	0.316502104769518
12.3	-0.904561046421797	0.326557840867541	7.81934971906396E-06	6.38531311227072E-06	4.11609290322664E-07	1.08791918313979E-05	0.962826542542274	0.197060737020083
