# GHZ S RI R 50
0.2	0.986719330598215	-0.156602004669177	2.56511059258581E-06	2.25271777594835E-06	6.57740726221522E-06	-4.86911742849017E-06	-0.967017956396468	0.251295467000661
0.3	0.970817563071088	-0.233799191825671	-8.71699007439701E-07	-5.45940155401075E-06	-3.46550675224892E-06	-7.95466187056756E-06	-0.927688585221039	0.3713303610336
0.4	0.949474245261188	-0.309281743198009	-7.28708384604678E-06	-9.96138573031866E-07	4.44563362475275E-06	1.54920296076334E-06	-0.873313700750212	0.485289433392597
0.5	0.922503418308083	-0.383144984361287	6.20790563598291E-06	2.10886133125806E-06	-2.41704954654613E-06	-1.91112726123542E-06	-0.804870651246104	0.592118127703861
0.6	0.889264308823855	-0.454063526132241	-1.05644802068693E-05	2.46208092907749E-06	-2.22092381167376E-06	-1.00866906904145E-06	-0.723078549948176	0.688580891886229
0.7	0.85124028359929	-0.521836363431892	2.78829960575658E-06	-1.17275350744569E-06	-2.99340853755077E-06	5.79514396798055E-06	-0.630536826861806	0.774191534283716
0.8	0.807983285226483	-0.587014214478933	1.18113736305706E-06	-8.48861158834456E-06	-6.62988218072628E-06	-3.07705604238592E-06	-0.527791477333377	0.847453800477595
0.9	0.759666186110567	-0.648917694602377	-1.14858288512665E-06	-6.82500891194092E-07	2.55093173814295E-06	6.55550566494275E-06	-0.416730183148615	0.907045219359747
1	0.70617430202535	-0.707115105977438	-2.74974208999457E-06	-3.22846602941206E-06	-4.05656906310593E-07	-7.32964250397341E-06	-0.299309160948535	0.951993840064934
1.1	0.648887398461016	-0.760786735259251	1.80929475193714E-06	-4.9500898534455E-06	2.27352373238718E-06	-5.14398516091022E-06	-0.176876900584275	0.982020127080422
1.2	0.586122090632795	-0.810510634700079	-2.49933124967953E-06	2.49646659693004E-06	9.27430849516431E-07	-9.12653392600419E-07	-0.0513777498480287	0.996079827655683
1.3	0.517979628580213	-0.855002497349057	-1.53999045986864E-06	7.21195626614289E-07	-1.35684864004444E-06	1.46614976727892E-06	0.0748710445118111	0.994420414056517
1.4	0.446885501038474	-0.893157880651255	3.92554838605112E-06	-3.24714872913796E-06	2.71314673878524E-06	1.09519382404734E-05	0.20039766153034	0.976387881665049
1.5	0.374379619109733	-0.924912258591339	-5.34255250867677E-06	1.11368105729109E-06	6.59313802120575E-06	-7.21806110789129E-06	0.322481453565167	0.943041566998684
1.6	0.300957379398877	-0.951574429025202	1.77576159458903E-06	-7.74913915087407E-06	3.63695239834773E-06	1.38292640226887E-06	0.438757417715054	0.894260411885007
1.7	0.226480107271008	-0.971949199862422	-1.94470366134684E-06	-9.70149612680505E-07	-2.36604928929652E-07	-2.09000292516631E-06	0.547192013284431	0.832268748957212
1.8	0.14978839647748	-0.986815855421401	2.85742248248491E-06	5.28715800212862E-06	4.8262994313987E-09	2.0349590739771E-06	0.647375575002714	0.756801498085764
1.9	0.0723168100561255	-0.995762576402533	5.6851971551043E-06	-2.63765629355194E-06	-3.00398719881305E-06	4.17102153726914E-07	0.736663447436859	0.669798576776765
2	-0.00522583554407727	-0.999180339487721	-1.5540593922096E-06	-2.03237829716708E-06	3.22705323939591E-06	1.14928386768135E-05	0.815758800454526	0.572272096253121
2.1	-0.0852250063855704	-0.995704096119265	-7.57292038553948E-06	2.47502877733972E-06	1.21948142948118E-06	5.15983559097137E-06	0.881310914148291	0.464025407367688
2.2	-0.16227129047515	-0.985672480683581	-8.82999066846564E-07	1.39956004909679E-06	3.02540908787485E-06	7.7921014777469E-06	0.932201337887944	0.349317907812778
2.3	-0.239571490509227	-0.969409622264846	1.93253860681087E-07	7.47243921891586E-06	7.43324545641789E-07	9.39863394087185E-07	0.967978168124481	0.229850078065032
2.4	-0.315547296456256	-0.946990959156278	1.5959073578941E-06	7.19049460471143E-06	1.53620744404354E-06	6.40185949411312E-06	0.989131135464098	0.105987402723474
2.5	-0.389056722217691	-0.919503514097184	4.3987188335479E-06	-2.3286139414484E-06	-1.93358793004249E-06	-7.58946679726619E-06	0.994402920302584	-0.0187990290621762
2.6	-0.460793483749486	-0.885652861414482	6.77682263141015E-06	-5.97667278319517E-06	-1.1108866711234E-05	1.08828448737898E-05	0.984189129815848	-0.144052553938833
2.7	-0.529739947007219	-0.846101955659627	-4.43237638455196E-06	9.17926795166794E-06	-2.90370346925661E-06	-9.17783066988215E-06	0.957930624011572	-0.267035111976083
2.8	-0.594390285053337	-0.801644317931172	2.46746920005471E-06	1.13977722528841E-06	-3.13289348770493E-06	1.25590237095947E-06	0.917101556650047	-0.385129227640921
2.9	-0.655053092547701	-0.752518564267525	-5.49378335785468E-06	6.04807987294074E-06	-9.21751851488067E-06	-2.54190138459484E-07	0.861264937898218	-0.496898343730414
3	-0.711687678017023	-0.697865577932964	4.67457468220766E-07	-1.4775533646887E-06	1.13517095498652E-05	1.42119938608286E-06	0.792052442187388	-0.601045518459925
3.1	-0.763826736109843	-0.640358522860418	2.44848309360523E-06	1.04988410461532E-05	4.33837866801836E-06	2.15988229274158E-06	0.710478916864508	-0.695317419013091
3.2	-0.811464092737009	-0.57878136002482	2.13071981479686E-06	6.46277607309547E-06	3.96313519456181E-06	-1.06285845734231E-05	0.617772624605998	-0.778636710367678
3.3	-0.854048997347369	-0.51371689714363	3.10174691028315E-06	4.95164185506922E-06	-2.2626304188714E-06	-9.66336417860985E-06	0.514138020040552	-0.850110377546309
3.4	-0.890398968495412	-0.445837724063048	2.11499073832896E-06	-2.61108734968081E-06	5.96123749097712E-06	1.36009224419196E-06	0.403778898271242	-0.907195920278097
3.5	-0.922005765703359	-0.374796655498692	-3.23599749924715E-06	9.55500124995528E-07	-2.06261756222492E-06	3.42812375898241E-06	0.287608185413159	-0.950322002092922
3.6	-0.949132596396271	-0.301350462615866	-1.82642453243393E-06	-3.73925239734057E-06	-7.81283349799417E-06	4.13491196857739E-06	0.165681519299369	-0.980109544649797
3.7	-0.969549654990559	-0.225924600567171	7.90012885021787E-07	-8.33063475736549E-06	1.07833536864946E-05	3.65551657786767E-06	0.0399845714749932	-0.992836264198535
3.8	-0.984102735976029	-0.148583153271561	9.80465103955279E-08	1.54599732705095E-06	-6.49354121776709E-06	5.97503586518108E-06	-0.085071926372931	-0.989323259191034
3.9	-0.992349448762199	-0.0710019688524318	-2.64552620997061E-06	-5.01554018653622E-06	-3.67137988426203E-06	8.03595188794942E-06	-0.210003761581116	-0.970208338291115
4	-0.994639007573871	0.00791698037432774	7.12462063806665E-06	-4.10433684384048E-07	-1.04933627453788E-06	-1.20095582350442E-06	-0.329351431205574	-0.93628766873529
4.1	-0.990955977735026	0.0861031420189587	6.17294550857085E-07	-4.46002485955956E-07	7.32704929155635E-06	-4.78181957956528E-06	-0.444844890218603	-0.887486566702921
4.2	-0.981230189348187	0.163985263954455	3.20990519285872E-06	2.08857459606649E-06	-7.20537512807399E-07	-7.58456791312352E-07	-0.552901027710043	-0.823953766495258
4.3	-0.965694007029058	0.239859972527042	-3.18131337472729E-06	1.38198283944672E-06	-4.98076728197884E-06	2.99608162096809E-06	-0.651861657128187	-0.748206770709932
4.4	-0.944544853665998	0.314658573646175	8.11503788425138E-07	2.63813726667425E-06	1.52734976329543E-06	-8.33125630294609E-06	-0.740605899799821	-0.660369585115956
4.5	-0.916718660518458	0.388644157994527	1.82058371641012E-06	-9.45981534824754E-07	7.63076896083611E-06	-2.81813225955119E-07	-0.817676629243775	-0.561651054440066
4.6	-0.882469546976178	0.459469413635963	-7.05530854855753E-07	6.12915260509271E-06	-1.23612448938499E-05	-6.43491276218997E-06	-0.880914220357864	-0.454495553129542
4.7	-0.843762602264657	0.526361859551789	1.20950979348146E-06	2.50465563479422E-06	1.42649808321357E-06	1.85983742485092E-06	-0.931106053090822	-0.340645717841929
4.8	-0.799010853734418	0.591447289035771	-5.1331848657172E-06	1.11356268737143E-05	5.26203154266295E-06	9.66224831831269E-06	-0.966388136878111	-0.220609142890197
4.9	-0.749335478692971	0.652241496062217	1.20824682988155E-06	2.92265383821056E-06	-5.08743496252331E-07	-6.90121344614178E-06	-0.986086371448928	-0.0963243667169214
5	-0.694560346456173	0.70796076683049	4.72400064695044E-06	-9.2397500330475E-07	-3.72318112196913E-06	2.42949710820491E-06	-0.988227204347839	0.0284353853231665
5.1	-0.637045587172031	0.759459483167771	4.12147281082129E-06	-1.49972387791784E-07	-2.67017528912387E-06	-9.77828172998277E-06	-0.977368561302775	0.150944936495465
5.2	-0.575465396312746	0.807424486900029	2.58510105238153E-06	-1.49552972895525E-05	1.3797707319102E-06	2.81171006071757E-06	-0.951259380562977	0.273131174015629
5.3	-0.510295895587378	0.850302554604148	-8.68751749216331E-06	-7.65510898419877E-07	-1.13149127857197E-06	1.60417668557722E-07	-0.909317775890438	0.391189029592743
5.4	-0.442221557441897	0.887991169057946	-7.17507109189388E-06	-1.10182996254746E-05	-1.36862786747443E-05	1.1177152506752E-05	-0.852309429003481	0.50248217696373
5.5	-0.371313592651623	0.920094886190389	1.90081824890927E-06	8.71409587816986E-08	-2.23861650846646E-06	1.78201215518388E-06	-0.782459906284509	0.604951134569249
5.6	-0.297983862403365	0.945946730225256	-2.39754798114232E-06	3.50980501710635E-06	-1.33667779907362E-06	1.28843927245577E-06	-0.700644964007623	0.697815920186836
5.7	-0.222848953227197	0.96637153241088	1.30405531781356E-06	1.22618424560486E-06	5.74584487344092E-06	-1.26396229515842E-07	-0.608022484810442	0.779978315822013
5.8	-0.146477202176956	0.980193883339888	2.69806473781955E-06	4.24218922847372E-06	-2.10073723724345E-06	4.23031178855409E-06	-0.505588673208318	0.849766220180816
5.9	-0.0699917340944459	0.988306372536206	-6.86072744033691E-06	-2.29104035296535E-06	-7.59753078272881E-08	6.26586718228325E-06	-0.39591257132509	0.906390484392944
6	0.00708931551399427	0.991748098836567	-1.78784994187168E-06	8.75763872054823E-08	-5.44347112646065E-06	-4.38464387285639E-06	-0.279382326076184	0.949884726952147
6.1	0.0853424236792218	0.987590373185468	4.68776186521127E-08	-9.89410756489736E-06	-9.79672295985102E-07	-3.20868137238117E-06	-0.157264258847838	0.976729486359489
6.2	0.162674884391135	0.977294862520076	-1.02125134164027E-06	3.10424310392741E-06	-1.75725095008992E-06	4.20278246197727E-06	-0.0332891625404937	0.987691837881166
6.3	0.23927341169235	0.961356818857728	-8.05786915169077E-07	2.82285579641198E-06	-2.93296877724782E-06	2.3873749232206E-06	0.0907060444540589	0.983495663274076
6.4	0.314833015895923	0.939944854576134	-5.96322044952358E-06	5.53083709698375E-06	-2.37712702876654E-06	-7.50045828813829E-07	0.213784870108543	0.964554895325046
6.5	0.390114075400891	0.911808686661698	1.399454787122E-06	-5.27052764470845E-06	-1.44811531669314E-06	-2.37317489862965E-06	0.334863797831052	0.928998628419669
6.6	0.460244330165367	0.876695797893123	3.64497958313763E-06	2.07242275039828E-07	1.12756663891639E-05	-2.67810335400136E-06	0.447478729017826	0.877945443688646
6.7	0.527511962626449	0.837611055537128	-7.74178761196866E-07	8.4477501074699E-07	-3.7605216713002E-06	5.21479068848882E-06	0.552774043599821	0.815306972936302
6.8	0.591889045325796	0.793356243942773	-1.75250604448637E-06	4.47316652017273E-06	1.44990087424713E-06	-8.79828924016083E-07	0.650030998506554	0.740068017876087
6.9	0.652488963966323	0.744166242888708	5.89697260480988E-06	2.24807839909188E-06	-9.31008034688232E-07	2.40638211705264E-06	0.737189822540117	0.653301413303859
7	0.709152790624891	0.690309637076438	1.14845565201674E-06	-4.13540581381493E-06	-1.43198931460438E-06	2.90512705045764E-06	0.813352153378315	0.556185891176062
7.1	0.761326930498823	0.63212577043085	2.41331879092481E-07	-7.16100678395207E-07	1.9471800113931E-06	9.17422130610591E-06	0.87630079214691	0.449739882902748
7.2	0.808754722253042	0.569651181132286	1.38749454084286E-06	-2.40595575865609E-06	-9.91825107043178E-07	-8.5504135136091E-06	0.925178116040976	0.33676845662203
7.3	0.850903081216182	0.503186902395606	4.81407079848194E-06	7.21748237992278E-06	-9.6970283985075E-06	2.3131724730861E-06	0.959254547900915	0.21831921605329
7.4	0.88741030147716	0.433512632202417	5.07730874748901E-06	-6.74836026561965E-07	1.94318400253681E-06	-9.59961260751881E-06	0.977812286235027	0.0966072506790792
7.5	0.918690757647961	0.362549488118339	2.74652726782262E-06	-5.26986569893144E-06	2.10692797303239E-06	-7.23126653795037E-06	0.982146158686346	-0.0246987233286655
7.6	0.945853163384028	0.287782676389915	-2.89357141791327E-07	-5.61573365693522E-06	1.66889460608113E-05	3.92163594233999E-06	0.972567800494199	-0.148275015111762
7.7	0.966089400149137	0.210871304511048	3.50454268329328E-06	1.25745926284985E-07	3.35444898752813E-07	-2.91282893059779E-06	0.946451845185555	-0.269434190537947
7.8	0.980064616628506	0.132869506781368	-1.09307439203662E-05	-1.96800723490674E-06	-2.19528204663836E-07	3.42621159956484E-06	0.905606382746401	-0.386137754567084
7.9	0.988026424771883	0.0543547027181143	2.33781238560061E-06	2.03936502157722E-06	-6.89644978403522E-06	-4.73994353081116E-06	0.851071112142999	-0.496485103443481
8	0.991543577157455	-0.0254555345074438	2.33252377312441E-06	2.9660494988397E-06	-9.28403766833423E-06	-7.64995850589544E-06	0.784215774591768	-0.60118194519292
8.1	0.985747126509709	-0.106922417787821	3.83910075113107E-06	-3.05137262928304E-06	2.16040364688765E-06	-3.17387580978463E-06	0.701396757753842	-0.69622724691024
8.2	0.973341523738456	-0.185528490962714	-4.03963139402975E-06	1.39857787916645E-06	-6.75136603785738E-06	3.32303321909208E-07	0.608533001876506	-0.778472287965187
8.3	0.954784422099057	-0.263093861021944	9.85967985280558E-06	3.36730888417312E-07	6.19904667220706E-06	1.04718329390462E-05	0.506278261399946	-0.84862827147598
8.4	0.930116771739292	-0.339010150151806	1.27454624385337E-06	2.56141484272838E-06	3.45289998619965E-06	1.83643597307257E-06	0.395929625422604	-0.905576768185734
8.5	0.899456245860815	-0.413222404278854	-4.86161924596042E-06	4.94084049496609E-06	2.86533507904083E-06	-3.00891159646064E-06	0.279410754143466	-0.947902665854938
8.6	0.862559443503603	-0.484520915522088	-4.51055634245919E-06	2.06728457318619E-06	-3.077636425878E-06	8.10701331380639E-06	0.1586774919755	-0.97627892320866
8.7	0.820312312223326	-0.552614550764603	-1.02838961356479E-06	1.212838315594E-06	-6.61790722353718E-07	3.46488564526679E-06	0.0346753209594029	-0.989295732326728
8.8	0.772723184300541	-0.61706505117312	-1.60265822142603E-06	3.07854203852035E-06	-6.02759324640752E-06	1.25975480002357E-06	-0.0900902423955589	-0.986939033334115
8.9	0.720166337846653	-0.67756296793239	3.19137796337659E-06	-1.82484314376137E-06	-3.17318233214159E-06	-4.70977405730894E-07	-0.214746703816657	-0.967977681969948
9	0.662758510141954	-0.733022922643622	-7.30845468223227E-06	1.33199175934927E-06	-3.98964831862195E-06	7.14718572189867E-07	-0.334322841611903	-0.932329433770122
9.1	0.601703125703413	-0.784280991660801	-3.35629201349927E-06	-1.89986790170987E-06	-9.93912616538386E-07	2.13659535119993E-06	-0.448744473840885	-0.884171208540223
9.2	0.535811579426478	-0.830438222023955	6.00608400084303E-06	-1.62387399112576E-06	1.96234905582231E-06	8.50916413841498E-06	-0.5569779614764	-0.821500801658101
9.3	0.466332503610341	-0.870909952717526	-3.43723920261249E-07	1.07213774657683E-06	1.36624691884326E-05	1.19054894463172E-05	-0.656287470654392	-0.744808061447926
9.4	0.393492066246293	-0.904764474629715	1.74465784952495E-06	-2.66087352920951E-06	4.28993282845176E-06	1.77718168626153E-06	-0.743991824453906	-0.655867882283883
9.5	0.319739133449005	-0.933102185872956	-6.4948877918522E-06	-4.93644740226624E-06	-1.9188387708074E-06	-5.72831704697244E-06	-0.819747454588059	-0.558111400729595
9.6	0.240513874366988	-0.95716634854607	-1.17269823568275E-05	-3.2178399154039E-07	-5.92791563489385E-06	-4.06052693573115E-06	-0.88498833407736	-0.451043918400889
9.7	0.159303540705993	-0.972396673277707	1.476490015451E-06	-4.73902456895812E-07	-2.93765601921559E-06	1.63579615923038E-06	-0.93560866285324	-0.335423284559549
9.8	0.0778802907961391	-0.980392601180251	2.21067607608903E-06	1.41605971739171E-06	1.51869999821753E-05	-3.45870712079536E-06	-0.970862646516646	-0.214617118776895
9.9	-0.00337892798589988	-0.981405294052887	-3.51302270529936E-06	9.0055617942717E-06	1.38123988694151E-05	5.06756274685488E-06	-0.991181158826681	-0.0897533597066492
10	-0.0838379032789596	-0.975986058552702	-3.66883927146629E-06	1.61761702916772E-06	1.94048743060181E-05	-1.81980500019301E-05	-0.994575373805111	0.0371856858532184
10.1	-0.163771212465364	-0.963096404079457	-1.49361293816725E-06	2.31275974749294E-06	-8.46143258752722E-06	-4.35634042533345E-06	-0.98201948779642	0.16291888049324
10.2	-0.24116612320802	-0.943683280368931	-2.32066404681261E-06	-1.25341166893113E-06	-1.30124727715074E-05	7.24426207012408E-06	-0.953540300292128	0.286051737427317
10.3	-0.315468117358261	-0.918076331081121	5.79234255178202E-06	3.96232146388524E-06	-6.19007204952091E-06	1.37403205250846E-06	-0.910337696183602	0.404310397560004
10.4	-0.387083788663874	-0.88725821908464	2.1125768805011E-06	1.05810343706429E-06	7.25993026148473E-07	-8.27215197687548E-06	-0.852392096931087	0.516842238955882
10.5	-0.455696564539629	-0.850177397257398	4.39754629025041E-07	-3.07242526357952E-07	-6.52975931316253E-07	-5.66511123859975E-06	-0.778222102187411	0.621263831524629
10.6	-0.51978676457589	-0.807550712472597	5.11557235675127E-06	-2.61506231515429E-06	-9.79153845796408E-06	-7.92515746786385E-06	-0.692313352767494	0.712293343492698
10.7	-0.5793617570473	-0.760420868045012	-2.82735399441921E-06	-5.0595483100907E-07	-5.24681439803344E-06	-7.20427244310905E-06	-0.597224995904609	0.792551184934152
10.8	-0.634609432270889	-0.710258735613388	-3.63139670030881E-06	-3.46003843555932E-06	-1.20205817029049E-05	9.18702776576345E-06	-0.492890335029606	0.860546154367272
10.9	-0.686294226545998	-0.656751297369667	-1.14444066706177E-05	-1.04551165742327E-05	-4.48362850015517E-06	1.10125003638115E-05	-0.380949609753069	0.915471823108341
11	-0.731673453213942	-0.601213343578008	1.01539848411944E-06	1.41286774195279E-06	8.6852864676798E-06	-5.52497847161538E-06	-0.261614478791634	0.954700848334667
11.1	-0.77590321405822	-0.545404289504319	-3.28441700914789E-07	-3.64627033454917E-06	1.02210276850326E-05	-1.02411634528888E-05	-0.14035542145331	0.978750730128075
11.2	-0.817594260834918	-0.484937212974051	-1.03807154801293E-06	-3.92990400976146E-06	2.16799565766092E-06	-6.3394571689146E-06	-0.0159407502823263	0.988045225468506
11.3	-0.854963116292945	-0.420289817087544	1.63316873357443E-06	-1.20978356059978E-05	3.5793781204884E-06	-2.83673344017134E-06	0.108469575867806	0.981574158073609
11.4	-0.88636496826187	-0.352788737106291	9.90890401818731E-07	1.76705224432219E-08	-5.70746564094125E-06	6.49372648035286E-06	0.231620327636114	0.95998029185269
11.5	-0.913637266116652	-0.284322550033874	6.57708745147554E-06	-1.24822781134524E-06	8.27700963913119E-06	-3.16027478382346E-07	0.350824103495028	0.922829275609982
11.6	-0.93738093716166	-0.211287030372398	-6.48461621639914E-07	-5.35533696961871E-06	1.44205242038871E-06	-3.09843349520468E-06	0.464596595142823	0.870493176160977
11.7	-0.95300319174681	-0.134562174660252	-1.05799511329579E-07	-6.07640238986693E-06	8.91778930034429E-07	-2.67262237822995E-06	0.570384441922215	0.804584177382967
11.8	-0.961926562458136	-0.056331245829052	-1.07776871041535E-06	-7.41719625645924E-07	5.19089246245775E-06	1.07154002346907E-06	0.667264334393301	0.726529949843041
11.9	-0.964106574025388	0.0231262795862725	-3.24402938108107E-06	-5.22255691756218E-06	-5.43133144196611E-06	-8.03034101994301E-06	0.753711090349453	0.638494369722524
12	-0.95939435867264	0.10186546682973	-2.95463476527601E-06	1.66043770461252E-06	-1.68466492673349E-05	-8.74045721900496E-06	0.831793134545698	0.538882317971522
12.1	-0.949616662629015	0.180020612451527	8.22124462770166E-07	-1.57771128308811E-06	7.94611865308292E-06	1.22939589557318E-05	0.892970177477778	0.426646775785718
12.2	-0.932393683616204	0.258086886073473	-4.09409763883031E-06	5.5878466454475E-06	4.32605422141943E-07	3.32207530673831E-06	0.938838758269027	0.309734666965005
12.3	-0.909539059217899	0.334332871748351	7.89035456704978E-06	6.37109594641488E-06	4.73750523420461E-07	1.09264888862433E-05	0.969691555044343	0.188014625565936
