# GHZ S RI R 50
0.2	0.985819907465168	-0.156916867679294	2.56434553769159E-06	2.24989747415202E-06	6.57041172060828E-06	-4.86875337029452E-06	-0.966386394184253	0.251657288070839
0.3	0.969759322726092	-0.234024938326501	-8.73798316347355E-07	-5.45390953131699E-06	-3.46654340267313E-06	-7.94549260447506E-06	-0.926764735594652	0.371660576767885
0.4	0.948257726341934	-0.309336672137893	-7.27892213773769E-06	-9.91199597379337E-07	4.44113931328007E-06	1.54506906268979E-06	-0.872051340222777	0.485404159968239
0.5	0.921410266389033	-0.382833702798531	6.19986681072027E-06	2.10491529728626E-06	-2.41411092784372E-06	-1.90811435487585E-06	-0.803556614674985	0.591637555372769
0.6	0.88844859198035	-0.453978264078068	-1.05524198440867E-05	2.46137245247851E-06	-2.21867647974094E-06	-1.00714277005955E-06	-0.72205638509357	0.688015186397887
0.7	0.850197420989514	-0.521909601744146	2.78448485141924E-06	-1.1723200523449E-06	-2.98769445320926E-06	5.78915345450582E-06	-0.629470913649209	0.773490346951824
0.8	0.806654679805996	-0.58699288197469	1.17621662862352E-06	-8.47689348735559E-06	-6.62154921599098E-06	-3.07012454761341E-06	-0.52677869343963	0.84648732922972
0.9	0.758069613176428	-0.648562181351935	-1.1468467637421E-06	-6.810054887444E-07	2.5485798556373E-06	6.54367311768391E-06	-0.415872630208739	0.905825329830388
1	0.704630275231827	-0.706162090220425	-2.74456328316385E-06	-3.22230307987211E-06	-4.04979375018289E-07	-7.31572430440742E-06	-0.298670665884725	0.950531329840972
1.1	0.647743259298038	-0.759467719453975	1.80736627970736E-06	-4.94033961973986E-06	2.27078681968262E-06	-5.13373837475851E-06	-0.176596245454328	0.980399690252597
1.2	0.585433213511566	-0.809053844089216	-2.49626222347267E-06	2.49087034311797E-06	9.26285069666932E-07	-9.10600565670648E-07	-0.0514645208573221	0.99444269038958
1.3	0.517785376372134	-0.853688380930298	-1.53819280659883E-06	7.19107002602816E-07	-1.35581634611882E-06	1.46308150819832E-06	0.0743996439986221	0.992884425928898
1.4	0.446951954516142	-0.892368814526498	3.92312839288018E-06	-3.24102838907525E-06	2.70325376906528E-06	1.09412334485008E-05	0.199650968531447	0.975003833139204
1.5	0.374076563306949	-0.924622253912415	-5.33793515862102E-06	1.11093403096409E-06	6.58931046304364E-06	-7.20923065472009E-06	0.321326092721588	0.941644243223904
1.6	0.30032191836611	-0.951130749488899	1.77410573357765E-06	-7.74072900388934E-06	3.6329869277002E-06	1.38155706676693E-06	0.437269345020665	0.893177993665392
1.7	0.225680292432321	-0.971274434462876	-1.9422071146622E-06	-9.6867131434655E-07	-2.36490247732255E-07	-2.08719719966084E-06	0.545521839053414	0.831343400256263
1.8	0.14893659750742	-0.985780667770765	2.8537696211548E-06	5.27826785277633E-06	5.16171864150179E-09	2.03172198026227E-06	0.645535551708592	0.756035070003508
1.9	0.071472037589694	-0.994198696407104	5.67288807907456E-06	-2.63430870490563E-06	-2.99781728684791E-06	4.17292798169207E-07	0.734736814752999	0.668948642934091
2	-0.0053773148128806	-0.996617565070801	-1.54914732751025E-06	-2.02633451799089E-06	3.21619679545811E-06	1.14581599738892E-05	0.812675123499344	0.571169869352645
2.1	-0.0840298780772596	-0.993526753458927	-7.55470308668083E-06	2.45947245310911E-06	1.21018002481063E-06	5.14688829228005E-06	0.877603587056943	0.464471913492384
2.2	-0.160757174134982	-0.984134169884912	-8.82619089264569E-07	1.39501729740959E-06	3.00811380167097E-06	7.7768999519972E-06	0.928842915311608	0.350622746448487
2.3	-0.237980543286608	-0.968219932379959	1.82999696961421E-07	7.45477410364968E-06	7.40310656331099E-07	9.38583615292369E-07	0.964917038067985	0.231724187284329
2.4	-0.313921349521223	-0.945923122522803	1.58215757629442E-06	7.17470340525317E-06	1.52367765353465E-06	6.38795684714547E-06	0.98637276386262	0.108278681493086
2.5	-0.387149271718674	-0.918374325173241	4.3902760765989E-06	-2.31512125583086E-06	-1.91607601159459E-06	-7.57156039537507E-06	0.991686323079291	-0.0161059930270008
2.6	-0.458322629118644	-0.884747466527178	6.76985920637212E-06	-5.94568670160802E-06	-1.10996907054513E-05	1.08289611938687E-05	0.981733163411297	-0.14063941030699
2.7	-0.526787497512922	-0.84572667782683	-4.44327787886451E-06	9.14252466957426E-06	-2.87240416286643E-06	-9.15965508019798E-06	0.955963904260713	-0.263001914769585
2.8	-0.591067346927815	-0.801975282435507	2.45762958371552E-06	1.14415377244627E-06	-3.12845515111643E-06	1.24328719075095E-06	0.915852032133002	-0.380595928568187
2.9	-0.65141244687069	-0.75379999394573	-5.50169094430686E-06	6.01421342033768E-06	-9.19434606434835E-06	-2.85867006825491E-07	0.86089559996423	-0.492213291910418
3	-0.70844028245823	-0.700483541132308	4.72793808082212E-07	-1.47311499757636E-06	1.13266100090689E-05	1.46586900339402E-06	0.792293129999632	-0.596562199177909
3.1	-0.761163842279143	-0.643440697489099	2.40387657876919E-06	1.04980646493328E-05	4.32532938999094E-06	2.17511179182071E-06	0.711264605278741	-0.690724928905411
3.2	-0.809254667208273	-0.582447440983139	2.10377583248398E-06	6.46689839850628E-06	4.00248531778534E-06	-1.06058679813856E-05	0.619328900904884	-0.774159257149808
3.3	-0.852504622002285	-0.517901697557833	3.08139367437686E-06	4.96267904897497E-06	-2.22385147863745E-06	-9.66991267662216E-06	0.516545933532515	-0.846021386673361
3.4	-0.889831438456349	-0.450305495482236	2.1254407737399E-06	-2.60418777752008E-06	5.95835031948385E-06	1.38269486959351E-06	0.406877548311844	-0.904098643947933
3.5	-0.922241836081257	-0.378533716089688	-3.23931181050018E-06	9.46781779599534E-07	-2.07250031267662E-06	3.42315969072556E-06	0.289857884836787	-0.947988924929827
3.6	-0.949047440066075	-0.305101156384303	-1.81343778609372E-06	-3.74368099665926E-06	-7.8231293758504E-06	4.10764553893666E-06	0.168470806606255	-0.976950111853288
3.7	-0.969982156882884	-0.229993202437626	8.20410868892796E-07	-8.32773308846036E-06	1.0769989822129E-05	3.6948584464306E-06	0.043846928313661	-0.990316054366396
3.8	-0.985122936609963	-0.15253986853678	9.24714971031857E-08	1.54698197182394E-06	-6.5178818875175E-06	5.9538813599772E-06	-0.0807141246676715	-0.987951836785189
3.9	-0.993682079614487	-0.0746901051132305	-2.62973784865417E-06	-5.02790792948696E-06	-3.70166075952581E-06	8.02823839497304E-06	-0.205843832675918	-0.970195646889983
4	-0.996102635386926	0.0042694222502654	7.13144097459737E-06	-3.85099796203067E-07	-1.04580096241501E-06	-1.20563308019317E-06	-0.326137895088773	-0.936951269658487
4.1	-0.992728742553902	0.0824230460629507	6.19612042015214E-07	-4.44409104551051E-07	7.35277603390032E-06	-4.76227113138151E-06	-0.442087717648531	-0.888321604292843
4.2	-0.983316638600414	0.160415076438726	3.20782271947545E-06	2.10157239074146E-06	-7.19160207275274E-07	-7.617785523207E-07	-0.550478836415204	-0.825035893068082
4.3	-0.967938881600852	0.23647506985774	-3.1895530691819E-06	1.37483372915301E-06	-4.99602913061778E-06	2.98601883661021E-06	-0.649694425372416	-0.749588021969871
4.4	-0.946609817336989	0.31125576136522	8.05417973102639E-07	2.64263600611709E-06	1.5502891621655E-06	-8.33488370085533E-06	-0.738612695897972	-0.662257881336858
4.5	-0.919226708542669	0.384399602433559	1.82435499483143E-06	-9.39872681286248E-07	7.63372300388434E-06	-2.55257499032276E-07	-0.816443570027521	-0.564522659220743
4.6	-0.885948512020893	0.45553396532553	-7.31718389831627E-07	6.1331854675861E-06	-1.23486186642804E-05	-6.49341511454878E-06	-0.881042370908516	-0.457318744066807
4.7	-0.847740150165075	0.522709214160465	1.20121338184937E-06	2.51371525988371E-06	1.42120199869911E-06	1.86873229193911E-06	-0.931966557473417	-0.34309812669086
4.8	-0.803601085728602	0.588083239640351	-5.19015179145935E-06	1.11365814139811E-05	5.23218580782319E-06	9.70375369955524E-06	-0.96776130075073	-0.222835930136383
4.9	-0.754779545556583	0.649203504007583	1.19831153332123E-06	2.9356722235145E-06	-4.79179123106901E-07	-6.92146083647636E-06	-0.988139646051708	-0.0987262323419126
5	-0.701183548498714	0.706388285369109	4.7466738622826E-06	-9.08639926182964E-07	-3.74790825528003E-06	2.42423504040716E-06	-0.992261198206932	0.0269347559866309
5.1	-0.643135275664493	0.759265365933314	4.1383356887335E-06	-1.38845669020643E-07	-2.65300647934206E-06	-9.8248731845438E-06	-0.980876723023203	0.151537224846163
5.2	-0.58142281412468	0.807955305370458	2.63335473646729E-06	-1.50065312010526E-05	1.37791546141457E-06	2.82611498915445E-06	-0.95405393734077	0.274041058944702
5.3	-0.5160453118084	0.851745230505423	-8.71991040402442E-06	-7.88169212533001E-07	-1.13629863861377E-06	1.58488325343679E-07	-0.911972847715491	0.392174127245326
5.4	-0.447406798483036	0.890222949597747	-7.18236132737777E-06	-1.10733448912981E-05	-1.37587741122021E-05	1.11948381401215E-05	-0.855205491094495	0.503563461711582
5.5	-0.375969586984344	0.922590565944862	1.90652185232102E-06	9.12221532997751E-08	-2.2491129748431E-06	1.78303399578921E-06	-0.78594948663279	0.606765205282457
5.6	-0.302542697071555	0.948822295645877	-2.41581345428973E-06	3.51599758770635E-06	-1.3450388435132E-06	1.28946773522053E-06	-0.703846804795556	0.700749384143646
5.7	-0.227280608001655	0.969977569704796	1.30636368008533E-06	1.23494067637788E-06	5.77083638014433E-06	-1.11537095370685E-07	-0.610668745910328	0.783484947915869
5.8	-0.1504388143658	0.984847134059798	2.70111137673938E-06	4.26972155943546E-06	-2.1213973345168E-06	4.24613575301323E-06	-0.507708025890801	0.853710438149736
5.9	-0.0726782646626498	0.993975362095647	-6.89612132010032E-06	-2.31479104167927E-06	-8.62106196996459E-08	6.30134715080489E-06	-0.397288312499763	0.910546994048894
6	0.00560241939471062	0.997170278448515	-1.79648856938642E-06	8.71783579316141E-08	-5.46764188610835E-06	-4.40822569243505E-06	-0.280823209190585	0.953426555548051
6.1	0.0846574410872503	0.993731602191396	5.93228840458205E-08	-9.94243669926007E-06	-9.80501691266358E-07	-3.22558296709727E-06	-0.15916756012166	0.981667679203165
6.2	0.163759315914297	0.983409607405632	-1.0292540500577E-06	3.12102738222561E-06	-1.7701999513908E-06	4.22523627301732E-06	-0.0338011632850303	0.993747448026659
6.3	0.241752436506769	0.966478451214498	-8.09660190034102E-07	2.83918781184634E-06	-2.94910478617884E-06	2.40176908196417E-06	0.0919354393241715	0.989465587164186
6.4	0.317702260526002	0.9434345973573	-5.98697107597035E-06	5.56353176589766E-06	-2.38943588368763E-06	-7.51416388320035E-07	0.215926294811116	0.969324255296943
6.5	0.391753354993384	0.914991909674952	1.40552687006509E-06	-5.29342935154745E-06	-1.45441085633986E-06	-2.38348364052419E-06	0.336242521434218	0.934088726837422
6.6	0.462739360099417	0.880365677545379	3.66460278295508E-06	2.06824062508082E-07	1.13349780098347E-05	-2.69718726246485E-06	0.450995713133537	0.88367614330162
6.7	0.530606352545088	0.840713333605352	-7.77251298911726E-07	8.50163364015057E-07	-3.77411240048668E-06	5.24683051357545E-06	0.557674381088146	0.819767131043159
6.8	0.595398086857347	0.795962182149834	-1.75408265233205E-06	4.49908237025225E-06	1.45589434681593E-06	-8.86763426918672E-07	0.655587513872442	0.74320294945498
6.9	0.656474374111127	0.746194239988558	5.93305915216096E-06	2.24652177710405E-06	-9.30444465773468E-07	2.42113889288687E-06	0.742990281764424	0.6549937362682
7	0.713423593057764	0.691507529835534	1.1391721973811E-06	-4.15814085851475E-06	-1.42829683759075E-06	2.9232876272893E-06	0.8186121292085	0.55671821483176
7.1	0.765659529578561	0.632641668626012	2.39912180700043E-07	-7.19416754450041E-07	1.98329922845196E-06	9.20067190095673E-06	0.881485653084387	0.449759126022507
7.2	0.813102688498984	0.569572083319086	1.38504333474264E-06	-2.4184294346849E-06	-1.02096806459324E-06	-8.57692614840624E-06	0.930311953072963	0.335850053657449
7.3	0.855335406328252	0.502630430054075	4.85180387229478E-06	7.22848807452105E-06	-9.72392350524131E-06	2.34945684453276E-06	0.964167056137723	0.216501055519459
7.4	0.89236557067804	0.432301315980791	5.096459193536E-06	-6.92399710527127E-07	1.92336180486722E-06	-9.6451767198723E-06	0.982783127778395	0.093576503936428
7.5	0.923486309100639	0.359445398838445	2.73418422657172E-06	-5.30684259862263E-06	2.08241643022612E-06	-7.27416594155296E-06	0.985601494926796	-0.0299983295046073
7.6	0.949444618270941	0.284206938696854	-3.19092732517993E-07	-5.63114004187719E-06	1.67593084521258E-05	3.84765138365204E-06	0.973914486490067	-0.153198863955381
7.7	0.969266052004374	0.206920973033093	3.51431876077701E-06	1.08528809044081E-07	3.21737459516688E-07	-2.92211053558108E-06	0.946965071017569	-0.274169763189995
7.8	0.982815662343142	0.128313561205792	-1.09665898422481E-05	-1.91663132257464E-06	-2.02488141428805E-07	3.43541126686868E-06	0.905341671328475	-0.390952992037586
7.9	0.989928455666121	0.0488098307363935	2.35398809041169E-06	2.03020180086787E-06	-6.93695319837858E-06	-4.71037614082978E-06	0.84956638908985	-0.501758748382343
8	0.990786869370765	-0.0305143925186925	2.3487356619756E-06	2.95347817436783E-06	-9.3259720184163E-06	-7.59976749295701E-06	0.780385858952291	-0.605022277001817
8.1	0.985458307434721	-0.110372606773832	3.82913257534514E-06	-3.06832434753434E-06	2.14900970396188E-06	-3.18423030948132E-06	0.698084883082333	-0.699130529707679
8.2	0.973432796264359	-0.189023578973565	-4.03861231862699E-06	1.4168463906693E-06	-6.75791646669371E-06	3.60483487387302E-07	0.604648874785078	-0.781389714619569
8.3	0.954823704911221	-0.266819174568946	9.87344776230925E-06	2.93123245344112E-07	6.25351751900267E-06	1.045717804302E-05	0.501559843594194	-0.851102155324657
8.4	0.929845245224201	-0.343005457960449	1.28775891889611E-06	2.558673742021E-06	3.46541885942575E-06	1.82288876549039E-06	0.390582578942507	-0.907489082486054
8.5	0.898684633449158	-0.417252951571395	-4.84436053175196E-06	4.97347958512718E-06	2.85467124219952E-06	-3.02830437423622E-06	0.273074323144113	-0.949310348856781
8.6	0.861381033356668	-0.488583605998521	-4.50284980569606E-06	2.09606763051272E-06	-3.03273067670982E-06	8.1333825115226E-06	0.151399380559005	-0.976420086342338
8.7	0.818562982752169	-0.556614959182707	-1.02112987048348E-06	1.21947208596059E-06	-6.40528829420117E-07	3.46977020111243E-06	0.0269163093702082	-0.987778017258121
8.8	0.770419943949869	-0.620788250205981	-1.58258118381637E-06	3.0865613773658E-06	-6.01603807724525E-06	1.29633043506854E-06	-0.0975725058438369	-0.983544032186329
8.9	0.717504155729477	-0.680929045389046	3.1764136011724E-06	-1.84036376665351E-06	-3.17129711832539E-06	-4.5225888882644E-07	-0.220978340327462	-0.96339886436838
9	0.659512563019197	-0.736329887678278	-7.29287656454466E-06	1.36960852388301E-06	-3.98121078477426E-06	7.3526770650016E-07	-0.340701738576036	-0.927740393755676
9.1	0.597730679318576	-0.786789359282824	-3.36119371521734E-06	-1.87663343216878E-06	-9.79522942501785E-07	2.13845082314758E-06	-0.454808569171169	-0.877420712338762
9.2	0.531549147452956	-0.832177303916541	5.98153920664747E-06	-1.65345987891657E-06	2.00513351373639E-06	8.47629131259598E-06	-0.561502772726644	-0.813662530973226
9.3	0.461954619067268	-0.872025646177685	-3.37076331053026E-07	1.07089127072105E-06	1.36863523127185E-05	1.17992795966797E-05	-0.659396015352641	-0.736742175085481
9.4	0.388854606260729	-0.905916483814112	1.72633113944979E-06	-2.663217443298E-06	4.28830521695177E-06	1.75026752903102E-06	-0.74641419407053	-0.648340392381461
9.5	0.313034325342114	-0.933051674226302	-6.50710947728567E-06	-4.87802695843532E-06	-1.95066437776609E-06	-5.69764751708799E-06	-0.822504064615225	-0.54959186846906
9.6	0.234660071005389	-0.95452716955495	-1.16759836970526E-05	-2.49459347305325E-07	-5.92569285486914E-06	-4.00636973198173E-06	-0.886250157401912	-0.441587473190662
9.7	0.154452711871928	-0.969053853332706	1.4665524999945E-06	-4.79890668823087E-07	-2.91397929416671E-06	1.64430012155404E-06	-0.935413555419314	-0.325567788549542
9.8	0.0734528594437277	-0.976513636079952	2.20630129978984E-06	1.39616230130096E-06	1.50846402603337E-05	-3.52298768842173E-06	-0.968822821834503	-0.204659146430535
9.9	-0.00771013505380961	-0.976636754914854	-3.44306382699704E-06	8.96512589223185E-06	1.37487056388912E-05	4.96235491335956E-06	-0.986873265338577	-0.0805260001990845
10	-0.0873589014419063	-0.969399194696797	-3.63469462489159E-06	1.6199205863585E-06	1.91860846855451E-05	-1.81373365389143E-05	-0.988865374142654	0.0445385886880998
10.1	-0.165374245376702	-0.955742921907998	-1.47588835080718E-06	2.29966849603704E-06	-8.41040261697235E-06	-4.29979052897952E-06	-0.97579036777832	0.168896181895049
10.2	-0.241076512643775	-0.936110888815547	-2.30615684366519E-06	-1.23923141448122E-06	-1.29009188380915E-05	7.21823641273519E-06	-0.946647073184412	0.290780333459211
10.3	-0.313768612041869	-0.9107985949548	5.75704665805745E-06	3.92455808009164E-06	-6.14336966224706E-06	1.37406839478566E-06	-0.902776279860275	0.407453405961481
10.4	-0.384333736048796	-0.880580192053163	2.09895221089018E-06	1.04781416059953E-06	7.09986531587104E-07	-8.21432121894456E-06	-0.844641044696602	0.517344613721605
10.5	-0.452178162840172	-0.843552844976536	4.36598484114579E-07	-3.05457671551705E-07	-6.5222038863138E-07	-5.62657479471881E-06	-0.773575823271296	0.619633640502306
10.6	-0.514840329202606	-0.801159858694026	5.08163858259088E-06	-2.60412501211836E-06	-9.73943166745336E-06	-7.86688442198755E-06	-0.689101160489288	0.71205068757602
10.7	-0.573117638078947	-0.754707118956926	-2.8099520372099E-06	-4.99499561832548E-07	-5.2216952726004E-06	-7.15244699191107E-06	-0.59416414965162	0.792424884060746
10.8	-0.627037569368067	-0.705577256625684	-3.60984686100818E-06	-3.43418824700833E-06	-1.19334066981394E-05	9.13501650027221E-06	-0.490183847615352	0.860091474695689
10.9	-0.677760000980318	-0.654092876145922	-1.13668074311837E-05	-1.03886155833736E-05	-4.45638636761532E-06	1.09389958464079E-05	-0.379071994241663	0.914251900055942
11	-0.72448688160209	-0.599839908211547	1.00952740134665E-06	1.4056737710727E-06	8.64082860909063E-06	-5.49270642907855E-06	-0.261640618380474	0.954017483284706
11.1	-0.767905223480246	-0.543603831966611	-3.2684289330719E-07	-3.62598131888108E-06	1.01635746039457E-05	-1.01848717971929E-05	-0.140728737064908	0.979316391230436
11.2	-0.808653159584302	-0.484452569163146	-1.03129935142916E-06	-3.90814462531265E-06	2.15739708258313E-06	-6.30341997866526E-06	-0.016056424352394	0.989382811049042
11.3	-0.845951559412656	-0.42141057830588	1.62895891566251E-06	-1.20321988530725E-05	3.56121170471703E-06	-2.82013590405443E-06	0.109092235970928	0.983174180745081
11.4	-0.878248443194861	-0.355017511046378	9.8591376691072E-07	1.76888293662491E-08	-5.67951288818111E-06	6.46050854654288E-06	0.232812344838067	0.961057886028778
11.5	-0.905446124828996	-0.285862092639295	6.53813235360538E-06	-1.2447915498949E-06	8.22871481774517E-06	-3.18996891335988E-07	0.35148840046565	0.923179629927605
11.6	-0.927874029596783	-0.214505988608605	-6.42996639725587E-07	-5.31989953744291E-06	1.43314172841029E-06	-3.07753787722984E-06	0.464946796719827	0.870867466212592
11.7	-0.944209905720283	-0.139698945014697	-9.98306508788548E-08	-6.03578265391861E-06	8.88117640601909E-07	-2.65394409635275E-06	0.570629147289618	0.804447381150888
11.8	-0.954520249558387	-0.0626466820596868	-1.06951826806158E-06	-7.38182448456982E-07	5.15452647088707E-06	1.07132808928234E-06	0.666883958596045	0.725302527913612
11.9	-0.958591263201494	0.0165302963621962	-3.21191978262053E-06	-5.19189305836075E-06	-5.37885961775498E-06	-7.98399140258726E-06	0.750944466139158	0.635434426205223
12	-0.955208904926361	0.0964784952073964	-2.937774614744E-06	1.63860331809869E-06	-1.66926328948415E-05	-8.72852215166045E-06	0.823108224326143	0.537442994625483
12.1	-0.945149080191189	0.175402098937545	8.23837499696224E-07	-1.56356096743408E-06	7.83792062510478E-06	1.22487040600162E-05	0.883113395537988	0.430844192621682
12.2	-0.927617699781919	0.25357141190265	-4.09895677757036E-06	5.53357198396937E-06	4.12787432394441E-07	3.30470445819956E-06	0.930051975750064	0.317770194401759
12.3	-0.904179196225732	0.329635948960563	7.81143567573524E-06	6.38231283046985E-06	4.08391948682283E-07	1.08706502507373E-05	0.96301966315818	0.198927900087163
