# GHZ S RI R 50
0.2	0.985983986579944	-0.156750924238771	2.56434645101273E-06	2.25090043067407E-06	6.57276213648142E-06	-4.86824751185839E-06	-0.966716812227503	0.251491455962239
0.3	0.97001882164779	-0.233762754341781	-8.72399430997971E-07	-5.45565915516456E-06	-3.46510364540568E-06	-7.94870000322972E-06	-0.927244374782553	0.371566044223174
0.4	0.948703181192625	-0.309024818504793	-7.281516027754E-06	-9.94121104261297E-07	4.44239620666821E-06	1.54723102098621E-06	-0.872661245199145	0.485486690241463
0.5	0.922029240271435	-0.382642689879303	6.20240777715487E-06	2.10737335058759E-06	-2.41484918461786E-06	-1.90960285457124E-06	-0.804051535234198	0.592009223528285
0.6	0.889162807365688	-0.453869547149451	-1.0557800863552E-05	2.45970866964499E-06	-2.21940787967976E-06	-1.0081767602484E-06	-0.722431292302762	0.688349769186652
0.7	0.851006952100096	-0.521959805633893	2.78624148323823E-06	-1.17217489311711E-06	-2.99080225730518E-06	5.79134142777273E-06	-0.629848248249553	0.773902638531208
0.8	0.807468006304268	-0.587227134018102	1.17887875292481E-06	-8.48136961210277E-06	-6.62453743835956E-06	-3.07341052158638E-06	-0.527105493825819	0.846996936037787
0.9	0.758773622234996	-0.648923758458798	-1.14735235910518E-06	-6.81623760621691E-07	2.54867206109188E-06	6.54787714351495E-06	-0.416145967667335	0.906417030079172
1	0.705290608975459	-0.706406600223812	-2.74513043795789E-06	-3.22485014575065E-06	-4.03091821714654E-07	-7.31982802651519E-06	-0.298919256193052	0.951228419116085
1.1	0.648655532159736	-0.75977139327735	1.81074979611832E-06	-4.94310921910129E-06	2.27458371009459E-06	-5.13645023785338E-06	-0.176830770513121	0.981239590212971
1.2	0.586518938895408	-0.809559910023385	-2.49989816581548E-06	2.4919438907525E-06	9.27627237759212E-07	-9.10985996148711E-07	-0.0517131497689863	0.9954743718755
1.3	0.51905924047777	-0.854472205995866	-1.54046389196173E-06	7.18981509255022E-07	-1.35834339663926E-06	1.46394968108647E-06	0.0741188419864058	0.994075762414112
1.4	0.448376790335863	-0.893430294844032	3.9308264455385E-06	-3.24237137499318E-06	2.69854527004361E-06	1.09578873468912E-05	0.199364541869852	0.976288119701493
1.5	0.375775505259363	-0.926147260323782	-5.3467581380719E-06	1.10824068027998E-06	6.60494997019138E-06	-7.21456700813655E-06	0.321295456035066	0.942875613604704
1.6	0.30163415656788	-0.953300474199476	1.78126457738414E-06	-7.75180347112592E-06	3.63787324327929E-06	1.38577361469769E-06	0.437452590680264	0.894172484167175
1.7	0.226495297984401	-0.97362367371061	-1.94473447368781E-06	-9.70764894266518E-07	-2.36121580051689E-07	-2.09035202575033E-06	0.54590628604763	0.83213777993171
1.8	0.149362434153098	-0.988201846585697	2.85657489082072E-06	5.28626294350549E-06	4.71695596749303E-09	2.03455625694874E-06	0.646038856110102	0.756634492156559
1.9	0.0715724550006048	-0.996686884811626	5.68159220810863E-06	-2.6370172266152E-06	-3.00222847204666E-06	4.1731596093673E-07	0.735324432883758	0.669518962366877
2	-0.00574286304528658	-0.999290707380476	-1.55204875869376E-06	-2.02962043460997E-06	3.22309976516111E-06	1.14774128174942E-05	0.813766171643528	0.571562707528881
2.1	-0.0849971715728001	-0.99606313301264	-7.56526511971502E-06	2.46686712538991E-06	1.2144954593816E-06	5.15430438935043E-06	0.878570094320647	0.464303278469488
2.2	-0.162234633174288	-0.986413316752754	-8.82998158060074E-07	1.39769409729205E-06	3.01783842046299E-06	7.78648718265117E-06	0.929661842307819	0.350355376560125
2.3	-0.239892655669057	-0.970080796655384	1.90078311715815E-07	7.46515400259009E-06	7.42216702461904E-07	9.39234317089377E-07	0.965722705112979	0.231367441908087
2.4	-0.316116181881676	-0.947236666981711	1.59254084345647E-06	7.18205513003008E-06	1.53306972473181E-06	6.39436846892766E-06	0.987211068518117	0.107752483907702
2.5	-0.389367615744257	-0.919065110993852	4.39143103294054E-06	-2.32368559052451E-06	-1.92874737682205E-06	-7.57649645218575E-06	0.99244035198109	-0.0169967247690023
2.6	-0.460350002812753	-0.885019242991673	6.76566682700958E-06	-5.95982941942674E-06	-1.10912108156326E-05	1.0852890708863E-05	0.982130407521397	-0.14178999366974
2.7	-0.528646356245426	-0.845690468645551	-4.43111183554689E-06	9.15299480463015E-06	-2.88754634763252E-06	-9.15896337812361E-06	0.95590828278559	-0.264307232916356
2.8	-0.592768073505032	-0.801617778189731	2.45977337570429E-06	1.14053562294007E-06	-3.12701643492142E-06	1.24830766060366E-06	0.915317162412324	-0.381839803678177
2.9	-0.652826438899867	-0.752983763767042	-5.49152414358505E-06	6.0226988522691E-06	-9.19413172998604E-06	-2.7092370948981E-07	0.860049907327214	-0.493291948424412
3	-0.709049614451866	-0.699536876534411	4.70250279097647E-07	-1.47326162607861E-06	1.13242786583388E-05	1.44720625486893E-06	0.791209552628452	-0.597581323903428
3.1	-0.761614939012304	-0.642857526293643	2.41865184111718E-06	1.04899331131197E-05	4.32674587959105E-06	2.16766377033139E-06	0.709824421088913	-0.691566047176955
3.2	-0.809661409037457	-0.581874317688795	2.11299781157678E-06	6.46050516115504E-06	3.98382482796952E-06	-1.06071611039662E-05	0.617713910082918	-0.774681611699271
3.3	-0.852798499464408	-0.517258952689371	3.08775656281301E-06	4.95461081097359E-06	-2.23851345788714E-06	-9.66044401158491E-06	0.514828754002409	-0.846185187177938
3.4	-0.88988289731205	-0.449634157002941	2.11972401820538E-06	-2.60549310160606E-06	5.9558968563122E-06	1.37231048917713E-06	0.405269313388044	-0.903769111622072
3.5	-0.922219971898331	-0.378144190115616	-3.23624858328391E-06	9.50697125914286E-07	-2.0666856699365E-06	3.42412713026602E-06	0.288735495228281	-0.947652775752081
3.6	-0.949113943734412	-0.304609845053895	-1.81849703135612E-06	-3.73865290371669E-06	-7.8121063792313E-06	4.11804039503469E-06	0.167117684747019	-0.97653699846844
3.7	-0.969931528651991	-0.229492715637165	8.07009831167779E-07	-8.32295909175608E-06	1.07678661107912E-05	3.67561840063901E-06	0.0426731338942373	-0.989498722336692
3.8	-0.984956908041137	-0.152075817898331	9.44842841832525E-08	1.54561586253084E-06	-6.50461947151391E-06	5.95789682452489E-06	-0.081510186054184	-0.98693783083132
3.9	-0.993315835405668	-0.0743170192916906	-2.63339541500349E-06	-5.02093793062683E-06	-3.68958110695629E-06	8.02611993473911E-06	-0.206269397410347	-0.969303881233322
4	-0.995519252351221	0.00425761045541345	7.12508846536892E-06	-3.92438927214647E-07	-1.04622500917104E-06	-1.2035057730648E-06	-0.326765628955335	-0.936300440045303
4.1	-0.992375579746777	0.0819908536680077	6.18682577964921E-07	-4.44468132192832E-07	7.34214182531748E-06	-4.7634550921207E-06	-0.442786988269644	-0.887272777977011
4.2	-0.98332412497829	0.159896002252949	3.2063215236576E-06	2.09827570553403E-06	-7.18970291859525E-07	-7.60807394350529E-07	-0.550953314932857	-0.823837979951674
4.3	-0.968265575962568	0.236165022450497	-3.18733795228833E-06	1.37540835837022E-06	-4.99222277706992E-06	2.98648585715443E-06	-0.650056042544421	-0.748389879082072
4.4	-0.946978109431515	0.311572075263885	8.06836586254767E-07	2.64176468832364E-06	1.54519313568322E-06	-8.33452094164992E-06	-0.738972463847167	-0.661050967101247
4.5	-0.918700072820706	0.385063567011957	1.82292428268333E-06	-9.4183111094785E-07	7.63203030385244E-06	-2.64124102428127E-07	-0.816863946906316	-0.563215956136764
4.6	-0.885160267786637	0.455749137868462	-7.2407744981345E-07	6.13140818764344E-06	-1.23510356765458E-05	-6.47586073862561E-06	-0.881536370694738	-0.455734434617466
4.7	-0.84687493724515	0.522860300202264	1.20389444762429E-06	2.51110471576688E-06	1.42296773493552E-06	1.86611953852359E-06	-0.932289548084771	-0.341109584385487
4.8	-0.802532886383338	0.588225421104476	-5.17154528774454E-06	1.11384868675422E-05	5.24352953389454E-06	9.69138560503305E-06	-0.967704454037876	-0.220477119112281
4.9	-0.753295242358741	0.649251330873531	1.20209958208372E-06	2.93145620174501E-06	-4.89939112626666E-07	-6.91529449280625E-06	-0.987374869533797	-0.0960674252011375
5	-0.699565567267389	0.705678358859075	4.74023844618347E-06	-9.13641844979198E-07	-3.74066464553533E-06	2.42628439218893E-06	-0.990712564982507	0.0291581213409617
5.1	-0.641884952699547	0.758497126559907	4.13416942822035E-06	-1.4400096222052E-07	-2.66300630305979E-06	-9.81201256154525E-06	-0.979073065763144	0.153687074408334
5.2	-0.580098725389621	0.807136940966683	2.60923325056916E-06	-1.49928359378973E-05	1.38028637517522E-06	2.82090491011416E-06	-0.951567881087975	0.275914986813982
5.3	-0.514622052063071	0.850811322778219	-8.70947121319136E-06	-7.74405244009896E-07	-1.13455739022848E-06	1.5993479551293E-07	-0.90904239744642	0.3934522706409
5.4	-0.445738399369392	0.889220067057777	-7.18992114028529E-06	-1.10468297182043E-05	-1.37222552347788E-05	1.12011119858417E-05	-0.852149201733506	0.504216360896535
5.5	-0.373835398432894	0.921143786475401	1.90394582661728E-06	8.70652356679633E-08	-2.24208311143511E-06	1.78519235366391E-06	-0.783066882214064	0.607146313420303
5.6	-0.300405852884598	0.946822856523937	-2.40261355801855E-06	3.51470165667701E-06	-1.33927854554795E-06	1.29008420493288E-06	-0.700528881934877	0.701134326743455
5.7	-0.225077528062783	0.967583881286196	1.30639636668854E-06	1.22871224727445E-06	5.75689514597498E-06	-1.25874828096084E-07	-0.6067010625921	0.783291439261899
5.8	-0.148191702303972	0.981927084666235	2.70492974119724E-06	4.25059798809489E-06	-2.10416438786537E-06	4.23991686879149E-06	-0.503316759456017	0.852477822430154
5.9	-0.0705061793052534	0.990571717376854	-6.8802799898855E-06	-2.28963520189464E-06	-6.96459563284367E-08	6.28162639009796E-06	-0.392929854886744	0.908008920911117
6	0.00817046870643254	0.992865819765933	-1.79028817334984E-06	9.23387351827372E-08	-5.4629449490352E-06	-4.37707753336494E-06	-0.27680772425445	0.949441535433157
6.1	0.0860499864101806	0.987724642494372	2.84866394775719E-08	-9.89566613972382E-06	-9.85784484509914E-07	-3.20733686596026E-06	-0.156675521662791	0.976099679260896
6.2	0.16307795462718	0.977139947466458	-1.01733559229465E-06	3.10518655376455E-06	-1.75191194182716E-06	4.20451995350451E-06	-0.033532710639926	0.987823671671652
6.3	0.239393492995627	0.96123735513702	-8.03702308473447E-07	2.82276918261277E-06	-2.93070303292703E-06	2.38882083400893E-06	0.0902994113195032	0.984459141821139
6.4	0.314989570285548	0.939692202914317	-5.95999479339741E-06	5.53034509534606E-06	-2.3765070352257E-06	-7.49261199027033E-07	0.213614196886269	0.965842096100406
6.5	0.389112815178267	0.911399239980802	1.40487418028971E-06	-5.26623144752062E-06	-1.44462266762801E-06	-2.37365683959151E-06	0.333841479322606	0.931153972715435
6.6	0.459492631180721	0.877559610103842	3.64902497778779E-06	2.13350436323421E-07	1.12935162645803E-05	-2.66319507882274E-06	0.448282234839237	0.881752326581865
6.7	0.527363494163928	0.838559497139839	-7.76501975178013E-07	8.45646157978425E-07	-3.7728968656682E-06	5.22116749416996E-06	0.555153759953429	0.818420466032179
6.8	0.592126055286401	0.79436082432089	-1.75891496196683E-06	4.48257054707079E-06	1.45371357229701E-06	-8.81095010515761E-07	0.653091265686965	0.742287870014396
6.9	0.653319726744101	0.745221184085706	5.91354245796945E-06	2.25498759426763E-06	-9.33866238240548E-07	2.41314259393326E-06	0.740557839438397	0.654593201919122
7	0.710605958374645	0.690870531007236	1.14672677975848E-06	-4.14908703583985E-06	-1.43262764333033E-06	2.91551406163295E-06	0.816380805143298	0.556666756474099
7.1	0.76284865463478	0.632278917222581	2.40852729430291E-07	-7.17893165680348E-07	1.96362491779743E-06	9.19034055368801E-06	0.879295460499469	0.450118683489529
7.2	0.810336177072234	0.569660218198808	1.38744583578038E-06	-2.41210226334697E-06	-1.00330098935186E-06	-8.56561916557219E-06	0.928296282744354	0.336662666591726
7.3	0.852634426360594	0.503247758278344	4.82896915338106E-06	7.22687969615794E-06	-9.71309250627144E-06	2.32548613428152E-06	0.962310294563058	0.217827636595928
7.4	0.889811078767064	0.43375671507599	5.08897565119239E-06	-6.77081269287907E-07	1.94639345075403E-06	-9.62210381893999E-06	0.981279143822234	0.0958389303198795
7.5	0.922051576560867	0.361623384871414	2.75235236052208E-06	-5.29170121094198E-06	2.10875332544427E-06	-7.25985146694124E-06	0.985711055022289	-0.0273031294187454
7.6	0.948613630093528	0.286093622716718	-2.99885492192071E-07	-5.63191345235629E-06	1.67452622210539E-05	3.90454818010645E-06	0.974536380834277	-0.151159504589287
7.7	0.968809273899899	0.20866420433888	3.51493228769746E-06	1.19098837375403E-07	3.30588159053414E-07	-2.92192631077316E-06	0.947849843816047	-0.272453250442949
7.8	0.982694304287245	0.12988280613461	-1.09672921598806E-05	-1.94366144569194E-06	-2.10764582275684E-07	3.43657866316081E-06	0.906333873168647	-0.389547370390272
7.9	0.99035814152016	0.0501061054628594	2.35242116297364E-06	2.03544113040355E-06	-6.93437856589054E-06	-4.7249009338088E-06	0.850794466394497	-0.500834762873045
8	0.99154031556547	-0.0307051283620705	2.35106448365537E-06	2.95524828039373E-06	-9.33443033621746E-06	-7.6036951404045E-06	0.780896647329989	-0.605525708129925
8.1	0.985093011745873	-0.110553494681517	3.82325184902656E-06	-3.06762882404015E-06	2.14477520325984E-06	-3.18234281878894E-06	0.697402910713448	-0.698648533303671
8.2	0.972869354129031	-0.188951384477113	-4.03095993027886E-06	1.41520094183458E-06	-6.74557213180439E-06	3.61377770029104E-07	0.6041165467635	-0.780268202850764
8.3	0.954133190761108	-0.266481699930254	9.8511374036451E-06	2.95376601935563E-07	6.23635627954263E-06	1.04354853542162E-05	0.501338981155335	-0.849600633435801
8.4	0.929160930137389	-0.342275505178332	1.28200385982242E-06	2.55337772531926E-06	3.45480936596159E-06	1.82157057127383E-06	0.390974024006766	-0.905694512520021
8.5	0.898134737807994	-0.416073464704364	-4.84312619549887E-06	4.95253510661507E-06	2.85413677680793E-06	-3.01573937349654E-06	0.274159107204675	-0.948004012684549
8.6	0.861282942874003	-0.486927772197149	-4.49979898104888E-06	2.08298724448459E-06	-3.04498184671815E-06	8.11335917149238E-06	0.152389312859039	-0.975351366307736
8.7	0.819042107510616	-0.554771522219982	-1.02225356949123E-06	1.2155636637429E-06	-6.46965909718949E-07	3.46344943848859E-06	0.0280220078641217	-0.986650224656878
8.8	0.771428522344683	-0.61894941835374	-1.58663769319479E-06	3.07917783685019E-06	-6.01046069035407E-06	1.28246312919467E-06	-0.0962084536826501	-0.98225616893463
8.9	0.718934635428141	-0.679089876136913	3.17432279953295E-06	-1.83146392586128E-06	-3.16506044226663E-06	-4.57233273515521E-07	-0.218916870699568	-0.961768746964992
9	0.661729426309523	-0.734569524401581	-7.28034812504979E-06	1.34787094623503E-06	-3.97433960396246E-06	7.23428371643852E-07	-0.337257165243806	-0.927063761732318
9.1	0.600496308603475	-0.785637202748335	-3.3499088738482E-06	-1.88408412764389E-06	-9.84609719346133E-07	2.13193998447842E-06	-0.451633401210613	-0.878073666659758
9.2	0.534678474971877	-0.831622215589331	5.98146846280178E-06	-1.63134475660847E-06	1.97411929909312E-06	8.47503133056352E-06	-0.558808795819603	-0.815290852750318
9.3	0.465264561602188	-0.872011735483309	-3.40848311716077E-07	1.06950490764582E-06	1.36418487004651E-05	1.18462196427298E-05	-0.657565550200978	-0.73909557134107
9.4	0.392568670222411	-0.906156328257888	1.73759052946172E-06	-2.6580038590755E-06	4.28389478869929E-06	1.7678298930955E-06	-0.745236423248654	-0.651276475632629
9.5	0.317131901312206	-0.93451723192457	-6.50330691439356E-06	-4.91315680297152E-06	-1.93369786734854E-06	-5.71756787834445E-06	-0.823308225587713	-0.553477508307568
9.6	0.238365481798306	-0.956163400059795	-1.17044751275588E-05	-2.83552783995689E-07	-5.92903115079176E-06	-4.03337745029906E-06	-0.888432282732108	-0.444106930235214
9.7	0.158656646821299	-0.971023392906383	1.47200676941821E-06	-4.77062756875656E-07	-2.92677923287473E-06	1.64060806714209E-06	-0.937874902038649	-0.327255491531849
9.8	0.0781277821785831	-0.979338689332733	2.20982295581299E-06	1.40698563389388E-06	1.5145070725339E-05	-3.49285191756882E-06	-0.971396166248278	-0.20572535260026
9.9	-0.0028913952157107	-0.980817977968919	-3.47876265041106E-06	8.99226061093995E-06	1.37910997992762E-05	5.01583981908088E-06	-0.989243280498768	-0.0812268710506653
10	-0.0833036532708178	-0.975072369205279	-3.65351661196346E-06	1.61965809831513E-06	1.93044743272215E-05	-1.81771095569911E-05	-0.991423601344732	0.0436012234296075
10.1	-0.162436513305569	-0.962556590151409	-1.48653435121033E-06	2.30882149375741E-06	-8.44549065431001E-06	-4.33332018593503E-06	-0.979151645426052	0.168532904486371
10.2	-0.24006665505573	-0.943665526475909	-2.31787775535021E-06	-1.24639967905525E-06	-1.29706290019756E-05	7.25228185831894E-06	-0.950201608886951	0.291547332955476
10.3	-0.314873687027735	-0.917901238050668	5.78909667517286E-06	3.93861300065648E-06	-6.17242983798533E-06	1.38653011270371E-06	-0.90586541960133	0.409384431524094
10.4	-0.38686246760665	-0.886273689747382	2.11000297928249E-06	1.04822656091743E-06	6.97043980346112E-07	-8.250968252987E-06	-0.846547152219574	0.520006862247143
10.5	-0.454941576064458	-0.847681906250757	4.37119908716323E-07	-3.07481924010872E-07	-6.68521612855339E-07	-5.64167541882113E-06	-0.774513033213407	0.621444019432786
10.6	-0.517264299326872	-0.80431957074672	5.08745270830772E-06	-2.62015303470308E-06	-9.77672419125991E-06	-7.86427692133002E-06	-0.690815839085466	0.713746018345612
10.7	-0.57535332350211	-0.757414466795089	-2.81650135049601E-06	-4.95849903672657E-07	-5.2442021968771E-06	-7.15833464171772E-06	-0.59620065319031	0.794772970741022
10.8	-0.629256509974357	-0.70770848208699	-3.62260185677527E-06	-3.43520598840672E-06	-1.19424535490265E-05	9.17253624959206E-06	-0.491950015339571	0.863384735733067
10.9	-0.679474619565902	-0.655409481215495	-1.13989095715506E-05	-1.03868523794542E-05	-4.44659055701068E-06	1.09616282133635E-05	-0.380010525595628	0.917729943141059
11	-0.725461263928107	-0.601620467622802	1.01169470514742E-06	1.40757924228021E-06	8.65280904961925E-06	-5.50487063865796E-06	-0.263214942041886	0.957381570468989
11.1	-0.769326636808436	-0.545113873772742	-3.30234941855502E-07	-3.63423002354718E-06	1.01799800305792E-05	-1.02160703413194E-05	-0.141844413147057	0.984263697860327
11.2	-0.809852861941283	-0.485551893093117	-1.03766361112998E-06	-3.91605168642107E-06	2.15589423941112E-06	-6.32008303741092E-06	-0.0158574643914336	0.994951411024415
11.3	-0.846888023181148	-0.422230514676826	1.61767840610503E-06	-1.20603864615331E-05	3.56548575577526E-06	-2.83065995074771E-06	0.110756137464143	0.988787699923756
11.4	-0.878920929557106	-0.355806909107397	9.88141056489429E-07	1.64490957428588E-08	-5.68382842175469E-06	6.48232266857747E-06	0.235822504624299	0.966276849744265
11.5	-0.906453941129453	-0.286519212485085	6.55213316077572E-06	-1.259663806107E-06	8.24858374915542E-06	-3.34614973928519E-07	0.355399333635622	0.92768402380154
11.6	-0.928375343680235	-0.214721599695369	-6.55329339572948E-07	-5.32946128565759E-06	1.42970353130363E-06	-3.08680720608473E-06	0.469751369123057	0.874797972171272
11.7	-0.944470367999952	-0.140147533080237	-1.11917035236144E-07	-6.04762783326668E-06	8.84662665649325E-07	-2.66098800264008E-06	0.576417265165515	0.807466487824162
11.8	-0.954822070891111	-0.06323979283436	-1.0731329083161E-06	-7.37779990374304E-07	5.16738507395721E-06	1.06413418664915E-06	0.673408973928345	0.727119891069827
11.9	-0.958975990820964	0.0157833796389955	-3.22798074475254E-06	-5.20059877925444E-06	-5.40469945591851E-06	-7.99672514471354E-06	0.758241485675634	0.635854002367802
12	-0.955750018696361	0.0957850502428973	-2.94433170822188E-06	1.64962754456641E-06	-1.67643926527002E-05	-8.7253892180447E-06	0.830162445701048	0.53548608324373
12.1	-0.945595906815552	0.174469013222097	8.23494844334531E-07	-1.57083645379918E-06	7.89136438155668E-06	1.22758220325215E-05	0.889265883525878	0.427929854722988
12.2	-0.928537199760344	0.252424640790248	-4.10078024894444E-06	5.5663956622135E-06	4.23106292963827E-07	3.31679948448235E-06	0.935697565773969	0.313398268886772
12.3	-0.905927798447393	0.328833412750925	7.86543839570212E-06	6.38124648780877E-06	4.4776935995444E-07	1.09135732488916E-05	0.967148148563532	0.192937777521328
