# GHZ S RI R 50
0.2	0.987508648505904	-0.156503380002391	2.56575483312542E-06	2.25621710177645E-06	6.58593258224932E-06	-4.86885448922931E-06	-0.968165345153967	0.25052518837026
0.3	0.971780122204093	-0.233711718391865	-8.67938564202399E-07	-5.4660833383757E-06	-3.46241227232826E-06	-7.96629056668451E-06	-0.929428482153186	0.370577631612033
0.4	0.95080020710201	-0.309255008892551	-7.2973434287107E-06	-1.00516772664628E-06	4.4509254034424E-06	1.55616914105967E-06	-0.875761313323422	0.484910691681424
0.5	0.924191340838832	-0.383748323877592	6.21947275933957E-06	2.11679573801616E-06	-2.42092273277358E-06	-1.91646176346206E-06	-0.807444189311122	0.59282842747213
0.6	0.890720737197589	-0.455039883773169	-1.05848819728494E-05	2.46189599238806E-06	-2.22453591504485E-06	-1.01149766552286E-06	-0.72527362305637	0.689379267287144
0.7	0.852669139556012	-0.523116383743898	2.79449977859916E-06	-1.17365762259291E-06	-3.00241978893929E-06	5.80521078562335E-06	-0.632964859998631	0.77530742586742
0.8	0.809239846186392	-0.588677610071444	1.18729588578132E-06	-8.50680826953463E-06	-6.64319138187633E-06	-3.08661031317715E-06	-0.53023669932206	0.849141962354703
0.9	0.760463802627571	-0.650821351249561	-1.15100196587935E-06	-6.84335405256658E-07	2.55501675892952E-06	6.57095947995357E-06	-0.418982263294196	0.909297691613444
1	0.706615425460565	-0.708480712925564	-2.75449012211645E-06	-3.23632047675422E-06	-4.03968433847063E-07	-7.34543989979279E-06	-0.301255422827574	0.95479060444778
1.1	0.649994983605039	-0.76202445002987	1.81648361519978E-06	-4.9612017047795E-06	2.2819573174928E-06	-5.15531303376124E-06	-0.178236555752516	0.985319899134223
1.2	0.587488253850161	-0.812117956945646	-2.50717865941546E-06	2.50228808911475E-06	9.30337260417012E-07	-9.14776056002341E-07	-0.0519243126732116	0.999639214328396
1.3	0.519347594912695	-0.857072437117597	-1.54438376621706E-06	7.23202847976451E-07	-1.36074169255582E-06	1.47027777225978E-06	0.075335586142844	0.997824951431503
1.4	0.447897701130807	-0.895444697264495	3.93479350859456E-06	-3.25728513884019E-06	2.72450439588109E-06	1.09801204036305E-05	0.201568456002916	0.9793006666127
1.5	0.376143208823575	-0.927517560775977	-5.35687973901734E-06	1.11842951710713E-06	6.60897208042574E-06	-7.23997722079267E-06	0.32428726153277	0.945667720014224
1.6	0.302040053472616	-0.956035801226134	1.77559565222187E-06	-7.77543189519276E-06	3.64970964858688E-06	1.38461737331995E-06	0.440801998173886	0.896259273565587
1.7	0.22622509045141	-0.976730027112455	-1.95214982636851E-06	-9.70927864599918E-07	-2.3989508729007E-07	-2.09645876690926E-06	0.549321017083187	0.83404415559818
1.8	0.148686929059878	-0.991389408893253	2.87349442359049E-06	5.29934001981146E-06	7.66740697513974E-09	2.04116856950057E-06	0.649549285081115	0.758285953774896
1.9	0.0709838264506784	-0.999977659802077	5.6995881949827E-06	-2.65130257667275E-06	-3.0125764124887E-06	4.21383518036009E-07	0.738567745399618	0.671469013841167
2	-0.0065363126583945	-1.00421093193626	-1.56300382668807E-06	-2.03971171077682E-06	3.25316166759025E-06	1.15400698552384E-05	0.819295841650928	0.574720608395151
2.1	-0.0879911268528884	-1.00097114146303	-7.59838798040823E-06	2.50474174005639E-06	1.23776692808916E-06	5.17837947161086E-06	0.88560270094679	0.464074312689909
2.2	-0.165982869857969	-0.990610008704736	-8.82289112337919E-07	1.4071788837552E-06	3.05846661760871E-06	7.81212852993865E-06	0.935602366801095	0.348408042312317
2.3	-0.244260422484166	-0.973896489227834	2.1629442847225E-07	7.49766299217646E-06	7.48705300348042E-07	9.40883159229418E-07	0.970819722068996	0.228564537997419
2.4	-0.32121433772516	-0.950630034793949	1.62454814641088E-06	7.20924876043299E-06	1.56209085156289E-06	6.41818254343881E-06	0.991645329814226	0.104412776419447
2.5	-0.395188821199934	-0.921804061933252	4.4036677948991E-06	-2.35188190923288E-06	-1.96734377828463E-06	-7.60564733935532E-06	0.996705716209108	-0.0209377915857667
2.6	-0.466780135701316	-0.887067068289674	6.77326224670346E-06	-6.01800962363749E-06	-1.10990226000722E-05	1.09535702557858E-05	0.985862404368788	-0.146564456088018
2.7	-0.535735608031411	-0.846970614686926	-4.40954978464993E-06	9.22231105095835E-06	-2.94727696303289E-06	-9.19260597410308E-06	0.959310042973311	-0.269969914734059
2.8	-0.600668286143506	-0.80194807639868	2.47950777361776E-06	1.13257837377933E-06	-3.13665866232182E-06	1.27290925737549E-06	0.917843782100033	-0.388716397760891
2.9	-0.661724998551278	-0.751565746098531	-5.48039592682799E-06	6.09275925698636E-06	-9.24591606824083E-06	-2.098699829914E-07	0.861072497440667	-0.500905036914554
3	-0.716672717717815	-0.695239445061083	4.60084358691969E-07	-1.48341459804145E-06	1.13844202950641E-05	1.3598423475982E-06	0.790821667521901	-0.605369869691915
3.1	-0.767961041197954	-0.63895921601388	2.5089626520897E-06	1.05032116037639E-05	4.35722081097641E-06	2.14018405491342E-06	0.70768725094009	-0.699640066206057
3.2	-0.816083251635461	-0.577302145737158	2.16965198213141E-06	6.46087118866253E-06	3.91049939192934E-06	-1.06666795595772E-05	0.613588973973258	-0.78218156657239
3.3	-0.85874910522831	-0.511484034545723	3.13389536805597E-06	4.93853369774118E-06	-2.32150470584472E-06	-9.65997220495265E-06	0.508722277975827	-0.852509030188546
3.4	-0.894389537968289	-0.44255758890583	2.09937825261162E-06	-2.6230485327008E-06	5.96825107986219E-06	1.32499763179744E-06	0.397390143716138	-0.90749738210212
3.5	-0.924596652953113	-0.372177732860704	-3.23071916250504E-06	9.68326727813363E-07	-2.04772629142205E-06	3.43510466541463E-06	0.283062417452457	-0.948592728169567
3.6	-0.952675179809928	-0.298839105620471	-1.84507159946789E-06	-3.73363929151871E-06	-7.79963329788454E-06	4.17411389586302E-06	0.161137717213799	-0.97926916930277
3.7	-0.972933835159915	-0.222378732477167	7.46536051790704E-07	-8.33659445901275E-06	1.08048635154426E-05	3.59981454110377E-06	0.0348427913629188	-0.990874940283322
3.8	-0.986798891569128	-0.144197495471979	1.06120468526177E-07	1.54491785108743E-06	-6.4598243361861E-06	6.00691463627469E-06	-0.0898550052213356	-0.986148676948225
3.9	-0.99389510021366	-0.0659017722948646	-2.66895763240111E-06	-4.99967352940937E-06	-3.62951028088882E-06	8.04976676934255E-06	-0.213916581556303	-0.966450324416416
4	-0.994411980119846	0.0128969345184091	7.12057899058132E-06	-4.49183488956577E-07	-1.05562000912538E-06	-1.19492934693838E-06	-0.33337962953265	-0.932974123995125
4.1	-0.989932298968078	0.0901257978030402	6.13957492062928E-07	-4.49121628892536E-07	7.2904537139431E-06	-4.8194330972919E-06	-0.449535968774602	-0.882688363951308
4.2	-0.979844829757332	0.167468526807207	3.21599900001123E-06	2.06693072992244E-06	-7.23528797709197E-07	-7.53091882169465E-07	-0.556699572568732	-0.817796642407423
4.3	-0.964121579562676	0.242973223236545	-3.16745783351204E-06	1.39547249424084E-06	-4.95478043657404E-06	3.01544150977761E-06	-0.654454538712445	-0.741358548007612
4.4	-0.943092281615687	0.318127431153817	8.21775666556371E-07	2.6295972868496E-06	1.48729069936067E-06	-8.32255625231859E-06	-0.742085155478626	-0.653499581224831
4.5	-0.913070153176948	0.393591625145476	1.81389649660721E-06	-9.54977381756233E-07	7.62260558392533E-06	-3.22724877290921E-07	-0.81870285121394	-0.554707968582104
4.6	-0.876548990312413	0.461809094069791	-6.66430392677518E-07	6.11938478564776E-06	-1.23721933427006E-05	-6.34453976014153E-06	-0.881125832809494	-0.447195420180199
4.7	-0.838024868537673	0.526878894069742	1.22032942913644E-06	2.49031461641863E-06	1.4329727705796E-06	1.84615292712127E-06	-0.930431472652524	-0.333089050815041
4.8	-0.793543541549483	0.591009453970187	-5.05233663956251E-06	1.11284204900501E-05	5.30017809767908E-06	9.6002069882626E-06	-0.964785572713933	-0.212781635053732
4.9	-0.743584996224798	0.65158588615037	1.2222122146707E-06	2.90351080746616E-06	-5.50878298482589E-07	-6.87099922865532E-06	-0.983271999992616	-0.0876988666689602
5	-0.687201889060148	0.704947987270521	4.6880954541036E-06	-9.47042627755028E-07	-3.68444546400354E-06	2.4367884199493E-06	-0.981758737077715	0.0368435666236575
5.1	-0.632326696862864	0.754205517427747	4.09391212064143E-06	-1.65687335918307E-07	-2.69232411703725E-06	-9.70351812944718E-06	-0.96993229884383	0.156594278587546
5.2	-0.572155312741895	0.802518700565234	2.51413277667809E-06	-1.48685427631387E-05	1.38111798317308E-06	2.78861915865009E-06	-0.943132186251072	0.27753670223743
5.3	-0.507464060856473	0.845581856015346	-8.63048603964684E-06	-7.33814407203043E-07	-1.12327088255636E-06	1.62768472227534E-07	-0.900326744867911	0.393790554830259
5.4	-0.439515764995444	0.88332941237598	-7.14415415592886E-06	-1.09284115627362E-05	-1.35706388527309E-05	1.11228694990942E-05	-0.843206337909883	0.502643771445214
5.5	-0.368021662312732	0.914679584806948	1.89061443362199E-06	8.4614930929472E-08	-2.22456290656343E-06	1.77477676614846E-06	-0.774882974098051	0.603144729167883
5.6	-0.295820324025208	0.93891679253997	-2.37628057350975E-06	3.49504847620714E-06	-1.32627333083645E-06	1.28401439793048E-06	-0.693890391266003	0.695785282424511
5.7	-0.222259149673695	0.959040215517623	1.29793184300468E-06	1.21574238433123E-06	5.7083233066308E-06	-1.36529984523479E-07	-0.601389683307911	0.776874036454893
5.8	-0.147305150345754	0.972943725899836	2.68374278698967E-06	4.20801665733737E-06	-2.08021447628934E-06	4.20219528034103E-06	-0.49959669778808	0.844969070916833
5.9	-0.072668872781777	0.981911663628908	-6.80339920957662E-06	-2.27569271058074E-06	-7.84723777520967E-08	6.21451342257235E-06	-0.391865983365959	0.899796993434864
6	0.00491807003135369	0.988526114231353	-1.77767306946548E-06	8.15623290178103E-08	-5.3981706117087E-06	-4.3757774328505E-06	-0.277878499312975	0.943980012837606
6.1	0.0854189540480256	0.982987035038052	5.87449673164836E-08	-9.85021637614312E-06	-9.71416083275923E-07	-3.19566153279302E-06	-0.156157000186847	0.970752203712111
6.2	0.161946600395466	0.971244000586461	-1.01879662656433E-06	3.08806318721807E-06	-1.75207783266957E-06	4.1805644304687E-06	-0.0336900503322677	0.981463197262751
6.3	0.237073743156535	0.955011832785424	-8.04868519726295E-07	2.80757874003673E-06	-2.92073189316756E-06	2.37191584233718E-06	0.0887041249449473	0.977775172109502
6.4	0.31178610216293	0.934884149464474	-5.94573951541655E-06	5.49881141117758E-06	-2.36594672000103E-06	-7.50243902186801E-07	0.210785691795256	0.960645760122856
6.5	0.389136245225697	0.905703568668163	1.3885438140623E-06	-5.25222712724795E-06	-1.44522015993116E-06	-2.36270554176884E-06	0.334083518342424	0.92530255618224
6.6	0.455907989834937	0.868389644104435	3.62053642853378E-06	2.02401422019548E-07	1.11969194965553E-05	-2.67064182124661E-06	0.444668233668079	0.872348457201874
6.7	0.52082499339351	0.830716838143207	-7.68765778374006E-07	8.38060691182671E-07	-3.73475776344709E-06	5.17382830021434E-06	0.548149007744044	0.810587738314308
6.8	0.584011424478854	0.787912469716911	-1.74487025289612E-06	4.43535553455644E-06	1.43965925720045E-06	-8.70854397067476E-07	0.644191949964766	0.73632443673683
6.9	0.64386568304076	0.740343031742353	5.83997104403542E-06	2.2436134063739E-06	-9.29067508067043E-07	2.38308659626475E-06	0.730151091437387	0.650930129849881
7	0.700826315179726	0.68786873856931	1.16125996295157E-06	-4.09707244568576E-06	-1.43610310510093E-06	2.87490645298143E-06	0.806218286379032	0.555747719729448
7.1	0.752666273288538	0.630071880553868	2.43206888721103E-07	-7.10731253575498E-07	1.89322214225792E-06	9.12871435858921E-06	0.869147392728009	0.450003648070974
7.2	0.799479308804446	0.568620394890536	1.3889215066165E-06	-2.38553133831991E-06	-9.50543258141577E-07	-8.50222326796837E-06	0.917586341478818	0.338073397291897
7.3	0.841131116538314	0.50324968497165	4.75403410474765E-06	7.18849437681881E-06	-9.64186589388774E-06	2.26001327528551E-06	0.951118394011444	0.220759316084607
7.4	0.87645095832211	0.435037290760623	5.03647704634563E-06	-6.49154532079074E-07	1.96417464039207E-06	-9.50979383880163E-06	0.968225763504478	0.10117624390513
7.5	0.907986484692542	0.368105099700469	2.76149811302404E-06	-5.19361041555385E-06	2.14444627393148E-06	-7.14019785375938E-06	0.97422018213649	-0.0148344502759466
7.6	0.937728647793265	0.294406942181949	-2.31057253335577E-07	-5.57849095621922E-06	1.65303886982085E-05	4.06071512996567E-06	0.968507614642907	-0.138135555307153
7.7	0.958908174621602	0.218154161560254	3.48213679672758E-06	1.61103516342556E-07	3.63441608514828E-07	-2.89182631420391E-06	0.944055283230277	-0.258977517408438
7.8	0.973735894399848	0.141368492111622	-1.08520477292062E-05	-2.07953690545479E-06	-2.5655069588448E-07	3.40597023426498E-06	0.905189807966244	-0.375004752335367
7.9	0.98337385007453	0.0651679387528006	2.3027649193576E-06	2.06202730344085E-06	-6.80956269940738E-06	-4.81153214943758E-06	0.854038381790626	-0.484594385032605
8	0.992469013210959	-0.0147062579424528	2.29831765450018E-06	3.00081265515188E-06	-9.20116734048723E-06	-7.78151753335566E-06	0.792246560869447	-0.593861864922195
8.1	0.987023873259771	-0.099567850695623	3.87395911029176E-06	-3.02580097188251E-06	2.19240922359785E-06	-3.16286543458842E-06	0.706343785071939	-0.693028788949072
8.2	0.97443563116615	-0.17829085419362	-4.05513537804419E-06	1.37059054514166E-06	-6.76249351913039E-06	2.82951452714229E-07	0.612051763193675	-0.775028858377625
8.3	0.956614739564191	-0.255748910821749	9.86632319964383E-06	4.05459076867352E-07	6.13202315383061E-06	1.05243890222824E-05	0.509634206130185	-0.844997900533222
8.4	0.933020172453706	-0.33176231929896	1.25860691627811E-06	2.57074711081206E-06	3.44258522926869E-06	1.85948119834224E-06	0.399755249450834	-0.901617230801304
8.5	0.903456992721553	-0.406568482344352	-4.89511060418466E-06	4.90221455467124E-06	2.88578650729017E-06	-2.98608978205093E-06	0.28522100169609	-0.945077112845564
8.6	0.867353753532446	-0.478292486776563	-4.53193849287625E-06	2.03181909383856E-06	-3.14776196298572E-06	8.08910556434764E-06	0.163562248865618	-0.976070830396872
8.7	0.826210993551196	-0.547032450811041	-1.03983577170143E-06	1.20749589715293E-06	-6.89727173577161E-07	3.46706542972003E-06	0.0380620078103426	-0.989685960814939
8.8	0.779509962380152	-0.612592055391597	-1.62806983849923E-06	3.07665624315272E-06	-6.05356435501464E-06	1.22274906192354E-06	-0.0879407616993747	-0.987347663517764
8.9	0.727061365084846	-0.674312739479795	3.21083975146934E-06	-1.8155715939338E-06	-3.18152393083453E-06	-4.87837987690872E-07	-0.214001225526668	-0.967264481939655
9	0.669849935504857	-0.729506059755509	-7.31672832469821E-06	1.30866517379786E-06	-3.99412404732663E-06	7.01978097703748E-07	-0.331453490203945	-0.929131118068234
9.1	0.610170957829857	-0.781804634790757	-3.345016255644E-06	-1.91693311456037E-06	-1.0048548108885E-06	2.1305576351269E-06	-0.444069211724353	-0.883368013763601
9.2	0.54462674217148	-0.829214413727175	6.01522095059918E-06	-1.58682421395154E-06	1.90990471094837E-06	8.52003468109764E-06	-0.552329757003197	-0.822366417981833
9.3	0.475099338749169	-0.870598707676128	-3.51091523353072E-07	1.069772669263E-06	1.3580611028984E-05	1.19993569126218E-05	-0.651971699720144	-0.747361476158632
9.4	0.402051549291936	-0.904041184100307	1.76518950986997E-06	-2.6457080296604E-06	4.27377746030703E-06	1.81074704871784E-06	-0.73963226987006	-0.659852831659936
9.5	0.332181559432483	-0.932735068319136	-6.44655468012322E-06	-5.0240281853667E-06	-1.85275614459467E-06	-5.76178943606374E-06	-0.816720633171557	-0.568036416536369
9.6	0.252737573051804	-0.961539209601128	-1.17956693981987E-05	-4.44823487659415E-07	-5.92239683634622E-06	-4.14665729501995E-06	-0.889687215911872	-0.460867894580901
9.7	0.169957544147993	-0.978524607556469	1.49053809278696E-06	-4.64631204535132E-07	-2.97146935832285E-06	1.62206075700102E-06	-0.943110689517297	-0.341859109509475
9.8	0.0875032325416037	-0.987726214836359	2.2155292919228E-06	1.44298762879692E-06	1.53210865069942E-05	-3.36719945234951E-06	-0.979269666805474	-0.218496062024481
9.9	0.00561779310040642	-0.989958136773475	-3.60354616236003E-06	9.04854354241763E-06	1.38806015149917E-05	5.20398525851012E-06	-0.99940345641346	-0.0916736999776505
10	-0.0759655119348428	-0.986764343452997	-3.70772048934445E-06	1.60720131596138E-06	1.96711614812735E-05	-1.8218409596618E-05	-1.00250933717502	0.0351545573930559
10.1	-0.158263276779589	-0.974638398858172	-1.5200886413648E-06	2.32155419961345E-06	-8.50063964794158E-06	-4.44444894177885E-06	-0.992139637126891	0.161481729746114
10.2	-0.237237556669908	-0.955646052536655	-2.3333035728782E-06	-1.2789723696327E-06	-1.3172541825096E-05	7.22684832104823E-06	-0.965062536855237	0.28687264105334
10.3	-0.313404842036639	-0.930426010311752	5.82704790736523E-06	4.03519866062595E-06	-6.25957074016077E-06	1.35192481832544E-06	-0.92260380328581	0.407638976859322
10.4	-0.387365821337571	-0.899205008698835	2.13218867174575E-06	1.08097130532336E-06	7.7536393529607E-07	-8.36581452485336E-06	-0.865310902184601	0.523423762068947
10.5	-0.457251229380763	-0.860214192486051	4.45975474351856E-07	-3.10727627666837E-07	-6.5415743099376E-07	-5.74090145933905E-06	-0.788796008743785	0.632204934108196
10.6	-0.521463508334164	-0.816667564387605	5.17031817415024E-06	-2.64861536655962E-06	-9.90748213890388E-06	-8.00501816632947E-06	-0.700536051163476	0.723624995747019
10.7	-0.581482324553932	-0.76918508104725	-2.85676954315148E-06	-5.07383738882848E-07	-5.30963639212327E-06	-7.27063475601613E-06	-0.604486531271701	0.805074459620329
10.8	-0.637793246518027	-0.718707508165647	-3.67446847966103E-06	-3.4870357361702E-06	-1.21213231536235E-05	9.30261625726226E-06	-0.498565077149083	0.874922452679855
10.9	-0.691293180378189	-0.663294214628451	-1.15864866822128E-05	-1.05079009779475E-05	-4.48387270988058E-06	1.11287618532117E-05	-0.383386683813482	0.930908135408548
11	-0.733898383830755	-0.605011596948428	1.02474063226501E-06	1.41870772248418E-06	8.72290806516415E-06	-5.57820644462833E-06	-0.263042621293355	0.967251910945877
11.1	-0.77776833637844	-0.55183686470725	-3.32311068395521E-07	-3.67552533943367E-06	1.02999043181544E-05	-1.03270725609858E-05	-0.143278544889827	0.994313685910648
11.2	-0.821117750391253	-0.491484725265487	-1.05380098870597E-06	-3.96531553227806E-06	2.17878556863143E-06	-6.40240794079153E-06	-0.0153743343630721	1.00629769580979
11.3	-0.859813759168164	-0.425946973184455	1.61310994925128E-06	-1.22208620267124E-05	3.60589565885535E-06	-2.87509557079492E-06	0.113585020463991	1.00024769408315
11.4	-0.891374322729011	-0.35671231422521	1.00019022383572E-06	1.37962170322342E-08	-5.73414876718531E-06	6.57746376371831E-06	0.240841622925498	0.977074678316682
11.5	-0.91772272359323	-0.288969299717195	6.63374881800654E-06	-1.28781121760452E-06	8.35362491388124E-06	-3.54023851241747E-07	0.362622464778311	0.937278248842042
11.6	-0.943548513964899	-0.215479638167324	-6.86040906431156E-07	-5.40159447953596E-06	1.43730176043481E-06	-3.13589103308588E-06	0.478482092075588	0.882461020165779
11.7	-0.960056047994198	-0.137088406008385	-1.4749004643491E-07	-6.1267385835129E-06	8.81324498143034E-07	-2.70106263628523E-06	0.585892989350028	0.81332293618307
11.8	-0.969601674972068	-0.0570430725301144	-1.09083636548295E-06	-7.39722151966234E-07	5.2365246746634E-06	1.04350760546787E-06	0.68283769965233	0.731475512344138
11.9	-0.972161487402029	0.0251366889739713	-3.29471666297007E-06	-5.23850029354824E-06	-5.51217401007472E-06	-8.05235839321735E-06	0.76710748767165	0.641174271881704
12	-0.965798784956437	0.10713780022349	-2.97235434722014E-06	1.68893685013695E-06	-1.70345175680318E-05	-8.73595776221379E-06	0.845715447616968	0.541391529085433
12.1	-0.953743262851914	0.186307360543327	8.19259154776291E-07	-1.59723125972276E-06	8.09741604864762E-06	1.23527938169937E-05	0.905707300639115	0.426006940175351
12.2	-0.934912457417756	0.264630460550286	-4.09155268380347E-06	5.6644376060194E-06	4.59063053931798E-07	3.34802803219399E-06	0.950015175378523	0.308178203929141
12.3	-0.911256799077351	0.341193942826285	8.00700061378219E-06	6.37247052409443E-06	5.55830770165842E-07	1.10218257696739E-05	0.980190068098524	0.185610419169607
