# GHZ S RI R 50
0.2	0.985382899863107	-0.156917253583175	2.56387040765867E-06	2.24823307635354E-06	6.56627133940448E-06	-4.86848314720627E-06	-0.965879638136798	0.252020044982163
0.3	0.96927433446357	-0.233945088522364	-8.75090735232966E-07	-5.45057492191709E-06	-3.46719984064467E-06	-7.93991830115767E-06	-0.925993284605137	0.372023058142073
0.4	0.947696369934143	-0.309150307227791	-7.27377554183484E-06	-9.87996776136139E-07	4.43831651120377E-06	1.54240684696138E-06	-0.870975595092131	0.485609750760171
0.5	0.920883872715016	-0.382378487110963	6.19449358762678E-06	2.10231697367055E-06	-2.4121405512563E-06	-1.90611787818142E-06	-0.802415318540217	0.591408470975404
0.6	0.888111707263634	-0.453533405900915	-1.0543972390105E-05	2.46047070371095E-06	-2.21704681201551E-06	-1.00614600130767E-06	-0.721033259473588	0.687731694085514
0.7	0.849839768595317	-0.521465599281497	2.78188336328321E-06	-1.17172247883048E-06	-2.98421513394094E-06	5.78456843932316E-06	-0.628347181733452	0.773039480479732
0.8	0.80628653595402	-0.586469389646893	1.17406416489858E-06	-8.46868593283216E-06	-6.61539044207946E-06	-3.06632518342955E-06	-0.525668260137851	0.845766494226918
0.9	0.757744709398794	-0.647932142986035	-1.14564361582163E-06	-6.8023998022484E-07	2.54607177254954E-06	6.53659636757399E-06	-0.414891776505285	0.904845972792637
1	0.704400222255065	-0.705516542036842	-2.74136918332508E-06	-3.21900063069008E-06	-4.04038994267097E-07	-7.30782709668909E-06	-0.297922197423417	0.949327240264765
1.1	0.64750135214538	-0.758777708557845	1.80628468117387E-06	-4.93472730706746E-06	2.26924171949599E-06	-5.12783824851713E-06	-0.176247384364451	0.979092315787129
1.2	0.585311739063813	-0.808287799672809	-2.49474257162948E-06	2.48758637141636E-06	9.25716319074056E-07	-9.09395161149918E-07	-0.051605025487261	0.993253427964976
1.3	0.517901005096777	-0.852939293646844	-1.53749445389746E-06	7.17711276585397E-07	-1.35567383469881E-06	1.46125363974196E-06	0.0737869900260095	0.992053330727548
1.4	0.447311105202412	-0.891829449061313	3.92350057120927E-06	-3.23686721422662E-06	2.69459108962907E-06	1.09379821688272E-05	0.198861366861523	0.974512457773212
1.5	0.374212555576361	-0.924213387750815	-5.33608028616475E-06	1.10740789527821E-06	6.59031236321123E-06	-7.20216424222969E-06	0.320429426959732	0.94116090629293
1.6	0.300543944656905	-0.950353309826436	1.77715010064402E-06	-7.73431816131884E-06	3.62967400268106E-06	1.38260098408115E-06	0.43636348261292	0.89274392747844
1.7	0.226092370460523	-0.970441850702251	-1.93996700484046E-06	-9.68991130500238E-07	-2.35050657093836E-07	-2.0855467951281E-06	0.544579393087501	0.830833908213753
1.8	0.149429228034523	-0.984951697946456	2.84795332394136E-06	5.27492986138701E-06	3.9619518386975E-09	2.02979413072492E-06	0.644522885081481	0.755520290060415
1.9	0.0719107449963535	-0.993321118719907	5.66778326959267E-06	-2.62886121527788E-06	-2.99468472725013E-06	4.15493247370603E-07	0.733693223794677	0.668301862033109
2	-0.0048153131366476	-0.99530225979022	-1.54527861679229E-06	-2.02388396493898E-06	3.20365868846424E-06	1.14408579599724E-05	0.810877706569808	0.570371133884442
2.1	-0.0829355939219832	-0.992308807803981	-7.54634416994955E-06	2.44711562155862E-06	1.20245122296273E-06	5.14065678402685E-06	0.875579173403675	0.464660209729243
2.2	-0.159518772859055	-0.983080297708683	-8.83064212683381E-07	1.39219245168589E-06	2.9953100954583E-06	7.77021274807714E-06	0.927125806529571	0.351213826743863
2.3	-0.236582996433863	-0.967244515242301	1.74297798383864E-07	7.44530348025068E-06	7.38283835392512E-07	9.38205633175317E-07	0.963384048399943	0.232543689463992
2.4	-0.312320416757562	-0.945057108760762	1.57148958766585E-06	7.16679311834018E-06	1.51402258370512E-06	6.38105038220697E-06	0.98495387549852	0.109290214466575
2.5	-0.385355237744963	-0.917683377777717	4.38710977956435E-06	-2.30581652922127E-06	-1.9030166291982E-06	-7.56327405995494E-06	0.990278596600614	-0.0148023453199598
2.6	-0.456347497501231	-0.884232481332871	6.76916265474762E-06	-5.92675227040975E-06	-1.11001996982143E-05	1.07963555566218E-05	0.98050234975627	-0.138969840434254
2.7	-0.524601364023749	-0.845427566524537	-4.45249490522865E-06	9.12125602256573E-06	-2.85228999178022E-06	-9.15101790417073E-06	0.954950600503888	-0.260975073655872
2.8	-0.588640920305856	-0.80196518664374	2.45173092946684E-06	1.14724702693488E-06	-3.12621842996643E-06	1.23532424051277E-06	0.915219403041699	-0.378243324489428
2.9	-0.648766655444573	-0.754299481760007	-5.50703111665963E-06	5.99319309159214E-06	-9.18028110005475E-06	-3.05898131726991E-07	0.860762225707977	-0.489706674254955
3	-0.706194320916162	-0.701583341034732	4.75914908919813E-07	-1.47032970392631E-06	1.13105547849319E-05	1.49224808906897E-06	0.792634533903182	-0.594049201335509
3.1	-0.75903840383433	-0.644408610740309	2.37777005961531E-06	1.04942041736117E-05	4.31651225216004E-06	2.18304916119668E-06	0.71218023863786	-0.688256657492367
3.2	-0.807046549164904	-0.583699359693388	2.08754349257486E-06	6.46634869040675E-06	4.02303066002573E-06	-1.05882362480604E-05	0.620794275876994	-0.772003089865391
3.3	-0.850422006080864	-0.519560590225699	3.0682016587936E-06	4.96650457012706E-06	-2.20054663076177E-06	-9.66880805714702E-06	0.518499239092975	-0.844319941009152
3.4	-0.88816634360274	-0.452332745696888	2.13038890420776E-06	-2.59891048735314E-06	5.95369971712414E-06	1.39500980053135E-06	0.40914476720146	-0.903175268442291
3.5	-0.921007300599413	-0.380315562163995	-3.23945996587521E-06	9.41282935079727E-07	-2.07703604410715E-06	3.41847241570475E-06	0.291492752880252	-0.94756789738604
3.6	-0.947597832128073	-0.307115878186543	-1.8046378877335E-06	-3.74448619431487E-06	-7.82544450119576E-06	4.08901852113285E-06	0.17043666738149	-0.976181952495819
3.7	-0.968878243964834	-0.232428296091727	8.38849618237638E-07	-8.32197994853144E-06	1.07565962912113E-05	3.71747159955195E-06	0.0462215613244068	-0.990045999912719
3.8	-0.984478756918046	-0.155189456593577	8.88250678733174E-08	1.54683379860908E-06	-6.53029483265852E-06	5.93720563598466E-06	-0.0782892265847478	-0.988236979865894
3.9	-0.993512371086287	-0.0774645317827555	-2.6172568304981E-06	-5.03358496921435E-06	-3.72053979093321E-06	8.01824004756292E-06	-0.203581506843328	-0.97091819505615
4	-0.996471400772894	0.00149806721033805	7.13223369602259E-06	-3.65477751892965E-07	-1.04244708939069E-06	-1.20846349108163E-06	-0.323927616728759	-0.937818572228372
4.1	-0.99349832238951	0.079786763906786	6.21159490109092E-07	-4.42823555037769E-07	7.36967015484366E-06	-4.74323224344664E-06	-0.439817281883155	-0.889758181663614
4.2	-0.984455709864289	0.157919796711982	3.20436082414789E-06	2.11192981958139E-06	-7.17583738932185E-07	-7.64311271898466E-07	-0.548573184404959	-0.827004617633677
4.3	-0.969377733119414	0.234189332892381	-3.19597187130781E-06	1.36784653941195E-06	-5.00823037617458E-06	2.97582423484132E-06	-0.648278154193072	-0.751890619891307
4.4	-0.948201969567934	0.309053704926016	7.99778686436654E-07	2.64679968980225E-06	1.57153840559162E-06	-8.33823140810171E-06	-0.737668929776027	-0.664748992039301
4.5	-0.921606726696502	0.382086569726818	1.82845451541837E-06	-9.35453099354914E-07	7.64047212132324E-06	-2.33861037227804E-07	-0.816045422777114	-0.567269600287203
4.6	-0.888848627956627	0.45425926805665	-7.50275722741704E-07	6.14076270024934E-06	-1.23496278330643E-05	-6.53868051841339E-06	-0.881352452855819	-0.459977814164111
4.7	-0.85051801753501	0.522084183625174	1.19732108395404E-06	2.5215766057112E-06	1.41933502999567E-06	1.87588499727668E-06	-0.932770242508616	-0.34556150730947
4.8	-0.806285295000388	0.587856115848394	-5.22647617443473E-06	1.1149206748262E-05	5.22180226055978E-06	9.73665977980645E-06	-0.968980500457917	-0.225134866736117
4.9	-0.757583946977524	0.649231718968366	1.19493609148859E-06	2.9456782186832E-06	-4.65310273905618E-07	-6.93994189937266E-06	-0.989891588128425	-0.101022345975419
5	-0.704264244512792	0.707406456067577	4.76358665896457E-06	-9.03968087314423E-07	-3.76400585610042E-06	2.42610246342924E-06	-0.995176300583814	0.0253469455719318
5.1	-0.645327481527951	0.760827371793491	4.15067760888744E-06	-1.35960727022814E-07	-2.65302431214745E-06	-9.85602436608669E-06	-0.983541475103855	0.151110184425182
5.2	-0.583286011055992	0.809527556108922	2.64921013907814E-06	-1.50456254105221E-05	1.38000233245591E-06	2.83456708661376E-06	-0.956555174944044	0.274013841255765
5.3	-0.517686083762306	0.853484342612881	-8.74211598174951E-06	-7.93033971753389E-07	-1.13927716987165E-06	1.58527212451079E-07	-0.914416996059603	0.392642074505953
5.4	-0.44875379446649	0.892108443155048	-7.19961070302193E-06	-1.10989780473755E-05	-1.37905336805988E-05	1.12215853066321E-05	-0.857464714545622	0.504580649853393
5.5	-0.377122577370154	0.924647385030201	1.90989582909914E-06	9.13615921171799E-08	-2.25307147182005E-06	1.78621434436436E-06	-0.787796352342256	0.60829163574201
5.6	-0.303227699663141	0.951126872261366	-2.42143440860741E-06	3.52256989460042E-06	-1.34802573217352E-06	1.2917800636177E-06	-0.705247157439128	0.702507551736323
5.7	-0.227465086214966	0.972290909634737	1.30933882490627E-06	1.23754058241076E-06	5.78350065128187E-06	-1.12277953057271E-07	-0.611657733636956	0.785455414193855
5.8	-0.150109834665605	0.987080588926695	2.70932146338197E-06	4.27798141538006E-06	-2.12405136132327E-06	4.25675014620072E-06	-0.50818761839684	0.855844087678774
5.9	-0.0717376436683604	0.995824465884046	-6.91358662558669E-06	-2.31165921116794E-06	-7.90086777950865E-08	6.31492782195085E-06	-0.397083803384239	0.912589364905057
6	0.00624407138967733	0.998070485464832	-1.79798439203162E-06	8.99987969545954E-08	-5.47932616986728E-06	-4.40387909759541E-06	-0.280481919631769	0.954696240253139
6.1	0.0847421012823238	0.995143406285171	5.49012093397157E-08	-9.94876379202904E-06	-9.82569732645822E-07	-3.2271872441389E-06	-0.159242638739966	0.983166097001603
6.2	0.164052354226426	0.985227688962889	-1.03025096698014E-06	3.12397680462682E-06	-1.77190652703702E-06	4.22922654988907E-06	-0.0337025875030667	0.995573072773297
6.3	0.242399473075687	0.968480468022043	-8.11359944369487E-07	2.8424583883977E-06	-2.95331220260028E-06	2.40397006105265E-06	0.0923857569529269	0.991471084854124
6.4	0.318532543600248	0.945245810342671	-5.99736384174205E-06	5.56805999298428E-06	-2.39221737332872E-06	-7.53498291328637E-07	0.216606943567541	0.971142032519059
6.5	0.392282267640073	0.917462712117937	1.41464544036555E-06	-5.30155963208577E-06	-1.45419161057531E-06	-2.38970809197223E-06	0.336643410009328	0.936561688757514
6.6	0.464638839343966	0.883121440705351	3.67544576746053E-06	2.09514735565082E-07	1.13704032556229E-05	-2.69884464011126E-06	0.452877661322325	0.886472596151765
6.7	0.533195762407125	0.842806232904881	-7.79486961201253E-07	8.53013393341595E-07	-3.78470298710539E-06	5.26417721134228E-06	0.560374438028221	0.821815312742136
6.8	0.598351864281681	0.797466969738265	-1.75602733581611E-06	4.51471592963322E-06	1.45978868223039E-06	-8.907337923014E-07	0.658722535842554	0.744509326493617
6.9	0.659658563668826	0.747090953478606	5.95560287089412E-06	2.24533108711478E-06	-9.30003168359745E-07	2.43035807627767E-06	0.746354237349263	0.655477569303132
7	0.716581813335133	0.691884125512203	1.1329003821866E-06	-4.17191075255969E-06	-1.42557911081867E-06	2.93437802012448E-06	0.82177113795242	0.556501835865731
7.1	0.768931400461172	0.632686632077797	2.39023175795976E-07	-7.21556158418851E-07	2.00631429348515E-06	9.21790696906149E-06	0.884678173407905	0.449159047979712
7.2	0.816483054598721	0.56916419746021	1.38342953240116E-06	-2.42720638988893E-06	-1.041198038624E-06	-8.59578643210174E-06	0.933516316577885	0.33463336217601
7.3	0.858800425652158	0.501756736786168	4.88078215798029E-06	7.23616319105495E-06	-9.74374092670896E-06	2.37763213436023E-06	0.967280910309571	0.214639387434877
7.4	0.89605532838855	0.430765527943913	5.11002598438759E-06	-7.08088085287038E-07	1.90345128072995E-06	-9.67947789856047E-06	0.985854160745669	0.0907718506867937
7.5	0.926636433190727	0.356635153818572	2.71946635310325E-06	-5.33306463090323E-06	2.05762016696071E-06	-7.30310868874178E-06	0.987291357785616	-0.0341533564769344
7.6	0.951627924920021	0.28134721048075	-3.44082495165595E-07	-5.63690092013103E-06	1.6797398023203E-05	3.77937192674948E-06	0.974216888345399	-0.156718887202927
7.7	0.971089545535879	0.203912269922015	3.51733559885084E-06	9.37954760825778E-08	3.09655478456017E-07	-2.92559472618844E-06	0.946740294573847	-0.277426924856905
7.8	0.984271619948872	0.124959309597979	-1.09782830613803E-05	-1.87006158175063E-06	-1.87774489455091E-07	3.43736266571469E-06	0.904535873748117	-0.394124815477129
7.9	0.99063058200609	0.0449024886055006	2.36264671576691E-06	2.01867770540648E-06	-6.95658235450243E-06	-4.6768127268817E-06	0.847760114876708	-0.504834777323229
8	0.990107728428764	-0.0338705537624706	2.35712875734457E-06	2.93926397269337E-06	-9.342435849457E-06	-7.54978262608909E-06	0.777692050052717	-0.606618609111826
8.1	0.985228245147606	-0.113045121607125	3.81532129155186E-06	-3.07666032073174E-06	2.13674633452812E-06	-3.18725025554759E-06	0.696355188206961	-0.700246352138025
8.2	0.973175546245064	-0.192046709819184	-4.03092326434209E-06	1.42847360593262E-06	-6.7513993647598E-06	3.8153965669799E-07	0.602796378387351	-0.78277783502295
8.3	0.95413589168558	-0.27001674360506	9.8665515821582E-06	2.61416772995065E-07	6.28189266499586E-06	1.04289499118316E-05	0.499341553092445	-0.852390896959965
8.4	0.928624482800218	-0.346151474702007	1.29466822511255E-06	2.55283519103625E-06	3.46846522197564E-06	1.8109045535077E-06	0.387992147286883	-0.908557193105607
8.5	0.897011455736396	-0.420101492095042	-4.8248051739764E-06	4.98688039562801E-06	2.84281952856591E-06	-3.03614433338715E-06	0.269940788965185	-0.949738181954289
8.6	0.859374748976236	-0.491167905262191	-4.49062575379795E-06	2.10922068522138E-06	-3.00137873091926E-06	8.13475554895406E-06	0.148459345173332	-0.976013126854709
8.7	0.816192878797121	-0.558822468347607	-1.01583268701275E-06	1.2209562070696E-06	-6.28679080751858E-07	3.46685289416047E-06	0.0242532681905264	-0.986862510615089
8.8	0.76782066805742	-0.622525964714738	-1.57131272202742E-06	3.08598380498807E-06	-6.00258057648537E-06	1.31115119430878E-06	-0.099842851693401	-0.982217635544731
8.9	0.714887736875242	-0.682271039980165	3.16704920385681E-06	-1.84467827246417E-06	-3.16720425061086E-06	-4.44246683738886E-07	-0.222787184740471	-0.962087339943266
9	0.65667041482159	-0.737599323258897	-7.28320330629006E-06	1.38553652027294E-06	-3.97595927391659E-06	7.43973844617043E-07	-0.343168345305608	-0.926442700447606
9.1	0.594570828807089	-0.787545508398559	-3.36304635941689E-06	-1.86434065397551E-06	-9.71945749145859E-07	2.13898135859532E-06	-0.457110490850455	-0.874838085603417
9.2	0.528324452876459	-0.832486707193395	5.96735150845237E-06	-1.66996967142583E-06	2.02903426555589E-06	8.45725867521237E-06	-0.563093501670873	-0.810469025957922
9.3	0.458760447798315	-0.871961565550387	-3.33094297111808E-07	1.07012141674604E-06	1.37003159155167E-05	1.17355102455503E-05	-0.660282889005337	-0.733287590471352
9.4	0.385608957932654	-0.905837991647866	1.7147030262478E-06	-2.66457635996705E-06	4.28708860038062E-06	1.73322568082508E-06	-0.74699112284278	-0.644865025919951
9.5	0.30889307544974	-0.932078825135969	-6.51049345371357E-06	-4.84048157961882E-06	-1.96838121169218E-06	-5.67607404897013E-06	-0.822417019484138	-0.545042087483262
9.6	0.231472902031017	-0.952305818964077	-1.16409628639724E-05	-2.13738785670376E-07	-5.91953490580767E-06	-3.97635604430943E-06	-0.884546127807988	-0.437537212578173
9.7	0.152005882635053	-0.966682951487549	1.46111140623367E-06	-4.82236445767917E-07	-2.90141250075989E-06	1.64697267598127E-06	-0.933173054508365	-0.322205596592273
9.8	0.0714336659323264	-0.974053060699007	2.2034055983385E-06	1.38697252639966E-06	1.5033723416621E-05	-3.54897450776533E-06	-0.966142125250281	-0.201791667323471
9.9	-0.00951072923129714	-0.973981745031281	-3.41275766558459E-06	8.94628610012377E-06	1.37191005696038E-05	4.91681979232002E-06	-0.983805347411056	-0.0782383877302098
10	-0.0886492802231337	-0.966313766359569	-3.62075689187407E-06	1.62200807992029E-06	1.90942511982281E-05	-1.8119734076893E-05	-0.985563506153523	0.0463987043274062
10.1	-0.166133444962694	-0.952843424096021	-1.46713209299369E-06	2.29591898459438E-06	-8.39454272742553E-06	-4.27093491726557E-06	-0.972045627965085	0.170220383909709
10.2	-0.241715428895723	-0.933191506823539	-2.30148506422231E-06	-1.23067678913986E-06	-1.28460065805466E-05	7.22196188493856E-06	-0.942619876468859	0.291397616682352
10.3	-0.314181559415591	-0.9076498417646	5.74476285640422E-06	3.89948688886776E-06	-6.11924804355096E-06	1.38144650373535E-06	-0.898545310960574	0.407263504981221
10.4	-0.384322531398927	-0.877220410272037	2.09234395964288E-06	1.0401344749874E-06	6.9343487904338E-07	-8.18279459272305E-06	-0.840471223829321	0.51597486368774
10.5	-0.451694885672722	-0.840073110062367	4.34628072407961E-07	-3.04590560270323E-07	-6.54060890111745E-07	-5.60376453314303E-06	-0.770706085737574	0.617611538566507
10.6	-0.513675224489311	-0.797623843464924	5.0619594158622E-06	-2.5985935200032E-06	-9.71083941792348E-06	-7.83236840374993E-06	-0.686319091066734	0.710451201998552
10.7	-0.571194912500584	-0.75138077461984	-2.80029972546013E-06	-4.95845814239038E-07	-5.20791970253101E-06	-7.12353706347666E-06	-0.591220144778593	0.790337758186727
10.8	-0.624354980327377	-0.702758336626299	-3.59780021877523E-06	-3.4203222663883E-06	-1.18864164090407E-05	9.10566583965099E-06	-0.487546726855003	0.857211621860499
10.9	-0.674663787097865	-0.652334736071445	-1.13259143311956E-05	-1.03556104641887E-05	-4.44349794722434E-06	1.09008022956391E-05	-0.377390866606106	0.910823867855913
11	-0.722215953618926	-0.59844582336482	1.00690706179108E-06	1.40149375643035E-06	8.61526131924239E-06	-5.47862733137433E-06	-0.260489101787519	0.951000715178752
11.1	-0.764972021801759	-0.541809295055331	-3.26358336595297E-07	-3.61304845036465E-06	1.01255967029011E-05	-1.01506102778835E-05	-0.139835963470985	0.97571133265585
11.2	-0.805153255733283	-0.48323695403299	-1.02605519987357E-06	-3.89401322293276E-06	2.1516744384445E-06	-6.27924274594532E-06	-0.0161165943978993	0.985574363030119
11.3	-0.842243323787432	-0.420856545314981	1.63220444703999E-06	-1.19869773943935E-05	3.55035208139142E-06	-2.80710598610173E-06	0.108187700814809	0.979512150990619
11.4	-0.874752203893001	-0.354978113255269	9.82448452069585E-07	1.85431165250363E-08	-5.6656485424603E-06	6.43263098153304E-06	0.231179282873096	0.957711520225773
11.5	-0.90174853783286	-0.285644119316553	6.51473949279464E-06	-1.23336508976338E-06	8.19798915356713E-06	-3.09324360826324E-07	0.349182783275074	0.920312355376872
11.6	-0.923680381740318	-0.215277873782982	-6.31777608646387E-07	-5.30123419057838E-06	1.4329361932345E-06	-3.06374257629246E-06	0.462180836538915	0.868570415934152
11.7	-0.940394648528425	-0.141351492189309	-8.77631714585092E-08	-6.01558176553952E-06	8.90274460175012E-07	-2.64325042327077E-06	0.567534191444715	0.802720155911625
11.8	-0.951247180252626	-0.0648641650935633	-1.06470395303155E-06	-7.38099047461362E-07	5.13642481913315E-06	1.07859745373244E-06	0.663605947056638	0.724098247075355
11.9	-0.955867029463706	0.013969211433424	-3.19221252270243E-06	-5.18251295126419E-06	-5.34723313458582E-06	-7.97041835023792E-06	0.747447603645319	0.634460127117404
12	-0.953009365014337	0.0938531214914906	-2.93201862681952E-06	1.62623825365813E-06	-1.66170527215885E-05	-8.73952309490663E-06	0.818457047396249	0.537622791493687
12.1	-0.942958033930184	0.172647410601644	8.25966246155827E-07	-1.55679341623079E-06	7.78085166568942E-06	1.2236428723385E-05	0.879384509199601	0.432628249744843
12.2	-0.925584981968346	0.250373095556352	-4.10465140851695E-06	5.50748402680575E-06	4.0208615526736E-07	3.29747617166913E-06	0.927109725915556	0.319900190748741
12.3	-0.902483909994986	0.325904352512514	7.7726429736478E-06	6.39031840675102E-06	3.74249110259346E-07	1.08449799110172E-05	0.960438243318566	0.201297626006465
