# GHZ S RI R 50
0.2	0.985285394749612	-0.156947323052257	2.56381203286429E-06	2.24828272098988E-06	6.56635809120064E-06	-4.86832122849327E-06	-0.965915369094389	0.25189437670617
0.3	0.969139415562505	-0.233989553665911	-8.75260895370245E-07	-5.45073338350317E-06	-3.46752056581273E-06	-7.94009238490795E-06	-0.926073819023342	0.371927434375608
0.4	0.947483996580479	-0.309264741707603	-7.27417122181586E-06	-9.87001525978839E-07	4.43869099110099E-06	1.54183260314627E-06	-0.87102416930484	0.48557673479066
0.5	0.920323405745249	-0.382416068827695	6.19370838304563E-06	2.10061797395247E-06	-2.41206030208572E-06	-1.90524190514227E-06	-0.802315016906503	0.591275786534578
0.6	0.88756084289183	-0.453147893396174	-1.05417619620467E-05	2.45989108266842E-06	-2.21657328866391E-06	-1.00594645063418E-06	-0.721081468123472	0.687522815318359
0.7	0.849476008002162	-0.520898782449511	2.78154383891741E-06	-1.17148885890359E-06	-2.98397617046107E-06	5.78371248141468E-06	-0.628366713548295	0.772906259257292
0.8	0.806138942720902	-0.585808677449069	1.17420580254296E-06	-8.46791173876753E-06	-6.61472368131726E-06	-3.06624794325642E-06	-0.525604332659194	0.845617851899119
0.9	0.757910358839075	-0.647332775936593	-1.14565088367605E-06	-6.80258192380023E-07	2.54604286043858E-06	6.53669547667104E-06	-0.414757799265785	0.904644419816335
1	0.704721341353207	-0.705409624326006	-2.74245627495854E-06	-3.21889286095933E-06	-4.05649747843642E-07	-7.30881773959565E-06	-0.297688422416859	0.949060494438884
1.1	0.647339725500093	-0.758948838406433	1.80356666479585E-06	-4.9354943698379E-06	2.26640136812518E-06	-5.12884554369654E-06	-0.175895693839527	0.978663898961697
1.2	0.584784102939494	-0.808353189519616	-2.49213788027189E-06	2.48835758423776E-06	9.2475905671927E-07	-9.09686374912575E-07	-0.0511573189909557	0.992541447708845
1.3	0.517075588634438	-0.852696652390427	-1.53584052687741E-06	7.18096439368328E-07	-1.35370353358807E-06	1.46094108938883E-06	0.0741047810917152	0.990917667112376
1.4	0.446533805209316	-0.891122904882059	3.91857415964634E-06	-3.23445252814139E-06	2.69450016924536E-06	1.09258316143384E-05	0.198719930938979	0.973215405904061
1.5	0.37337865673116	-0.923282340735111	-5.33055427853312E-06	1.10598104809445E-06	6.58378101621342E-06	-7.19429897125665E-06	0.31990628176022	0.940057896299777
1.6	0.299961370388046	-0.94864126337618	1.77825619648449E-06	-7.72565061238157E-06	3.62539766924041E-06	1.38255323479943E-06	0.435688652136818	0.89207609948859
1.7	0.226251951525368	-0.968607392319811	-1.93774644292183E-06	-9.69464795996678E-07	-2.3349644479099E-07	-2.0839932983915E-06	0.544017287754423	0.830444035082697
1.8	0.15011135173295	-0.983409549708237	2.84226103336766E-06	5.27444924908239E-06	2.34118451083211E-09	2.02873840839327E-06	0.644128497963585	0.755329105910949
1.9	0.0727648093726238	-0.992371762089048	5.66905770517861E-06	-2.62462335547466E-06	-2.99467550820949E-06	4.13351793100386E-07	0.733686710594279	0.668212340867777
2	-0.00460377243258405	-0.994581841626737	-1.54465334306395E-06	-2.02363247717522E-06	3.2013826041603E-06	1.14386882420574E-05	0.811029509193383	0.569639736175226
2.1	-0.0826610230978613	-0.991070220578214	-7.54361458360827E-06	2.44186709241039E-06	1.19912271355682E-06	5.1385543071656E-06	0.875207651252418	0.464217409084984
2.2	-0.158924257931757	-0.981752499110476	-8.83797439513325E-07	1.39119126369889E-06	2.98904184983986E-06	7.77017831416506E-06	0.927064694784447	0.351044897381855
2.3	-0.235628600770813	-0.965964823484417	1.69026698541405E-07	7.44497836295041E-06	7.37576479321131E-07	9.38670792221668E-07	0.963632501600185	0.232314788593355
2.4	-0.310952379522453	-0.944075138344673	1.56681382906562E-06	7.16886574453211E-06	1.50987547016767E-06	6.38297419807749E-06	0.985435226905792	0.10891120011682
2.5	-0.383907372526125	-0.917346367707159	4.39027546104987E-06	-2.30416164880584E-06	-1.89931396073164E-06	-7.56750338342143E-06	0.991011190028533	-0.0153964744249234
2.6	-0.455284257556216	-0.884201102045833	6.7744286381898E-06	-5.92872412423344E-06	-1.11090727349277E-05	1.08002191222703E-05	0.981425010233395	-0.14007502666049
2.7	-0.523828622898009	-0.845353660659918	-4.45343715697028E-06	9.1249751448103E-06	-2.85405283165876E-06	-9.1541832895044E-06	0.955540625422825	-0.262538279018655
2.8	-0.587945769150799	-0.801713261455721	2.45212045617054E-06	1.14704795436732E-06	-3.12637082566851E-06	1.23584565640506E-06	0.915416448455782	-0.379819642563834
2.9	-0.647920317495133	-0.754060577296857	-5.50553056414957E-06	5.99254951807591E-06	-9.17862659147483E-06	-3.05087056269716E-07	0.860726625223497	-0.491091587558346
3	-0.705764125961036	-0.701824327466048	4.76121203751178E-07	-1.46968241606995E-06	1.13061306598383E-05	1.49461007768971E-06	0.792588465613526	-0.595127500038135
3.1	-0.759192124947072	-0.643886913665308	2.37336022443714E-06	1.04924387027492E-05	4.31463720964522E-06	2.18407092310451E-06	0.712402245259343	-0.689150627357564
3.2	-0.806842825018097	-0.582687453460789	2.08378377799075E-06	6.465613270422E-06	4.02715561713678E-06	-1.05833612750548E-05	0.621283416495637	-0.772954773431147
3.3	-0.849817883942673	-0.518491629743267	3.06406458760307E-06	4.9678371649598E-06	-2.19316506866488E-06	-9.66867522742221E-06	0.519257259852759	-0.845401284540091
3.4	-0.887326554424334	-0.451616134718492	2.13354258570907E-06	-2.59740439737801E-06	5.95376938465338E-06	1.40136886657201E-06	0.41037459321187	-0.904640759643205
3.5	-0.920797880505336	-0.379602045563553	-3.242989220909E-06	9.4114511006275E-07	-2.08023105418337E-06	3.42117996112249E-06	0.292344867744646	-0.950316318775163
3.6	-0.946836738945601	-0.305721039475962	-1.80556561859493E-06	-3.74543334587171E-06	-7.82739147852233E-06	4.09105330966581E-06	0.170394652703155	-0.978548443430482
3.7	-0.967500235915364	-0.231371059697781	8.40239067809821E-07	-8.3232834273718E-06	1.07578870387174E-05	3.71971970044953E-06	0.046174772618348	-0.992320890119536
3.8	-0.982888057265603	-0.154699732881779	8.85506294935005E-08	1.54728499619548E-06	-6.53327612311156E-06	5.93760766752895E-06	-0.0785302796009641	-0.990587473044459
3.9	-0.992133544647395	-0.077609160224885	-2.61813354978799E-06	-5.03502467540589E-06	-3.72148203504966E-06	8.02069151784156E-06	-0.204133614655395	-0.973133505320191
4	-0.995854219710904	0.00115604499860302	7.1306986934846E-06	-3.65617725311554E-07	-1.04226131390675E-06	-1.2081734268021E-06	-0.324367460186934	-0.939484578694891
4.1	-0.993209750386636	0.0798842338945145	6.21272303336296E-07	-4.42449505326178E-07	7.37076091967294E-06	-4.73887822476354E-06	-0.439676120205102	-0.891729372443031
4.2	-0.984211246560953	0.15826966891483	3.20343424149486E-06	2.11416383019216E-06	-7.1719591000581E-07	-7.64846155356102E-07	-0.548588902474191	-0.829419052832102
4.3	-0.969098019515864	0.234747019524618	-3.1981396344908E-06	1.36674182553028E-06	-5.01207474358998E-06	2.97446618656775E-06	-0.648680845064426	-0.754444296726508
4.4	-0.947601101781254	0.309644271614612	8.00373155109933E-07	2.6485147851145E-06	1.57234924424817E-06	-8.34374244111263E-06	-0.738506487509466	-0.666968748610899
4.5	-0.921234833808936	0.381696736795738	1.82766216053299E-06	-9.3594161017117E-07	7.63858509093711E-06	-2.36766431240476E-07	-0.816503990375426	-0.568946687521411
4.6	-0.889702671168	0.45448673496868	-7.51507934138266E-07	6.13841326012916E-06	-1.23436767925709E-05	-6.53938401977534E-06	-0.881467635530376	-0.461908176217167
4.7	-0.851289342379182	0.523097832483637	1.19594761513442E-06	2.52116771387406E-06	1.41813175114961E-06	1.87578254835973E-06	-0.93282287296074	-0.347726327659462
4.8	-0.806713700869567	0.589220266581027	-5.23070887005539E-06	1.11407513400526E-05	5.21344909041536E-06	9.73517380068892E-06	-0.968997382792545	-0.227496541145958
4.9	-0.757695474971586	0.650392404064901	1.19061223404263E-06	2.94523193975236E-06	-4.56630632853387E-07	-6.93605252989119E-06	-0.989683258480651	-0.103881894738547
5	-0.705284185936905	0.708754524197357	4.76718958315488E-06	-8.94185937607614E-07	-3.77048298670545E-06	2.41897881325784E-06	-0.996028428022011	0.0212078939063841
5.1	-0.645329117307186	0.763483993473657	4.15536475421966E-06	-1.30467891455815E-07	-2.64250888373291E-06	-9.87032072085104E-06	-0.985625726727593	0.147797560204006
5.2	-0.582185971842928	0.811693908191243	2.66990312161443E-06	-1.50601958483517E-05	1.37831022989991E-06	2.83950805654573E-06	-0.959015833859584	0.271160446732672
5.3	-0.516307204035834	0.854956357555888	-8.75555768598869E-06	-8.02809816159723E-07	-1.14128312314281E-06	1.57678935977737E-07	-0.917419482280523	0.39036205390054
5.4	-0.447547291155822	0.893105899323795	-7.21285808624609E-06	-1.11244075479058E-05	-1.38225987634802E-05	1.12429558940507E-05	-0.86069563130401	0.50340346203896
5.5	-0.376470526047623	0.925769707623404	1.91284464169463E-06	8.95745075935389E-08	-2.25464241311869E-06	1.79115553755574E-06	-0.790171565208008	0.608044217651014
5.6	-0.302107692797141	0.953028169321118	-2.42159468376278E-06	3.52695596603732E-06	-1.34848328553851E-06	1.29364169319695E-06	-0.707087581691862	0.702026900958664
5.7	-0.225408734261909	0.974045733435128	1.31129864589323E-06	1.23822558183955E-06	5.78953046233115E-06	-1.15119452949381E-07	-0.613492735349035	0.78519040665018
5.8	-0.147345881151825	0.988287777933105	2.71562680661278E-06	4.28217040978413E-06	-2.12435706110102E-06	4.26385539848338E-06	-0.50981339573132	0.856154826780697
5.9	-0.0681727767839517	0.996180337421793	-6.93116857655619E-06	-2.30822319107157E-06	-7.15249351495254E-08	6.32852429104529E-06	-0.397822287726667	0.913785710284348
6	0.01001510495478	0.99582685024688	-1.80069229190517E-06	9.67827643957805E-08	-5.50483364567018E-06	-4.39111443372207E-06	-0.278964508028649	0.955223802379311
6.1	0.0860491593257344	0.991916670573422	1.75404223100342E-08	-9.94324486775186E-06	-9.94113193745946E-07	-3.22164344658588E-06	-0.157785608098394	0.981826131719665
6.2	0.16395142538859	0.982458972037393	-1.01849324934652E-06	3.12236247245408E-06	-1.75539098203204E-06	4.22826336860995E-06	-0.0329045634514349	0.993389434885216
6.3	0.241621289683379	0.966552151377505	-8.02029646825436E-07	2.83823035126067E-06	-2.94033889438186E-06	2.40638528882646E-06	0.0924699794972515	0.989088855051606
6.4	0.317884368499991	0.943692168593161	-5.96902683840028E-06	5.56636742469417E-06	-2.38747124517689E-06	-7.46206817885186E-07	0.216581905811154	0.968513883245514
6.5	0.390098589784304	0.916217260702056	1.40686030682667E-06	-5.2825844563888E-06	-1.44994618842228E-06	-2.380152330355E-06	0.334691013497319	0.933158543051268
6.6	0.463292116743573	0.884333255675586	3.66821555672516E-06	2.13443005623494E-07	1.1351975539641E-05	-2.68033257064406E-06	0.450286604868138	0.885303895431756
6.7	0.533187945526433	0.844102396961527	-7.79926319750687E-07	8.51499771925437E-07	-3.78814315053668E-06	5.25603050421941E-06	0.558408902710512	0.821419322059087
6.8	0.598908803620697	0.798583418515699	-1.7613022932018E-06	4.51286042439143E-06	1.46087143834458E-06	-8.8908324883565E-07	0.65722180412244	0.744651646633003
6.9	0.660596722102342	0.747972777678811	5.95875871581671E-06	2.25406903435313E-06	-9.33581963053711E-07	2.43163067506111E-06	0.745652238253119	0.655982436601614
7	0.717409077788336	0.69247464684756	1.1335661938101E-06	-4.17852952445267E-06	-1.42700178660468E-06	2.93919225556178E-06	0.821575801608799	0.556500552473302
7.1	0.769855692536954	0.633639056372785	2.38902040472856E-07	-7.21876502518111E-07	2.00963249064978E-06	9.22056336708215E-06	0.884399688302514	0.449417537775671
7.2	0.817795186562876	0.570151104378842	1.38481179167324E-06	-2.42718643307044E-06	-1.03772140806766E-06	-8.59829027112237E-06	0.93370020948274	0.33525445171206
7.3	0.860404385552251	0.502793175065713	4.8741847277898E-06	7.24508936355334E-06	-9.75073319703623E-06	2.36696512160196E-06	0.968193359819716	0.215638100153923
7.4	0.898420205261894	0.432146060721005	5.11906154511103E-06	-6.96136760196626E-07	1.9306871222313E-06	-9.68836735833429E-06	0.988490536394866	0.0920690070407367
7.5	0.930540107486681	0.35671622624369	2.74183998101389E-06	-5.35208999336842E-06	2.08071134990033E-06	-7.33230457681627E-06	0.991974758695572	-0.0355793355166348
7.6	0.954757510798957	0.280253622382569	-3.46583560619821E-07	-5.66142047346718E-06	1.68713167361392E-05	3.7928707012004E-06	0.977465349388599	-0.159844095612537
7.7	0.974059268093738	0.202386791592136	3.53320989528755E-06	9.06936649279776E-08	3.08114742909351E-07	-2.93903038944596E-06	0.949358594221249	-0.281516008497722
7.8	0.987128903997017	0.122766840246198	-1.10314121388638E-05	-1.85424112918798E-06	-1.81045268758159E-07	3.45312200863546E-06	0.906102082841572	-0.399131780367435
7.9	0.993312918724087	0.0413256862082932	2.38024103856734E-06	2.01740103749264E-06	-7.00333164330585E-06	-4.66793808649162E-06	0.847684222087404	-0.510780855116221
8	0.989743242051058	-0.0393357625296987	2.37715783467167E-06	2.92680973666478E-06	-9.39633875491088E-06	-7.49735757753169E-06	0.773564964743348	-0.611287675232591
8.1	0.983059144299859	-0.115994436521695	3.79640125852417E-06	-3.08449268242176E-06	2.12078094125029E-06	-3.18870569835094E-06	0.693206067854603	-0.700683093336659
8.2	0.971078111621812	-0.194049824381803	-4.01916335877036E-06	1.43359213657634E-06	-6.735818541261E-06	3.94521091926085E-07	0.601567364351133	-0.782471007065251
8.3	0.95189324492297	-0.271519391801685	9.84523778410274E-06	2.50268981393989E-07	6.27932254200765E-06	1.03993916728679E-05	0.499287985136261	-0.852107100040282
8.4	0.926199608041242	-0.347175246746372	1.29245518226768E-06	2.54734536830071E-06	3.46164162311225E-06	1.80655645476118E-06	0.388702962810185	-0.908694909774737
8.5	0.894448151603988	-0.420499448231322	-4.82061162385358E-06	4.9802064279116E-06	2.84037158548162E-06	-3.03210323553742E-06	0.270334859767913	-0.950063239106714
8.6	0.857074773896281	-0.491098250815036	-4.48435127768228E-06	2.10799495446896E-06	-2.99507315885217E-06	8.12553180802375E-06	0.149766449521436	-0.975408302613518
8.7	0.813989501306293	-0.55852685878312	-1.01403585470536E-06	1.21909962790543E-06	-6.2723616137549E-07	3.46130591336728E-06	0.026881205779469	-0.986669649619596
8.8	0.765663678376293	-0.62189294839489	-1.56886575815859E-06	3.07970555616555E-06	-5.99121135872106E-06	1.30745440493826E-06	-0.0963213403670815	-0.98283856204322
8.9	0.713082310582927	-0.681103203718073	3.16092663474218E-06	-1.83650202796795E-06	-3.15859344614352E-06	-4.46549060790334E-07	-0.218133538925677	-0.963762040901232
9	0.655679812895977	-0.736819877862684	-7.27727498193464E-06	1.36019919423076E-06	-3.9726831702843E-06	7.30159657414364E-07	-0.338409760564457	-0.931288840197858
9.1	0.593285221709338	-0.78699154512205	-3.35872753574445E-06	-1.87463977583202E-06	-9.78428617200842E-07	2.13685180229671E-06	-0.454492684568392	-0.880711269597368
9.2	0.527248117536593	-0.831848800023466	5.97921177304131E-06	-1.65632259778355E-06	2.00927082727533E-06	8.4731771884199E-06	-0.562002947493973	-0.816678602246753
9.3	0.45800237336789	-0.871472789537173	-3.36040374553193E-07	1.07176009495749E-06	1.37057904637947E-05	1.17894941911478E-05	-0.660769954940901	-0.738990154344638
9.4	0.385600191889788	-0.905957918153828	1.72381342002938E-06	-2.67049562644999E-06	4.29805513398101E-06	1.74467671041688E-06	-0.74861909039341	-0.649650161623914
9.5	0.307121495091949	-0.934274352337669	-6.54009555502818E-06	-4.84702533921989E-06	-1.98377546924584E-06	-5.69241516293338E-06	-0.8250045187305	-0.546615654581423
9.6	0.228275051190102	-0.952159424024628	-1.16461915945754E-05	-1.92652527871302E-07	-5.92922912152406E-06	-3.96724154372737E-06	-0.883159860095207	-0.437784178696159
9.7	0.14974851521836	-0.96549409734467	1.46056984586495E-06	-4.82978011235997E-07	-2.89994553647382E-06	1.64831896366993E-06	-0.93029981330472	-0.324510663679066
9.8	0.0700468949986876	-0.972718383744993	2.20345792939221E-06	1.38718573831667E-06	1.50348429483047E-05	-3.54830876979535E-06	-0.96357618314222	-0.205690091055105
9.9	-0.0103581121939681	-0.973105155188805	-3.41567537352975E-06	8.95078676973238E-06	1.37260394356075E-05	4.92112064282756E-06	-0.982480857828687	-0.0828873476083059
10	-0.0898024951900857	-0.965504608950506	-3.62348431395355E-06	1.62355580900899E-06	1.91079172632746E-05	-1.81354231776659E-05	-0.985438066361568	0.0425352630964534
10.1	-0.16672715122974	-0.952257429751603	-1.46768861240269E-06	2.29945285261552E-06	-8.40688817958706E-06	-4.27165455882629E-06	-0.971318806631584	0.167131210464772
10.2	-0.242663676718352	-0.933170208052996	-2.30550688614191E-06	-1.22892691458884E-06	-1.28498838809245E-05	7.24642263413679E-06	-0.94146455800802	0.288162629722144
10.3	-0.315616679737317	-0.907500426218992	5.75454930203737E-06	3.88947246769789E-06	-6.11868530844008E-06	1.39408511088359E-06	-0.896975216705767	0.403959007165298
10.4	-0.385526243230736	-0.876841857416894	2.0926299742075E-06	1.03373084846171E-06	6.72138066957954E-07	-8.17544845308253E-06	-0.837506013893807	0.512291450432256
10.5	-0.4528863871125	-0.840619761690466	4.32820826703945E-07	-3.03881099315966E-07	-6.56551982591705E-07	-5.58327670324421E-06	-0.767208277956658	0.610485926279949
10.6	-0.515912620102586	-0.79849849567545	5.05141234169378E-06	-2.58315509404796E-06	-9.67051787180454E-06	-7.8249665653622E-06	-0.685488039391373	0.702095327679538
10.7	-0.574352496674349	-0.751848503367327	-2.79360566561474E-06	-5.01301619931057E-07	-5.18121035296309E-06	-7.12138434045782E-06	-0.592017726524175	0.782210809919152
10.8	-0.627915374325678	-0.702115179354955	-3.58393452138713E-06	-3.42405271933975E-06	-1.18909916122057E-05	9.06259800510832E-06	-0.489204315768475	0.849607923513526
10.9	-0.67697994333014	-0.651007811209943	-1.12779399366864E-05	-1.03765809302787E-05	-4.47133132089841E-06	1.08718501019973E-05	-0.379973023909909	0.903605991519907
11	-0.725401047642454	-0.599291263067319	1.00324418409831E-06	1.40586777876861E-06	8.63987210110145E-06	-5.4555278480664E-06	-0.263283009825016	0.945948362398538
11.1	-0.769979704888117	-0.540443011618369	-3.22847595958911E-07	-3.61463167929361E-06	1.01392981589171E-05	-1.01439817508748E-05	-0.140347787227787	0.969801215902732
11.2	-0.809348462979607	-0.48036690948467	-1.02128092741454E-06	-3.89204830158217E-06	2.15642739118297E-06	-6.27218378430898E-06	-0.0174963505537689	0.977788146600349
11.3	-0.845367747090581	-0.41752264518054	1.65036890033966E-06	-1.19704147063612E-05	3.55094984314278E-06	-2.79792871376454E-06	0.104743830172407	0.971407121283784
11.4	-0.877198115313511	-0.352343818470838	9.81520015808865E-07	2.09029828071622E-08	-5.67611359017726E-06	6.41314048697944E-06	0.225970753552289	0.950550996489097
11.5	-0.90565009618922	-0.282525826172894	6.51500101318479E-06	-1.21922362397721E-06	8.19570492570779E-06	-2.91973950758579E-07	0.343344996225121	0.914494538496949
11.6	-0.926070891844458	-0.210530262701173	-6.18674788427847E-07	-5.2995814519137E-06	1.43943376436713E-06	-3.0584713337677E-06	0.455929820793834	0.863926185360746
11.7	-0.941090762112314	-0.136889274208504	-7.08774147869375E-08	-6.01488050163127E-06	8.97547786616129E-07	-2.64033717151393E-06	0.561119878788944	0.799768585876996
11.8	-0.95043481494705	-0.0613577889322454	-1.06320605642534E-06	-7.41593734995584E-07	5.13633641509269E-06	1.09400063056343E-06	0.658231872804711	0.723302172130813
11.9	-0.953597243512896	0.0152080220092107	-3.18735779008143E-06	-5.19805022058433E-06	-5.34053519190517E-06	-7.99519719160134E-06	0.745896424526789	0.634802572666153
12	-0.951852118655485	0.0919360502115723	-2.93410518968615E-06	1.62765928517895E-06	-1.6630113320439E-05	-8.74493296879953E-06	0.818711078743726	0.534060949149585
12.1	-0.944225091002717	0.169462956510045	8.267324007378E-07	-1.55617652092239E-06	7.77332435469449E-06	1.22394028135332E-05	0.879008899562282	0.42801808930186
12.2	-0.928853758796977	0.247613217009812	-4.10580955762314E-06	5.50727801830552E-06	4.01612103925634E-07	3.29779068602766E-06	0.926607162003546	0.313831221329597
12.3	-0.906885289527655	0.324232291069215	7.77361541773306E-06	6.38332749218608E-06	3.80597702370599E-07	1.08407806015444E-05	0.958537736473829	0.193904714456289
