# GHZ S RI R 50
0.2	0.987022280587608	-0.156411224777482	2.56528917612216E-06	2.25378444542162E-06	6.5799969493152E-06	-4.86899558533582E-06	-0.967264008875798	0.25118550118375
0.3	0.971210624917756	-0.233586492487202	-8.70682313976743E-07	-5.46137180313163E-06	-3.46473431470228E-06	-7.95805467660826E-06	-0.928033098789133	0.37126414208882
0.4	0.94997608866587	-0.309099376259937	-7.2899211735512E-06	-9.98270480714159E-07	4.44714339728046E-06	1.55090039340355E-06	-0.873744848740972	0.485339612574172
0.5	0.923003719698866	-0.383065097635141	6.21035761697232E-06	2.11057643733414E-06	-2.41786535487949E-06	-1.91227275503063E-06	-0.805229004440683	0.592355741688937
0.6	0.88977057609718	-0.453903452724394	-1.05689124916536E-05	2.46098081116783E-06	-2.22156329924999E-06	-1.00947255927939E-06	-0.7233633201426	0.688795125688402
0.7	0.851878586477763	-0.521686167356078	2.7898161400496E-06	-1.17260416566893E-06	-2.99612477215255E-06	5.79699313076146E-06	-0.630831052314514	0.774467967659683
0.8	0.808731005534002	-0.586952348594836	1.18376363902504E-06	-8.49270432744857E-06	-6.63256660978205E-06	-3.08021731412553E-06	-0.528046839678495	0.847814310480411
0.9	0.76049227246128	-0.648995937277412	-1.14911415884537E-06	-6.83146332495462E-07	2.55104234891028E-06	6.55990565436959E-06	-0.416927456708975	0.907479171808116
1	0.707023694453317	-0.707379103304349	-2.75105509391632E-06	-3.23102289605821E-06	-4.04786734835965E-07	-7.33454128305419E-06	-0.299437086497073	0.952509516106198
1.1	0.649673141910079	-0.761239114953082	1.81099579213436E-06	-4.95338702855225E-06	2.27556611822844E-06	-5.14737672407445E-06	-0.176909369580144	0.982591358740936
1.2	0.586818169851149	-0.811100450181312	-2.50129073226283E-06	2.49811111168146E-06	9.28157098862151E-07	-9.13253731122824E-07	-0.0513483877919564	0.996674454562896
1.3	0.518589133019768	-0.855672931627352	-1.5411838957055E-06	7.21553255932095E-07	-1.35798919112403E-06	1.46706694440538E-06	0.0748920944557851	0.995004194302326
1.4	0.447497104432011	-0.8938259294844	3.92919985057225E-06	-3.24860096469061E-06	2.712540432818E-06	1.09606202682867E-05	0.200364195747021	0.977012487022888
1.5	0.375048072547264	-0.92572794720358	-5.34722904291883E-06	1.11289386088821E-06	6.60075630221922E-06	-7.22181981294414E-06	0.322585871248376	0.943705487420235
1.6	0.30139452474811	-0.952490911328605	1.77924511556538E-06	-7.75533438014353E-06	3.63972099714766E-06	1.38503251684427E-06	0.438990186701271	0.894861998403201
1.7	0.226760002784637	-0.972840648034827	-1.94622791227426E-06	-9.71323899823768E-07	-2.36454322392945E-07	-2.09185906492481E-06	0.54758085777548	0.832816184021428
1.8	0.14994895058079	-0.987676462270536	2.85937222045128E-06	5.2921163422407E-06	4.61310044737659E-09	2.03675047298103E-06	0.647898050048954	0.757294521164297
1.9	0.0723941330939713	-0.996665686363071	5.69097869745335E-06	-2.63997759280027E-06	-3.00699105701245E-06	4.17359225051273E-07	0.737385954322933	0.670327255158535
2	-0.0054959800579385	-1.00017319454022	-1.55643839205995E-06	-2.03413171331466E-06	3.23433774504427E-06	1.15045466959841E-05	0.816973055799475	0.572525838099487
2.1	-0.0856983814247589	-0.996358556155985	-7.57785926746827E-06	2.4804611596188E-06	1.22280879759248E-06	5.16341339974745E-06	0.882398547196488	0.463828862170629
2.2	-0.162718574476887	-0.986179470293541	-8.83094912331094E-07	1.4009829485463E-06	3.03089606508335E-06	7.79676891080658E-06	0.933243010317179	0.349010952432902
2.3	-0.240028143907344	-0.969849462723483	1.96695857998468E-07	7.47828255074752E-06	7.44327915440341E-07	9.40281907725021E-07	0.969049463387188	0.229392225563878
2.4	-0.316035873500784	-0.94739173982679	1.60104949943178E-06	7.19574046510023E-06	1.54088324824618E-06	6.40646919308583E-06	0.990235726038905	0.105332845866652
2.5	-0.389611369073783	-0.919895996224028	4.4008856030599E-06	-2.33361234333288E-06	-1.94043087956043E-06	-7.59463065614487E-06	0.99550513056267	-0.0197698849697505
2.6	-0.461490576690936	-0.885961743495515	6.77691713689927E-06	-5.98705477586665E-06	-1.11080936263374E-05	1.0900697065578E-05	0.985081211942526	-0.145385999552827
2.7	-0.530539467288813	-0.846209928576259	-4.42582428995304E-06	9.18878217776192E-06	-2.91436980394695E-06	-9.18012033029442E-06	0.958389908112139	-0.268615109380412
2.8	-0.595193789754831	-0.801473253898355	2.46946101232334E-06	1.13762889010024E-06	-3.1326521896395E-06	1.25953240661277E-06	0.917096340041778	-0.386691386924837
2.9	-0.655694200954611	-0.752044860811065	-5.48782834580031E-06	6.05459572244758E-06	-9.2187160038806E-06	-2.44300567513239E-07	0.860920678159523	-0.498305134416669
3	-0.711998406655979	-0.697398972875153	4.65914552193828E-07	-1.47766032401107E-06	1.13504261292846E-05	1.40985442890083E-06	0.791494704496052	-0.602278086372528
3.1	-0.764267183957494	-0.639878387782293	2.45636163745818E-06	1.04940636470379E-05	4.33898105254146E-06	2.15578433582619E-06	0.709735863237171	-0.696394827273333
3.2	-0.811811552311348	-0.57810796775296	2.13483482536684E-06	6.45913357734035E-06	3.95398554502209E-06	-1.0628134164609E-05	0.616930810750835	-0.77947987410644
3.3	-0.854233714133871	-0.512928508104244	3.10384997648803E-06	4.94776026462634E-06	-2.26814442898988E-06	-9.65828210270325E-06	0.513252667742375	-0.850707204242961
3.4	-0.890375032619841	-0.445097714871981	2.11312150038077E-06	-2.61109730418275E-06	5.95975440756938E-06	1.35703117286191E-06	0.403076359631633	-0.907500768939119
3.5	-0.922184697036835	-0.374236656246674	-3.23599900778042E-06	9.56924812297342E-07	-2.06147727370896E-06	3.42937014508705E-06	0.287202169789125	-0.950952476428197
3.6	-0.949346228535814	-0.300368437605287	-1.82939865087528E-06	-3.73807943759818E-06	-7.81013857213733E-06	4.1411453765291E-06	0.164807613581346	-0.980683804894957
3.7	-0.969485973113793	-0.22480934904491	7.83951615887189E-07	-8.33100487139701E-06	1.07857423610122E-05	3.64760662424203E-06	0.0391345297984736	-0.993077869423973
3.8	-0.98381024952446	-0.147463303670232	9.91544690759756E-08	1.54599583784317E-06	-6.48956364453708E-06	5.97993604471259E-06	-0.0857764802543812	-0.98941333252896
3.9	-0.991862990529113	-0.0699384161409274	-2.65025856098022E-06	-5.01386135117082E-06	-3.6648060965643E-06	8.04019357378106E-06	-0.21062273530131	-0.970283607245908
4	-0.994038363574102	0.00890563890386247	7.12340369298594E-06	-4.18792659423225E-07	-1.0506444617165E-06	-1.19959491610758E-06	-0.330105951419195	-0.936269516451744
4.1	-0.990214300877938	0.0871318515046333	6.16534290074847E-07	-4.46522989583854E-07	7.31860834229705E-06	-4.78820714639325E-06	-0.445537868746925	-0.887155783059942
4.2	-0.980247226574256	0.164994695607515	3.21040329573443E-06	2.08385850538415E-06	-7.20968829162727E-07	-7.57235207841144E-07	-0.553426887014528	-0.82341582344168
4.3	-0.964477928295359	0.240795557202049	-3.17777736601396E-06	1.38463374728432E-06	-4.97430957071521E-06	2.99970711430391E-06	-0.652197324697223	-0.74753919791143
4.4	-0.943020423144144	0.315566103644486	8.14501901685404E-07	2.63542440783573E-06	1.51534554523059E-06	-8.32811738882045E-06	-0.740798181738215	-0.659544979993447
4.5	-0.914643949939366	0.389057742551676	1.81684726067216E-06	-9.4813896511011E-07	7.62163750942404E-06	-2.95022205930777E-07	-0.817483138060933	-0.560621131109713
4.6	-0.880694492232973	0.459334141715108	-6.95435727210829E-07	6.12016375246634E-06	-1.23504283185121E-05	-6.40636078909766E-06	-0.880381657106732	-0.453615419968596
4.7	-0.842143899673394	0.526129909245642	1.21043644030052E-06	2.49864649662492E-06	1.42623476247479E-06	1.85472040643727E-06	-0.930345485189088	-0.339866634306408
4.8	-0.797404670027337	0.59114064907014	-5.11109985468997E-06	1.11190793855072E-05	5.26196078965651E-06	9.6374868226218E-06	-0.965357235433968	-0.219895210358816
4.9	-0.747591687308359	0.651699963751403	1.20784897934912E-06	2.91505364724895E-06	-5.13123070442728E-07	-6.88514704478612E-06	-0.984554406979953	-0.0957769199928134
5	-0.693226942317496	0.706867425171422	4.71337853593438E-06	-9.22016885912706E-07	-3.71476795217572E-06	2.4241365553568E-06	-0.986478345547173	0.0280010535341297
5.1	-0.635967700946204	0.758730377757741	4.11421506151451E-06	-1.49448867875814E-07	-2.66485243282035E-06	-9.7612080496829E-06	-0.976138726390252	0.150348075328357
5.2	-0.574210890009699	0.806586038829695	2.58266146194678E-06	-1.49299130284142E-05	1.37710330418289E-06	2.80717362880519E-06	-0.950023276523995	0.272391344658446
5.3	-0.509097340905073	0.84919305873701	-8.67440408460982E-06	-7.66353326604035E-07	-1.12984270545503E-06	1.59920538835001E-07	-0.908218811029696	0.390177996470926
5.4	-0.441204184150824	0.886696152705552	-7.16491728337497E-06	-1.1006036679096E-05	-1.36713593196542E-05	1.11618157259913E-05	-0.85143907655171	0.501361758648444
5.5	-0.370539059109037	0.918652800767108	1.89840396300425E-06	8.63010669922624E-08	-2.23505168659103E-06	1.78057449359902E-06	-0.781672378252066	0.603826380859466
5.6	-0.297447515732752	0.944582050804269	-2.39277595268055E-06	3.50393354284782E-06	-1.33411613872838E-06	1.28635138509982E-06	-0.699899003114413	0.696499554196776
5.7	-0.222455126369681	0.965041990946656	1.30151633934613E-06	1.22438628040637E-06	5.73598413880654E-06	-1.24800311165236E-07	-0.607564093715202	0.778496027603561
5.8	-0.146291715734651	0.978963087097909	2.69135998082435E-06	4.2376284431754E-06	-2.10032658100495E-06	4.22270474910726E-06	-0.505510041779821	0.848323472122573
5.9	-0.0698547162559351	0.987483285978016	-6.8533130566446E-06	-2.29617896709806E-06	-8.2175161116373E-08	6.26110910928542E-06	-0.396112908601275	0.905422519781853
6	0.00790294242694916	0.990843940884065	-1.78824552682121E-06	8.73425583971152E-08	-5.44401839694961E-06	-4.38635277876336E-06	-0.278929742606437	0.949276406605238
6.1	0.0858638443416905	0.986201627869858	4.21237671457436E-08	-9.8918682216597E-06	-9.80986549508442E-07	-3.20747821509445E-06	-0.156677578149882	0.975652258520896
6.2	0.16301811637108	0.975877321438385	-1.01870250079955E-06	3.10350214095365E-06	-1.75362813098574E-06	4.20203027725012E-06	-0.0327381986839915	0.986402342520069
6.3	0.239499453754047	0.959831645817114	-8.02826146133416E-07	2.82115837031945E-06	-2.92858961207031E-06	2.38776558273132E-06	0.0911714761088999	0.981928277159259
6.4	0.31507895846679	0.938157821421931	-5.94965660358429E-06	5.5293709594027E-06	-2.37468050927064E-06	-7.46655108898367E-07	0.214256203327731	0.962609112199876
6.5	0.389496741773351	0.909164636928493	1.39189849105398E-06	-5.25750362769587E-06	-1.44598132236519E-06	-2.36580102027719E-06	0.334420101814717	0.925952597159358
6.6	0.458682211268218	0.874822032851795	3.63456734135085E-06	2.08553276747003E-07	1.12451836824252E-05	-2.66466438049094E-06	0.445720561126417	0.875615064990214
6.7	0.525805090884264	0.836150908184884	-7.7303650245236E-07	8.41818749482763E-07	-3.75609365641101E-06	5.1975685051121E-06	0.550658448448811	0.813598947757739
6.8	0.589990554448753	0.792242567586472	-1.75436989794405E-06	4.46024561508734E-06	1.44765628514089E-06	-8.75803979996521E-07	0.647668051962491	0.738957938067917
6.9	0.65053161047079	0.743439834806241	5.88125833461714E-06	2.25356753723931E-06	-9.33220496097951E-07	2.3999464107019E-06	0.734868614522788	0.652828445966421
7	0.707168646211678	0.689787230824464	1.15285702278112E-06	-4.12825664380808E-06	-1.43424940806355E-06	2.89920832149893E-06	0.81120638501458	0.555924031396101
7.1	0.759207692425565	0.631967149697173	2.41728802806489E-07	-7.14593867892006E-07	1.93341861716002E-06	9.1606340153645E-06	0.873966254541728	0.449910159738685
7.2	0.806631149962344	0.569865323991867	1.38826864621836E-06	-2.39935224137646E-06	-9.77699802811892E-07	-8.53541064262413E-06	0.922925343495865	0.337525507609151
7.3	0.848750528676214	0.503830297172562	4.79099916600983E-06	7.21162737232605E-06	-9.68152595107957E-06	2.29063829434912E-06	0.957198873840048	0.219731944941372
7.4	0.885403591127839	0.434910706338012	5.06903140930152E-06	-6.59626152947885E-07	1.96552482878025E-06	-9.57517225465719E-06	0.976406972359827	0.0989571643815781
7.5	0.917738620672052	0.364207575262573	2.76289334636111E-06	-5.25833464168247E-06	2.13012969335854E-06	-7.22099262535412E-06	0.982413323604982	-0.0226272176264781
7.6	0.944995434140555	0.28908362938609	-2.75928110216873E-07	-5.61689164274011E-06	1.66809327567421E-05	3.96194036014876E-06	0.972776597039474	-0.146968847968564
7.7	0.965350235747082	0.21228655688929	3.50517562607589E-06	1.32771453832508E-07	3.41342465948781E-07	-2.91289415215587E-06	0.946713265280301	-0.268261393698572
7.8	0.979635224073067	0.13441088843687	-1.09322236161502E-05	-1.9864543825688E-06	-2.25141373638036E-07	3.42731553530427E-06	0.906022287513589	-0.3850670671268
7.9	0.98828706431015	0.0556815711092798	2.33752411801238E-06	2.04346333506215E-06	-6.89694771341881E-06	-4.75101455663138E-06	0.851809193490463	-0.49588982653727
8	0.991351855911095	-0.0253626127135075	2.33405774545717E-06	2.96571215690401E-06	-9.28858564927864E-06	-7.64786351886129E-06	0.783761854312247	-0.601134196591991
8.1	0.984705597062634	-0.105880260374402	3.83578626273249E-06	-3.0467183769625E-06	2.15900816990376E-06	-3.16962566918853E-06	0.700976922153814	-0.694565089726078
8.2	0.972773182777771	-0.183764276871224	-4.03687868253038E-06	1.39250582465666E-06	-6.74449655614729E-06	3.24307074379221E-07	0.609268690474151	-0.776436428224039
8.3	0.954829237878883	-0.261096773138346	9.85103635937587E-06	3.51280219458689E-07	6.17818284900838E-06	1.04725129060178E-05	0.507920058549037	-0.846818492614079
8.4	0.930716136360008	-0.33706351737971	1.26905464953025E-06	2.56188310708614E-06	3.44716359345646E-06	1.8413202133915E-06	0.398325765722883	-0.904257825212874
8.5	0.900399332326993	-0.411440315168951	-4.87150685194065E-06	4.92888916809419E-06	2.87137829584312E-06	-3.00184559803282E-06	0.282083720276793	-0.947447661132159
8.6	0.863858129151262	-0.482883436143305	-4.5149875203956E-06	2.0588879448208E-06	-3.09345344170874E-06	8.10199920426272E-06	0.161379947419731	-0.97608529729121
8.7	0.821833555528271	-0.551232015792533	-1.03059193752541E-06	1.21101456495053E-06	-6.68034762102363E-07	3.46376821737979E-06	0.0376560200391653	-0.9894954269025
8.8	0.774323451981481	-0.615860929612703	-1.60773936259405E-06	3.07519079395307E-06	-6.02870317065123E-06	1.24901271205992E-06	-0.0869326299133428	-0.987508777532887
8.9	0.721865009524167	-0.676314325205079	3.19233700399369E-06	-1.81741178949401E-06	-3.16982947023844E-06	-4.76590743194243E-07	-0.211055458573078	-0.968752883702681
9	0.665012701184513	-0.731972395267997	-7.30570527852421E-06	1.30775342159806E-06	-3.98810842548772E-06	7.01498764090348E-07	-0.329785885293583	-0.934737153094283
9.1	0.604013937771631	-0.783730817286271	-3.34945229241717E-06	-1.91156454140841E-06	-1.00136926350364E-06	2.13299837281219E-06	-0.445257412542465	-0.887945488744601
9.2	0.538222881297656	-0.830254582491792	6.01550471983954E-06	-1.60336378275454E-06	1.93308765997648E-06	8.5213008005188E-06	-0.554554468106186	-0.825984921114871
9.3	0.468771553844484	-0.871138198771257	-3.47768490212557E-07	1.07233942735248E-06	1.36397078275865E-05	1.19665669947004E-05	-0.655106146851341	-0.74946080517516
9.4	0.39624494090999	-0.905409991755068	1.75629569886241E-06	-2.66020084416989E-06	4.29213598943707E-06	1.79405071311541E-06	-0.743666638286941	-0.660412547405266
9.5	0.321978847935854	-0.935403902586444	-6.50322740137589E-06	-4.96372845241896E-06	-1.91257577492673E-06	-5.74849242474301E-06	-0.8210433160359	-0.562158730374615
9.6	0.24133800626784	-0.958981135157969	-1.17479572865653E-05	-3.34856537841209E-07	-5.93436764556723E-06	-4.07422066103202E-06	-0.885972531100196	-0.453655233712324
9.7	0.160039300999548	-0.973776988915905	1.47910904817153E-06	-4.72706941242294E-07	-2.9437332056878E-06	1.63436858205465E-06	-0.936310582759736	-0.338073929830789
9.8	0.0785914717161347	-0.981673376898128	2.21170548356669E-06	1.42091504735118E-06	1.52118190201759E-05	-3.44286027751851E-06	-0.971810541127671	-0.217302387667445
9.9	-0.0027690229417064	-0.982779615280512	-3.52911955976872E-06	9.01357665484814E-06	1.38250925050278E-05	5.09180986826809E-06	-0.992490222402748	-0.0922845244205696
10	-0.0837320623006742	-0.977124585412398	-3.67486293672678E-06	1.6151348981408E-06	1.94480397991667E-05	-1.81957681573637E-05	-0.996313097070567	0.0350305767749448
10.1	-0.163333601652313	-0.963756938203248	-1.49860444379221E-06	2.31349888582174E-06	-8.46566316165014E-06	-4.37326236738029E-06	-0.983799322336882	0.161426585465183
10.2	-0.240372556373838	-0.944471129593868	-2.32232158854805E-06	-1.25830037178819E-06	-1.30407806352497E-05	7.23731361072996E-06	-0.955177742530029	0.28501140239283
10.3	-0.314471796168565	-0.919193284405107	5.79773966520012E-06	3.97557620979431E-06	-6.2021473311692E-06	1.36940769244988E-06	-0.911735901267481	0.403778979947763
10.4	-0.385975023658258	-0.888862011196357	2.11580254434738E-06	1.06118636222152E-06	7.31896720030822E-07	-8.28668007204742E-06	-0.852891626298842	0.516799905097267
10.5	-0.454712698612365	-0.852622070017505	4.40319631586017E-07	-3.07330048872728E-07	-6.50941119638474E-07	-5.67083823123511E-06	-0.777823818104681	0.619784478837071
10.6	-0.519626362338521	-0.810559838865065	5.12476419411356E-06	-2.61205171376994E-06	-9.79368254517034E-06	-7.9462562012195E-06	-0.693222462815211	0.710339716137314
10.7	-0.580101532612382	-0.763551359083359	-2.83160573978858E-06	-5.10380947551521E-07	-5.24683437551579E-06	-7.22331626786921E-06	-0.598811023021523	0.791212157766217
10.8	-0.636100528276816	-0.712919219745701	-3.63538176097418E-06	-3.47043090722637E-06	-1.20534221636308E-05	9.19399934287479E-06	-0.494424604693674	0.859977882906022
10.9	-0.687514079836031	-0.658743868514502	-1.14546768516065E-05	-1.04843029841384E-05	-4.5019030737333E-06	1.10276433192933E-05	-0.382163858258289	0.915129711982172
11	-0.732956163864364	-0.604404168706134	1.01581199952886E-06	1.41801824188008E-06	8.71584777077905E-06	-5.52569757535834E-06	-0.263167704635634	0.954880881872113
11.1	-0.778726321069515	-0.547882897545657	-3.27915263934578E-07	-3.65709175782963E-06	1.02551681240124E-05	-1.02670063222189E-05	-0.140835736333769	0.979422879504854
11.2	-0.820554750475595	-0.486474650991311	-1.04057302297415E-06	-3.9397296248402E-06	2.17354496263696E-06	-6.35522133935734E-06	-0.0159887060023558	0.988254103172172
11.3	-0.857794956770596	-0.421207699301421	1.63669359786496E-06	-1.21241581415861E-05	3.5871584445485E-06	-2.84291303946788E-06	0.108334662773237	0.981478561156771
11.4	-0.889035905834832	-0.353692252227699	9.93041387725935E-07	1.78782920487101E-08	-5.72098244893681E-06	6.50686711164028E-06	0.231409857812684	0.959915381987154
11.5	-0.917373100794795	-0.284853527588155	6.59329738677685E-06	-1.25327062138859E-06	8.29777133749004E-06	-3.19212298891246E-07	0.350819313368166	0.922833613902699
11.6	-0.940638453893193	-0.210387456084656	-6.5266669545097E-07	-5.36583766595655E-06	1.44330150141237E-06	-3.10548994473358E-06	0.464695831030872	0.870501764730487
11.7	-0.955475558361567	-0.133311930204897	-1.08728109311453E-07	-6.08769125787563E-06	8.92241388007558E-07	-2.67800938413108E-06	0.570643337620669	0.804687139468772
11.8	-0.963728021230264	-0.0550695654663198	-1.08007057718857E-06	-7.42707595680958E-07	5.2010402776272E-06	1.07160326049562E-06	0.667914978777919	0.726846491169089
11.9	-0.965276263302491	0.0240352584324222	-3.25395578584893E-06	-5.23253267157863E-06	-5.44758304516083E-06	-8.04545158572498E-06	0.75554682644926	0.638823481380488
12	-0.960837300727897	0.101864081105311	-2.95780664183203E-06	1.66787725450631E-06	-1.68912286169898E-05	-8.73247430200678E-06	0.833970587952164	0.536812489784323
12.1	-0.951925376027021	0.180342328214253	8.21437497421537E-07	-1.58070843828606E-06	7.97035324713892E-06	1.23012253944697E-05	0.893524946293273	0.424735506485881
12.2	-0.935015659822353	0.259238690215757	-4.09386165741015E-06	5.60004174750239E-06	4.36758883830402E-07	3.32626409080099E-06	0.939338612172499	0.308267190714833
12.3	-0.911821421473072	0.33651319650997	7.90996790814447E-06	6.36959932844121E-06	4.88949426133334E-07	1.09412869869504E-05	0.970452303578698	0.186606826641543
