# GHZ S RI R 50
0.2	0.985548259805116	-0.157029150129447	2.56411980764564E-06	2.2492073433342E-06	6.56868039364481E-06	-4.86857403078524E-06	-0.9662795287707	0.251700163572218
0.3	0.969438478407245	-0.234106075119223	-8.74255285834282E-07	-5.45253986612239E-06	-3.4667007538797E-06	-7.9432319736499E-06	-0.926609632671419	0.371711857516335
0.4	0.947886943751036	-0.309365594856443	-7.2767851628851E-06	-9.89971285909474E-07	4.43995434475908E-06	1.54402737882346E-06	-0.871797657325899	0.485432137034585
0.5	0.921076346059014	-0.382711114024811	6.19739746602947E-06	2.10412734940541E-06	-2.41314147465037E-06	-1.90737669890527E-06	-0.803258077604778	0.591456125070795
0.6	0.888274587277009	-0.453931744036427	-1.05497921764648E-05	2.4603061911915E-06	-2.21806188284819E-06	-1.00697280909537E-06	-0.721922039163857	0.687825539573245
0.7	0.849967381736889	-0.52195597447383	2.78368990239404E-06	-1.17210714943148E-06	-2.98667314444957E-06	5.78770224531784E-06	-0.629319580779789	0.773325376165531
0.8	0.806328812301525	-0.587028382114762	1.17529223311442E-06	-8.47409839114989E-06	-6.61949948582153E-06	-3.06867457103076E-06	-0.526613778868113	0.84628339134805
0.9	0.757651977553938	-0.648473633702722	-1.14637355809997E-06	-6.80660483638943E-07	2.54773585262061E-06	6.54070759035897E-06	-0.415711594705507	0.905575358667747
1	0.70430176119336	-0.705840656500626	-2.74289289966353E-06	-3.22084415882434E-06	-4.04206634547635E-07	-7.31196381754617E-06	-0.298501091540866	0.950217140246398
1.1	0.647619563556704	-0.75906994124178	1.80735480889783E-06	-4.93746568384413E-06	2.27057314295524E-06	-5.13067903460448E-06	-0.176454985629661	0.979979264332448
1.2	0.585519937821505	-0.808649744869454	-2.49567419511968E-06	2.48884112646566E-06	9.260629085772E-07	-9.09854763587584E-07	-0.0513947460546359	0.993861927934644
1.3	0.518095673002574	-0.853362010859138	-1.53775240441945E-06	7.18033441011453E-07	-1.35581202437218E-06	1.4617183573443E-06	0.0741980337480949	0.992146226856482
1.4	0.447482042382641	-0.89227095762507	3.92387325086005E-06	-3.23754355006442E-06	2.6955832949864E-06	1.09393751981253E-05	0.199128125219744	0.974381998242588
1.5	0.37450275056451	-0.924974436624241	-5.33820801688841E-06	1.10804792780803E-06	6.59273217545852E-06	-7.20532434499852E-06	0.320647897532588	0.941183737263563
1.6	0.300496458766937	-0.951483389558827	1.77667618567848E-06	-7.73998249176267E-06	3.6324518586172E-06	1.38275286357594E-06	0.436550808856075	0.893028074301326
1.7	0.225827072700932	-0.971638235019292	-1.94187829234443E-06	-9.69133575592211E-07	-2.35941716367774E-07	-2.08717369542594E-06	0.544932425630548	0.831337552633067
1.8	0.14906000197852	-0.986223014247441	2.85260694100557E-06	5.2788221172957E-06	4.72609513136372E-09	2.03170093997664E-06	0.645075553015106	0.756119153143424
1.9	0.0714298317958538	-0.994755607730105	5.67325696900308E-06	-2.63432781652353E-06	-2.99799071295631E-06	4.17249499346153E-07	0.734561204712292	0.668978584246263
2	-0.00565469599608021	-0.996861475903794	-1.5489042600676E-06	-2.02518314466991E-06	3.21713119534629E-06	1.14527495423198E-05	0.812245865865166	0.570544928706122
2.1	-0.0839472513466503	-0.993753079657424	-7.55221065951587E-06	2.45586655260379E-06	1.20792761172455E-06	5.1450345856055E-06	0.876549193726148	0.464436707863937
2.2	-0.160767290144712	-0.984534195199992	-8.82895162610199E-07	1.39450311521609E-06	3.00519676692929E-06	7.7764743996344E-06	0.92802339461185	0.351010657402866
2.3	-0.238135677490256	-0.968559302420976	1.81868073129871E-07	7.45393821162554E-06	7.4008513156968E-07	9.3858521529141E-07	0.964367784014769	0.232251221633517
2.4	-0.31412711500921	-0.946087000088168	1.58213658057442E-06	7.17331751315843E-06	1.52363770336546E-06	6.38671857495189E-06	0.98609621506061	0.108747232147241
2.5	-0.387232019082559	-0.918346485391812	4.38804301012116E-06	-2.31475867988105E-06	-1.9163479078668E-06	-7.56801082305136E-06	0.99141515517475	-0.0158923745274399
2.6	-0.458196311059795	-0.884676071704755	6.76488559914382E-06	-5.94261434663684E-06	-1.10914193443826E-05	1.08232325265691E-05	0.981324233067234	-0.140513118239246
2.7	-0.526491201029805	-0.845689572291339	-4.43963176922507E-06	9.1345599595007E-06	-2.86974741816733E-06	-9.15182109047849E-06	0.955261322132108	-0.262810299154593
2.8	-0.59057509663945	-0.801982416685351	2.45498408489814E-06	1.14368487201693E-06	-3.1257761546151E-06	1.24129854081562E-06	0.915053431529276	-0.380018511971858
2.9	-0.650529265691269	-0.753978531319569	-5.49924488648498E-06	6.00533144146561E-06	-9.18494439627322E-06	-2.90305842603766E-07	0.860350718374904	-0.49134597569363
3	-0.707512803241302	-0.701518117991268	4.73948007735635E-07	-1.47152113293586E-06	1.13165789505962E-05	1.47637693725226E-06	0.791958288996655	-0.595701144270429
3.1	-0.760784515607717	-0.644511459209813	2.39338523941174E-06	1.04977455821502E-05	4.32221296210345E-06	2.17865463376277E-06	0.711070396305377	-0.689685062606553
3.2	-0.808932174030476	-0.583521984779204	2.09811367543228E-06	6.46799695815082E-06	4.01099663186159E-06	-1.06013963758345E-05	0.619459966823798	-0.773025823589188
3.3	-0.852250178385538	-0.51910643763229	3.07722176313782E-06	4.96556385306628E-06	-2.21556053546495E-06	-9.67225533361637E-06	0.517092053574078	-0.8448938584155
3.4	-0.889799665636575	-0.451764187515245	2.12875948218323E-06	-2.60338561267822E-06	5.95970210112658E-06	1.38875885108436E-06	0.408041887564428	-0.903345512154407
3.5	-0.92287407632562	-0.379673126223385	-3.24202280467011E-06	9.47223988373137E-07	-2.07451537928085E-06	3.4257185105999E-06	0.290532343496772	-0.948278231179673
3.6	-0.949180219370105	-0.305814675471323	-1.81346975795935E-06	-3.74378583707446E-06	-7.82334975454495E-06	4.10772063194048E-06	0.168766067267229	-0.97643399242037
3.7	-0.969964371028525	-0.230988199985103	8.23165304795606E-07	-8.32768036562549E-06	1.07690572269056E-05	3.69848915291049E-06	0.044766019296309	-0.989787786096854
3.8	-0.985164448081304	-0.153698395070094	9.1908038753851E-08	1.54729697414185E-06	-6.52129603188076E-06	5.95251561711804E-06	-0.0794624540561115	-0.987918589659053
3.9	-0.993752404549545	-0.0760056475532108	-2.62920884447949E-06	-5.02964065735956E-06	-3.70430195630657E-06	8.0292342173648E-06	-0.204755240055826	-0.9708902912965
4	-0.996353372856906	0.00263789812243912	7.13076207443321E-06	-3.83088822094315E-07	-1.0453530104033E-06	-1.20578901893577E-06	-0.325876211028129	-0.937746348737341
4.1	-0.993400796925476	0.0807129297005562	6.19916092154319E-07	-4.4400251051581E-07	7.3560436655784E-06	-4.75743941291772E-06	-0.441904529654054	-0.888771764122251
4.2	-0.984362767272886	0.158860958150793	3.20699665613899E-06	2.10463316544523E-06	-7.18746678433432E-07	-7.62539495505368E-07	-0.550293012486067	-0.825452436803337
4.3	-0.969188706470534	0.235303409351102	-3.19230471573199E-06	1.37321779925065E-06	-5.00095600271759E-06	2.98394005183644E-06	-0.649549878004222	-0.750037814335193
4.4	-0.947503977540372	0.310544949559548	8.05061262572446E-07	2.64454003753629E-06	1.55395702492026E-06	-8.33956187575478E-06	-0.738497392972081	-0.66272574500529
4.5	-0.919726258694669	0.382890553041398	1.82440069228979E-06	-9.38866249004161E-07	7.63227348796614E-06	-2.51799400028568E-07	-0.816373895425289	-0.565264432128344
4.6	-0.887329304968786	0.454137362710131	-7.39355616712029E-07	6.13356267162295E-06	-1.23432509174896E-05	-6.50983174249987E-06	-0.88148720191753	-0.458004221820807
4.7	-0.849162470895867	0.521714263889313	1.19888558625224E-06	2.51654711454827E-06	1.41976562546235E-06	1.87146722989077E-06	-0.932524330173529	-0.343435555870091
4.8	-0.804923539671225	0.587238498929697	-5.20670769231619E-06	1.11371678328573E-05	5.22373431365601E-06	9.71598173855004E-06	-0.968146442720017	-0.222932113986875
4.9	-0.756067503209423	0.648120181715159	1.19439520322736E-06	2.93923637638093E-06	-4.68599102116868E-07	-6.92618466319799E-06	-0.988116172133061	-0.0990898296258987
5	-0.703584100546962	0.705461217164078	4.75622924527599E-06	-9.00322186006714E-07	-3.75897265160859E-06	2.42042959987287E-06	-0.993302380530327	0.0259676377509513
5.1	-0.645087487659006	0.759580653787287	4.14695866250814E-06	-1.34874431978191E-07	-2.64833931957202E-06	-9.84773438616621E-06	-0.981974855634833	0.151999309230712
5.2	-0.582845147459754	0.80832298717114	2.64938097687419E-06	-1.50335253613751E-05	1.37850801171034E-06	2.83256624755139E-06	-0.954451522661131	0.274528164871899
5.3	-0.517265450341783	0.852193338884416	-8.73814427024836E-06	-7.93613304155891E-07	-1.13878749161539E-06	1.58335270825716E-07	-0.91232816986547	0.392411849328618
5.4	-0.448292655908641	0.890845014811488	-7.20251582474196E-06	-1.10969551654373E-05	-1.37874115367257E-05	1.12251749576544E-05	-0.855849780791464	0.503855512360716
5.5	-0.376572767094342	0.923061286046986	1.9094629297897E-06	8.90774971450541E-08	-2.2503213726999E-06	1.78837243327109E-06	-0.786782719302719	0.607730070524556
5.6	-0.3030031055379	0.949468866796674	-2.41588217532958E-06	3.52133856103774E-06	-1.34554193235748E-06	1.29174587929856E-06	-0.704000695923149	0.702277470683764
5.7	-0.227312801364719	0.970716571332755	1.30881257371182E-06	1.23539656574387E-06	5.77747067593293E-06	-1.16003876917572E-07	-0.610058543053709	0.785019547146813
5.8	-0.149968269747838	0.985616148628526	2.70868007618418E-06	4.2724378891844E-06	-2.11990511267225E-06	4.25354157123535E-06	-0.506434277417892	0.855001130608755
5.9	-0.0712235314026669	0.994695626882801	-6.91112412458758E-06	-2.30769437298464E-06	-7.63888412014409E-08	6.31184788317652E-06	-0.395230126669385	0.911419630039941
6	0.00811930573621806	0.995878771631039	-1.79728758826282E-06	9.36784556830278E-08	-5.48684331817062E-06	-4.39133496284367E-06	-0.278053935219833	0.952491881846419
6.1	0.0855231200815313	0.991285687554078	3.11341857899945E-08	-9.9275020470118E-06	-9.88128241424468E-07	-3.21791236701453E-06	-0.157975127871572	0.979583436718376
6.2	0.163611435508289	0.981127309998173	-1.02135020209274E-06	3.11651572324182E-06	-1.75872466845103E-06	4.21982702372781E-06	-0.033707400158961	0.991820837908129
6.3	0.241129385286421	0.96474521878539	-8.0469948811665E-07	2.8339198854595E-06	-2.93997994708929E-06	2.39986334971635E-06	0.0915053754956277	0.988128280434277
6.4	0.317326695575052	0.941740492723384	-5.96903226533236E-06	5.55600403681621E-06	-2.38471160767337E-06	-7.47779131673519E-07	0.215700235883007	0.968085795616826
6.5	0.389829568181436	0.913032855821752	1.40512227916425E-06	-5.27705130331607E-06	-1.44852067225831E-06	-2.37756187650166E-06	0.334462194592894	0.932789118956417
6.6	0.461058549067728	0.880384177028821	3.66052608107023E-06	2.13359201731635E-07	1.13285090848585E-05	-2.67360784036523E-06	0.44977337613287	0.884516554834123
6.7	0.529710598621947	0.840953912652735	-7.78574464271206E-07	8.48990402590613E-07	-3.78225432288385E-06	5.24116126842764E-06	0.557517493197819	0.820673075489451
6.8	0.594847631753699	0.796352464876666	-1.76135564136216E-06	4.49951825235581E-06	1.45802857268864E-06	-8.85327896321522E-07	0.655912206848318	0.744016017121862
6.9	0.656401018627827	0.746712248387231	5.93886643735481E-06	2.25714122637119E-06	-9.34797846159967E-07	2.42349170949018E-06	0.743811351086536	0.65562515122006
7	0.71364819043285	0.6917066528481	1.14053161693229E-06	-4.16646945912222E-06	-1.43047379579376E-06	2.92927231398857E-06	0.819425639646557	0.556763315356767
7.1	0.765877272464316	0.632904133535489	2.39870424486846E-07	-7.20059611880549E-07	1.98780747523943E-06	9.20727491886552E-06	0.882164418437688	0.450054284676723
7.2	0.813469082079799	0.56993793470254	1.3863606661547E-06	-2.41965198341621E-06	-1.01994833691177E-06	-8.58240202875234E-06	0.931248043412262	0.336224489541488
7.3	0.855871472288238	0.503255431906537	4.84936809109712E-06	7.23643868528214E-06	-9.73152232785292E-06	2.34366396915937E-06	0.965371349301914	0.217052480010674
7.4	0.893656376848887	0.433500905988187	5.10398687745458E-06	-6.835599144571E-07	1.94403294289759E-06	-9.65327862438279E-06	0.98508735329205	0.0944726915619375
7.5	0.926306574278009	0.359547289411419	2.75096533251052E-06	-5.32247749878396E-06	2.09939719706451E-06	-7.29776079108314E-06	0.989236249069009	-0.0312790107407412
7.6	0.951654779028074	0.283456510917038	-3.20655255890586E-07	-5.64809947849041E-06	1.6810293653299E-05	3.85747820296958E-06	0.976118126994711	-0.155229818006192
7.7	0.971637726930855	0.20589059368947	3.52511188682748E-06	1.07800245346356E-07	3.2184048095902E-07	-2.93115476194024E-06	0.949036487507418	-0.276509613550552
7.8	0.985458956238591	0.126559890607179	-1.10056220135269E-05	-1.91186027020304E-06	-1.99648621419427E-07	3.44723037667407E-06	0.907114758988295	-0.39413228797011
7.9	0.992604479115766	0.0454860821468006	2.36759108195054E-06	2.03099432141809E-06	-6.97364887005568E-06	-4.70828321013082E-06	0.85029702480929	-0.506410438121958
8	0.990632237633551	-0.0357821181063076	2.36598556455042E-06	2.94428664465893E-06	-9.37344025848943E-06	-7.55939636369935E-06	0.777138089516841	-0.609685242645197
8.1	0.983756728538831	-0.113259157611016	3.81383613741914E-06	-3.07599764515617E-06	2.13579018363424E-06	-3.1864094938572E-06	0.694709705614554	-0.700361263610725
8.2	0.971895493725842	-0.191144054247915	-4.02876315927921E-06	1.4229781631886E-06	-6.74568493179382E-06	3.74155944380807E-07	0.60202060127944	-0.781819005399294
8.3	0.953205398522978	-0.268528990531056	9.85486001687263E-06	2.78149247151099E-07	6.25673507377296E-06	1.04279118058877E-05	0.499299895995708	-0.851032855571182
8.4	0.928103482821622	-0.344308561735553	1.28655911739469E-06	2.55257873238088E-06	3.45924146278685E-06	1.81706242381943E-06	0.388868462765627	-0.907161599091734
8.5	0.896809865492053	-0.417940009624332	-4.83954191030367E-06	4.9678556881033E-06	2.85183837367165E-06	-3.02488649987277E-06	0.271129504642894	-0.949334593176009
8.6	0.859866750598121	-0.48873371079016	-4.49718197028264E-06	2.09718550425933E-06	-3.02430478108466E-06	8.12781998614781E-06	0.149179484097406	-0.975517149411612
8.7	0.817319503083384	-0.556516449996695	-1.01877802865961E-06	1.21868586075018E-06	-6.3684554707888E-07	3.46568424622048E-06	0.0250760696043361	-0.986136805641166
8.8	0.769408439139779	-0.620398530670144	-1.57716434363041E-06	3.08229603637155E-06	-6.00409444423469E-06	1.29897313534677E-06	-0.0987330256320862	-0.981131466325029
8.9	0.716982800961824	-0.680085239355602	3.16722263188561E-06	-1.83633298330892E-06	-3.16281946017613E-06	-4.50062745075234E-07	-0.220387421845724	-0.96057857070156
9	0.659947848922317	-0.735843203775922	-7.27944297433568E-06	1.35623519019149E-06	-3.97385950284568E-06	7.27993352295528E-07	-0.339215658230839	-0.92730841278762
9.1	0.598207269915569	-0.786646178177978	-3.35546421588704E-06	-1.87831033461937E-06	-9.80822931014798E-07	2.13504274370282E-06	-0.454517559613736	-0.877118821198085
9.2	0.532352224423196	-0.832261584442045	5.97956643446573E-06	-1.64539043927895E-06	1.99391913365779E-06	8.47310082696716E-06	-0.561297099689481	-0.813583974728773
9.3	0.463004791181209	-0.872467923262598	-3.38330067458978E-07	1.07054216206585E-06	1.36732113737519E-05	1.18155925018854E-05	-0.65961154396502	-0.736956834833546
9.4	0.390442979137045	-0.907092628930947	1.73137006896615E-06	-2.6640324322533E-06	4.29084523359681E-06	1.75727033982264E-06	-0.747184898164363	-0.649180533090695
9.5	0.312646283046202	-0.935775243720001	-6.52693578805954E-06	-4.88041145969864E-06	-1.96180751822986E-06	-5.70736890835229E-06	-0.825719281106184	-0.549236581772796
9.6	0.233572303279796	-0.954777169289333	-1.1675122574377E-05	-2.29561635608727E-07	-5.93185843075119E-06	-3.99584421559425E-06	-0.887833049557733	-0.439034762467925
9.7	0.154651530663579	-0.96872641196648	1.46541943120462E-06	-4.80866754719978E-07	-2.91115489571157E-06	1.64589337658719E-06	-0.935795513529029	-0.323206647590764
9.8	0.0745240002055032	-0.976536020424994	2.20623169151138E-06	1.39466970368609E-06	1.507803755181E-05	-3.52890329869753E-06	-0.968529959649315	-0.202543252376719
9.9	-0.00641377039756024	-0.977472152607228	-3.43740968811305E-06	8.96442138564533E-06	1.37474588916728E-05	4.9537727150585E-06	-0.98583274977051	-0.0789694715448039
10	-0.0865289402030401	-0.970281382790133	-3.63222034341816E-06	1.619565161155E-06	1.91713795462852E-05	-1.81296674095973E-05	-0.987981903594881	0.0451786209399153
10.1	-0.164053206123435	-0.957055058848552	-1.47611392622077E-06	2.2999373626802E-06	-8.41140385085928E-06	-4.30047564563423E-06	-0.975195189693186	0.169644538329174
10.2	-0.240407690078514	-0.938058930395004	-2.30789642410613E-06	-1.23809380880257E-06	-1.29007832046794E-05	7.22997229331061E-06	-0.945850212323716	0.291721305845604
10.3	-0.313947797583374	-0.912449850826766	5.76287905709296E-06	3.91621583076089E-06	-6.14146841952528E-06	1.38306642860508E-06	-0.901295894950305	0.408503252209022
10.4	-0.384760945372339	-0.881361976157981	2.09909354452282E-06	1.04224382977392E-06	6.9160001079081E-07	-8.20757983791412E-06	-0.841697167052262	0.517474926558326
10.5	-0.452130797738367	-0.843685957163491	4.34993838713111E-07	-3.05114864107144E-07	-6.57117903831049E-07	-5.60983381073632E-06	-0.771722690346564	0.616476711034763
10.6	-0.514186121972049	-0.800956237107543	5.07002205508375E-06	-2.59702559656974E-06	-9.71487005844012E-06	-7.84992077816038E-06	-0.690096466257504	0.709730317545843
10.7	-0.572067997710685	-0.754538966605046	-2.80436739196807E-06	-4.99951582631992E-07	-5.20821520370104E-06	-7.14146805818707E-06	-0.595936330196994	0.791352914451623
10.8	-0.625532017135421	-0.705134936131097	-3.60155664520804E-06	-3.42980222892872E-06	-1.19164305076391E-05	9.11238657577341E-06	-0.491836289747096	0.860052959503384
10.9	-0.674777741427096	-0.653974101700992	-1.13283402232471E-05	-1.03811730866641E-05	-4.46124845185627E-06	1.09093379430809E-05	-0.380595205271954	0.914026777171144
11	-0.722363233666662	-0.602134260578574	1.00629662655824E-06	1.40773880129338E-06	8.65194524206683E-06	-5.47293191742927E-06	-0.264766606349657	0.955073520458409
11.1	-0.766858849864022	-0.544360440948626	-3.25519858251819E-07	-3.62644003879591E-06	1.01683199190915E-05	-1.01820240896507E-05	-0.142262973776084	0.981975823600319
11.2	-0.80673499015533	-0.484912999774736	-1.0301344157934E-06	-3.90623411635583E-06	2.15724882857202E-06	-6.29973457903285E-06	-0.0165575265701198	0.991996476684613
11.3	-0.843524779180616	-0.422358196645159	1.63120687214394E-06	-1.20234429491895E-05	3.55954552276158E-06	-2.81719276537953E-06	0.109350722178521	0.98566429245635
11.4	-0.87607826579559	-0.356889185124486	9.8563803096833E-07	1.80011084503577E-08	-5.68003529905466E-06	6.45691214006763E-06	0.233766051399627	0.963279240435008
11.5	-0.904572794851798	-0.286767303148053	6.53544521021831E-06	-1.2500452664821E-06	8.22639455664577E-06	-3.2591972252676E-07	0.352714564783434	0.924954216430336
11.6	-0.925244885524038	-0.214920264281564	-6.45222807947055E-07	-5.31262964515623E-06	1.42951263079556E-06	-3.07437062630411E-06	0.466580210832387	0.872633252867455
11.7	-0.941072403256539	-0.141209494304255	-9.98670023887104E-08	-6.02820723105588E-06	8.8693231313055E-07	-2.65063812371108E-06	0.572948854656596	0.805876364700652
11.8	-0.951497668904238	-0.0650061284768368	-1.06828386315662E-06	-7.37797921083005E-07	5.14931334359472E-06	1.07183647694186E-06	0.669919656389165	0.72605939289737
11.9	-0.956015655344871	0.0133913349518253	-3.20947467567291E-06	-5.19110689451962E-06	-5.37495880288472E-06	-7.98290240806672E-06	0.754872463437721	0.634506432388521
12	-0.953613280635641	0.0928599420083726	-2.93487449719525E-06	1.63807819336786E-06	-1.66812707118414E-05	-8.71655181936298E-06	0.824150768089998	0.533589977834034
12.1	-0.94389749743387	0.171890548479303	8.244953042297E-07	-1.56171285187716E-06	7.82202513981357E-06	1.2245898986306E-05	0.882378068682878	0.42950680994687
12.2	-0.926896502443742	0.250085622743384	-4.10337705224987E-06	5.53088724708444E-06	4.10344400390726E-07	3.30524050518727E-06	0.929927321227849	0.316972888833353
12.3	-0.90389537841853	0.326564899768743	7.81327596633964E-06	6.38499200519711E-06	4.07537227163399E-07	1.08740496782283E-05	0.962727863808066	0.197668476492388
