# GHZ S RI R 50
0.2	0.98623087167746	-0.156600537481196	2.56453158946366E-06	2.2514727667385E-06	6.57419690758905E-06	-4.86839140735035E-06	-0.966717847188738	0.251460856961744
0.3	0.970296991042653	-0.233670189288655	-8.72306304475156E-07	-5.45681573033494E-06	-3.46541565544468E-06	-7.95049413281505E-06	-0.927249750037607	0.371530133907153
0.4	0.948945117758575	-0.3090492186051	-7.28328699787284E-06	-9.94071147701487E-07	4.44351366316054E-06	1.5474242892536E-06	-0.872669523884812	0.485455165817742
0.5	0.921944409614603	-0.38271331981735	6.20348461788141E-06	2.10659574541627E-06	-2.41544845214839E-06	-1.90942802867366E-06	-0.804021224705474	0.591996012195431
0.6	0.88892577938787	-0.453515916915631	-1.05575138810179E-05	2.46008788328417E-06	-2.21940867645755E-06	-1.00806982518937E-06	-0.722370722402839	0.688295251758247
0.7	0.850977350856499	-0.521326637993482	2.78640107245589E-06	-1.17200878226753E-06	-2.99129598681133E-06	5.79128712295194E-06	-0.629770611252374	0.77382737403303
0.8	0.807740885291819	-0.586494620594216	1.18010918756028E-06	-8.48227482370391E-06	-6.62496942739792E-06	-3.07463955472368E-06	-0.527002423609314	0.846888983677538
0.9	0.759454822456936	-0.648361386948875	-1.14763207265056E-06	-6.81978932922803E-07	2.5486805206709E-06	6.55025739000603E-06	-0.416030427653096	0.906265456992905
1	0.706038544489163	-0.706573309998319	-2.74719960219129E-06	-3.22609731767506E-06	-4.04635898916325E-07	-7.323714630078E-06	-0.298797332221597	0.951048745775667
1.1	0.648714276019859	-0.760270893205102	1.80862380570198E-06	-4.94594109844451E-06	2.27251848680291E-06	-5.13961463242788E-06	-0.176687475136218	0.981016665451507
1.2	0.586017988764207	-0.809956875787732	-2.49831462601821E-06	2.49410619822462E-06	9.27049915114409E-07	-9.11786784114766E-07	-0.0515632182262242	0.995222928373629
1.3	0.518066580172323	-0.854487338432292	-1.53954955988181E-06	7.20137669307907E-07	-1.35683687314555E-06	1.46480337766296E-06	0.0743203599017921	0.993804667687058
1.4	0.447212469070715	-0.892799786323995	3.92633940537054E-06	-3.2434929891303E-06	2.70509084859085E-06	1.09500080850505E-05	0.199580400517002	0.975952092092681
1.5	0.374581180539275	-0.924773860172603	-5.34164006704281E-06	1.10979312555381E-06	6.59588814302349E-06	-7.21145705677259E-06	0.321480707702461	0.942566936547844
1.6	0.301032557328058	-0.951107380024379	1.77971856013186E-06	-7.74405717054256E-06	3.63422218840846E-06	1.38450225391001E-06	0.437642478904065	0.893844275621372
1.7	0.2266749013281	-0.971308827283655	-1.94274611102517E-06	-9.70708777872129E-07	-2.35119828999403E-07	-2.08870801546624E-06	0.546060063063319	0.831818510690556
1.8	0.150068202040423	-0.986072551033075	2.85177663428919E-06	5.2846087816629E-06	3.55094527306833E-09	2.03329380574597E-06	0.646186732763611	0.75636248547175
1.9	0.0726120136068312	-0.994945047775376	5.68125245297719E-06	-2.63227540422914E-06	-3.00140095845166E-06	4.15169440830544E-07	0.735501442684004	0.669335130433392
2	-0.00493540519566438	-0.997983910389425	-1.55089190913951E-06	-2.03012382845384E-06	3.2172161080249E-06	1.14775973731209E-05	0.814168293500567	0.571491785637825
2.1	-0.0843661530177018	-0.994372849273127	-7.56378411971651E-06	2.46340994397117E-06	1.21228533012712E-06	5.15312969309006E-06	0.879204104415471	0.464026832818259
2.2	-0.161137418266127	-0.984528560646892	-8.83455514679202E-07	1.3966753744236E-06	3.01232850121964E-06	7.78528034088599E-06	0.930356024425111	0.349866643046038
2.3	-0.238252990781839	-0.968399220441737	1.8416371819692E-07	7.46335432847378E-06	7.412850183307E-07	9.39572220567703E-07	0.966379272305932	0.230679414238744
2.4	-0.31403377592328	-0.946122235320176	1.58518753654628E-06	7.18351644328967E-06	1.52652029982697E-06	6.39578687646388E-06	0.98772881064711	0.107020447613386
2.5	-0.387356648118259	-0.918839530694106	4.39617042374971E-06	-2.31980520547923E-06	-1.92105846988585E-06	-7.58230905809833E-06	0.993100773388757	-0.0175575063966078
2.6	-0.45894456092152	-0.885181500903259	6.77658782362471E-06	-5.95929069483274E-06	-1.11100294291209E-05	1.08529488773433E-05	0.983075425373554	-0.142571037819762
2.7	-0.527707479439157	-0.845822277357539	-4.44033122776908E-06	9.1592584824305E-06	-2.8852723149434E-06	-9.16924052926586E-06	0.956902623975995	-0.265353077685768
2.8	-0.592117112290124	-0.801588435809141	2.46158122668602E-06	1.14240781292646E-06	-3.13024816095976E-06	1.24834355174785E-06	0.916240278480071	-0.383107620739946
2.9	-0.652468168043412	-0.752868234225863	-5.49718365407636E-06	6.02677821393592E-06	-9.20178599218734E-06	-2.72767719116835E-07	0.860784876357975	-0.494614729421345
3	-0.709273106085865	-0.698970594461996	4.70368100646736E-07	-1.47422954538615E-06	1.13314634244811E-05	1.44676939056757E-06	0.792009021539036	-0.598685638061328
3.1	-0.761754975894894	-0.641441296978609	2.42047616346267E-06	1.04920313994139E-05	4.32799542909247E-06	2.16763300036445E-06	0.71094632612526	-0.692915623565741
3.2	-0.809332655439879	-0.580053660659991	2.11295790662012E-06	6.4605688125006E-06	3.98394307855145E-06	-1.06072023271086E-05	0.618800483134743	-0.776424778417709
3.3	-0.852015692827169	-0.515356135473042	3.08666617356836E-06	4.95452736908039E-06	-2.23680690844578E-06	-9.65971042338323E-06	0.515700597379407	-0.848240569164132
3.4	-0.88872441428987	-0.447890231193998	2.1202432496226E-06	-2.60440682530073E-06	5.9545390890783E-06	1.37402988432703E-06	0.405843580381566	-0.905969916227978
3.5	-0.920995179347959	-0.376721512448471	-3.23678060757313E-06	9.49066146159827E-07	-2.0684575692374E-06	3.42312796621052E-06	0.289278336341128	-0.949938874478414
3.6	-0.947938167942749	-0.303136033531612	-1.81754428403569E-06	-3.74000831530868E-06	-7.81504953137052E-06	4.11611097357019E-06	0.167313680903048	-0.979319916806203
3.7	-0.968495847913784	-0.228068718560585	8.09145937926217E-07	-8.32393586686432E-06	1.07684903827292E-05	3.67875283519077E-06	0.0421665484367442	-0.992330516176118
3.8	-0.983383949631662	-0.150971378222825	9.41864318323132E-08	1.54580289364163E-06	-6.50651507463009E-06	5.95724840413669E-06	-0.0826393372789399	-0.989385094965992
3.9	-0.992001909924578	-0.0735714508882049	-2.63297812081747E-06	-5.02158264202807E-06	-3.6907735899564E-06	8.02621844442751E-06	-0.207629844362109	-0.970865960102753
4	-0.994773684711746	0.00525066468680353	7.12471163889531E-06	-3.92039836016013E-07	-1.04610291477046E-06	-1.20349399942316E-06	-0.327190879359488	-0.937187890842632
4.1	-0.991465039371928	0.0835445971091736	6.18604874947716E-07	-4.44365174187296E-07	7.34119400469707E-06	-4.76231591175023E-06	-0.442630014300902	-0.888800060787282
4.2	-0.982025600894266	0.16151914037632	3.20536146762949E-06	2.09783971287955E-06	-7.18742824165919E-07	-7.60630682953997E-07	-0.550962001257419	-0.82573982383851
4.3	-0.966724578087697	0.237533250102448	-3.18629832435814E-06	1.37454010338412E-06	-4.99068680988918E-06	2.98481462729163E-06	-0.650304922605428	-0.750334738795552
4.4	-0.945618299210678	0.312406568993504	8.0592273175253E-07	2.64116450508461E-06	1.54683087880867E-06	-8.33159270484615E-06	-0.739464447333191	-0.662709271984787
4.5	-0.918249218673405	0.385925513849597	1.82298038685829E-06	-9.41635869103536E-07	7.63190800317706E-06	-2.63378000843535E-07	-0.816919234303559	-0.564256997067376
4.6	-0.884896505587477	0.457400977249463	-7.22727315755973E-07	6.13068523533604E-06	-1.23506000778967E-05	-6.47242891927759E-06	-0.88080829073136	-0.457201337397158
4.7	-0.846293788011681	0.524947489607769	1.20427293553469E-06	2.51003145861808E-06	1.42309645142214E-06	1.86516918342924E-06	-0.931499920372309	-0.34325431868558
4.8	-0.80157371757333	0.590445271168597	-5.16579066673985E-06	1.11355439260877E-05	5.24449608458666E-06	9.68566721010081E-06	-0.967178771676344	-0.223115553784272
4.9	-0.752049486450956	0.65142763118584	1.20239316697221E-06	2.92956497445296E-06	-4.91844751103035E-07	-6.91156547061654E-06	-0.987241558973364	-0.0989368532739146
5	-0.697991929073437	0.707891828336284	4.73668161486694E-06	-9.13982210783216E-07	-3.73750198929906E-06	2.42534200185301E-06	-0.990633116659543	0.0258971261854753
5.1	-0.639810011328527	0.760467707274635	4.1314054984371E-06	-1.43407152252513E-07	-2.66003536028046E-06	-9.80573168379196E-06	-0.980038861839107	0.149708086095632
5.2	-0.577714016942447	0.808537415381341	2.61222093763176E-06	-1.49841321652807E-05	1.3787328674519E-06	2.81981270932226E-06	-0.953744646298269	0.272341198350627
5.3	-0.512317433110208	0.851511401301029	-8.70569619811182E-06	-7.77908605052349E-07	-1.13417969170184E-06	1.59375517917798E-07	-0.911859475418157	0.390761229237577
5.4	-0.444041819967515	0.889325912324443	-7.18233005153372E-06	-1.10482818450664E-05	-1.37252911213014E-05	1.11911788910464E-05	-0.854915795854981	0.502575504723285
5.5	-0.373076043442244	0.921580657612774	1.90381811799883E-06	8.80475783923423E-08	-2.2429104387705E-06	1.78395363825619E-06	-0.784859029963715	0.605697893601537
5.6	-0.299453095119785	0.947854292552462	-2.40405279191304E-06	3.51317392545211E-06	-1.3397585837028E-06	1.28930317395242E-06	-0.702648350727284	0.698896363749846
5.7	-0.223869988348453	0.968470633466633	1.30545757526186E-06	1.22941783157381E-06	5.75633295726163E-06	-1.221463169322E-07	-0.609767822667485	0.781338593401616
5.8	-0.147037938449739	0.982435168545072	2.70118792696592E-06	4.25264438792537E-06	-2.10762760529649E-06	4.23790195550862E-06	-0.507016201810065	0.851475845947556
5.9	-0.0698364198652281	0.990593625161909	-6.87786091207964E-06	-2.2975608339754E-06	-7.68242209536549E-08	6.28172636813025E-06	-0.396752128718863	0.908467109748156
6	0.0076422450468336	0.993117019079069	-1.7913404113689E-06	8.94434546653473E-08	-5.45850056706215E-06	-4.38825567675774E-06	-0.279524981096022	0.951530799925137
6.1	0.0852928651234509	0.989143924648079	4.3721483160525E-08	-9.90800902410536E-06	-9.82092125121E-07	-3.21286567480339E-06	-0.157658291991647	0.978395890632663
6.2	0.1629159906894	0.979223253153523	-1.02265783030279E-06	3.10941650460589E-06	-1.75976887293763E-06	4.20981881606323E-06	-0.0333420554743782	0.989654310749223
6.3	0.239933286693951	0.963287867507495	-8.0684303397811E-07	2.82763321536817E-06	-2.93760764965793E-06	2.39164218612162E-06	0.0911467232916792	0.985441180715713
6.4	0.315729604484335	0.941406798721507	-5.97038777614176E-06	5.53882371387652E-06	-2.38034081013734E-06	-7.50744364736547E-07	0.214569667391112	0.966000902953106
6.5	0.390059328748284	0.913293418399868	1.40516841289997E-06	-5.27372560207061E-06	-1.44727940239851E-06	-2.3764066671486E-06	0.334750298123475	0.930344264235103
6.6	0.460952811034579	0.879169119684903	3.65178777903501E-06	2.11836068377682E-07	1.13005457725637E-05	-2.67030935364777E-06	0.448098938739296	0.880290173816726
6.7	0.529018800624533	0.839732674537979	-7.76512927080321E-07	8.46262459390267E-07	-3.77255404279195E-06	5.22460899254221E-06	0.554258197872681	0.817305637756979
6.8	0.593786131402886	0.795067373239068	-1.75795275143492E-06	4.48415364188632E-06	1.453782660004E-06	-8.81745341580499E-07	0.651984601287839	0.741603488323483
6.9	0.654704549242784	0.745461933435824	5.91468862961935E-06	2.25319687736454E-06	-9.33136434605402E-07	2.41361480962469E-06	0.739539465787662	0.65429260376479
7	0.711447557301313	0.691117894272135	1.14595936366731E-06	-4.14870317313716E-06	-1.43200474190304E-06	2.91533714719243E-06	0.815698078041797	0.556449806439775
7.1	0.763726768575738	0.632741576959571	2.40803595689941E-07	-7.17924251063796E-07	1.9643461831093E-06	9.19036212547096E-06	0.878616047702509	0.449783422442456
7.2	0.811350318273823	0.569950191664994	1.38715157673577E-06	-2.41267073528751E-06	-1.0050834158355E-06	-8.56649021625692E-06	0.927640722828658	0.336421932533886
7.3	0.853640206448669	0.503167522815305	4.83342850070621E-06	7.2263717337301E-06	-9.71432164646814E-06	2.33049483987921E-06	0.961796831016371	0.217561580011511
7.4	0.890515249158881	0.433164312481282	5.08944979770889E-06	-6.82473671754613E-07	1.93694001183053E-06	-9.62632053592633E-06	0.980718844773825	0.0953012610369043
7.5	0.921964828121187	0.360917635991609	2.74300623240956E-06	-5.29372348088913E-06	2.09663508802964E-06	-7.2600473205501E-06	0.984695141430784	-0.0277484699970306
7.6	0.948139780781654	0.285689552001651	-3.08125588852037E-07	-5.62622931813739E-06	1.67356162225922E-05	3.87559367793534E-06	0.973501981407555	-0.151347776075053
7.7	0.968048226243496	0.208633681870303	3.51029705473973E-06	1.14466711998408E-07	3.26422149052211E-07	-2.91836759348679E-06	0.94682123098715	-0.27236010027641
7.8	0.981821384260802	0.130244907676835	-1.09512863533749E-05	-1.93119215339236E-06	-2.07498713563305E-07	3.43122411709492E-06	0.905419804076117	-0.389166678156975
7.9	0.989443212724426	0.0508928396775674	2.34874476041595E-06	2.03109360153906E-06	-6.92317982091015E-06	-4.71439105438514E-06	0.849974315437651	-0.499900885410256
8	0.990995190048608	-0.0293530312462674	2.34489570287832E-06	2.95200772828843E-06	-9.31301118676059E-06	-7.5978019240104E-06	0.781055111010075	-0.603547364356285
8.1	0.98491192830663	-0.10940891074305	3.82319242092109E-06	-3.0599588827479E-06	2.14651439127469E-06	-3.17659519747724E-06	0.699003538034822	-0.6968827767431
8.2	0.972763691439967	-0.18786158219307	-4.03115210932845E-06	1.40880358252148E-06	-6.74302830461938E-06	3.51582492113765E-07	0.606690001378007	-0.779083902607279
8.3	0.954126355437836	-0.265480817494551	9.85130895335568E-06	3.09563108983208E-07	6.22172474778549E-06	1.04450866951792E-05	0.504537867812966	-0.849240509596976
8.4	0.929203991137436	-0.341417101924168	1.2797387022594E-06	2.55616477398354E-06	3.45450423247676E-06	1.82647047737179E-06	0.3941834879811	-0.906222695031191
8.5	0.898200999880179	-0.415441126613323	-4.84775340850172E-06	4.95117070526654E-06	2.85692343427843E-06	-3.01496699251303E-06	0.277151911498418	-0.948419984055666
8.6	0.861125722774922	-0.486544121270591	-4.50158466490147E-06	2.07883748066052E-06	-3.05229571405104E-06	8.11038509344946E-06	0.156453628280964	-0.975963019147198
8.7	0.81859260080569	-0.554420557837489	-1.02394807532999E-06	1.21427645683233E-06	-6.51643515965243E-07	3.46281371376076E-06	0.0328296947831773	-0.988527974234293
8.8	0.770755832021201	-0.61850278556444	-1.59272288851152E-06	3.07776980319009E-06	-6.01536680138478E-06	1.27252659437171E-06	-0.0914502729844516	-0.98580400540954
8.9	0.718174613120362	-0.6785634585844	3.18179148694458E-06	-1.82716487904762E-06	-3.16786174119921E-06	-4.64211818155967E-07	-0.215262289226507	-0.96681755578131
9	0.660808630813425	-0.734083776793899	-7.29719006210213E-06	1.33820400737765E-06	-3.9835126020395E-06	7.18126457533571E-07	-0.334964932588898	-0.932169626127703
9.1	0.599329906486628	-0.785089488515981	-3.35579188261906E-06	-1.8923382650624E-06	-9.89350906930666E-07	2.13592454481266E-06	-0.449949212663553	-0.88332399618095
9.2	0.533350047030824	-0.830930034032739	5.99626111224586E-06	-1.63264459900161E-06	1.97516599090674E-06	8.49584722879515E-06	-0.55797656120173	-0.820266810181227
9.3	0.463866915144411	-0.871223487762127	-3.41342573216821E-07	1.07168458047566E-06	1.36709265404291E-05	1.18673999015101E-05	-0.657205406247045	-0.743340208118443
9.4	0.391087148587114	-0.905295102158511	1.73789523321608E-06	-2.66302948376349E-06	4.29118328515902E-06	1.76689887312095E-06	-0.74506185542218	-0.654296327756442
9.5	0.315851731260198	-0.933757902491641	-6.50813520417663E-06	-4.90848124820137E-06	-1.93860185149019E-06	-5.71671768294245E-06	-0.821226610767519	-0.554946603869038
9.6	0.236513742422245	-0.955886390931848	-1.17006282244877E-05	-2.80140602515908E-07	-5.92818480860892E-06	-4.03034382766308E-06	-0.884372557353876	-0.447148781791445
9.7	0.156055085963091	-0.970402942437077	1.47121936150749E-06	-4.76844070275229E-07	-2.92519810464969E-06	1.63980808560263E-06	-0.933894313167089	-0.332198818561834
9.8	0.0751182119018727	-0.978032963548418	2.20811725708212E-06	1.40649270023491E-06	1.51358891682196E-05	-3.48768835448311E-06	-0.968537777373333	-0.211980650211322
9.9	-0.00590053654686268	-0.978693381998439	-3.48077600517076E-06	8.98636976584931E-06	1.37821978433078E-05	5.01908557054004E-06	-0.988403858934333	-0.0877227158419151
10	-0.0860424543208001	-0.972418501944391	-3.65317817042945E-06	1.61916894996589E-06	1.9303432253328E-05	-1.81733031311278E-05	-0.991612035472264	0.0387601357808449
10.1	-0.164919192863533	-0.959184146949318	-1.48485394324623E-06	2.30752603674703E-06	-8.44046580332933E-06	-4.32797725010213E-06	-0.978513043795439	0.164150302120284
10.2	-0.241635001021091	-0.939779569622813	-2.31472873482541E-06	-1.24541434918063E-06	-1.29563783281268E-05	7.2402798126824E-06	-0.949544600117013	0.286604741624961
10.3	-0.315307457190967	-0.914198254324081	5.77765116093707E-06	3.93895182130501E-06	-6.16558617589398E-06	1.37877148654333E-06	-0.905928792047592	0.404085768370668
10.4	-0.386240746653211	-0.883557675585728	2.10569488389963E-06	1.0505544380821E-06	7.10222448341653E-07	-8.23989975220003E-06	-0.847483945475706	0.515409928331348
10.5	-0.454342554850752	-0.846927414759131	4.37537721471424E-07	-3.06131806127231E-07	-6.53782644610785E-07	-5.63876496082025E-06	-0.774287031006867	0.617912613079282
10.6	-0.518043785310616	-0.804658107912848	5.09521891119463E-06	-2.6049366861626E-06	-9.75313971231357E-06	-7.89337727338106E-06	-0.689567858843301	0.709028924496997
10.7	-0.577235563907126	-0.757990675932604	-2.81705658135307E-06	-5.04438705002061E-07	-5.2270038754321E-06	-7.17876556592002E-06	-0.594899465229798	0.789149664915305
10.8	-0.632074188671702	-0.708133194876336	-3.61729331121935E-06	-3.44861301356886E-06	-1.19798924383738E-05	9.15039876457513E-06	-0.491001547142471	0.856718478984711
10.9	-0.683049392523548	-0.655480733027934	-1.13948406925334E-05	-1.04295222586448E-05	-4.47837659771656E-06	1.09700342726091E-05	-0.379978971751987	0.911197679673793
11	-0.729382027046186	-0.601297430206655	1.01168142037023E-06	1.41067681280082E-06	8.67110131014818E-06	-5.50375566837972E-06	-0.261673428109459	0.951206257578808
11.1	-0.773948389345792	-0.544592158879077	-3.26887878613954E-07	-3.63655554532973E-06	1.01955167578434E-05	-1.02118201660078E-05	-0.140069026401349	0.975149952931002
11.2	-0.815011916637403	-0.484177030207887	-1.03288060433105E-06	-3.91794638616716E-06	2.16418685650513E-06	-6.31831034771056E-06	-0.0163487147964725	0.983973137705388
11.3	-0.851993955966406	-0.41997343892573	1.63849734491385E-06	-1.2056363013005E-05	3.57005269141437E-06	-2.82417335831611E-06	0.107154321153667	0.977498740902442
11.4	-0.883529943182277	-0.353156404629974	9.8775259302971E-07	1.87667598486636E-08	-5.69705879033274E-06	6.46666324133618E-06	0.229473044624521	0.956180546421649
11.5	-0.91129189321626	-0.284309598794878	6.55659879648811E-06	-1.23793951590876E-06	8.25004690208465E-06	-3.07212686023452E-07	0.347925973308205	0.919476633436174
11.6	-0.934070962499195	-0.211461042975364	-6.38182136831674E-07	-5.33663115386957E-06	1.44132780547315E-06	-3.08493062929976E-06	0.461143274505215	0.867790204534904
11.7	-0.949534305054785	-0.135628010608189	-9.37615641834045E-08	-6.05534402006339E-06	8.93790468129155E-07	-2.66155841746571E-06	0.566572980114057	0.802563530569466
11.8	-0.958622493630188	-0.0581562588533274	-1.07268071204307E-06	-7.41652655290965E-07	5.17179510856844E-06	1.07930166314995E-06	0.663365506021043	0.725206816010241
11.9	-0.961154468744857	0.0205829155215339	-3.2236725311945E-06	-5.21359361137712E-06	-5.39870694700892E-06	-8.01746448684943E-06	0.750003123641302	0.637360804272212
12	-0.957152286030963	0.0986631503895889	-2.94743008298916E-06	1.64854166600782E-06	-1.67688185001931E-05	-8.74323354594048E-06	0.826656830580034	0.53765019243795
12.1	-0.947933905227051	0.176734427166009	8.23860534825488E-07	-1.56976700833866E-06	7.88222697268857E-06	1.22740917973657E-05	0.887525193411773	0.427768518829505
12.2	-0.931111950101025	0.254729394275825	-4.09946933177678E-06	5.55726712916061E-06	4.20517813772398E-07	3.31316744173696E-06	0.934276311783935	0.312081758030474
12.3	-0.908436026817808	0.330925227076498	7.84599993909209E-06	6.3788274478231E-06	4.3586261281288E-07	1.08961239602415E-05	0.965944891106677	0.191070403320989
