# GHZ S RI R 50
0.2	0.986262530130411	-0.156788353340348	2.56476570786289E-06	2.25110510023481E-06	6.57345403656314E-06	-4.869126176275E-06	-0.966651536800564	0.251554867546569
0.3	0.970284479995043	-0.233941420768371	-8.7293871588073E-07	-5.45633145344839E-06	-3.46618681049246E-06	-7.94951020266342E-06	-0.927142382428888	0.371560604999929
0.4	0.94889841805765	-0.309316649662165	-7.28270592299195E-06	-9.93628997688202E-07	4.44320516994438E-06	1.54707318337762E-06	-0.87261850086716	0.485381969829139
0.5	0.922122858544431	-0.383094077623369	6.20449033927385E-06	2.10679594313698E-06	-2.41586229773081E-06	-1.90967500511392E-06	-0.804192711647042	0.592024228320778
0.6	0.888934693231598	-0.454304069452618	-1.05581956393473E-05	2.46362078206263E-06	-2.22001433556766E-06	-1.00753336254559E-06	-0.722378561093485	0.688443967215244
0.7	0.850686420629723	-0.522211686218981	2.78604686322001E-06	-1.17298740843434E-06	-2.98935702341918E-06	5.79241708069264E-06	-0.629797953233937	0.773889201332282
0.8	0.807168928060696	-0.587378316280875	1.17699228876255E-06	-8.48226818187829E-06	-6.62574010419495E-06	-3.0720955126639E-06	-0.527106439258119	0.846964754735838
0.9	0.758545482449607	-0.6491063263191	-1.14769416321954E-06	-6.81443070422332E-07	2.55067574764701E-06	6.54823606647761E-06	-0.416169039253301	0.906387974992816
1	0.70490618449411	-0.706796304640037	-2.74699344126083E-06	-3.22437528505374E-06	-4.06156311674984E-07	-7.32112593627027E-06	-0.298963375614703	0.951197813419538
1.1	0.647949933803603	-0.760094461217695	1.80813327740503E-06	-4.94454533620176E-06	2.27189833318625E-06	-5.13816282196848E-06	-0.176841025605223	0.981237629674065
1.2	0.585507552658627	-0.809721225838808	-2.4980020246924E-06	2.4936623760262E-06	9.26933556205104E-07	-9.11624170663129E-07	-0.0516149868456352	0.995523882403353
1.3	0.517699298953745	-0.854336962061823	-1.53940484367661E-06	7.20433448085254E-07	-1.356548529876E-06	1.4650612385779E-06	0.0746109921918821	0.994209345555326
1.4	0.446640168039737	-0.892814037047711	3.92415107587073E-06	-3.24613001821156E-06	2.71245467117278E-06	1.09481714828879E-05	0.200348603571946	0.976193857977568
1.5	0.374105800385398	-0.924598019251131	-5.339800024919E-06	1.11442477088602E-06	6.58836018364595E-06	-7.21625612742178E-06	0.322390017019528	0.94256141196411
1.6	0.300635201610205	-0.95151964279905	1.77152356881823E-06	-7.74487307697331E-06	3.63516983916338E-06	1.38058449516556E-06	0.438485260565817	0.893498520854902
1.7	0.22581686847866	-0.971811320999456	-1.94337369020695E-06	-9.68261207548049E-07	-2.37437695486556E-07	-2.0879283891624E-06	0.546567241526482	0.831327346699509
1.8	0.148945526150347	-0.986307883945873	2.85654180846053E-06	5.27885480063022E-06	5.89448283792547E-09	2.03234137775177E-06	0.646358143596495	0.75578435767892
1.9	0.0715634631797453	-0.994630430240763	5.67395195227666E-06	-2.63510213232567E-06	-2.99842180784692E-06	4.17509619312558E-07	0.7350602088055	0.668748650595426
2	-0.00505950883685645	-0.997622522771425	-1.55017457609703E-06	-2.02887036410839E-06	3.21627103005954E-06	1.14709255351038E-05	0.813415469544337	0.571942892212334
2.1	-0.0845596795958367	-0.994719058124261	-7.56181240240805E-06	2.46743809273973E-06	1.21506642031327E-06	5.15204652953553E-06	0.879218438670729	0.464232191351207
2.2	-0.161576856414489	-0.984980479105879	-8.82102069874174E-07	1.39677446014216E-06	3.01680024706852E-06	7.78008500430776E-06	0.929972298401266	0.34972367637566
2.3	-0.238915474884576	-0.96887000615641	1.88755201081437E-07	7.45859436528337E-06	7.41416231233222E-07	9.38520178598221E-07	0.965546567880909	0.230651675202157
2.4	-0.314977614496105	-0.946421483662303	1.58733213741402E-06	7.17708276062383E-06	1.5283386115816E-06	6.39000421069429E-06	0.986551416779666	0.107305630324728
2.5	-0.388337836490115	-0.918662082900783	4.39152296090968E-06	-2.31888011612598E-06	-1.92136357472179E-06	-7.57485858162643E-06	0.991737316702966	-0.0167825949540547
2.6	-0.45955579257316	-0.88482911136102	6.77105287697568E-06	-5.9530971944548E-06	-1.11010745305499E-05	1.08418052723046E-05	0.981758610316952	-0.141131023940459
2.7	-0.528067272365049	-0.845649301021825	-4.44153376269147E-06	9.15319000551781E-06	-2.88051370380477E-06	-9.16585118592918E-06	0.956271725903172	-0.263436312637692
2.8	-0.59250893091582	-0.80175142665889	2.46114328508048E-06	1.14310291659063E-06	-3.13050231980589E-06	1.2473554894313E-06	0.916264450346494	-0.38140345719849
2.9	-0.653274888043959	-0.753138634653958	-5.50003394574286E-06	6.02808712750592E-06	-9.20500271941821E-06	-2.74244771093871E-07	0.861027339971929	-0.49332591363662
3	-0.709917320006087	-0.698476868571786	4.70073141399259E-07	-1.475232060476E-06	1.13383482552713E-05	1.44328939226865E-06	0.792187147364817	-0.597704081423037
3.1	-0.761593685319768	-0.641664084928594	2.42567657188623E-06	1.04937414592962E-05	4.3300777861006E-06	2.16632150355594E-06	0.710866717664559	-0.69211465282343
3.2	-0.809547617638166	-0.580820254729919	2.11650238003123E-06	6.46140167660881E-06	3.98019970112805E-06	-1.06119797605192E-05	0.618410902704953	-0.77557401102718
3.3	-0.852628861261582	-0.51615107607692	3.09043892236241E-06	4.95339974549229E-06	-2.2434902568943E-06	-9.65997237322757E-06	0.514992792531243	-0.84725504954888
3.4	-0.889485010668815	-0.448224846682338	2.11686363601035E-06	-2.60547918933537E-06	5.95357977959055E-06	1.36764969382816E-06	0.404482711979812	-0.904519920928783
3.5	-0.920702534111876	-0.37713615358479	-3.23208544407227E-06	9.47673953129606E-07	-2.06546956353604E-06	3.41814893778995E-06	0.288465749867418	-0.946710427191707
3.6	-0.948242470840025	-0.304642834117109	-1.81419931735257E-06	-3.73935848541804E-06	-7.81390014673454E-06	4.10896478765822E-06	0.167831113094353	-0.976827264113622
3.7	-0.969498289798986	-0.22932503075354	8.11213821104246E-07	-8.32072708916379E-06	1.07635938239831E-05	3.68048587479471E-06	0.0424945360519005	-0.990172970282601
3.8	-0.984635992117994	-0.151756989919131	9.37821047984727E-08	1.54490797861571E-06	-6.50400194266848E-06	5.95225081475284E-06	-0.0823064084505507	-0.987109334653588
3.9	-0.993149329552111	-0.0737964423131551	-2.62821868371621E-06	-5.01962829157553E-06	-3.69289039724943E-06	8.01848670754091E-06	-0.206957584009834	-0.968495712857672
4	-0.995259563452935	0.00527925712758234	7.12512446520135E-06	-3.86562705107923E-07	-1.04519300834206E-06	-1.2043178583122E-06	-0.326173646147909	-0.935392120302196
4.1	-0.991623669861349	0.0831212244698103	6.1877735882602E-07	-4.44310369803919E-07	7.34314353278315E-06	-4.76159297971141E-06	-0.442069184581315	-0.887148329424704
4.2	-0.982206814614529	0.160776998203381	3.20517809495088E-06	2.0979199127205E-06	-7.18689014405607E-07	-7.60640369358061E-07	-0.550322897154981	-0.823965655190897
4.3	-0.967058659976477	0.236475116041119	-3.18548933697015E-06	1.37365691738291E-06	-4.98953728142156E-06	2.9831693610306E-06	-0.649429680382629	-0.748623928770427
4.4	-0.94657851972996	0.311148432144	8.03174590354568E-07	2.64064679065415E-06	1.55357896174329E-06	-8.32629097936289E-06	-0.738317579015319	-0.661486300068436
4.5	-0.919461062054792	0.386029977307048	1.82588892256363E-06	-9.39929884204946E-07	7.6389737503188E-06	-2.53006393643959E-07	-0.816333905381503	-0.563599368381983
4.6	-0.88458377139091	0.457043332908704	-7.2604247069987E-07	6.13633692049289E-06	-1.23598479469091E-05	-6.48398400545026E-06	-0.880526250347042	-0.456343765217807
4.7	-0.846150305843342	0.523658217981001	1.2043423704965E-06	2.51257514362024E-06	1.42358888166707E-06	1.86725625316427E-06	-0.931391991564508	-0.342377543991346
4.8	-0.8019836029904	0.588813008627995	-5.17388383595251E-06	1.11456081554465E-05	5.24740066515736E-06	9.69688524455831E-06	-0.967404486520876	-0.222203612528578
4.9	-0.752983759209518	0.650266565267713	1.20536045357965E-06	2.93308196890698E-06	-4.95601793498137E-07	-6.92090676719715E-06	-0.988188093769086	-0.0974435705151212
5	-0.697545916570898	0.706879474315268	4.73571753572866E-06	-9.22553657970064E-07	-3.73370362106324E-06	2.43234463007612E-06	-0.990427471987441	0.0292247018588873
5.1	-0.640395678430672	0.757638167333486	4.12771884555174E-06	-1.45982067464676E-07	-2.66412948837316E-06	-9.79546579066099E-06	-0.978560438373758	0.151739377035166
5.2	-0.579699647169459	0.806270314001306	2.60502370599213E-06	-1.49728063528945E-05	1.37856330690084E-06	2.8170486653703E-06	-0.952415457935649	0.273985259789877
5.3	-0.514698579064134	0.850110588113949	-8.6949377942841E-06	-7.76425780676616E-07	-1.13276259071168E-06	1.59245119181522E-07	-0.910216379579421	0.39216626082346
5.4	-0.446378971932413	0.888545437578011	-7.15855135989762E-06	-1.10358075490788E-05	-1.37120559146784E-05	1.11576069816091E-05	-0.853046014700831	0.503127054508901
5.5	-0.374935574509249	0.921017202872348	1.90240758264542E-06	9.31783583529549E-08	-2.24638965332339E-06	1.77674818477069E-06	-0.783830222982996	0.605306066715285
5.6	-0.301652017081006	0.946662610971874	-2.41227420556697E-06	3.51039444561015E-06	-1.34302821977498E-06	1.28738527199963E-06	-0.702482774536842	0.698794942276087
5.7	-0.226957883433877	0.967512428300673	1.30399005184621E-06	1.2321385283131E-06	5.75909457191471E-06	-1.12613024001566E-07	-0.609832079808	0.781356329852627
5.8	-0.150768257276221	0.982049343028359	2.69463117925177E-06	4.25760537893487E-06	-2.11480195327825E-06	4.23503920686874E-06	-0.507340692793669	0.851281368149514
5.9	-0.0745153096309596	0.990875329549435	-6.86649706544448E-06	-2.30989751815553E-06	-9.0006768445244E-08	6.27561333032392E-06	-0.397972761288934	0.907614731145861
6	0.00217808216090546	0.996529632589592	-1.7908434419738E-06	7.99400246009547E-08	-5.43238559115595E-06	-4.41469277096127E-06	-0.283227597950909	0.951937772500645
6.1	0.082889193283862	0.994012723403964	9.34284564648995E-08	-9.93197808569185E-06	-9.68405811742484E-07	-3.22562551266391E-06	-0.160639397806872	0.98118285410032
6.2	0.162153385547881	0.983541830011291	-1.03860627204172E-06	3.11583642513446E-06	-1.7826315565369E-06	4.21700403402631E-06	-0.0352855861582013	0.993236744445201
6.3	0.239905451027531	0.966860743253691	-8.19159601394869E-07	2.83634758032425E-06	-2.95704387297596E-06	2.39176327077379E-06	0.090046249726311	0.98929519509281
6.4	0.315614765467013	0.945090685029908	-6.01426634889664E-06	5.54815223614416E-06	-2.38947667128913E-06	-7.61018145018866E-07	0.213641300210639	0.970560424896476
6.5	0.392692527331526	0.917458677608344	1.41730731020223E-06	-5.3086759011876E-06	-1.45587463687639E-06	-2.39319683689344E-06	0.336973482757502	0.936399894312085
6.6	0.463589476642745	0.880029352056437	3.66905626557098E-06	2.04884190189281E-07	1.1346764125354E-05	-2.70713047871682E-06	0.451749125930743	0.883194039921392
6.7	0.530471499745896	0.84020553481604	-7.76926871656322E-07	8.50635222555721E-07	-3.77199533809987E-06	5.2492473396882E-06	0.557401508488137	0.819130199577485
6.8	0.594916001779286	0.795449741806014	-1.75085109488667E-06	4.49756246838687E-06	1.45466198823278E-06	-8.87029115288049E-07	0.654904737734365	0.742621601840033
6.9	0.655554903098915	0.74574819613532	5.9245195555812E-06	2.24043344291873E-06	-9.27938072436388E-07	2.41765985124938E-06	0.741778219108371	0.654633009759868
7	0.712486473677764	0.691566776643573	1.14365032470745E-06	-4.1477426371746E-06	-1.43015781809403E-06	2.91494901859368E-06	0.817607268321397	0.55720096774751
7.1	0.764901843409739	0.63250806226169	2.41037593564789E-07	-7.18952650980901E-07	1.96834512229211E-06	9.20282592242079E-06	0.880930317598572	0.449793812341383
7.2	0.81221230061901	0.569291573744049	1.38682445133402E-06	-2.41817275447585E-06	-1.01606156630528E-06	-8.57957772424488E-06	0.929508576859953	0.335561777661172
7.3	0.854248485476348	0.502013020298755	4.8560258290071E-06	7.22744238325605E-06	-9.72447849794481E-06	2.35442392226124E-06	0.962894094012691	0.215779680929812
7.4	0.890169388322242	0.431025218032481	5.08929098928599E-06	-7.02970633870985E-07	1.89978494927635E-06	-9.63880322046022E-06	0.979689292122927	0.0924873565246664
7.5	0.919376457831812	0.360193463492786	2.71645234726167E-06	-5.28365807365405E-06	2.06612611309898E-06	-7.24095153021667E-06	0.980844721774815	-0.0274177510364083
7.6	0.946664886635322	0.286205670903446	-3.09664508382576E-07	-5.60931572755078E-06	1.66873990128243E-05	3.85672457013774E-06	0.971676734183809	-0.149440820431445
7.7	0.966657277948451	0.209167772417713	3.50059548531782E-06	1.14739301764644E-07	3.26010899623276E-07	-2.91026320828389E-06	0.945364152798665	-0.270143025250974
7.8	0.980158158261121	0.131304381102418	-1.09171114257093E-05	-1.94058193740918E-06	-2.11585663700036E-07	3.42105932782014E-06	0.904504599022117	-0.386149663079381
7.9	0.987363559932165	0.0538606124840777	2.33424404617207E-06	2.03407878720161E-06	-6.88524962884692E-06	-4.72688483855059E-06	0.850362143536504	-0.495237562333263
8	0.99296013957719	-0.0236219137261304	2.32685236232594E-06	2.97263867353548E-06	-9.27085961061406E-06	-7.67434190601093E-06	0.786889546643265	-0.599980580045564
8.1	0.989483904300545	-0.107410949892306	3.85508920124334E-06	-3.0616030351454E-06	2.16997705772251E-06	-3.18524178329834E-06	0.703802189898028	-0.699322516433702
8.2	0.976772393160949	-0.18764961988146	-4.05474942395607E-06	1.41110690195732E-06	-6.7798659018708E-06	3.44619423641549E-07	0.608422230734181	-0.782769493750448
8.3	0.957726193568945	-0.266153858378581	9.9023018861986E-06	3.0959971330859E-07	6.25555747929948E-06	1.0498113149156E-05	0.504165066107378	-0.852888101927634
8.4	0.932500343520513	-0.342755502245427	1.29006829646003E-06	2.56659304963232E-06	3.47427997478144E-06	1.82986270529E-06	0.392147380700564	-0.909146953228976
8.5	0.901304698340467	-0.417596545165915	-4.85079042059792E-06	4.97972762053029E-06	2.85846369196145E-06	-3.03211211645131E-06	0.275047717112278	-0.950389454286146
8.6	0.863483126525382	-0.489392881832342	-4.51169025696456E-06	2.09323685485003E-06	-3.04720687505531E-06	8.1407055851548E-06	0.153335415556432	-0.978818609709498
8.7	0.820406364877659	-0.557608629257079	-1.02503991742952E-06	1.2206876266301E-06	-6.46752459636155E-07	3.47638641136766E-06	0.0278835802028502	-0.990865899851897
8.8	0.772074126868137	-0.622164107646874	-1.59102145582259E-06	3.09411298979562E-06	-6.03589128654598E-06	1.293230449009E-06	-0.0978810090120072	-0.987159666685371
8.9	0.718534880434846	-0.682949549701852	3.19032886938117E-06	-1.84861924912599E-06	-3.18529423468494E-06	-4.54107672545332E-07	-0.223850770984723	-0.966788312160817
9	0.6593719907054	-0.73775366780678	-7.31240937199058E-06	1.39521154353084E-06	-3.9919098687863E-06	7.49204498435722E-07	-0.344383338582362	-0.927058524162508
9.1	0.597825411564651	-0.787908440944195	-3.37100216254741E-06	-1.87108799351371E-06	-9.75668392158066E-07	2.14415510272252E-06	-0.456294983122467	-0.876273799404183
9.2	0.531284226648134	-0.833248077914639	5.9820568068915E-06	-1.66988197145073E-06	2.028139421724E-06	8.4778792296971E-06	-0.56235870381959	-0.812218153146863
9.3	0.461309427342038	-0.872726800610549	-3.34523689715742E-07	1.07139227436514E-06	1.37100061237572E-05	1.17647307993851E-05	-0.659269884073407	-0.735169512004452
9.4	0.38741905281962	-0.905388828856195	1.71810428758436E-06	-2.66149266227601E-06	4.2835930732791E-06	1.73894161980938E-06	-0.745106531239259	-0.646412720210702
9.5	0.314952172671144	-0.930196728541096	-6.47818853217409E-06	-4.8793072113912E-06	-1.93242679672539E-06	-5.68637975099193E-06	-0.818166642398267	-0.550505197099742
9.6	0.238039892947531	-0.955510863472706	-1.16883551703214E-05	-2.84679696793542E-07	-5.92036141343711E-06	-4.02860337179357E-06	-0.88539362786827	-0.445521073628957
9.7	0.156349251705753	-0.971304304703619	1.47048275478301E-06	-4.78389294161714E-07	-2.92297450685806E-06	1.64278011019026E-06	-0.936635995169561	-0.328593945459342
9.8	0.0743864198579752	-0.978873470322575	2.20975015390906E-06	1.40188128913463E-06	1.512317845365E-05	-3.5137808596765E-06	-0.97090213225676	-0.20679138266873
9.9	-0.00707354717286487	-0.978725132056444	-3.46124515599753E-06	8.98480098640588E-06	1.37792071795212E-05	4.98941374314194E-06	-0.989511587185904	-0.0816838896357486
10	-0.0864707193554122	-0.972584564598811	-3.64731775663164E-06	1.62461147712033E-06	1.9254774524228E-05	-1.81944741419788E-05	-0.991111053059034	0.0442313565104178
10.1	-0.166277652101718	-0.959308266635667	-1.47871407587339E-06	2.30673043880288E-06	-8.43565270019396E-06	-4.30712378326933E-06	-0.978196374114558	0.168483182015425
10.2	-0.242801660722442	-0.939066074881141	-2.312195516583E-06	-1.24146402265343E-06	-1.2929880029822E-05	7.24021041158443E-06	-0.949577785696369	0.290698701430518
10.3	-0.316016498581722	-0.913346677346075	5.77146247598008E-06	3.93464338254054E-06	-6.15892308072921E-06	1.37734974183999E-06	-0.906495881709098	0.40787897499579
10.4	-0.387224292664149	-0.882668054480368	2.10548307853693E-06	1.05283273799584E-06	7.17941792624388E-07	-8.24215375370164E-06	-0.850025756753817	0.519517223839981
10.5	-0.455414000338717	-0.844656491334934	4.38731485978937E-07	-3.07562544351232E-07	-6.61136622148955E-07	-5.65715709334517E-06	-0.777027791311896	0.626810262235956
10.6	-0.5179107990181	-0.801575239671698	5.09598307225755E-06	-2.63074475341436E-06	-9.80553882619538E-06	-7.87194904695771E-06	-0.688062544079918	0.718514916717936
10.7	-0.575832340137442	-0.754734048614519	-2.82081141057286E-06	-4.91589474279642E-07	-5.26300470716309E-06	-7.15804601303178E-06	-0.591341146870482	0.79716922074228
10.8	-0.629822127002129	-0.705840960731174	-3.6316533351634E-06	-3.43151876150539E-06	-1.1935736911972E-05	9.20124117991353E-06	-0.486914455321208	0.863312747982062
10.9	-0.682153541194941	-0.65362853626266	-1.14457567522572E-05	-1.03659316242168E-05	-4.41909236588317E-06	1.09897824671245E-05	-0.375191386258183	0.917256551389055
11	-0.726837919502716	-0.595709653022278	1.01629913048585E-06	1.39940581375859E-06	8.60607102190471E-06	-5.5348029947531E-06	-0.255766125619987	0.954230698103672
11.1	-0.767943811880732	-0.541982048627869	-3.34653279445596E-07	-3.62201451434607E-06	1.01317450618661E-05	-1.01984910915606E-05	-0.137550205099257	0.977636770319878
11.2	-0.809575781014648	-0.483691586338084	-1.03859064713162E-06	-3.90648138253149E-06	2.14587538821126E-06	-6.3078027280537E-06	-0.0138826371221073	0.9881040386745
11.3	-0.8474577991819	-0.420220201300201	1.60402809133388E-06	-1.20386516600121E-05	3.55616694898849E-06	-2.82834421557168E-06	0.110968671491663	0.981978593314764
11.4	-0.879240640656623	-0.352623963266076	9.85554280677765E-07	1.54850823933063E-08	-5.66282113725682E-06	6.47054845877012E-06	0.23437433511921	0.959733349680334
11.5	-0.904191397421679	-0.285123392380734	6.53381960494768E-06	-1.24802058939092E-06	8.22403275796637E-06	-3.2374186727517E-07	0.352877722902252	0.921780184744012
11.6	-0.928997848162846	-0.21512972729664	-6.48516568979071E-07	-5.32365343615606E-06	1.43142700327234E-06	-3.08140377145764E-06	0.465941137655645	0.869021424950914
11.7	-0.946367773537903	-0.139244627450988	-1.09499611360003E-07	-6.03986497107527E-06	8.84521066821374E-07	-2.65722129584037E-06	0.570860968905219	0.80240423337164
11.8	-0.956931324411704	-0.061117326979402	-1.07110385304269E-06	-7.36359101510927E-07	5.15757389948072E-06	1.06202542779733E-06	0.665965516989077	0.723372331169976
11.9	-0.960783867583012	0.0194482577967689	-3.21682926840306E-06	-5.18441045545231E-06	-5.38613709546679E-06	-7.97190067051583E-06	0.748181318496451	0.635403987749395
12	-0.955546859312197	0.100561054026989	-2.939877622598E-06	1.6400745426286E-06	-1.67059790507078E-05	-8.73385496165628E-06	0.824056047928318	0.541585420327865
12.1	-0.944004620598217	0.178883067528202	8.22049138750022E-07	-1.56666819801394E-06	7.86741908597889E-06	1.22485381431362E-05	0.886761595140485	0.431285450783002
12.2	-0.925631378198884	0.255866894036325	-4.08987844762193E-06	5.542675043078E-06	4.19003024347628E-07	3.30485952201377E-06	0.932838640422252	0.316409144021058
12.3	-0.90242024444714	0.330476770181643	7.82046549666719E-06	6.37300689703362E-06	4.22359725240459E-07	1.08713175848471E-05	0.96502531622334	0.197041713171344
