# GHZ S RI R 50
0.2	0.985752847529472	-0.15673807341587	2.56411018441942E-06	2.24959166413945E-06	6.56957599314141E-06	-4.8683568244839E-06	-0.966185254371628	0.251799874186273
0.3	0.969730130049082	-0.2337771301089	-8.73872216895385E-07	-5.45317660241102E-06	-3.46636830127211E-06	-7.94434981619512E-06	-0.926461552269219	0.371815775511248
0.4	0.948271280323563	-0.309062301586309	-7.27789821028637E-06	-9.90658047002147E-07	4.44056557778301E-06	1.54459942547182E-06	-0.871648886585681	0.485524981213288
0.5	0.921350737040346	-0.382543784498756	6.19871164439087E-06	2.1038182189863E-06	-2.41377209326651E-06	-1.90744668892298E-06	-0.803056824229632	0.591715928189552
0.6	0.888380627503014	-0.453483438380537	-1.05489565961611E-05	2.46109457167436E-06	-2.21802093725489E-06	-1.00671774988716E-06	-0.721447070121492	0.687997079875574
0.7	0.850275889811843	-0.521291797389673	2.78354723037612E-06	-1.17187825303357E-06	-2.98675343383017E-06	5.78712621501486E-06	-0.628783285903179	0.773321740876735
0.8	0.806914778664151	-0.586353436600507	1.17641336486285E-06	-8.47398176734806E-06	-6.61912520120441E-06	-3.06956001578046E-06	-0.526082885046501	0.846128884075098
0.9	0.758541149353752	-0.648057558508533	-1.14648457808495E-06	-6.80954527967114E-07	2.54724282337421E-06	6.54228725169956E-06	-0.415270949271932	0.905278702990115
1	0.705081215046421	-0.706064926277939	-2.74420547846794E-06	-3.22191516466304E-06	-4.04892866364693E-07	-7.31481489126533E-06	-0.29829495047836	0.949869607271524
1.1	0.647824300077948	-0.759516220250126	1.80670437483396E-06	-4.93990284810434E-06	2.2700514111191E-06	-5.13331970318577E-06	-0.176557771541836	0.979799201949788
1.2	0.585283242715495	-0.809042241150915	-2.49605103532872E-06	2.49099238210558E-06	9.2620761840634E-07	-9.10646096104819E-07	-0.0517953425284169	0.99419593702838
1.3	0.517542898752614	-0.853544910151195	-1.53836049080319E-06	7.19261058279768E-07	-1.35593067497689E-06	1.46332334534182E-06	0.0739523392243802	0.993151873780601
1.4	0.446735857863247	-0.891997625761298	3.92335498609424E-06	-3.24116622502762E-06	2.70331138398999E-06	1.09418180167753E-05	0.199353130073545	0.975401937646073
1.5	0.373966396136013	-0.923763427001334	-5.33639422989496E-06	1.10963314180492E-06	6.58843577904434E-06	-7.20572571178427E-06	0.321133308801767	0.941838679730092
1.6	0.300711027412787	-0.949914748303222	1.77687804060145E-06	-7.73512977778536E-06	3.63008578361209E-06	1.38252377706004E-06	0.43714984646076	0.892987482396396
1.7	0.226449230990124	-0.970070580550488	-1.94014364298615E-06	-9.69351937186606E-07	-2.3485073903454E-07	-2.08588026150315E-06	0.54526289981782	0.83085719712875
1.8	0.149915891552614	-0.984680840510479	2.84722200223391E-06	5.27653988151141E-06	3.48576771530729E-09	2.030157122632E-06	0.645072540334189	0.755394188997197
1.9	0.0726074194084199	-0.993217077230404	5.6707184438615E-06	-2.62650744977659E-06	-2.99571043188068E-06	4.1398901277515E-07	0.733919655414897	0.668305666906193
2	-0.00417613011874071	-0.995942411486978	-1.54577294383948E-06	-2.02704172006508E-06	3.20034911223527E-06	1.14553990877E-05	0.811708514217501	0.5711327787581
2.1	-0.0831312325047125	-0.992856136953759	-7.55363742059176E-06	2.4513268435478E-06	1.20483763653797E-06	5.14572786721128E-06	0.87712508536485	0.464460708604765
2.2	-0.159780533481012	-0.983262150566308	-8.83368518803413E-07	1.39341485250873E-06	2.99935649595818E-06	7.77512340112863E-06	0.928364371283957	0.350457926791399
2.3	-0.236751897203976	-0.9673378124835	1.75313114078531E-07	7.45022223489378E-06	7.38887043080379E-07	9.38738902220276E-07	0.964300042489695	0.231557745378496
2.4	-0.312421223710743	-0.94524756680134	1.57230725259568E-06	7.17227581764059E-06	1.51483715693789E-06	6.38593785554863E-06	0.985541171204167	0.108331562524811
2.5	-0.38561373077898	-0.918081872391025	4.3920964475333E-06	-2.3078945043788E-06	-1.90434927941783E-06	-7.57167001186704E-06	0.990919587066784	-0.0155301053490327
2.6	-0.456937308448805	-0.884623391277094	6.77762314967679E-06	-5.93515981212809E-06	-1.11139832725058E-05	1.08115680844123E-05	0.981314620960859	-0.139777906853155
2.7	-0.525462881529376	-0.845651247655994	-4.45579572189591E-06	9.13650857421174E-06	-2.8599066663571E-06	-9.16363437447684E-06	0.95597621077749	-0.262043012332008
2.8	-0.589781615799651	-0.801953596744283	2.45625515575059E-06	1.147169539023E-06	-3.13000600389571E-06	1.23947494624108E-06	0.91616743703473	-0.379826608637652
2.9	-0.650357292583015	-0.753824171598539	-5.50810171103937E-06	6.00841111028186E-06	-9.19409453827425E-06	-2.95621887810366E-07	0.861268625596507	-0.491605204829751
3	-0.707660125544682	-0.699875328601953	4.73592257626882E-07	-1.47264459721576E-06	1.13242607547445E-05	1.47229409163463E-06	0.792859191899736	-0.59588438953131
3.1	-0.75974172220405	-0.642503689735854	2.39729010967631E-06	1.04923193165651E-05	4.32145206800606E-06	2.17574727115635E-06	0.712218338270763	-0.69034773928218
3.2	-0.807457255850156	-0.58165489350381	2.09854631690252E-06	6.46238656703264E-06	4.00458688653878E-06	-1.0594548153391E-05	0.620366798336516	-0.774245942810681
3.3	-0.850496802064141	-0.517315756137773	3.07580141392704E-06	4.95927377969285E-06	-2.21673602738114E-06	-9.66136531623151E-06	0.517451651508669	-0.846528267964871
3.4	-0.887670715733161	-0.449857827844265	2.12382664711695E-06	-2.59998841160848E-06	5.95019664561834E-06	1.38342683576716E-06	0.407315748166022	-0.904762912548303
3.5	-0.919603745339944	-0.378523342425741	-3.23466792119302E-06	9.4196140240963E-07	-2.07230413673965E-06	3.41522551408413E-06	0.290476920841499	-0.947969962324214
3.6	-0.94676484384738	-0.30587551251906	-1.80618283434338E-06	-3.74184937994186E-06	-7.81974013506793E-06	4.09211700401229E-06	0.169674389275215	-0.97767472952402
3.7	-0.968078079007913	-0.23102644267623	8.30594296556916E-07	-8.31815282827757E-06	1.07541145496568E-05	3.7053417258984E-06	0.0445894199076681	-0.991441021108486
3.8	-0.983557031033565	-0.153863060270058	9.00650618566029E-08	1.54545269798732E-06	-6.51973577153554E-06	5.93774580859852E-06	-0.0803607537414951	-0.988859452123988
3.9	-0.992635561784252	-0.0762498439854844	-2.61720955343778E-06	-5.02751856483773E-06	-3.71309983113713E-06	8.01241010784312E-06	-0.205345791540942	-0.97044994335075
4	-0.995607545113209	0.00286168214392302	7.12774790105167E-06	-3.67957018529127E-07	-1.04226950796859E-06	-1.20733196255477E-06	-0.324438741021535	-0.937156676475616
4.1	-0.992393586035663	0.0811487003286578	6.20464381979195E-07	-4.42825640577493E-07	7.36169434283327E-06	-4.74363501900971E-06	-0.440002195505536	-0.889656153923485
4.2	-0.983201867981697	0.159076437577322	3.20257246038081E-06	2.10877154091134E-06	-7.17308743473959E-07	-7.63358687261582E-07	-0.54873779621364	-0.827172981677644
4.3	-0.96820324312351	0.235011353711341	-3.19277197776426E-06	1.36735548785672E-06	-5.00302263392968E-06	2.97430412513498E-06	-0.648537039845589	-0.752172543161389
4.4	-0.947725062043677	0.309661202884833	7.98642696208473E-07	2.64544930626475E-06	1.57271832778153E-06	-8.33294625585854E-06	-0.738117762900779	-0.664980364838399
4.5	-0.921551242997473	0.384050022812055	1.82942537915044E-06	-9.36520618230112E-07	7.64543832115881E-06	-2.35905249072276E-07	-0.816460616531384	-0.566947953031492
4.6	-0.887669100771263	0.456404461171762	-7.42067848415137E-07	6.14302687796578E-06	-1.23610286207083E-05	-6.52319169443309E-06	-0.881067433315401	-0.459702726504797
4.7	-0.849023865042082	0.524028078523928	1.20099922100233E-06	2.51934368496381E-06	1.42198810784886E-06	1.87341327970081E-06	-0.932351718838283	-0.345682182374514
4.8	-0.804564283835358	0.589743644143368	-5.20541968582629E-06	1.1155509048925E-05	5.23762310790467E-06	9.72488524316503E-06	-0.968768451451909	-0.225460462653572
4.9	-0.755487924281506	0.65139267779771	1.20153645027007E-06	2.94165518303546E-06	-4.81782289158167E-07	-6.93610310848711E-06	-0.990015704746622	-0.10086106876394
5	-0.700571529179434	0.7090487271228	4.7520882071908E-06	-9.16065830501864E-07	-3.74996707258974E-06	2.43246954952832E-06	-0.993723678891644	0.025991868172298
5.1	-0.642026423869317	0.760846785217179	4.14054364166682E-06	-1.42678496904795E-07	-2.66341636791548E-06	-9.82800722425603E-06	-0.9821931909219	0.149898900666856
5.2	-0.58043198921052	0.80918346989247	2.62188897682699E-06	-1.50135189222727E-05	1.38067750636888E-06	2.8258934730948E-06	-0.956096259339538	0.272810336177619
5.3	-0.515044737822616	0.852732081322976	-8.71925566518629E-06	-7.81619554675223E-07	-1.13602047944061E-06	1.59304774361633E-07	-0.914010499077359	0.391808315842909
5.4	-0.44656233891558	0.890938650718156	-7.18127540556907E-06	-1.10645655960293E-05	-1.37472005624339E-05	1.11921200520633E-05	-0.856620575343934	0.503819480289135
5.5	-0.375285130693991	0.923582172002887	1.90616316786071E-06	9.20602509413945E-08	-2.249536038541E-06	1.78173008719315E-06	-0.786426095462111	0.606773686619706
5.6	-0.301349858045503	0.949791030850352	-2.41597273299236E-06	3.51757371036102E-06	-1.34524675264317E-06	1.29012768801317E-06	-0.704455802305782	0.700138392252334
5.7	-0.225792813974097	0.97051136418084	1.3072770922438E-06	1.23423078531469E-06	5.77133075404165E-06	-1.1521835685597E-07	-0.611575696471531	0.782921067090101
5.8	-0.148879495657854	0.984659462527447	2.70430431876967E-06	4.26550495295409E-06	-2.11645557283668E-06	4.24665509912547E-06	-0.508659698571444	0.853305158732791
5.9	-0.0718441414826132	0.992708231431907	-6.88821125984591E-06	-2.30507638933331E-06	-8.02876673182122E-08	6.29225262835727E-06	-0.398367235137064	0.910105344274394
6	0.00447369588404153	0.996550240142393	-1.79326225746475E-06	8.50752685153088E-08	-5.45277057439595E-06	-4.40598809067262E-06	-0.282447596049202	0.953748334644494
6.1	0.0837723006911424	0.994311681543193	7.44174144498778E-08	-9.93778520872674E-06	-9.75145984227015E-07	-3.22559444916511E-06	-0.159893180655475	0.982528608471456
6.2	0.16288149574578	0.984399714872835	-1.03456263926412E-06	3.11912984923873E-06	-1.77737071028457E-06	4.22202122307733E-06	-0.0343221390157078	0.994382279300827
6.3	0.24080960623506	0.968001569580673	-8.16123833252216E-07	2.83868463942186E-06	-2.95556092269084E-06	2.39647066889547E-06	0.0911906030582132	0.990160344190678
6.4	0.316600736792167	0.945972435320713	-6.01011824542381E-06	5.55441788090283E-06	-2.39051686563148E-06	-7.58963491232961E-07	0.214820536156733	0.9708077309326
6.5	0.392656151919664	0.919058457428522	1.41996263429593E-06	-5.3082701185171E-06	-1.45478925198559E-06	-2.39403188989169E-06	0.336940634102857	0.93671414860819
6.6	0.465102124607737	0.882795734491802	3.67480685279406E-06	2.07325281466855E-07	1.13664724171903E-05	-2.7049247389923E-06	0.4524914044697	0.884550580166065
6.7	0.533093184933654	0.842286205355564	-7.78432270696663E-07	8.52497946596183E-07	-3.77916351885545E-06	5.26061377808057E-06	0.55890803479007	0.820128582718108
6.8	0.59798706013871	0.796793683094324	-1.75206902183812E-06	4.50900292989472E-06	1.45745424622355E-06	-8.89978530246995E-07	0.656819235924749	0.743188879616877
6.9	0.658810688236407	0.746350590561305	5.94301792586984E-06	2.23916298490725E-06	-9.27455997100325E-07	2.42522529430182E-06	0.744069472272078	0.654658840191376
7	0.715462767866657	0.691602290004902	1.13605451979826E-06	-4.16003596397138E-06	-1.42625113310676E-06	2.92513039735176E-06	0.819813387637951	0.556460767038938
7.1	0.767916826911995	0.632459986404064	2.39796462757286E-07	-7.20497271217307E-07	1.99136308868554E-06	9.2114825452633E-06	0.883004033561891	0.448874708585543
7.2	0.815414496712573	0.56886770684788	1.38420738944071E-06	-2.42445370561821E-06	-1.03417719348945E-06	-8.59037332078987E-06	0.931686310558751	0.334345993708153
7.3	0.857563904525517	0.501173965506547	4.87745471966999E-06	7.23092844748288E-06	-9.73677319681215E-06	2.37613133632802E-06	0.965230805172483	0.214226113624593
7.4	0.893851462391209	0.429661939482241	5.10067997910523E-06	-7.13653531146063E-07	1.88756695643859E-06	-9.66604873064087E-06	0.98257307588504	0.0902306472106389
7.5	0.922851773269564	0.357163781701157	2.70646415353983E-06	-5.31044855980247E-06	2.0470676210989E-06	-7.27177373552741E-06	0.983005071286395	-0.0318346844700522
7.6	0.948774798628133	0.282876380874304	-3.35128635501298E-07	-5.61740200195209E-06	1.67327003221714E-05	3.78903087498215E-06	0.971948827841317	-0.153685101566506
7.7	0.96822609153189	0.205760704631104	3.50481051218507E-06	9.90151961617791E-08	3.13181942922248E-07	-2.91481131501422E-06	0.944883718047132	-0.274211326305088
7.8	0.981250674697616	0.12757552870136	-1.0932475956161E-05	-1.88760508826723E-06	-1.947750731497E-07	3.42391262686486E-06	0.903124919980486	-0.390174254449791
7.9	0.98767345282602	0.0493372410368469	2.34525685937812E-06	2.01996033957054E-06	-6.91038279477363E-06	-4.68563997539983E-06	0.847540075067893	-0.499207810904172
8	0.990918319507686	-0.0279452653849197	2.33742482708156E-06	2.95115508533266E-06	-9.28916226203253E-06	-7.6002324381759E-06	0.782097598870796	-0.601628141353511
8.1	0.987376873810114	-0.110017608117216	3.83164240061482E-06	-3.06594081356865E-06	2.15144025006528E-06	-3.18303210608148E-06	0.700787983273576	-0.698827390563409
8.2	0.974868817780692	-0.190077963306943	-4.03948103949574E-06	1.41928871514293E-06	-6.76031755581053E-06	3.63805472481325E-07	0.606511281123654	-0.782314461065259
8.3	0.955574438105222	-0.268488880274971	9.8779653484718E-06	2.8331710488558E-07	6.26671073140383E-06	1.04553601466079E-05	0.50273935639021	-0.852542591607155
8.4	0.929962149430235	-0.344841239026133	1.29263538609451E-06	2.5580013804423E-06	3.47030886240685E-06	1.81826625475506E-06	0.390894747290274	-0.909004419205866
8.5	0.898439982107513	-0.419175758118669	-4.83066448988747E-06	4.98225034823028E-06	2.84637665066482E-06	-3.03342679302165E-06	0.273321770101622	-0.949801319508374
8.6	0.860505916351058	-0.490563339658003	-4.49574741250489E-06	2.0996138363761E-06	-3.01953996177727E-06	8.12908230976783E-06	0.15251644991543	-0.9772162735883
8.7	0.817208761191231	-0.558325069338196	-1.01972572558916E-06	1.21933234583239E-06	-6.37969838840266E-07	3.46796734511493E-06	0.0281824492294317	-0.989302518546343
8.8	0.768775285209646	-0.622288394733282	-1.58184095371773E-06	3.08691398853979E-06	-6.01569021716603E-06	1.29774295719266E-06	-0.0966874479222381	-0.98600775210702
8.9	0.715458787948484	-0.682500037742265	3.17952287799677E-06	-1.84415860043749E-06	-3.17547715011353E-06	-4.51334711849605E-07	-0.221838315440906	-0.966566661092756
9	0.656470220672275	-0.737418715117993	-7.29937053538064E-06	1.38982460756599E-06	-3.98478708674643E-06	7.46286837701775E-07	-0.343136807320165	-0.928351841240055
9.1	0.594545152733038	-0.787181067936241	-3.36728141253583E-06	-1.86721788662897E-06	-9.73492202290224E-07	2.14170070888739E-06	-0.455829092334477	-0.876989734777375
9.2	0.528113936178411	-0.832052452658809	5.97330254132334E-06	-1.67186610940204E-06	2.03138179319007E-06	8.46570493257617E-06	-0.56198313323174	-0.812673496010298
9.3	0.458418133316587	-0.871275726115306	-3.33140447759104E-07	1.0705308810985E-06	1.37060755912241E-05	1.17387986918114E-05	-0.659003882452464	-0.735282248542885
9.4	0.384872487208397	-0.904280607779505	1.71312194628273E-06	-2.66236682535897E-06	4.28349030471188E-06	1.7315601840498E-06	-0.745214099648644	-0.64611908750676
9.5	0.31094604220887	-0.929185019918489	-6.4846959667683E-06	-4.85110362759517E-06	-1.94816290434909E-06	-5.6718264662023E-06	-0.817851383131787	-0.54779488298394
9.6	0.234355356575343	-0.952575726361143	-1.16510079830157E-05	-2.5604036144418E-07	-5.91065438703832E-06	-4.00146107410856E-06	-0.881771679973502	-0.443137420815105
9.7	0.153657361070307	-0.967874259280882	1.46495347293982E-06	-4.78882739828512E-07	-2.91100831093049E-06	1.64147675272906E-06	-0.932093391980314	-0.328108282679568
9.8	0.072387882008338	-0.975280173313761	2.20413532826298E-06	1.39532465161939E-06	1.50720857010816E-05	-3.51731155721873E-06	-0.966433488472706	-0.207714164852358
9.9	-0.00859911709348612	-0.975030890987223	-3.44430170858322E-06	8.95974771942253E-06	1.37405598624514E-05	4.96440478186413E-06	-0.985695162840629	-0.0835591770951185
10	-0.0874818125250164	-0.968428274236164	-3.63602227747726E-06	1.62143645714672E-06	1.91910593037001E-05	-1.81497461709363E-05	-0.987904190807334	0.0424992475927138
10.1	-0.166382448138208	-0.955358279929294	-1.47328766316441E-06	2.30137159099025E-06	-8.41538226306673E-06	-4.29026772952888E-06	-0.9743916800541	0.166605931399504
10.2	-0.242577541137809	-0.935400087505537	-2.30629473683245E-06	-1.2358996123113E-06	-1.2885474014091E-05	7.22900711885676E-06	-0.945526468992878	0.288006797806727
10.3	-0.315435853245105	-0.909770739308655	5.75486164163371E-06	3.91629517762219E-06	-6.13657032362586E-06	1.37772917703169E-06	-0.902418172191334	0.404365882015356
10.4	-0.386002374007118	-0.879376401508241	2.09716458276013E-06	1.04701734049544E-06	7.09694202866625E-07	-8.20744887451347E-06	-0.845841985069998	0.51493286175699
10.5	-0.453918937541551	-0.842297990197488	4.36825395966294E-07	-3.05654051386036E-07	-6.52911309517925E-07	-5.62968909882207E-06	-0.773867209438599	0.620616915420044
10.6	-0.516677095041638	-0.799679399068869	5.08017296576139E-06	-2.61045704703699E-06	-9.75081719296523E-06	-7.85831416780641E-06	-0.686009294775198	0.712203861943404
10.7	-0.574650703654829	-0.753063439664619	-2.8097016976231E-06	-4.95930624326669E-07	-5.22879780411784E-06	-7.14391511803615E-06	-0.589920060669101	0.790513339589295
10.8	-0.628436575942169	-0.704360340805257	-3.6110829394339E-06	-3.42918402766923E-06	-1.19190810180153E-05	9.14105883426844E-06	-0.486340950751117	0.856172817218182
10.9	-0.680281907384509	-0.65298060369244	-1.13806501981602E-05	-1.03736915630549E-05	-4.44197010399872E-06	1.09449929702073E-05	-0.376196166223147	0.910079640487116
11	-0.726427583528996	-0.59623401376862	1.01128765700158E-06	1.40030259474839E-06	8.60969119618796E-06	-5.50490118190304E-06	-0.257146342181269	0.94874257189698
11.1	-0.767981290291079	-0.541194682965068	-3.27914087527567E-07	-3.61464142298262E-06	1.01264811068525E-05	-1.01593657424461E-05	-0.138085928778377	0.971106151098919
11.2	-0.809049332117903	-0.482683456450781	-1.02717427284988E-06	-3.89787417733241E-06	2.15366830437348E-06	-6.28556165963008E-06	-0.0158903639223102	0.98059491020352
11.3	-0.846495827541966	-0.419450108143911	1.63346895846706E-06	-1.19994925923841E-05	3.55394040142606E-06	-2.81015086523909E-06	0.107042698834681	0.974622572237784
11.4	-0.878328400091403	-0.352460970610974	9.82916336730616E-07	1.87037939433553E-08	-5.66935716064768E-06	6.4348378725502E-06	0.228821871297084	0.95341140035632
11.5	-0.903886241628029	-0.284543473107725	6.5213210236689E-06	-1.22273410138239E-06	8.20408400017377E-06	-2.95105209084439E-07	0.346483907443339	0.91693337353069
11.6	-0.927913771643889	-0.214558662580049	-6.25354325014493E-07	-5.31342055137865E-06	1.44046785468981E-06	-3.06815162160613E-06	0.4590155847477	0.865443072521703
11.7	-0.945031744710894	-0.13927663954618	-8.29791597060357E-08	-6.02924103974343E-06	8.94474398940173E-07	-2.64848303415092E-06	0.563618204815883	0.800392600133571
11.8	-0.955459818989485	-0.0618032477149106	-1.06661821990731E-06	-7.4011869298407E-07	5.14675033305389E-06	1.08312193135375E-06	0.659172531339711	0.723151442512674
11.9	-0.959160458824456	0.0176412296470518	-3.19540313917797E-06	-5.19276242261119E-06	-5.35288814959588E-06	-7.98637269992608E-06	0.743086140055662	0.636207482276084
12	-0.954862035317653	0.0973100695523969	-2.94060577201535E-06	1.62872651954537E-06	-1.66550671715414E-05	-8.77210148958705E-06	0.819469751606047	0.542114553370812
12.1	-0.94455579150033	0.17524984050591	8.26546888774614E-07	-1.5613337216535E-06	7.8109745585201E-06	1.2259035785522E-05	0.883305982397588	0.432537683579395
12.2	-0.92716400460445	0.252341064488982	-4.10442271321909E-06	5.52108068507173E-06	4.06704924659024E-07	3.30215784900053E-06	0.930291538258817	0.317262654548439
12.3	-0.904569949940665	0.327128820579541	7.78757981622901E-06	6.39094289192904E-06	3.843969376551E-07	1.08575079047007E-05	0.962637512476374	0.197539918147816
