# GHZ S RI R 50
0.2	0.986593146807352	-0.156619054861238	2.56503069270892E-06	2.25201071897598E-06	6.57571013993977E-06	-4.86928834598011E-06	-0.966800993592542	0.251501446775732
0.3	0.970677692143935	-0.233798342798525	-8.72377812112969E-07	-5.45808525172105E-06	-3.46602214490719E-06	-7.95239534475394E-06	-0.927347134156548	0.371530767586128
0.4	0.949330238613482	-0.309237032029522	-7.28522457938731E-06	-9.94868213325541E-07	4.4446282254842E-06	1.5481701171161E-06	-0.872877493093043	0.485414800516123
0.5	0.92245719264581	-0.383091130956351	6.20667704681977E-06	2.10772047166987E-06	-2.41668509049374E-06	-1.91042864927242E-06	-0.804440534400471	0.592187277148883
0.6	0.889195330777193	-0.454135166323363	-1.0561284598708E-05	2.46360179037637E-06	-2.22056246586428E-06	-1.00796002414027E-06	-0.722544570158657	0.688628305842285
0.7	0.851080009941902	-0.52193492995183	2.78709621159054E-06	-1.17297720912607E-06	-2.99110774794437E-06	5.79385072355298E-06	-0.629951754381842	0.774100899936269
0.8	0.807735351623176	-0.587105957792019	1.17884186029236E-06	-8.48545387309348E-06	-6.62787806960118E-06	-3.07439739213732E-06	-0.527227734945482	0.847226912327225
0.9	0.759311394659587	-0.648970385735305	-1.14818379861209E-06	-6.8196422329952E-07	2.55101668973442E-06	6.55198550394339E-06	-0.416240836973433	0.906694340618772
1	0.705713420767417	-0.707028792899027	-2.74872215598066E-06	-3.22645549795831E-06	-4.06358389238471E-07	-7.32580357971527E-06	-0.298974531159148	0.951547419012979
1.1	0.648488387121867	-0.760547024660933	1.80842303571718E-06	-4.9477804198976E-06	2.27243364467637E-06	-5.14158720149948E-06	-0.176772451920385	0.98159883978266
1.2	0.585806259416465	-0.810216269126421	-2.49873197103626E-06	2.49551505610729E-06	9.27207504752733E-07	-9.12304559567628E-07	-0.0515084575680441	0.9958710028166
1.3	0.517781153943195	-0.854735907858763	-1.53988856392503E-06	7.21070413329355E-07	-1.35679314589383E-06	1.46596842324953E-06	0.0747183874549773	0.994561092991898
1.4	0.446670378081626	-0.892983138152543	3.92503079074372E-06	-3.24763544985209E-06	2.71461501890154E-06	1.09513723341423E-05	0.200468412241997	0.976591114062059
1.5	0.374184763721957	-0.924565794802723	-5.34114405968452E-06	1.11466895466489E-06	6.59005655350455E-06	-7.21801971275752E-06	0.322640805106345	0.94301705111859
1.6	0.300881116270746	-0.951316688355075	1.7732232941013E-06	-7.74655196848129E-06	3.63586920885267E-06	1.38152159147212E-06	0.438888817003603	0.893894213944437
1.7	0.226275494296814	-0.971658136181079	-1.94382870836469E-06	-9.69104914499487E-07	-2.36992315167783E-07	-2.08874224069163E-06	0.547084686086729	0.831671589817487
1.8	0.149501245140386	-0.986335462981858	2.8564696291959E-06	5.2823048040198E-06	5.31997997637471E-09	2.0333588178784E-06	0.646988823427945	0.756082149066193
1.9	0.0721016774732232	-0.994940629212858	5.67866907888907E-06	-2.63542959709767E-06	-3.00065121238444E-06	4.16994390174911E-07	0.73582712184312	0.669039643535824
2	-0.00491963864786485	-0.998234218054703	-1.55165379474072E-06	-2.03078284415623E-06	3.21938069896172E-06	1.14817694402361E-05	0.814530812715128	0.572132918774566
2.1	-0.0848306076503171	-0.995039227983359	-7.56712974252746E-06	2.47133047603743E-06	1.21735145952321E-06	5.15578953063075E-06	0.88043565541792	0.464016394334286
2.2	-0.161848317961295	-0.985029324487377	-8.82360735390909E-07	1.39800301714086E-06	3.02100886754603E-06	7.78482892495706E-06	0.93115676048975	0.349268477210745
2.3	-0.239086488597227	-0.96880271089877	1.90922127165284E-07	7.46397850658955E-06	7.42211900082283E-07	9.3900240320107E-07	0.966698206189823	0.229976995688719
2.4	-0.315030266260518	-0.946395665869773	1.59064051355131E-06	7.18229932745553E-06	1.5313751035407E-06	6.39461576212412E-06	0.987631816931342	0.106440448170632
2.5	-0.388451900043879	-0.918833205399872	4.39473067647688E-06	-2.3226460420729E-06	-1.9259362552442E-06	-7.58115839537677E-06	0.992812144504132	-0.0178237824741067
2.6	-0.459949844079227	-0.885000069850369	6.77411634912476E-06	-5.96286460580246E-06	-1.1105459629561E-05	1.08588687055924E-05	0.982737152283657	-0.142497205790627
2.7	-0.528673282839194	-0.845620299887499	-4.43827684078686E-06	9.16464797632993E-06	-2.89017608799229E-06	-9.17161143359245E-06	0.956970221556674	-0.265036073599483
2.8	-0.593215916373254	-0.801438004776806	2.46398481064501E-06	1.14171582692376E-06	-3.13167280084889E-06	1.25110360939334E-06	0.916643112118765	-0.383087249061772
2.9	-0.654002660705202	-0.752542204938072	-5.49714326160357E-06	6.03731610755151E-06	-9.21077631100792E-06	-2.64982677673775E-07	0.861108278631495	-0.494952839395734
3	-0.710645540571126	-0.697577737134949	4.68545335688154E-07	-1.47628555222013E-06	1.13439571916139E-05	1.43079040268554E-06	0.792132086356739	-0.599159570565974
3.1	-0.762238074834443	-0.640394501713634	2.43759812946581E-06	1.04925961108316E-05	4.33309670777737E-06	2.16186365242781E-06	0.710778791145294	-0.693579489981782
3.2	-0.809915446205849	-0.579265455586104	2.12335824782665E-06	6.45928684608968E-06	3.96907626454627E-06	-1.06163732289405E-05	0.618184145624489	-0.777063145916834
3.3	-0.852671017010966	-0.514462978424943	3.09511247801619E-06	4.94988427215662E-06	-2.25293415562811E-06	-9.65689193141971E-06	0.514584163292712	-0.848704407269388
3.4	-0.889188704998642	-0.446581157490616	2.11430745980988E-06	-2.60690834536357E-06	5.95386372087901E-06	1.36232826229191E-06	0.403965688266652	-0.905820165022436
3.5	-0.920342652298648	-0.375722750640613	-3.23159948430294E-06	9.50151007435931E-07	-2.06305996211303E-06	3.41992448302633E-06	0.288064232712709	-0.948088529227911
3.6	-0.947883538406941	-0.303075611410978	-1.8181316412488E-06	-3.73803374828128E-06	-7.81081704304355E-06	4.11722204696032E-06	0.167055857555929	-0.978387135391724
3.7	-0.968863972555706	-0.227723853073003	8.02426240720369E-07	-8.32157014829996E-06	1.07674627114949E-05	3.66911408327785E-06	0.0413522571852098	-0.991524390889017
3.8	-0.983786306402841	-0.150314893636738	9.53964474395849E-08	1.5446873253537E-06	-6.49723910905719E-06	5.95860752791765E-06	-0.0836767930729353	-0.988110056039059
3.9	-0.992277588446209	-0.0725839688402815	-2.63322559636257E-06	-5.016130229819E-06	-3.68381076581947E-06	8.0213363358537E-06	-0.208365441872222	-0.969004403008521
4	-0.994559609779989	0.00646569354458022	7.12257310185387E-06	-3.94357887166498E-07	-1.04621873476868E-06	-1.20279878103931E-06	-0.327227141206581	-0.935508951411018
4.1	-0.990888874433484	0.0844679618913061	6.18068500616365E-07	-4.44713132261567E-07	7.33522830079812E-06	-4.76660135286589E-06	-0.442826319457569	-0.887294520792234
4.2	-0.981344806969662	0.162165199131916	3.20548742164194E-06	2.0942155422653E-06	-7.19006034616457E-07	-7.59675653231735E-07	-0.551020903478531	-0.824123307043264
4.3	-0.966092679972831	0.237842099039553	-3.18310030046273E-06	1.37558439190861E-06	-4.9851442200299E-06	2.9858455164865E-06	-0.650137327468787	-0.748697438927252
4.4	-0.945578764959044	0.312471564725865	8.05130191716212E-07	2.63926963926999E-06	1.54630463752377E-06	-8.32531173835324E-06	-0.739054007394124	-0.661289490516018
4.5	-0.918465904844378	0.387367838979673	1.82433239409613E-06	-9.41753088843164E-07	7.63664243512784E-06	-2.6161856788746E-07	-0.816708894245393	-0.562952057596256
4.6	-0.88358506484838	0.458525260962131	-7.18216027051631E-07	6.1340434917388E-06	-1.23613257515879E-05	-6.4656217220291E-06	-0.880359294544921	-0.455783533819252
4.7	-0.844926758255652	0.525288232052397	1.2066027466489E-06	2.50949232979285E-06	1.42492669276849E-06	1.86432576681253E-06	-0.930970968247389	-0.342014349451531
4.8	-0.800428021093317	0.590441159149422	-5.15625374061685E-06	1.11430970579891E-05	5.25504288524338E-06	9.6828526359749E-06	-0.966805500836973	-0.221991227583124
4.9	-0.751065828696405	0.651708471561081	1.20758637850576E-06	2.92871688642603E-06	-5.03217663565713E-07	-6.91336056394014E-06	-0.987340317228874	-0.0973407816268989
5	-0.695477235254931	0.707917811184608	4.72926297233392E-06	-9.25476259636184E-07	-3.72716486277624E-06	2.43260747539458E-06	-0.989255582038534	0.0287452754681887
5.1	-0.63823032426892	0.758533129470268	4.12334262133448E-06	-1.48544238091442E-07	-2.66780641124908E-06	-9.78355695045111E-06	-0.977873656026227	0.150775464523502
5.2	-0.577311971545337	0.806802257104927	2.59330085723929E-06	-1.49597705093353E-05	1.37894268301926E-06	2.81345070401457E-06	-0.952097805419708	0.273058503057899
5.3	-0.512307002415128	0.850164980503764	-8.68754897983928E-06	-7.70647934131078E-07	-1.13164792449342E-06	1.59762988347294E-07	-0.910084248672587	0.391409261622149
5.4	-0.444216765353644	0.888199850017849	-7.16018841842681E-06	-1.10225720390364E-05	-1.36941352595993E-05	1.11578839661749E-05	-0.852861628993365	0.502655750484847
5.5	-0.373115941354865	0.920609870402255	1.90103831054621E-06	9.12311747426023E-08	-2.24291259224226E-06	1.7775983151802E-06	-0.783174796516981	0.604824929551334
5.6	-0.299750285072756	0.946329957969841	-2.40578959573067E-06	3.50912114639533E-06	-1.34014193721375E-06	1.28741583332201E-06	-0.701787394609685	0.697839986017958
5.7	-0.224880221457713	0.966904307832949	1.30356330099027E-06	1.22919372791373E-06	5.75149043252524E-06	-1.18396789760938E-07	-0.609347397535139	0.780259681962792
5.8	-0.148692477677897	0.980975580498419	2.69484727045413E-06	4.24892525543276E-06	-2.10771689601325E-06	4.23099654552544E-06	-0.507013081961654	0.85021014817191
5.9	-0.0726808779772077	0.989275732012371	-6.85818475967954E-06	-2.30091123074073E-06	-8.47910743359134E-08	6.26637955246148E-06	-0.397685969413127	0.906741694980339
6	0.00357838796277311	0.994439014322051	-1.78835497925967E-06	8.15260837460627E-08	-5.42924175741505E-06	-4.40360682063334E-06	-0.282397596523569	0.951172269258817
6.1	0.08346326260826	0.991639186354422	8.2679283749725E-08	-9.91432685067578E-06	-9.70111840140987E-07	-3.21882875708253E-06	-0.159615298294205	0.979645141348122
6.2	0.161978173171899	0.981391597876985	-1.0341324330376E-06	3.11008280441018E-06	-1.77578774223644E-06	4.20949533947758E-06	-0.0347242164528441	0.991200479485543
6.3	0.239295115429514	0.965170954180274	-8.1643594856507E-07	2.83053306356541E-06	-2.94987880764283E-06	2.38763037850022E-06	0.0900347368430096	0.987166386525446
6.4	0.314934125835063	0.943828576518604	-6.00162343803257E-06	5.53750519980452E-06	-2.3847242613147E-06	-7.59264359512268E-07	0.213344225156062	0.968566366646566
6.5	0.391936321034395	0.916305751974641	1.41433797692647E-06	-5.29725333644054E-06	-1.45271377455967E-06	-2.38807700851142E-06	0.336354153844685	0.934015844909655
6.6	0.462702682681708	0.879250749895361	3.66119919511482E-06	2.06346221564411E-07	1.13241910061859E-05	-2.69555139337221E-06	0.450180912892418	0.881072955343705
6.7	0.529647251003502	0.839618326044859	-7.76149895717612E-07	8.4846657445759E-07	-3.76908674123025E-06	5.23665347161138E-06	0.555443608728319	0.817624894089445
6.8	0.594061487509814	0.794974934181243	-1.75209373656812E-06	4.48867003847788E-06	1.45310596386435E-06	-8.84267656172058E-07	0.65281220767396	0.741702463694245
6.9	0.654606583556343	0.745390510751309	5.91374532385857E-06	2.24345376707758E-06	-9.29151154756647E-07	2.4132488148844E-06	0.739781603820166	0.654275990412882
7	0.711371941659266	0.691426114284372	1.14686800273139E-06	-4.14206261226864E-06	-1.43174643164839E-06	2.91028577071995E-06	0.815883611880974	0.557118143103983
7.1	0.763787753667057	0.632713846532725	2.41466218521657E-07	-7.17987236431621E-07	1.95766618220195E-06	9.19522203600577E-06	0.879206638758966	0.449956825249484
7.2	0.811207629132347	0.569720339245014	1.38789232829735E-06	-2.41435537450607E-06	-1.00635214996245E-06	-8.57205087416231E-06	0.927919748058725	0.33613576487511
7.3	0.853324422922207	0.502607858157475	4.84352547174265E-06	7.22611558816626E-06	-9.71806825634222E-06	2.34147950973482E-06	0.961578937720978	0.216731792743775
7.4	0.889297561830928	0.431857578683584	5.08573977807813E-06	-6.95765897763397E-07	1.91059783771142E-06	-9.62789442821346E-06	0.978775868772564	0.0938315045563928
7.5	0.918836729111705	0.361218689823034	2.72324953107623E-06	-5.27746203362596E-06	2.07611118996371E-06	-7.23493579667675E-06	0.980731285778476	-0.0260605216003417
7.6	0.946235113819236	0.287145597947078	-3.03304607365117E-07	-5.60867777928621E-06	1.66801302196171E-05	3.87480501574668E-06	0.971786585112501	-0.148460822116194
7.7	0.966286028959359	0.210197580643817	3.49981402113405E-06	1.18112688378217E-07	3.28771254743228E-07	-2.90938984086246E-06	0.945597650256196	-0.269280224365444
7.8	0.979919745149404	0.132396527476286	-1.09135722159625E-05	-1.94917104498075E-06	-2.14348060657121E-07	3.42027482351242E-06	0.904824227848652	-0.385402808467194
7.9	0.987363839097856	0.0548703029952027	2.33267359155888E-06	2.03507943810446E-06	-6.88135167664838E-06	-4.73005293702155E-06	0.850713339997187	-0.494597671124138
8	0.993010155032325	-0.0231119320172916	2.32557953611099E-06	2.97179549560165E-06	-9.26632129434342E-06	-7.67258231288544E-06	0.787056709738621	-0.59935996397483
8.1	0.988994699591811	-0.106830066944787	3.85177436215038E-06	-3.0570519129931E-06	2.16855733606678E-06	-3.1810686579361E-06	0.704139040404423	-0.698011440542071
8.2	0.976200374261811	-0.186790202458496	-4.05069026631825E-06	1.40612333121912E-06	-6.77149591042176E-06	3.38854368706417E-07	0.609501654216188	-0.781284802296052
8.3	0.957183348579923	-0.265094886752558	9.8898503579271E-06	3.20634454040829E-07	6.23581733544873E-06	1.04925005597266E-05	0.505882232683073	-0.851610543988574
8.4	0.932039638665156	-0.341515189646009	1.28503521571597E-06	2.56557960721483E-06	3.46787630125295E-06	1.83273448699222E-06	0.394286089449125	-0.908244731588447
8.5	0.900970159666773	-0.416208365886889	-4.85419001185649E-06	4.96690824267149E-06	2.86062688040804E-06	-3.02446225520882E-06	0.277408598935298	-0.949717878212376
8.6	0.863316731416542	-0.487874872523049	-4.51168268520036E-06	2.08324959469874E-06	-3.05945082204844E-06	8.12826581978644E-06	0.156277318001381	-0.978332296688562
8.7	0.820430147359288	-0.556004664331819	-1.02681032078857E-06	1.2177559174737E-06	-6.53372049803541E-07	3.47265783876792E-06	0.0313815069406862	-0.991057866550173
8.8	0.772311548777406	-0.620499468860654	-1.59714739571292E-06	3.08910514661892E-06	-6.03590119722288E-06	1.27919216580932E-06	-0.0941809818360619	-0.988249697321945
8.9	0.719050493001949	-0.681234379060775	3.19391677715601E-06	-1.84047851489089E-06	-3.18336118733816E-06	-4.61626164426857E-07	-0.220268474967277	-0.968695336447044
9	0.660332308649888	-0.736192769398205	-7.31701739902742E-06	1.37492474630308E-06	-3.99439064984745E-06	7.38128542247491E-07	-0.340893851918779	-0.929826828839598
9.1	0.598962133061637	-0.786722946440154	-3.36862927621712E-06	-1.88194896428825E-06	-9.82398824062474E-07	2.14323807219458E-06	-0.453524513182368	-0.879956060680857
9.2	0.532543892404469	-0.832358766996795	5.99388559064252E-06	-1.65711498066186E-06	2.00961201048255E-06	8.49379978185622E-06	-0.56051320907812	-0.816273910442511
9.3	0.462635239660773	-0.872143399107164	-3.3736418958502E-07	1.07234560320972E-06	1.37060206248058E-05	1.18127917877108E-05	-0.658283139319096	-0.739135562215037
9.4	0.388948370215493	-0.905024061641158	1.72606414345051E-06	-2.6627884233809E-06	4.28761743219519E-06	1.75000149169268E-06	-0.744708692252796	-0.649944621876636
9.5	0.316571950000924	-0.930732678662227	-6.48296006329332E-06	-4.89837250480144E-06	-1.92740312480108E-06	-5.70003897944012E-06	-0.817892686490532	-0.553418656491924
9.6	0.238934693516725	-0.95630280941121	-1.17063140209713E-05	-2.99632225533319E-07	-5.92463692022376E-06	-4.04226280623582E-06	-0.884573161696109	-0.448382993291153
9.7	0.157030629656784	-0.972004643699165	1.4733474575953E-06	-4.77111523263401E-07	-2.92960902913696E-06	1.64128216730335E-06	-0.935895389799793	-0.332054177963581
9.8	0.0750483141397029	-0.979609679648956	2.21146767451622E-06	1.40738824801907E-06	1.51536165544578E-05	-3.49813333143185E-06	-0.970800727455394	-0.210654850208178
9.9	-0.00638577857124978	-0.979708931704974	-3.480539711723E-06	8.99862720201551E-06	1.38008428138203E-05	5.01834728937814E-06	-0.990440912317318	-0.0854880542073629
10	-0.0861215494752403	-0.973957400102119	-3.65748123773089E-06	1.62514690880877E-06	1.93172124186621E-05	-1.82201893377602E-05	-0.992745878703657	0.0413000700334975
10.1	-0.166336998620364	-0.960763782135264	-1.48327013795963E-06	2.31143566327328E-06	-8.45338023807136E-06	-4.32120665187776E-06	-0.979725695534253	0.166184935026834
10.2	-0.243287285483212	-0.940563271788374	-2.31708420490083E-06	-1.2445559233391E-06	-1.29594415514663E-05	7.25410058259934E-06	-0.951117166904785	0.28869533127644
10.3	-0.31688554042033	-0.914700521100403	5.78297129646016E-06	3.94201759779408E-06	-6.17089332168706E-06	1.38038763293413E-06	-0.908102645918907	0.406258385226705
10.4	-0.388170284334941	-0.883890298189752	2.10903892412745E-06	1.05417484749182E-06	7.17729554214847E-07	-8.2555097473127E-06	-0.851390054753599	0.518542112548736
10.5	-0.45650117601309	-0.846283124741511	4.39212048470503E-07	-3.07820333278942E-07	-6.6112091891753E-07	-5.66295415641478E-06	-0.77733889245684	0.625706198011082
10.6	-0.51973396266878	-0.803362216574069	5.10379691518716E-06	-2.62945423991172E-06	-9.80990406132293E-06	-7.88875604404942E-06	-0.688505527285434	0.716666047123009
10.7	-0.578322452645112	-0.756322671637311	-2.82461329216591E-06	-4.95178386225386E-07	-5.26381466104272E-06	-7.17424856342632E-06	-0.592073198523961	0.795314423835189
10.8	-0.632852860988145	-0.706989145467258	-3.63525300143859E-06	-3.44082259670205E-06	-1.19651523695896E-05	9.2075779530827E-06	-0.487617140879094	0.861593219666372
10.9	-0.685287319237219	-0.654100434703136	-1.14597573291336E-05	-1.03936089836445E-05	-4.43529015379405E-06	1.10072089818324E-05	-0.376040068339063	0.915757221931854
11	-0.729904530374312	-0.596335571603716	1.01748796950203E-06	1.40292471695472E-06	8.62725425919404E-06	-5.54064773489942E-06	-0.256113487568956	0.953104236276446
11.1	-0.771832619215155	-0.542215607107002	-3.34593594506666E-07	-3.62935939479468E-06	1.01541627168095E-05	-1.02169338238461E-05	-0.137259088103156	0.975841496737215
11.2	-0.813669144883262	-0.48307198498202	-1.04001665420216E-06	-3.91342483422939E-06	2.15026562597171E-06	-6.31863045056907E-06	-0.0139824581583127	0.985571261370775
11.3	-0.851339934035647	-0.418909135729568	1.60937175091843E-06	-1.20571614027458E-05	3.56241015076943E-06	-2.83194621764895E-06	0.110004668751371	0.979267391894166
11.4	-0.882707456872957	-0.351075498938382	9.87045067186088E-07	1.60038926196544E-08	-5.67468325135286E-06	6.4775414401676E-06	0.232694462298364	0.957469481347282
11.5	-0.908100245977424	-0.28362137566085	6.547191730312E-06	-1.24615400260304E-06	8.2400499724709E-06	-3.18995552033997E-07	0.351171911720739	0.92016234167164
11.6	-0.93304523908445	-0.21257207254618	-6.4757998095197E-07	-5.3353812149407E-06	1.4358530514929E-06	-3.0874009685262E-06	0.464178717047597	0.867697137055164
11.7	-0.949772752412715	-0.135991065795573	-1.08077859222507E-07	-6.05357063721511E-06	8.87258360612295E-07	-2.66299322714974E-06	0.569023458817096	0.801703020829419
11.8	-0.959495866943193	-0.0575863329481049	-1.07365585563317E-06	-7.38233634037742E-07	5.1700513844907E-06	1.06500405782399E-06	0.664531886364775	0.7236123485623
11.9	-0.962333354567079	0.0226752546446262	-3.22744534863447E-06	-5.1973287195765E-06	-5.40365559412448E-06	-7.99160541268065E-06	0.748353362461321	0.63654684898613
12	-0.956824667090051	0.102663089021093	-2.94495455762661E-06	1.64820503494427E-06	-1.67596425249442E-05	-8.73267310245683E-06	0.826545659185957	0.541392967207895
12.1	-0.945794508010289	0.180580502003792	8.21124848341274E-07	-1.57092991173074E-06	7.90166527853253E-06	1.22592461730205E-05	0.889509284190592	0.429202052471474
12.2	-0.927764469161787	0.257652147041963	-4.0866959810558E-06	5.55907285180263E-06	4.2559049748766E-07	3.30953542787577E-06	0.935323806509659	0.312924325760622
12.3	-0.904779282725475	0.332456214675585	7.84408770595459E-06	6.36566266597512E-06	4.45147971219869E-07	1.08851879845966E-05	0.966735938453838	0.192403130893283
