# GHZ S RI R 50
0.2	0.985884864645169	-0.156841520135329	2.56435488622204E-06	2.25022537015449E-06	6.57118472452873E-06	-4.8686091945284E-06	-0.966455444772725	0.251604109926508
0.3	0.969847461601517	-0.233934468952957	-8.7348878377579E-07	-5.45449723256009E-06	-3.46630347275564E-06	-7.94650709391458E-06	-0.926867163770842	0.371630435424311
0.4	0.948368962574674	-0.3092609676893	-7.27978583733419E-06	-9.91669971409202E-07	4.44162154782604E-06	1.54547372170298E-06	-0.872165304031078	0.485421436924602
0.5	0.921449520031718	-0.382765365548935	6.20036759858327E-06	2.10508878125203E-06	-2.41430538023357E-06	-1.90827001374294E-06	-0.803615668688995	0.591692770277265
0.6	0.888494827891806	-0.453776882339055	-1.05531053394298E-05	2.46084074866807E-06	-2.21872583858597E-06	-1.00733150032091E-06	-0.722102955701993	0.688053587178047
0.7	0.850344446601153	-0.52165437329166	2.78481353593243E-06	-1.17216598600223E-06	-2.98845137888835E-06	5.78935282450762E-06	-0.629494665255728	0.773547743503689
0.8	0.806911990847837	-0.586739245566888	1.17718047813488E-06	-8.47773826310602E-06	-6.6219982872772E-06	-3.07112108469605E-06	-0.52676507504425	0.846546722535579
0.9	0.758455092177164	-0.648380913028547	-1.1469759970223E-06	-6.81224809143765E-07	2.54840468580501E-06	6.54500189806863E-06	-0.415827704234254	0.905875899245631
1	0.705065993518716	-0.706195596898293	-2.74514951657059E-06	-3.22309377068581E-06	-4.04958562152523E-07	-7.3174280365504E-06	-0.298595537609581	0.950576015564509
1.1	0.648028450209126	-0.759640660442368	1.80731980488802E-06	-4.94145870846625E-06	2.27081578171452E-06	-5.13493322946138E-06	-0.176489855228262	0.980416247492628
1.2	0.585600434080984	-0.809252752578399	-2.49633261817093E-06	2.491450140607E-06	9.26312590576472E-07	-9.10813927943338E-07	-0.051363987081153	0.994397657273218
1.3	0.517857569129447	-0.853837236502273	-1.53823848958486E-06	7.19185898484421E-07	-1.35583115705972E-06	1.46318757786478E-06	0.0743865086266948	0.992759174679408
1.4	0.447053749510733	-0.892384814809279	3.92358819835033E-06	-3.24046464246114E-06	2.70168721984057E-06	1.09416100762144E-05	0.199452938037895	0.974913886821678
1.5	0.374230916674393	-0.924570252015146	-5.33829428156345E-06	1.10951847819174E-06	6.59131597714002E-06	-7.20755088337425E-06	0.321104974671856	0.941677301229226
1.6	0.30057902314026	-0.950940725284833	1.77694276972777E-06	-7.74027860197405E-06	3.63257744494693E-06	1.38290204670679E-06	0.437124540841189	0.893278960299589
1.7	0.226124317318215	-0.97112392351531	-1.94197362655696E-06	-9.69574068317557E-07	-2.35634272598194E-07	-2.08748311940148E-06	0.54548570729799	0.831455005022213
1.8	0.149485119423813	-0.985789905634419	2.85192492471398E-06	5.28052747632765E-06	4.24933587314571E-09	2.03210027073721E-06	0.645591463402445	0.756144237219579
1.9	0.072006026099549	-0.99446366396232	5.67598012432485E-06	-2.63278655612146E-06	-2.99903314418688E-06	4.16151266878123E-07	0.734915477615403	0.669075864670001
2	-0.00516708671222337	-0.997080260050643	-1.54941330563185E-06	-2.02757422137041E-06	3.21520919065801E-06	1.14639928391229E-05	0.813037105013082	0.571163501060301
2.1	-0.0840518605723124	-0.993812823516753	-7.55789876357899E-06	2.45926684849129E-06	1.20986567145777E-06	5.14899604777928E-06	0.877941964275186	0.464382301683162
2.2	-0.160823289662378	-0.984273308498411	-8.83142020152924E-07	1.39549125991924E-06	3.00846512272179E-06	7.78044751511807E-06	0.929274258271499	0.350496378766951
2.3	-0.23800794955528	-0.968254152262692	1.82715091904017E-07	7.45814119146356E-06	7.40597925107325E-07	9.39042859210364E-07	0.965446190196983	0.231491395620478
2.4	-0.313852725297276	-0.945950956210912	1.58307666768735E-06	7.17816528732146E-06	1.52455198116495E-06	6.39103673447553E-06	0.986974777236484	0.107903507938197
2.5	-0.387076117437923	-0.918526146506272	4.39233180333235E-06	-2.31693591310384E-06	-1.91809064766306E-06	-7.57537613818239E-06	0.992358196934024	-0.0166895420495735
2.6	-0.458394079054091	-0.884919728460809	6.771324566054E-06	-5.95078348046702E-06	-1.11017499729322E-05	1.08378531411811E-05	0.982328180130375	-0.141558333966892
2.7	-0.526970215119968	-0.845789391017116	-4.44081059572693E-06	9.14728928763674E-06	-2.87718662881838E-06	-9.16132916889513E-06	0.956225676334303	-0.264114618246466
2.8	-0.591275815184085	-0.801867712627074	2.45849999758387E-06	1.14330998633141E-06	-3.12843549922286E-06	1.24479247725645E-06	0.915815600983914	-0.3816361058944
2.9	-0.651565183561864	-0.753553184436182	-5.49946635583608E-06	6.01686692156374E-06	-9.19498120563445E-06	-2.82011234223902E-07	0.86071396227558	-0.493097209195252
3	-0.708597230015326	-0.700189046312907	4.72173271452675E-07	-1.47320967312851E-06	1.1326468895334E-05	1.46123726941353E-06	0.792105711407298	-0.597287553266605
3.1	-0.761342310443322	-0.642889426881583	2.40756471630575E-06	1.04959524600509E-05	4.32565441376679E-06	2.17322903140872E-06	0.71114886478103	-0.691411550550411
3.2	-0.809238603851558	-0.581733882169223	2.10569883777516E-06	6.46512529754163E-06	3.99813565347201E-06	-1.06055652465085E-05	0.619247900898462	-0.774867789503431
3.3	-0.852283476830568	-0.517144853613713	3.08235511609115E-06	4.96081847132907E-06	-2.22641959009341E-06	-9.66745102950884E-06	0.516465771292927	-0.846745521153703
3.4	-0.889419783542811	-0.449636607978933	2.12457239185182E-06	-2.60426115443666E-06	5.95777362687323E-06	1.38121765675244E-06	0.406860229733764	-0.904822206742954
3.5	-0.92188158913879	-0.37798653822992	-3.23925583631122E-06	9.47706622874786E-07	-2.07171031102359E-06	3.42392315182622E-06	0.289874205820844	-0.948951585715125
3.6	-0.948576287545634	-0.304446248923032	-1.81488586485056E-06	-3.74288363700374E-06	-7.82133689198625E-06	4.11066497211169E-06	0.168271027106434	-0.977927319280393
3.7	-0.969326313551734	-0.229451480607257	8.17439898664824E-07	-8.32759513496121E-06	1.07707377637559E-05	3.69088129480277E-06	0.0435784194454373	-0.991261298378734
3.8	-0.984379863700033	-0.152213278524353	9.29751411037889E-08	1.54690880196535E-06	-6.5157528405275E-06	5.95584901291057E-06	-0.0810601758859859	-0.98886568280296
3.9	-0.993002900277474	-0.0746283471757421	-2.63150364635722E-06	-5.02680593440658E-06	-3.69862109107236E-06	8.02936865354389E-06	-0.206268154232474	-0.971017148727229
4	-0.995687175812208	0.00420137095611732	7.12992821597233E-06	-3.87704455605374E-07	-1.04605316337208E-06	-1.20500898968658E-06	-0.326516954415328	-0.937610405021621
4.1	-0.992484649573162	0.0824346304208314	6.19365149794239E-07	-4.44400903008908E-07	7.34993826870191E-06	-4.76231157103052E-06	-0.442351933599173	-0.889013530362716
4.2	-0.983177984591037	0.160502282413195	3.20722727097803E-06	2.10106213700945E-06	-7.19034330576937E-07	-7.61605221333035E-07	-0.550775939172281	-0.825774871248852
4.3	-0.967882325523932	0.236671595923883	-3.18946426336324E-06	1.37465156081054E-06	-4.99592169998401E-06	2.9856966614009E-06	-0.650091333542853	-0.750323963736965
4.4	-0.946565313004206	0.311590828957176	8.05752492967968E-07	2.64296551810023E-06	1.54984519354645E-06	-8.33625453924895E-06	-0.739158554919666	-0.662837503426441
4.5	-0.919200735803209	0.384738773198195	1.82420084560335E-06	-9.40538941491581E-07	7.63426583663349E-06	-2.57744133749716E-07	-0.816870689623726	-0.564805160751423
4.6	-0.8860623762078	0.456145608132034	-7.29768930815008E-07	6.13355353014723E-06	-1.23509684510203E-05	-6.4895993934676E-06	-0.881270171254464	-0.457593101729256
4.7	-0.847683359615321	0.523581463369843	1.20211717793467E-06	2.51326569421224E-06	1.42187087034063E-06	1.868206720432E-06	-0.932100467648038	-0.34339156371158
4.8	-0.803288972430148	0.58907689398904	-5.18549822689009E-06	1.11377730487786E-05	5.23553749241893E-06	9.70104364570546E-06	-0.967809191006308	-0.223122491405121
4.9	-0.754178637232267	0.650151286476711	1.19903638657498E-06	2.93472704044217E-06	-4.81332908401337E-07	-6.91999320791767E-06	-0.988000238464159	-0.0990326225051523
5	-0.700549753794474	0.707214155073642	4.74597463266823E-06	-9.0892387970098E-07	-3.74721123159908E-06	2.42423556252868E-06	-0.992061535003352	0.0262657668522851
5.1	-0.64218200826513	0.760187820661325	4.13832747452502E-06	-1.39489917987142E-07	-2.65454351390228E-06	-9.82449223679563E-06	-0.980908789152625	0.15082363473554
5.2	-0.58015975702221	0.808567734963473	2.63095319411313E-06	-1.50074998008286E-05	1.37843401740351E-06	2.82598589270385E-06	-0.954201699506908	0.273322327053939
5.3	-0.514726796094521	0.85200866695343	-8.72162958627017E-06	-7.86106633231899E-07	-1.13645676814302E-06	1.58802641549365E-07	-0.912298481182713	0.391549788987429
5.4	-0.446178119166192	0.89026266460741	-7.19059555960083E-06	-1.10728436439379E-05	-1.37569158972437E-05	1.12057678031625E-05	-0.8555804440541	0.503274025877507
5.5	-0.374855245085481	0.922635658219415	1.90687192732216E-06	8.92902703946545E-08	-2.24759796138795E-06	1.7855679377317E-06	-0.785940865010222	0.606733329843003
5.6	-0.301173903091614	0.948971959592395	-2.41147269600602E-06	3.51805298975058E-06	-1.3433646750021E-06	1.29073178164454E-06	-0.703545150161934	0.70056024338444
5.7	-0.225537030499507	0.969872680137914	1.30742401070595E-06	1.23294817956912E-06	5.76878092216497E-06	-1.18486362677688E-07	-0.610209237978603	0.783210250326313
5.8	-0.14845617064023	0.984262560411909	2.70545481766919E-06	4.26403558360047E-06	-2.11471512127047E-06	4.2468665129069E-06	-0.507055746458601	0.853341860969564
5.9	-0.0706223845945759	0.992759250744348	-6.89537921708337E-06	-2.30339128519427E-06	-7.70021026067118E-08	6.29772058160499E-06	-0.39638219046993	0.910071382370897
6	0.00742925239101185	0.995003913580498	-1.79474978570896E-06	9.05762742578898E-08	-5.47138775528352E-06	-4.3937992259387E-06	-0.279395076261751	0.952477697124786
6.1	0.0854445654465341	0.991006455435098	4.04851260787227E-08	-9.92554526691E-06	-9.84903410862527E-07	-3.21821894799485E-06	-0.157965795029781	0.97976707327399
6.2	0.163542845184525	0.980796642713859	-1.0225843742826E-06	3.11544568255112E-06	-1.7603232906441E-06	4.21820559660258E-06	-0.0333601557552589	0.991378530006114
6.3	0.240858752577407	0.964462646182392	-8.05597883913897E-07	2.8328257735011E-06	-2.94012197054306E-06	2.39804512650727E-06	0.0915935772674787	0.987226707789026
6.4	0.316714207795668	0.94206131616481	-5.97219161358437E-06	5.55203385790198E-06	-2.38413297435941E-06	-7.49222470829082E-07	0.215283408217812	0.967481784472922
6.5	0.390645920079633	0.913956903404758	1.40395073181002E-06	-5.28128117740853E-06	-1.45049166229449E-06	-2.37862123605858E-06	0.335261715268475	0.932255264210995
6.6	0.461876817633745	0.879904313090907	3.65835594078516E-06	2.0931550423893E-07	1.13182373804183E-05	-2.68393843082175E-06	0.449712104297283	0.882374838825463
6.7	0.529992441688336	0.840316831259018	-7.77050157671207E-07	8.48483156141125E-07	-3.77409255888201E-06	5.23733579937619E-06	0.556363685311868	0.818811206938314
6.8	0.594840936708711	0.795644656749568	-1.75649312027898E-06	4.49380411960056E-06	1.4554401658565E-06	-8.84765993562802E-07	0.654287948154505	0.742617174830233
6.9	0.655974121469889	0.745980907410832	5.92809678460665E-06	2.25040712170941E-06	-9.32022934508743E-07	2.41910223453799E-06	0.741888601559966	0.654764962305079
7	0.712919815736425	0.691387774677687	1.14138611646221E-06	-4.15652595849268E-06	-1.42971175198473E-06	2.92177947249751E-06	0.817766511677585	0.556565736761428
7.1	0.765239105075153	0.632734693732709	2.40212982491651E-07	-7.19041235609518E-07	1.97771322019612E-06	9.19856144911595E-06	0.8807097948893	0.449766594712534
7.2	0.812835650513626	0.569767697815947	1.38623301958402E-06	-2.41682069530422E-06	-1.01503563679422E-06	-8.57512053884813E-06	0.929727301534292	0.336062362115538
7.3	0.855179675288291	0.502914566888692	4.84499966475577E-06	7.2309168296464E-06	-9.7238304106086E-06	2.34115557031491E-06	0.963842687637931	0.216913215020982
7.4	0.892383209089674	0.432769221999143	5.09713544613072E-06	-6.86676217004959E-07	1.93413052693468E-06	-9.64283351793251E-06	0.982928735268036	0.0942122373120703
7.5	0.923954475145899	0.359838042083714	2.7423550049359E-06	-5.30735167255044E-06	2.09244602943931E-06	-7.2768249420532E-06	0.986491535433191	-0.0297546182361008
7.6	0.949965751790568	0.284372628580052	-3.15181669306168E-07	-5.63638027132806E-06	1.6771330892966E-05	3.86355323720736E-06	0.974816979066586	-0.153443958013778
7.7	0.969884762690959	0.206902058396831	3.51794590538333E-06	1.10081160506554E-07	3.23270076182324E-07	-2.92503167097116E-06	0.947841077544464	-0.274848136770517
7.8	0.98345369645468	0.128008830650426	-1.09785375304097E-05	-1.91720830769625E-06	-2.02244669727228E-07	3.43910081347525E-06	0.905900560480886	-0.392032180730798
7.9	0.990468138459603	0.0480893847068732	2.35757053092815E-06	2.02987621747025E-06	-6.94645163622054E-06	-4.70839326753545E-06	0.849544494751939	-0.503066669819276
8	0.990776961208721	-0.0318963713714452	2.3534372219539E-06	2.94971700996685E-06	-9.33805471128254E-06	-7.58485235305342E-06	0.77944490970627	-0.606092674022406
8.1	0.984681077075905	-0.111274962380392	3.82131246400912E-06	-3.06897593298089E-06	2.14301211649455E-06	-3.18289887779289E-06	0.697200189720039	-0.69893710771295
8.2	0.97246560644481	-0.189595154646981	-4.03188624299111E-06	1.41676359099136E-06	-6.74767073415382E-06	3.63339031753861E-07	0.604375983444585	-0.780803698761981
8.3	0.953715607853263	-0.267087867462514	9.85782349581127E-06	2.92651270872668E-07	6.24363006247911E-06	1.04406246568321E-05	0.501803740986656	-0.850437349771877
8.4	0.928681520742279	-0.34293140420955	1.28466253631081E-06	2.55525840747267E-06	3.45926099301343E-06	1.82155004078108E-06	0.391239549240632	-0.906900884495876
8.5	0.897573845651703	-0.416820029938227	-4.84162078639446E-06	4.96317571597333E-06	2.85313020980167E-06	-3.02210197694922E-06	0.273945920626333	-0.94876737647995
8.6	0.860469169713464	-0.487861853958226	-4.49889010943491E-06	2.0894906175977E-06	-3.03587164545261E-06	8.12033839089367E-06	0.15281898096987	-0.975785319398141
8.7	0.817861432806806	-0.555705289961795	-1.0211955169575E-06	1.21686720082191E-06	-6.4349953439166E-07	3.46481155894346E-06	0.028918042917365	-0.987503758754789
8.8	0.769945099789727	-0.619731125948628	-1.58467418835038E-06	3.08101205766534E-06	-6.01077202197343E-06	1.28722019763903E-06	-0.0952117226273201	-0.983789545502618
8.9	0.71732527331655	-0.679728780358377	3.17552562683647E-06	-1.83345443078879E-06	-3.16695945388439E-06	-4.56517491095758E-07	-0.218334795439208	-0.964175597743574
9	0.659799529741319	-0.735241021567361	-7.28970408232843E-06	1.35329838702658E-06	-3.97945309041463E-06	7.26374183790885E-07	-0.33789194614175	-0.929509368539948
9.1	0.598227479417027	-0.785956178250634	-3.35657178100183E-06	-1.88348354086997E-06	-9.83919881176577E-07	2.13596891455418E-06	-0.452527567173488	-0.879989987962941
9.2	0.532262879892401	-0.831643857455578	5.98736575624837E-06	-1.64172529187696E-06	1.98836915725147E-06	8.48384752066806E-06	-0.560003311340689	-0.816777282646633
9.3	0.462711243483782	-0.871841087873267	-3.392439433947E-07	1.07131257208369E-06	1.36787842630698E-05	1.18340065297562E-05	-0.658866558325696	-0.739820206377819
9.4	0.38967246938265	-0.905924939480131	1.73186179918281E-06	-2.66412125121712E-06	4.29110641994655E-06	1.75795118977554E-06	-0.746480456249556	-0.65088145679361
9.5	0.313632420979737	-0.93360140705893	-6.51191302292675E-06	-4.88824774189132E-06	-1.94934584823174E-06	-5.70590587708851E-06	-0.822692671960215	-0.551259921413756
9.6	0.234988209971355	-0.954730278771061	-1.16830087143503E-05	-2.57023942362237E-07	-5.9267955182549E-06	-4.01259577861307E-06	-0.885499797426449	-0.44310709054326
9.7	0.155084514252121	-0.969157398728521	1.46792879375932E-06	-4.78724863923493E-07	-2.91740155212233E-06	1.64240697366686E-06	-0.93449529986637	-0.327755556619172
9.8	0.0744160033922463	-0.976792086125055	2.20657767055768E-06	1.39999731288585E-06	1.51020107075986E-05	-3.50820087915535E-06	-0.968267940778642	-0.207318376317237
9.9	-0.00651708374394849	-0.977365900569168	-3.45795775428134E-06	8.97249115551996E-06	1.37603736097352E-05	4.9847915981749E-06	-0.986972600916883	-0.0833379257307018
10	-0.0863323593402328	-0.970690798054801	-3.64201758021273E-06	1.61932832496143E-06	1.92332243191501E-05	-1.81497428808342E-05	-0.989513445704211	0.0421365621997447
10.1	-0.16466635888617	-0.957530196660697	-1.47954792909868E-06	2.30322943710913E-06	-8.42389044296973E-06	-4.31117621445066E-06	-0.976431359280999	0.166879847551105
10.2	-0.241085180224079	-0.938199091923885	-2.31027943742526E-06	-1.24108549422309E-06	-1.29222612389219E-05	7.23223663034088E-06	-0.947299095956772	0.288955735984047
10.3	-0.314478026211127	-0.912664512880595	5.76682518881951E-06	3.9266595153848E-06	-6.1507936126518E-06	1.37922072420187E-06	-0.90335716216293	0.405862987859253
10.4	-0.385257467388425	-0.882012254712275	2.10117794729978E-06	1.04701450994254E-06	7.04495080952487E-07	-8.22056082515438E-06	-0.844825247392868	0.515933878430927
10.5	-0.453090436506135	-0.845000363510099	4.36461610505605E-07	-3.05518722352503E-07	-6.53482716955623E-07	-5.62560282522376E-06	-0.773300760696512	0.617477656476422
10.6	-0.51602275881444	-0.802712442523916	5.08308102635815E-06	-2.60078893973522E-06	-9.73402942670188E-06	-7.87274294121566E-06	-0.689507483938521	0.709378542617395
10.7	-0.574741369183919	-0.756177531528486	-2.81055211594592E-06	-5.02441215967512E-07	-5.21672306244334E-06	-7.16032473082486E-06	-0.595237661121444	0.789973782905117
10.8	-0.629086198485983	-0.706565461362637	-3.60923418154978E-06	-3.43976664248777E-06	-1.19497369360369E-05	9.13056063482943E-06	-0.491448372899784	0.858107739183611
10.9	-0.679686386616273	-0.654532163917247	-1.13669833854487E-05	-1.04059801256658E-05	-4.46883516209543E-06	1.09437348537017E-05	-0.380310111352399	0.912683739288608
11	-0.726430672662174	-0.600508767066595	1.00958313017015E-06	1.40796690387305E-06	8.65439231675653E-06	-5.49226828572291E-06	-0.262518515124093	0.952945556193109
11.1	-0.770268629926018	-0.543681253560768	-3.26218322919534E-07	-3.62926244182032E-06	1.01751051280734E-05	-1.01912979963326E-05	-0.140910915871839	0.977790264821502
11.2	-0.810855804035312	-0.484001779774687	-1.03078568165721E-06	-3.91063987489957E-06	2.16038233670984E-06	-6.30637322805929E-06	-0.0165155703721457	0.987275810489154
11.3	-0.847857979524767	-0.420609017027325	1.63504462088899E-06	-1.2036350614595E-05	3.56392920222391E-06	-2.81967570045417E-06	0.108018376973077	0.980972691846796
11.4	-0.87982326183356	-0.354224635467031	9.86309946982386E-07	1.83831415031334E-08	-5.68636782022704E-06	6.45922793326124E-06	0.231253944702258	0.959216121841464
11.5	-0.907315496828183	-0.285034520135946	6.54335543576119E-06	-1.24082502626199E-06	8.23437487097624E-06	-3.13181953796236E-07	0.349918769488627	0.921832514483721
11.6	-0.929471690143675	-0.213170706763739	-6.3948634231892E-07	-5.32437749867175E-06	1.43652808403091E-06	-3.07877341303031E-06	0.463426006109484	0.869835171960953
11.7	-0.945320884664921	-0.138278856335006	-9.53183585976224E-08	-6.0414933672008E-06	8.9097175885535E-07	-2.65574395224661E-06	0.569216804149853	0.803877647439678
11.8	-0.955091459504765	-0.0613929146108583	-1.07023388132033E-06	-7.39801728405237E-07	5.15974736697674E-06	1.07624554066975E-06	0.665928223604798	0.725325446019593
11.9	-0.958561828466042	0.0171273638392722	-3.21421145812368E-06	-5.20138214031769E-06	-5.38305163728196E-06	-7.99880268186576E-06	0.75133225108978	0.63591095355533
12	-0.95541754932753	0.0959394346572215	-2.94184901176583E-06	1.6413816438554E-06	-1.67181525068516E-05	-8.73907517792894E-06	0.824772744508228	0.536688896770793
12.1	-0.946098879100209	0.17435396697653	8.24714953026115E-07	-1.56574445402936E-06	7.84997578038955E-06	1.22638558847375E-05	0.885045572951083	0.429037713352542
12.2	-0.929320913575978	0.25253066890167	-4.10232803866481E-06	5.54337127596477E-06	4.14878822201689E-07	3.30925899581693E-06	0.9319551008877	0.314707520662812
12.3	-0.90653916029563	0.328881794274115	7.8272571091593E-06	6.38373913780185E-06	4.18522063279802E-07	1.08844656626097E-05	0.964107582034358	0.194724409060081
