# GHZ S RI R 50
0.2	0.985334477680987	-0.156986173721935	2.56386786289747E-06	2.24831690812153E-06	6.5664664704966E-06	-4.8684347239014E-06	-0.965942798705672	0.251901899964406
0.3	0.969193360772544	-0.234039040976166	-8.75117975326731E-07	-5.45078429747292E-06	-3.46732333969217E-06	-7.94022580097716E-06	-0.926110231479101	0.371906109948971
0.4	0.947564354983991	-0.309285212436767	-7.27416590011815E-06	-9.87702205734154E-07	4.43859878529327E-06	1.54227154015271E-06	-0.871114192002156	0.48552314527207
0.5	0.920592445608382	-0.382485937145854	6.19438706419305E-06	2.10177514358092E-06	-2.41217867609329E-06	-1.90586117162891E-06	-0.802519381787607	0.591290950037346
0.6	0.887811514613913	-0.453474911052983	-1.05436456447272E-05	2.46023703966478E-06	-2.21695653772371E-06	-1.00614288797787E-06	-0.721232292824525	0.687602258346078
0.7	0.849594685290044	-0.521334239179871	2.7819192153623E-06	-1.17168529274182E-06	-2.98432587012676E-06	5.78455645659919E-06	-0.628555260319784	0.772977363892992
0.8	0.806109300198637	-0.586288358438057	1.17417209203441E-06	-8.46891208405128E-06	-6.61554803548475E-06	-3.06646952787685E-06	-0.525845505122395	0.845739471699031
0.9	0.757679268461385	-0.647749407861041	-1.14571957479519E-06	-6.80274719547476E-07	2.54627418597384E-06	6.53698677892452E-06	-0.415021438924535	0.904837588587829
1	0.704408540546372	-0.705489231936579	-2.74196536020496E-06	-3.21906039852745E-06	-4.04797794403209E-07	-7.30853416243935E-06	-0.297960181741893	0.949318380923112
1.1	0.64734395819668	-0.758840805724733	1.80509568336403E-06	-4.93516895906404E-06	2.26800664371147E-06	-5.12839186474447E-06	-0.176151196754584	0.979000563626707
1.2	0.585018439716388	-0.808296355970119	-2.49345151028947E-06	2.48791703711557E-06	9.25241693314588E-07	-9.09520500837102E-07	-0.051365187923719	0.992953268765137
1.3	0.517473934476238	-0.85280392080777	-1.53656896406101E-06	7.17881888495505E-07	-1.35459118130384E-06	1.46102986739897E-06	0.0740269598371495	0.991425857788732
1.4	0.44689127897238	-0.89148104641072	3.9206081059304E-06	-3.23557200127808E-06	2.69478227356935E-06	1.09309657743639E-05	0.198865342948085	0.973742253194356
1.5	0.373778589311724	-0.923798074884707	-5.33311483210665E-06	1.10695266140376E-06	6.58648196418979E-06	-7.19839443277572E-06	0.320206594719107	0.940522242566711
1.6	0.300202145802384	-0.949638725929147	1.77712373109907E-06	-7.73044757625947E-06	3.6277994156965E-06	1.38232742854813E-06	0.436036862663028	0.892403212089251
1.7	0.226078459225693	-0.969697930700895	-1.93910884486012E-06	-9.69108101120764E-07	-2.34503670837955E-07	-2.08491162252773E-06	0.544317031466172	0.830705005156416
1.8	0.149660684491894	-0.984368305503368	2.84594575000519E-06	5.27495402335566E-06	3.35929365671455E-09	2.02947955881389E-06	0.644369305264573	0.755532941770609
1.9	0.0722210584801965	-0.993044195995943	5.66888390940138E-06	-2.62762084937136E-06	-2.99501878040438E-06	4.1476361901755E-07	0.733766850142104	0.668384790191949
2	-0.00480538970496092	-0.995154843396757	-1.54536607399429E-06	-2.02392571061271E-06	3.20396570113797E-06	1.14411899171106E-05	0.811065457300004	0.570116221215384
2.1	-0.0828992441212498	-0.991974785769949	-7.54614097728421E-06	2.44557790843675E-06	1.20144280923522E-06	5.14043638272071E-06	0.875505867380201	0.464525676199483
2.2	-0.159389876992591	-0.982744094782922	-8.83458277155291E-07	1.39206370019092E-06	2.99360264127728E-06	7.77142501612714E-06	0.927207954520133	0.351206008832176
2.3	-0.236352230199107	-0.966928472538008	1.72679933086983E-07	7.44662627972862E-06	7.38203519352488E-07	9.38530872136965E-07	0.963634431011209	0.232497333256751
2.4	-0.311956083053742	-0.944842577933501	1.57065112567878E-06	7.16897736941137E-06	1.51330662774508E-06	6.38301529857166E-06	0.985352774827266	0.109139426596913
2.5	-0.384972811745986	-0.917706955582625	4.3889563776186E-06	-2.30624667310083E-06	-1.90299110464849E-06	-7.56625755056E-06	0.990812840360304	-0.0151311739225071
2.6	-0.456134003808414	-0.884375095971658	6.77162226660199E-06	-5.92995278216695E-06	-1.11041386718917E-05	1.08020779542267E-05	0.981117140322869	-0.139600871020733
2.7	-0.524536944508158	-0.845551593145779	-4.45188282201212E-06	9.12553312337981E-06	-2.85548213851682E-06	-9.15355932705015E-06	0.955393813491535	-0.261883358587529
2.8	-0.588646610985395	-0.802003921065351	2.45266567860467E-06	1.14685355430119E-06	-3.12666019230354E-06	1.2365036562557E-06	0.91545345067922	-0.379207817821217
2.9	-0.648720512718446	-0.754321951981027	-5.50617287431976E-06	5.99547966132656E-06	-9.18160708993456E-06	-3.0348177111784E-07	0.86085397888191	-0.490628311150044
3	-0.706329155387456	-0.701865255771111	4.75832466751038E-07	-1.4704717791904E-06	1.13114762343153E-05	1.4914598396621E-06	0.792645179054493	-0.59487349402082
3.1	-0.75952836002926	-0.644365618281628	2.37838577815952E-06	1.04960054198093E-05	4.31731262503846E-06	2.18335195264395E-06	0.712214171221389	-0.688967440578964
3.2	-0.807437191668958	-0.583388896281559	2.08770331670525E-06	6.46766280056406E-06	4.02419223184113E-06	-1.05901124621094E-05	0.620895864909525	-0.77267119510909
3.3	-0.850660476279393	-0.51915640825606	3.06828433472568E-06	4.96814090604284E-06	-2.19977986419346E-06	-9.67148335743707E-06	0.518700132872612	-0.844980407184642
3.4	-0.888291812794752	-0.452025056461868	2.13203687086631E-06	-2.59951216258888E-06	5.95600431026257E-06	1.39721886537679E-06	0.409579133541995	-0.903961796573796
3.5	-0.921420649577966	-0.37993877619489	-3.24199316084152E-06	9.42366235847755E-07	-2.07838200484509E-06	3.42144907912025E-06	0.291731281530116	-0.948977785371918
3.6	-0.947686502060963	-0.306348158863782	-1.80668118167236E-06	-3.74545432870231E-06	-7.82735924519683E-06	4.09342312628271E-06	0.170199626738182	-0.977339571340533
3.7	-0.968620678137087	-0.231786282519354	8.37140927437319E-07	-8.3248717966726E-06	1.07609606838394E-05	3.71611490283093E-06	0.0459998753297783	-0.991117080543854
3.8	-0.984064725102801	-0.154774137711068	8.92330622295629E-08	1.54734245427246E-06	-6.53108464699491E-06	5.94083508951089E-06	-0.078591000105152	-0.98934524006063
3.9	-0.993118323520354	-0.0773139114636364	-2.6199986496188E-06	-5.03421552430694E-06	-3.71870921107779E-06	8.02222291204935E-06	-0.204057266982749	-0.9720065242197
4	-0.996348637775925	0.00153198334399478	7.13236103379027E-06	-3.68419883715392E-07	-1.0429837276478E-06	-1.2080825438936E-06	-0.324489054856276	-0.93864498948516
4.1	-0.993518340049253	0.0799944899531357	6.21113958652773E-07	-4.42936837985064E-07	7.3692093837862E-06	-4.74455707542874E-06	-0.440159314204698	-0.890582416243129
4.2	-0.984494248350908	0.158261230720309	3.20509005855624E-06	2.11204702925111E-06	-7.17770080896494E-07	-7.64388644171879E-07	-0.5489482499935	-0.827934962614182
4.3	-0.969370205414507	0.2346714323774	-3.1969220186019E-06	1.36870466672825E-06	-5.00961992270518E-06	2.97745894391778E-06	-0.648775298693586	-0.752828471355982
4.4	-0.947948107921959	0.309607905662046	8.01245648227682E-07	2.64762026448514E-06	1.5687070735882E-06	-8.34254301786646E-06	-0.738302457555825	-0.665498515529486
4.5	-0.921275708400482	0.382094061378634	1.82771719745029E-06	-9.36466160923342E-07	7.63960581597538E-06	-2.38443172956611E-07	-0.8164563848938	-0.567769563372304
4.6	-0.889086054931298	0.454389725709994	-7.4886262152487E-07	6.13957093309542E-06	-1.23482539956459E-05	-6.53473750627541E-06	-0.881588365194073	-0.460553586841161
4.7	-0.850750213425179	0.522487498263094	1.19717090939136E-06	2.52086934741495E-06	1.41909012483461E-06	1.87532708548664E-06	-0.932901498290256	-0.346191906740419
4.8	-0.80639022709178	0.588366969696421	-5.22593874506086E-06	1.11447519610065E-05	5.21888461294046E-06	9.73388540468389E-06	-0.968992780632288	-0.225830895185227
4.9	-0.757550921660392	0.649592902851432	1.19300590759647E-06	2.94489046109572E-06	-4.61838818581117E-07	-6.9369826403751E-06	-0.989669248835631	-0.10197210498762
5	-0.704736518737689	0.707776866113352	4.76469768813295E-06	-8.99267256370925E-07	-3.7665874320835E-06	2.4224639976817E-06	-0.995413444532419	0.0237051901234356
5.1	-0.645371436312381	0.761859073556154	4.15260078376669E-06	-1.33465808356778E-07	-2.64813266002981E-06	-9.86202552254223E-06	-0.984290186125433	0.149890637400024
5.2	-0.58281649412308	0.810345987959186	2.65842284134192E-06	-1.5051824616493E-05	1.37921414358431E-06	2.83671878803719E-06	-0.957364340879599	0.272921371696382
5.3	-0.517087928975813	0.853999687403026	-8.74840164300558E-06	-7.97357338198656E-07	-1.14020783153203E-06	1.58162195793776E-07	-0.915452857593855	0.391683355591812
5.4	-0.448204606227933	0.892430577341078	-7.20675735723912E-06	-1.11109261259464E-05	-1.38054663668474E-05	1.12328586897501E-05	-0.858659735363439	0.504021545262111
5.5	-0.376781775441659	0.924977072458954	1.91133505273736E-06	9.03038397694981E-08	-2.25365463229465E-06	1.78883607486434E-06	-0.788704103345374	0.60815621591287
5.6	-0.302712785757072	0.951777340578647	-2.42121078670182E-06	3.52480325141881E-06	-1.34812817243214E-06	1.2927550639028E-06	-0.705881279966685	0.702322047363203
5.7	-0.226535995075659	0.972881468364873	1.31034535624619E-06	1.23777301071585E-06	5.78632882492215E-06	-1.14010691814574E-07	-0.612215499825571	0.785332235724778
5.8	-0.148845717902483	0.987435668032373	2.71259467773646E-06	4.27979819623488E-06	-2.12392233185893E-06	4.26026480390021E-06	-0.508600173297596	0.855898513530493
5.9	-0.0700290760586946	0.995810569565336	-6.92241862190568E-06	-2.30943504856848E-06	-7.48383856432129E-08	6.32162606104632E-06	-0.397056700073753	0.912935296673654
6	0.00823477192325185	0.99668315956569	-1.79925825998151E-06	9.37692044176497E-08	-5.49282841760368E-06	-4.39618484402405E-06	-0.279404761837701	0.954517938265651
6.1	0.0854826816643535	0.99301482711145	3.31294881213195E-08	-9.94385877486407E-06	-9.89126779683128E-07	-3.22340972606845E-06	-0.158385483584142	0.981935592261869
6.2	0.163931076101074	0.983189511188386	-1.02297433888941E-06	3.12228463654794E-06	-1.76160990129395E-06	4.22766726636944E-06	-0.03336420280811	0.993896788311229
6.3	0.241778512419389	0.966865100837803	-8.05515577912117E-07	2.83916188635148E-06	-2.94470791769898E-06	2.40479834928349E-06	0.0922188006876178	0.989765569071661
6.4	0.31793082565869	0.943883718539785	-5.97884882999027E-06	5.56583857935836E-06	-2.38881918263983E-06	-7.48903229802339E-07	0.216339739556162	0.969416544208346
6.5	0.390851979327412	0.916210061725795	1.40898913144913E-06	-5.28949812639549E-06	-1.45174246939611E-06	-2.38337332053306E-06	0.335362991394414	0.934511477501398
6.6	0.463500299119498	0.883194407473201	3.67008731490734E-06	2.11083591359643E-07	1.13555275711255E-05	-2.68920857692808E-06	0.451293417169183	0.885669517312838
6.7	0.532675272697224	0.843030387579776	-7.79353760044564E-07	8.51900540719098E-07	-3.78468996111146E-06	5.25788858796842E-06	0.559127178020197	0.821434452620593
6.8	0.598082707001713	0.797712297019055	-1.75818180647212E-06	4.51180906604461E-06	1.45977060715018E-06	-8.89456623648004E-07	0.657688184291632	0.744432332383776
6.9	0.659588045724067	0.747328392983027	5.95444612986407E-06	2.24969779572105E-06	-9.31786119736593E-07	2.42987633971673E-06	0.745688242896903	0.655627775993063
7	0.716496298466145	0.692016475556336	1.13364344822556E-06	-4.17354649127885E-06	-1.42635966648129E-06	2.93548659317918E-06	0.821318368535682	0.55645439528573
7.1	0.768854942795236	0.633025689759595	2.39031087738388E-07	-7.21373364440743E-07	2.00507470466211E-06	9.21600439552412E-06	0.884156753193614	0.449330168264085
7.2	0.816556290161216	0.569600047310945	1.38429529385996E-06	-2.42568696026985E-06	-1.03623668217803E-06	-8.59360467429357E-06	0.933219048371309	0.335074437696807
7.3	0.85899764375849	0.502336851539537	4.87196682606839E-06	7.23947452402071E-06	-9.7437978411287E-06	2.36681162576605E-06	0.967357146653316	0.215388224329443
7.4	0.896670337497665	0.431687562425561	5.11271277756388E-06	-6.98486908513558E-07	1.92248298805668E-06	-9.67835368858319E-06	0.986881074897702	0.0918390883493037
7.5	0.92821711229848	0.357010539587649	2.73456063056881E-06	-5.33915584381384E-06	2.07487100823318E-06	-7.31442293058979E-06	0.989608281025307	-0.0344179578305324
7.6	0.952956942694868	0.281110211405651	-3.40511006962051E-07	-5.64973797526272E-06	1.68319528179637E-05	3.80073072235054E-06	0.975969424498625	-0.157958203671337
7.7	0.972430209188222	0.203430735470845	3.52599317972342E-06	9.51013619309023E-08	3.11313713232502E-07	-2.93272504754379E-06	0.948255336402535	-0.279259887075854
7.8	0.985608167678949	0.124127056739901	-1.10072205940048E-05	-1.87092300200237E-06	-1.87020171333084E-07	3.44627994536177E-06	0.905556555997612	-0.396508133856402
7.9	0.991937889669425	0.0433573779567348	2.37112065271319E-06	2.02043527752481E-06	-6.97983356197696E-06	-4.67889556774696E-06	0.847988443190877	-0.507801160213047
8	0.989878084536863	-0.036471881784465	2.36680558029844E-06	2.93534525067863E-06	-9.36990700713343E-06	-7.53098964193441E-06	0.775759679684713	-0.609142250465947
8.1	0.98397076839085	-0.11429107238373	3.80788147215633E-06	-3.07961147456199E-06	2.13049828554105E-06	-3.18772634264178E-06	0.694710319004524	-0.700509992127204
8.2	0.97196677736659	-0.192724501069062	-4.02604087438077E-06	1.42937527851331E-06	-6.74438838268464E-06	3.85072278923775E-07	0.602079291104085	-0.782552302022344
8.3	0.952894997881354	-0.270368651757329	9.85588486797332E-06	2.6051822992063E-07	6.27574151451364E-06	1.04172660763676E-05	0.499221345775791	-0.852074781611107
8.4	0.927360886411479	-0.346204393320408	1.2921459934697E-06	2.55063611152952E-06	3.46391238198319E-06	1.810462508665E-06	0.38833725562157	-0.908372591667747
8.5	0.895760926941928	-0.419801180257309	-4.82572201053452E-06	4.98055388266374E-06	2.84343104734649E-06	-3.03236157805679E-06	0.270210777341786	-0.949732544867106
8.6	0.858374765981001	-0.490621091594808	-4.48893160842931E-06	2.10632810506776E-06	-3.00281904838629E-06	8.12907680042563E-06	0.149089671507326	-0.975575345315556
8.7	0.81535714846453	-0.55820631413022	-1.01555562093562E-06	1.21966025702087E-06	-6.29558915347331E-07	3.46404778307604E-06	0.0254885744301852	-0.986563300630469
8.8	0.767093358132889	-0.621813425032815	-1.5712260510533E-06	3.08241925450676E-06	-5.99758957958966E-06	1.30726399567855E-06	-0.0981645026819604	-0.982209039368933
8.9	0.714389806741052	-0.681342201378467	3.16426003140764E-06	-1.83956164348053E-06	-3.16253038353362E-06	-4.46249983029439E-07	-0.220406622434079	-0.962480627628444
9	0.656674635814099	-0.736897398175699	-7.2793491376286E-06	1.3696973253224E-06	-3.97383042846111E-06	7.35338385861072E-07	-0.340517257847702	-0.92855154583023
9.1	0.594509169405159	-0.787012093303288	-3.35929746878466E-06	-1.87093063039928E-06	-9.76141791150256E-07	2.13701853847207E-06	-0.455517742263966	-0.877601252792232
9.2	0.528455707291196	-0.831963344934227	5.97366774809159E-06	-1.65901005047636E-06	2.01333114807565E-06	8.46554238182477E-06	-0.562242200144497	-0.813550448429684
9.3	0.459124694550697	-0.871568589108004	-3.3536123901539E-07	1.07065425924278E-06	1.36937646466822E-05	1.17724155804471E-05	-0.66024664224751	-0.736269442098179
9.4	0.386452813276666	-0.905802955809924	1.72162471215593E-06	-2.66620828144673E-06	4.29131236115073E-06	1.74270556455163E-06	-0.747548041688604	-0.647589366475974
9.5	0.3088841521747	-0.933237739990801	-6.5229406498858E-06	-4.85049474790674E-06	-1.97182829384421E-06	-5.68739045735316E-06	-0.823784246664139	-0.546411440408371
9.6	0.230772900823909	-0.952304470232687	-1.16465585164758E-05	-2.11960556035253E-07	-5.92300508114061E-06	-3.97729946374557E-06	-0.884190929356026	-0.438072818737988
9.7	0.151878531827311	-0.966269013157438	1.46162111467343E-06	-4.81651073692787E-07	-2.90274528835353E-06	1.64594493198841E-06	-0.932141989102825	-0.323628833426052
9.8	0.0718022860683803	-0.973739402298663	2.20313215447876E-06	1.38918319849096E-06	1.50419360168906E-05	-3.53862034106081E-06	-0.965263321527518	-0.203908414331669
9.9	-0.00887113509102192	-0.974119704608838	-3.4220012309337E-06	8.94940986440307E-06	1.37241396308881E-05	4.93078930885872E-06	-0.983463183406107	-0.080723575829435
10	-0.0882459565955664	-0.966678336374397	-3.62472032079022E-06	1.62068923637482E-06	1.91219613953991E-05	-1.81202002182451E-05	-0.98586874460014	0.0441461542370621
10.1	-0.165531152901654	-0.953512953999009	-1.469948870741E-06	2.29772191137652E-06	-8.40169762561071E-06	-4.28001562270218E-06	-0.972292022913796	0.168377632989175
10.2	-0.241483089859057	-0.934316817198433	-2.3040919602514E-06	-1.23216103576386E-06	-1.2860987006633E-05	7.22986822580775E-06	-0.942786697936069	0.289645199331038
10.3	-0.314435755801644	-0.908762902949554	5.7513190048436E-06	3.90036223835447E-06	-6.12387358030972E-06	1.38523042122427E-06	-0.898526635518013	0.405651030254742
10.4	-0.384689781052986	-0.878137825335685	2.09342963183832E-06	1.0385107031562E-06	6.86724483376097E-07	-8.184242776938E-06	-0.839681911933516	0.514243706907625
10.5	-0.452160664536173	-0.84125108870327	4.34048489185003E-07	-3.04260482465461E-07	-6.53900505826281E-07	-5.59667615337581E-06	-0.769773411394655	0.614042383531598
10.6	-0.514657178543674	-0.798795718680494	5.05929163570567E-06	-2.59040780749766E-06	-9.69206193776036E-06	-7.83430442553353E-06	-0.6869196855155	0.706439918691235
10.7	-0.572632492841194	-0.752267337458401	-2.79763563435885E-06	-4.99655129309211E-07	-5.19377276804504E-06	-7.12634945956898E-06	-0.592778942043569	0.786690888288209
10.8	-0.625980621979839	-0.703061174731057	-3.59087620375113E-06	-3.42460331996833E-06	-1.18959054081035E-05	9.08301902330373E-06	-0.489489383265402	0.854216106610738
10.9	-0.675592713420392	-0.652190719869841	-1.13010224636734E-05	-1.03730318066033E-05	-4.46264616043193E-06	1.08875175758557E-05	-0.379628102967848	0.908195797062273
11	-0.723526737266532	-0.59946719631383	1.00469160050647E-06	1.40468289927781E-06	8.63335759342097E-06	-5.46447391864691E-06	-0.262920897953135	0.949574711559149
11.1	-0.767221739255763	-0.54171463190382	-3.23243204839996E-07	-3.61576332253162E-06	1.01417256779021E-05	-1.01480504494392E-05	-0.140949813732859	0.974314419406462
11.2	-0.806982812787349	-0.482438719415279	-1.02297123005638E-06	-3.8954649660323E-06	2.15723161955856E-06	-6.27841536655824E-06	-0.0172488909280689	0.983479420011781
11.3	-0.84359520685331	-0.419886344424804	1.64486228703299E-06	-1.19852815279952E-05	3.55332347384454E-06	-2.80336439689047E-06	0.106493402641789	0.977311596469369
11.4	-0.875845219380857	-0.354393188940209	9.82598606192657E-07	1.98579234444686E-08	-5.67524436297326E-06	6.42621292326175E-06	0.229035314859358	0.955875454472727
11.5	-0.90365373518313	-0.28475828032055	6.51895694986339E-06	-1.22731087146027E-06	8.20203435620233E-06	-3.01140293670128E-07	0.347000407124112	0.918949551855534
11.6	-0.924751467896467	-0.213580487837863	-6.26015207111834E-07	-5.30313110245797E-06	1.43667117412473E-06	-3.06283614937658E-06	0.4600591888349	0.867647384731429
11.7	-0.940662370010962	-0.139874892682936	-7.98313339631885E-08	-6.01819204985059E-06	8.94144806526495E-07	-2.64316704794521E-06	0.565609462556463	0.802385603159641
11.8	-0.950861464325506	-0.0638938598987476	-1.06450927329288E-06	-7.40140838460988E-07	5.13891316767484E-06	1.08652536379728E-06	0.662379992119905	0.724470630578926
11.9	-0.954900811860148	0.0138517318760188	-3.19126405862767E-06	-5.19304582596993E-06	-5.34638369895873E-06	-7.98707272179885E-06	0.748111172370682	0.634956520202746
12	-0.95272948232068	0.0922734792777969	-2.93489159757552E-06	1.62794236120731E-06	-1.66338532003155E-05	-8.74774702927352E-06	0.819686637194977	0.535773110466195
12.1	-0.943901392253747	0.170564783564143	8.26940921055188E-07	-1.55760332317433E-06	7.78268466670157E-06	1.22466935228499E-05	0.880036901153331	0.430331632291403
12.2	-0.927594492799946	0.248617592984862	-4.10798220414451E-06	5.5121844762337E-06	4.02489646202717E-07	3.30023291086247E-06	0.92761748494134	0.316836653173314
12.3	-0.905102907948158	0.324873346483198	7.78106184622201E-06	6.39032777356939E-06	3.80245887649247E-07	1.08517967289472E-05	0.960142277053106	0.19749238239965
