# GHZ S RI R 50
0.2	0.985907140767821	-0.156773247343249	2.56432244276065E-06	2.25024217862682E-06	6.57120767457631E-06	-4.86852466514576E-06	-0.966429613177781	0.251651305650852
0.3	0.96989342187954	-0.233841915522732	-8.73396735771577E-07	-5.45447474919028E-06	-3.46615477376512E-06	-7.94650902171238E-06	-0.926818151497375	0.371688966611953
0.4	0.948443554523808	-0.309152345669921	-7.27969383637412E-06	-9.91819211972756E-07	4.44154489758098E-06	1.54555568796228E-06	-0.872090441049434	0.485482674893258
0.5	0.921555396583178	-0.382650170981591	6.20022928403837E-06	2.10523469023816E-06	-2.41422116133943E-06	-1.90831285243058E-06	-0.803514822101944	0.591747348865222
0.6	0.888631376757268	-0.453665479385599	-1.05530216489534E-05	2.46044236151807E-06	-2.2186563269399E-06	-1.00739106106577E-06	-0.72197971307128	0.688092038500684
0.7	0.850507678379597	-0.521556804402478	2.78481065537582E-06	-1.17203148081581E-06	-2.98863253926705E-06	5.78912624241936E-06	-0.629357232872338	0.773561639626166
0.8	0.807094421797208	-0.586664200764609	1.17757005006128E-06	-8.47752651236093E-06	-6.62172856492278E-06	-3.0713861252729E-06	-0.526627765248027	0.846530941429152
0.9	0.758646563451644	-0.648334102680059	-1.14692047134007E-06	-6.81283742673082E-07	2.54798326571759E-06	6.54506628699099E-06	-0.415712695437625	0.9058325772673
1	0.705256114665051	-0.706178020356727	-2.74491311964422E-06	-3.22331276672156E-06	-4.04403368431462E-07	-7.31748206198552E-06	-0.298534490495797	0.950522511405851
1.1	0.648214465064263	-0.759647656594432	1.80791125659924E-06	-4.94149049924586E-06	2.27144778340441E-06	-5.13492561926591E-06	-0.176520283276922	0.980400799440741
1.2	0.585797698010069	-0.80927965746355	-2.49699807776334E-06	2.49141663197994E-06	9.26557605926746E-07	-9.10799757901169E-07	-0.0514985230328457	0.994511851604196
1.3	0.518105534816349	-0.853902793619922	-1.53872269396481E-06	7.19104033691337E-07	-1.35639431484244E-06	1.46331270270714E-06	0.0742277833520694	0.993060878483972
1.4	0.447354797597436	-0.892518671590959	3.92524919388577E-06	-3.24077855235777E-06	2.70071944932176E-06	1.09452266263133E-05	0.199384999204362	0.975283878020846
1.5	0.374537951251647	-0.924767418366628	-5.33983146549338E-06	1.10900222561605E-06	6.59409004230309E-06	-7.20841233280025E-06	0.32111695710835	0.941951165384753
1.6	0.300849019035674	-0.951164453837765	1.77835123890024E-06	-7.74156166542433E-06	3.63310454973119E-06	1.38367128125424E-06	0.437170754040438	0.89343596935781
1.7	0.226339947305168	-0.971357130598186	-1.94214089660153E-06	-9.69951160198361E-07	-2.35416197382409E-07	-2.08781755710603E-06	0.545530609045232	0.831523386455436
1.8	0.149641310791028	-0.986016278220109	2.85169003212912E-06	5.28139226013136E-06	4.04066649291292E-09	2.03232055482775E-06	0.645621597660532	0.75615795794362
1.9	0.0721096683467952	-0.994667322448491	5.67664572104774E-06	-2.63250772043517E-06	-2.99930177221779E-06	4.15928135539965E-07	0.734928692316733	0.669058469181075
2	-0.00510602119239734	-0.997252415851797	-1.54935527287838E-06	-2.02778779674046E-06	3.21458887532146E-06	1.14648184016636E-05	0.813033078527434	0.571130732694679
2.1	-0.0840223334562409	-0.993949116701425	-7.55826258560068E-06	2.45892482310675E-06	1.20961859204353E-06	5.14921826414855E-06	0.877920062132446	0.464343333620687
2.2	-0.160814429440451	-0.984373390918989	-8.83214205303959E-07	1.39546122162587E-06	3.0081261565431E-06	7.7806501752183E-06	0.929229311109713	0.350458116366319
2.3	-0.238011469558273	-0.968319770008478	1.82350369730342E-07	7.4580354608169E-06	7.40540977432964E-07	9.39064368817314E-07	0.965365593312979	0.231466030270848
2.4	-0.313858715435253	-0.945980651530191	1.58252264348222E-06	7.17800525668451E-06	1.52405439480847E-06	6.39090218194169E-06	0.986846456410572	0.107920853760817
2.5	-0.387074539387007	-0.918517454559841	4.39238685064083E-06	-2.31634644009821E-06	-1.91716869977365E-06	-7.57524217119217E-06	0.992195434662291	-0.016573303255741
2.6	-0.458361841344197	-0.884873007587362	6.77205135555996E-06	-5.94964567788506E-06	-1.11031016426297E-05	1.0835963074443E-05	0.982214179391417	-0.141317716051313
2.7	-0.526888044841658	-0.845720218007296	-4.44206757478624E-06	9.14675207736782E-06	-2.87597504342892E-06	-9.16177470249756E-06	0.956235918102077	-0.263843099079667
2.8	-0.591142878279524	-0.801788285241374	2.45836773609055E-06	1.14348276385618E-06	-3.12847871772225E-06	1.24452574989639E-06	0.91588704674228	-0.381445156233615
2.9	-0.651380010671171	-0.753463353411397	-5.49920611600553E-06	6.01611418782484E-06	-9.19414549225622E-06	-2.82342103654722E-07	0.860756506715687	-0.492973198752746
3	-0.708352978143956	-0.700101228426065	4.72134100391045E-07	-1.47295817272914E-06	1.13245906092105E-05	1.46128865708755E-06	0.792106726324467	-0.597180672424269
3.1	-0.761044726148547	-0.642822474249642	2.40681375167389E-06	1.04937633351189E-05	4.3246809277918E-06	2.17286195780635E-06	0.711132764850128	-0.691300426058888
3.2	-0.808900183708499	-0.58170774031067	2.10501089810127E-06	6.46358431080012E-06	3.99742471838652E-06	-1.06028434900857E-05	0.619238894056513	-0.774756359960701
3.3	-0.851928109146135	-0.517169319035391	3.08139332857457E-06	4.95959312299394E-06	-2.22554753130973E-06	-9.66495292413212E-06	0.516468060056164	-0.84664219511549
3.4	-0.8890711908509	-0.449714621013368	2.12407933809101E-06	-2.60347627779009E-06	5.95609617705812E-06	1.3810418968824E-06	0.406869701403849	-0.904730995520394
3.5	-0.92155956039363	-0.378114896219258	-3.23839165132846E-06	9.47291116570746E-07	-2.07128795965287E-06	3.42286752465538E-06	0.289883831320479	-0.948865379959324
3.6	-0.948301481766881	-0.304615956769601	-1.81413213677902E-06	-3.74194965446827E-06	-7.81940589683348E-06	4.10900050287648E-06	0.168276288570198	-0.977834246449159
3.7	-0.969108565747805	-0.229650203858528	8.18066554360616E-07	-8.32508743412326E-06	1.0767220961078E-05	3.69092556843641E-06	0.0435815257291204	-0.991132617646003
3.8	-0.984223505968324	-0.152424154355192	9.26767518185825E-08	1.54645317724426E-06	-6.51480499202077E-06	5.95289490435404E-06	-0.0810320074188023	-0.988663630401906
3.9	-0.992895432582994	-0.0748309362739893	-2.629284166953E-06	-5.02607322905172E-06	-3.69982867776697E-06	8.02593308357243E-06	-0.20613526871913	-0.970729756519993
4	-0.995599049651712	0.00400909816197701	7.12852557671541E-06	-3.84775447187525E-07	-1.04534397481723E-06	-1.20516309362871E-06	-0.326198967247406	-0.937331225426791
4.1	-0.992403906230426	0.0822290063278522	6.19497103186567E-07	-4.44091518246393E-07	7.35128392612124E-06	-4.75868920527351E-06	-0.441905931135489	-0.888889886826698
4.2	-0.983123885545105	0.160275916968124	3.20640562084371E-06	2.10226203067534E-06	-7.18739938632432E-07	-7.61871971208309E-07	-0.550351710838707	-0.825830009586893
4.3	-0.967869910560181	0.236445410245144	-3.18997528296347E-06	1.3737260975339E-06	-4.99697434218138E-06	2.98427171714041E-06	-0.649770463881686	-0.750481990554154
4.4	-0.946588396905349	0.31138933673156	8.05176387555281E-07	2.64325273025631E-06	1.55182033634294E-06	-8.33622045753072E-06	-0.738949920875193	-0.66302811625687
4.5	-0.919245936874411	0.384580581838787	1.8244316201191E-06	-9.40282620521439E-07	7.634633771126E-06	-2.56514335856671E-07	-0.816757607830653	-0.564986373411878
4.6	-0.886110789745769	0.456043210555075	-7.30390191783101E-07	6.13379099940995E-06	-1.23509680572802E-05	-6.49110171055749E-06	-0.881231469947289	-0.457740543763761
4.7	-0.847718388432727	0.523532931242045	1.20211771500209E-06	2.51345510793356E-06	1.42190371555433E-06	1.86836292522257E-06	-0.932115561123544	-0.343495549222082
4.8	-0.803296893104992	0.589072804034754	-5.18542571085598E-06	1.11387860273725E-05	5.23630530499371E-06	9.70153438999108E-06	-0.967862017425526	-0.223178579597151
4.9	-0.754153795594169	0.650175562011223	1.19945866757458E-06	2.93480171141976E-06	-4.82159293607636E-07	-6.92043765499864E-06	-0.988078363945086	-0.0990354491547616
5	-0.700497254312357	0.707250164246039	4.74601833318819E-06	-9.09884403291904E-07	-3.7469154670854E-06	2.42507291478246E-06	-0.992154514882651	0.0263270822821137
5.1	-0.64211060938626	0.7602291512901	4.13818453956217E-06	-1.40612792315037E-07	-2.65715031347239E-06	-9.8235205012535E-06	-0.980994742509772	0.150973006394875
5.2	-0.580064050642245	0.808620613774022	2.6256804489013E-06	-1.50059789781798E-05	1.37913069587226E-06	2.82509308022667E-06	-0.954220056237324	0.273581354119834
5.3	-0.514575100039501	0.852065255953074	-8.71904054259103E-06	-7.83271091470772E-07	-1.1360420934211E-06	1.59087604931734E-07	-0.912154168777889	0.391873383638623
5.4	-0.445953790041351	0.890274127346786	-7.1895898418359E-06	-1.10667395919097E-05	-1.37489052457055E-05	1.12035430079533E-05	-0.855252952229212	0.503528663819695
5.5	-0.374595778251117	0.922563397165929	1.90604708355477E-06	8.90808455251813E-08	-2.24645673971674E-06	1.78498897292382E-06	-0.785530220413859	0.606835763578589
5.6	-0.30092111965786	0.948824750857842	-2.41032511057033E-06	3.51675302755914E-06	-1.34275857780899E-06	1.29027759183681E-06	-0.703142491218191	0.700533097780822
5.7	-0.225312562303896	0.969675420818196	1.30699745265425E-06	1.23243410586324E-06	5.76664718914202E-06	-1.18703778676793E-07	-0.609851507602706	0.783098786439414
5.8	-0.148262712246872	0.984027033649747	2.70472553541417E-06	4.26240495902899E-06	-2.11375811458057E-06	4.24548797577834E-06	-0.506743287420724	0.853170290280514
5.9	-0.0704706890443693	0.992497984151162	-6.89316732640988E-06	-2.30228616420738E-06	-7.66752543558057E-08	6.29560356462971E-06	-0.396124860253855	0.909853180099148
6	0.0075237308603214	0.994735598339126	-1.79416875132703E-06	9.05899508488351E-08	-5.46972804238148E-06	-4.39225131740587E-06	-0.279209032630517	0.952229663735802
6.1	0.0854690011152834	0.990760291356023	4.07625001290752E-08	-9.92255355141319E-06	-9.84512772733185E-07	-3.2172780430795E-06	-0.157867963451488	0.979516798809996
6.2	0.163495215260346	0.980608548827246	-1.02266842746174E-06	3.11450000005875E-06	-1.76033712728083E-06	4.21688222390987E-06	-0.0333571183521161	0.99116495701878
6.3	0.240757592671368	0.964357024958902	-8.06036512635872E-07	2.83204454791224E-06	-2.9400091185525E-06	2.39689646778572E-06	0.0915188144986649	0.987083446592645
6.4	0.31659141787272	0.942052537153957	-5.97306196604808E-06	5.54954835573476E-06	-2.38360284643413E-06	-7.49831052763662E-07	0.215165441847543	0.967438986472972
6.5	0.390545835385343	0.914032653959008	1.40550457538044E-06	-5.28071379026246E-06	-1.44973498756009E-06	-2.37899360252553E-06	0.335156756133292	0.932313060962126
6.6	0.461853091310488	0.880029277967489	3.65848491993344E-06	2.10080238387488E-07	1.13193238588881E-05	-2.6817292812573E-06	0.449686220603442	0.882496787300117
6.7	0.530075565427246	0.840414233897855	-7.77131533740446E-07	8.48464622291916E-07	-3.77455816976254E-06	5.23728584423283E-06	0.556447694349467	0.818909092028463
6.8	0.59498405818027	0.795642081211875	-1.75628138368749E-06	4.49369157231301E-06	1.45535664367294E-06	-8.84779764861106E-07	0.654425554950788	0.742614778791002
6.9	0.656103758184116	0.745881571766961	5.92768276710145E-06	2.24977682665314E-06	-9.31764408870217E-07	2.41893423974749E-06	0.742003720564079	0.654669091794995
7	0.713001341473378	0.69123481101845	1.14090599477671E-06	-4.15612022233017E-06	-1.42929880356456E-06	2.92154601560178E-06	0.817824484937658	0.556420783686073
7.1	0.765273439824496	0.632561535874154	2.40111650104076E-07	-7.18975808428419E-07	1.97838219835421E-06	9.19722224974373E-06	0.880711724267025	0.449604999278599
7.2	0.812829715087073	0.569588032666964	1.38575380872266E-06	-2.41668853874471E-06	-1.01598401889911E-06	-8.57390640116723E-06	0.929677288364674	0.335897915700694
7.3	0.855131498774246	0.502730340383486	4.84547048913418E-06	7.2291064645782E-06	-9.72206675930443E-06	2.34238428867756E-06	0.963733105146701	0.216752537853046
7.4	0.892280691725353	0.432582383997478	5.09607503221339E-06	-6.87563360017952E-07	1.93186602812636E-06	-9.64146911100084E-06	0.982742416928531	0.0940691087871865
7.5	0.923766433228232	0.359658799389699	2.74036921836353E-06	-5.30660723249439E-06	2.0901624139394E-06	-7.27540719294653E-06	0.986194187928006	-0.0298460253219071
7.6	0.949655519693051	0.284239352870363	-3.16643501007731E-07	-5.63393038025246E-06	1.67653988472423E-05	3.85719244922732E-06	0.974372545735246	-0.153400969877082
7.7	0.96947036443526	0.206879181285873	3.51593802434444E-06	1.09147922192114E-07	3.22360065721545E-07	-2.92341947943407E-06	0.947320347931929	-0.274587090733324
7.8	0.983008797997332	0.12817090710731	-1.09710798703928E-05	-1.91449066298718E-06	-2.01672637313954E-07	3.43671481983153E-06	0.905445061430549	-0.3914965781055
7.9	0.990152455515158	0.0484503510172718	2.35586396232083E-06	2.02871120893238E-06	-6.94151766649596E-06	-4.70580054603262E-06	0.849361637700557	-0.50234185924026
8	0.990727212360486	-0.0314229915898732	2.35174820918037E-06	2.94895818487659E-06	-9.33227758600863E-06	-7.5836388182335E-06	0.779613074509954	-0.605423146638123
8.1	0.984905365946836	-0.110936182404182	3.82116567075613E-06	-3.0679661752972E-06	2.1431371937389E-06	-3.18210987922118E-06	0.697554414829227	-0.698545697760084
8.2	0.972806795263632	-0.189475879916165	-4.03176896850343E-06	1.41688583152024E-06	-6.74754691259523E-06	3.63576551930572E-07	0.604704103757359	-0.780659897188159
8.3	0.954046879246711	-0.267145265329343	9.85786923436975E-06	2.91044323947573E-07	6.24533070652048E-06	1.04396048233322E-05	0.502041747835798	-0.850420127012882
8.4	0.928954621830612	-0.34309708820992	1.28519697690316E-06	2.55492521051503E-06	3.45959072282358E-06	1.82075477370034E-06	0.391401177147232	-0.906936932727354
8.5	0.89777801518032	-0.417044033895057	-4.84026905780954E-06	4.96409492636665E-06	2.85231105119049E-06	-3.02263964678255E-06	0.274053363212036	-0.948824473805883
8.6	0.86060455246252	-0.48811213444534	-4.49815848868082E-06	2.09038226590866E-06	-3.03386708251252E-06	8.12055054037302E-06	0.152886332483813	-0.975847809128194
8.7	0.817926693839778	-0.555959419976877	-1.02086166553894E-06	1.21699964751806E-06	-6.42710230156983E-07	3.4647028388903E-06	0.0289461648652569	-0.987556959420581
8.8	0.769937265871614	-0.619979649669876	-1.583871890887E-06	3.08107918209421E-06	-6.00996247457508E-06	1.28839707138467E-06	-0.0952210043066598	-0.983819146084115
8.9	0.717230190758154	-0.679960479993457	3.17471760411951E-06	-1.83399651810496E-06	-3.16669793169772E-06	-4.55709708582796E-07	-0.218387570378447	-0.964150399110763
9	0.659596045760515	-0.735429199369678	-7.28805566376735E-06	1.35518403584253E-06	-3.97855681949334E-06	7.27405694020876E-07	-0.337978215795099	-0.929373748969023
9.1	0.597914163673206	-0.786045834475288	-3.3562902508696E-06	-1.88178067510579E-06	-9.82896418304868E-07	2.13571462784777E-06	-0.452580622053625	-0.879686001025339
9.2	0.531899382684753	-0.831545362528801	5.9840726066886E-06	-1.64299301997774E-06	1.99032007808329E-06	8.47929519913751E-06	-0.559863826993904	-0.816318456950446
9.3	0.462457719517666	-0.871538030004665	-3.388728830961E-07	1.07071738676866E-06	1.36723469277187E-05	1.18247326222357E-05	-0.65842526436893	-0.739424967593635
9.4	0.389661586395408	-0.905574058253463	1.73124704314471E-06	-2.66249929012738E-06	4.28861358351335E-06	1.75751124583861E-06	-0.745914921132321	-0.650798302584486
9.5	0.313804783653289	-0.933352895951472	-6.50860579610121E-06	-4.88858248885572E-06	-1.94718182287214E-06	-5.70473265875782E-06	-0.822285867715673	-0.551440499512054
9.6	0.235232669614969	-0.954618319308577	-1.16820310572955E-05	-2.60267379979329E-07	-5.92521515137707E-06	-4.01394016179376E-06	-0.885311808728495	-0.443347425826597
9.7	0.155341913207342	-0.9691521029256	1.46813521200545E-06	-4.78430262277663E-07	-2.91796577707814E-06	1.64186842087327E-06	-0.934455230872029	-0.327949082782138
9.8	0.0746643558681377	-0.976867808528444	2.20669261541518E-06	1.4005715537577E-06	1.5104917754154E-05	-3.50629789379282E-06	-0.968306403165065	-0.207442630095578
9.9	-0.00629726686912458	-0.977507414970834	-3.4595993534896E-06	8.97397448138994E-06	1.37626815216876E-05	4.98724380746847E-06	-0.987047063989379	-0.0833954632788175
10	-0.0861541808236381	-0.970892060458438	-3.64299112500167E-06	1.61952915473163E-06	1.9238876100361E-05	-1.81531421227559E-05	-0.989609086391804	0.0421365186532919
10.1	-0.164553264905584	-0.957783832068343	-1.47995286552906E-06	2.30387064179915E-06	-8.42623324765831E-06	-4.31235247356729E-06	-0.976540323139362	0.166942863313581
10.2	-0.241065437380493	-0.938492111663911	-2.31108979706389E-06	-1.24131155128646E-06	-1.29257975092438E-05	7.2354086955917E-06	-0.947412418187948	0.289100365864413
10.3	-0.314582429115263	-0.912971385439904	5.76951653264712E-06	3.92711734501361E-06	-6.1527573925355E-06	1.38071323271961E-06	-0.903452615704745	0.406124187299672
10.4	-0.385512328344783	-0.882282876373099	2.10232113976778E-06	1.04680310963854E-06	7.02325912208662E-07	-8.22402338881096E-06	-0.844840703956218	0.516355044979232
10.5	-0.453447323353159	-0.845197134979649	4.36499035636213E-07	-3.05854292513161E-07	-6.56432589904127E-07	-5.62764765829183E-06	-0.773091645097868	0.618106187111913
10.6	-0.516480447543507	-0.802568756660324	5.08240113567336E-06	-2.60492619524255E-06	-9.74171562486908E-06	-7.86769982056652E-06	-0.688942016067465	0.709929141963791
10.7	-0.575011014489029	-0.755848000979113	-2.81080562607925E-06	-5.00320988766808E-07	-5.22184350942435E-06	-7.15611981103552E-06	-0.59436680392021	0.790200884520658
10.8	-0.629101750777339	-0.706299216569397	-3.61040506413518E-06	-3.4369687083152E-06	-1.19419534766554E-05	9.13536833287425E-06	-0.49061277400643	0.857950365542563
10.9	-0.679581829235709	-0.654386704358156	-1.13676316658942E-05	-1.03989361679235E-05	-4.46359413038294E-06	1.0942330331696E-05	-0.37971673017984	0.912284898593647
11	-0.726295565987955	-0.600460337173711	1.00962812506474E-06	1.407404743143E-06	8.65108680597919E-06	-5.49272216968746E-06	-0.26217324762355	0.952512237660283
11.1	-0.770132312896958	-0.543684156942918	-3.26551526211111E-07	-3.62847443535056E-06	1.01718713830925E-05	-1.01903100479633E-05	-0.14073652971572	0.977404733388051
11.2	-0.810714986449091	-0.484027431061994	-1.03076427542176E-06	-3.90990877783658E-06	2.15974347897755E-06	-6.30535081450768E-06	-0.0164534368572001	0.986960240143782
11.3	-0.847692986345974	-0.420637971037536	1.63483773994808E-06	-1.2034331006405E-05	3.56334938522402E-06	-2.81918507351484E-06	0.10801824730053	0.980720745071255
11.4	-0.8796414866063	-0.35427494795417	9.86157149130359E-07	1.84281169184607E-08	-5.68580511309249E-06	6.45795749364236E-06	0.231202530051805	0.959022727232731
11.5	-0.907136728181711	-0.285127374708577	6.54261194272543E-06	-1.24003092590524E-06	8.2333189620952E-06	-3.12347279512997E-07	0.349817414632934	0.921701375935708
11.6	-0.929322963245866	-0.213315957518533	-6.38708600209647E-07	-5.32392114883723E-06	1.4367939511649E-06	-3.07826776434006E-06	0.463289140411242	0.869765742774663
11.7	-0.945247418745157	-0.138466956757643	-9.43004373630554E-08	-6.04120602996088E-06	8.91372384601581E-07	-2.65546120423994E-06	0.569057724825978	0.803895402033188
11.8	-0.955126397627486	-0.0615744160515928	-1.07012964423255E-06	-7.40023294068422E-07	5.15970716238115E-06	1.07723670869279E-06	0.665798949199014	0.725466439376761
11.9	-0.958667423025024	0.0170347418416584	-3.21380461367659E-06	-5.20255871718122E-06	-5.38248263918093E-06	-8.00068148844831E-06	0.751349238018308	0.6361699485855
12	-0.955500079541135	0.0959400611160118	-2.94255622482625E-06	1.6415039668854E-06	-1.67208964052064E-05	-8.74201182022587E-06	0.825017407925798	0.53690184573679
12.1	-0.946099697780144	0.174361120692587	8.2482491913569E-07	-1.56606030671986E-06	7.85178855925872E-06	1.22659263230315E-05	0.885395089336095	0.429040033383719
12.2	-0.929299883412508	0.252483093823271	-4.10246008711715E-06	5.54437371303884E-06	4.15167239504856E-07	3.30965386844404E-06	0.932219936887828	0.314533992163768
12.3	-0.90654875564441	0.328805970370496	7.8283223907511E-06	6.38369159292492E-06	4.19320283584545E-07	1.08852934739703E-05	0.964236470315314	0.194504546439464
