# GHZ S RI R 50
0.2	0.986009275671074	-0.156771088730386	2.56446068363332E-06	2.25047512789294E-06	6.57182349990296E-06	-4.86873057810453E-06	-0.966448863053756	0.251607909201796
0.3	0.969987325816309	-0.233893271158337	-8.73496571030346E-07	-5.45501373798922E-06	-3.46651784574025E-06	-7.94728895762898E-06	-0.926854018706905	0.371635045991472
0.4	0.948490603294161	-0.309272066400383	-7.2805518386335E-06	-9.91571715941917E-07	4.4421146047395E-06	1.54550922708025E-06	-0.872142144319897	0.485426660680719
0.5	0.921436112762759	-0.38279090784637	6.20083166884997E-06	2.10474068349936E-06	-2.41456568185542E-06	-1.90818892162718E-06	-0.803577325655328	0.591696288375101
0.6	0.888419621866788	-0.453631360507727	-1.05530056221851E-05	2.46113435341236E-06	-2.21874829215566E-06	-1.00726548922052E-06	-0.722046110868952	0.688049038010532
0.7	0.850353729616687	-0.521391462431195	2.78486125618542E-06	-1.17213335855205E-06	-2.98857545500685E-06	5.78936479156634E-06	-0.629419394754656	0.773528255024858
0.8	0.807049023889616	-0.586434030144814	1.17758692950609E-06	-8.47809922756528E-06	-6.62219151369901E-06	-3.07154249702971E-06	-0.526675110711502	0.846504752610553
0.9	0.758766370319887	-0.648147486910372	-1.14709480664876E-06	-6.81359687895771E-07	2.54846010625015E-06	6.54594662672393E-06	-0.41573347983548	0.90580735567606
1	0.705407936083952	-0.706275556877286	-2.74603716577261E-06	-3.22359466990218E-06	-4.05656712303097E-07	-7.31904833051059E-06	-0.298506073755326	0.95048892371651
1.1	0.648074029765691	-0.759861326349197	1.80642080231104E-06	-4.94266788090475E-06	2.26994329377301E-06	-5.13628376674893E-06	-0.176410639888421	0.980314269351395
1.2	0.585412803719054	-0.809420156098325	-2.49572304050936E-06	2.49237845325106E-06	9.260906159346E-07	-9.11157525832986E-07	-0.0513022873861722	0.994312147972169
1.3	0.517485474231486	-0.853837628622007	-1.53791293446834E-06	7.19679001323443E-07	-1.35525871666295E-06	1.46358017436794E-06	0.0744826977806185	0.99270693935107
1.4	0.446643932126193	-0.892127436781492	3.92186571454253E-06	-3.24101133752699E-06	2.70443172321716E-06	1.09386968553156E-05	0.199600949301514	0.974825583806178
1.5	0.373815132520075	-0.924034908976144	-5.33626882404975E-06	1.11012545868917E-06	6.58773754354055E-06	-7.20630939136698E-06	0.32124425079787	0.941542068132224
1.6	0.300420079293203	-0.950058871107619	1.77651882060173E-06	-7.73704968849106E-06	3.63104071042598E-06	1.38247898573542E-06	0.437257368377949	0.893115754404759
1.7	0.226303602694805	-0.97021787411771	-1.94112965258034E-06	-9.69638297579138E-07	-2.35137581757796E-07	-2.08683168508897E-06	0.54559700205462	0.83128332072095
1.8	0.14988140572429	-0.985003912308327	2.84977100427373E-06	5.28011510836809E-06	3.67299587010477E-09	2.03163204123984E-06	0.64569822742673	0.755987030873055
1.9	0.0725105064640922	-0.993888116047889	5.67622364808212E-06	-2.63077737551236E-06	-2.99886184400717E-06	4.15186982370643E-07	0.735049358681416	0.668942898197541
2	-0.00482714940081356	-0.996698702806905	-1.54899897652874E-06	-2.0278798176616E-06	3.21288558679841E-06	1.14646020822573E-05	0.813247091023522	0.571030470253355
2.1	-0.083832412108716	-0.993260094845993	-7.55768552515357E-06	2.45793357581238E-06	1.20899339163683E-06	5.14878037251187E-06	0.878216728104815	0.464178680737368
2.2	-0.160457185477145	-0.983607140124205	-8.83353327471654E-07	1.3951602726727E-06	3.00648636796693E-06	7.78030993149847E-06	0.929565822430017	0.350202931974398
2.3	-0.237437459267635	-0.9676239009641	1.80502095749641E-07	7.45768634503475E-06	7.40270339693988E-07	9.39197316633276E-07	0.965698707573484	0.231116200893265
2.4	-0.313091385820725	-0.945510286637809	1.58025481588837E-06	7.17890567339446E-06	1.52204136687824E-06	6.39174156631377E-06	0.987141414181631	0.107530461885814
2.5	-0.386331763388985	-0.918421795939684	4.39439385961533E-06	-2.31540960879587E-06	-1.91499307458794E-06	-7.57796509643913E-06	0.992569843205451	-0.0169328819577794
2.6	-0.457881452915607	-0.884945826729881	6.77626575722946E-06	-5.95091233067961E-06	-1.11102308566458E-05	1.08385198444892E-05	0.982721120538525	-0.141827564080911
2.7	-0.526624101926357	-0.845783303546493	-4.44468267950895E-06	9.1509802876728E-06	-2.87691865391112E-06	-9.16637385463016E-06	0.956751693111126	-0.264521829716926
2.8	-0.59102627849299	-0.801780346695419	2.45960962876627E-06	1.14388650253717E-06	-3.12990211414273E-06	1.24530273241464E-06	0.91635139173778	-0.382259949088541
2.9	-0.651405265716243	-0.753414572474506	-5.50084702442525E-06	6.01964340596313E-06	-9.19837322978951E-06	-2.81150968972943E-07	0.861101872908055	-0.493840834270083
3	-0.70866056500297	-0.699887288968378	4.71953408298988E-07	-1.47361673182447E-06	1.13291307503758E-05	1.45909750564682E-06	0.792418701046816	-0.597955292079294
3.1	-0.761367455281603	-0.642210355541603	2.40974917043109E-06	1.04955922175043E-05	4.32615549741767E-06	2.17236911022035E-06	0.711533357743014	-0.692132533148178
3.2	-0.809037387188182	-0.580881509210586	2.1063382248357E-06	6.46422778005737E-06	3.99636846336646E-06	-1.06050639176403E-05	0.619606702703381	-0.775705845367403
3.3	-0.851859453969653	-0.516264047251141	3.08214938466437E-06	4.95990050536437E-06	-2.2265936354024E-06	-9.66586260672453E-06	0.516748211199848	-0.847677313456629
3.4	-0.88880924669736	-0.44885177267575	2.1243245179736E-06	-2.60376597097E-06	5.95676600455932E-06	1.38120999006645E-06	0.407053955969385	-0.905807376621185
3.5	-0.921250804386084	-0.377351829615573	-3.23905967222818E-06	9.47376607594364E-07	-2.07180330594305E-06	3.42347753135698E-06	0.290028605550228	-0.950018036684773
3.6	-0.947924139366343	-0.30380618014498	-1.81471157339351E-06	-3.74263810473825E-06	-7.8208276158359E-06	4.11027804717876E-06	0.168244843913604	-0.979149771117274
3.7	-0.968556230824203	-0.228889681191941	8.17366436646709E-07	-8.32647685214754E-06	1.0769280026866E-05	3.69043373738742E-06	0.0432518837257108	-0.992465955276492
3.8	-0.983570265861503	-0.151833638332339	9.28869317427761E-08	1.54661631123261E-06	-6.51477397671524E-06	5.95441016206637E-06	-0.0816474284271288	-0.989836953841266
3.9	-0.992330752214674	-0.0744336618866389	-2.63031871156183E-06	-5.02594086885347E-06	-3.69868109622579E-06	8.02708361230881E-06	-0.206880661124599	-0.971523661995126
4	-0.995290198567372	0.00447311322701405	7.12827547065641E-06	-3.86037200653622E-07	-1.04553233398102E-06	-1.2049459506897E-06	-0.326577591846559	-0.937801717563469
4.1	-0.992060373928207	0.0829258087661929	6.19410993565865E-07	-4.44148953782104E-07	7.35032704907284E-06	-4.75939525698131E-06	-0.442014013223129	-0.889608133368833
4.2	-0.982650193698706	0.161024565917407	3.20649917493359E-06	2.10184642411883E-06	-7.18791143776866E-07	-7.6176746683085E-07	-0.550519273794498	-0.826712664345914
4.3	-0.967304247756209	0.237131162120129	-3.18979696709723E-06	1.37395331154806E-06	-4.99662810098749E-06	2.98460992671077E-06	-0.650050393882906	-0.751385197470585
4.4	-0.946054556674818	0.311892275831411	8.05389727686941E-07	2.64328958214452E-06	1.55129174927174E-06	-8.33662294528463E-06	-0.739344234098321	-0.663783502492827
4.5	-0.919041241846825	0.385031848821874	1.8244292756488E-06	-9.40635257274623E-07	7.63518762858587E-06	-2.5770422343581E-07	-0.816941721376536	-0.565446044317432
4.6	-0.886021951689235	0.456797707654882	-7.29081638764029E-07	6.1338723973077E-06	-1.23521958338508E-05	-6.48840675560458E-06	-0.881053943345199	-0.45836202007467
4.7	-0.847508848863514	0.524453700204198	1.20245899085813E-06	2.51297001365713E-06	1.42210234018724E-06	1.86790426440289E-06	-0.9318670979684	-0.344392167521358
4.8	-0.80293855756206	0.590038924273135	-5.18303798713541E-06	1.1137527085415E-05	5.23667911308106E-06	9.69914141169659E-06	-0.967680359646834	-0.224288076064265
4.9	-0.753669173911699	0.651103355710903	1.19935510492622E-06	2.93406386606556E-06	-4.82449525976645E-07	-6.91883340441087E-06	-0.988005692336009	-0.100274492253474
5	-0.699923824479158	0.708188750637122	4.74491167347178E-06	-9.09406867725078E-07	-3.74613382273119E-06	2.4242802903959E-06	-0.992136277545998	0.0248447149433052
5.1	-0.641277739606974	0.761117352141832	4.13745958729109E-06	-1.39952866815462E-07	-2.655164609872E-06	-9.82215582610395E-06	-0.981430566083113	0.149221777760614
5.2	-0.579062443456413	0.809247251810836	2.62871255811763E-06	-1.5004068120191E-05	1.37839264864298E-06	2.82514114102461E-06	-0.955163204119951	0.271975489659389
5.3	-0.513599498931481	0.852387479928206	-8.71906794379801E-06	-7.85549765013118E-07	-1.13611329254348E-06	1.58797602657474E-07	-0.913405351549944	0.390627879244102
5.4	-0.445225076657504	0.8903556743957	-7.18796826105717E-06	-1.10703051376528E-05	-1.37539033305977E-05	1.12018909952246E-05	-0.856522341849834	0.502755092290814
5.5	-0.374250491951386	0.922792558491558	1.90646168226393E-06	8.94151995032591E-08	-2.24725702485626E-06	1.78502057369827E-06	-0.786390375112302	0.606202535880471
5.6	-0.300458404639254	0.94933173386478	-2.41135812498424E-06	3.51707065476429E-06	-1.34322855040027E-06	1.290321815959E-06	-0.704099498938215	0.699599552966516
5.7	-0.224667019801192	0.970107367063251	1.30703792577952E-06	1.23294151978633E-06	5.7678817342601E-06	-1.17632791887871E-07	-0.611145645004233	0.782301423758025
5.8	-0.14756346599184	0.984248426986177	2.70444068535165E-06	4.2640279096332E-06	-2.11520157204149E-06	4.24604727443279E-06	-0.508230291055308	0.852760893239724
5.9	-0.0698819742601816	0.992409292026259	-6.89461081720723E-06	-2.3046130812021E-06	-7.8213259674521E-08	6.29740972413769E-06	-0.397565531146053	0.910008113286462
6	0.00765944760084822	0.994458676014825	-1.79485295131614E-06	9.02621616422664E-08	-5.47087350579056E-06	-4.39498342551788E-06	-0.280074441396946	0.95287494577586
6.1	0.0852790279391954	0.990732547793355	4.15731245871356E-08	-9.92635449324617E-06	-9.846324565198E-07	-3.21859039461935E-06	-0.158122529911822	0.980008054459253
6.2	0.163267304509792	0.980809819007096	-1.02291204296365E-06	3.11559667506709E-06	-1.76079509474998E-06	4.21837975276823E-06	-0.0333451034852486	0.991358505999168
6.3	0.240611221152212	0.964697967181414	-8.05883119361965E-07	2.83296735889793E-06	-2.94052766982401E-06	2.39798431499859E-06	0.0915931809504651	0.987011778589752
6.4	0.316520853787027	0.942455628206353	-5.9732525566414E-06	5.55210170672706E-06	-2.38431186331151E-06	-7.49494786171936E-07	0.215242976550244	0.967188124237353
6.5	0.390563568485349	0.914646391534363	1.40443669481144E-06	-5.28200215947968E-06	-1.45058594686063E-06	-2.37905436156206E-06	0.335180933721463	0.93176697378518
6.6	0.462219062820621	0.880718460277123	3.65905815872373E-06	2.09273039501759E-07	1.13203348914177E-05	-2.6847049982928E-06	0.449349086736278	0.881872389964244
6.7	0.530651753591283	0.840961215633235	-7.77076514346686E-07	8.48725898789146E-07	-3.77408036554429E-06	5.23870574673401E-06	0.555929954628979	0.818478795152055
6.8	0.595638092444654	0.796016784370504	-1.7558394204274E-06	4.49456099638464E-06	1.45541885193077E-06	-8.85118399215001E-07	0.65389730042798	0.742393187266649
6.9	0.656709794615268	0.74607015559089	5.9286828786577E-06	2.24931108497635E-06	-9.31576013611725E-07	2.4193440657367E-06	0.741593196262496	0.654620510906381
7	0.713422057054123	0.691405250373441	1.14063956299803E-06	-4.15653965052777E-06	-1.42916011931286E-06	2.92189440873283E-06	0.817604673213495	0.556372541568954
7.1	0.765731189947105	0.632824191641825	2.40123007701147E-07	-7.19030879100335E-07	1.97860887026202E-06	9.19788227231566E-06	0.88051536284013	0.449518666321943
7.2	0.813368095694413	0.569779410627831	1.38599252940016E-06	-2.41691229153499E-06	-1.01580330784323E-06	-8.57490420982443E-06	0.929536751623554	0.335864048068701
7.3	0.855690993247359	0.502790446124623	4.84602327737166E-06	7.23059386622704E-06	-9.7238901299209E-06	2.3423875008907E-06	0.963720879134633	0.216739015506181
7.4	0.892797438801984	0.43249191404686	5.09746887027408E-06	-6.87786185605883E-07	1.93233155905615E-06	-9.64412783042655E-06	0.982882152422345	0.0939824619471537
7.5	0.924150875160469	0.359462626943476	2.74045387856489E-06	-5.30881139504583E-06	2.08972103791238E-06	-7.27816784444104E-06	0.986410899197114	-0.0300988921115099
7.6	0.949947441890678	0.28403899838005	-3.181305261198E-07	-5.63578271846363E-06	1.67720853953242E-05	3.85441135484365E-06	0.974620196384117	-0.1538223882398
7.7	0.969688589647357	0.206696653413781	3.51713594204506E-06	1.08141416955017E-07	3.21599958816835E-07	-2.92448420495384E-06	0.947523374763782	-0.275161401259332
7.8	0.983156375859017	0.128028019273238	-1.0974816744396E-05	-1.91170715746593E-06	-2.00686227981706E-07	3.43776443899496E-06	0.905530680072133	-0.392141882834148
7.9	0.990227088448105	0.0483647959301187	2.35675478007904E-06	2.02844407787967E-06	-6.94382186194314E-06	-4.70480862483134E-06	0.849276259379028	-0.50286307216245
8	0.990754601998419	-0.0314430062375293	2.35183872208998E-06	2.94879220932371E-06	-9.33244649847197E-06	-7.58306025773329E-06	0.779585969770417	-0.60549813855739
8.1	0.984897654548337	-0.110933384524243	3.82181277722504E-06	-3.06705665651272E-06	2.14383245472697E-06	-3.18158043426167E-06	0.698018797580133	-0.698435971146567
8.2	0.972743747652019	-0.189465350594717	-4.03262030320305E-06	1.41545480885432E-06	-6.74820481634122E-06	3.61027164340821E-07	0.605549620440513	-0.780685741699378
8.3	0.953923211494165	-0.267123852395304	9.85958275614939E-06	2.95530426536595E-07	6.24180600781782E-06	1.04443656420142E-05	0.503116328027801	-0.850692356025824
8.4	0.928780267196843	-0.343058455888286	1.28457861150912E-06	2.55624102704283E-06	3.45994838692228E-06	1.822709719077E-06	0.392475617572105	-0.907494623768558
8.5	0.897583838652501	-0.417015609009566	-4.84266994260023E-06	4.9643639113335E-06	2.85374736473919E-06	-3.02282439716295E-06	0.275003834008786	-0.949286118068733
8.6	0.860343929585599	-0.488136011506118	-4.49930444318789E-06	2.08937892635962E-06	-3.03652437299276E-06	8.12070772241801E-06	0.154277919923721	-0.976287804986785
8.7	0.817566808535071	-0.555998871916209	-1.02150957848978E-06	1.21676688921967E-06	-6.44215538105826E-07	3.46496072931776E-06	0.0306609514001081	-0.988470199601068
8.8	0.769484501379056	-0.619996970767944	-1.58588160948968E-06	3.08111443402823E-06	-6.01226958523198E-06	1.28567765176728E-06	-0.0935178362153847	-0.985367622800836
8.9	0.716728505756393	-0.679939317784518	3.17737902099935E-06	-1.8329476619293E-06	-3.16795686046209E-06	-4.57865212170754E-07	-0.217062930735679	-0.966259719117996
9	0.65904963247512	-0.735431256239084	-7.29480657999648E-06	1.35181245870705E-06	-3.9822345479752E-06	7.25555083124925E-07	-0.337134095065519	-0.931644061340566
9.1	0.597247267861664	-0.786004154746405	-3.35898653416884E-06	-1.88520641229827E-06	-9.84851782131058E-07	2.13752344421346E-06	-0.452069312493477	-0.882073322749175
9.2	0.531191243372491	-0.831397502831156	5.99109966262321E-06	-1.64353751710705E-06	1.99071494154482E-06	8.48917969081922E-06	-0.559775762056759	-0.818621830551793
9.3	0.461764234901123	-0.871307515479258	-3.39213580506551E-07	1.07183727508361E-06	1.36867345922151E-05	1.18368972922002E-05	-0.658601296642985	-0.741377969303149
9.4	0.389029597715637	-0.905291491592528	1.73204230773951E-06	-2.66519755321202E-06	4.29269871472467E-06	1.75791704457061E-06	-0.746164012616181	-0.65219113108727
9.5	0.313237286625257	-0.933207948563235	-6.51297284775793E-06	-4.88806547746781E-06	-1.95007057536936E-06	-5.70623593639023E-06	-0.821791095459186	-0.55208368531477
9.6	0.234444910544925	-0.954544241331099	-1.16828111126802E-05	-2.58655703278405E-07	-5.92615186688471E-06	-4.01336986461866E-06	-0.883801802843544	-0.444558409337849
9.7	0.154382730249477	-0.968939135225042	1.46815857536867E-06	-4.78349582595928E-07	-2.91804977828555E-06	1.64170682155154E-06	-0.932894259710814	-0.330030263016711
9.8	0.0736550326535145	-0.976459932136804	2.20648639251943E-06	1.40099181936931E-06	1.51058373131567E-05	-3.50367711672548E-06	-0.967201397166727	-0.210124623058608
9.9	-0.00723257738526049	-0.976934236312194	-3.46249619120848E-06	8.97473030099596E-06	1.37639211633336E-05	4.99162860401354E-06	-0.986795768973996	-0.0862144445503443
10	-0.0870204383262273	-0.970298026253734	-3.64462060855548E-06	1.61997575591341E-06	1.92480927890468E-05	-1.81595230491998E-05	-0.989843186694236	0.0399910098438451
10.1	-0.165416919185216	-0.957108278169878	-1.47994561660086E-06	2.30478993549922E-06	-8.42939336736405E-06	-4.31201669504722E-06	-0.976470329039415	0.165034401841022
10.2	-0.241828829935216	-0.937736094020416	-2.3114894845034E-06	-1.24104974874313E-06	-1.29257643212299E-05	7.23810643245899E-06	-0.947344975237951	0.287026132246048
10.3	-0.315175545635116	-0.91221295929117	5.76929674650881E-06	3.92675309367927E-06	-6.15238142470256E-06	1.38079317333784E-06	-0.90362413994815	0.403977745348196
10.4	-0.385842666854345	-0.881716974545366	2.10170099409814E-06	1.04694288783263E-06	7.03584644635669E-07	-8.22217751626278E-06	-0.845205248305454	0.514491085715511
10.5	-0.453870343014329	-0.845198728250226	4.36503047746941E-07	-3.05493761927138E-07	-6.53039965491399E-07	-5.62586436455772E-06	-0.772905440283966	0.61637218495662
10.6	-0.517468098497473	-0.802856951129164	5.08410232044513E-06	-2.59974025338452E-06	-9.73283643565009E-06	-7.87572255348819E-06	-0.688545142620211	0.707629688048576
10.7	-0.57645330026194	-0.756014276039436	-2.8105178627735E-06	-5.0326118178804E-07	-5.21488569152224E-06	-7.16208788684823E-06	-0.594110629690278	0.787547570354785
10.8	-0.630859570115958	-0.706209078635707	-3.60777688896171E-06	-3.44140499542017E-06	-1.19539307099995E-05	9.12544648156929E-06	-0.490577432410518	0.855021166003792
10.9	-0.681451134080704	-0.653977067668559	-1.13633453251797E-05	-1.04134334294534E-05	-4.47516490777723E-06	1.09430966598782E-05	-0.380024219132717	0.909499169273216
11	-0.728204724841905	-0.599957050783512	1.00942479562038E-06	1.40849986813119E-06	8.65748744418215E-06	-5.49115469750277E-06	-0.261844035021252	0.949999878336882
11.1	-0.772292238751407	-0.542962840518968	-3.2542100043109E-07	-3.62882835736651E-06	1.01758108720609E-05	-1.01877802149352E-05	-0.140114647318925	0.973715968683261
11.2	-0.812937227515251	-0.482913510589521	-1.02891935424655E-06	-3.90978972511812E-06	2.16216534964905E-06	-6.30350125631236E-06	-0.0166835961753674	0.982431180371826
11.3	-0.849765576812096	-0.419196032733206	1.64226308388548E-06	-1.20304158918884E-05	3.56433469084645E-06	-2.81620312856233E-06	0.106546802701564	0.976046355573271
11.4	-0.881404145561818	-0.352764427394512	9.85834209074332E-07	1.93406338661902E-08	-5.69005523108802E-06	6.4506608827293E-06	0.228636875348598	0.954825827012207
11.5	-0.909000291117968	-0.283821579315756	6.54344713737863E-06	-1.23141907333718E-06	8.23275492941435E-06	-3.01656772270815E-07	0.346825254416144	0.918256343902437
11.6	-0.931367510702879	-0.211591578090683	-6.31775939973429E-07	-5.32599623777044E-06	1.441218205702E-06	-3.07706584301113E-06	0.459883528993428	0.866811366332961
11.7	-0.946906782179044	-0.136360530347532	-8.67791033546673E-08	-6.04366961474819E-06	8.95040633648605E-07	-2.65537706986378E-06	0.565216267581079	0.801806245208469
11.8	-0.956175198244212	-0.0594043200408906	-1.06985945849778E-06	-7.41623420152987E-07	5.16121822019858E-06	1.0836349148431E-06	0.661994594826172	0.724598855708118
11.9	-0.958958513984808	0.0188073732787149	-3.21199997332796E-06	-5.20844058603306E-06	-5.37999933126938E-06	-8.01005986184924E-06	0.748588425287632	0.636609170337484
12	-0.955640484836398	0.0966698327560471	-2.94406956930966E-06	1.64151405089373E-06	-1.67255893189807E-05	-8.74906843927492E-06	0.82423720246023	0.537199657294801
12.1	-0.946859516191316	0.174643892265443	8.24921692435723E-07	-1.56598360711458E-06	7.85084651466621E-06	1.22663069427969E-05	0.885257759837532	0.428092635423698
12.2	-0.930453657417792	0.252769930634078	-4.10128161992702E-06	5.54282000121663E-06	4.15060983635124E-07	3.30871677449923E-06	0.931991627152682	0.312776262403098
12.3	-0.90792962472325	0.329129402531713	7.82403717458476E-06	6.38036118568966E-06	4.18958070523163E-07	1.08794518536255E-05	0.963661708828695	0.192319295389564
