# GHZ S RI R 50
0.2	0.985886886481825	-0.156838496511986	2.56434779566047E-06	2.25022292248874E-06	6.57117539820832E-06	-4.86859382090268E-06	-0.966449785724034	0.251604679739298
0.3	0.969850521475931	-0.233934451295675	-8.73489775073963E-07	-5.45448349055948E-06	-3.46629959050597E-06	-7.94648582189946E-06	-0.926859150270273	0.371630064634589
0.4	0.948364591877263	-0.309266254379709	-7.27972099738163E-06	-9.91611015945925E-07	4.4415883440289E-06	1.54542850895939E-06	-0.87214640761707	0.485420645833597
0.5	0.921429920735067	-0.382751104178044	6.2001304725031E-06	2.10507948858101E-06	-2.41420183712975E-06	-1.9082285696667E-06	-0.803585353774564	0.591655399722393
0.6	0.888499773038452	-0.453752202824893	-1.05530473225306E-05	2.46044045118501E-06	-2.21866064253769E-06	-1.00739491966563E-06	-0.722115778758147	0.688006743598598
0.7	0.850354584400999	-0.521639775237325	2.78484068699286E-06	-1.17207954091631E-06	-2.98861580641652E-06	5.78924729276532E-06	-0.629519005545652	0.773514505456214
0.8	0.806918743107969	-0.586727344343196	1.1774200624084E-06	-8.47768418231933E-06	-6.62189451928507E-06	-3.07130304261944E-06	-0.526796053698519	0.846517017065807
0.9	0.758459350861583	-0.648362295667467	-1.14694838508075E-06	-6.81260620903789E-07	2.54817402627016E-06	6.54506089986346E-06	-0.415870874237569	0.905848562869964
1	0.705085057671044	-0.706174915091499	-2.74500928798517E-06	-3.22322814013938E-06	-4.04624549583537E-07	-7.31746623311855E-06	-0.298654836855703	0.950554958750065
1.1	0.648037741591224	-0.759628023638679	1.80759924194157E-06	-4.94144235443481E-06	2.27111217766914E-06	-5.13489622729796E-06	-0.176581453706874	0.980413427347856
1.2	0.585608393760985	-0.809219865148314	-2.49655828276291E-06	2.49139665428479E-06	9.26395562244547E-07	-9.10793607585055E-07	-0.0514772532332233	0.994458553948366
1.3	0.517896773794819	-0.853789943143328	-1.5383624324789E-06	7.19161422926452E-07	-1.35597686729839E-06	1.46321577520313E-06	0.0743205278619984	0.992898473662694
1.4	0.447147075313906	-0.892363965504988	3.92391801530942E-06	-3.24058485766055E-06	2.70161058535917E-06	1.09423837591733E-05	0.199489854203882	0.975049831987641
1.5	0.374295505841382	-0.924645945536348	-5.33861075392346E-06	1.10958118982569E-06	6.59170994518732E-06	-7.20797372030566E-06	0.321163736810375	0.941711311473151
1.6	0.30058377373418	-0.950966057211023	1.77695856482564E-06	-7.74050526685732E-06	3.63268626229992E-06	1.38292497482727E-06	0.437142591380242	0.893303802685432
1.7	0.226153381210038	-0.971132809981189	-1.94200390828525E-06	-9.69617583694565E-07	-2.35614890315938E-07	-2.0875306271899E-06	0.545501178970722	0.831487311168188
1.8	0.149525802026576	-0.985819639629197	2.85194885192374E-06	5.28077409368742E-06	4.21694408776917E-09	2.0321776627384E-06	0.645622824675907	0.756189287099903
1.9	0.0720191825477191	-0.994535604695135	5.67630784296375E-06	-2.63315325822821E-06	-2.99923664905356E-06	4.16274654810323E-07	0.735028249715496	0.669103890847253
2	-0.00525067465145887	-0.99708748583644	-1.54961096868096E-06	-2.02726517043756E-06	3.21659959870015E-06	1.14629945185463E-05	0.813125167841722	0.570968982201723
2.1	-0.0840401154153648	-0.993748662162724	-7.5569044910929E-06	2.45885690160088E-06	1.20964919919684E-06	5.14831386247599E-06	0.877808542931684	0.464260063380303
2.2	-0.160774761517942	-0.984249652696673	-8.8315175400028E-07	1.3953039122137E-06	3.00767546037087E-06	7.77992369883818E-06	0.929133793038149	0.350468239063586
2.3	-0.237962433801447	-0.968253123341627	1.8206976599527E-07	7.45758681873718E-06	7.40461845368459E-07	9.39033806481266E-07	0.965297864815113	0.231503079362769
2.4	-0.313811923199751	-0.945952385424814	1.58218179040617E-06	7.17781049676317E-06	1.52374679188414E-06	6.39073333259719E-06	0.986805082159314	0.107963217835943
2.5	-0.387033569629355	-0.918526297387571	4.39240456129177E-06	-2.31606286811054E-06	-1.91672843323458E-06	-7.57516431100653E-06	0.992156791876166	-0.0165308318023802
2.6	-0.458344698613324	-0.884909886545705	6.77263612904263E-06	-5.94942613042729E-06	-1.11041264842404E-05	1.08356384285426E-05	0.98223258805289	-0.141242333868653
2.7	-0.5268981850511	-0.845776506185288	-4.44275881087514E-06	9.1473556047671E-06	-2.87589131585917E-06	-9.16263722540371E-06	0.956328382372841	-0.263798873973063
2.8	-0.591176162521645	-0.801854006278783	2.45864432605852E-06	1.14363718554602E-06	-3.12885396672765E-06	1.24464379938207E-06	0.916025802245264	-0.381448995429495
2.9	-0.651384916696709	-0.753556959829196	-5.49988002765662E-06	6.01676002253109E-06	-9.19519395382787E-06	-2.82443943870539E-07	0.860922590706287	-0.493025522042865
3	-0.708422288068185	-0.700398688834442	4.72374038257933E-07	-1.47313339805165E-06	1.13261831582486E-05	1.46279674898524E-06	0.79225949716652	-0.597292155232481
3.1	-0.761342240957705	-0.643051760769906	2.40649429050602E-06	1.04969194523159E-05	4.32568269479336E-06	2.17387688839586E-06	0.711250846501131	-0.69140411197861
3.2	-0.809220140730572	-0.581837168343726	2.1051896262248E-06	6.46563223889961E-06	3.99932644598097E-06	-1.06056940997562E-05	0.619352794102501	-0.774845129615263
3.3	-0.852235314444222	-0.517265461653146	3.08188970054309E-06	4.96139425546041E-06	-2.22535503518508E-06	-9.6681205236537E-06	0.516610534446875	-0.84671542520988
3.4	-0.889394300681551	-0.449849032501577	2.12527330472662E-06	-2.60423392147546E-06	5.95829135861175E-06	1.38238432432341E-06	0.407124196519603	-0.904875121583966
3.5	-0.922077910986171	-0.37815093362391	-3.24004053748E-06	9.48133637375507E-07	-2.07205397194925E-06	3.42492514650383E-06	0.289959453122226	-0.949335069213966
3.6	-0.948667392501172	-0.304420420153357	-1.81548191335676E-06	-3.74257845151227E-06	-7.82064795039861E-06	4.11190939530544E-06	0.168068283175601	-0.978078945721979
3.7	-0.969337994587154	-0.229465149142445	8.16783594985637E-07	-8.32679534045334E-06	1.07698843115563E-05	3.68976174283377E-06	0.0434113383589562	-0.991266000491536
3.8	-0.984390586242733	-0.152255322762949	9.29635195603991E-08	1.54668688705774E-06	-6.51481195848753E-06	5.95500220400638E-06	-0.0812001463904681	-0.988788896603048
3.9	-0.993016546974291	-0.0746726253782377	-2.63076938032405E-06	-5.02612346891501E-06	-3.69847762596229E-06	8.02781338962398E-06	-0.206358924036955	-0.970866719990574
4	-0.995715504541571	0.00414916633427806	7.12848731739428E-06	-3.86422777808206E-07	-1.04562942204923E-06	-1.20493046448864E-06	-0.326527707548516	-0.937352211979857
4.1	-0.992513185081771	0.0824152550280785	6.1945936476492E-07	-4.44191341657815E-07	7.35090525104309E-06	-4.75985533051533E-06	-0.442126653414016	-0.888812878880349
4.2	-0.983191143253638	0.160495142680746	3.20698365003841E-06	2.10197558393566E-06	-7.18911690792145E-07	-7.61832498811785E-07	-0.550525252227987	-0.825757406091182
4.3	-0.967875858566049	0.236702190223282	-3.19008772614617E-06	1.37443540319952E-06	-4.99700500885723E-06	2.98547480345777E-06	-0.649913837911314	-0.750389846901094
4.4	-0.946420398536443	0.311661260817707	8.05965212705654E-07	2.64325764138204E-06	1.54967984955806E-06	-8.33735108137687E-06	-0.739029875300201	-0.662895522633514
4.5	-0.918943619223869	0.384489055556839	1.82381528786457E-06	-9.40508656807594E-07	7.63292070557844E-06	-2.58256452098846E-07	-0.816700439985907	-0.564896928414735
4.6	-0.886113693637223	0.455879597568964	-7.30665694186398E-07	6.13263347496372E-06	-1.23483036942704E-05	-6.49074877012518E-06	-0.881174140358319	-0.457738421965595
4.7	-0.847750857567388	0.523429506077925	1.20168034527504E-06	2.51331867393002E-06	1.42151947638964E-06	1.86832516393582E-06	-0.932034045617488	-0.343511983329716
4.8	-0.803305478983077	0.588935060459969	-5.18659229017449E-06	1.11363880938442E-05	5.23395448337114E-06	9.70108864497751E-06	-0.967710970304775	-0.223233026634086
4.9	-0.754172849689165	0.64986916304696	1.1982575064662E-06	2.9346174122622E-06	-4.79789425653632E-07	-6.91923183638685E-06	-0.987804932029169	-0.0992713188568135
5	-0.700936605977713	0.70688632804242	4.74698142090092E-06	-9.07223607636442E-07	-3.74866279155742E-06	2.42312937366746E-06	-0.992226940253449	0.0257309863434065
5.1	-0.642517023728017	0.760268519162993	4.13945501557865E-06	-1.39369122891463E-07	-2.65488677963018E-06	-9.82725810209136E-06	-0.981312324804034	0.150725498110498
5.2	-0.58031853618937	0.808689860923056	2.62973986796093E-06	-1.50093415516419E-05	1.37885983221786E-06	2.82614661054688E-06	-0.954453143786464	0.27342504014313
5.3	-0.51478585155377	0.852122711557661	-8.72147954014404E-06	-7.8537954901612E-07	-1.13641601594686E-06	1.58890977852207E-07	-0.912385244891268	0.3917071050824
5.4	-0.446137084857092	0.890312573307801	-7.19091651315906E-06	-1.10720888263856E-05	-1.37558610376454E-05	1.12060876930248E-05	-0.855545555919326	0.503357529652567
5.5	-0.374854769995576	0.922532499422637	1.90648443419524E-06	8.90167086007182E-08	-2.24688851762886E-06	1.78549431728231E-06	-0.785897545634543	0.606751312557964
5.6	-0.301281576910381	0.948902904018747	-2.41134413283208E-06	3.51664778313321E-06	-1.34318506115661E-06	1.29014220228057E-06	-0.703496747928204	0.700498490576828
5.7	-0.225675741026803	0.969856092338165	1.30688834115177E-06	1.23313909999426E-06	5.76798378256383E-06	-1.1684368262424E-07	-0.610240259534432	0.783112342211228
5.8	-0.14860452353713	0.984338523285484	2.70403726276281E-06	4.26494070832307E-06	-2.11613156109115E-06	4.24616626192435E-06	-0.507161034426608	0.853298325945531
5.9	-0.0706076492058414	0.992985517674002	-6.89667714291851E-06	-2.30595554250806E-06	-7.87744034360337E-08	6.29946940824768E-06	-0.39643617268011	0.910184036183035
6	0.00773875070154424	0.994859397408077	-1.79515337071893E-06	9.11146977585949E-08	-5.47396265739315E-06	-4.39327579510874E-06	-0.279166573529539	0.952405626635333
6.1	0.0853410573693257	0.990727326146351	3.92640104583057E-08	-9.92339018557515E-06	-9.85082146217628E-07	-3.2173982937524E-06	-0.158018212300298	0.979520016175263
6.2	0.163366609378147	0.98069292664503	-1.02258682360596E-06	3.11484698833695E-06	-1.76026150435229E-06	4.21737332125012E-06	-0.0335032233324277	0.99126155976982
6.3	0.240763070650507	0.964429996358839	-8.05673753340565E-07	2.83250098828585E-06	-2.93996257858475E-06	2.39764611826989E-06	0.0915111723099573	0.987182825684254
6.4	0.316753639066817	0.941855238468264	-5.97074563451746E-06	5.55172994175577E-06	-2.38383284170817E-06	-7.48883377528429E-07	0.215341235876496	0.967280135056694
6.5	0.390119357807128	0.913533728210625	1.404145996658E-06	-5.27821576862314E-06	-1.44929370649046E-06	-2.3776127031993E-06	0.334761338340689	0.931811641517242
6.6	0.461334430996254	0.880170984709346	3.65788970503525E-06	2.11063484394851E-07	1.13184057738546E-05	-2.67819810487798E-06	0.449168458951091	0.882634961191438
6.7	0.529812679975063	0.840672763710898	-7.7735526377342E-07	8.4832906515068E-07	-3.77589372711848E-06	5.23667706269246E-06	0.556190682603923	0.81917267016578
6.8	0.594839070701725	0.795898924799811	-1.75754116318591E-06	4.49370503822306E-06	1.45571303272904E-06	-8.84513704220873E-07	0.654299107176187	0.742880930681293
6.9	0.656049543213104	0.746108201844893	5.92850002863782E-06	2.25220715718072E-06	-9.32759675464625E-07	2.41926346357859E-06	0.741999838034541	0.654899490686674
7	0.712934542564391	0.691343363650274	1.14114922841733E-06	-4.15787114309536E-06	-1.42972491008944E-06	2.9228101488095E-06	0.817793218296695	0.556469362574499
7.1	0.765122446897677	0.632717413131057	2.40043259575634E-07	-7.18989907954799E-07	1.97920182730345E-06	9.19694069842442E-06	0.880542793020235	0.449752224329445
7.2	0.812670702947793	0.569798432819383	1.38583407742984E-06	-2.41621693113004E-06	-1.014913050294E-06	-8.57288108533841E-06	0.929528250106754	0.336152015047887
7.3	0.854970117437033	0.503033342897527	4.8423936278613E-06	7.22929718704673E-06	-9.72104648426131E-06	2.33899203085884E-06	0.96363977088978	0.217139972271585
7.4	0.89228048417587	0.433087552336928	5.09633420648159E-06	-6.84098601180177E-07	1.93829137704909E-06	-9.63977909199293E-06	0.982966726244842	0.0946489347122035
7.5	0.924190152725575	0.359872711332266	2.74495188729904E-06	-5.30882312336353E-06	2.09530891512408E-06	-7.27929787084041E-06	0.986859422917469	-0.0298659120075633
7.6	0.949811013970453	0.284242830625116	-3.16342736124367E-07	-5.63652219438234E-06	1.6772732432846E-05	3.86027408144239E-06	0.974573899254037	-0.153594942843277
7.7	0.969622324653258	0.206997804254297	3.51721112009426E-06	1.09895227699109E-07	3.23066741515962E-07	-2.92443144939186E-06	0.947561001336638	-0.274650216159674
7.8	0.983314951320183	0.128309780173821	-1.097616777023E-05	-1.91873300009988E-06	-2.02796352415366E-07	3.43842672419667E-06	0.905865485617202	-0.391648734692511
7.9	0.990690990072197	0.0483095112746467	2.35748240862999E-06	2.03059975244006E-06	-6.94643978237975E-06	-4.71035933727241E-06	0.849855996138064	-0.502935661488611
8	0.990592664637174	-0.032113396840749	2.35387079823281E-06	2.94868798472988E-06	-9.3387045555247E-06	-7.5813522220768E-06	0.779138508193023	-0.606180294411049
8.1	0.984445468521096	-0.11091732966591	3.82082103175712E-06	-3.06711792323979E-06	2.14307681037148E-06	-3.18139560880889E-06	0.697194662455607	-0.698457298375139
8.2	0.972560856697606	-0.189249919938194	-4.03206308406419E-06	1.41553105141006E-06	-6.74739284619017E-06	3.61389865538088E-07	0.604663115137083	-0.780528629985933
8.3	0.953907294010491	-0.266893755542978	9.85770127965098E-06	2.94675657047474E-07	6.24144473304788E-06	1.04418422729482E-05	0.502120052022934	-0.85033161710659
8.4	0.928860558736474	-0.34286186472697	1.28392741163072E-06	2.55549183508854E-06	3.45862876436643E-06	1.82239378627191E-06	0.391592881142882	-0.906950018882941
8.5	0.897665712644566	-0.416780485875597	-4.84450910083231E-06	4.96279280810416E-06	2.85486505094928E-06	-3.02190079913593E-06	0.27406048165372	-0.94907028613682
8.6	0.860578273309729	-0.487822184185682	-4.50018112622482E-06	2.09009523768443E-06	-3.03673667933556E-06	8.12267486983531E-06	0.152724671439931	-0.975884538300921
8.7	0.817934803318272	-0.555711581917633	-1.02119843375224E-06	1.21717324513414E-06	-6.43171037138385E-07	3.46540574785171E-06	0.0288199935632534	-0.987476656630476
8.8	0.769945346321427	-0.619730873523624	-1.58407699985367E-06	3.08134046206769E-06	-6.01055169357544E-06	1.28840913942129E-06	-0.0952879524160207	-0.983620188223412
8.9	0.717316469782656	-0.67962384992865	3.17442991916374E-06	-1.83336671288352E-06	-3.16616077485321E-06	-4.55986318470933E-07	-0.218126208263512	-0.963872491696802
9	0.659913172681986	-0.735241769523369	-7.2893025207686E-06	1.35096443568654E-06	-3.97923016486294E-06	7.25101450501755E-07	-0.337606315793742	-0.92978702399842
9.1	0.598119200711587	-0.785953225283919	-3.35691005370572E-06	-1.88366299596226E-06	-9.8401272939465E-07	2.13618367195991E-06	-0.452741175524843	-0.879994084940847
9.2	0.532135623514745	-0.83137811803569	5.98625851811419E-06	-1.64185966633691E-06	1.98861574213266E-06	8.4823015985936E-06	-0.559949310281252	-0.816440972806999
9.3	0.462862165569823	-0.871327868991382	-3.3936379234964E-07	1.07084518096284E-06	1.36711116555934E-05	1.18328034858185E-05	-0.658340375427724	-0.739611884005625
9.4	0.390448099116679	-0.905618292401761	1.73373049460606E-06	-2.66275291352021E-06	4.2896531746316E-06	1.76100289765957E-06	-0.745843375058128	-0.651412314344897
9.5	0.314052589807422	-0.934191467837594	-6.51502160223549E-06	-4.89273849598453E-06	-1.94937746406786E-06	-5.70995027190374E-06	-0.823077770572292	-0.551849002604707
9.6	0.234962822364038	-0.954856636459792	-1.16846823661846E-05	-2.56297295992085E-07	-5.9278981360608E-06	-4.01277771843088E-06	-0.885651809572488	-0.443088354749228
9.7	0.155243060470059	-0.969165981937974	1.468073447155E-06	-4.78617686842344E-07	-2.91775471139345E-06	1.64224064071119E-06	-0.934472054574842	-0.327824260593728
9.8	0.0746617586834841	-0.976889305798177	2.20666190584795E-06	1.40043718935392E-06	1.51042216770689E-05	-3.50672703447646E-06	-0.968241996725945	-0.207455072975596
9.9	-0.00633898427258665	-0.97762705177334	-3.45880902342773E-06	8.97331994278964E-06	1.37616610851009E-05	4.98606137622616E-06	-0.986951002495222	-0.0835473725449835
10	-0.0864049413159813	-0.970811841809035	-3.64210710875345E-06	1.61877943059572E-06	1.92349924932048E-05	-1.81465041955694E-05	-0.98969011432539	0.0418589569313697
10.1	-0.164516099203242	-0.957549732470074	-1.48038110010021E-06	2.30311351010883E-06	-8.42377334887449E-06	-4.31408170280791E-06	-0.976699082220965	0.166781915197566
10.2	-0.240903766106192	-0.938363084550065	-2.31065500270888E-06	-1.24192022789976E-06	-1.29273756668055E-05	7.23149082107819E-06	-0.947572700785691	0.28898551803662
10.3	-0.314388082071853	-0.912902945446478	5.76875130563134E-06	3.92852105660017E-06	-6.15321077832438E-06	1.3793417562334E-06	-0.90357274425707	0.406088782739973
10.4	-0.385275729763064	-0.882239041287942	2.10212370183964E-06	1.04684002173503E-06	7.02701856486027E-07	-8.22342589754433E-06	-0.844645438027335	0.516280840322278
10.5	-0.453252404401613	-0.845176314450153	4.3634112569918E-07	-3.0558035466859E-07	-6.54667714687407E-07	-5.62478709188283E-06	-0.773090117940813	0.617201348550372
10.6	-0.516295528934233	-0.802550355119387	5.0824080645658E-06	-2.60117154282517E-06	-9.73419747641272E-06	-7.87105395314254E-06	-0.689591892615694	0.709396163402243
10.7	-0.574782590501022	-0.755753826444378	-2.80993049384055E-06	-5.01769862867447E-07	-5.21677218472114E-06	-7.15748615689152E-06	-0.594989506186268	0.789957204660784
10.8	-0.628706189196268	-0.706156721961457	-3.60746479569498E-06	-3.43810684418355E-06	-1.19439576863743E-05	9.12607198196717E-06	-0.491128795268691	0.857776181187473
10.9	-0.678743633649768	-0.654357856370213	-1.13538089043721E-05	-1.04043343313059E-05	-4.47115026926981E-06	1.09338173341303E-05	-0.380357885856318	0.911908454765174
11	-0.725792699926173	-0.60139509856017	1.00828234690292E-06	1.40903565091236E-06	8.6602699192899E-06	-5.48422720753504E-06	-0.26335648115538	0.952611348287735
11.1	-0.770297090119486	-0.544179982557849	-3.24876632886924E-07	-3.63039099865385E-06	1.01819283838054E-05	-1.01900921730135E-05	-0.141363296676007	0.977961568620986
11.2	-0.810777331936937	-0.48429395108714	-1.02969066303295E-06	-3.91141121121349E-06	2.16258937678197E-06	-6.30643042854006E-06	-0.0167988221554755	0.987402028366267
11.3	-0.847670276355771	-0.420973087401807	1.63976044905435E-06	-1.20368127379837E-05	3.56532009136772E-06	-2.81857655718315E-06	0.107764713944705	0.981103869352169
11.4	-0.879742480622219	-0.354880590611264	9.86541193543452E-07	1.88269613733624E-08	-5.69062553480211E-06	6.4582629438925E-06	0.23102288600819	0.959376336212908
11.5	-0.907855999687068	-0.285423072740802	6.54569969033564E-06	-1.24049481017468E-06	8.23718228361713E-06	-3.12346227722895E-07	0.34966417385176	0.921991581050584
11.6	-0.929632302378973	-0.213146035269603	-6.38713555147146E-07	-5.32470167405389E-06	1.43705231429554E-06	-3.07868940207291E-06	0.463164939227209	0.870115946360105
11.7	-0.945321596339511	-0.13838629692264	-9.34390319268028E-08	-6.04193970213536E-06	8.91862205405194E-07	-2.6556489506326E-06	0.569027578386403	0.804307856169068
11.8	-0.955118577346989	-0.0615633491339448	-1.07019803556188E-06	-7.40378870377298E-07	5.16052234017731E-06	1.07845627374248E-06	0.665977128523381	0.725952093754179
11.9	-0.958646508826673	0.016991568527788	-3.21490239746882E-06	-5.20463628002082E-06	-5.38433960792855E-06	-8.00388780516557E-06	0.752006651774302	0.636408348620856
12	-0.955550600970543	0.0957745123128579	-2.94207408447033E-06	1.64268721200899E-06	-1.6724957916457E-05	-8.73612142844831E-06	0.825216279184965	0.536088130416354
12.1	-0.946165596538974	0.17434739088819	8.24508454229549E-07	-1.56574631750245E-06	7.85082837589569E-06	1.22623861011363E-05	0.884908245203675	0.42882701711349
12.2	-0.929312358255253	0.252544254543552	-4.10180558166607E-06	5.54333576217303E-06	4.15049795959269E-07	3.30907216524828E-06	0.931876232470771	0.314608509848383
12.3	-0.906430676835145	0.32898390641348	7.8272830247402E-06	6.38201801230582E-06	4.19932787453187E-07	1.08832591164673E-05	0.964000350911588	0.194588547768207
