# GHZ S RI R 50
0.2	0.985888980538326	-0.156840041782972	2.56435390631004E-06	2.25022422449386E-06	6.57118154388967E-06	-4.86860747884716E-06	-0.96645040980286	0.251605509822377
0.3	0.969852844602682	-0.233935170602792	-8.73486968265546E-07	-5.45449422447195E-06	-3.4662995342095E-06	-7.94650323453768E-06	-0.926860740719659	0.37162886403234
0.4	0.94837430366162	-0.309264035071355	-7.27978108148536E-06	-9.9167372639711E-07	4.44161808772561E-06	1.54547547442941E-06	-0.872159307868208	0.48541672356462
0.5	0.921453996945008	-0.382770645018951	6.20036304651894E-06	2.105093288916E-06	-2.41430265484505E-06	-1.90827129326283E-06	-0.803611191679741	0.591685398518686
0.6	0.888497799239291	-0.453784092766112	-1.05531040112072E-05	2.46082630718139E-06	-2.21872362288046E-06	-1.00733389309909E-06	-0.722100626074499	0.688043629788818
0.7	0.850345433314812	-0.521663529197999	2.78481528685582E-06	-1.17216019591894E-06	-2.98846228026659E-06	5.78934566248571E-06	-0.629495807667198	0.773535060912198
0.8	0.806909915206043	-0.586750494236915	1.17720738003432E-06	-8.47773733331979E-06	-6.62199083041356E-06	-3.07114279649114E-06	-0.526771941817745	0.846531360880738
0.9	0.758448054618677	-0.648393910794054	-1.14697438474707E-06	-6.81231815151999E-07	2.54837527939379E-06	6.5450257295833E-06	-0.415844570599244	0.905858933096766
1	0.7050512313872	-0.706208265394644	-2.74513593079488E-06	-3.22313396315015E-06	-4.04897726807317E-07	-7.31746917870452E-06	-0.298629718814346	0.950562726663932
1.1	0.648005014862104	-0.759647118610409	1.8074124086448E-06	-4.94150698416072E-06	2.27091776958675E-06	-5.13497814152211E-06	-0.176548689192288	0.980423822974021
1.2	0.585572826975314	-0.809244950537213	-2.49644980727001E-06	2.49150481610882E-06	9.26355904781373E-07	-9.10833744568409E-07	-0.0514348664851132	0.99446094728162
1.3	0.517841685202556	-0.853819929091169	-1.5383171048331E-06	7.19241504940738E-07	-1.35589211024952E-06	1.46328287202577E-06	0.0743667548769754	0.992885135395647
1.4	0.447049608226944	-0.892370656166913	3.92361989941075E-06	-3.24077066892013E-06	2.70226760090186E-06	1.09419670905248E-05	0.199519813921969	0.975019294271171
1.5	0.374233941584276	-0.924560741787641	-5.3382906209551E-06	1.10976367970367E-06	6.59105362704501E-06	-7.2079032241726E-06	0.321188559894268	0.941704540086249
1.6	0.300588878871454	-0.950927492135273	1.77670460001475E-06	-7.74023029569527E-06	3.6325700734204E-06	1.38278333340771E-06	0.43718561509753	0.893263520234366
1.7	0.226140441873335	-0.971114780687248	-1.94194880329844E-06	-9.69529865172159E-07	-2.3565708841282E-07	-2.08743968135944E-06	0.54552013647298	0.831423517487993
1.8	0.149503347382397	-0.985787777474584	2.8518859062012E-06	5.28040356606113E-06	4.25755870630792E-09	2.03205705888373E-06	0.645605941034264	0.756107299798942
1.9	0.0720255530819673	-0.994466770170849	5.67585717720223E-06	-2.63271344652679E-06	-2.99896590918482E-06	4.16134810286922E-07	0.734915736513651	0.669036390090856
2	-0.00514770147457118	-0.997089133078248	-1.54935893489699E-06	-2.027536399089E-06	3.21503882048985E-06	1.14637350163132E-05	0.813023578776308	0.571122316485924
2.1	-0.0840347869692374	-0.993827568399772	-7.55771565720602E-06	2.45909391825298E-06	1.20976119250872E-06	5.14886498843631E-06	0.877911591651378	0.464338651753555
2.2	-0.160810387768329	-0.984293514546687	-8.83143302836633E-07	1.39542195337749E-06	3.00817996916957E-06	7.78024432795129E-06	0.929217994353645	0.350454153605457
2.3	-0.238002285157158	-0.968278671647946	1.82407417173464E-07	7.45783389377223E-06	7.40528912236361E-07	9.39033029397954E-07	0.965352507885923	0.231464079025976
2.4	-0.313854236011474	-0.945973453464859	1.58249737541352E-06	7.17795808601838E-06	1.52403109125309E-06	6.3908604110607E-06	0.986839593862014	0.107922280912405
2.5	-0.387083587536789	-0.918539893819945	4.3924863138878E-06	-2.31637285349721E-06	-1.91717228737353E-06	-7.57540407164491E-06	0.99220976329771	-0.016571992556132
2.6	-0.45839459111632	-0.884923119315955	6.77242622812298E-06	-5.95000123551285E-06	-1.11037139023933E-05	1.0836607955716E-05	0.982265213565182	-0.141329145585382
2.7	-0.526957819363872	-0.845797022506018	-4.44236840182299E-06	9.14777155393827E-06	-2.87642904717128E-06	-9.16266995694004E-06	0.95632875445835	-0.263886108240019
2.8	-0.591264247293316	-0.801887184694787	2.45878108909474E-06	1.14356918500516E-06	-3.12890918289138E-06	1.24482525397147E-06	0.916008933805881	-0.381534392494551
2.9	-0.651563472009247	-0.753572428391679	-5.49997626188473E-06	6.01757586386394E-06	-9.19596306112258E-06	-2.81926277208826E-07	0.860882622154669	-0.493109585245984
3	-0.70859811279026	-0.70020163971019	4.72151517765793E-07	-1.47332591952465E-06	1.13272838441849E-05	1.46092412595562E-06	0.792212546368437	-0.597351064606001
3.1	-0.761338116903531	-0.642897579257345	2.40810342660195E-06	1.04962386522027E-05	4.32590789963548E-06	2.17312441680918E-06	0.711205590776063	-0.691485534870774
3.2	-0.809228001956283	-0.581741584243482	2.10600409895333E-06	6.46513249250542E-06	3.99774600791273E-06	-1.06058927356698E-05	0.619271271302306	-0.774940308023212
3.3	-0.852266718157135	-0.51715572845422	3.08255349578218E-06	4.96067973853274E-06	-2.22681469084792E-06	-9.66733713134533E-06	0.516465108469793	-0.846813906116698
3.4	-0.889398273355329	-0.449654106858224	2.12442299318837E-06	-2.6043002000175E-06	5.95771756648219E-06	1.38094232007546E-06	0.406836861218652	-0.904886687623286
3.5	-0.921857212418074	-0.378013895170372	-3.23908152088462E-06	9.47801666266286E-07	-2.07148180066071E-06	3.42386654022291E-06	0.289823936742761	-0.949008680477815
3.6	-0.948557318217491	-0.304487704822817	-1.81491475028805E-06	-3.74256293642548E-06	-7.82065404736291E-06	4.11070422397551E-06	0.168187989562959	-0.97796952109527
3.7	-0.969320801170644	-0.229503586054845	8.17123193631074E-07	-8.32674267173354E-06	1.07697081976078E-05	3.69019491669385E-06	0.0434556286292233	-0.99126220421329
3.8	-0.984395811687546	-0.152265398650037	9.2941239632862E-08	1.54667743327386E-06	-6.51484995398711E-06	5.95486967618887E-06	-0.08120165052681	-0.988781353993411
3.9	-0.993034890094912	-0.0746611184181427	-2.63057201420199E-06	-5.02620377029021E-06	-3.69876447969761E-06	8.02764627161347E-06	-0.206348108525731	-0.970822911140978
4	-0.995710160791653	0.00419194141076967	7.12917202055754E-06	-3.86321259876503E-07	-1.04570539262199E-06	-1.20506520928842E-06	-0.326441640258818	-0.937386253209815
4.1	-0.992487371843392	0.0824243808267927	6.19451635584652E-07	-4.44265648259842E-07	7.3508570502075E-06	-4.76071227357758E-06	-0.442157608675758	-0.888898597947255
4.2	-0.983177848652263	0.160477554051035	3.20708974513753E-06	2.10172513084571E-06	-7.18955758989766E-07	-7.61772673986919E-07	-0.550587232911945	-0.825793425788543
4.3	-0.967893455894664	0.236641619168269	-3.18990694964574E-06	1.37444111365187E-06	-4.99670343650179E-06	2.98544449808249E-06	-0.649969143656255	-0.750411342645658
4.4	-0.946585941449125	0.311563876378186	8.05660098585972E-07	2.64326446770837E-06	1.55052013947751E-06	-8.33693751587755E-06	-0.739098975441043	-0.662941811037209
4.5	-0.919226522693859	0.384720445380311	1.82439620008218E-06	-9.40560042250407E-07	7.63495655730199E-06	-2.57503913811676E-07	-0.816855401391966	-0.564903689640583
4.6	-0.886086717081275	0.456136394394571	-7.29897398241387E-07	6.13406480503604E-06	-1.23519434063832E-05	-6.49028303863982E-06	-0.881284332657212	-0.457679851897433
4.7	-0.84770356537956	0.523578848179618	1.20224537717714E-06	2.51345903898433E-06	1.42200972976264E-06	1.8683443304491E-06	-0.932137766344531	-0.343465445889372
4.8	-0.803303004741693	0.589078360629471	-5.18549050487564E-06	1.11388920150908E-05	5.23634684672765E-06	9.70163782255298E-06	-0.967868936676338	-0.223182903669386
4.9	-0.754186423740374	0.650154271551445	1.19935739563797E-06	2.93486762236204E-06	-4.81903690824737E-07	-6.92050524961435E-06	-0.988085013132892	-0.0990726955838127
5	-0.700552917140346	0.707217191212983	4.74615530203473E-06	-9.09592585959358E-07	-3.74713393147518E-06	2.42487063306166E-06	-0.992171604406431	0.0262619477766731
5.1	-0.642185955658609	0.760194616483113	4.13836914869452E-06	-1.40268243817407E-07	-2.6564293618427E-06	-9.82415547866529E-06	-0.981033878425517	0.150882196329215
5.2	-0.580157154250549	0.808592500538806	2.62734981691548E-06	-1.50069247019446E-05	1.37896636083987E-06	2.82545330501348E-06	-0.954292836128928	0.273472268786085
5.3	-0.514688442280668	0.852047500085606	-8.72003134587445E-06	-7.84300314981615E-07	-1.1361991244163E-06	1.58985687890321E-07	-0.912269286455537	0.391755174657646
5.4	-0.446093031065039	0.890271639743042	-7.18947357290583E-06	-1.10694066415885E-05	-1.37524855541534E-05	1.12037726046726E-05	-0.855416067175917	0.503413755343729
5.5	-0.37476464950621	0.922584104816241	1.90641934663653E-06	8.93465912308439E-08	-2.2471412043207E-06	1.78505637527374E-06	-0.78574217162358	0.60673889389478
5.6	-0.301117830173115	0.948877124671833	-2.41137719315157E-06	3.51722125317087E-06	-1.34325006228921E-06	1.29038453302588E-06	-0.703398334454559	0.700470619861949
5.7	-0.22552525415934	0.969764987766187	1.30713512644643E-06	1.2329331546902E-06	5.76808551621695E-06	-1.17870684075387E-07	-0.610133319380585	0.783084608067519
5.8	-0.148481218575173	0.984158144329346	2.70476052123514E-06	4.26392445517782E-06	-2.11496301702134E-06	4.24625421554365E-06	-0.507036748489171	0.853211978592141
5.9	-0.070677764727659	0.992665678485121	-6.89462274085013E-06	-2.30393651285746E-06	-7.76519411722251E-08	6.29724066202838E-06	-0.39640728738906	0.909950747815639
6	0.00734725006120219	0.994928140649296	-1.79464807799873E-06	9.03736397880004E-08	-5.47056510199512E-06	-4.39412645567462E-06	-0.279456441073792	0.952374289280863
6.1	0.0853423470583746	0.990953185974609	4.16475306126702E-08	-9.92507112742577E-06	-9.84479319501281E-07	-3.21818228910978E-06	-0.158056314269646	0.9796866432043
6.2	0.163423726082827	0.980771953303727	-1.02295756165572E-06	3.11523148106783E-06	-1.76081858735935E-06	4.21786728426437E-06	-0.0334760529956301	0.991328585694476
6.3	0.240730490964459	0.964475145090195	-8.05997205301773E-07	2.83273939236023E-06	-2.94048004783416E-06	2.39765938687226E-06	0.0914603082961954	0.987218031559981
6.4	0.316590974556467	0.942124541892384	-5.9733575770111E-06	5.55162021832845E-06	-2.3841995297411E-06	-7.49595743442108E-07	0.215149127184288	0.967531893687357
6.5	0.390558504836399	0.914081128138937	1.40462997534248E-06	-5.28194728595118E-06	-1.45049760925637E-06	-2.37910621453172E-06	0.335163602383616	0.932375554300347
6.6	0.461871448148714	0.88007255894067	3.65908926838616E-06	2.09295128594897E-07	1.1320449573029E-05	-2.68466604406855E-06	0.449702748492455	0.882542034276728
6.7	0.53009986059044	0.840463111651956	-7.77060239643424E-07	8.48731694672129E-07	-3.77398587729095E-06	5.23872737961652E-06	0.556470283666831	0.818949128252637
6.8	0.595015984328209	0.795693815910768	-1.75571895861078E-06	4.49446323956475E-06	1.4553641102508E-06	-8.85116770238193E-07	0.65445415698266	0.742650562503614
6.9	0.656140136746598	0.745926865662303	5.92844208324082E-06	2.24921640236339E-06	-9.31536817505394E-07	2.41924581001042E-06	0.742034907078009	0.654696139933934
7	0.713037266543289	0.691269016268035	1.14062008980472E-06	-4.15645366587738E-06	-1.42913361181028E-06	2.92183338605887E-06	0.817854576666305	0.556438331486396
7.1	0.765302458385247	0.632580771314182	2.40086036797729E-07	-7.19013894480042E-07	1.97889646036445E-06	9.19746722696127E-06	0.880735780459252	0.449611717935681
7.2	0.812846395391753	0.569593464251254	1.3857437726428E-06	-2.4167570312768E-06	-1.01613552271226E-06	-8.5740583053485E-06	0.929692170148349	0.335896844808273
7.3	0.855135619553888	0.502726980245664	4.84540795313516E-06	7.22925918628036E-06	-9.72220644966297E-06	2.3422560415923E-06	0.963742444294306	0.216747839782164
7.4	0.89227618651061	0.432576146997497	5.09616838937117E-06	-6.87346499682001E-07	1.93231624874797E-06	-9.64150278393285E-06	0.982753735446228	0.0940627668669482
7.5	0.923766822315216	0.359656435687626	2.74087212713078E-06	-5.30657238912443E-06	2.09079614351077E-06	-7.27548859943611E-06	0.986226798969112	-0.0298565221637606
7.6	0.949685992865487	0.284238172615033	-3.1590740348648E-07	-5.63457542809367E-06	1.67666624926766E-05	3.85989556522571E-06	0.974465524796036	-0.153445565400833
7.7	0.969528196669036	0.206871697456867	3.5165476806107E-06	1.0977728358407E-07	3.22924771994106E-07	-2.92388622160348E-06	0.94745781254822	-0.274684650780836
7.8	0.983078160907895	0.128152767824645	-1.09734319054763E-05	-1.91732252987725E-06	-2.02459513225307E-07	3.43753685653648E-06	0.905606225524975	-0.391662412677272
7.9	0.990207657717203	0.0484291527142491	2.35607393902935E-06	2.02988978749139E-06	-6.94244563682848E-06	-4.70889352962988E-06	0.849508653265179	-0.502561906734042
8	0.990758528538918	-0.0314347057054473	2.35174736728881E-06	2.95050809564629E-06	-9.33333013173234E-06	-7.58846667333794E-06	0.779723666097084	-0.605673309022229
8.1	0.984907781855133	-0.110933705036395	3.82316332443996E-06	-3.0680024018337E-06	2.14462215107822E-06	-3.18260150749E-06	0.697611004974841	-0.698804350016313
8.2	0.972786258388413	-0.18945061639288	-4.03334513167594E-06	1.41638036808434E-06	-6.74971522065487E-06	3.62110736973025E-07	0.604708711705327	-0.780903288416174
8.3	0.95401646553624	-0.267098970244381	9.86068295168549E-06	2.9319906467383E-07	6.24496000660337E-06	1.04439606384029E-05	0.502002803744806	-0.850639113593532
8.4	0.928926502002343	-0.343039338554818	1.28509901671549E-06	2.55586009008176E-06	3.46022457269287E-06	1.82187250134146E-06	0.391325286306899	-0.907131135228061
8.5	0.897759886839368	-0.41698980720645	-4.84223362494688E-06	4.96474973701932E-06	2.85348207901326E-06	-3.023051361272E-06	0.273943240705826	-0.948997410284568
8.6	0.860596766466125	-0.488077639707164	-4.4995311231776E-06	2.09052423997019E-06	-3.03540132098912E-06	8.12241133148207E-06	0.152737672315027	-0.976006183318898
8.7	0.817924333468503	-0.555957370699727	-1.0211778158789E-06	1.21728298431574E-06	-6.43011411901478E-07	3.46559515602957E-06	0.028752672412856	-0.987699464854405
8.8	0.769929884574377	-0.620014228455115	-1.58425185317301E-06	3.08195220143995E-06	-6.01158803602458E-06	1.28885662386281E-06	-0.0954705730586819	-0.983938898187925
8.9	0.717208812351058	-0.680023512825588	3.17548910139725E-06	-1.83473318663729E-06	-3.16762451563836E-06	-4.55620920782139E-07	-0.218691320013644	-0.964230289055547
9	0.659558551944971	-0.735500575204059	-7.28994125590341E-06	1.3563435297175E-06	-3.97958749534062E-06	7.28035209966828E-07	-0.338312751679244	-0.929393029743925
9.1	0.597869416086951	-0.786104363788541	-3.35738304543818E-06	-1.88185288602775E-06	-9.82887252692335E-07	2.13638372188954E-06	-0.452904875473214	-0.879641044408483
9.2	0.531859213905228	-0.831580461315379	5.9851767316807E-06	-1.64404752628994E-06	1.99174114086725E-06	8.48089915574459E-06	-0.560137169618215	-0.816224358013735
9.3	0.462429736811636	-0.871550876744436	-3.38824887903147E-07	1.07092520539325E-06	1.36757247457082E-05	1.18253458015508E-05	-0.658622757691841	-0.739309607573832
9.4	0.389644748984441	-0.905572338690191	1.7312426208155E-06	-2.66289478261792E-06	4.28917942279972E-06	1.75739725864301E-06	-0.746031225897527	-0.65069330947274
9.5	0.313795642359721	-0.933344490453268	-6.50915667256504E-06	-4.88857023395589E-06	-1.9475241512171E-06	-5.7049547093499E-06	-0.822338698304521	-0.551365086342168
9.6	0.235221378675461	-0.954612909131539	-1.16821612211127E-05	-2.60060581978049E-07	-5.92535081934836E-06	-4.01387697389695E-06	-0.885324406965858	-0.443317423001674
9.7	0.155320544345308	-0.969147415057866	1.4681004844888E-06	-4.7841643301816E-07	-2.91789782396649E-06	1.64182424206174E-06	-0.934449385156513	-0.327963192163285
9.8	0.07463419274528	-0.976860099174829	2.20655472728203E-06	1.40055015616912E-06	1.510425356076E-05	-3.50580370699491E-06	-0.968299991791989	-0.207497319599841
9.9	-0.00632628757540777	-0.977495975523142	-3.45979479865037E-06	8.97327473423948E-06	1.37616227479659E-05	4.98756283817658E-06	-0.987055686669875	-0.0834851121046184
10	-0.0861720329796416	-0.970881054612673	-3.6428856783707E-06	1.6191630830645E-06	1.92390215867473E-05	-1.81506187534269E-05	-0.989644699876308	0.0420167651257037
10.1	-0.164553103514573	-0.957780645507624	-1.48012124100371E-06	2.30358691787521E-06	-8.42531410855223E-06	-4.31302765737853E-06	-0.976616695889756	0.166795733908082
10.2	-0.241044249532983	-0.938504799165365	-2.3108152485124E-06	-1.2416069339326E-06	-1.29263704568656E-05	7.23320483480776E-06	-0.947545715808554	0.288932857876005
10.3	-0.314547238698442	-0.913004974377631	5.76864992995593E-06	3.92813958402089E-06	-6.15289656500573E-06	1.37951043326758E-06	-0.903657411815724	0.405949937211888
10.4	-0.385477537559443	-0.882331888146351	2.10207748789601E-06	1.04728071448817E-06	7.04201795067283E-07	-8.22384475162021E-06	-0.845124207806682	0.516197147797582
10.5	-0.453464593840378	-0.845188867728983	4.36564306912252E-07	-3.05743309202716E-07	-6.55064818987172E-07	-5.62769768855184E-06	-0.773451793096091	0.617947913369843
10.6	-0.516477029346165	-0.802600859537243	5.08318432593188E-06	-2.60365873904061E-06	-9.73987239512902E-06	-7.87039689708202E-06	-0.689334661896049	0.70988177488738
10.7	-0.575021648594601	-0.755851071228665	-2.81074629106947E-06	-5.01048361716103E-07	-5.22014877237797E-06	-7.15762170483996E-06	-0.594769829245804	0.79022788582713
10.8	-0.629116191867491	-0.706270859430718	-3.6096840180348E-06	-3.43791549698503E-06	-1.19444341298886E-05	9.1327737214968E-06	-0.490993969379706	0.858048605805486
10.9	-0.679589726283674	-0.654329358071333	-1.13657325561484E-05	-1.0401513672423E-05	-4.46595334713012E-06	1.09416483717009E-05	-0.38004037704544	0.912434938228227
11	-0.72629006781733	-0.600391537597737	1.00940544533278E-06	1.40761390989638E-06	8.65224779802117E-06	-5.49133685614398E-06	-0.262427999313743	0.952694078394226
11.1	-0.770115057122312	-0.543628055655704	-3.26034124303105E-07	-3.62862828908533E-06	1.01736497206923E-05	-1.01891316334908E-05	-0.140920999540902	0.977593390510197
11.2	-0.81069828614301	-0.48399558069968	-1.03036011174107E-06	-3.9101761225017E-06	2.16054222391382E-06	-6.30534812754386E-06	-0.0165717866120786	0.987135158437984
11.3	-0.847699801447091	-0.420644315762719	1.63599746182809E-06	-1.20349413689379E-05	3.56382032526576E-06	-2.81904864227499E-06	0.10794870785054	0.980882238226626
11.4	-0.879668958296218	-0.354301180054939	9.86226167516542E-07	1.84920126461882E-08	-5.68661962864395E-06	6.45805629040245E-06	0.231170715367377	0.959155717739833
11.5	-0.907176378275588	-0.285162215829028	6.54310226679315E-06	-1.23982408757638E-06	8.2338807893488E-06	-3.12003915465585E-07	0.349808385999052	0.921797663694658
11.6	-0.929372037149268	-0.21334835771665	-6.38579985645241E-07	-5.32427890770011E-06	1.43698279984615E-06	-3.0784172529635E-06	0.463293985725207	0.869841124160305
11.7	-0.945291090301343	-0.138487524499774	-9.41677494888184E-08	-6.04151730684153E-06	8.91478441464206E-07	-2.65557679509059E-06	0.569069260416852	0.803952600336296
11.8	-0.955153452268431	-0.0615839465012915	-1.07015238164337E-06	-7.4006562785543E-07	5.15985869325142E-06	1.077358924847E-06	0.665810056992793	0.725506005571255
11.9	-0.958674276627404	0.0170312345493279	-3.21377175891322E-06	-5.20265951332772E-06	-5.38243704376042E-06	-8.00084232146122E-06	0.751351134532557	0.636194020886968
12	-0.955491011028105	0.0959360451235547	-2.94255143405843E-06	1.64145566062305E-06	-1.67206554616151E-05	-8.74213767446062E-06	0.825005764834539	0.536914606526156
12.1	-0.946082534353798	0.174353252014581	8.24818676300203E-07	-1.56601283285846E-06	7.85147428879765E-06	1.22656887139177E-05	0.885363845541665	0.429041887392239
12.2	-0.929280357591653	0.252470398511168	-4.10235502873033E-06	5.54411367749301E-06	4.15117200449003E-07	3.30952780168101E-06	0.932166526151295	0.314536169685545
12.3	-0.906528380939042	0.328787336453305	7.8278564855899E-06	6.3834957288622E-06	4.1914643624057E-07	1.08847769065175E-05	0.964170063039792	0.194516651986632
