# GHZ S RI R 50
0.2	0.98593199587054	-0.156855461703794	2.56443138588163E-06	2.2501768902408E-06	6.57110988197218E-06	-4.86881299034445E-06	-0.966412517364643	0.251642967068532
0.3	0.969887026161308	-0.233980333803227	-8.73687493850286E-07	-5.45444357272965E-06	-3.46658440452128E-06	-7.94634762790542E-06	-0.926797746923888	0.371652494955408
0.4	0.948377219314198	-0.309322293938676	-7.27962869549664E-06	-9.91374151734024E-07	4.44156047449423E-06	1.54526819188612E-06	-0.87207915748444	0.485406308918471
0.5	0.921457287398744	-0.382813678925901	6.20029152516804E-06	2.10504789068307E-06	-2.41427812992875E-06	-1.90823993058569E-06	-0.803583327886542	0.591635519112359
0.6	0.888477960681166	-0.453857754123774	-1.05530213849703E-05	2.46124452601555E-06	-2.21876619930596E-06	-1.00724800641937E-06	-0.722077853575074	0.688035025399071
0.7	0.850291027795965	-0.521717933040822	2.78471332271841E-06	-1.17225015643653E-06	-2.98816918092962E-06	5.78935359743874E-06	-0.629468906710525	0.773515598846443
0.8	0.806844554491178	-0.586775784591818	1.17690265284627E-06	-8.47754737736471E-06	-6.62191176313936E-06	-3.07084693877464E-06	-0.526755407687748	0.846510866003481
0.9	0.758390642310958	-0.648390587696502	-1.1469562415499E-06	-6.81182548379535E-07	2.54845978581944E-06	6.54476254466752E-06	-0.415827620249033	0.905844285756959
1	0.705007338445832	-0.706198421082237	-2.74512331687674E-06	-3.22295035967411E-06	-4.05072739650317E-07	-7.31720298704254E-06	-0.298595650167202	0.950541055109482
1.1	0.64796107554864	-0.759618944455582	1.80715341882766E-06	-4.94126232590249E-06	2.27062484873734E-06	-5.1347357865295E-06	-0.176490099533022	0.980371842087482
1.2	0.585529760865507	-0.809201855377284	-2.49612785963353E-06	2.49133391186284E-06	9.26236853024311E-07	-9.10771680075299E-07	-0.0513610732916704	0.994344946581664
1.3	0.51778505342899	-0.853751860579433	-1.53809222302003E-06	7.19196863330691E-07	-1.35566713008333E-06	1.46313480123522E-06	0.0744276107547875	0.992725415704905
1.4	0.446977017896689	-0.89229106861682	3.92294646250408E-06	-3.24058107597321E-06	2.70253558714278E-06	1.09404409712985E-05	0.199582241407752	0.974877510199137
1.5	0.37411660348849	-0.924450785185355	-5.33758184619676E-06	1.11012418916667E-06	6.58964616127302E-06	-7.20768392401475E-06	0.321246561794432	0.941606491062811
1.6	0.300523386868937	-0.950781402638259	1.7759052609071E-06	-7.73961777599158E-06	3.63232699280214E-06	1.38235456644142E-06	0.437255356955636	0.893218097843269
1.7	0.226115281530741	-0.970989637052627	-1.94188642101709E-06	-9.69340630589919E-07	-2.35777879456765E-07	-2.08728935596749E-06	0.545591386418647	0.83141145435087
1.8	0.149500734204482	-0.985691875278638	2.85211416898297E-06	5.28007383609463E-06	4.37849099322083E-09	2.03199529904534E-06	0.645692148634831	0.756121628022597
1.9	0.0720182754564398	-0.9943921789672	5.67556301350234E-06	-2.63311287371769E-06	-2.99888622875002E-06	4.16361248802105E-07	0.735027496582587	0.669033943907914
2	-0.00513111066742198	-0.996991166540716	-1.54937248518106E-06	-2.02737169484399E-06	3.21538193951652E-06	1.14630444856553E-05	0.813069152562442	0.571110009992096
2.1	-0.0839919965751705	-0.993774325148141	-7.5577210589595E-06	2.45931347607468E-06	1.2099064910694E-06	5.14888080051333E-06	0.878001465394461	0.46438084853051
2.2	-0.160771916622473	-0.984250095184689	-8.83088930575452E-07	1.39547630343655E-06	3.00856404989974E-06	7.78018706705919E-06	0.929328553509558	0.350462385855776
2.3	-0.237953309571824	-0.968242732798221	1.82749277833449E-07	7.45784498636718E-06	7.40573827363207E-07	9.39001579444174E-07	0.965459985512748	0.231448863270364
2.4	-0.313796724903753	-0.945953537886376	1.58281491458382E-06	7.17786809018083E-06	1.52431350515314E-06	6.39077512620928E-06	0.986941593464506	0.10788242456829
2.5	-0.387028727052415	-0.918540099099959	4.39237588805615E-06	-2.31653743252818E-06	-1.91746487217373E-06	-7.57529608926957E-06	0.992295472618662	-0.0166299398802192
2.6	-0.458353581012259	-0.884936714773549	6.77220051524855E-06	-5.95026982854478E-06	-1.11033017638893E-05	1.08370492514969E-05	0.982337205641388	-0.141397751681078
2.7	-0.526934702041133	-0.845819938879627	-4.44219907104798E-06	9.14809398557605E-06	-2.87675431088566E-06	-9.16278171374502E-06	0.956400502599445	-0.263939060587961
2.8	-0.591258536052536	-0.801921089457807	2.45895114859964E-06	1.14356459442236E-06	-3.12905003776947E-06	1.24498270399197E-06	0.916111135271753	-0.381586209970757
2.9	-0.651579236576068	-0.75363543156659	-5.5003236288965E-06	6.01820823763295E-06	-9.19675983185102E-06	-2.81758508204681E-07	0.861002897763224	-0.493181172530491
3	-0.708697872244714	-0.700275728938223	4.72196624749911E-07	-1.47354219443739E-06	1.13289143051971E-05	1.46096286570272E-06	0.792327364346525	-0.597432609196466
3.1	-0.761450355905309	-0.642920649037553	2.40884495536189E-06	1.0497798570043E-05	4.32666072126416E-06	2.17331448326507E-06	0.711322322021679	-0.691565938909023
3.2	-0.809347407058831	-0.581752425690089	2.10654499895613E-06	6.46614488576396E-06	3.99809736639201E-06	-1.06077735560158E-05	0.619383914214833	-0.775023509435403
3.3	-0.852389922281735	-0.517152392667416	3.08322132628244E-06	4.96148910315576E-06	-2.22744301835495E-06	-9.66900507193E-06	0.516578405952025	-0.846900076030543
3.4	-0.889531525154278	-0.449638163119841	2.12475068857216E-06	-2.60489523341452E-06	5.95895230287847E-06	1.38100027075011E-06	0.406945779807818	-0.905006597148534
3.5	-0.921974098530904	-0.377938943964342	-3.23950926440618E-06	9.48217642825293E-07	-2.0715223251927E-06	3.4245728563096E-06	0.289850215686165	-0.949121213583353
3.6	-0.948624655852797	-0.304433438403569	-1.81532611938033E-06	-3.74299510020858E-06	-7.82154323032254E-06	4.11160731675798E-06	0.168245034984541	-0.978054404999186
3.7	-0.969389174481597	-0.229449993695119	8.1670449792974E-07	-8.32801692831315E-06	1.07715266240966E-05	3.69003965143829E-06	0.0434878110996341	-0.991384415063434
3.8	-0.984455965026589	-0.15219875008805	9.31081583625874E-08	1.54687703160078E-06	-6.51513543582609E-06	5.95632408382331E-06	-0.0812219026517783	-0.988916661101631
3.9	-0.993088359748072	-0.0745817041612015	-2.63151474853407E-06	-5.02640514457378E-06	-3.69811602005628E-06	8.02900103832716E-06	-0.206431908928752	-0.970942962302096
4	-0.995763843119625	0.00429702935236976	7.12976388798344E-06	-3.87246621998983E-07	-1.04594984034802E-06	-1.20504276881937E-06	-0.326551858113898	-0.937448968193494
4.1	-0.992523042106138	0.0825609508180302	6.19455252909244E-07	-4.44396982779304E-07	7.35097014092867E-06	-4.76221747583058E-06	-0.442268462747746	-0.888938274629128
4.2	-0.983187887355137	0.160637839430575	3.20774381570088E-06	2.10146680126619E-06	-7.19145934460345E-07	-7.61745493262624E-07	-0.550698657522806	-0.825801500962857
4.3	-0.967863994666801	0.236814463109273	-3.18999828434184E-06	1.3750939965355E-06	-4.99671145623521E-06	2.98654920559269E-06	-0.650067277164435	-0.750386648525158
4.4	-0.94650481355845	0.311707894234176	8.06138065423125E-07	2.64328758384418E-06	1.5492516964265E-06	-8.33767741495647E-06	-0.739163215448652	-0.662888368636922
4.5	-0.919173871626015	0.384804786232576	1.82435689893646E-06	-9.40740237300622E-07	7.63511140850758E-06	-2.58172636051814E-07	-0.816881973372917	-0.564850631587191
4.6	-0.88603000669702	0.456235075316209	-7.29585605120434E-07	6.13438509793389E-06	-1.23528707551809E-05	-6.48988373916337E-06	-0.881278962893489	-0.457622695235978
4.7	-0.847634112422191	0.5236473753307	1.202355508665E-06	2.51350383911898E-06	1.42210826961277E-06	1.86836245810078E-06	-0.93209608947739	-0.343420952096669
4.8	-0.803234154304638	0.589114358954508	-5.18568359567438E-06	1.11390948705792E-05	5.23638933177552E-06	9.70188549664475E-06	-0.967797566115915	-0.223163931292376
4.9	-0.754138797992665	0.650152340277328	1.19924748305533E-06	2.93501723979218E-06	-4.81572790745315E-07	-6.92074087455809E-06	-0.988006622574355	-0.0991072052784048
5	-0.700530877024833	0.707247171538643	4.74654934640129E-06	-9.0950400787674E-07	-3.74750195225989E-06	2.42493149152202E-06	-0.992148407360088	0.0262322270480291
5.1	-0.642127664867173	0.760193530417358	4.13858334603349E-06	-1.4016020298631E-07	-2.65629094882099E-06	-9.82472862613954E-06	-0.980974484490476	0.150843117120952
5.2	-0.580130813110997	0.808573551411885	2.62825074597772E-06	-1.5007962482762E-05	1.3789415591871E-06	2.82573582223689E-06	-0.954268674813081	0.273396453828321
5.3	-0.514685661998318	0.85204218783779	-8.72096145927126E-06	-7.84729124769153E-07	-1.13633057085747E-06	1.58958595662169E-07	-0.91229018593128	0.391684724767743
5.4	-0.446101932727893	0.890280228159366	-7.19007474147535E-06	-1.10709103474105E-05	-1.37544079322993E-05	1.12047928810147E-05	-0.855463082132092	0.503366513085648
5.5	-0.374795226753777	0.92260993279967	1.90660866609742E-06	8.94667260076143E-08	-2.24747444331038E-06	1.78510765461002E-06	-0.785794696080223	0.60670913497171
5.6	-0.301152667347195	0.948922697547693	-2.4120480847021E-06	3.51753781779682E-06	-1.34356506716505E-06	1.29046041983005E-06	-0.703469866762741	0.7004443856295
5.7	-0.225569176121323	0.969824327999694	1.30724797022504E-06	1.23324936962015E-06	5.769055539546E-06	-1.1740043449301E-07	-0.61022303465602	0.783081022989614
5.8	-0.148526791741411	0.984241395744761	2.70489753010113E-06	4.26492297865676E-06	-2.11569942291265E-06	4.2468494305631E-06	-0.507134050095677	0.853241735206438
5.9	-0.0706967240553289	0.992752705986522	-6.89581599942446E-06	-2.30466736883911E-06	-7.79393707463262E-08	6.29841834862303E-06	-0.396481276559346	0.910007469439917
6	0.00729276379976755	0.994973897160781	-1.79481818687476E-06	9.03459185193351E-08	-5.47098945948035E-06	-4.39464883188054E-06	-0.27953550940164	0.952408899551403
6.1	0.0852799607608197	0.991056949688113	4.22853897217644E-08	-9.92595959271401E-06	-9.84362099532592E-07	-3.21853413391025E-06	-0.158139217475679	0.979772796314751
6.2	0.163406752561332	0.980889636478093	-1.02317490926993E-06	3.11548971321328E-06	-1.76114875463599E-06	4.21820248464305E-06	-0.033512088166808	0.991439112397982
6.3	0.24077377607125	0.964580247671509	-8.06056349948064E-07	2.83305079868811E-06	-2.94077218154124E-06	2.39794469086359E-06	0.0914876274115505	0.987327209634
6.4	0.316671370519864	0.942167928125936	-5.97355906229577E-06	5.55254529380449E-06	-2.38447647983592E-06	-7.49509190672282E-07	0.215221500747632	0.967585242259023
6.5	0.390617035189293	0.914140744036442	1.4044952830145E-06	-5.28265214319843E-06	-1.45080471539526E-06	-2.379305040625E-06	0.33521664777882	0.932441816484072
6.6	0.461991200995552	0.880108812563251	3.65963445891518E-06	2.08872885106741E-07	1.13217247062122E-05	-2.68644531752281E-06	0.449821706600065	0.88258137947893
6.7	0.530203734478341	0.840477343782284	-7.77034988486808E-07	8.4892213671925E-07	-3.77372037242041E-06	5.2397720658209E-06	0.55657518233233	0.818958558299145
6.8	0.595114645147801	0.795712039400716	-1.7553992436731E-06	4.49503405541541E-06	1.45539666184322E-06	-8.8534542754403E-07	0.654553360389141	0.74265848416926
6.9	0.656239537656051	0.745936064073209	5.92908649987663E-06	2.24886948276637E-06	-9.31396283553641E-07	2.41950997376261E-06	0.742133567039789	0.654691121266841
7	0.713117715552115	0.691270424994263	1.14030424467914E-06	-4.15662018021228E-06	-1.42892279039677E-06	2.92200118414437E-06	0.817926474168092	0.556428996740223
7.1	0.765374221696196	0.632584391409486	2.40080097806409E-07	-7.19015521159169E-07	1.97897017848663E-06	9.19744707438191E-06	0.880806511675504	0.449614771925746
7.2	0.812905955444392	0.569599226803959	1.385812516659E-06	-2.41673373661157E-06	-1.01592141951708E-06	-8.5741273299208E-06	0.929758857732414	0.335904653005669
7.3	0.85519463818471	0.502747536647761	4.84504186159788E-06	7.2296893854246E-06	-9.72252426997232E-06	2.34169007073167E-06	0.963821761887072	0.21677025756795
7.4	0.892371319637506	0.432602471577664	5.09663830797487E-06	-6.86950061058004E-07	1.93332572719768E-06	-9.64210535728132E-06	0.982886447537006	0.0940698587866704
7.5	0.923867220709531	0.35962990396715	2.74127512804779E-06	-5.30718160024235E-06	2.09114597564891E-06	-7.2763457555412E-06	0.986340003487903	-0.0299296678846459
7.6	0.949794016979473	0.284223175040735	-3.15724601606443E-07	-5.63534304532524E-06	1.67687548887798E-05	3.86108268274681E-06	0.974594285932609	-0.153518153679251
7.7	0.969659828526112	0.206841157203277	3.51716786640986E-06	1.09940026596566E-07	3.23101235749696E-07	-2.9243924484027E-06	0.947605021391687	-0.274801440769934
7.8	0.983217238132206	0.128101942505574	-1.09756121195658E-05	-1.91824680246346E-06	-2.02666601212127E-07	3.43823896076868E-06	0.905754121015723	-0.391824295103921
7.9	0.990312836870863	0.0483441218566387	2.35645441832475E-06	2.03039250521863E-06	-6.94362098143047E-06	-4.71012265361639E-06	0.849609963710732	-0.502762572663641
8	0.990777502862348	-0.031455752931084	2.35170984105434E-06	2.95114385095914E-06	-9.33364607175915E-06	-7.59047231565493E-06	0.779780931393213	-0.605789903131828
8.1	0.984969790914323	-0.110910710119896	3.82437629647305E-06	-3.06789991623312E-06	2.14555276259989E-06	-3.18280696440647E-06	0.697721789530743	-0.698936364584989
8.2	0.9728429845067	-0.189428505011323	-4.03433238926636E-06	1.41602716614444E-06	-6.75105715807038E-06	3.61137051452352E-07	0.604786257347724	-0.781050677057103
8.3	0.954066897365309	-0.267065917709576	9.86242536603288E-06	2.94621283749047E-07	6.24463910477018E-06	1.04467163802057E-05	0.502051938805296	-0.850774134113646
8.4	0.928978381428385	-0.343000689680116	1.28500825081631E-06	2.55647713082469E-06	3.46061388437191E-06	1.82263097165919E-06	0.391351161224894	-0.907260049934604
8.5	0.897819772684676	-0.41695238036249	-4.8434830339212E-06	4.96531403439704E-06	2.85422537001866E-06	-3.02340181650629E-06	0.27392602941157	-0.949102495465962
8.6	0.860660112782092	-0.488060454290624	-4.5002859804401E-06	2.09066388446901E-06	-3.03616951154359E-06	8.1235112721519E-06	0.152712863399282	-0.976089133164394
8.7	0.817980878513148	-0.555956300129339	-1.02133766009126E-06	1.21743333161848E-06	-6.43155943619246E-07	3.46606000588029E-06	0.0287068006628769	-0.9877697660815
8.8	0.769980263715293	-0.620021267614271	-1.58444217134301E-06	3.08234393773541E-06	-6.01233972846689E-06	1.28903561678737E-06	-0.0955314741491511	-0.98398852964723
8.9	0.717267883221953	-0.680033477268039	3.17590580144771E-06	-1.83491829106493E-06	-3.16801014750474E-06	-4.55718873416187E-07	-0.218745869735563	-0.964286949509644
9	0.659617053694758	-0.735529164861035	-7.2912766518969E-06	1.35650821405287E-06	-3.98031635191097E-06	7.28122866520147E-07	-0.338434685427283	-0.929467114163207
9.1	0.597928675343582	-0.786117542098474	-3.35799552682898E-06	-1.88214237182819E-06	-9.83033780885518E-07	2.13677084121777E-06	-0.453033105731028	-0.879656547763912
9.2	0.531929392071081	-0.831584773156281	5.98615255445143E-06	-1.64440082075066E-06	1.99218544168084E-06	8.48228635538235E-06	-0.560250303649847	-0.816209984497188
9.3	0.462512603620356	-0.871543813360033	-3.38856636542795E-07	1.07107641845264E-06	1.36777581664772E-05	1.18267776090812E-05	-0.658692547029947	-0.739267285237839
9.4	0.389740524798513	-0.905580877949789	1.7314056336085E-06	-2.66320555779154E-06	4.28966937055713E-06	1.75754639261023E-06	-0.746058782179199	-0.650660803123032
9.5	0.313843522268609	-0.933322471363232	-6.5094813285415E-06	-4.8885221582418E-06	-1.94774292431752E-06	-5.70506056504622E-06	-0.822313047478523	-0.551298548105923
9.6	0.235328918758425	-0.954574282776267	-1.16821219653584E-05	-2.60604132545746E-07	-5.9251500862062E-06	-4.01414365076782E-06	-0.885239721636689	-0.443330734739311
9.7	0.155431414384237	-0.969145352054663	1.46814146280834E-06	-4.78337465594726E-07	-2.91801854909479E-06	1.64167377788972E-06	-0.934387047829583	-0.328014911419989
9.8	0.0747303161815187	-0.976879672147715	2.20650174149944E-06	1.4006729654911E-06	1.51045525461194E-05	-3.50506864407897E-06	-0.968252806713089	-0.207560885305361
9.9	-0.00625203968305533	-0.977529078343654	-3.46021487515597E-06	8.97312463840541E-06	1.37614073246386E-05	4.98820671036564E-06	-0.987024957299121	-0.0835604123338413
10	-0.0861008601560286	-0.970906185249551	-3.64299874392702E-06	1.61895310120162E-06	1.92401913408681E-05	-1.81495532088498E-05	-0.989638751743087	0.0419443711018811
10.1	-0.164489119345993	-0.957826940709719	-1.4802607605211E-06	2.30353540608015E-06	-8.42518407259591E-06	-4.31352505253809E-06	-0.976622588353132	0.166721410990907
10.2	-0.240993370013634	-0.938541817868491	-2.31073957771695E-06	-1.24175325420059E-06	-1.29268374090957E-05	7.23240037373978E-06	-0.947573271845735	0.288854439953406
10.3	-0.314486836142747	-0.913026623721804	5.76824895097772E-06	3.92859354735725E-06	-6.1529484090157E-06	1.37896564490077E-06	-0.903704883251677	0.405865038602982
10.4	-0.385398883383833	-0.882349052329783	2.1018803605635E-06	1.04750086412443E-06	7.05176155253714E-07	-8.22348522841731E-06	-0.845200397010135	0.516079193708821
10.5	-0.453347309480203	-0.845253979472125	4.36623895390019E-07	-3.05658059009606E-07	-6.53966452987791E-07	-5.62782452501626E-06	-0.773624238022249	0.617882122572963
10.6	-0.516402321043604	-0.802606244123673	5.08374301264429E-06	-2.6027073830659E-06	-9.73846290438759E-06	-7.87236285735631E-06	-0.689555595185638	0.709861680415535
10.7	-0.57495016124673	-0.755828438377236	-2.81069856762646E-06	-5.01559465972136E-07	-5.2189444208597E-06	-7.15866409426713E-06	-0.594977151827558	0.790272974516216
10.8	-0.629021540228957	-0.706221173545945	-3.60912639440051E-06	-3.4385273967902E-06	-1.1945994146541E-05	9.1308238995986E-06	-0.491159973163026	0.85813000818028
10.9	-0.679462692995307	-0.654299312887776	-1.13639958160369E-05	-1.04034680424051E-05	-4.46782102742257E-06	1.09409177351394E-05	-0.380177728989965	0.912523890369106
11	-0.72621133738664	-0.600364079343448	1.00927244705165E-06	1.40777502782184E-06	8.65315498466235E-06	-5.49049735018259E-06	-0.26251558352062	0.952826691310231
11.1	-0.769994852302032	-0.543585350575049	-3.2566038919444E-07	-3.62863134220106E-06	1.01746066185559E-05	-1.0188006381138E-05	-0.140962036591634	0.97769161156037
11.2	-0.810572145141567	-0.483992150859673	-1.02994954613712E-06	-3.91028872442482E-06	2.16120831596782E-06	-6.30512732811204E-06	-0.0166000981979113	0.987228381622426
11.3	-0.847594182377661	-0.420680826966825	1.63724469497882E-06	-1.20351213650217E-05	3.56420317663773E-06	-2.81877351395365E-06	0.107940867853666	0.980986571034861
11.4	-0.879597787329922	-0.354360373105202	9.8627443423482E-07	1.85738946566512E-08	-5.68743675953078E-06	6.45791553945369E-06	0.231189582205899	0.959258822414662
11.5	-0.907105579281332	-0.285192832950402	6.54340636254001E-06	-1.23946782230646E-06	8.23418724656436E-06	-3.11512020399505E-07	0.349848354324711	0.92189067878401
11.6	-0.929290548759625	-0.213414925958734	-6.38214631696563E-07	-5.32456301164165E-06	1.43727439969526E-06	-3.07844793755086E-06	0.463356888592273	0.869930646643637
11.7	-0.945227764036923	-0.138560069217829	-9.37787701466997E-08	-6.04184568268074E-06	8.91699175352358E-07	-2.6556602963897E-06	0.569152592852265	0.804033546021461
11.8	-0.955096393301156	-0.0616542601833298	-1.07017186368981E-06	-7.40163505478022E-07	5.16008553281547E-06	1.07769359464884E-06	0.665915919379188	0.725568903112247
11.9	-0.95862858666686	0.0169597985786491	-3.21378639965515E-06	-5.20300616758051E-06	-5.38248134156364E-06	-8.00138763604394E-06	0.751466337227302	0.636202306298531
12	-0.955474182071367	0.0958897660680756	-2.94263535763249E-06	1.64141084938528E-06	-1.67207032231217E-05	-8.7426682830556E-06	0.825039599128935	0.536917199003729
12.1	-0.946066264936888	0.174339364966342	8.24863155954281E-07	-1.5660376934845E-06	7.85147137284183E-06	1.22661079752997E-05	0.885419936958885	0.429064117727263
12.2	-0.929252428777224	0.252488675035008	-4.10233804005412E-06	5.54418762493767E-06	4.15147830077359E-07	3.30954800783423E-06	0.932207270479248	0.314541079565086
12.3	-0.906470417268993	0.328825604688038	7.82782281411626E-06	6.38324210148257E-06	4.19327584220015E-07	1.08845687817341E-05	0.964189903556924	0.194527139209749
