# GHZ S RI R 50
0.2	-0.00652159277155408	0.0105264827395098	0	0	0.957847579022647	0.0581865815296075	0	0
0	0	0.020183741392584	0.00462618739158275	0	0	-0.370518055114878	0.911048742659465
0.957847579022647	0.0581865815296075	0	0	0.0211763958084731	0.0423449804510082	0	0
0	0	0.569686766896061	-0.753950525262593	0	0	0.00164730959127115	-0.0314440064249003
0.3	0.0068657839330024	-0.0100084510677745	0	0	0.0337355830259834	-0.965136732882214	0	0
0	0	-0.00535630929405759	0.00161860549839742	0	0	-0.134014481764585	-0.974225723054507
0.0337355830259834	-0.965136732882214	0	0	-0.0140371482588388	0.00452111461878788	0	0
0	0	-0.921985167418392	-0.202372383028103	0	0	-0.0325879940568098	-0.0173727505411774
0.4	-0.00880536424301296	0.00786731423512987	0	0	0.948551479506976	0.0623757400642891	0	0
0	0	-0.0394057903479994	0.000795014330966125	0	0	-0.666857381696843	-0.726052429967443
0.948551479506976	0.0623757400642891	0	0	-0.0342487910530624	-0.0140394872670578	0	0
0	0	-0.234832811287548	-0.895916698308375	0	0	0.0214655415403453	0.0197390767849948
0.5	0.0112259958872414	-0.00442533886784545	0	0	0.128260925736656	-0.948894705962689	0	0
0	0	-0.0329494431093435	0.00474891345879044	0	0	0.963993915651271	0.207721281751524
0.128260925736656	-0.948894705962689	0	0	0.0365936396312781	0.0166108439145466	0	0
0	0	-0.679100592733592	0.636340988529266	0	0	0.00495757241759274	0.00759344381668999
0.6	-0.0120469796094565	0.00150449134559157	0	0	0.955177309294049	0.132003194567788	0	0
0	0	-0.00831975263757849	0.00605199485960832	0	0	0.913191379952604	-0.328901771401301
0.955177309294049	0.132003194567788	0	0	0.00489479097906909	-0.0197470772177562	0	0
0	0	-0.861925748377419	-0.345578732028738	0	0	-0.00543199940004915	-0.00723830263775605
0.7	0.0117763113812912	0.00110416285235649	0	0	0.109860821891641	-0.958051590695131	0	0
0	0	0.0226595233355838	-0.0109317010640745	0	0	-0.612171038366626	0.748242597096677
0.109860821891641	-0.958051590695131	0	0	0.00804268097931626	0.00980131269266899	0	0
0	0	0.0450933081138405	0.920919037066408	0	0	0.00230843580583869	-0.0130061766363212
0.8	-0.0105400061414592	-0.00421395292711137	0	0	0.955816806807424	0.114619288203199	0	0
0	0	0.044251161666768	-0.0416977800374955	0	0	-0.121463753367716	0.961616144010417
0.955816806807424	0.114619288203199	0	0	-0.0226122978068907	0.0125955351746964	0	0
0	0	-0.812707883346698	0.448286719094229	0	0	0.00654161795925557	0.0833992715080206
0.9	0.00774916852488761	0.00700013670895602	0	0	0.14607327423479	-0.941024848112089	0	0
0	0	0.0132971174302857	-0.0275559909658089	0	0	-0.434335561667726	-0.867645666141198
0.14607327423479	-0.941024848112089	0	0	-0.00201496468281242	-0.0621972442667106	0	0
0	0	0.764693142862841	0.526513717368755	0	0	0.0363461652634681	0.0136665244052246
1	-0.00439810691006016	-0.00869060573300058	0	0	0.944256803492317	0.18267182380122	0	0
0	0	-0.0143423699824584	0.0119658034008167	0	0	-0.83959563452367	-0.482852401852115
0.944256803492317	0.18267182380122	0	0	0.00245397867707551	0.0420239379134058	0	0
0	0	-0.127162045237565	0.90420850426353	0	0	0.00309430549491286	0.00187748932910135
1.1	0.00103731136380518	0.00864290111436561	0	0	0.202388827081601	-0.951614647123521	0	0
0	0	-0.011634738312069	0.0350476265185359	0	0	0.958645753880903	-0.050815518497521
0.202388827081601	-0.951614647123521	0	0	0.00314187340268269	0.00180936125745763	0	0
0	0	0.871124158972345	-0.260591458443518	0	0	0.00843086232551239	0.0431830446831965
1.2	0.00162120054824346	-0.00699672985860913	0	0	0.961665254529995	0.203157532124548	0	0
0	0	0.00863321335453157	0.06440500997049	0	0	0.773137601800225	-0.556249677181685
0.961665254529995	0.203157532124548	0	0	0.0534631546498692	-0.000378646867186434	0	0
0	0	0.615609814535175	0.673250520010714	0	0	0.00665546627612173	0.100458743854704
1.3	-0.00348624275581334	0.00375633980869571	0	0	0.205379872528462	-0.945653935124316	0	0
0	0	0.0160946058960548	0.0186752655233065	0	0	-0.355622069372633	0.885920526791377
0.205379872528462	-0.945653935124316	0	0	-0.0549151652489744	0.000826291819261391	0	0
0	0	0.322586720679345	-0.86187200683373	0	0	0.0400988913381725	0.0149256844849047
1.4	0.00415534967107222	-7.21558369058857E-06	0	0	0.927559570443179	0.233250818513614	0	0
0	0	-0.0132661843528656	-0.0441137348056554	0	0	0.181014387259638	0.939872312426335
0.927559570443179	0.233250818513614	0	0	0.0169333296896803	0.00835853748157016	0	0
0	0	0.901291261023242	-0.0851446517510563	0	0	0.0443962646840435	-0.00614701577979723
1.5	-0.00323367195390219	-0.00303273365072365	0	0	0.270302970368607	-0.925632555499507	0	0
0	0	-0.0381462612613382	-0.0567577801329029	0	0	-0.677541565423535	-0.67623067650577
0.270302970368607	-0.925632555499507	0	0	0.0328187452777591	-0.0328056912987027	0	0
0	0	-0.463854526789562	-0.768851700623238	0	0	0.0332500696280533	0.0527638007900842
1.6	0.0011031676828618	0.00476997764993125	0	0	0.940438209664374	0.293743428330723	0	0
0	0	-0.0361380011931887	-0.0200547137073174	0	0	-0.939521246868639	-0.182367800728493
0.940438209664374	0.293743428330723	0	0	-0.0520722103526185	-0.0265322188218878	0	0
0	0	0.497189482612072	-0.756761756999662	0	0	0.000962484143367481	0.0531896803196384
1.7	0.00166333826615054	-0.00486177247614971	0	0	0.288177090801055	-0.945653983256295	0	0
0	0	0.0157264370420489	0.00589850963372971	0	0	0.885779013871662	-0.346192154581476
0.288177090801055	-0.945653983256295	0	0	-0.00118958077909646	0.00553879003842542	0	0
0	0	-0.902406381421361	-0.109416136104118	0	0	0.039897840438945	-0.0304117644969987
1.8	-0.00431013682203821	0.00318259543999912	0	0	0.919389117736079	0.289088537321249	0	0
0	0	0.0456467591723261	0.0376892978969745	0	0	0.572465615327831	-0.748164632050641
0.919389117736079	0.289088537321249	0	0	0.0067006706136104	0.0655411561119732	0	0
0	0	-0.312501207349154	-0.849713281799801	0	0	0.0274492976475514	-0.0339267969221231
1.9	0.00622424292501683	-5.55971060395912E-05	0	0	0.318266972791934	-0.895553111169845	0	0
0	0	0.0530036084917291	-0.00398072346372939	0	0	-0.0813762891822268	0.942416959042253
0.318266972791934	-0.895553111169845	0	0	0.00965463030846374	0.00906325298327141	0	0
0	0	-0.614132424680911	0.647477686612403	0	0	0.0410859229534765	0.0236331950329062
2	-0.00665746753390479	-0.00399548379907505	0	0	0.892047490777723	0.348674781985839	0	0
0	0	0.0153403335165642	-0.00504324537196629	0	0	0.459005187816423	0.832467524886495
0.892047490777723	0.348674781985839	0	0	-0.0500742231657669	-0.0330141761730085	0	0
0	0	-0.845099800227535	-0.262461512232117	0	0	-0.0531097678327812	-0.0209218401110741
2.1	0.00534058954331342	0.00818344400433986	0	0	0.363653957864191	-0.898462450051444	0	0
0	0	-0.0289642626483976	0.0079571586692607	0	0	-0.830710621063762	-0.451002874492654
0.363653957864191	-0.898462450051444	0	0	0.0705520287514195	0.0163267514460177	0	0
0	0	0.136487905165597	0.879096226483361	0	0	-0.00502653176138374	0.00979999633458709
2.2	-0.00189540686399989	-0.0117929004743339	0	0	0.898636415610895	0.375838321579076	0	0
0	0	-0.0480284068007808	0.0174091609353685	0	0	-0.931960589220469	0.0693528956432768
0.898636415610895	0.375838321579076	0	0	0.0145774681981318	-0.0108071033677463	0	0
0	0	-0.736578423214921	0.5065820833355	0	0	0.042519515720271	-0.0112268923771519
2.3	-0.0032890376660001	0.0137312727681972	0	0	0.385963648684901	-0.889402957052213	0	0
0	0	-0.0304336395910469	0.0195306709198816	0	0	0.736411244667432	-0.55561573321749
0.385963648684901	-0.889402957052213	0	0	0.0579431763404653	-0.0287592174612627	0	0
0	0	0.77610626338027	0.431964473137325	0	0	0.0667180087209106	0.0466029341427939
2.4	0.00947848900748311	-0.0134661809478722	0	0	0.877851179019322	0.398147655336448	0	0
0	0	-0.000578558730784445	0.00119498077489748	0	0	0.324297265512428	-0.867885122853057
0.877851179019322	0.398147655336448	0	0	-0.0968960777375087	0.0139713635418356	0	0
0	0	-0.039220712945265	0.882528245456419	0	0	0.0471197488571561	-0.0490878701236369
2.5	-0.0159648733693784	0.0106553257198137	0	0	0.415368640599966	-0.866463394587771	0	0
0	0	0.0192353633002614	-0.035976946524827	0	0	0.189321612828709	0.917761643406251
0.415368640599966	-0.866463394587771	0	0	-0.0101475307063602	-0.0269924424086888	0	0
0	0	0.805169801887681	-0.332092196208363	0	0	0.0126103152108951	-0.000679881420944582
2.6	0.0214861822680323	-0.00569613975733508	0	0	0.859696075282062	0.429661753249256	0	0
0	0	0.0180667833670208	-0.0388350722028127	0	0	0.667309164511137	0.653906547258323
0.859696075282062	0.429661753249256	0	0	0.00559510436800373	-0.0334609601604002	0	0
0	0	0.630707865609381	0.597552446301721	0	0	0.062649071556956	0.010188710890697
2.7	-0.0251108042422984	-0.00105534577581002	0	0	0.444388312172539	-0.854081409456607	0	0
0	0	0.0213305516261412	-0.00969851424408992	0	0	-0.898068489712787	-0.174393141186143
0.444388312172539	-0.854081409456607	0	0	0.00331051508509681	-0.0129785824267942	0	0
0	0	0.276126212828451	-0.835991200857421	0	0	-0.0273413098594706	-0.000904447078384978
2.8	0.0257112823279171	0.00875124451163249	0	0	0.844009964550046	0.457952847005646	0	0
0	0	0.00970738875491997	0.0123868288333701	0	0	-0.843068435802516	0.312799409266788
0.844009964550046	0.457952847005646	0	0	0.00417021888725354	0.0639129576143673	0	0
0	0	0.872409877660539	-0.150241971372201	0	0	0.0262676910653148	-0.0639055510337363
2.9	-0.0226823524027577	-0.0164900862915688	0	0	0.47409830079004	-0.825310504903883	0	0
0	0	-0.000223491263711579	0.0363002443520567	0	0	0.567968803343993	-0.701637278174862
0.47409830079004	-0.825310504903883	0	0	-0.0536172874957506	0.0341270009873883	0	0
0	0	-0.515885397759011	-0.703488003757572	0	0	-0.0402016526529193	-0.0462311316660166
3	0.0168720118019414	0.0233927915564029	0	0	0.816835044757256	0.498329119596501	0	0
0	0	-0.0110649115266437	0.0291896664599285	0	0	0.091451714680371	-0.92155087134358
0.816835044757256	0.498329119596501	0	0	-0.00688362085369266	-0.017788046452179	0	0
0	0	0.406876914893863	-0.761894822966343	0	0	0.0137861665562219	0.0861090013462014
3.1	-0.00847516511895698	-0.027622078171223	0	0	0.519045743902847	-0.8070396274894	0	0
0	0	-0.0202510548300081	0.0122309674963918	0	0	0.449426917961534	0.807582303185774
0.519045743902847	-0.8070396274894	0	0	0.0387048633271871	-0.0647347063469196	0	0
0	0	-0.870672697504896	-0.0496339711791163	0	0	-0.0755755060554544	0.00642499556177071
3.2	-0.00102940225545881	0.0292923797457661	0	0	0.805791955804849	0.542715555358848	0	0
0	0	-0.0178228631643522	-0.00587227743499411	0	0	0.799755248628204	0.437153125383962
0.805791955804849	0.542715555358848	0	0	0.000715676951961317	0.025349270736217	0	0
0	0	-0.338717717752599	-0.815016497886825	0	0	-0.0593557420199401	0.00707122528259287
3.3	0.0102616046136653	-0.0270637085838533	0	0	0.553851764077803	-0.801861294584537	0	0
0	0	-0.00131243572648982	-0.0236059520265902	0	0	-0.906238606188132	0.0514576328073498
0.553851764077803	-0.801861294584537	0	0	0.0622576284517485	0.0242668531114155	0	0
0	0	-0.574799921843761	0.677241583767702	0	0	-0.0276849270862459	-0.107110677879372
3.4	-0.0179250573364223	0.0211688290920568	0	0	0.785322381229877	0.558357921302086	0	0
0	0	-0.00449578492818474	-0.0402477243911612	0	0	-0.732916935886323	0.544935723106645
0.785322381229877	0.558357921302086	0	0	-0.115291171970516	0.00917220683216487	0	0
0	0	-0.858228247680051	-0.221199963640003	0	0	-0.019712448100913	-0.0397748616983329
3.5	0.0232178833042849	-0.013406365355931	0	0	0.57257741291557	-0.776124617407791	0	0
0	0	0.00774972071449233	-0.0301406648293256	0	0	0.295696063388187	-0.870450856709159
0.57257741291557	-0.776124617407791	0	0	-0.0123908396930946	-0.0536818346141054	0	0
0	0	0.169578545980854	0.843666227154652	0	0	0.0848409708204474	-0.0730241592636891
3.6	-0.025137267479241	0.00463193391384838	0	0	0.768946529083769	0.582002640678727	0	0
0	0	0.0193372827875585	0.00246023379145474	0	0	-0.212157490638034	-0.894262328555269
0.768946529083769	0.582002640678727	0	0	-0.0340507905505448	0.0607135065397946	0	0
0	0	-0.691763847979506	0.522508023460137	0	0	0.0446361306480158	-0.0318358503952237
3.7	0.0231495229903783	0.00476253175698571	0	0	0.600628479971524	-0.748503685069516	0	0
0	0	0.0136789806799961	0.0361351487402957	0	0	0.641236512194014	0.646891349531985
0.600628479971524	-0.748503685069516	0	0	0.118428269121188	0.00673310698528591	0	0
0	0	0.771765220255894	0.40714597911794	0	0	0.0553488821893218	-0.0193820761677448
3.8	-0.018153507823131	-0.0125156400573785	0	0	0.741927695991417	0.619005637127908	0	0
0	0	0.0150028932056209	0.0503109705011797	0	0	0.870950257645031	0.183665969037133
0.741927695991417	0.619005637127908	0	0	-0.0251933148672698	0.0209839189318388	0	0
0	0	-0.0131943344374593	0.870672300698773	0	0	-0.0583821221456377	-0.0248769604763823
3.9	0.0109822988722617	0.0172569752679471	0	0	0.623481879680032	-0.740691472229972	0	0
0	0	0.010915699250323	0.0154242934597036	0	0	-0.821903031016744	0.329558227673949
0.623481879680032	-0.740691472229972	0	0	-0.0129256873874492	0.0832227013808077	0	0
0	0	0.780577132057148	-0.387230672453813	0	0	0.024725231510612	-0.0058153673487049
4	-0.00220807829372401	-0.0187096867086329	0	0	0.72244420654468	0.631737253441772	0	0
0	0	-0.0168734577490956	-0.0124219854229884	0	0	-0.512967617743603	0.724650265703807
0.72244420654468	0.631737253441772	0	0	0.0504652367800553	-0.0742928067695912	0	0
0	0	0.684167716865875	0.513026967298859	0	0	-0.00468665001752746	0.00955743628296354
4.1	-0.00587447129244716	0.0167327256726783	0	0	0.637377257492914	-0.709017667572983	0	0
0	0	-0.0416139847773828	-0.0354318151876578	0	0	0.0526689187725578	-0.889769040336022
0.637377257492914	-0.709017667572983	0	0	0.0244475372483589	-0.111559138691309	0	0
0	0	0.181372202258234	-0.826669782995423	0	0	0.0265584132386747	0.081401562042815
4.2	0.0123266744599368	-0.0120324584358336	0	0	0.703637062148138	0.648906133198674	0	0
0	0	-0.0489063740553042	-0.0153373980282888	0	0	-0.433754048727099	-0.777689137587721
0.703637062148138	0.648906133198674	0	0	-0.0398882959271476	0.0164703285227321	0	0
0	0	0.82882626224057	-0.185801841043246	0	0	-0.0119024762781019	-0.0411180847930366
4.3	-0.0160393576287859	0.00505036764929261	0	0	0.657995096205806	-0.69660466695836	0	0
0	0	-0.00737646630616029	0.00687280400486415	0	0	0.776676043877433	0.421542041529289
0.657995096205806	-0.69660466695836	0	0	-0.0108177091155395	0.067033273762959	0	0
0	0	-0.533924077306567	-0.670785960532767	0	0	-0.0143593107943062	0.00240228947787004
4.4	0.0161801074958736	0.00319247531746234	0	0	0.67948351372994	0.668008301846479	0	0
0	0	0.038055353431996	0.00447155118077426	0	0	0.885626577644187	-0.0543864242732943
0.67948351372994	0.668008301846479	0	0	0.00123989181775202	-0.0499436374624681	0	0
0	0	0.344216944400876	-0.770378767043732	0	0	-0.0334478928037735	0.00334447436190691
4.5	-0.0127083712202724	-0.0106361602681489	0	0	0.675078496701795	-0.661246906487605	0	0
0	0	0.0646060749979605	-0.00443912858859821	0	0	-0.720248646892097	0.522116288113126
0.675078496701795	-0.661246906487605	0	0	-0.0496297175576401	0.0264494635090644	0	0
0	0	-0.833092476536855	0.0116125956482162	0	0	-0.0856404472853473	0.0618254270644125
4.6	0.00629076325343814	0.0162391904753602	0	0	0.643374618311979	0.690295346513284	0	0
0	0	0.0465474342098527	-0.0249333079112051	0	0	-0.312511498857133	0.842551895367486
0.643374618311979	0.690295346513284	0	0	-0.00387295110460553	0.0138283201523133	0	0
0	0	-0.370880239685878	-0.743190416291879	0	0	-0.0798858018431685	-0.00954003440591222
4.7	0.00177189430471511	-0.018818859189829	0	0	0.708084652741619	-0.636715728864601	0	0
0	0	-0.0246700456674214	-0.00540720220869513	0	0	-0.190445249159847	-0.872655584468738
0.708084652741619	-0.636715728864601	0	0	0.0654978006244968	-0.0176068702649988	0	0
0	0	-0.523762242328235	0.654490694521847	0	0	-0.0730158166807244	0.0720875673136012
4.8	-0.0103671034781066	0.0179188979134297	0	0	0.637133461570676	0.724460551844862	0	0
0	0	-0.0587708815088411	0.0341859144767362	0	0	-0.606306469264602	-0.634481444905698
0.637133461570676	0.724460551844862	0	0	0.0529883592051491	-0.0183734631647139	0	0
0	0	-0.826816952100979	-0.197258997252088	0	0	-0.00916412826714798	0.0717576810710465
4.9	0.0179017653869141	-0.0127570293999176	0	0	0.730664843019937	-0.629443103564261	0	0
0	0	-0.0399170087918396	0.0584443804774325	0	0	0.853979845975198	0.207018062963225
0.730664843019937	-0.629443103564261	0	0	-0.0806926112948921	-0.0290115014698349	0	0
0	0	0.198915711944073	0.82095035464769	0	0	-0.0834653978612337	0.00385253907548387
5	-0.0225646503683324	0.00462833172943525	0	0	0.618745928481822	0.726206769035792	0	0
0	0	-0.00051572916505917	0.0201042174519393	0	0	0.830864287430589	-0.29840840914893
0.618745928481822	0.726206769035792	0	0	-0.0475721559505675	0.0406874010549356	0	0
0	0	-0.644998095620221	0.533905340453858	0	0	0.041452324815318	-0.00909353860178648
5.1	0.0240488004485468	0.00530128797150577	0	0	0.727499676505082	-0.606461942213135	0	0
0	0	0.0382694854641378	-0.0337865384644702	0	0	-0.533012881474036	0.695759487222749
0.727499676505082	-0.606461942213135	0	0	-0.0217255909991805	-0.0414286537706466	0	0
0	0	0.750085130586633	0.344544587582325	0	0	0.0724829735823697	-0.0197255035375626
5.2	-0.0216545067462448	-0.0164055124770196	0	0	0.584388028740199	0.74511742779336	0	0
0	0	0.0159238993806525	-0.0746489168636103	0	0	-0.0781626017550653	0.871816690740822
0.584388028740199	0.74511742779336	0	0	0.0382392684379015	0.0223693517568026	0	0
0	0	0.0157383468178067	0.832371042492935	0	0	0.0267578160909409	0.0664372827315022
5.3	0.0153887953947857	0.0260228460072062	0	0	0.763532491998227	-0.572556444072741	0	0
0	0	-0.0142807531628053	-0.0416310606211823	0	0	-0.412767035164902	-0.770641122573754
0.763532491998227	-0.572556444072741	0	0	-0.0320869698145361	0.0247773044577658	0	0
0	0	0.742667512894408	-0.374793023648863	0	0	-0.0434285888991457	0.0120406291060931
5.4	-0.00627684238804234	-0.0320438831506574	0	0	0.564433851024803	0.768447029448312	0	0
0	0	-0.0313194800256526	0.0144199977223863	0	0	-0.767421714074875	-0.427581428309031
0.564433851024803	0.768447029448312	0	0	0.0705539168809113	0.0874957195465012	0	0
0	0	0.657642032704304	0.509259790236725	0	0	-0.00944499134591227	0.0218898783106701
5.5	-0.00458530416938439	0.0344640027319904	0	0	0.779150735846664	-0.561774105500441	0	0
0	0	0.0233042869705444	0.0600107619408284	0	0	0.87691145049377	-0.0451181506357143
0.779150735846664	-0.561774105500441	0	0	-0.00658188257364972	-0.027634360362094	0	0
0	0	0.156994644292425	-0.816506278172716	0	0	0.0216159579609243	0.0384689487589826
5.6	0.0161721847034912	-0.0319082428347739	0	0	0.547642568007779	0.784643225094028	0	0
0	0	0.0424754465505756	0.0567726640943682	0	0	0.697300646523032	-0.508560427096705
0.547642568007779	0.784643225094028	0	0	0.00181043228291022	-0.109363150932649	0	0
0	0	0.799097598431567	-0.202548170804359	0	0	0.0111842879774053	0.117409914219764
5.7	-0.0269360736448864	0.0253174828488993	0	0	0.797600215369465	-0.539202456001214	0	0
0	0	0.020769344444703	-0.00676581234292853	0	0	-0.317169621659653	0.806894263573183
0.797600215369465	-0.539202456001214	0	0	-0.0118155285761128	0.0514815929775856	0	0
0	0	-0.535963744098021	-0.6480323494499	0	0	0.0585939395433113	0.0345081068780985
5.8	0.0337928843795159	-0.0147997015478834	0	0	0.521594517397437	0.797474865136154	0	0
0	0	-0.0219398063139378	-0.0311264020901811	0	0	0.155687496145918	0.85268423473987
0.521594517397437	0.797474865136154	0	0	0.0589368121744597	-0.0273819392042335	0	0
0	0	0.323364254688059	-0.770305691845748	0	0	0.0339882995316486	0.0555007214432134
5.9	-0.0368905984851224	0.00173541275788391	0	0	0.811247174113734	-0.498171928961238	0	0
0	0	-0.0560958221774888	-0.0265903442672698	0	0	-0.584879653764138	-0.636786284258515
0.811247174113734	-0.498171928961238	0	0	-0.0732050180753079	0.04334869047079	0	0
0	0	-0.826046703282888	0.0599674566203487	0	0	0.0374021736419553	0.0723560861511446
6	0.0355107885219476	0.0111984367360113	0	0	0.481938658569975	0.824654179442456	0	0
0	0	-0.0339846427216906	0.00597456635665805	0	0	-0.846878062395714	-0.194382231556865
