# GHZ S RI R 50
0.2	-0.0065191950318874	0.0105246049040462	0	0	0.957847506991624	0.0581886761840645	0	0
0	0	0.0201867205022721	0.00462693984795291	0	0	-0.370519868748015	0.911047832745129
0.957847506991624	0.0581886761840645	0	0	0.0211732533240916	0.0423421234204696	0	0
0	0	0.569688225097545	-0.753949231211949	0	0	0.00164448041612956	-0.0314469386544958
0.3	0.00686323088375043	-0.0100030867495253	0	0	0.0337389286039883	-0.965136472610635	0	0
0	0	-0.00535099468496775	0.00162119520567064	0	0	-0.134010998798911	-0.97422588088525
0.0337389286039883	-0.965136472610635	0	0	-0.0140421324574343	0.0045189966425536	0	0
0	0	-0.921984154513714	-0.202375572678412	0	0	-0.0325928187184458	-0.0173749886442692
0.4	-0.00880447977716613	0.00785926119503936	0	0	0.948550949535133	0.062380584398704	0	0
0	0	-0.0393988086900673	0.000799288395399151	0	0	-0.666854075886412	-0.726055556237946
0.948550949535133	0.062380584398704	0	0	-0.0342542468224572	-0.0140398218641783	0	0
0	0	-0.234828692532486	-0.895917842259495	0	0	0.0214597454859919	0.0197392779873509
0.5	0.0112272269504562	-0.00441629288806682	0	0	0.12826667376049	-0.948894074464068	0	0
0	0	-0.0329420352554276	0.00475426772378524	0	0	0.963992775591586	0.207727451871996
0.12826667376049	-0.948894074464068	0	0	0.0365889703684978	0.0166130259612817	0	0
0	0	-0.679104767487197	0.636336788903174	0	0	0.0049530002718515	0.00759522714422835
0.6	-0.0120505977987693	0.00149745257869258	0	0	0.955176730629601	0.132011173844169	0	0
0	0	-0.00831472356817119	0.00605779584509875	0	0	0.913194710664458	-0.328894442722416
0.955176730629601	0.132011173844169	0	0	0.00489279482697223	-0.0197452622913474	0	0
0	0	-0.861923469053029	-0.345586088784966	0	0	-0.00543422036907221	-0.00723665023114569
0.7	0.0117789194135533	0.00110743693134228	0	0	0.109870524654374	-0.958052035787971	0	0
0	0	0.0226605781958074	-0.0109278196682416	0	0	-0.612179493686396	0.748237615654902
0.109870524654374	-0.958052035787971	0	0	0.00804164703445506	0.00980115590305284	0	0
0	0	0.0450841393410747	0.920920916979374	0	0	0.00230783098162334	-0.0130065332026715
0.8	-0.0105374823482286	-0.00421600499576565	0	0	0.955818240841332	0.114630946099868	0	0
0	0	0.0442481246492203	-0.041698606388397	0	0	-0.121475579533853	0.961617738208405
0.955818240841332	0.114630946099868	0	0	-0.0226145703667405	0.0125914543850035	0	0
0	0	-0.812715786316825	0.448278465659387	0	0	0.00653783050297028	0.0833962866507937
0.9	0.00774085139605621	0.00700540626222605	0	0	0.146086039329843	-0.941026877684696	0	0
0	0	0.0132905632643643	-0.0275632169576264	0	0	-0.434326374229628	-0.867655714460625
0.146086039329843	-0.941026877684696	0	0	-0.0020193393855905	-0.0622036639221242	0	0
0	0	0.764690084273597	0.526526381172889	0	0	0.0363401465184536	0.0136617515990793
1	-0.00438697821726609	-0.00870306406709045	0	0	0.944261248352076	0.182687196746211	0	0
0	0	-0.0143509136984929	0.0119523516626098	0	0	-0.839594357805205	-0.482867882525617
0.944261248352076	0.182687196746211	0	0	0.00244057242372358	0.0420202069982978	0	0
0	0	-0.127176035793073	0.904212830631364	0	0	0.0030820583797064	0.00187310066187808
1.1	0.00102993834293299	0.00866302412381083	0	0	0.2024053313389	-0.951620426205879	0	0
0	0	-0.0116427253943857	0.0350296191959746	0	0	0.958656219327604	-0.0508015452614252
0.2024053313389	-0.951620426205879	0	0	0.0031242828675259	0.00181134214497193	0	0
0	0	0.871136909247084	-0.26058092991482	0	0	0.0084120475953166	0.0431858035750309
1.2	0.00161957923647703	-0.00701938430594466	0	0	0.961673680521051	0.203174162994489	0	0
0	0	0.00862629641660954	0.0643858975684327	0	0	0.77315560908225	-0.556245967728519
0.961673680521051	0.203174162994489	0	0	0.0534448993465181	-0.000364756953414373	0	0
0	0	0.615608299774085	0.673268064626786	0	0	0.00663245643489345	0.100472396977624
1.3	-0.00347925304422763	0.0037744762847711	0	0	0.205398711199598	-0.945665714862739	0	0
0	0	0.0160919900218263	0.0186573177232084	0	0	-0.355639723417373	0.885927069989129
0.205398711199598	-0.945665714862739	0	0	-0.0549346700474434	0.000844939196663952	0	0
0	0	0.322603585693207	-0.86187871399262	0	0	0.040081260682278	0.0149459435003501
1.4	0.00414818939244831	-2.2186978266927E-05	0	0	0.927572301877647	0.233268322990272	0	0
0	0	-0.0132622499824257	-0.0441284632443373	0	0	0.181003729217534	0.939889581497834
0.927572301877647	0.233268322990272	0	0	0.0169181497541376	0.00838385026358055	0	0
0	0	0.901306552424283	-0.0851330506063891	0	0	0.0443820746086201	-0.00612325070984281
1.5	-0.00322772506248428	-0.00302209568764454	0	0	0.270320439727289	-0.925645826189181	0	0
0	0	-0.038138657119526	-0.0567656272114698	0	0	-0.677545969502992	-0.676252403621681
0.270320439727289	-0.925645826189181	0	0	0.0328099832244639	-0.032781271177716	0	0
0	0	-0.463853621905509	-0.768872476050444	0	0	0.0332391529353977	0.0527919358391038
1.6	0.00109952278578504	0.00476441061497668	0	0	0.94045514796791	0.293761106536845	0	0
0	0	-0.0361337813272414	-0.0200580964910521	0	0	-0.939538125386041	-0.182382570140018
0.94045514796791	0.293761106536845	0	0	-0.0520786173044092	-0.0265062376285071	0	0
0	0	0.497208473685526	-0.756771222651334	0	0	0.000955614816461579	0.0532186932851464
1.7	0.00165758189966288	-0.0048607740535195	0	0	0.288193066283507	-0.945672447158667	0	0
0	0	0.0157233316853017	0.00590195539951985	0	0	0.885801822603907	-0.346190832944819
0.288193066283507	-0.945672447158667	0	0	-0.0011865142311588	0.00556422107233831	0	0
0	0	-0.90242498582076	-0.109427571228911	0	0	0.0399029019372125	-0.0303880380028547
1.8	-0.00429392470259146	0.00317887201188895	0	0	0.919408436731742	0.28910371695576	0	0
0	0	0.0456335467397859	0.0376970920655976	0	0	0.572484335846327	-0.748177394191802
0.919408436731742	0.28910371695576	0	0	0.00670923544549142	0.065562079218134	0	0
0	0	-0.312501928105927	-0.849735044037845	0	0	0.0274605031036785	-0.0339101403070598
1.9	0.0062033277359093	-4.50744480343648E-05	0	0	0.318280292841616	-0.895572080059424	0	0
0	0	0.0529826894731128	-0.00397420172463015	0	0	-0.0813838698814436	0.942439292941128
0.318280292841616	-0.895572080059424	0	0	0.00966534442812039	0.00907449564085163	0	0
0	0	-0.614151148956105	0.647489707681962	0	0	0.0410979579446637	0.0236455433278557
2	-0.00663745643881208	-0.00401192756328295	0	0	0.892064775655514	0.348688354354968	0	0
0	0	0.0153166144758328	-0.00504174557656052	0	0	0.459009778563959	0.832489210552728
0.892064775655514	0.348688354354968	0	0	-0.0500682686539097	-0.0330099688557833	0	0
0	0	-0.845116872018014	-0.262473101937681	0	0	-0.0531041311228471	-0.0209171359961908
2.1	0.0053245228054885	0.00820046673997894	0	0	0.363664875811447	-0.898482292696558	0	0
0	0	-0.0289840586441049	0.00795030220599595	0	0	-0.830727669462317	-0.451017169202108
0.363664875811447	-0.898482292696558	0	0	0.0705599667325452	0.0163341819382907	0	0
0	0	0.136486934931299	0.879117143292692	0	0	-0.00502208756808046	0.00980655247078112
2.2	-0.00187900791466703	-0.0118044061030221	0	0	0.898655110332603	0.375850179503667	0	0
0	0	-0.0480369532258356	0.0173937257106288	0	0	-0.931981769531199	0.0693513856774835
0.898655110332603	0.375850179503667	0	0	0.0145830051977283	-0.0107983235411573	0	0
0	0	-0.736596650912023	0.506591046390128	0	0	0.0425262394528823	-0.011217974397864
2.3	-0.00331357126485397	0.0137383437507927	0	0	0.385974582951416	-0.889422064976663	0	0
0	0	-0.0304262377785086	0.0195096276119263	0	0	0.736431102951482	-0.555626901766628
0.385974582951416	-0.889422064976663	0	0	0.0579552743928268	-0.0287481563181805	0	0
0	0	0.77612383353136	0.431977607571417	0	0	0.0667299690301225	0.0466174853284336
2.4	0.00951339230095057	-0.0134773903465279	0	0	0.877867450616162	0.39816344987619	0	0
0	0	-0.000554046571704727	0.00117381934503507	0	0	0.324306761747057	-0.86790304275816
0.877867450616162	0.39816344987619	0	0	-0.0968843762756225	0.0139824656688145	0	0
0	0	-0.039224062853089	0.882547290303201	0	0	0.0471373002065483	-0.0490790017389375
2.5	-0.0160051602567727	0.0106774063033378	0	0	0.415382539628428	-0.866480835860113	0	0
0	0	0.0192733240479474	-0.0359920475877155	0	0	0.189321167917669	0.917784508917302
0.415382539628428	-0.866480835860113	0	0	-0.0101246211163779	-0.0269871527618474	0	0
0	0	0.805190757742051	-0.332095756863309	0	0	0.0126328001638151	-0.000674328241655752
2.6	0.0215227037266259	-0.00572822407845405	0	0	0.859714162948307	0.429676732701136	0	0
0	0	0.0181097571820596	-0.0388383404933989	0	0	0.667324334213089	0.653925605800214
0.859714162948307	0.429676732701136	0	0	0.00562210199523345	-0.03346288855641	0	0
0	0	0.630722268947745	0.597569929393153	0	0	0.0626773936176843	0.0101881516750707
2.7	-0.0251409837782869	-0.00102064838530002	0	0	0.44440568464343	-0.854101872997599	0	0
0	0	0.0213692044761493	-0.00968645505563895	0	0	-0.898092314135523	-0.17440531333338
0.44440568464343	-0.854101872997599	0	0	0.00333700300606834	-0.0129855356999278	0	0
0	0	0.276140741126614	-0.836012457135699	0	0	-0.0273176109245275	-0.000912537616599445
2.8	0.0257389752235733	0.00871769989863162	0	0	0.844035991951997	0.457972520497464	0	0
0	0	0.00973487524397333	0.0124133839838667	0	0	-0.843093565373325	0.312802910610027
0.844035991951997	0.457972520497464	0	0	0.00419404127910914	0.0639064095854952	0	0
0	0	0.872434828931084	-0.15024081533227	0	0	0.0262935783319503	-0.0639208170277189
2.9	-0.0227095041801742	-0.016455584459125	0	0	0.474121925518318	-0.825337333994608	0	0
0	0	-0.000210605538596458	0.0363362580143085	0	0	0.567992983038225	-0.701655942001293
0.474121925518318	-0.825337333994608	0	0	-0.0535992577832775	0.0341149943182121	0	0
0	0	-0.515896887528111	-0.703515194300586	0	0	-0.0401809153802122	-0.0462483575155743
3	0.016893774834281	0.0233571227659416	0	0	0.816863529094498	0.498351524685573	0	0
0	0	-0.0110657945059494	0.0292261649089958	0	0	0.0914560198778904	-0.921588498446575
0.816863529094498	0.498351524685573	0	0	-0.00686702743995943	-0.0178050665305214	0	0
0	0	0.406894020182378	-0.761925727952773	0	0	0.0138045148298035	0.0861001740785145
3.1	-0.00848776269609633	-0.0275913862882244	0	0	0.519066973127936	-0.807070623521357	0	0
0	0	-0.0202612717218306	0.0122581835273034	0	0	0.449444889517587	0.807618636231815
0.519066973127936	-0.807070623521357	0	0	0.0387171885953144	-0.0647550525477763	0	0
0	0	-0.870710733605297	-0.0496379961035622	0	0	-0.0755725377020022	0.00641022140448459
3.2	-0.00101971446692484	0.0292744503102139	0	0	0.805830785890946	0.542736939960696	0	0
0	0	-0.0178371968154922	-0.00586278206815837	0	0	0.799793236775685	0.437171186891848
0.805830785890946	0.542736939960696	0	0	0.000717157144980165	0.0253395773457592	0	0
0	0	-0.338735445929412	-0.815053170095962	0	0	-0.0593600658392919	0.00706069828164263
3.3	0.0102464757010011	-0.0270566440983898	0	0	0.553870275324915	-0.801905427925755	0	0
0	0	-0.00132416788822742	-0.0236136960093907	0	0	-0.90627994852652	0.051467235756777
0.553870275324915	-0.801905427925755	0	0	0.0622619788433873	0.0242617954747774	0	0
0	0	-0.574820999850433	0.677277373349761	0	0	-0.0276918222641533	-0.107125890114366
3.4	-0.0179015608758592	0.0211652665467334	0	0	0.78536771090222	0.558375758090841	0	0
0	0	-0.00449974187941803	-0.0402680661381232	0	0	-0.732944702174426	0.544972666867237
0.78536771090222	0.558375758090841	0	0	-0.115303913960834	0.00917563120655572	0	0
0	0	-0.85827306788618	-0.221198408012752	0	0	-0.0197177809164109	-0.0397781862699416
3.5	0.0231907884745062	-0.0134007575054634	0	0	0.572588463731019	-0.776174282945201	0	0
0	0	0.00775505446587827	-0.0301636645318259	0	0	0.295689112093993	-0.870499708263717
0.572588463731019	-0.776174282945201	0	0	-0.0123927821015769	-0.0536830586528179	0	0
0	0	0.169607126702274	0.843702512269781	0	0	0.0848474503352833	-0.0730318933841933
3.6	-0.0251122833554727	0.00462813609745236	0	0	0.769001181143101	0.582010836894564	0	0
0	0	0.0193530518710299	0.00244530358556605	0	0	-0.212194072041123	-0.894299290292117
0.769001181143101	0.582010836894564	0	0	-0.0340469348283678	0.0607234327686436	0	0
0	0	-0.691781887604346	0.522553637877061	0	0	0.0446416313575484	-0.0318390135144385
3.7	0.0231249974596054	0.00475646996699381	0	0	0.600628972631622	-0.748562501772844	0	0
0	0	0.0137003464164773	0.0361385583216062	0	0	0.641290071598328	0.64689829240249
0.600628972631622	-0.748562501772844	0	0	0.118444590132226	0.00672477668720021	0	0
0	0	0.77181616412903	0.407136949082005	0	0	0.0553564382285948	-0.0193877154644518
3.8	-0.0181193264116805	-0.012498987589491	0	0	0.741984289668745	0.619002666998398	0	0
0	0	0.0150233709332125	0.0503345600428946	0	0	0.870992995785911	0.183638899576684
0.741984289668745	0.619002666998398	0	0	-0.0251904067230261	0.0209848398987647	0	0
0	0	-0.0131603367407421	0.870708265851519	0	0	-0.0583863723868848	-0.0248769161321006
3.9	0.0109322937201246	0.017240550702572	0	0	0.623475723964148	-0.740749775086789	0	0
0	0	0.0109304244386985	0.0154645610076916	0	0	-0.82191893116691	0.329610004025522
0.623475723964148	-0.740749775086789	0	0	-0.0129183068170853	0.0832255095598925	0	0
0	0	0.780588699686264	-0.387282698365505	0	0	0.024726834611911	-0.00582282677091718
4	-0.00215002227580599	-0.0187023516091984	0	0	0.7224997256944	0.631715766718032	0	0
0	0	-0.0168712599049659	-0.0123742518028432	0	0	-0.512948409260941	0.724699684728143
0.7224997256944	0.631715766718032	0	0	0.0504583725469129	-0.0743088092128717	0	0
0	0	0.684215805706145	0.513009777559252	0	0	-0.00468867766434415	0.00955283387675926
4.1	-0.00593028489923631	0.0167335627702561	0	0	0.637350454862844	-0.709067133490142	0	0
0	0	-0.0416308506285755	-0.0353890974247433	0	0	0.0526224720085427	-0.889799945281061
0.637350454862844	-0.709067133490142	0	0	0.0244316662708452	-0.111572468436079	0	0
0	0	0.181333225539913	-0.826705656882947	0	0	0.0265632490376209	0.081398446025922
4.2	0.0123789863635128	-0.0120327062677391	0	0	0.703686108764038	0.648882688450927	0	0
0	0	-0.0489410290875947	-0.0153117354762418	0	0	-0.433803789442911	-0.777679882967885
0.703686108764038	0.648882688450927	0	0	-0.0398937771293346	0.0164724159442412	0	0
0	0	0.828831286171805	-0.185849839316396	0	0	-0.0119137638764777	-0.0411206408766869
4.3	-0.0160960790806031	0.00504543158046748	0	0	0.657969801743856	-0.696653156383817	0	0
0	0	-0.00742388530614081	0.00687407246872165	0	0	0.776710171649337	0.421506372522857
0.657969801743856	-0.696653156383817	0	0	-0.0108144941374918	0.0670384229664064	0	0
0	0	-0.533968073066757	-0.670767036074104	0	0	-0.0143634699923961	0.00240517289027589
4.4	0.0162453760709741	0.00319627892580998	0	0	0.679524167107437	0.667975040561089	0	0
0	0	0.03800607419615	0.00444847625400539	0	0	0.885632327044255	-0.0544325966465281
0.679524167107437	0.667975040561089	0	0	0.00123721885722015	-0.0499407516309321	0	0
0	0	0.344180561513449	-0.770403948383953	0	0	-0.0334458004541128	0.00335135417601437
4.5	-0.0127770628648083	-0.0106302690135415	0	0	0.675051165720083	-0.661285412151281	0	0
0	0	0.0645669711033967	-0.00448167954210543	0	0	-0.720232415067653	0.522155383342164
0.675051165720083	-0.661285412151281	0	0	-0.0496166641975676	0.0264566680311718	0	0
0	0	-0.833101120160243	0.0116512884958912	0	0	-0.0856252060436575	0.0618361062253202
4.6	0.00635260365468199	0.0162239946006645	0	0	0.643412204546475	0.690265068502555	0	0
0	0	0.0465259697347889	-0.0249820226866084	0	0	-0.312474527166301	0.842569094181024
0.643412204546475	0.690265068502555	0	0	-0.0038542945206324	0.0138230095325568	0	0
0	0	-0.37091520257483	-0.743176344303009	0	0	-0.079869872761079	-0.00953819979316146
4.7	0.00172046657385234	-0.0188032514904494	0	0	0.708049999863785	-0.63675184023595	0	0
0	0	-0.0246672043743622	-0.00545132930526927	0	0	-0.19048738320671	-0.872652086660564
0.708049999863785	-0.63675184023595	0	0	0.0655154951628389	-0.0176280046294466	0	0
0	0	-0.523734796046241	0.654519349531567	0	0	-0.0729897119094831	0.0720805695765705
4.8	-0.0103204277032152	0.0179115934037412	0	0	0.63716903194694	0.724426719830522	0	0
0	0	-0.0587441310189726	0.0341586888996566	0	0	-0.606339386847415	-0.634454389963197
0.63716903194694	0.724426719830522	0	0	0.0530054177769249	-0.0183999752470378	0	0
0	0	-0.826829500345739	-0.197219680791591	0	0	-0.00913861857447145	0.0717376672235798
4.9	0.0178525982161545	-0.0127543881582212	0	0	0.730636402923094	-0.629474353442815	0	0
0	0	-0.0398780733853717	0.0584369167024996	0	0	0.853989419263134	0.20698111588854
0.730636402923094	-0.629474353442815	0	0	-0.0806801862230941	-0.0290301419829212	0	0
0	0	0.198951501442066	0.820942275730898	0	0	-0.0834503981157366	0.00383396382026312
5	-0.0225169153548482	0.0046224785459174	0	0	0.618781720382705	0.726179105246392	0	0
0	0	-0.000477700942609549	0.0201144903039421	0	0	0.830847978413817	-0.298450165424585
0.618781720382705	0.726179105246392	0	0	-0.0475587782072506	0.0406626610250833	0	0
0	0	-0.644970093041135	0.533937332985822	0	0	0.0414607133423521	-0.00912716588162952
5.1	0.0240108646139398	0.00530621635930733	0	0	0.727467938062114	-0.606496985584844	0	0
0	0	0.0382915773480591	-0.0337644524499286	0	0	-0.532974349434528	0.695786586281674
0.727467938062114	-0.606496985584844	0	0	-0.0217278347874272	-0.041457506782909	0	0
0	0	0.750101989414695	0.344503551205625	0	0	0.0724825368133668	-0.0197643055068969
5.2	-0.0216240770805844	-0.0163962439740647	0	0	0.584429355648563	0.745084341600351	0	0
0	0	0.0159205869682718	-0.0746227561074761	0	0	-0.0781145849654534	0.871822137855935
0.584429355648563	0.745084341600351	0	0	0.0382338359111666	0.0223358851913431	0	0
0	0	0.0157843085148575	0.832371255645692	0	0	0.0267572362877884	0.0664050886596276
5.3	0.0153519430259996	0.0259961194937614	0	0	0.763497858888479	-0.572598439020446	0	0
0	0	-0.014310561352059	-0.0416096240268032	0	0	-0.412809317400173	-0.77061542616928
0.763497858888479	-0.572598439020446	0	0	-0.0320998848047924	0.0247588784488382	0	0
0	0	0.742644048538564	-0.374833841769198	0	0	-0.0434430147185143	0.0120235518828079
5.4	-0.00622408312800534	-0.032012893841569	0	0	0.56448560721907	0.768409273275589	0	0
0	0	-0.0313680764806103	0.0144289923260272	0	0	-0.767444834322927	-0.427531044641538
0.56448560721907	0.768409273275589	0	0	0.0705467989274055	0.0874736073611334	0	0
0	0	0.657670831866108	0.509215910591929	0	0	-0.00946045109919313	0.0218785765748173
5.5	-0.00464792570267565	0.0344426877482198	0	0	0.779101616658062	-0.561819863863974	0	0
0	0	0.0232523469661879	0.0600034918381733	0	0	0.876900751609739	-0.045179677394265
0.779101616658062	-0.561819863863974	0	0	-0.00659938470188689	-0.027638700708674	0	0
0	0	0.156935650670301	-0.816510366781758	0	0	0.0216067552626711	0.0384592968074038
5.6	0.0162269706839571	-0.0318959868843102	0	0	0.547686067575091	0.784583586494343	0	0
0	0	0.0424383982735344	0.0567497176067756	0	0	0.697254450316815	-0.508607335053504
0.547686067575091	0.784583586494343	0	0	0.00178630521090299	-0.109365865648456	0	0
0	0	0.799073349820336	-0.202606193068981	0	0	0.011193156139693	0.117397618687001
5.7	-0.0269764075893356	0.0252984996758621	0	0	0.7975390157021	-0.539250681878379	0	0
0	0	0.0207604443827674	-0.00679960686890343	0	0	-0.317096716081092	0.806899417196796
0.7975390157021	-0.539250681878379	0	0	-0.0118140328686808	0.0514656596481675	0	0
0	0	-0.536002346637272	-0.647972888639653	0	0	0.0585889642687272	0.0344818849294201
5.8	0.0338283269911803	-0.0147611284479678	0	0	0.521641999948213	0.797401406799184	0	0
0	0	-0.021915100886742	-0.0311600376104547	0	0	0.155751006147971	0.852643167187776
0.521641999948213	0.797401406799184	0	0	0.0589117418000324	-0.0274130403437958	0	0
0	0	0.323291360111715	-0.770305986290256	0	0	0.0339784595557249	0.0554678438316996
5.9	-0.0369385236342772	0.00167719650643877	0	0	0.811171930703518	-0.498207912414706	0	0
0	0	-0.0560409937698758	-0.0266135445349104	0	0	-0.584906826510903	-0.63671234258782
0.811171930703518	-0.498207912414706	0	0	-0.0732242492535118	0.0433307581943885	0	0
0	0	-0.826007380046019	0.0600318600571493	0	0	0.0373774431734162	0.0723185218643202
6	0.0355807308762445	0.0112608665150465	0	0	0.481974919378737	0.824568767697761	0	0
0	0	-0.0339118139008319	0.00596975789307256	0	0	-0.846843835633001	-0.194312733795409
0.481974919378737	0.824568767697761	0	0	-0.00312005280028055	0.0237318052213875	0	0
