# GHZ S RI R 50
0.2	-0.00651918684896085	0.0105245614686017	0	0	0.957847543462937	0.0581887998312332	0	0
0	0	0.0201867689278202	0.00462692476106781	0	0	-0.370520000376506	0.911047835108703
0.957847543462937	0.0581887998312332	0	0	0.021173210320897	0.0423421743864172	0	0
0	0	0.569688347877474	-0.753949200793368	0	0	0.00164446565460703	-0.0314469017709661
0.3	0.00686323498508413	-0.0100030541156977	0	0	0.033739109069576	-0.965136562564013	0	0
0	0	-0.00535095682904119	0.0016211996443927	0	0	-0.134010838311582	-0.97422601107719
0.033739109069576	-0.965136562564013	0	0	-0.0140421664825083	0.00451902184125219	0	0
0	0	-0.921984218561955	-0.202375760414762	0	0	-0.0325928372588541	-0.0173749771557429
0.4	-0.00880448937972167	0.00785923832899723	0	0	0.94855110143536	0.0623808160150065	0	0
0	0	-0.0393987805284534	0.000799299757883594	0	0	-0.666854038221411	-0.726055840913351
0.94855110143536	0.0623808160150065	0	0	-0.034254282902296	-0.0140398191542766	0	0
0	0	-0.234828536191342	-0.895918062124032	0	0	0.021459728107685	0.0197393136480885
0.5	0.0112272415312574	-0.00441628063053855	0	0	0.128266964073996	-0.948894295329231	0	0
0	0	-0.0329420171485046	0.00475427973660353	0	0	0.963992995668219	0.207727760396077
0.128266964073996	-0.948894295329231	0	0	0.0365889468062228	0.016613072468865	0	0
0	0	-0.67910512510788	0.636336793893167	0	0	0.00495298417748273	0.0075952438940716
0.6	-0.0120506156458264	0.0014974567518531	0	0	0.955177056974102	0.132011507113243	0	0
0	0	-0.00831471819246424	0.00605780272452161	0	0	0.913195169543428	-0.328894318437463
0.955177056974102	0.132011507113243	0	0	0.00489276774248805	-0.0197452644226916	0	0
0	0	-0.861923718043924	-0.345586469424521	0	0	-0.00543423677669131	-0.00723665931783138
0.7	0.0117789322952666	0.00110740785905513	0	0	0.109870875756498	-0.958052490241613	0	0
0	0	0.0226605748107506	-0.0109278295370661	0	0	-0.612180036495538	0.748237845057323
0.109870875756498	-0.958052490241613	0	0	0.00804159349585712	0.00980116846402509	0	0
0	0	0.0450839018310517	0.920921426352773	0	0	0.00230782599556272	-0.0130065629397006
0.8	-0.0105374759112483	-0.00421594852137172	0	0	0.955818827541975	0.114631310918007	0	0
0	0	0.0442481217239987	-0.0416986461355392	0	0	-0.121475925245996	0.96161837238099
0.955818827541975	0.114631310918007	0	0	-0.0226146847347609	0.0125914342874994	0	0
0	0	-0.81271647207251	0.448278555739638	0	0	0.00653777891206823	0.0833963640987867
0.9	0.00774081436025149	0.00700531630463334	0	0	0.146086423606208	-0.941027594151367	0	0
0	0	0.0132905766672432	-0.02756330246718	0	0	-0.434326556987442	-0.867656571933248
0.146086423606208	-0.941027594151367	0	0	-0.00201941825182378	-0.0622038246562769	0	0
0	0	0.764690633440873	0.526527015349202	0	0	0.0363401952008798	0.0136617086950807
1	-0.00438688404143709	-0.00870292967092881	0	0	0.944262096213996	0.182687619835968	0	0
0	0	-0.0143508536707564	0.011952202908112	0	0	-0.839595181684167	-0.482868526214428
0.944262096213996	0.182687619835968	0	0	0.00244038924223845	0.0420201617145434	0	0
0	0	-0.127176309172175	0.904213777643595	0	0	0.00308207044223232	0.00187295726028624
1.1	0.00102974975224758	0.00866283835502388	0	0	0.202405758160998	-0.951621431000224	0	0
0	0	-0.0116425477253265	0.0350294109407476	0	0	0.958657465837249	-0.0508015594317498
0.202405758160998	-0.951621431000224	0	0	0.00312405538761261	0.00181109912822222	0	0
0	0	0.871138053530596	-0.260581220978039	0	0	0.00841211314580325	0.0431856745076809
1.2	0.00161995250067071	-0.0070180121026406	0	0	0.961673782878227	0.203174225068806	0	0
0	0	0.00862896844980508	0.0643856664961961	0	0	0.773157992740897	-0.556247255353174
0.961673782878227	0.203174225068806	0	0	0.0534448808268343	-0.000367450744249403	0	0
0	0	0.615609791237283	0.673270188118076	0	0	0.00663419723830802	0.100472376455048
1.3	-0.0034801831264302	0.00377270845365077	0	0	0.205398513900444	-0.945665746615601	0	0
0	0	0.0160952595793449	0.018658304177121	0	0	-0.355640805681687	0.885929982522326
0.205398513900444	-0.945665746615601	0	0	-0.0549340739998541	0.000841340590661748	0	0
0	0	0.322604562501977	-0.861881545489819	0	0	0.0400837634138384	0.0149454587997618
1.4	0.00414981185323342	-2.05527977870684E-05	0	0	0.927572854008237	0.233268254474045	0	0
0	0	-0.0132594587286067	-0.0441263914328777	0	0	0.18100468829495	0.939892501672195
0.927572854008237	0.233268254474045	0	0	0.0169191885948224	0.00837979907554328	0	0
0	0	0.901309388717924	-0.0851336886030279	0	0	0.0443845327608092	-0.00612406143131554
1.5	-0.00322764714468032	-0.00302112954792997	0	0	0.270320965564638	-0.925647980099525	0	0
0	0	-0.0381375597424543	-0.0567670833323592	0	0	-0.677547649021218	-0.676252844462123
0.270320965564638	-0.925647980099525	0	0	0.0328094382967754	-0.0327801581063281	0	0
0	0	-0.463855051151414	-0.768873257236968	0	0	0.0332386577926822	0.0527925624945683
1.6	0.00110081671277984	0.00476555376834565	0	0	0.940456173670889	0.293761092069896	0	0
0	0	-0.0361329760928421	-0.0200555114958784	0	0	-0.939541493703775	-0.182382267707112
0.940456173670889	0.293761092069896	0	0	-0.0520783324081665	-0.0265091177911421	0	0
0	0	0.497209419253602	-0.756774279337569	0	0	0.000957807893133961	0.0532186328010331
1.7	0.00165641718487319	-0.00486145126691702	0	0	0.288192985299602	-0.945674113208231	0	0
0	0	0.015722916190492	0.00590394403560667	0	0	0.885804072355112	-0.346193092890209
0.288192985299602	-0.945674113208231	0	0	-0.00118596833338806	0.00556219998428906	0	0
0	0	-0.9024279026455	-0.109426686755221	0	0	0.0399048704765708	-0.0303887503964388
1.8	-0.00429380243507692	0.00317842463898498	0	0	0.919411283377912	0.289103399527186	0	0
0	0	0.045633883530998	0.0376972589838072	0	0	0.572484784703914	-0.748179781498075
0.919411283377912	0.289103399527186	0	0	0.0067093559773027	0.0655625594329978	0	0
0	0	-0.31250363449897	-0.849736637193929	0	0	0.0274603350301415	-0.0339104802901217
1.9	0.00620321868744707	-4.47606469507202E-05	0	0	0.318279833999129	-0.895575061411616	0	0
0	0	0.0529828535334822	-0.00397398814549877	0	0	-0.0813826800206626	0.942441766701047
0.318279833999129	-0.895575061411616	0	0	0.0096654078832744	0.00907460303273981	0	0
0	0	-0.614151725510033	0.647492232418206	0	0	0.0410980962546716	0.0236454586815258
2	-0.0066373590319609	-0.00401215618438023	0	0	0.892067994474597	0.348687742620036	0	0
0	0	0.0153166889926365	-0.00504154342516319	0	0	0.459012504450056	0.832490607036087
0.892067994474597	0.348687742620036	0	0	-0.0500686801135621	-0.0330099079600736	0	0
0	0	-0.845119602143456	-0.262472280306925	0	0	-0.0531045839378107	-0.0209171258622724
2.1	0.00532442862879772	0.00820061185724629	0	0	0.363663984423476	-0.898485779033145	0	0
0	0	-0.0289840348072213	0.00795046282813617	0	0	-0.830730952241394	-0.451016615012928
0.363663984423476	-0.898485779033145	0	0	0.0705604713085364	0.0163340254311501	0	0
0	0	0.1364892229907	0.879119284010729	0	0	-0.00502212221132908	0.0098065512585292
2.2	-0.00187887212746752	-0.0118044710570232	0	0	0.898658817759283	0.375849018461844	0	0
0	0	-0.0480369413935485	0.0173938374026477	0	0	-0.93198424964024	0.0693539690873957
0.898658817759283	0.375849018461844	0	0	0.014583070788386	-0.0107984366894287	0	0
0	0	-0.736597454634566	0.506594376490513	0	0	0.0425264382875818	-0.0112183628282962
2.3	-0.0033137936986739	0.0137383288605602	0	0	0.385973134114054	-0.889425954716502	0	0
0	0	-0.0304262098330156	0.0195096987466954	0	0	0.736431578176248	-0.555630711814495
0.385973134114054	-0.889425954716502	0	0	0.057955525684977	-0.0287486903786926	0	0
0	0	0.776127373436878	0.431976541734084	0	0	0.0667307501754295	0.0466172242140818
2.4	0.00951553557615887	-0.0134762955681046	0	0	0.8778703655108	0.3981625347238	0	0
0	0	-0.000554219602071767	0.00117210798312652	0	0	0.324303832502992	-0.867907375884734
0.8778703655108	0.3981625347238	0	0	-0.0968843653720111	0.0139816632291464	0	0
0	0	-0.0392201328196765	0.882550360403685	0	0	0.0471403405912033	-0.0490794367378536
2.5	-0.0160078803028574	0.0106766940969389	0	0	0.415381224112149	-0.866484287248636	0	0
0	0	0.0192738178916529	-0.0359936681630275	0	0	0.189326333825765	0.917786487080091
0.415381224112149	-0.866484287248636	0	0	-0.0101242828622795	-0.0269886034749648	0	0
0	0	0.805191667790681	-0.33210081708106	0	0	0.0126362659833899	-0.000673900549552889
2.6	0.0215258455152031	-0.00572823161981072	0	0	0.859718001608354	0.429674915943159	0	0
0	0	0.0181108532586018	-0.0388395733123155	0	0	0.667329725004474	0.653923936467187
0.859718001608354	0.429674915943159	0	0	0.00562277060769042	-0.0334644602920281	0	0
0	0	0.6307272551753	0.597568292808748	0	0	0.0626814456259285	0.0101883207397001
2.7	-0.0251439450080178	-0.00101979388044548	0	0	0.444403345256471	-0.854106066316136	0	0
0	0	0.0213706336394831	-0.00968716246814431	0	0	-0.898095729596111	-0.174400983898958
0.444403345256471	-0.854106066316136	0	0	0.00333813352335189	-0.0129867932646465	0	0
0	0	0.276137025328141	-0.83601624610678	0	0	-0.0273142383586729	-0.000911294259590793
2.8	0.0257411924002547	0.00871633314765458	0	0	0.844040613126316	0.457969711302974	0	0
0	0	0.00973624778196911	0.0124131235806759	0	0	-0.843093869907755	0.31280831085986
0.844040613126316	0.457969711302974	0	0	0.00419615760858005	0.0639062419243766	0	0
0	0	0.872436100188647	-0.150245986130234	0	0	0.0262963467967803	-0.0639200932876041
2.9	-0.0227095222302281	-0.0164542053099541	0	0	0.474117705747268	-0.825342333403403	0	0
0	0	-0.000211032018112994	0.0363366613448065	0	0	0.567990881050461	-0.701660410361788
0.474117705747268	-0.825342333403403	0	0	-0.053599357157742	0.0341156323795025	0	0
0	0	-0.515901580705962	-0.703514329857682	0	0	-0.0401831088007763	-0.0462480081777933
3	0.0168937054196408	0.0233548615544761	0	0	0.816868466028974	0.498346612717104	0	0
0	0	-0.0110665146003183	0.0292271327690723	0	0	0.0914514709430562	-0.921591297696202
0.816868466028974	0.498346612717104	0	0	-0.00686746546236198	-0.0178062780936416	0	0
0	0	0.406891095078509	-0.761929760377629	0	0	0.0138035698802027	0.0860999528889137
3.1	-0.00848837629951947	-0.0275907994732874	0	0	0.519062413910461	-0.807075452503114	0	0
0	0	-0.0202617570654592	0.0122582456800795	0	0	0.449450827359258	0.807617135595948
0.519062413910461	-0.807075452503114	0	0	0.0387164674921271	-0.0647560877472076	0	0
0	0	-0.870712536314479	-0.0496325053776022	0	0	-0.0755726167525478	0.00641098860393704
3.2	-0.00101940938533816	0.0292721162454712	0	0	0.805835752281852	0.542732161847056	0	0
0	0	-0.0178381399525588	-0.0058612548900708	0	0	0.799797402420189	0.437166124527834
0.805835752281852	0.542732161847056	0	0	0.000719236172515738	0.0253398005292805	0	0
0	0	-0.338741660757766	-0.815051874105677	0	0	-0.0593578094480191	0.00706125644304889
3.3	0.0102466208665216	-0.0270549911595615	0	0	0.553864999406314	-0.801910237299324	0	0
0	0	-0.00132505268566151	-0.0236128408472596	0	0	-0.906280237552011	0.0514739669998035
0.553864999406314	-0.801910237299324	0	0	0.0622635449660435	0.0242617071843678	0	0
0	0	-0.574816422289984	0.677282118687737	0	0	-0.0276915727372613	-0.107125612400125
3.4	-0.0179018040168552	0.0211642487143902	0	0	0.785372493594818	0.558370284753742	0	0
0	0	-0.00450045888793424	-0.0402676816858805	0	0	-0.732940559497356	0.544978574616566
0.785372493594818	0.558370284753742	0	0	-0.115303360740683	0.00917849840705594	0	0
0	0	-0.858275003184206	-0.221191678813164	0	0	-0.0197169823132505	-0.0397776291953053
3.5	0.023191651928696	-0.0134001195035442	0	0	0.572582007046428	-0.776178729750209	0	0
0	0	0.00775418991137601	-0.0301639121097851	0	0	0.295682286468465	-0.870501974936424
0.572582007046428	-0.776178729750209	0	0	-0.0123932322798794	-0.0536836829405639	0	0
0	0	0.169613717853706	0.843701140403737	0	0	0.0848458338220434	-0.0730340155529444
3.6	-0.0251123316277533	0.0046278586847967	0	0	0.769005550131547	0.582004267677483	0	0
0	0	0.0193531552641848	0.00244545849040071	0	0	-0.212201412900698	-0.894296694581752
0.769005550131547	0.582004267677483	0	0	-0.034046301605073	0.0607253501920605	0	0
0	0	-0.691776860804661	0.522558992385272	0	0	0.0446415936707812	-0.0318391948591039
3.7	0.0231248866258407	0.00475651050678637	0	0	0.600621943911846	-0.748566644404353	0	0
0	0	0.013700822676425	0.0361390037889252	0	0	0.641294708335964	0.646891856599325
0.600621943911846	-0.748566644404353	0	0	0.118443651976422	0.00672426450906835	0	0
0	0	0.771818554338435	0.407129735977849	0	0	0.0553561186591164	-0.0193880440749744
3.8	-0.0181190788570937	-0.0124987999495462	0	0	0.741988122031902	0.61899511188357	0	0
0	0	0.0150238792966711	0.050335356109101	0	0	0.870992749185036	0.183630983441254
0.741988122031902	0.61899511188357	0	0	-0.0251909424559083	0.0209865964488445	0	0
0	0	-0.0131527820525234	0.870706546121222	0	0	-0.0583867728520695	-0.0248752493516433
3.9	0.0109319164628256	0.0172401670745479	0	0	0.623467709211097	-0.74075309386685	0	0
0	0	0.0109307894347942	0.0154657290149449	0	0	-0.821913861149578	0.329616377604735
0.623467709211097	-0.74075309386685	0	0	-0.0129179800473097	0.0832266158160831	0	0
0	0	0.780583230407734	-0.387288555807952	0	0	0.0247261433915959	-0.00582277505389736
4	-0.00214946418479068	-0.0187018017262228	0	0	0.7225026376549	0.631707398864123	0	0
0	0	-0.0168711736753236	-0.0123729519130392	0	0	-0.51294028534698	0.724701806300089
0.7225026376549	0.631707398864123	0	0	0.0504556184939946	-0.0743078682406803	0	0
0	0	0.684218062868083	0.513002011679222	0	0	-0.00468904974899351	0.00955320303047245
4.1	-0.00593105081047773	0.0167329468088007	0	0	0.637341835098731	-0.709069510764045	0	0
0	0	-0.0416311960183841	-0.0353878381583138	0	0	0.0526143153771452	-0.889796864283116
0.637341835098731	-0.709069510764045	0	0	0.024428528255281	-0.111570678834681	0	0
0	0	0.181325118740272	-0.826703977168317	0	0	0.0265639747614942	0.0813975777534051
4.2	0.0123801498914771	-0.0120321182163644	0	0	0.703687951530791	0.648874070755377	0	0
0	0	-0.0489416594160349	-0.0153106809662363	0	0	-0.433808430829578	-0.777672095207566
0.703687951530791	0.648874070755377	0	0	-0.0398942010173664	0.0164742773186816	0	0
0	0	0.828825422652838	-0.185856195645437	0	0	-0.0119147441727228	-0.0411197655275326
4.3	-0.0160962455973191	0.00504614455992134	0	0	0.657960628423583	-0.696654335365939	0	0
0	0	-0.0074232734256109	0.00687507660100453	0	0	0.77670954655733	0.421497412527307
0.657960628423583	-0.696654335365939	0	0	-0.0108139151848826	0.0670362014251664	0	0
0	0	-0.533970909963448	-0.670758796948446	0	0	-0.0143632237206895	0.002405009125072
4.4	0.0162453891142067	0.00319535258357286	0	0	0.679524725566499	0.667965809489356	0	0
0	0	0.0380063010517107	0.00444989881950005	0	0	0.885626393648854	-0.0544396067828466
0.679524725566499	0.667965809489356	0	0	0.00123597473544162	-0.0499420495546229	0	0
0	0	0.344172039981986	-0.770402035051014	0	0	-0.0334451095938494	0.00335121157902316
4.5	-0.0127769371786242	-0.0106291933488083	0	0	0.675041894112452	-0.661285517112611	0	0
0	0	0.0645665923606525	-0.00448002021785143	0	0	-0.720223179868218	0.52215757758769
0.675041894112452	-0.661285517112611	0	0	-0.0496158993265419	0.0264547062096579	0	0
0	0	-0.833095229890845	0.0116579475440124	0	0	-0.0856225437179713	0.0618356510338151
4.6	0.00635318359065607	0.0162237908740541	0	0	0.643411910266191	0.690255315905058	0	0
0	0	0.0465254958039362	-0.0249824607504964	0	0	-0.312466425619229	0.842564902953399
0.643411910266191	0.690255315905058	0	0	-0.00385321123936567	0.0138228651210242	0	0
0	0	-0.370917494497712	-0.743168231050619	0	0	-0.0798682004063317	-0.00953661912347485
4.7	0.0017198817969487	-0.0188028309820398	0	0	0.708040053015732	-0.636750858861921	0	0
0	0	-0.0246675837158963	-0.00545199935380894	0	0	-0.190491350214556	-0.872643863296482
0.708040053015732	-0.636750858861921	0	0	0.0655152178390131	-0.0176285562665501	0	0
0	0	-0.523726456034555	0.65451738308481	0	0	-0.0729868276969972	0.0720806594993984
4.8	-0.010319583859235	0.017909613194823	0	0	0.637167251139052	0.72441704237171	0	0
0	0	-0.0587454762575639	0.034156805871123	0	0	-0.606337738945299	-0.634444971817728
0.637167251139052	0.72441704237171	0	0	0.0530038237231718	-0.0184000933058728	0	0
0	0	-0.826823207351448	-0.197212886607588	0	0	-0.0091379253022145	0.0717363010316577
4.9	0.0178523686997149	-0.0127521606062485	0	0	0.730627043358274	-0.629471945307598	0	0
0	0	-0.0398788150200174	0.0584346439077293	0	0	0.853982582585573	0.206974836902072
0.730627043358274	-0.629471945307598	0	0	-0.0806792627804417	-0.0290291431556467	0	0
0	0	0.198953858827569	0.820933669458366	0	0	-0.0834489836805247	0.00383445707361932
5	-0.0225172507993159	0.00462042164953236	0	0	0.618778591370381	0.72616981491269	0	0
0	0	-0.000477779130188129	0.0201122040327525	0	0	0.830838483081286	-0.298450515745132
0.618778591370381	0.72616981491269	0	0	-0.0475575594283764	0.0406617567821221	0	0
0	0	-0.644961510105561	0.533934585927688	0	0	0.0414597857098763	-0.00912769627722549
5.1	0.0240115742039609	0.00530783083626218	0	0	0.727459088272414	-0.606493037247053	0	0
0	0	0.0382920265347181	-0.0337663977248616	0	0	-0.532966809086706	0.695780964801313
0.727459088272414	-0.606493037247053	0	0	-0.0217274042128113	-0.0414571116988503	0	0
0	0	0.750095255098894	0.344497797383494	0	0	0.072481051054397	-0.0197647324208534
5.2	-0.0216248381105682	-0.016397398049427	0	0	0.584424820755357	0.745075638517289	0	0
0	0	0.0159213198212011	-0.0746242087941064	0	0	-0.0781119718302975	0.871813010690323
0.584424820755357	0.745075638517289	0	0	0.0382335236379131	0.0223348308326509	0	0
0	0	0.0157858408341583	0.83236235688874	0	0	0.0267571840808188	0.0664032293168253
5.3	0.0153526759587981	0.0259968713745786	0	0	0.763489454445635	-0.57259335452817	0	0
0	0	-0.0143098218384282	-0.0416105767061792	0	0	-0.412805684914261	-0.77060683014686
0.763489454445635	-0.57259335452817	0	0	-0.0320987693388106	0.0247581627141339	0	0
0	0	0.742635787070435	-0.374830585523554	0	0	-0.0434417484459002	0.01202311931507
5.4	-0.00622470160788294	-0.03201333896925	0	0	0.564479711132637	0.768401365448671	0	0
0	0	-0.0313674434805599	0.014428430909383	0	0	-0.76743658309842	-0.427526683310972
0.564479711132637	0.768401365448671	0	0	0.070545692178978	0.0874717599541322	0	0
0	0	0.657663727461638	0.509210655984621	0	0	-0.00945990006885466	0.021877976553996
5.5	-0.00464735768097175	0.0344429250735974	0	0	0.779094336677342	-0.561813279672076	0	0
0	0	0.0232528640931787	0.0600031900990016	0	0	0.87689165594124	-0.0451779767282352
0.779094336677342	-0.561813279672076	0	0	-0.00659893622637698	-0.0276380015399161	0	0
0	0	0.156935155676112	-0.816501618654844	0	0	0.0216065540731401	0.0384585399818289
5.6	0.0162264537054291	-0.0318960522525634	0	0	0.547678862563108	0.784577054616913	0	0
0	0	0.0424387974410026	0.056749614405596	0	0	0.697248646793713	-0.508600399862883
0.547678862563108	0.784577054616913	0	0	0.00178689147813447	-0.109363350075042	0	0
0	0	0.799065737025992	-0.202602111872145	0	0	0.0111926619238206	0.117395417952073
5.7	-0.0269772821155022	0.0252991750674201	0	0	0.797533189086327	-0.539242713223721	0	0
0	0	0.0207595044705472	-0.00679991747596429	0	0	-0.317096398129839	0.806890532156903
0.797533189086327	-0.539242713223721	0	0	-0.0118137656828101	0.0514644131927341	0	0
0	0	-0.53599495451917	-0.647968447353444	0	0	0.0585881419702716	0.0344814763044083
5.8	0.033829020906161	-0.0147621454895818	0	0	0.521633497003276	0.797396448902725	0	0
0	0	-0.0219160408421008	-0.0311605783725869	0	0	0.155745709989957	0.85263607502686
0.521633497003276	0.797396448902725	0	0	0.0589114664530515	-0.0274121760379383	0	0
0	0	0.323291900485854	-0.770297472177514	0	0	0.0339779833009122	0.0554668441860917
5.9	-0.0369388922311801	0.00167855202602875	0	0	0.811167892022138	-0.498199233821278	0	0
0	0	-0.0560418973697113	-0.0266143380961775	0	0	-0.584898248537275	-0.636710215933241
0.811167892022138	-0.498199233821278	0	0	-0.0732227001941458	0.0433290608236968	0	0
0	0	-0.826000678398371	0.0600266877100459	0	0	0.0373768288092151	0.0723172770354379
6	0.0355805737564931	0.0112592234917141	0	0	0.481965765072936	0.824565584409775	0	0
0	0	-0.0339126524951815	0.00596867265281998	0	0	-0.846836171565674	-0.194316925943462
0.481965765072936	0.824565584409775	0	0	-0.00311920795711247	0.0237313503339186	0	0
