# GHZ S RI R 50
0.2	-0.00652853023068977	0.0105124543647543	0	0	0.957835746204166	0.0581747535813688	0	0
0	0	0.0201828487880402	0.0046418013141479	0	0	-0.370537107184207	0.911055700386101
0.957835746204166	0.0581747535813688	0	0	0.0211585858355479	0.0423253632666038	0	0
0	0	0.569706177323779	-0.753952263900413	0	0	0.00166049971568032	-0.0314326036492472
0.3	0.00687376201443077	-0.00999714802093412	0	0	0.0337318225118492	-0.965119019110304	0	0
0	0	-0.00535696749761416	0.0016315446664382	0	0	-0.134006526115173	-0.974245147892191
0.0337318225118492	-0.965119019110304	0	0	-0.0140671916778679	0.00450851186713467	0	0
0	0	-0.922000026122007	-0.202385991088944	0	0	-0.032568260795092	-0.0173655489241071
0.4	-0.00880319162874198	0.0078576732898928	0	0	0.948538308243765	0.0623815732009947	0	0
0	0	-0.0393996955473926	0.000797356130692904	0	0	-0.6668640693697	-0.726065187787036
0.948538308243765	0.0623815732009947	0	0	-0.034282466872653	-0.014039729774662	0	0
0	0	-0.23483276043771	-0.895930231145116	0	0	0.0214894529643036	0.019740007866235
0.5	0.0112061192332159	-0.0044098853328551	0	0	0.128269569105764	-0.948895960155917	0	0
0	0	-0.0329321220255673	0.0047344736436608	0	0	0.963993075579797	0.207725630095205
0.128269569105764	-0.948895960155917	0	0	0.0365655098781556	0.0166220794227454	0	0
0	0	-0.679103515181246	0.636338000460501	0	0	0.00497641351717841	0.0075864825591028
0.6	-0.0120135313044679	0.00146934290306123	0	0	0.955192266977168	0.132003400291603	0	0
0	0	-0.00828631063886615	0.00602272341798854	0	0	0.91318635283032	-0.328880605462204
0.955192266977168	0.132003400291603	0	0	0.00488002676584574	-0.0197368544913918	0	0
0	0	-0.861908695615456	-0.345590665472236	0	0	-0.00542153627289175	-0.00724561656628923
0.7	0.0117474244311288	0.00116671897555141	0	0	0.109842793061152	-0.958072866930922	0	0
0	0	0.0227107890579397	-0.0109681031701788	0	0	-0.612195097410713	0.748207739335927
0.109842793061152	-0.958072866930922	0	0	0.00803755019281554	0.00979930305142522	0	0
0	0	0.0450539961340862	0.920909747808992	0	0	0.00231341081811054	-0.0130042546229984
0.8	-0.0105291383753016	-0.00429211402306244	0	0	0.955826530853323	0.114587559333869	0	0
0	0	0.0443129866056624	-0.0417349329735564	0	0	-0.121522808989691	0.961606757995484
0.955826530853323	0.114587559333869	0	0	-0.0226235597920986	0.0125749558009842	0	0
0	0	-0.812733922920008	0.448235721893998	0	0	0.00653945748925129	0.0834153659055297
0.9	0.00775394687155351	0.0070718497298087	0	0	0.146041622759771	-0.94100754964203	0	0
0	0	0.0133533478633369	-0.0275873978093506	0	0	-0.434296256735063	-0.867701190145925
0.146041622759771	-0.94100754964203	0	0	-0.00205633018364066	-0.0622306302874172	0	0
0	0	0.764685847501146	0.526578400141651	0	0	0.0363721942058733	0.0136962862917972
1	-0.00440315175151041	-0.00874186359248024	0	0	0.944228719826366	0.182660458585733	0	0
0	0	-0.0143110522886215	0.0119473819777397	0	0	-0.839622736978725	-0.482906144296999
0.944228719826366	0.182660458585733	0	0	0.00237799516092675	0.0419933333347262	0	0
0	0	-0.127199526677953	0.90425110843305	0	0	0.00314599607768479	0.00189690769896072
1.1	0.00101738030157718	0.00867293003602281	0	0	0.202416385408522	-0.951588050697271	0	0
0	0	-0.0116447641549596	0.0350438040291669	0	0	0.958689490424263	-0.0508215619235561
0.202416385408522	-0.951588050697271	0	0	0.00303136819015361	0.00181953013230004	0	0
0	0	0.871163071666021	-0.260606776484982	0	0	0.00850650336963481	0.0431803817560589
1.2	0.00168364884179436	-0.00703095043457555	0	0	0.961672505961786	0.203215276001909	0	0
0	0	0.00857375584692338	0.0644080367782319	0	0	0.773126458748738	-0.556283654434191
0.961672505961786	0.203215276001909	0	0	0.0533447776771115	-0.000305560377333893	0	0
0	0	0.615640889779833	0.67323611998606	0	0	0.00674367717896661	0.100415875176805
1.3	-0.00357447899344144	0.00381644831455378	0	0	0.205452516149788	-0.94569036168353	0	0
0	0	0.0159967803317872	0.0186684678073432	0	0	-0.355586997903872	0.885909889404647
0.205452516149788	-0.94569036168353	0	0	-0.0550278468743176	0.000933642273999575	0	0
0	0	0.322553163023863	-0.861860958078992	0	0	0.040170303065097	0.0148458274620289
1.4	0.00425468439692294	-8.3707573871796E-05	0	0	0.927623605868736	0.233316791022438	0	0
0	0	-0.0133731072888061	-0.0441574264147438	0	0	0.181026650213808	0.939830194623838
0.927623605868736	0.233316791022438	0	0	0.016844713782073	0.0085000862506449	0	0
0	0	0.901252720746345	-0.0851600184474507	0	0	0.0444537886995833	-0.00624183560308235
1.5	-0.00334943497828865	-0.00293797679290028	0	0	0.270359914620439	-0.925716686402157	0	0
0	0	-0.0382476545271998	-0.0568481449931568	0	0	-0.677507035886982	-0.676175357706193
0.270359914620439	-0.925716686402157	0	0	0.0327585779365207	-0.0326535387770066	0	0
0	0	-0.463835604519797	-0.768793531277969	0	0	0.0332945209958839	0.0526506301756615
1.6	0.00122263056662112	0.00463687916951541	0	0	0.940543819739524	0.293793436703128	0	0
0	0	-0.0362278714642364	-0.0201833836136955	0	0	-0.93944288430588	-0.182361435989934
0.940543819739524	0.293793436703128	0	0	-0.0521108407000782	-0.0263742385331491	0	0
0	0	0.497155755768355	-0.756695459403787	0	0	0.000979606777787839	0.0530696418135463
1.7	0.0015777067199485	-0.00469850598388849	0	0	0.288183829916256	-0.945779104627659	0	0
0	0	0.0156622446287548	0.00575528478254744	0	0	0.885742307986647	-0.346126887181913
0.288183829916256	-0.945779104627659	0	0	-0.00116568375658186	0.00568939706856267	0	0
0	0	-0.902345941189891	-0.109454472491932	0	0	0.0398797501555409	-0.0305050206269502
1.8	-0.00426156242463756	0.00303330820905198	0	0	0.919509698595022	0.289068108046946	0	0
0	0	0.0456213926390676	0.0375609109838847	0	0	0.572489564000478	-0.748098844107451
0.919509698595022	0.289068108046946	0	0	0.00676752090574999	0.0656644594764342	0	0
0	0	-0.312435488676132	-0.849698852863408	0	0	0.0274120781136241	-0.0339948834208045
1.9	0.00618033878084015	6.08283157440192E-05	0	0	0.318243775543747	-0.895647137753341	0	0
0	0	0.0530198948044769	-0.00406827348738789	0	0	-0.0814330245529893	0.942386572046838
0.318243775543747	-0.895647137753341	0	0	0.00972172484400435	0.00912988692054993	0	0
0	0	-0.614156418509549	0.647421909386038	0	0	0.0410374164978189	0.0235919835289963
2	-0.00659063372597203	-0.00408932135669295	0	0	0.892130835455026	0.348668440417898	0	0
0	0	0.0153928610231768	-0.0050742992752596	0	0	0.458960823148021	0.832464592575875
0.892130835455026	0.348668440417898	0	0	-0.050036350750541	-0.032976640221727	0	0
0	0	-0.845068138604322	-0.26248816805255	0	0	-0.0531381437988941	-0.0209514322158881
2.1	0.00524201592647539	0.00828323236900363	0	0	0.363642321019313	-0.898569211638314	0	0
0	0	-0.028886078527522	0.0079868388531226	0	0	-0.830660579450643	-0.451015464311369
0.363642321019313	-0.898569211638314	0	0	0.0705971707266196	0.0163607419311554	0	0
0	0	0.136449926744744	0.879065957629332	0	0	-0.00504707062251726	0.0097734423242906
2.2	-0.00178465267292103	-0.0119216439766774	0	0	0.898753703826475	0.375826204248863	0	0
0	0	-0.0479426299617488	0.0174866344225096	0	0	-0.931916817481067	0.0692989471105113
0.898753703826475	0.375826204248863	0	0	0.0146091178527223	-0.0107555888621664	0	0
0	0	-0.736568265346225	0.506516407997467	0	0	0.0424962212611964	-0.0112589275800784
2.3	-0.00337670268732128	0.0138800594894609	0	0	0.385925777550142	-0.889523799449688	0	0
0	0	-0.0303567096682617	0.0196253809720884	0	0	0.736416496875226	-0.555526901944082
0.385925777550142	-0.889523799449688	0	0	0.0580078188121621	-0.028702167388501	0	0
0	0	0.77603009294346	0.432003703638123	0	0	0.0666653413136173	0.0465588574780791
2.4	0.00953061671728209	-0.0135980979582519	0	0	0.877968794731435	0.398120950574189	0	0
0	0	-0.000520545529460826	0.0012746712555701	0	0	0.324354310896575	-0.86783515179689
0.877968794731435	0.398120950574189	0	0	-0.0968084034687727	0.0140576421459258	0	0
0	0	-0.0392871386062763	0.882499674199423	0	0	0.0470542539197341	-0.0491233092176154
2.5	-0.0160076024331232	0.0107380963459559	0	0	0.415331826014862	-0.866561479860108	0	0
0	0	0.0192685039661055	-0.0359398317571228	0	0	0.189252056726748	0.917755291035953
0.415331826014862	-0.866561479860108	0	0	-0.0100068751650634	-0.0269584616880794	0	0
0	0	0.805176068685658	-0.332027581952185	0	0	0.0125109625195511	-0.0007029662323176
2.6	0.021558166315062	-0.00573465656148376	0	0	0.859792242834171	0.429635889401997	0	0
0	0	0.018083167610475	-0.0388518641550387	0	0	0.667256079238297	0.653928833532372
0.859792242834171	0.429635889401997	0	0	0.00575904141431183	-0.0334736364429439	0	0
0	0	0.630658855827214	0.597573999596569	0	0	0.0625316969676512	0.0101996520935269
2.7	-0.0252255778199629	-0.00103073965210978	0	0	0.444372802490351	-0.85418739560651	0	0
0	0	0.0213474790614785	-0.0097563253555693	0	0	-0.898033419234479	-0.174435935400482
0.444372802490351	-0.85418739560651	0	0	0.00347701564266853	-0.0130237359094625	0	0
0	0	0.276162781569857	-0.835952497931843	0	0	-0.027452891829702	-0.000878948310793737
2.8	0.0258529047211823	0.00872661178368897	0	0	0.844126901997294	0.457950033562382	0	0
0	0	0.00974951402669473	0.0123158919355268	0	0	-0.843061351940901	0.312740298704722
0.844126901997294	0.457950033562382	0	0	0.00433563414019004	0.0638588536581969	0	0
0	0	0.872392333258052	-0.150186050582191	0	0	0.0261672637313067	-0.0638540286203153
2.9	-0.0228447481446546	-0.0164780297639193	0	0	0.474111642495188	-0.825412470967708	0	0
0	0	-0.000129430149741305	0.0362482627212746	0	0	0.567985474530437	-0.701600244390904
0.474111642495188	-0.825412470967708	0	0	-0.0534875066674523	0.0340542234372223	0	0
0	0	-0.515846685327424	-0.703494467287535	0	0	-0.0402890371651068	-0.0461751935694576
3	0.017078226101402	0.0233944280028602	0	0	0.816941670067265	0.498356060922106	0	0
0	0	-0.0109083108118549	0.0291771290739995	0	0	0.0914493042163906	-0.921504206064307
0.816941670067265	0.498356060922106	0	0	-0.00678212462504007	-0.0178893088998739	0	0
0	0	0.406858225752849	-0.76185545191591	0	0	0.0137130551674864	0.0861674867934487
3.1	-0.00873534247154494	-0.0276103350559768	0	0	0.519079162302945	-0.807166889258318	0	0
0	0	-0.0200448308830899	0.0122704898577519	0	0	0.449418475224438	0.807532832766218
0.519079162302945	-0.807166889258318	0	0	0.0387694816057234	-0.0648517165675152	0	0
0	0	-0.870629002431542	-0.0496157163274248	0	0	-0.0756067322992188	0.00649100853554276
3.2	-0.000730718944683043	0.0292383920100592	0	0	0.805954839874413	0.542785222225213	0	0
0	0	-0.0176064994579633	-0.00577065704692544	0	0	0.799698276380248	0.437104264755161
0.805954839874413	0.542785222225213	0	0	0.000733781676321049	0.0252859809320985	0	0
0	0	-0.33870433332538	-0.814945060733612	0	0	-0.05935675941932	0.00711964692939129
3.3	0.00996808097579037	-0.0269648022605528	0	0	0.553898504413015	-0.802055523297874	0	0
0	0	-0.00113330975832272	-0.0234532339973037	0	0	-0.906183574228109	0.0514533307765823
0.553898504413015	-0.802055523297874	0	0	0.062276165770342	0.024234697994585	0	0
0	0	-0.574765851392814	0.677199663732933	0	0	-0.0276744175793549	-0.107072091119186
3.4	-0.0176604261414319	0.0210616088324784	0	0	0.785485585393059	0.558439868861008	0	0
0	0	-0.00439950522684802	-0.0400616195264456	0	0	-0.732856679715216	0.544891612647842
0.785485585393059	0.558439868861008	0	0	-0.115341223960815	0.0091893774334896	0	0
0	0	-0.858158210869811	-0.221181356646138	0	0	-0.019703206786766	-0.0397702293649968
3.5	0.0229537406489365	-0.0133136753897746	0	0	0.572627160930013	-0.77629297467907	0	0
0	0	0.00773866456977452	-0.029949192561644	0	0	0.295685240233851	-0.870378311924024
0.572627160930013	-0.77629297467907	0	0	-0.0123955252455842	-0.0536774678257964	0	0
0	0	0.169553223575232	0.843602408245343	0	0	0.0848224082033728	-0.0730252454809272
3.6	-0.0248515448467169	0.00453871051972778	0	0	0.769153150891371	0.58207868173093	0	0
0	0	0.0192126653813676	0.00263571192648378	0	0	-0.212132748114121	-0.894170485727233
0.769153150891371	0.58207868173093	0	0	-0.0340359333281161	0.0607638465112615	0	0
0	0	-0.691693922797606	0.522451810148486	0	0	0.0446126627224806	-0.0318429420768911
3.7	0.0228500230453196	0.00487677624703328	0	0	0.600637630424182	-0.748737082635211	0	0
0	0	0.0134720710871903	0.0362608594526403	0	0	0.641151920915286	0.646833209070177
0.600637630424182	-0.748737082635211	0	0	0.118500284732999	0.00671165792268623	0	0
0	0	0.771671217243042	0.407117125412459	0	0	0.0553207775180211	-0.0193797440831439
3.8	-0.0178750892756992	-0.0126622593806974	0	0	0.742138926258823	0.619024994351717	0	0
0	0	0.014784163305415	0.0503805164901717	0	0	0.87085872349755	0.183649498806663
0.742138926258823	0.619024994351717	0	0	-0.0251815205543391	0.020985713433974	0	0
0	0	-0.0131956674419734	0.870581326381019	0	0	-0.058379765250386	-0.0248650957862324
3.9	0.010756989533027	0.0174016912738133	0	0	0.623474052822302	-0.740884966709872	0	0
0	0	0.0107371784190471	0.0154350961638495	0	0	-0.821856980055143	0.329526540671311
0.623474052822302	-0.740884966709872	0	0	-0.0129070938124496	0.0832226282702351	0	0
0	0	0.780534425491889	-0.387196006327224	0	0	0.0247220094692764	-0.00579620658428339
4	-0.00201110644685905	-0.0188007889595261	0	0	0.722559930916243	0.631709269575874	0	0
0	0	-0.0169714373664556	-0.0124712862821878	0	0	-0.512921397598614	0.724630061461498
0.722559930916243	0.631709269575874	0	0	0.0504410874110781	-0.07434818803984	0	0
0	0	0.684149483938645	0.512981932124617	0	0	-0.00467384288759907	0.00957951138107998
4.1	-0.00608689103044457	0.0167781377660871	0	0	0.637375815743662	-0.709103767979493	0	0
0	0	-0.0416174440143572	-0.0355223538635339	0	0	0.0526079224728635	-0.889709540245613
0.637375815743662	-0.709103767979493	0	0	0.0244041478094543	-0.111609405214821	0	0
0	0	0.18130617063724	-0.826623027370323	0	0	0.0265884545570487	0.0814072657254695
4.2	0.0125685368203052	-0.0120701618255927	0	0	0.703743413539495	0.648954298277413	0	0
0	0	-0.0488361187989102	-0.0154301684120482	0	0	-0.433781856035015	-0.77758451901466
0.703743413539495	0.648954298277413	0	0	-0.039934862125648	0.0164647888255515	0	0
0	0	0.828738126656936	-0.185855639235694	0	0	-0.0118810885924502	-0.0410999998032465
4.3	-0.0162786020780347	0.00509633106775171	0	0	0.658036759196051	-0.696734151930473	0	0
0	0	-0.00727911877452504	0.00681521050029432	0	0	0.776622077283125	0.421443657358612
0.658036759196051	-0.696734151930473	0	0	-0.0108342637394775	0.0670583931921719	0	0
0	0	-0.533913159489463	-0.670677643309679	0	0	-0.0143406855650315	0.00239824162411662
4.4	0.0163901657333782	0.00317033375716403	0	0	0.679577943835825	0.668011156782976	0	0
0	0	0.0381249337886202	0.00447314096574996	0	0	0.885541361326029	-0.0544339628123877
0.679577943835825	0.668011156782976	0	0	0.00125098296760779	-0.0499319144493467	0	0
0	0	0.34413934620214	-0.770327882185608	0	0	-0.0334528357426104	0.00333415261632922
4.5	-0.0129067945472099	-0.010673092151111	0	0	0.675093361465429	-0.661309886114335	0	0
0	0	0.0646046187269784	-0.00437407661050611	0	0	-0.720157232845679	0.522137565498547
0.675093361465429	-0.661309886114335	0	0	-0.0495643816698637	0.0264623941561783	0	0
0	0	-0.833033933682356	0.0116781711318116	0	0	-0.0856651359606327	0.0618256179763506
4.6	0.0065235570107154	0.0163381908620363	0	0	0.643413143783757	0.690320470166301	0	0
0	0	0.0464565741863889	-0.0248248504414449	0	0	-0.312403396031455	0.842540507187952
0.643413143783757	0.690320470166301	0	0	-0.00376383933049164	0.0137958863429825	0	0
0	0	-0.370940864806954	-0.743110299167471	0	0	-0.079951631671065	-0.00949961457427912
4.7	0.00147736871432748	-0.0189401916152344	0	0	0.708112891513153	-0.636758280839827	0	0
0	0	-0.0248431770606218	-0.00530326819305155	0	0	-0.1905559173966	-0.872555461719182
0.708112891513153	-0.636758280839827	0	0	0.0656287611259971	-0.0176970555400171	0	0
0	0	-0.523623847576395	0.654512227712582	0	0	-0.073068889225146	0.0721547347741107
4.8	-0.0100305107030674	0.0180252328370584	0	0	0.637167499611921	0.724496087454892	0	0
0	0	-0.0589852290510343	0.0342259881916305	0	0	-0.606328349041451	-0.634338096389912
0.637167499611921	0.724496087454892	0	0	0.0531088134581369	-0.0185101243085418	0	0
0	0	-0.826759368514283	-0.197130891604843	0	0	-0.009222611346786	0.0718386106809829
4.9	0.0175645759904498	-0.0128575386367553	0	0	0.730725576032179	-0.629414537503775	0	0
0	0	-0.0401185409456069	0.0583866079746324	0	0	0.853956037463135	0.206870272047806
0.730725576032179	-0.629414537503775	0	0	-0.0806048166902597	-0.0291893868901984	0	0
0	0	0.199031540939398	0.820864963597734	0	0	-0.083515001006808	0.00398991838444795
5	-0.0222213580462977	0.00474766243941491	0	0	0.618711178417223	0.726305515190582	0	0
0	0	-0.000664027540244428	0.0199289583314385	0	0	0.830758010783094	-0.298518988790194
0.618711178417223	0.726305515190582	0	0	-0.0475249653084114	0.0404940063668012	0	0
0	0	-0.644867663811491	0.533969735972877	0	0	0.0414031007322062	-0.00897785211737942
5.1	0.0236624553592125	0.00517498819534765	0	0	0.72761189829633	-0.606409694022011	0	0
0	0	0.0382012525680501	-0.0340531489693033	0	0	-0.532832265992149	0.695786599259811
0.72761189829633	-0.606409694022011	0	0	-0.021706608294175	-0.041639433792634	0	0
0	0	0.750072392009342	0.344373054375885	0	0	0.0724515424408959	-0.0196144997170446
5.2	-0.0212330143263755	-0.0163053903304634	0	0	0.584397599501399	0.745273956158987	0	0
0	0	0.0159404727962707	-0.0749500957794303	0	0	-0.0779698362248786	0.871676771432465
0.584397599501399	0.745273956158987	0	0	0.0381971579238649	0.0221957899166945	0	0
0	0	0.015906226460493	0.832218922784579	0	0	0.0268084602625955	0.066530921631269
5.3	0.0149815144112611	0.0259680492101067	0	0	0.763710938027964	-0.572578414481279	0	0
0	0	-0.0141932297324959	-0.0418832802788071	0	0	-0.412848392378699	-0.770412682604952
0.763710938027964	-0.572578414481279	0	0	-0.0321997906455291	0.0246382346021921	0	0
0	0	0.742452087730797	-0.374875713318053	0	0	-0.0433419503903574	0.0121492773288135
5.4	-0.00593064393535461	-0.0319939945626004	0	0	0.564508259750029	0.768586270426726	0	0
0	0	-0.0311782382624726	0.0142870091567586	0	0	-0.767363107402131	-0.427373771738324
0.564508259750029	0.768586270426726	0	0	0.0704552399657897	0.0874480205043375	0	0
0	0	0.657616667229055	0.509057080433389	0	0	-0.00935823615905748	0.021939669114853
5.5	-0.00490538674057397	0.0343575417106524	0	0	0.779263920366398	-0.56177735718167	0	0
0	0	0.0234656551662347	0.0600328604795585	0	0	0.876766480146553	-0.0452733913809614
0.779263920366398	-0.56177735718167	0	0	-0.00666727269831169	-0.0276794677877194	0	0
0	0	0.156819092519648	-0.816408119274975	0	0	0.021682752115046	0.0384753806890144
5.6	0.0165246184643882	-0.0317436608893786	0	0	0.547603144588798	0.784735364299751	0	0
0	0	0.0426176731973585	0.0569390996107438	0	0	0.69705234781494	-0.508625265761014
0.547603144588798	0.784735364299751	0	0	0.0017783156719389	-0.109425433251134	0	0
0	0	0.798900596197672	-0.202694029714486	0	0	0.011269282921807	0.117395676770618
5.7	-0.0273572347839313	0.0251546775163911	0	0	0.797779506651258	-0.539187053226202	0	0
0	0	0.0208659326884116	-0.00649712984136278	0	0	-0.316922019249531	0.806807159758443
0.797779506651258	-0.539187053226202	0	0	-0.011877514135081	0.0513998582222132	0	0
0	0	-0.536006058930125	-0.647781296748904	0	0	0.0586210377818233	0.0345296476752627
5.8	0.0342266189812178	-0.0147013994977901	0	0	0.521593295161301	0.797614009562963	0	0
0	0	-0.0219007103078784	-0.0308392408272398	0	0	0.155846742705488	0.852445355399101
0.521593295161301	0.797614009562963	0	0	0.0588552255078802	-0.027523241429764	0	0
0	0	0.323109906406481	-0.770196722287942	0	0	0.0340693013198259	0.0555576986761604
5.9	-0.0372667263189565	0.00168208669906639	0	0	0.81143784057606	-0.498161886680844	0	0
0	0	-0.0561110449690942	-0.0263635166106353	0	0	-0.584868163556854	-0.636504340225765
0.81143784057606	-0.498161886680844	0	0	-0.0734401203784434	0.0431913294340524	0	0
0	0	-0.825828254349332	0.0601266425591771	0	0	0.0375550082269857	0.072410313388051
6	0.035796081740502	0.0112664302048549	0	0	0.481926585539914	0.824800531554827	0	0
0	0	-0.0340329582330612	0.00608628702895134	0	0	-0.846705413393086	-0.19413706826945
0.481926585539914	0.824800531554827	0	0	-0.00338820302551206	0.0236540385898166	0	0
