# GHZ S RI R 50
0.2	-0.00651910704715197	0.0105245641034842	0	0	0.957847675284019	0.0581890882729839	0	0
0	0	0.0201868477435183	0.00462683585651766	0	0	-0.370520147020472	0.911047780329105
0.957847675284019	0.0581890882729839	0	0	0.0211731697430103	0.0423422006298811	0	0
0	0	0.56968847043868	-0.75394911360693	0	0	0.00164429070528301	-0.0314470506806548
0.3	0.00686315186955053	-0.0100029580413195	0	0	0.0337394619829172	-0.965136819707821	0	0
0	0	-0.00535080653546394	0.00162117263166671	0	0	-0.134010564330916	-0.974226129623865
0.0337394619829172	-0.965136819707821	0	0	-0.0140422028770801	0.0045190197787071	0	0
0	0	-0.921984234482317	-0.202376046519139	0	0	-0.0325931241748072	-0.0173750965830432
0.4	-0.00880449915212865	0.00785906982190983	0	0	0.948551447788601	0.0623812170358517	0	0
0	0	-0.0393986169947976	0.000799373925741092	0	0	-0.666853910001832	-0.726056293954944
0.948551447788601	0.0623812170358517	0	0	-0.0342543251545566	-0.0140398487548134	0	0
0	0	-0.234828230682692	-0.895918382027916	0	0	0.0214593925466871	0.0197393532748341
0.5	0.0112273870373783	-0.00441612265820222	0	0	0.128267438394549	-0.948894708034034	0	0
0	0	-0.0329419030397842	0.00475446921737707	0	0	0.963993375460367	0.207728321330337
0.128267438394549	-0.948894708034034	0	0	0.0365889402342125	0.016613133097743	0	0
0	0	-0.679105764380751	0.636336787188875	0	0	0.00495270273915889	0.007595366012096
0.6	-0.0120508691725827	0.00149746001131848	0	0	0.95517760082033	0.132012101640181	0	0
0	0	-0.0083147590604153	0.00605807787223189	0	0	0.913196021118675	-0.328894164492851
0.95517760082033	0.132012101640181	0	0	0.00489276414145338	-0.0197452664460203	0	0
0	0	-0.86192422888731	-0.345587120977333	0	0	-0.00543441554092907	-0.00723655179924526
0.7	0.0117790937606341	0.00110717968438821	0	0	0.10987156789682	-0.958053263026677	0	0
0	0	0.0226603197228526	-0.0109275801530782	0	0	-0.612180908102565	0.748238401957026
0.10987156789682	-0.958053263026677	0	0	0.00804156122068578	0.00980122363065935	0	0
0	0	0.0450836409866578	0.920922377708081	0	0	0.00230772406506775	-0.0130065554645025
0.8	-0.0105373675981327	-0.00421565877668216	0	0	0.955819925889608	0.114632063431922	0	0
0	0	0.0442476774777264	-0.0416985404106322	0	0	-0.121476278576676	0.961619549450794
0.955819925889608	0.114632063431922	0	0	-0.0226147943667488	0.0125914793347002	0	0
0	0	-0.812717582281424	0.448278946082789	0	0	0.00653757539038604	0.0833964610810998
0.9	0.00774045196355952	0.00700523369779962	0	0	0.146087125927416	-0.941029077714561	0	0
0	0	0.0132900330895012	-0.02756342457269	0	0	-0.434327057840806	-0.867657811745935
0.146087125927416	-0.941029077714561	0	0	-0.0020194033166454	-0.0622039665132239	0	0
0	0	0.764691625757742	0.526527823026554	0	0	0.036339857883042	0.013661571456998
1	-0.00438647894970534	-0.0087032725343775	0	0	0.944264006615391	0.182688195936932	0	0
0	0	-0.0143513601704153	0.0119518214205035	0	0	-0.839596442739369	-0.482869397071022
0.944264006615391	0.182688195936932	0	0	0.00244034203127965	0.0420204349901016	0	0
0	0	-0.127176627549372	0.904215186948357	0	0	0.0030812772090267	0.00187292102372534
1.1	0.00102972280719301	0.00866362435015302	0	0	0.202405997467184	-0.951623645787372	0	0
0	0	-0.0116428795459854	0.0350287814477641	0	0	0.958659365263791	-0.0508015418252076
0.202405997467184	-0.951623645787372	0	0	0.00312400713136294	0.00181125675164462	0	0
0	0	0.871139805928269	-0.260581628415146	0	0	0.00841099640115586	0.043186240077611
1.2	0.00161936177044163	-0.00701956446768322	0	0	0.961676752583997	0.203174165944745	0	0
0	0	0.00862788162788886	0.0643849382585209	0	0	0.773159316902728	-0.556248406245861
0.961676752583997	0.203174165944745	0	0	0.0534453208064861	-0.000366075042904559	0	0
0	0	0.61561103413824	0.673271319035861	0	0	0.00663229320486367	0.100473882799597
1.3	-0.00347892441311942	0.00377396513678918	0	0	0.205398324565533	-0.945668993225293	0	0
0	0	0.0160942758789432	0.0186571283573723	0	0	-0.355641200430479	0.885932014205841
0.205398324565533	-0.945668993225293	0	0	-0.0549345292319295	0.000843315376511854	0	0
0	0	0.322604896752931	-0.861883512457955	0	0	0.0400819876281195	0.0149471370769767
1.4	0.00414826680006295	-2.13298843846956E-05	0	0	0.92757610346558	0.233267784939004	0	0
0	0	-0.0132600241343811	-0.0441277353607826	0	0	0.181005884463573	0.939894732144028
0.92757610346558	0.233267784939004	0	0	0.0169191609354384	0.00838184996256109	0	0
0	0	0.901311597184656	-0.0851346123932175	0	0	0.0443830752952075	-0.00612220923110727
1.5	-0.00322687541934269	-0.00302178772165993	0	0	0.270319992471658	-0.925650800819062	0	0
0	0	-0.0381375056234264	-0.0567661562849986	0	0	-0.677550938671776	-0.676254622689033
0.270319992471658	-0.925650800819062	0	0	0.0328098351599757	-0.0327811030559279	0	0
0	0	-0.463857643700594	-0.768875620089426	0	0	0.033238816654706	0.0527939150640278
1.6	0.00109954784559455	0.00476563086293931	0	0	0.94045985540201	0.293760031693576	0	0
0	0	-0.0361325795670132	-0.020056007919667	0	0	-0.939544916114826	-0.182381116156068
0.94045985540201	0.293760031693576	0	0	-0.0520786419741826	-0.0265077569268353	0	0
0	0	0.497209641092553	-0.756777688462344	0	0	0.000957176374113085	0.0532208331024187
1.7	0.00165709021859815	-0.00486186258152842	0	0	0.288191539334656	-0.945677830172348	0	0
0	0	0.0157233476358287	0.00590404892435799	0	0	0.88580622746384	-0.346196475824612
0.288191539334656	-0.945677830172348	0	0	-0.00118572274511903	0.0055631792919878	0	0
0	0	-0.902431248017579	-0.109424814012317	0	0	0.0399046846153092	-0.030387577294954
1.8	-0.00429367932946117	0.00317940666222604	0	0	0.919414548110753	0.289101734072486	0	0
0	0	0.045633377035727	0.0376980834458509	0	0	0.572484444694446	-0.748184584239425
0.919414548110753	0.289101734072486	0	0	0.00670991223293419	0.0655627243869263	0	0
0	0	-0.312507707239724	-0.849738833496225	0	0	0.0274611445042653	-0.0339099015850327
1.9	0.00620291733144722	-4.52883963861242E-05	0	0	0.318277821708387	-0.895578624427251	0	0
0	0	0.0529819893562138	-0.0039734574485631	0	0	-0.0813792690665498	0.942445578324545
0.318277821708387	-0.895578624427251	0	0	0.00966563352145961	0.00907446286215791	0	0
0	0	-0.614151449918099	0.647497050128652	0	0	0.0410993988033019	0.0236459189143928
2	-0.00663716932466364	-0.00401195867391244	0	0	0.892071740950214	0.348685231826123	0	0
0	0	0.0153155912128789	-0.0050414783480128	0	0	0.459017690706562	0.832491515553252
0.892071740950214	0.348685231826123	0	0	-0.0500691263536842	-0.0330098454328955	0	0
0	0	-0.845123668406303	-0.26246954384246	0	0	-0.053104498462648	-0.0209164619874087
2.1	0.00532446118773735	0.00820043344260101	0	0	0.363660930657406	-0.898489570574223	0	0
0	0	-0.0289851094294818	0.00794993027982424	0	0	-0.830735954135347	-0.451014090198772
0.363660930657406	-0.898489570574223	0	0	0.0705610131314286	0.0163333000489774	0	0
0	0	0.136493966937229	0.879121586865557	0	0	-0.00502162272980551	0.0098069836270616
2.2	-0.00187890013576151	-0.0118040298684134	0	0	0.898662533592382	0.375845468304589	0	0
0	0	-0.04803768223025	0.0173927668020901	0	0	-0.931986800424578	0.0693593203638777
0.898662533592382	0.375845468304589	0	0	0.0145830426883511	-0.0107988546893913	0	0
0	0	-0.736596982414353	0.506600027551646	0	0	0.0425269646330638	-0.0112184403727094
2.3	-0.00331417783331583	0.013737741190982	0	0	0.385969206854525	-0.889429602158387	0	0
0	0	-0.030426388563632	0.0195083314833655	0	0	0.736430317774861	-0.555636824906468
0.385969206854525	-0.889429602158387	0	0	0.0579554079059714	-0.0287496963112771	0	0
0	0	0.776132265042334	0.431973050472039	0	0	0.0667322465357581	0.0466172625469175
2.4	0.00951539351879454	-0.0134767407461072	0	0	0.877874400829229	0.398157809028564	0	0
0	0	-0.000553657845726799	0.00117140833542664	0	0	0.324299393790972	-0.867911094990205
0.877874400829229	0.398157809028564	0	0	-0.09688429447775	0.0139834139317516	0	0
0	0	-0.0392150139167538	0.882552430100244	0	0	0.0471394770552789	-0.049079647258192
2.5	-0.0160077163084412	0.010677576820637	0	0	0.415376088031347	-0.86648814345139	0	0
0	0	0.0192747814517013	-0.0359940051919117	0	0	0.189332355121079	0.917786884294615
0.415376088031347	-0.86648814345139	0	0	-0.0101245218864818	-0.0269880620036872	0	0
0	0	0.805190985863801	-0.332106384082605	0	0	0.0126360274240675	-0.000673873132019073
2.6	0.0215252108383028	-0.00572937015303079	0	0	0.859721601576764	0.429669375447593	0	0
0	0	0.0181118877020798	-0.0388393989274923	0	0	0.667334958798217	0.653920411482109
0.859721601576764	0.429669375447593	0	0	0.00562226852398942	-0.0334641291232392	0	0
0	0	0.630732066361697	0.59756493329269	0	0	0.0626815400864407	0.0101872856149394
2.7	-0.0251428700150379	-0.00101884483360216	0	0	0.444397449404838	-0.854109377346852	0	0
0	0	0.0213714447170422	-0.00968649558614454	0	0	-0.898097762223778	-0.174394969207379
0.444397449404838	-0.854109377346852	0	0	0.0033377082412676	-0.012986429384084	0	0
0	0	0.276131531963666	-0.836018920811182	0	0	-0.0273144985272252	-0.000911490060980381
2.8	0.025740010729786	0.00871568318305041	0	0	0.84404361417374	0.457963449985191	0	0
0	0	0.00973667321378275	0.0124141070534861	0	0	-0.843091915364267	0.312814576256096
0.84404361417374	0.457963449985191	0	0	0.00419668086347291	0.0639064029491113	0	0
0	0	0.872435341766227	-0.150252402659326	0	0	0.0262952245655926	-0.0639213482107736
2.9	-0.0227090841462786	-0.0164539298351613	0	0	0.474111923340612	-0.825344960762764	0	0
0	0	-0.000210498124651826	0.0363376757847898	0	0	0.567985110160856	-0.701664779631709
0.474111923340612	-0.825344960762764	0	0	-0.0535986348000644	0.0341164175489753	0	0
0	0	-0.515907084395599	-0.703510012366496	0	0	-0.0401818356328409	-0.046248506265235
3	0.0168929705409268	0.0233552430915473	0	0	0.816870925415997	0.498340661142846	0	0
0	0	-0.0110664781892098	0.0292276481171909	0	0	0.0914437202254908	-0.921591273254489
0.816870925415997	0.498340661142846	0	0	-0.00686756126987043	-0.0178051485713863	0	0
0	0	0.406884404658759	-0.761932498279262	0	0	0.0138070479018921	0.0860989252385017
3.1	-0.00848707416643109	-0.0275899244661232	0	0	0.519055401006314	-0.80707756920679	0	0
0	0	-0.0202630237127381	0.0122591929766176	0	0	0.449456431422042	0.807613067643913
0.519055401006314	-0.80707756920679	0	0	0.0387154933143848	-0.0647566885455254	0	0
0	0	-0.870712124132798	-0.0496259841121102	0	0	-0.0755721339353362	0.00641103841396651
3.2	-0.00102131926622495	0.0292723699174316	0	0	0.80583750092263	0.54272462215884	0	0
0	0	-0.0178393399980985	-0.00586136637562445	0	0	0.799799619588708	0.437159514763471
0.80583750092263	0.54272462215884	0	0	0.000719280225484923	0.0253397166574278	0	0
0	0	-0.338747342848755	-0.815048228291259	0	0	-0.0593581731372802	0.0070616617087682
3.3	0.0102482093344121	-0.0270557826199861	0	0	0.553857344403803	-0.801911442809348	0	0
0	0	-0.00132615946852134	-0.0236135683315394	0	0	-0.906278017034682	0.0514807454961736
0.553857344403803	-0.801911442809348	0	0	0.0622632205858567	0.024260645931315	0	0
0	0	-0.574810118467991	0.677285116609308	0	0	-0.0276937916803386	-0.107124862608032
3.4	-0.0179028543334949	0.0211651384673455	0	0	0.78537337813363	0.558362310371189	0	0
0	0	-0.00450109895312244	-0.0402689358296138	0	0	-0.732934638674199	0.544982743585637
0.78537337813363	0.558362310371189	0	0	-0.115302518711798	0.00918004476138094	0	0
0	0	-0.858274541688324	-0.221184666970174	0	0	-0.019718059286791	-0.0397768950141607
3.5	0.0231914868403029	-0.0134011595159745	0	0	0.572574175767917	-0.776179329932869	0	0
0	0	0.00775526243696707	-0.0301650951570093	0	0	0.295674634430212	-0.870501443423468
0.572574175767917	-0.776179329932869	0	0	-0.0123947573605806	-0.0536820185013574	0	0
0	0	0.169619663362257	0.843697114783568	0	0	0.0848443342733449	-0.0730335471308676
3.6	-0.0251131494315132	0.00462854864509989	0	0	0.769005386334609	0.581996114439186	0	0
0	0	0.0193539708720715	0.00244414404546142	0	0	-0.212207121729067	-0.894292007106982
0.769005386334609	0.581996114439186	0	0	-0.034045213118343	0.0607249664182062	0	0
0	0	-0.69177064683163	0.52256214387532	0	0	0.044640737497422	-0.031839267152887
3.7	0.0231256614151567	0.00475554790280652	0	0	0.600614061591842	-0.748566096428963	0	0
0	0	0.0137022279720331	0.0361382986200061	0	0	0.641296647648758	0.646884743886212
0.600614061591842	-0.748566096428963	0	0	0.118442415672484	0.0067224239564854	0	0
0	0	0.771818284906345	0.407122678569511	0	0	0.0553554914082724	-0.0193884960169846
3.8	-0.0181193715616055	-0.0124975286741721	0	0	0.74198711628858	0.61898716647911	0	0
0	0	0.0150254390289723	0.050335430974871	0	0	0.87098987002535	0.183624518636177
0.74198711628858	0.61898716647911	0	0	-0.0251902828382904	0.0209862698158287	0	0
0	0	-0.0131471140611376	0.870702570552139	0	0	-0.0583863687950077	-0.0248743046392733
3.9	0.0109314561324155	0.0172390840625643	0	0	0.623460048144354	-0.740751656976228	0	0
0	0	0.0109320879125875	0.0154665227653895	0	0	-0.821907489610237	0.329619586821294
0.623460048144354	-0.740751656976228	0	0	-0.0129167552696041	0.0832252987915307	0	0
0	0	0.780576730684706	-0.387291207973369	0	0	0.024726012556076	-0.00582321097054929
4	-0.00214870839499953	-0.0187013738477094	0	0	0.722501032467649	0.631699744321132	0	0
0	0	-0.01687056630005	-0.0123716410274839	0	0	-0.512933562295273	0.724700246624701
0.722501032467649	0.631699744321132	0	0	0.0504544636671957	-0.0743078282587263	0	0
0	0	0.684216738660382	0.512995497399127	0	0	-0.00468874551070034	0.00955284598063027
4.1	-0.00593153320015737	0.0167330070856625	0	0	0.6373343359197	-0.709067422151576	0	0
0	0	-0.0416315332136767	-0.0353864721805214	0	0	0.0526101517954133	-0.88979182303464
0.6373343359197	-0.709067422151576	0	0	0.0244274391362996	-0.111569816866552	0	0
0	0	0.181320466120139	-0.826699866732797	0	0	0.0265644148251453	0.0813960859457078
4.2	0.0123802328784043	-0.0120321222086071	0	0	0.70368531346493	0.648866812241353	0	0
0	0	-0.0489428122444314	-0.015309814193644	0	0	-0.433808423811184	-0.77766577676226
0.70368531346493	0.648866812241353	0	0	-0.0398933190504559	0.0164738495102302	0	0
0	0	0.82881964241092	-0.185857902506792	0	0	-0.0119148525144423	-0.0411193685119504
4.3	-0.0160968340258754	0.00504533834109837	0	0	0.657953822349405	-0.696651334889997	0	0
0	0	-0.00742551796012079	0.00687478705438189	0	0	0.776705718395326	0.421492850092007
0.657953822349405	-0.696651334889997	0	0	-0.0108124221842135	0.0670362789148383	0	0
0	0	-0.533969219817447	-0.670753271602552	0	0	-0.0143628363986138	0.00240549663732172
4.4	0.0162465048388775	0.00319610102904219	0	0	0.679521408837112	0.667959500217009	0	0
0	0	0.0380043297570618	0.00444833281401307	0	0	0.885620717311725	-0.0544406870323091
0.679521408837112	0.667959500217009	0	0	0.00123662938234142	-0.0499402044164712	0	0
0	0	0.344168629504575	-0.77039772668239	0	0	-0.0334441699869385	0.00335197636843964
4.5	-0.0127783125413792	-0.0106293574102524	0	0	0.6750363830112	-0.661281990371961	0	0
0	0	0.0645655506985811	-0.00448262711430043	0	0	-0.720218617024941	0.52215473933847
0.6750363830112	-0.661281990371961	0	0	-0.0496143836749683	0.0264558112079572	0	0
0	0	-0.833090205218441	0.0116582334907911	0	0	-0.0856206100008023	0.061835732333989
4.6	0.0063539410395916	0.0162229013476989	0	0	0.643408198662156	0.690250571642702	0	0
0	0	0.0465253094269262	-0.0249845367143611	0	0	-0.312464626912952	0.842559851574967
0.643408198662156	0.690250571642702	0	0	-0.00385337980884249	0.0138229029599231	0	0
0	0	-0.370915223617861	-0.743163825904056	0	0	-0.0798664763665062	-0.00953680129061441
4.7	0.00171975054607507	-0.0188018327673742	0	0	0.708035870642044	-0.636746934490915	0	0
0	0	-0.0246665772993639	-0.00545389566695971	0	0	-0.19048951932118	-0.872639487619806
0.708035870642044	-0.636746934490915	0	0	0.0655141511798624	-0.01762817886874	0	0
0	0	-0.523724347363687	0.65451346263075	0	0	-0.0729853446350001	0.0720789242764925
4.8	-0.0103201459435706	0.0179092475970798	0	0	0.637163210371537	0.724413620720364	0	0
0	0	-0.0587433717425563	0.0341562526867443	0	0	-0.606333979330699	-0.634443037866037
0.637163210371537	0.724413620720364	0	0	0.0530029269245239	-0.0184004403932983	0	0
0	0	-0.826819132291825	-0.197213290541696	0	0	-0.00913715371299425	0.0717338200558469
4.9	0.0178528077608759	-0.0127520250415837	0	0	0.730624452299079	-0.629468106726074	0	0
0	0	-0.0398765785177798	0.0584352077795135	0	0	0.853978548021537	0.206976060946085
0.730624452299079	-0.629468106726074	0	0	-0.0806788469901156	-0.0290297514224403	0	0
0	0	0.198951037086728	0.820930760087749	0	0	-0.0834477042766276	0.0038318624621082
5	-0.0225176537414286	0.00462012481082355	0	0	0.618775070308642	0.72616800961737	0	0
0	0	-0.000475957445202714	0.0201138578027545	0	0	0.830836582779714	-0.298447273989082
0.618775070308642	0.72616800961737	0	0	-0.0475577715389092	0.0406606490167852	0	0
0	0	-0.644960859539614	0.533931081897808	0	0	0.0414598459326112	-0.00912981386344974
5.1	0.0240123188753408	0.00530815770646416	0	0	0.72745796492676	-0.606489878606376	0	0
0	0	0.038292902981116	-0.0337639850397692	0	0	-0.532967819805403	0.695777730080188
0.72745796492676	-0.606489878606376	0	0	-0.0217276092533615	-0.0414574922856139	0	0
0	0	0.75009249485182	0.344499399757122	0	0	0.0724806868386043	-0.0197666124936461
5.2	-0.0216258254567903	-0.0163972495323849	0	0	0.584421862956739	0.745075094743411	0	0
0	0	0.0159209669157631	-0.074621533395198	0	0	-0.0781150308083788	0.871812090070853
0.584421862956739	0.745075094743411	0	0	0.0382327029869926	0.0223344425350869	0	0
0	0	0.0157828537983785	0.832361800947049	0	0	0.0267559216530865	0.0664010838401862
5.3	0.0153532540598098	0.0259961281723305	0	0	0.763489608265394	-0.572590702009438	0	0
0	0	-0.0143113495043704	-0.0416083229525013	0	0	-0.412802861602445	-0.770608514915203
0.763489608265394	-0.572590702009438	0	0	-0.0320993920863749	0.0247575963874627	0	0
0	0	0.74263732431117	-0.374827860695118	0	0	-0.0434430965574708	0.0120211104998166
5.4	-0.00622445014310376	-0.0320126488983702	0	0	0.564477679264116	0.768402461512755	0	0
0	0	-0.0313698234393601	0.0144296677426386	0	0	-0.767435974373977	-0.427529828915502
0.564477679264116	0.768402461512755	0	0	0.0705445710108828	0.0874717306925586	0	0
0	0	0.657662710837226	0.50921351409059	0	0	-0.0094615196748216	0.0218768842252915
5.5	-0.00464796663430988	0.0344430138084626	0	0	0.779096061001125	-0.561811984796736	0	0
0	0	0.0232502877414117	0.0600031178118636	0	0	0.876893602050202	-0.0451752343092511
0.779096061001125	-0.561811984796736	0	0	-0.00659950815701688	-0.0276383776935818	0	0
0	0	0.156938117730439	-0.816502787327766	0	0	0.0216050773806027	0.0384581676684362
5.6	0.0162264891313615	-0.0318968234276224	0	0	0.54767841486074	0.784579306529857	0	0
0	0	0.0424367918945986	0.0567483053547229	0	0	0.697252523083656	-0.508599889591573
0.54767841486074	0.784579306529857	0	0	0.00178658288136246	-0.109364068004916	0	0
0	0	0.799068991188369	-0.202600279722181	0	0	0.0111909076002145	0.11739548813063
5.7	-0.0269756393431882	0.0252991300485106	0	0	0.797535664445895	-0.539243085681154	0	0
0	0	0.0207593268235851	-0.00680189037427587	0	0	-0.317099910288627	0.806892916211811
0.797535664445895	-0.539243085681154	0	0	-0.0118142650595512	0.0514652163395811	0	0
0	0	-0.535995329127954	-0.647972547667568	0	0	0.0585876727457557	0.034481853703723
5.8	0.0338272617074107	-0.0147607953951195	0	0	0.521634722583785	0.797399410057771	0	0
0	0	-0.0219148885791006	-0.0311625113949786	0	0	0.155744548380667	0.852640796648799
0.521634722583785	0.797399410057771	0	0	0.0589115044958684	-0.0274117113973372	0	0
0	0	0.32329532468058	-0.770300671914278	0	0	0.0339768087460199	0.0554669366946217
5.9	-0.0369380304315777	0.00167603784192824	0	0	0.811171030957612	-0.49820086797431	0	0
0	0	-0.0560396044200161	-0.0266154882670532	0	0	-0.584900769516669	-0.636714987673435
0.811171030957612	-0.49820086797431	0	0	-0.0732236834231348	0.0433299169751339	0	0
0	0	-0.826005760234678	0.0600257397206035	0	0	0.0373748715477576	0.0723175995759654
6	0.0355812045645675	0.0112620414571023	0	0	0.48196844355404	0.824569260132652	0	0
0	0	-0.0339097770334492	0.00596882266551532	0	0	-0.846841439133543	-0.194319283603295
0.48196844355404	0.824569260132652	0	0	-0.00311963079729799	0.023732123193463	0	0
