# GHZ S RI R 50
0.2	-0.00697425407427252	0.010878235647966	0	0	0.957823091413994	0.0581799991345507	0	0
0	0	0.0196233283696796	0.00448224660698713	0	0	-0.370540714783619	0.911055568641004
0.957823091413994	0.0581799991345507	0	0	0.0217408116233173	0.0417653524800976	0	0
0	0	0.56970949371518	-0.753951247765911	0	0	0.00221292612436243	-0.0320231019193284
0.3	0.00701112761482601	-0.0102675008129816	0	0	0.0337351151262219	-0.965140981518344	0	0
0	0	-0.00561276548649345	0.0014715003275378	0	0	-0.134019175797998	-0.974238188512962
0.0337351151262219	-0.965140981518344	0	0	-0.0137796549079116	0.00387488995147292	0	0
0	0	-0.921997952480014	-0.202372288818779	0	0	-0.0323309071409235	-0.018019293259433
0.4	-0.00883469051184308	0.00783453557392963	0	0	0.948555558444815	0.0623808344113119	0	0
0	0	-0.0393632028202823	0.000782320048802217	0	0	-0.666858323854704	-0.726056446874915
0.948555558444815	0.0623808344113119	0	0	-0.0342530466556961	-0.0145886767805717	0	0
0	0	-0.234831829027086	-0.895920448089212	0	0	0.0214615067912689	0.019190562726499
0.5	0.0113252338464524	-0.00409827122316881	0	0	0.128251014148586	-0.948897083507735	0	0
0	0	-0.0326439306487289	0.00490289090211735	0	0	0.963998037455774	0.207723355144084
0.128251014148586	-0.948897083507735	0	0	0.0364563427184892	0.0162595135969028	0	0
0	0	-0.679104415999438	0.636343072571617	0	0	0.00482001339802808	0.00724235945306916
0.6	-0.0124053666073633	0.00103326047978222	0	0	0.955169051298393	0.132015745636591	0	0
0	0	-0.00787404542325793	0.00641355738720583	0	0	0.913198269124912	-0.328892220252344
0.955169051298393	0.132015745636591	0	0	0.00477841030077201	-0.0199012165472437	0	0
0	0	-0.861924599516641	-0.345589940272525	0	0	-0.00554866704017889	-0.00739275260869034
0.7	0.0124180402667818	0.00144404730080648	0	0	0.10985909075915	-0.958052006126634	0	0
0	0	0.0230946405387305	-0.010388390883597	0	0	-0.612183401901801	0.748232473426555
0.10985909075915	-0.958052006126634	0	0	0.00806020967872305	0.00974835728315062	0	0
0	0	0.045078085932994	0.920919776145598	0	0	0.00232629752742895	-0.0130592254952593
0.8	-0.0112541983616754	-0.00429192581057514	0	0	0.955837719254337	0.114618155023278	0	0
0	0	0.0445906575513373	-0.0410885846089872	0	0	-0.121409634128407	0.961615063256885
0.955837719254337	0.114618155023278	0	0	-0.0224391378656093	0.01249830086961	0	0
0	0	-0.81267652717831	0.448327993366678	0	0	0.00671934401751981	0.0833012570013451
0.9	0.00829623208177044	0.00689360134718008	0	0	0.146116849064499	-0.941043135670403	0	0
0	0	0.0134928980997504	-0.0270381493657824	0	0	-0.434317173585421	-0.867636360086255
0.146116849064499	-0.941043135670403	0	0	-0.00176504867487133	-0.062468793984284	0	0
0	0	0.764673435379139	0.526514410986377	0	0	0.0365922607233023	0.0133977463167789
1	-0.00467818126069403	-0.00857969077599148	0	0	0.944255068304332	0.182672123981667	0	0
0	0	-0.0143143009658834	0.0122524474130015	0	0	-0.839596670901106	-0.482864458254495
0.944255068304332	0.182672123981667	0	0	0.00261688899927169	0.0415385177219783	0	0
0	0	-0.127172227117169	0.904213649994022	0	0	0.00325766737500709	0.00139182466656209
1.1	0.00109702092865428	0.0087482076947157	0	0	0.202400055512882	-0.951621665726134	0	0
0	0	-0.0117416663882043	0.0350154396222315	0	0	0.958657575277778	-0.0508112518219892
0.202400055512882	-0.951621665726134	0	0	0.0030661763448163	0.00117915355122443	0	0
0	0	0.871135992502263	-0.2605901674825	0	0	0.0083546892357148	0.0425537754946173
1.2	0.00154429835458331	-0.00741970095910659	0	0	0.961664606373701	0.203148530557907	0	0
0	0	0.00848614565345319	0.0640472715898329	0	0	0.773163981092878	-0.556288467283689
0.961664606373701	0.203148530557907	0	0	0.0530921109116979	-0.000999766743390789	0	0
0	0	0.615649664566431	0.67327127552918	0	0	0.00628504317355063	0.0998432118705446
1.3	-0.00323131297471097	0.00432259755161222	0	0	0.205421425118147	-0.945684858977722	0	0
0	0	0.016030098419218	0.0180961650027622	0	0	-0.355609821204596	0.885924612513879
0.205421425118147	-0.945684858977722	0	0	-0.0554891729226908	0.000326089330831697	0	0
0	0	0.322574823877632	-0.861875665966499	0	0	0.0395285122774054	0.0144281304521335
1.4	0.00381238890168951	-0.000588843933799017	0	0	0.927566625023771	0.233252424879209	0	0
0	0	-0.013101117762438	-0.0447317526268489	0	0	0.181013149781178	0.939857703997387
0.927566625023771	0.233252424879209	0	0	0.0162951200763602	0.00797484726980216	0	0
0	0	0.901277395256423	-0.0851448121393354	0	0	0.0437579405283914	-0.00653057132269171
1.5	-0.00280678983554944	-0.00241149713789635	0	0	0.270321012040292	-0.925609844357773	0	0
0	0	-0.0377288605038983	-0.0573157783267069	0	0	-0.677574753738384	-0.676210302872765
0.270321012040292	-0.925609844357773	0	0	0.0321504511794387	-0.0330691365981701	0	0
0	0	-0.463889347873208	-0.768840659835707	0	0	0.0325832294827054	0.0524997033554308
1.6	0.000496103096091594	0.00419054776530837	0	0	0.940483518060045	0.293798041929542	0	0
0	0	-0.035537641492317	-0.0205029027439551	0	0	-0.939552137319497	-0.182338685447599
0.940483518060045	0.293798041929542	0	0	-0.0527321650358528	-0.0266149324692441	0	0
0	0	0.497175099519765	-0.756799254302752	0	0	0.000306874346445721	0.0531140947547517
1.7	0.00237706979885929	-0.00451195915061668	0	0	0.288187171190078	-0.945673505893765	0	0
0	0	0.0163773678476806	0.00563266482632518	0	0	0.885785515934751	-0.346156426762066
0.288187171190078	-0.945673505893765	0	0	-0.00173911419379851	0.00565161254935954	0	0
0	0	-0.902395686292884	-0.109449157736959	0	0	0.0393503725351745	-0.0302977458848589
1.8	-0.00490236431983727	0.00304452637182057	0	0	0.919401365504799	0.289061069809816	0	0
0	0	0.0462033622188308	0.0376450160713858	0	0	0.572500092379926	-0.748156234185951
0.919401365504799	0.289061069809816	0	0	0.00632681969015425	0.0657641895949802	0	0
0	0	-0.312476644702675	-0.849736939190854	0	0	0.0270762095952235	-0.0337055555576998
1.9	0.00662286299202375	4.52953292663257E-05	0	0	0.318276079998192	-0.89556988396653	0	0
0	0	0.0533559992116581	-0.00382750690025651	0	0	-0.0813795665901245	0.942420548553406
0.318276079998192	-0.89556988396653	0	0	0.00944586023280115	0.00928835745232852	0	0
0	0	-0.614136953217394	0.647478408047001	0	0	0.0408778214897859	0.0238588668401103
2	-0.00692906595100114	-0.00418746685455933	0	0	0.892084331854152	0.34870147324636	0	0
0	0	0.0154398631656816	-0.00475497713892826	0	0	0.459020351182751	0.832509702677067
0.892084331854152	0.34870147324636	0	0	-0.0501915381932744	-0.0328576970874319	0	0
0	0	-0.845137187729282	-0.262480031315786	0	0	-0.053227588209585	-0.0207642686767845
2.1	0.00562177767661832	0.00849518562483666	0	0	0.36364434529344	-0.898461724833081	0	0
0	0	-0.029114404369235	0.00830168037537385	0	0	-0.830736442622847	-0.45101289379895
0.36364434529344	-0.898461724833081	0	0	0.0704459610139533	0.0164226738908548	0	0
0	0	0.1364951411263	0.879121269748143	0	0	-0.00513454787295755	0.00989671907352359
2.2	-0.00228070438260318	-0.0121257689553366	0	0	0.898651762013942	0.375850599881586	0	0
0	0	-0.0483545020852716	0.0177168139911051	0	0	-0.931965262056779	0.0693467083765879
0.898651762013942	0.375850599881586	0	0	0.0144239637822802	-0.0107133327992318	0	0
0	0	-0.736585266802293	0.506579223926854	0	0	0.042366626223101	-0.0111327568975408
2.3	-0.00284954578516605	0.0139431078926678	0	0	0.385985426770821	-0.889398112797528	0	0
0	0	-0.0308051145397919	0.0197375052657911	0	0	0.736394214311275	-0.555616996978704
0.385985426770821	-0.889398112797528	0	0	0.0577564689192079	-0.0285899696121647	0	0
0	0	0.776100741630329	0.431948985469366	0	0	0.0665304133552755	0.0467716419697812
2.4	0.00913477761109858	-0.0135267698339287	0	0	0.877908759452612	0.398141645773428	0	0
0	0	-0.000874399684544488	0.00127833997094365	0	0	0.324324318183613	-0.867899325048415
0.877908759452612	0.398141645773428	0	0	-0.0970645537251779	0.0142591896057274	0	0
0	0	-0.0392410804905717	0.882549075345265	0	0	0.0469616914190323	-0.048805971925426
2.5	-0.0158233879404789	0.010679758547528	0	0	0.415380092119401	-0.866491108245414	0	0
0	0	0.0191125389083882	-0.0360087642028443	0	0	0.189328725631085	0.91778488200931
0.415380092119401	-0.866491108245414	0	0	-0.0102167304926663	-0.0266188927438306	0	0
0	0	0.805189787235348	-0.332102722596704	0	0	0.0125424378886343	-0.000304897363279361
2.6	0.0215062971105791	-0.00582599481375425	0	0	0.859717677255674	0.429670870128707	0	0
0	0	0.0181463868700877	-0.0389187295128167	0	0	0.667332230711504	0.653913917126401
0.859717677255674	0.429670870128707	0	0	0.00563821648082486	-0.0330576031386801	0	0
0	0	0.630729428061663	0.59755893754336	0	0	0.0626953870724097	0.0105934875789734
2.7	-0.0251722919380776	-0.000788514015122379	0	0	0.444396976898656	-0.854105332801694	0	0
0	0	0.0215626679049699	-0.00975098668374409	0	0	-0.898099726878047	-0.17440001541554
0.444396976898656	-0.854105332801694	0	0	0.00343636278086189	-0.012595116062093	0	0
0	0	0.276136588880483	-0.836020180103405	0	0	-0.0272173254679683	-0.000520042660446375
2.8	0.0257659670473923	0.00841312885180746	0	0	0.84406019916696	0.457952462197908	0	0
0	0	0.00999649766805245	0.012448782655474	0	0	-0.843076437370675	0.312798184776022
0.84406019916696	0.457952462197908	0	0	0.00434733602306631	0.0642593393394695	0	0
0	0	0.872417399405566	-0.150239339455199	0	0	0.0264433343664907	-0.0635663661655273
2.9	-0.0227681852940668	-0.0161032433301808	0	0	0.474123936286949	-0.825361022940451	0	0
0	0	1.79983514425466E-05	0.0365458565789187	0	0	0.567999694966541	-0.701648549854595
0.474123936286949	-0.825361022940451	0	0	-0.0534159911411717	0.0344151329460132	0	0
0	0	-0.515888327261081	-0.703519647110581	0	0	-0.0399979011682675	-0.0459500438581372
3	0.0169878928585284	0.0228930115370832	0	0	0.816859616313742	0.498344357842334	0	0
0	0	-0.0109415895569918	0.0296205661339122	0	0	0.0914094605610951	-0.921609877329979
0.816859616313742	0.498344357842334	0	0	-0.0066619565087838	-0.0175862159930356	0	0
0	0	0.406861492540314	-0.761960731620412	0	0	0.0140150029956851	0.0863190214556719
3.1	-0.00853438038373629	-0.0269908879910186	0	0	0.519051805250027	-0.807025515028831	0	0
0	0	-0.0202900540088227	0.0127844347768193	0	0	0.44945649017164	0.807654440986339
0.519051805250027	-0.807025515028831	0	0	0.0389115256316606	-0.0646330479008902	0	0
0	0	-0.870745131094379	-0.0496468322522544	0	0	-0.0753788506724361	0.00652948664918928
3.2	-0.00110178668964604	0.0285928115842958	0	0	0.805843863427859	0.54271094589905	0	0
0	0	-0.0180499407336961	-0.00531745266946504	0	0	0.799823500417735	0.437181910588516
0.805843863427859	0.54271094589905	0	0	0.000861455524149672	0.0253710683765795	0	0
0	0	-0.338751791824891	-0.81507961820436	0	0	-0.0592181976367366	0.0070934090231903
3.3	0.0104549712525955	-0.0264198199349707	0	0	0.553818295665437	-0.801879790963341	0	0
0	0	-0.0016875426435866	-0.0231756309335814	0	0	-0.906289637374722	0.05140758835625
0.553818295665437	-0.801879790963341	0	0	0.0623234324188574	0.0242436290474902	0	0
0	0	-0.57486982583951	0.677244008957715	0	0	-0.027621118812909	-0.107142034123275
3.4	-0.0181312749566707	0.0206301471538374	0	0	0.785427823041498	0.558395832000823	0	0
0	0	-0.0049553779661589	-0.0400434799746806	0	0	-0.732956637566225	0.54496422381921
0.785427823041498	0.558395832000823	0	0	-0.115315311768106	0.0091650242558225	0	0
0	0	-0.858273968661278	-0.221212566554384	0	0	-0.0197223706369928	-0.0397930269430639
3.5	0.0233792494349265	-0.0128913404713088	0	0	0.572606149101365	-0.776161737604056	0	0
0	0	0.00729464524582874	-0.0301980068218669	0	0	0.295704809746512	-0.870440399988487
0.572606149101365	-0.776161737604056	0	0	-0.0124317671587691	-0.0536706814658955	0	0
0	0	0.169566551687008	0.843661870651613	0	0	0.0848043447377305	-0.0730127160986854
3.6	-0.0253003817605522	0.00408335058105868	0	0	0.769035649263215	0.581981819909071	0	0
0	0	0.0189550899309893	0.00215308958098188	0	0	-0.21217396598841	-0.894270685221161
0.769035649263215	0.581981819909071	0	0	-0.0340796848072303	0.0607620561441153	0	0
0	0	-0.691764813590325	0.522525421727666	0	0	0.0446048131652854	-0.0318011269040406
3.7	0.0233706729333436	0.00531476453403498	0	0	0.600580909762821	-0.748494899680839	0	0
0	0	0.0134518748830438	0.0356746866177068	0	0	0.641254340710023	0.64687968993317
0.600580909762821	-0.748494899680839	0	0	0.118423546402917	0.00676522402145896	0	0
0	0	0.771778167512057	0.407130204700796	0	0	0.0553448064048498	-0.0193456609557451
3.8	-0.0184435105568138	-0.0129812904229339	0	0	0.741999642447908	0.618986077637242	0	0
0	0	0.0149330928707743	0.0498608380743468	0	0	0.871021475947762	0.183639648195887
0.741999642447908	0.618986077637242	0	0	-0.0251704569067896	0.0210117963357933	0	0
0	0	-0.013155720285052	0.870735752065005	0	0	-0.0583680544402539	-0.0248509218644858
3.9	0.0112438919765422	0.0175772771906895	0	0	0.623429183529346	-0.74075843137477	0	0
0	0	0.0109885245619266	0.0150917175998008	0	0	-0.821907168604066	0.329601730779343
0.623429183529346	-0.74075843137477	0	0	-0.0128724612894984	0.083224770460638	0	0
0	0	0.780577805341461	-0.38727366760313	0	0	0.0247684821664682	-0.00582191575695491
4	-0.0023359404864536	-0.0189621582550627	0	0	0.722475855410471	0.631727977634204	0	0
0	0	-0.0166872769017354	-0.0125625132826291	0	0	-0.512938233255069	0.724699290051343
0.722475855410471	0.631727977634204	0	0	0.0505109084556963	-0.0743334003204936	0	0
0	0	0.684215694340272	0.512999969451865	0	0	-0.00463595397694242	0.00952534669502812
4.1	-0.00584765178986446	0.0170193415559133	0	0	0.637368109984369	-0.709040490255114	0	0
0	0	-0.0413849473127899	-0.0353639105181087	0	0	0.0525945144051888	-0.889783723954762
0.637368109984369	-0.709040490255114	0	0	0.0244791244205696	-0.111621049848461	0	0
0	0	0.181304599077158	-0.826694590333355	0	0	0.0266109075230234	0.0813437944419041
4.2	0.0123111654235009	-0.012370195222184	0	0	0.703699692483942	0.648878747870368	0	0
0	0	-0.048727745771957	-0.0151230013232547	0	0	-0.433796301261857	-0.777683457628108
0.703699692483942	0.648878747870368	0	0	-0.0398751832311276	0.0164158432476706	0	0
0	0	0.828832524806967	-0.185842021943954	0	0	-0.0118942806723323	-0.0411783571209731
4.3	-0.0160068487667844	0.00536451670270356	0	0	0.657943842769847	-0.696667576888508	0	0
0	0	-0.00731938008493637	0.00712697870385041	0	0	0.776712405218028	0.421499757894007
0.657943842769847	-0.696667576888508	0	0	-0.0108234242309535	0.0670043679033469	0	0
0	0	-0.533972574342681	-0.670761974839198	0	0	-0.0143747010240474	0.00237245091910462
4.4	0.0162009975097684	0.00294870429876004	0	0	0.679515676382745	0.667976752028063	0	0
0	0	0.0379655838038058	0.00465216881615788	0	0	0.885633601795215	-0.0544406057646218
0.679515676382745	0.667976752028063	0	0	0.00120906111468691	-0.0499161090773571	0	0
0	0	0.344174372690276	-0.770408550214888	0	0	-0.0334736436949631	0.00337645374454997
4.5	-0.0128487887720718	-0.0104130935285096	0	0	0.675049262543638	-0.661295373214162	0	0
0	0	0.0643884719590629	-0.00441728980495149	0	0	-0.720236861713668	0.522175419212234
0.675049262543638	-0.661295373214162	0	0	-0.0496239732305628	0.0265519288828099	0	0
0	0	-0.833115326710089	0.011664236661701	0	0	-0.085632260861859	0.0619337241858492
4.6	0.00653919539688345	0.0159452208242117	0	0	0.643414820813899	0.690255458454688	0	0
0	0	0.0462679812733799	-0.0250946402512503	0	0	-0.312490046943765	0.842577817484908
0.643414820813899	0.690255458454688	0	0	-0.00380731062974317	0.0139722408546676	0	0
0	0	-0.370911280418054	-0.74319232524816	0	0	-0.0798237346944483	-0.00938944898337467
4.7	0.00150120138476737	-0.018414788711378	0	0	0.708013252682201	-0.636730834611231	0	0
0	0	-0.0249056708809546	-0.00573251648672355	0	0	-0.190514588126095	-0.872679803711391
0.708013252682201	-0.636730834611231	0	0	0.065630546231949	-0.0174615500510578	0	0
0	0	-0.523738931102498	0.654555563086701	0	0	-0.0728709103360781	0.0722511212476959
4.8	-0.0101404284795706	0.0174565141107802	0	0	0.637143459598435	0.724396933290224	0	0
0	0	-0.0588532559586563	0.0337816606696122	0	0	-0.606365447588652	-0.634432136735004
0.637143459598435	0.724396933290224	0	0	0.0531800583899847	-0.0182487380903213	0	0
0	0	-0.826838996230386	-0.197187875769533	0	0	-0.00895765772989338	0.0718877102260193
4.9	0.0176926228982062	-0.012310398609177	0	0	0.73066806887101	-0.629474959497775	0	0
0	0	-0.0398047291779177	0.0580672706097408	0	0	0.85401385159298	0.206990915188694
0.73066806887101	-0.629474959497775	0	0	-0.0804652969559766	-0.0289156831672333	0	0
0	0	0.198953879403515	0.820967469165553	0	0	-0.0832360214133294	0.0039502475051427
5	-0.0223277853084945	0.004175530198151	0	0	0.618803317489352	0.726182569624209	0	0
0	0	-0.000202023429740727	0.0198325101784772	0	0	0.830818444420041	-0.298440317587817
0.618803317489352	0.726182569624209	0	0	-0.0473199984838222	0.0407369774478125	0	0
0	0	-0.644946921170704	0.533919032149965	0	0	0.0416973476252229	-0.00905347338008461
5.1	0.0238173423059787	0.0058222338723842	0	0	0.727482945616126	-0.606473196004457	0	0
0	0	0.038714994945895	-0.0339000234127614	0	0	-0.53294711521265	0.695742578183993
0.727482945616126	-0.606473196004457	0	0	-0.0214786203112868	-0.0414428936369779	0	0
0	0	0.750055895479485	0.344487709417598	0	0	0.0727249974168266	-0.0197477662876502
5.2	-0.0214931307285873	-0.0169635102603336	0	0	0.584414900545077	0.745050964638494	0	0
0	0	0.0163929718541045	-0.0745964301211589	0	0	-0.0780785268364768	0.871798624745027
0.584414900545077	0.745050964638494	0	0	0.0384592170908546	0.02227651699087	0	0
0	0	0.0158159850544161	0.832345315505858	0	0	0.0269855727026648	0.0663433117998788
5.3	0.0153127297450806	0.026523004899408	0	0	0.763495015360404	-0.57260940762871	0	0
0	0	-0.0139222772720035	-0.0414450080747031	0	0	-0.412818297327573	-0.770622555634231
0.763495015360404	-0.57260940762871	0	0	-0.031931528598701	0.0246415712801749	0	0
0	0	0.742651038866218	-0.374842218950756	0	0	-0.0432748388580005	0.011906064826704
5.4	-0.00619831052837993	-0.0324225487220954	0	0	0.564474832360736	0.76835930668409	0	0
0	0	-0.0311697402881584	0.0146922156195956	0	0	-0.767439921224345	-0.427526675110823
0.564474832360736	0.76835930668409	0	0	0.0706365962533449	0.087335918240875	0	0
0	0	0.657666853420819	0.509211122459549	0	0	-0.00936759402234368	0.021746135475423
5.5	-0.00476373945828119	0.0347958097162846	0	0	0.779110729481123	-0.561801013421042	0	0
0	0	0.0232130780646463	0.0602946646632384	0	0	0.876886970134797	-0.0451833430458204
0.779110729481123	-0.561801013421042	0	0	-0.00655446607433774	-0.0277389864938163	0	0
0	0	0.156929160918353	-0.816498524812764	0	0	0.0216502142718027	0.0383580569458555
5.6	0.0164307393229052	-0.0322969221029317	0	0	0.547628691864644	0.784610232902734	0	0
0	0	0.0421849640232664	0.0569905790944001	0	0	0.697228938589388	-0.508638037780856
0.547628691864644	0.784610232902734	0	0	0.00184540643706172	-0.109422788047581	0	0
0	0	0.799061666548947	-0.202642488438382	0	0	0.0112481485550933	0.117337503108393
5.7	-0.0271657954619041	0.0258015472308039	0	0	0.797534184235968	-0.539268274034846	0	0
0	0	0.0203613830186825	-0.00665939350942896	0	0	-0.317080062246238	0.80687394633382
0.797534184235968	-0.539268274034846	0	0	-0.0117109263821598	0.0514136957169781	0	0
0	0	-0.535988546418173	-0.647946795041936	0	0	0.0586894807003118	0.0344284683689817
5.8	0.0339053362887264	-0.0152782575277171	0	0	0.521599546630898	0.797399983248295	0	0
0	0	-0.0223315061639093	-0.0311404154167574	0	0	0.155758540138456	0.852620498287699
0.521599546630898	0.797399983248295	0	0	0.0590701537881402	-0.027520766281028	0	0
0	0	0.323273340493329	-0.770291654714063	0	0	0.0341363186135017	0.0553553564917134
5.9	-0.0369317578650851	0.00209643152491347	0	0	0.81118299330402	-0.498238960501713	0	0
0	0	-0.0563606120927413	-0.0267020557273361	0	0	-0.584898688974234	-0.636690845911735
0.81118299330402	-0.498238960501713	0	0	-0.0730591180773782	0.0431148864579402	0	0
0	0	-0.825986402598947	0.0600385471101105	0	0	0.0375440292595152	0.0720987851777422
6	0.035587052458003	0.0109897298777793	0	0	0.481975196326311	0.824575805613631	0	0
0	0	-0.0340592372709783	0.0058184012668029	0	0	-0.846866207142398	-0.19430295854109
0.481975196326311	0.824575805613631	0	0	-0.00301212837919672	0.0234071894526662	0	0
