# GHZ S RI R 50
0.2	-0.000354943572059	7.95648586244633E-05	0.948399469943309	-0.308162205146802	0.948177351125108	-0.308136694318229	-0.000312200923355704	0.000133776160050113
0.3	-0.000321738389107852	0.000206903411905568	0.888224487753778	-0.451722513344256	0.888068459427386	-0.45162712949099	-0.000338167105445025	2.29251346368909E-05
0.4	-1.05074714280417E-05	0.000227335625976549	0.80656010372333	-0.583756997243715	0.806571870285601	-0.583782095796189	-0.000170513363712905	-4.8674727956719E-05
0.5	-8.36113017832191E-05	-1.38260902639972E-05	0.705870381922385	-0.701661518491156	0.705715579271237	-0.701560106663857	-0.000220226514887952	-0.000297559304475539
0.6	-0.000235818445251609	0.000240089526427778	0.58804817859766	-0.802580021015956	0.587929120185709	-0.802418452011498	-0.000410093680741433	-0.000179559128842553
0.7	-5.61357701765419E-05	0.000542232742770131	0.455975066792364	-0.883690091598603	0.45595637120782	-0.883577733278178	-0.000262842272788689	-0.000174748927020101
0.8	0.000297272028431496	0.00057373289466943	0.313110192855659	-0.943376970846866	0.313078945232328	-0.943187502501094	-0.000239701619318376	-0.000184223807510544
0.9	0.000678947908891954	0.000609389033540683	0.162909107257999	-0.980114311624477	0.162844191288563	-0.980022531134033	-0.000240454612086082	-0.000307699492465175
1	0.000875903594598863	-0.000170891087043612	0.00878937333939003	-0.993327406102108	0.00873780622860354	-0.993295977700589	-0.000478723897549512	-0.000824166500904562
1.1	0.000123778610307543	-0.00015196026722484	-0.145574117478135	-0.982353261035658	-0.145589799857736	-0.982223031935573	-0.00152310054780988	-0.000323909651139828
1.2	0.000138477929348301	-0.000275565699235114	-0.296258799600534	-0.947419248120451	-0.296182564535859	-0.947393219910162	-0.00135218778899344	0.000990812346419654
1.3	0.000312980212680908	-0.00100131117424039	-0.43950061580458	-0.88969431496616	-0.439477628467931	-0.889687715791444	0.000195454304720711	0.00244060241542226
1.4	0.000546135365835778	-0.00250110244832353	-0.571915548728089	-0.810619972668343	-0.571891421872871	-0.810598381693474	0.00250973535715007	0.00231632172862833
1.5	6.4953599697525E-05	-0.00331092317248573	-0.690876490319692	-0.711641391411873	-0.690774933424155	-0.711556624994854	0.00407774156670904	0.00112332153035738
1.6	0.00036815831616017	-0.00355146187073667	-0.792365281683479	-0.595542813847514	-0.792291402675727	-0.595482931229512	0.0047447319457593	-0.000509372634695772
1.7	0.00025149897009425	-0.00409541676142941	-0.874513952436517	-0.465967171370058	-0.874677978785663	-0.465452391027708	0.0044254498567296	-0.00227373322725692
1.8	-0.000307933477076924	-0.00449697444653008	-0.936254705194949	-0.324253551738301	-0.936143728688562	-0.324252143178745	0.00339136018649413	-0.00365899515489226
1.9	-0.00110090151906095	-0.00483759084676979	-0.974921919251558	-0.175427726987055	-0.975014791755071	-0.174941455807296	0.00206230531699919	-0.00461274791623367
2	-0.00282396470911796	-0.00455033575465351	-0.98970410937446	-0.0216480824196952	-0.989716037108228	-0.0216023717199483	0.000287351814145657	-0.00472140118749312
2.1	-0.00322520520372345	-0.00324379337580654	-0.981136947538042	0.131737230395894	-0.981174986357025	0.131774178180972	-0.000277617428071406	-0.00412777122310868
2.2	-0.00363323325837095	-0.00283146714216268	-0.948948256484529	0.282226596020628	-0.9488734402338	0.282289323863325	-0.000729182478314363	-0.00418321724873622
2.3	-0.0042016345449077	-0.00229115929633783	-0.89379558725412	0.425339189993677	-0.893415079214178	0.42585158670588	-0.00148043129764194	-0.00429727810851388
2.4	-0.00489460454676544	-0.0018595645372938	-0.81609853060535	0.559644383845945	-0.816363525455013	0.559059719764014	-0.00243585260213903	-0.00432949093859752
2.5	-0.00622733120738753	-0.00101294546752716	-0.720086485370246	0.679081273919157	-0.72029852625582	0.678572260120089	-0.00364668207392832	-0.00417430704820898
2.6	-0.00665817393814813	0.00117220325527026	-0.606529797159733	0.782538642147417	-0.606423524576737	0.782356514081357	-0.00381259820921017	-0.00296825168626843
2.7	-0.00591720269278169	0.00275126620361049	-0.477204018728758	0.867332939510857	-0.47765135988948	0.866925932914736	-0.00343613194024024	-0.00255456777214499
2.8	-0.00474476399755327	0.00372546189353488	-0.338243700311481	0.93030356064364	-0.33757766772406	0.93046351417253	-0.00331129243833445	-0.00239847325255259
2.9	-0.00316394141376068	0.00420660079153184	-0.189526882800392	0.971663424600057	-0.189557863198101	0.971576133037163	-0.00286899323798181	-0.00188757809109233
3	-0.00153116900229791	0.00437981697596262	-0.0356180922984232	0.989855033715848	-0.0363179891205748	0.989695031909208	-0.00213861980990355	-0.00124748842449565
3.1	0.000457792208209077	0.00393477612183371	0.117191582054043	0.98318705345004	0.117781550584132	0.983170450242125	-0.000911703527695001	-0.00114561191019118
3.2	0.00174989987566442	0.00282421145386489	0.268724773663786	0.952965095069844	0.268670168406992	0.95290473882952	-0.000346352278930815	-0.00141876091889638
3.3	0.00285892503882884	0.00152888606460755	0.413466545901842	0.899839232101636	0.413329540230978	0.899824737234064	0.000361483883203017	-0.00169557986348287
3.4	0.00324659009947279	-5.48980414539954E-05	0.54827857650244	0.824987107342886	0.548116184104052	0.825104618547206	0.00100379457427295	-0.0024345982028787
3.5	0.00331141739993344	-0.00104591977463885	0.669803429143386	0.729677783047279	0.669723821857283	0.729716385149587	0.0014105822811297	-0.00280424131528636
3.6	0.00361857865178221	-0.0023147470499453	0.77410148473519	0.617483370511263	0.774343110572355	0.617035517770736	0.00208717402844043	-0.00378492202397036
3.7	0.00334261678862361	-0.00393719025164699	0.860977154101845	0.489537531341563	0.860858632847481	0.489680331174633	0.00202793324077431	-0.00490731832254598
3.8	0.00243723158719428	-0.00539548484074725	0.926501308751047	0.350567546247728	0.926558814197812	0.350188553480445	0.00159888587220977	-0.00595531495916921
3.9	0.00123971039502932	-0.0068076605112021	0.969902049257678	0.201219364515468	0.969662526461768	0.201886304399498	0.000407242498177356	-0.00719439488325514
4	-0.00109445759731473	-0.00732810405445714	0.989061677287526	0.0493184012921275	0.989022538794018	0.0494211489753174	-0.00104196077379606	-0.00746207991559475
4.1	-0.00244851175237563	-0.00718625774125462	0.985361859471556	-0.104466578757527	0.985177042329891	-0.104339838153923	-0.00159304885000719	-0.00770656780516916
4.2	-0.00424848048861434	-0.00723980913447143	0.957132392648224	-0.256974702845143	0.957166043947579	-0.256320571887594	-0.00262183784919659	-0.00836004382408087
4.3	-0.00609699488038423	-0.00705233869158531	0.906027576548255	-0.401890290781565	0.905891408241002	-0.401779390374036	-0.00397899918144806	-0.00895841039589637
4.4	-0.00817439510410559	-0.00655904749531701	0.832751047495125	-0.537493522766443	0.832585452872512	-0.53736048133995	-0.00567338901670786	-0.00939055277149829
4.5	-0.0107953419507284	-0.00554212404019312	0.73996461688328	-0.660318572564265	0.739775113016552	-0.660145722278019	-0.00791606071555336	-0.0092334190522038
4.6	-0.0127230182201873	-0.00303305358859107	0.628011738873776	-0.768309023289567	0.628352629878085	-0.767609025238829	-0.00937214411973251	-0.0083271940117268
4.7	-0.0137439046333817	-0.000776591683272824	0.5013789811491	-0.856407679273932	0.501394706164823	-0.856051090933352	-0.010692265989397	-0.00794688000824259
4.8	-0.014382428518511	0.00179804731711931	0.36210683977453	-0.923841779285868	0.362328205355521	-0.923524181257158	-0.0120142613689443	-0.0074174438748616
4.9	-0.0141731871563698	0.00419044648712566	0.214881534299622	-0.968639161897726	0.214660970197152	-0.968647451443152	-0.0130950890191759	-0.00666284330623793
5	-0.0134056984405692	0.00667642327534183	0.0612693778164817	-0.99084243696129	0.061446759156285	-0.990595999512335	-0.0137019980828654	-0.00526121716010229
5.1	-0.0114752670401657	0.00857106905795203	-0.0935312731930235	-0.988152604473734	-0.0931988511889449	-0.98792621365592	-0.0137235200332155	-0.00412400916056582
5.2	-0.00950883286515794	0.0100238787307915	-0.245949357393477	-0.961682358120745	-0.245455899861806	-0.961654884266721	-0.0140896605818069	-0.00282522016545233
5.3	-0.00742057857185426	0.0109697942050005	-0.392418472198796	-0.912014675174751	-0.392076383206703	-0.91223129091958	-0.0141157307461541	-0.00124846019427472
5.4	-0.00549149453985412	0.0118570875814075	-0.52977934874355	-0.840139660258204	-0.529565642005041	-0.840341049980826	-0.0140237492049885	0.000458690544766933
5.5	-0.00330436459084513	0.0133294105432445	-0.654085108367579	-0.746993346950213	-0.653845305905488	-0.747188766079937	-0.0132356160165507	0.00266416815218682
5.6	0.000274043443574307	0.0136709549764544	-0.761649195124096	-0.636377988005088	-0.76145880166171	-0.636550365329943	-0.0117180409404348	0.00326744927116969
5.7	0.00296716843672609	0.0128181544082213	-0.851473060753437	-0.510447493025612	-0.851343214366539	-0.510668067972238	-0.0113708833991769	0.00390504105746061
5.8	0.00520560738177787	0.0117076539846455	-0.920493884290316	-0.371713393184979	-0.920425784050382	-0.37199940860535	-0.0111280787626274	0.0049445010850661
5.9	0.00672184192250363	0.00989576014605403	-0.966944097974258	-0.223973630854584	-0.966958653412288	-0.224057547468031	-0.0110804850510748	0.00612898244668101
6	0.00719730161984414	0.00917236528619034	-0.989588603093816	-0.0714194979481129	-0.989468994540513	-0.0714777305503257	-0.0108892350350046	0.00867305290997715
6.1	0.00925537785150416	0.00831506657265236	-0.989064752030069	0.083045651952728	-0.988937690093602	0.0828966516052727	-0.00836475187744583	0.0102630652020397
6.2	0.0106632112283054	0.00622809039684321	-0.964079010975341	0.236028751934079	-0.96406537658874	0.235825215334248	-0.00646909573190862	0.0102875364632218
6.3	0.0112236661780383	0.00356018599328959	-0.915520973828642	0.38302128774621	-0.915516604905047	0.382835326802788	-0.0050524750723716	0.00969944587898677
6.4	0.0108947793601184	0.000591876936776756	-0.844749272117945	0.520404189053523	-0.844717705086229	0.520192841465522	-0.0043831036557291	0.0086735685920808
6.5	0.00958484742776973	-0.00206379473310449	-0.754106478679676	0.645364901370717	-0.754130894565865	0.645160105897949	-0.0042051113512566	0.00798968805949315
6.6	0.00810949388517815	-0.0042226715186108	-0.644267539478066	0.755269413962079	-0.644342151092191	0.755016448357253	-0.00401322128281194	0.00757924617035693
6.7	0.00614698993319257	-0.00591952335476855	-0.51866175501043	0.846011756313853	-0.518765433685606	0.845790047073107	-0.00392509664668946	0.00756955725321633
6.8	0.00422155365477231	-0.0070035187029501	-0.38081307813034	0.916151283122281	-0.380955611703712	0.915980326306323	-0.00357131666092011	0.00782234968421188
6.9	0.00206258809187583	-0.00769020763134556	-0.233893972525986	0.964199933382081	-0.234121672077375	0.964089724189836	-0.00290183713011265	0.0080580072178118
7	0.000368232977420778	-0.00765309158601685	-0.0806104237824871	0.98905334411361	-0.0808213420055751	0.988963928228676	-0.00180266304854263	0.00806268076914123
7.1	-0.00128112509926784	-0.00767703243555003	0.0743738744686266	0.988776512310632	0.074170740430292	0.988643684759526	-0.000937580415173956	0.00765131385667986
7.2	-0.00283935784915914	-0.00726170411104158	0.226969759578636	0.964812374509055	0.226686748234856	0.964778891958823	-1.96772466002034E-05	0.00750821675613344
7.3	-0.00432826965276166	-0.00665673744869009	0.374036769993839	0.917603107070538	0.373800225867378	0.917630440990456	0.000983512834609838	0.00716250533256158
7.4	-0.00553603319865591	-0.00577123403525229	0.512253848534734	0.847995154940788	0.512040166680729	0.84804745861935	0.00175669248773304	0.00654377085930873
7.5	-0.00644133649247338	-0.00459727513730164	0.637461206657701	0.757040272165023	0.637291781877278	0.757110977838953	0.00272823015378499	0.00610253943224616
7.6	-0.0064351272298474	-0.00372690138872324	0.746515756074367	0.648807717229751	0.746258335960549	0.64889151642945	0.00394586901556245	0.0046474366333166
7.7	-0.00668800642874706	-0.00295159093566392	0.837943139528105	0.524943452346574	0.837758534137574	0.525161787087943	0.00408569128951442	0.00305775944950297
7.8	-0.00658839345385448	-0.00211663975375	0.909098848220103	0.388112203704251	0.908996900956747	0.388338353434474	0.00394308281782854	0.00169845069723741
7.9	-0.00680315673715721	-0.00140971075829845	0.957769108996969	0.241982498952584	0.957631950928203	0.242162993977355	0.00320519759993429	0.000841010900478148
8	-0.00690339332047466	0.000390013485154296	0.982774459759338	0.0909014248389263	0.982752640891039	0.0911642318346035	0.00240109750080013	0.00116986491768897
8.1	-0.00541781570769156	0.00191078460222699	0.98531222191089	-0.0626235110757515	0.985342285704703	-0.0623679859681586	0.00312732652760205	0.000800633554913636
8.2	-0.00399815403675921	0.00241280417346876	0.963261538588389	-0.215042551984784	0.963311357217785	-0.21472564777167	0.00261819001972934	-0.000303569419718841
8.3	-0.00285517277851103	0.00277530856810664	0.917676608337318	-0.361832447000163	0.917729299147047	-0.361545600833558	0.00158502897515419	-0.000864291796268695
8.4	-0.00165137954639041	0.00260706168850497	0.850053997183209	-0.499365921399716	0.85015261124054	-0.499164499381214	0.000305589880743915	-0.00117599589880214
8.5	-0.00164512352523262	0.00280307108617414	0.762728428238541	-0.625090902584316	0.762780404426515	-0.624940407962093	-0.00144302425045473	-0.000177946987585694
8.6	-7.46833742405964E-05	0.00375935162881496	0.655650967963216	-0.736146015209695	0.655820508328858	-0.735909748356037	-0.00101983515216128	0.00132283776712013
8.7	0.00168129495316979	0.00370862231380501	0.532949037612095	-0.828386155505401	0.533209032522762	-0.828172113868119	-0.000505020016629361	0.00185544116281223
8.8	0.0036334411345042	0.00313630864026961	0.39800039555819	-0.900488719113833	0.398186086080361	-0.900350649452385	-6.21247067358848E-05	0.00213400359080071
8.9	0.00539655056515375	0.00179051068694451	0.253682784501123	-0.951226792155752	0.253862387031475	-0.951057703487828	0.000622835560394182	0.00239123119378234
9	0.00662033245288244	-3.29844529046649E-05	0.102263665129946	-0.978940443824231	0.102571811390796	-0.978895459689005	0.00150427967231428	0.00286449875954022
9.1	0.00775966555266676	-0.00179735289798093	-0.050761073714273	-0.981892853229991	-0.0504524040115219	-0.98185348981227	0.00335807009557818	0.00302118105020931
9.2	0.00859593098305414	-0.00375624300238197	-0.202179247810168	-0.961702540547174	-0.20183245189048	-0.961681907788072	0.00554531165085604	0.00258391904558033
9.3	0.00913777515152277	-0.00568109198955111	-0.348744761881887	-0.918481952452286	-0.348393677466156	-0.918458051194964	0.00816376372335055	0.00125192319291647
9.4	0.00896412701845428	-0.00802223382406119	-0.487051649089321	-0.85292835987951	-0.486729818014421	-0.853020468512385	0.010045620974982	-0.00147293400345006
9.5	0.00812784340285239	-0.00866864894087163	-0.612768814960561	-0.765888628560797	-0.61253306136819	-0.765939841347381	0.0110031528228756	-0.00409302915970088
9.6	0.00818516028178807	-0.0102139151090679	-0.723185172025296	-0.661758862538734	-0.722875472060065	-0.661898141788437	0.0108046069752896	-0.0082626397924535
9.7	0.00719078337995805	-0.0112909344857879	-0.816718831708269	-0.541696329234055	-0.816433401088025	-0.541929237303801	0.00810642420498329	-0.0115754578807894
9.8	0.00620111170323197	-0.0121128999007703	-0.890466604601967	-0.408423753133037	-0.890215052902763	-0.408592750208303	0.00454740057446353	-0.0135769394498845
9.9	0.00467641115184104	-0.0126581399487894	-0.942311410094173	-0.265297530975535	-0.942061049942058	-0.265505999375716	0.000293083146623061	-0.0142369730126828
10	0.0027934135386287	-0.0115793468716459	-0.971276636538564	-0.116958857889371	-0.971124550382305	-0.117319389046393	-0.00358860247549957	-0.0123565340107771
10.1	0.00289061624977575	-0.0106962754332213	-0.978012190957112	0.0347748960694692	-0.977949676108696	0.0343455516788281	-0.00563215292728489	-0.0111156104667394
10.2	0.00270857764209109	-0.0106489074642869	-0.960641092219066	0.185970283887507	-0.960520523135428	0.185541229603213	-0.00851817392309946	-0.0095750287830049
10.3	0.00230563613798655	-0.0105925860099227	-0.919872713339907	0.332350342117078	-0.919890668522265	0.331811959916041	-0.0111847109670726	-0.00718840571043467
10.4	0.00166635549885963	-0.0110738824753247	-0.857202072161754	0.470096108400566	-0.857338198500712	0.46958792473533	-0.013331641375279	-0.00429331510899576
10.5	0.000329013667727954	-0.0106909239724788	-0.774879929662913	0.597314821063344	-0.775052070276443	0.596885059595964	-0.0144073683936453	-0.000277252962508134
10.6	0.000191844727557926	-0.0101050333873997	-0.672427436621646	0.710436092986242	-0.672698695904686	0.710108099717576	-0.0131129237251086	0.00336032366399037
10.7	0.000219203441148219	-0.0100330606909981	-0.554045508788421	0.805626590338971	-0.55434457314717	0.805319216311296	-0.0110027502274289	0.00574928638766978
10.8	-3.96174466456025E-05	-0.0106012140429536	-0.422728802851543	0.881349056145816	-0.423077540180462	0.881052721009957	-0.00892133020732932	0.00722698822737647
10.9	-0.000910197238202721	-0.0107852951990702	-0.281541891825361	0.936358034771209	-0.281929863668418	0.936235723341715	-0.00713348567031529	0.00853145352852172
11	-0.00156043642520923	-0.0107203280584225	-0.132331383956315	0.96895431618031	-0.132766002124107	0.968864371264189	-0.00461202206735561	0.00971517769910352
11.1	-0.00199699765433714	-0.0107264069991021	0.019228517346816	0.976791078815738	0.0187429290084734	0.976804472126304	-0.00186242376549808	0.00991621237475616
11.2	-0.00248931796692828	-0.0109790105703056	0.169818941628241	0.962040728746465	0.16936475974179	0.962113024708617	0.000935618334027897	0.00960610260107015
11.3	-0.00312442428163072	-0.0112526173684603	0.316602896560824	0.924394123546378	0.316146600833012	0.924529401259522	0.00381863592156835	0.0086859717817039
11.4	-0.00434475358059176	-0.0115586422153447	0.456336224590968	0.864234137977656	0.455934762510655	0.864346244869467	0.00617799095834393	0.00749528960137373
11.5	-0.0052634378109324	-0.0104833267716704	0.584129318435461	0.782188522515063	0.583812687361836	0.782488304754941	0.00901926425090192	0.00639290691834163
11.6	-0.00553357112452184	-0.0106886613854292	0.697524080846528	0.683034723726267	0.697309539866343	0.683359639761426	0.0112244657151395	0.00309457827024387
11.7	-0.00656308564746923	-0.0106110409943549	0.795116511738934	0.567121330965218	0.794913844529525	0.567425251279334	0.0116600609647194	-3.32439120436754E-05
11.8	-0.00789912878490598	-0.0105055553823613	0.873576199888111	0.436964857799207	0.87339431981631	0.43741218012249	0.0111285024376737	-0.0028700904380842
11.9	-0.00988362894250119	-0.0100543732089714	0.930255460075944	0.296339771286115	0.930148970849419	0.29678619653193	0.00944736195430568	-0.00497095498564532
12	-0.0120033729252526	-0.00769853814531038	0.964781398689556	0.149868611655108	0.96475119665653	0.150230413251966	0.00846463514825477	-0.00487883741907002
12.1	-0.0120091944201284	-0.00568140978772773	0.977284083179643	-0.00132987824190932	0.977211715791677	-0.000947772055206693	0.00887386729332849	-0.00673089124591759
12.2	-0.0125043652666733	-0.00442017758511709	0.965457823639116	-0.152909986683491	0.965473787277144	-0.152613505278767	0.00746373163064922	-0.00900363453056987
12.3	-0.0129499672836677	-0.00289182920187127	0.930058543637415	-0.300464084006812	0.930175825628669	-0.30015844189323	0.00536605692298848	-0.0107361009749869
12.4	-0.013559145562082	-0.001650015505233	0.872953512538398	-0.440432736503951	0.873014062969467	-0.440064558555678	0.00257557987790077	-0.0119215366911888
12.5	-0.0144582955764825	0.000703017867170166	0.795400105165788	-0.571032352063736	0.795736799502454	-0.570640969983304	-0.000642777618668116	-0.0112853979145166
12.6	-0.0134924504531722	0.00317982372765545	0.696976089384602	-0.687975700669498	0.697225368785056	-0.687732305269564	-0.00207069684375281	-0.010664268345603
