# GHZ S RI R 50
0.2	-6.78486336921575E-05	-0.000423360955261028	0.95049201376115	-0.30762902442373	0.950269458844834	-0.307603723881126	-3.34489869192862E-05	-0.000359253854188875
0.3	-0.000382835278674723	-0.000377724087378071	0.890903326028761	-0.451474051586245	0.890746804022666	-0.451378674773254	-0.000409572439399684	-0.000541449680595868
0.4	-0.000550293692207412	-0.00018242166389558	0.809862199435986	-0.584179745042232	0.80987404070223	-0.584204898442848	-0.00071768026565055	-0.000428123955494506
0.5	-0.000496244169988352	0.000426134798538854	0.709129954385211	-0.703429620445548	0.70897449190599	-0.703328008440391	-0.000638113726956943	0.000174395688196358
0.6	-4.4224935331052E-05	0.000213616416659909	0.590747407171181	-0.80470351566187	0.590627803096195	-0.804541519804027	-0.000233179118327899	-0.000164052639289862
0.7	-0.000185655152422568	0.000233021619803472	0.458612333213627	-0.886440082738131	0.458593446579405	-0.88632733200104	-0.000405294590989973	-0.000422126684988437
0.8	-0.000128334194040646	0.000204898088933377	0.315295705745422	-0.947004736615859	0.315264150639838	-0.946814510018791	-0.000665393125630845	-0.000470512645354938
0.9	-0.000444437916665804	0.000229961200811694	0.164059600386389	-0.984490438213153	0.163994351429697	-0.9843982687838	-0.00133132280060208	-0.000590444538137327
1	-0.000705130328088685	0.00130231289818413	0.00882227035227889	-0.997311491382044	0.00877049643888391	-0.997279936778935	-0.00198359477685367	0.000712756977684302
1.1	0.000795477849629227	0.00118031757018329	-0.14560911958804	-0.986681748629647	-0.145624948368663	-0.98655096681697	-0.000798663829702998	0.00100620411938537
1.2	0.00115637053832749	-0.000286165584277252	-0.297430750951351	-0.9521697308914	-0.297354148696781	-0.952143551617429	-0.000312446357019388	0.000941876996769565
1.3	0.00136582592862703	-0.00221891376591079	-0.441931042021033	-0.894185465800018	-0.441907935227566	-0.894178837058839	0.00120452127810385	0.00119059661867861
1.4	0.0011810828852695	-0.00443938737316982	-0.575212312574258	-0.814295617695216	-0.575188053951788	-0.814273933935899	0.00304278027702614	0.000402098840857185
1.5	0.0015222497796575	-0.00590350317598433	-0.694268681186439	-0.715234706027364	-0.694166624274439	-0.71514951020844	0.00540236765059659	-0.00137794251713423
1.6	-0.000328321231192514	-0.00735007886508724	-0.797544800735072	-0.598885964795263	-0.797470436852572	-0.598825743398468	0.00394397600666907	-0.00407133866793255
1.7	-0.00171196139716129	-0.00636384436353664	-0.880659502109615	-0.467737276043005	-0.880823874269508	-0.467219025843511	0.00245443836000128	-0.00428026984590424
1.8	-0.00258133266480979	-0.00541917827459486	-0.942633222668594	-0.324546660765337	-0.942521557753831	-0.324545446255607	0.00118922145675115	-0.00434247676779276
1.9	-0.00324164683452224	-0.00393058631752207	-0.981252491449414	-0.174713191255804	-0.981345040681264	-0.174223752600067	4.36975759720317E-05	-0.00352595200174217
2	-0.00187428860030344	-0.00285563306752423	-0.997032274418093	-0.0196287762458756	-0.997044189294265	-0.0195827029864189	0.00133081165279075	-0.0029234753442288
2.1	-0.00256780692523522	-0.00420109173326996	-0.987605718628375	0.136510690111179	-0.987643883751792	0.136548049645423	0.000425449699143514	-0.00495653233140282
2.2	-0.00418011037188897	-0.00360454528078556	-0.953912365081607	0.288210482683826	-0.953836786592198	0.288273293597472	-0.00119709104095794	-0.00480370134436153
2.3	-0.00525088915513376	-0.00252683783838339	-0.897538491835633	0.432208349442049	-0.897153171630581	0.432722257549752	-0.00240041942332264	-0.00440338754175384
2.4	-0.0064152928733886	-0.000986163878811352	-0.818731586554229	0.56759834023113	-0.81900136345108	0.567011093185427	-0.00378665403598871	-0.00340602002244123
2.5	-0.00559532231911457	0.00166253111521715	-0.720102536771586	0.688606695611555	-0.720319538414071	0.688095797177973	-0.00290158236761833	-0.00159936021676506
2.6	-0.00445435985302797	0.00141104621456559	-0.603870253400158	0.790834673767563	-0.603764773476064	0.790650868106752	-0.00163770991557403	-0.00283538283240302
2.7	-0.00443819172479621	0.00162901904904386	-0.473216966459083	0.874833232998255	-0.473669331302606	0.874427527236309	-0.00206922573881157	-0.00372120485779338
2.8	-0.00419554985946897	0.00207856273162129	-0.332686314253912	0.937135166792442	-0.332016018305544	0.937290766166058	-0.00291148820731339	-0.00401669684592434
2.9	-0.00324774376091456	0.00268605081814831	-0.181922370907707	0.97734512465373	-0.181954234303125	0.977257737371815	-0.00312255379876384	-0.00328976567367581
3	-0.00180958636925725	0.00250868415710176	-0.026681942350715	0.992343387935287	-0.027384826327123	0.992189409889445	-0.00258340013621375	-0.00291738322997053
3.1	-0.00109505910340093	0.00235899868627209	0.125278935449954	0.984224695542394	0.125869955635009	0.984203347297243	-0.00257088733038291	-0.00253320613954893
3.2	3.41350513267341E-07	0.00216165909581971	0.277266177988505	0.952680714078341	0.277210954146963	0.952620690844704	-0.00214027707779893	-0.0018126667311821
3.3	0.0011985183138795	0.00157155503490727	0.422113302393193	0.897493759346714	0.421975962767886	0.897480465331031	-0.00129981060037866	-0.00139367045429539
3.4	0.00217393398808176	0.000846216717887278	0.55597620268071	0.82019658507751	0.555814840966403	0.820315614120087	-5.50180264573466E-05	-0.00130631452874565
3.5	0.00376466286505322	-0.000998719959641903	0.675180697053744	0.724285302017037	0.675101413292586	0.724324502477274	0.00183964678608857	-0.00254243557644791
3.6	0.00265402291350988	-0.00315759893215604	0.779639158280735	0.611548195836535	0.779877277027303	0.611098084243152	0.00110553438785615	-0.00435527900135595
3.7	0.0017982045623538	-0.00395773552022825	0.865293109593272	0.48185252396485	0.865175864714335	0.481996371816856	0.000526333104704335	-0.00464089385431811
3.8	0.00078789123276052	-0.00463136289837317	0.928775510000422	0.341957498807164	0.928829573211694	0.341578343823048	4.47967843614398E-05	-0.00493846104450187
3.9	-0.000125367275852172	-0.00469283892919971	0.970116018603007	0.192880771015164	0.969882381314158	0.193548696266714	-0.000838919771259558	-0.00490489633124116
4	0.000312296129934945	-0.00483857207630729	0.989141848154642	0.0410629960032562	0.989103578635574	0.0411660353637521	0.000395175381633123	-0.00489117315655965
4.1	-0.00110340084084479	-0.00699577825676228	0.982970675316498	-0.114144644956404	0.982787374610124	-0.114016235899159	-0.000318299773639775	-0.00738274779928037
4.2	-0.00362372578000788	-0.00728773418081313	0.952073080967777	-0.265707763084906	0.952113076272877	-0.265055693578794	-0.00207904122660636	-0.00822013039694647
4.3	-0.00590106163729392	-0.00717212986125431	0.899260829533534	-0.409160219008135	0.899126156593472	-0.40904839095549	-0.00385090299091598	-0.00886134655061916
4.4	-0.00869659423988334	-0.00608987583765304	0.825027970492708	-0.543592467874594	0.824864157410353	-0.543458297624232	-0.00623084156272407	-0.00872404708064274
4.5	-0.00983146423591673	-0.0035942915013873	0.729724638441962	-0.665933891486738	0.729537798573537	-0.665759617848217	-0.00704094866454151	-0.00718382747758894
4.6	-0.0107170559004878	-0.0030175799292546	0.615993687924491	-0.769939296413479	0.616339691455676	-0.769247324265001	-0.00759525071650709	-0.00816090244532694
4.7	-0.0124168398457372	-0.00163524794204573	0.489802509125817	-0.855131000555265	0.489821482034596	-0.854777057810849	-0.00966326436051936	-0.00854853905482687
4.8	-0.0136837375692394	0.000586966491150902	0.351073532365862	-0.920310094795454	0.351296141560757	-0.919996842072662	-0.0116331242235528	-0.00826163675742445
4.9	-0.0140335050860989	0.00307284901897653	0.204063072713498	-0.962861379258202	0.203844205584682	-0.962867532397509	-0.0132526062852562	-0.00730012617810796
5	-0.0131777984226367	0.0052922367860412	0.05187887426972	-0.980859104782162	0.0520565453439637	-0.980616849338444	-0.013730060669398	-0.00603615389209237
5.1	-0.0125852217996437	0.00707172107258643	-0.0989232361916531	-0.976996034904837	-0.098592899707446	-0.976774211402945	-0.0149389789802465	-0.00491277897599643
5.2	-0.0111875348500919	0.00960601841460289	-0.24914625694353	-0.950110278103942	-0.248657813872989	-0.950086057674773	-0.0156915180177808	-0.00253522251364341
5.3	-0.0089094438252833	0.0117554051451288	-0.39328912057662	-0.899716535608524	-0.392952040310246	-0.899932712078977	-0.0153898631339471	0.000144411653394022
5.4	-0.00555120101935255	0.0139702778180093	-0.52742957656098	-0.827205829725395	-0.527219489276262	-0.827405803723025	-0.013842667803523	0.00302842085976845
5.5	-0.000479901386151457	0.0131259569609614	-0.647564275160014	-0.736248162189124	-0.647327890331116	-0.736441669451199	-0.0102943836050175	0.00284249674002463
5.6	0.000218314441494414	0.0115844861601357	-0.754641809915276	-0.627824580375846	-0.754453859725645	-0.627995468443485	-0.0116714990936159	0.00168640427591492
5.7	0.00164523525360718	0.0119011887115113	-0.842877642945821	-0.502888757235928	-0.842749727611625	-0.503107100474619	-0.0124732914545315	0.00349864043784982
5.8	0.00354048407281371	0.011996920576283	-0.910024277790013	-0.36608661023392	-0.909957361795418	-0.366369310513176	-0.0124565960240627	0.0056560982773772
5.9	0.00555102168384983	0.0123150528429408	-0.955262843500406	-0.221569265613322	-0.955277199337357	-0.221652178407104	-0.0118795538197281	0.00875367939496951
6	0.0105216945995177	0.0115560384186775	-0.979673902361551	-0.0715657901026095	-0.979555434263761	-0.0716233390609077	-0.00745314925161194	0.0110689541484608
6.1	0.0119416704720871	0.00669279813768327	-0.978466943773747	0.082506998344368	-0.978341292001425	0.0823595455090817	-0.00577442923763814	0.00881479453324828
6.2	0.0115576664871972	0.00394022651941312	-0.95307699022174	0.232802635032937	-0.953063407001387	0.2326014543729	-0.00568987330942783	0.00832197696149242
6.3	0.0107284020939944	0.00136784722096343	-0.905552090938167	0.377098963807249	-0.905547469660019	0.376915161595867	-0.00557479678084134	0.00794704979784524
6.4	0.00943980003402949	-0.000523116214575216	-0.836920785495822	0.512844347700747	-0.836889060236724	0.512635338652681	-0.00575919510311933	0.00801677384019535
6.5	0.00840619004939428	-0.0024041587717631	-0.746485989975342	0.637599063172046	-0.74650994417878	0.637396480968411	-0.00520045628589466	0.00807090242223894
6.6	0.00681332813755844	-0.00390328974533416	-0.637911762238871	0.743990028426792	-0.63798478568076	0.743740113895133	-0.00503812796183732	0.0081996391634445
6.7	0.00552722167375602	-0.00499002563375269	-0.515722486147041	0.833324177289579	-0.515823952442706	0.833104796944733	-0.00429776712753555	0.00865640928072945
6.8	0.00431716209422646	-0.00610158273133643	-0.38084475995057	0.90345013255857	-0.380984765258581	0.903280490027977	-0.00332729355117088	0.00878342118812552
6.9	0.00285623935903699	-0.00709068031842091	-0.235824790621799	0.951900187297119	-0.236049320887337	0.951790159263594	-0.00212141187097704	0.00872486446359808
7	0.00121990909663198	-0.00825589541050441	-0.0853077931669773	0.975165794659672	-0.0855153269295309	0.975076356771833	-0.00108915380630515	0.00756354504996254
7.1	-0.00132556782734182	-0.00826768143393853	0.0648703360068843	0.977140597067896	0.0646708776485257	0.977007656720599	-0.00119399844545245	0.00725994840331134
7.2	-0.0030144216355784	-0.00762971567499355	0.215500070524105	0.956147823196396	0.215220527636955	0.956112092826037	-0.000433008349125953	0.00742295315212717
7.3	-0.00458422039375336	-0.00691900995145503	0.36119765781162	0.911378681889062	0.360963383365188	0.911403445821999	0.000471936620462897	0.00725949135410303
7.4	-0.00565970723581796	-0.00579292397562437	0.497674863293932	0.843919033700801	0.497463012271678	0.843968518276534	0.00137409993478244	0.00698279528546674
7.5	-0.00590568511153937	-0.00533376519304758	0.62071575095278	0.758091639279171	0.620547071444588	0.758159323096094	0.00296883370313946	0.00591707431296767
7.6	-0.0073485069297074	-0.00510265914693026	0.732352174890701	0.654154063276546	0.732095495234309	0.654233785445586	0.00287458872152983	0.00395326858711056
7.7	-0.00851383560220485	-0.00349640469828362	0.825421579764784	0.532485487179094	0.825235328799656	0.532699928628926	0.00227978983471394	0.00324303162812521
7.8	-0.00883760325385639	-0.0014670151534662	0.898076090686244	0.398164508956714	0.897971676603591	0.398387842498135	0.00185898469149789	0.00298887687432719
7.9	-0.0085711925578052	0.00131134905097789	0.949004352413221	0.255230601828346	0.948865184500706	0.255408055692669	0.00184689231791515	0.0040101253265829
8	-0.00451187619490546	0.00353141117679854	0.979503748856989	0.105525488764362	0.979478014504122	0.105787458620055	0.00473563815912779	0.00459085932667361
8.1	-0.00304896260347203	0.00171735834019308	0.984173548861976	-0.0494321952351174	0.984200164073492	-0.0491767821131937	0.00531920383055717	0.000878372132451438
8.2	-0.00273526711632693	0.00156969645986119	0.964244384738689	-0.201371112088712	0.964289748411975	-0.201054172002872	0.00363091160650152	-0.000698268460179454
8.3	-0.00244222948387932	0.00162760202027406	0.921838988209948	-0.348167307227203	0.921887477416328	-0.347880032027282	0.00178380213566625	-0.00142948634794081
8.4	-0.00261124528445438	0.00223328561198248	0.858001286321155	-0.487390544467173	0.858097047059987	-0.487187526257262	-0.000767121149393538	-0.000935167795588787
8.5	-0.000434881576998067	0.00444798769869047	0.771332231488974	-0.61664115191828	0.771382446478773	-0.61648982724564	-0.000383069061229455	0.00199339068283879
8.6	0.0018689789284495	0.00229547312355594	0.665445231323688	-0.727559501305467	0.6656116675895	-0.727320969914403	0.000681644925852717	0.000540934954995483
8.7	0.00191806527476144	0.00141502076248308	0.545372181346704	-0.821967441165991	0.545629500705754	-0.821749437591312	-0.000415121837858798	0.000403827546799497
8.8	0.00248202756213256	0.0010095165004825	0.4117420544258	-0.897431843914767	0.411926329414007	-0.897290783636941	-0.00117262382824253	0.00094779846842142
8.9	0.00295814313053632	0.000682215667709405	0.26678619960709	-0.95149321806479	0.266964302308451	-0.95132120797327	-0.00153424756171309	0.00219337690740978
9	0.004653922055559	0.000507994307537032	0.115245422382989	-0.979553036900061	0.115553594469841	-0.979503940994731	-3.59151667763542E-05	0.00413644045817763
9.1	0.00596802823759227	-0.000883854129928159	-0.0362157845771946	-0.986603709969936	-0.0359064649524715	-0.986559551611743	0.00202951185779184	0.00450330183985754
9.2	0.0075642018662971	-0.00194024468476756	-0.189535200487855	-0.970268484693731	-0.189186661147003	-0.970242742124357	0.00495124189134591	0.00477881817629779
9.3	0.0092610702121078	-0.00366887327324503	-0.338694040399211	-0.929339455446295	-0.338340926028621	-0.929310659039596	0.00859458875844111	0.00349300513907979
9.4	0.0105258590519195	-0.00560436845733348	-0.478917268357466	-0.864764313560629	-0.47859217841007	-0.864852770020883	0.0116812079684942	0.00107646813090892
9.5	0.0123364435003199	-0.00976802473486303	-0.605656903751708	-0.781316891659622	-0.605418529308889	-0.781364849625547	0.0149371331664537	-0.00492386668593594
9.6	0.00855511197306808	-0.0132905042008313	-0.721850670509911	-0.678999864875588	-0.721535668694142	-0.679136354779365	0.0109134885669963	-0.0107403275568864
9.7	0.00599102107328758	-0.0130448350951977	-0.819345430250811	-0.558019117437951	-0.819053846498632	-0.558251151176258	0.00682562621597839	-0.0126211088436206
9.8	0.00431168891283048	-0.0126327884034492	-0.896119188524744	-0.423777616689139	-0.895862673007495	-0.423945626182109	0.00273441433526881	-0.013429385969207
9.9	0.00282893348320029	-0.0107616441475657	-0.951076506364487	-0.280287129808539	-0.950820383080048	-0.280495177382184	-0.00139442470041077	-0.0119399376615724
10	0.00541301161756757	-0.00989360075208485	-0.985872653980655	-0.129351724474614	-0.98571419339248	-0.129716500510231	-0.00108266600528078	-0.0104354323307899
10.1	0.00394218401756411	-0.0124511113108817	-0.993665936799594	0.0277607630025723	-0.993599119093327	0.0273251480876737	-0.00485079566394427	-0.0124323206103092
10.2	0.00198271859370439	-0.0120565299642709	-0.976817908107442	0.181892903701267	-0.976692374004065	0.181458097182742	-0.00946101060429517	-0.0104339617694713
10.3	0.000622813868470415	-0.0111388377172443	-0.937038763455536	0.33143756547806	-0.937053326011662	0.330890344305285	-0.0130081211858525	-0.00718818658579885
10.4	-0.000540252161950374	-0.00983881333310317	-0.875307393663033	0.473759082372921	-0.875443119768968	0.473240966493554	-0.0156461598701382	-0.00261011806730227
10.5	0.000569982662836114	-0.00779512950678027	-0.789649231264379	0.606729160428828	-0.789823755525785	0.60629146150961	-0.014373726083098	0.00292281521030218
10.6	0.00185229870224095	-0.00886208332958503	-0.684227544021392	0.720595572840608	-0.684502566805893	0.720261945805857	-0.0118818082005093	0.00490835689265436
10.7	0.00188183887611948	-0.00995939947634622	-0.564259724813398	0.817998138238571	-0.564563235474826	0.81768531016195	-0.00995274031596877	0.0062925256217422
10.8	0.00107810045375112	-0.0111933959349167	-0.430112244697787	0.89623440867208	-0.430466842875393	0.895932958257404	-0.00847474593825678	0.00735720593260075
10.9	-0.000136575677912911	-0.0115260395387506	-0.284264176491479	0.952745670147965	-0.284658950565978	0.952622135470582	-0.00680861140354868	0.00876768262337695
11	-0.00082035539944842	-0.0121715979403069	-0.1317633878953	0.982727240160593	-0.132204259680473	0.982637125613391	-0.00425449831253036	0.00932021903618891
11.1	-0.0023478487226442	-0.0121663414919226	0.0207388010688934	0.991578743866358	0.0202458662811975	0.991592946145373	-0.00249588353315957	0.00970403819366179
11.2	-0.0032265936750422	-0.0119611936310522	0.175153437386375	0.976954810048478	0.174692193113596	0.977029498508057	0.000136720649131309	0.00993599950404606
11.3	-0.00400470251281425	-0.0116475992382025	0.325573347964706	0.937455372762661	0.325110513530615	0.93759475033846	0.00301803549960472	0.00967611878407956
11.4	-0.00457627489076644	-0.0108257405772818	0.467173041919662	0.873991867424131	0.46676653339114	0.874107609495449	0.00618173953021899	0.00946957264086252
11.5	-0.003515693322791	-0.011785051229229	0.595100407715414	0.79181857398184	0.594780074821873	0.792123723651841	0.0109940474101874	0.00621345296151801
11.6	-0.0066481952858631	-0.0132147895725861	0.712913480770495	0.690456056215234	0.71269720111185	0.690787560771965	0.0105353197994982	0.00182115137010128
11.7	-0.00895707986935928	-0.0118023697737341	0.811901878825796	0.57001942308417	0.811698325537416	0.570329652624385	0.00996682526479693	-9.11046738584684E-05
11.8	-0.0108761576537373	-0.0102244187124062	0.890022548837609	0.436053239015454	0.889841748622734	0.436508632512282	0.00904962917142093	-0.00167969421305481
11.9	-0.012194955711545	-0.00681034198164771	0.946100032532924	0.29316409710341	0.945995584495447	0.293617839400902	0.0078732556010649	-0.00121913626055215
12	-0.00958033619846185	-0.00447714400489067	0.982514188838062	0.142820753713738	0.982487067628701	0.143188947275833	0.0115352660023423	-0.00157639197258354
12.1	-0.0104269533914029	-0.00556709945658687	0.991629133299017	-0.013990892601233	0.991560645050435	-0.0136022348633438	0.0106014900880648	-0.00668568027292808
12.2	-0.0117109591326235	-0.00439813980950931	0.976118812720422	-0.167809074947803	0.976138943936278	-0.1675089059633	0.00817250135757957	-0.00889927448867247
12.3	-0.0124206087126567	-0.00296298214908488	0.937737306521841	-0.317020438733784	0.937860264534886	-0.31671252726376	0.00569101895853267	-0.0105883840674744
12.4	-0.0136416245967675	-0.00111357907592992	0.87794873130015	-0.459367850873174	0.878015604540911	-0.458995689445278	0.00227969512230134	-0.011095407163757
12.5	-0.0122158900922985	0.00207390732800745	0.793544067886437	-0.592582327855015	0.793891995369548	-0.592192916731312	0.00115657095832074	-0.00973120696068479
12.6	-0.0112377819747704	0.00158635160831169	0.689904193836835	-0.706179710344345	0.69015990186699	-0.705938949782337	-0.000480275313346869	-0.0117379303265976
