# GHZ S RI R 50
0.2	-0.000409822404513768	-6.08232311037193E-05	0.948568820190715	-0.308109131082366	0.94834666652011	-0.308083639452864	-0.000434616612337768	6.90313357301958E-05
0.3	-0.000423536039096379	4.46875970336443E-05	0.888455286178761	-0.451710171295969	0.888299215447713	-0.451614786390861	-0.000525276815909402	2.508779084017E-05
0.4	-0.000154185263197286	8.39268318309368E-05	0.806822351613967	-0.58383501914796	0.806834123507015	-0.583860123138767	-0.000372905547170924	5.8387475581451E-05
0.5	-0.000156804980236158	-0.000142083670571684	0.706061389735992	-0.701801113213581	0.705906547070303	-0.701699683100928	-0.000334207818735244	-0.000161986540504133
0.6	-0.000331497091833562	1.50499790087914E-05	0.58826917484866	-0.80272403410785	0.588150071771914	-0.802562436175016	-0.000623020338300037	-5.77996015135246E-05
0.7	-0.000188578375053609	0.000297508080716688	0.456179699435709	-0.883926542559126	0.45616098982831	-0.88381415127226	-0.000501867205724622	9.82745497870888E-05
0.8	0.00012409885626189	0.000305119544454104	0.313240872906011	-0.94367486032255	0.313209609331112	-0.943485331182619	-0.000405188189281932	0.000235222568855074
0.9	0.000422900593261073	0.000393637453885916	0.162952797741609	-0.980405698910809	0.1628878629378	-0.980313890889412	-0.000214188954594421	0.000277997834619472
1	0.000803501217855367	-0.00023491479456436	0.00887829009834734	-0.993613637940454	0.00882670534604996	-0.993582204920674	0.000128446027728607	-0.000353088417434528
1.1	0.000208772067782545	-0.000433749686778713	-0.145599286785587	-0.982773781861163	-0.145614980612073	-0.982643498294951	-0.000850906772005052	-0.000571021076595318
1.2	0.000341101062791042	-0.000824510942286476	-0.296422766123314	-0.947801459773935	-0.296346498172593	-0.947775423965068	-0.000899286330288578	0.000190732405028857
1.3	0.000417748765466011	-0.00202040445691211	-0.439735614185259	-0.89001653407137	-0.439712617293787	-0.890009933854178	3.72543752595483E-05	0.00113041394757073
1.4	0.000328488888620814	-0.00366195348697404	-0.572177156410813	-0.810925133387991	-0.572153019003971	-0.810903534621451	0.00159047701617407	0.00120820448537582
1.5	-0.000305087853928521	-0.0044931113971459	-0.691344700182715	-0.711987036278519	-0.691243076370344	-0.711902230531813	0.00264419877538288	0.000529955952795728
1.6	-0.000161008779752285	-0.00444139188895198	-0.792943097060283	-0.59558964695278	-0.792869162821201	-0.595529757804878	0.00334185956082039	0.000131326278977675
1.7	-0.000220145804830425	-0.00484538128832893	-0.875009624322186	-0.465874085195624	-0.875173552071096	-0.46535904814233	0.00376640273185309	-0.00112303297727698
1.8	-0.000774914055932092	-0.00510616225297025	-0.93671371765697	-0.324091757747513	-0.936602698068199	-0.324090382582032	0.00334470824382735	-0.00245238204707979
1.9	-0.00138773503746737	-0.00526400106719723	-0.97542697571198	-0.175169600067057	-0.975519721911189	-0.174683075096309	0.00260628846924351	-0.00367467667076603
2	-0.0029440374100323	-0.00528362539090434	-0.990094102191636	-0.0210479862893365	-0.990106006351126	-0.0210022508552087	0.000684921362746262	-0.00466068135097296
2.1	-0.00358732658044493	-0.00386934893357444	-0.981203706487961	0.132257465567261	-0.981241731593171	0.132294437874817	-0.000467982276680532	-0.00361500686476478
2.2	-0.00393390828904602	-0.00337768121355876	-0.948977122054108	0.282695450459671	-0.948902265658714	0.282758155184646	-0.000552408217799577	-0.00335763866214741
2.3	-0.00449638997815027	-0.00277584396279542	-0.893750101207646	0.425857257450034	-0.893369271103802	0.426369560797696	-0.000867964352012857	-0.00355547481521676
2.4	-0.0050518791339175	-0.00217363299292178	-0.815838220159928	0.56022952921938	-0.81610361825085	0.559644965110262	-0.00130785298072307	-0.00400582058512855
2.5	-0.00604038195168431	-0.00163311177096658	-0.719538116522641	0.679339159491727	-0.719750399807219	0.678830380682229	-0.00255641826418493	-0.00522027814788787
2.6	-0.00679791430265733	0.000361172759897746	-0.606214790173479	0.782665663396515	-0.606108587626514	0.782483517271597	-0.00419640192089892	-0.00433961799234034
2.7	-0.0061950003426814	0.00207425368686915	-0.476824988107995	0.867497135276753	-0.477272480791142	0.867090330469153	-0.00461403588506047	-0.0032638696918361
2.8	-0.00493378231207603	0.00319194096246384	-0.337756314948314	0.930350253354151	-0.337090288311294	0.930509868125397	-0.00459315940349317	-0.0023349625673494
2.9	-0.00315823451924829	0.00360360394926673	-0.189053416706168	0.971431444464052	-0.189084424218318	0.971344194122795	-0.00388905656608405	-0.00141501344140689
3	-0.00154733656337235	0.00355450482092998	-0.0355514750952291	0.989623621463452	-0.0362512162326815	0.989463698567445	-0.0031251536523315	-0.000531504307184442
3.1	0.000429464281458133	0.00303854021114941	0.117473265824083	0.983164592371207	0.118063236189281	0.983147820739326	-0.00148798703043786	-3.68969916960861E-05
3.2	0.00164545218677917	0.00180547094974892	0.269054504744705	0.952734832166956	0.268999883616798	0.952674504931284	-0.000536750185880694	-0.000376752088644002
3.3	0.00265958776477668	0.000499225534738438	0.413649546143176	0.899486512317348	0.413512569651856	0.899472064403045	0.000377754252136126	-0.000819129130473084
3.4	0.00308204593937524	-0.00111335654431274	0.548259903636165	0.824745993988554	0.548097559838418	0.82486349947259	0.00110302109918678	-0.0018920269485348
3.5	0.0029003045648744	-0.00229381019201543	0.670125687369208	0.72961939197945	0.670046076813917	0.729658023154479	0.000834133820914058	-0.00246187712259948
3.6	0.00311245962744536	-0.0032703795625564	0.774362979014523	0.616923683310757	0.7746042979293	0.616475749410063	0.00149583869198873	-0.00260763608343099
3.7	0.00287909712009312	-0.00482069171557365	0.860930315172565	0.488968009479494	0.860811900521406	0.489110819331008	0.00194114875870904	-0.0035526808632972
3.8	0.00198852074544429	-0.00613578091196688	0.926339494096538	0.350105756199776	0.926396837937928	0.349726862110307	0.00192406169220861	-0.0046983376028645
3.9	0.0010430227528063	-0.0073800569917554	0.969825546276356	0.200755528008826	0.969586359702801	0.201422460080099	0.0011693616015084	-0.0063874680648174
4	-0.00116495903316659	-0.00823591704621084	0.988647726835345	0.0484186559916658	0.988608697548604	0.0485213908316815	-0.000865327710852066	-0.00768831692779925
4.1	-0.00262292512686013	-0.00786584403526024	0.98444485913142	-0.104847132624294	0.984260265360613	-0.104720414907664	-0.00230174431466439	-0.00723420179782824
4.2	-0.00419442682171295	-0.0079015561846536	0.956319333892002	-0.257044235595012	0.956353142621916	-0.256390620481414	-0.00314551069796294	-0.00735900964646829
4.3	-0.00592463163359076	-0.00774886203359087	0.905250780174327	-0.401875522232806	0.905114743972838	-0.401764660528559	-0.00418983770743527	-0.00773440987062172
4.4	-0.00774407314853785	-0.00718729947740185	0.831759885277955	-0.537420111304882	0.831594500309087	-0.537287107507044	-0.00526540744995716	-0.00820894116286556
4.5	-0.00996193318086802	-0.00668758709528601	0.73880062321676	-0.659435015730107	0.738611417884657	-0.659262397221621	-0.00733516124056847	-0.00929101662706482
4.6	-0.012192228781733	-0.00447349669403161	0.627625132673018	-0.767235691526787	0.627965386117492	-0.766536321773241	-0.0100674659790381	-0.00854479072958921
4.7	-0.013330551195793	-0.00235984746533012	0.501189457448852	-0.855465680430326	0.501205055822205	-0.855109413654981	-0.0119596129737538	-0.00762736228768751
4.8	-0.0141591752969758	0.000119103785877076	0.362018435448735	-0.922832055678315	0.362239492512389	-0.922514705029634	-0.0135285252698205	-0.00646334881291838
4.9	-0.0140948321303034	0.00251068180526537	0.215092182444069	-0.967347853222961	0.214871892496091	-0.967356240497133	-0.014498582494006	-0.0050882572866021
5	-0.0135508368771377	0.0049527499685807	0.0623594140765918	-0.989915193619778	0.0625363578040647	-0.989668764585874	-0.0150622085755266	-0.00316488135641255
5.1	-0.011672341429706	0.00707485398178341	-0.0927521767006755	-0.987817282818456	-0.0924200607885262	-0.987590735704763	-0.0142831064074203	-0.00109864299991892
5.2	-0.00960104510785611	0.0085567932312387	-0.245191284088954	-0.961296431196397	-0.24469812347896	-0.961268655322814	-0.0132989188309532	0.000106377243338419
5.3	-0.00739653369517698	0.00941627064849932	-0.391441099935431	-0.911758738247522	-0.391099051232456	-0.911974943937686	-0.0123636636737335	0.000684921078913359
5.4	-0.00536090387315628	0.00999024730783514	-0.52862488847081	-0.84039233206995	-0.528411042899797	-0.840593401163829	-0.012280510097579	0.000736648569387294
5.5	-0.00394167085430358	0.0111030476117515	-0.653722605142118	-0.747679257038539	-0.653482593090532	-0.747874555737908	-0.0137537058607701	0.00224834027567615
5.6	-0.000415531672232015	0.0122372426633868	-0.761292060820441	-0.63644936694774	-0.761101661868098	-0.636621650211686	-0.0124559365626893	0.00484233201712683
5.7	0.00252857674486344	0.0115262816071619	-0.850859595789576	-0.510673480824546	-0.850729689896755	-0.510893898080667	-0.0110983891287485	0.0058434409360855
5.8	0.00497844148863974	0.0105880130715949	-0.91996183558748	-0.37222231121833	-0.919893562789772	-0.372508193339445	-0.0100095487162248	0.00651983728345912
5.9	0.00714045001201957	0.00879016032968717	-0.966841795479552	-0.224512841445199	-0.966856304886476	-0.224596767896875	-0.00923784988279364	0.00640779284488049
6	0.00760405096387019	0.00700893116515408	-0.989183336717722	-0.0712849978588702	-0.989063784167888	-0.0713432188115335	-0.0109255872299492	0.00668727264605992
6.1	0.00916802583328555	0.00642999817984654	-0.988242264645612	0.0824168097460299	-0.988115230643306	0.0822680117459369	-0.0107055649533357	0.0098867133949544
6.2	0.0105813323684216	0.00434479969653062	-0.963693837585518	0.235096287294493	-0.963680044459332	0.234892884091261	-0.00899012967028921	0.0114982844530482
6.3	0.0110095092822261	0.00173441030459719	-0.915430778624856	0.382163351771667	-0.915426269760887	0.381977471829583	-0.00703209395163704	0.0121248520463454
6.4	0.0107237252667353	-0.00109359182529574	-0.844524316086137	0.519709416417617	-0.844492665886372	0.519498202374575	-0.0052071292451473	0.0115971427774679
6.5	0.00941923742787621	-0.0038119178961082	-0.753859737838436	0.643759000455958	-0.753883904736454	0.643554433110431	-0.00421917834406207	0.0106422921609328
6.6	0.00801332441112945	-0.00598046010677892	-0.645182681568472	0.753890740335049	-0.645256853519083	0.753637771127817	-0.00319845395740042	0.00980292284409378
6.7	0.00592966508407539	-0.00783918225963098	-0.519703191711234	0.845192073135338	-0.519806560091974	0.844970260905818	-0.00297313775055348	0.00876169082724879
6.8	0.00381194128448986	-0.00883622814619148	-0.381789865476285	0.915489832122809	-0.381932165936008	0.915318749890335	-0.00318984704189498	0.00842143888030656
6.9	0.00167570630569907	-0.00940312624619258	-0.235114171874964	0.963322441977307	-0.235341586984221	0.963211975921537	-0.00322596946464802	0.00857134207062131
7	-3.80723442261872E-05	-0.00919262684969809	-0.0828282853823503	0.988950598523203	-0.0830390201852467	0.988860703968868	-0.0028057844206723	0.00922781423486857
7.1	-0.00134088795071198	-0.00915069621746722	0.0729013328246514	0.989571443716128	0.0726982637034022	0.989438211733885	-0.00156203613217494	0.00944528289814917
7.2	-0.00272122275122208	-0.00893871578486538	0.225803349431108	0.965602658662397	0.225520239161614	0.965568783269215	-0.000378922775938996	0.00939530672264508
7.3	-0.00415216440607845	-0.00855810789668561	0.372865714152511	0.918575227874247	0.372629020615059	0.918602227973728	0.00078432481419105	0.00913119065239199
7.4	-0.00537934482638901	-0.00794652293473335	0.511133241991698	0.849633399553348	0.510919287294505	0.849685357099765	0.00169072352012376	0.00849720282536038
7.5	-0.0067366284360014	-0.00702136507759391	0.637790492394202	0.759117718848034	0.637620681686457	0.759188367273226	0.00226465548167406	0.00824037712070018
7.6	-0.0068646200013371	-0.00578174496130221	0.747046739119507	0.649819389854485	0.746789006789697	0.64990317115213	0.00407737358694161	0.00787398989866992
7.7	-0.00699494357196055	-0.00490007520752953	0.838342418329261	0.525930007259031	0.838157514181528	0.526148415850375	0.00556095240592992	0.00633093434405743
7.8	-0.00669313059307452	-0.00397162926706173	0.909770962030488	0.389162915996149	0.909668747758057	0.389389229087632	0.00658813752362883	0.00410209624766574
7.9	-0.00629640816084562	-0.0033610136759312	0.959060670587769	0.242689890844977	0.958923247093286	0.242870595029931	0.00653234252835348	0.00115369022930577
8	-0.00688270432544828	-0.00280766219676108	0.98349829377942	0.0903796337901108	0.983476616142529	0.0906426328734576	0.00331822603806978	-0.00140199503093788
8.1	-0.00606904337196076	-0.000568723958067111	0.985417894916849	-0.0623674361655377	0.985447893552663	-0.0621118799795233	0.00107491833824665	-6.12228120307438E-05
8.2	-0.00451189500398025	0.000343228953942535	0.963793621048684	-0.214629665877811	0.96384329473885	-0.214312597617003	9.42405394041321E-05	0.000696217262839626
8.3	-0.00317013668722415	0.000968406805282976	0.918403966263655	-0.361744949153067	0.918456590249453	-0.361457896954094	-0.000578497052868069	0.00160611270222564
8.4	-0.00137741800862986	0.00109310429442345	0.850316627276275	-0.499661885304176	0.85041530393596	-0.499460398614532	-0.000443098504319048	0.00214165615969447
8.5	-0.000791657259135414	0.00022029913984419	0.762756575292126	-0.624252885976222	0.762808422995756	-0.624102433990973	-0.00167850982585522	0.00143538311834168
8.6	0.000125986037376987	0.00104985969129059	0.656848145690412	-0.735711185529388	0.657017483571456	-0.735474602171106	-0.00286281075834862	0.00397521861679273
8.7	0.00183513519475591	0.000871100627382734	0.534014966066403	-0.828612924518861	0.534274995410999	-0.828398511892096	-0.00168326393434856	0.00605456191677895
8.8	0.00344836610394658	0.000162960494104865	0.398727388352336	-0.900854656758402	0.398913124928299	-0.90071640143057	0.000194397890175467	0.00720198179120899
8.9	0.00499533955527345	-0.000932741582624637	0.254466828383596	-0.951213241588915	0.254646334664407	-0.951043981623562	0.0029621541210523	0.00749513177990957
9	0.00632236351470523	-0.00283997050265656	0.103980007559169	-0.979815792650705	0.104288408363127	-0.979770254615116	0.00543423957284953	0.00626367788431387
9.1	0.00751476278894447	-0.00467764482773636	-0.0502863965607567	-0.983485862556383	-0.0499772573672021	-0.983446261786613	0.00787111363756103	0.00477229925021577
9.2	0.00818708211848348	-0.00716135678884932	-0.202148780091001	-0.96286489146081	-0.201801590603306	-0.962844140049984	0.00969037410273735	0.00195564570672476
9.3	0.00797137648887656	-0.00918894870084207	-0.34862395641614	-0.919507734916767	-0.348272556214259	-0.919483640918815	0.0102710902185642	-0.000982538082039825
9.4	0.0075464182383084	-0.0110640468468638	-0.486829542670726	-0.854564447977897	-0.486507187949869	-0.854656350550587	0.00983666120814002	-0.00413256366461561
9.5	0.00595404438378568	-0.0112965397515599	-0.614249240396096	-0.767765239796578	-0.61401291145798	-0.767816573517945	0.00717529254365592	-0.0052082151718013
9.6	0.00684804963328526	-0.0115947263013366	-0.724678502692501	-0.662202201249307	-0.724368456932071	-0.662341894816819	0.0076375011616873	-0.0052682745521347
9.7	0.00658688329689865	-0.0128339755563803	-0.817901570496854	-0.5419914465504	-0.817615902347533	-0.542224746446808	0.00702316278078019	-0.00759569775256357
9.8	0.0059047995668568	-0.0136745610450521	-0.891826365214479	-0.408682399045038	-0.891574525881692	-0.408851713073838	0.00512108521539479	-0.00966979797364967
9.9	0.00519241727341709	-0.0142848741688732	-0.944278409589883	-0.264961753245561	-0.944027770931092	-0.265170824186032	0.00247513142817765	-0.011818403940812
10	0.00293712691857984	-0.0144540436852276	-0.97219559195052	-0.115057059085557	-0.97204413550924	-0.115418153334179	-0.00340537715145497	-0.0125233821052817
10.1	0.00273660253148032	-0.0127816098423555	-0.97800901864744	0.035722402511507	-0.97794691735488	0.0352929842797767	-0.00678516771524668	-0.00896673044981688
10.2	0.00293374483874379	-0.0127507632400706	-0.960856290053803	0.186798460973506	-0.960736014138639	0.186369149950232	-0.00842159040901583	-0.00654894128011414
10.3	0.00266404516592523	-0.0127155725641634	-0.919927182933363	0.333521085245215	-0.919945742223383	0.332982475824183	-0.00977065653904502	-0.00440030581895738
10.4	0.00238380477203925	-0.0132327118637821	-0.856256093465885	0.471485527335631	-0.856393066892795	0.470977660593446	-0.0105629832036941	-0.00301986661985101
10.5	0.00133022856980159	-0.0139014857330592	-0.773464401926749	0.596856067006319	-0.773636515726401	0.596427009013268	-0.0124283884963018	-0.00204113130159776
10.6	0.000310606085682161	-0.0135871850906441	-0.672357554064329	0.710060013763163	-0.672628654537851	0.709732070262543	-0.0141202522374556	0.00111971038906769
10.7	-0.000329787634646773	-0.0131049580911083	-0.553930078041329	0.805671152311881	-0.55422917157523	0.80536382383705	-0.0141144834631477	0.00481991695694114
10.8	-0.000585056201232341	-0.0127585567188542	-0.42234410783565	0.881312821384922	-0.422692874785712	0.881016664632302	-0.0127676749593949	0.0084158686053094
10.9	-0.000743955746897142	-0.0128919519391779	-0.281419075420575	0.935606762799424	-0.281806735569952	0.935484506589831	-0.0103325182059457	0.0109986337508161
11	-0.00114739101413089	-0.0131609733326888	-0.133533751121018	0.969195327456097	-0.133968441294786	0.969104830800067	-0.0076538453426655	0.0130737616151767
11.1	-0.00131283592627984	-0.0134742773889458	0.0193506566403371	0.977750256563127	0.0188645919009736	0.977763714422407	-0.00387098331228501	0.0143008949722222
11.2	-0.0018602071426844	-0.0142013998816184	0.170306651936823	0.962417681402245	0.169852288768789	0.96249020394923	-1.41300231770037E-06	0.0141715879941979
11.3	-0.00266959079387479	-0.0147349555045739	0.316833548216376	0.924522661876584	0.316377185253569	0.924658049222992	0.00382287769279427	0.0130144694714939
11.4	-0.00386224547698527	-0.0154981482587159	0.456305725973136	0.864999946134874	0.455903947459046	0.865111971109544	0.00687291396838348	0.0107493222310095
11.5	-0.00598858018757821	-0.0148557233163786	0.585898824506075	0.783006887889609	0.585581922364517	0.783307497620918	0.00785897490511055	0.00930401703112631
11.6	-0.00633000738098954	-0.0141742640683308	0.698828314584384	0.682157360219587	0.698614216050706	0.682482720377661	0.0109035043143904	0.0082371764055673
11.7	-0.00731872681688603	-0.0139599785806113	0.795680925598399	0.566249076447332	0.795478591126551	0.566553197492489	0.0132794837862279	0.00510898133199149
11.8	-0.00861343523801624	-0.0134505524980741	0.874077931763266	0.436343927563019	0.873896376998965	0.436791473342282	0.0144339381915213	0.00126117818637827
11.9	-0.00989623187221295	-0.0128418786813718	0.931280753811572	0.29523660023764	0.931174817517105	0.29568346760287	0.014019533704914	-0.00365233091064098
12	-0.0125186189806059	-0.0115564752819925	0.964517144082922	0.147302067282287	0.964487887071395	0.147663703247663	0.00983440550576124	-0.00743582638852614
12.1	-0.0127765228665972	-0.00851171194890499	0.975973390480114	-0.00249568156909118	0.975901576529314	-0.00211400080431234	0.0071878719414148	-0.00758578237995685
12.2	-0.0128425687145503	-0.00694991460943138	0.964408344938771	-0.153694370374377	0.964424578422359	-0.153398181501805	0.00503216929065543	-0.00833927307856978
12.3	-0.0129518837911375	-0.00519786007814175	0.928869372873614	-0.301381844018874	0.928986940350886	-0.301076616208187	0.00279342606754797	-0.00868806968375979
12.4	-0.0127111279365423	-0.00375820932593141	0.870678986658564	-0.441331918878839	0.870740124512774	-0.440964466234977	0.00107531468518056	-0.00899736989235243
12.5	-0.0130896680523633	-0.00272811595333859	0.792830283191554	-0.569489329190288	0.793166048282352	-0.569099225634917	-0.00234037298924347	-0.0099141023783791
