# GHZ S RI R 50
0.2	0.000100263037904206	-0.000963365237160513	0.95268596383026	-0.307071881320939	0.952462951595823	-0.307046800845623	0.000148978124520334	-0.000915225818613868
0.3	-0.000581783150477869	-0.000950903569186475	0.893741867611547	-0.451237883132341	0.893584822879208	-0.45114250881253	-0.000589797586824044	-0.00115008530780089
0.4	-0.00123312520546805	-0.000502348401593121	0.813372394648454	-0.584711761799822	0.813384314220207	-0.584736975493804	-0.00138758015311768	-0.000802975685082643
0.5	-0.000897383115043057	0.00104230201448221	0.7125018277114	-0.705457012356605	0.712345675309748	-0.705355157116651	-0.00103052197488208	0.000732553590541801
0.6	0.000223957770594378	0.000226937667986072	0.593472386638659	-0.807061543240919	0.593352231642177	-0.806899073244697	6.02548594277927E-05	-0.00022678777024707
0.7	-0.000250834039261966	-7.73511811702387E-05	0.461223955914148	-0.88946859365689	0.461204890875808	-0.889355421059534	-0.000446992212480917	-0.000846991801859958
0.8	-0.000512529990250395	-0.000225549523008488	0.317346588503653	-0.950943581681258	0.317314761078824	-0.950752541585282	-0.00105224135889231	-0.00105271338930084
0.9	-0.00168626685778982	-0.000234078191586549	0.1649038133475	-0.989147570422122	0.164838248816324	-0.989054968380052	-0.00263687633703356	-0.00123050630406019
1	-0.00247685405429561	0.00301486589066291	0.00848835560093923	-1.00135147781851	0.00843638393123482	-1.00131977633512	-0.00391211479725586	0.00230683359944835
1.1	0.00132002755342883	0.00277335907381059	-0.14598277407722	-0.991082168176579	-0.145998708596722	-0.990950812948338	-0.000421619535685686	0.00258702262543581
1.2	0.00175569105605038	0.00037408014417207	-0.299034348928103	-0.956883533617369	-0.298957361294	-0.956857233415753	0.000221274215758964	0.00164828326177963
1.3	0.0019178768653726	-0.00220624096509323	-0.444808077514858	-0.898475372145718	-0.44478484769791	-0.898468725058738	0.00179623415319907	0.00127392947158506
1.4	0.00141305282521076	-0.00475446625333955	-0.578850258862603	-0.817582708609974	-0.578825860460907	-0.81756094687995	0.00340538902389493	0.00010319025214997
1.5	0.00285953997593047	-0.00710994925957183	-0.697822653434178	-0.718496779714747	-0.697720079653987	-0.718411200681888	0.00698038267276402	-0.00269477008764199
1.6	-0.00117306538528439	-0.0100790827279265	-0.802924016223567	-0.601824613059031	-0.802849146855588	-0.601764090966705	0.00330042397113945	-0.00707869000382112
1.7	-0.00367734238308926	-0.00769982432827981	-0.886871118074039	-0.469005381146196	-0.887035560296072	-0.468483674986819	0.000547272624166196	-0.00600068172388718
1.8	-0.00473356407627472	-0.00563208518360426	-0.948922628940979	-0.324331262858133	-0.948810303035567	-0.324330293341407	-0.0010360342080302	-0.00493746585791292
1.9	-0.00516320665147667	-0.00242099283089787	-0.987383833344904	-0.173580027384759	-0.987475849030584	-0.173087518604846	-0.00204045727019665	-0.0023016002067338
2	-0.000432027588731087	-0.000957330187911161	-1.00421675139702	-0.0171714269413604	-1.00422863149716	-0.0171249930141671	0.00269115225967276	-0.00119388880583407
2.1	-0.0017813009382475	-0.00524382588573896	-0.99371556297781	0.141797635853419	-0.99375382262603	0.141835417833209	0.00119751553358868	-0.00626017480675055
2.2	-0.00472808936039839	-0.00442864046819996	-0.95835759651621	0.294596938790134	-0.958281250863562	0.294659768215744	-0.00183212201062295	-0.00594391133640784
2.3	-0.00638103952588274	-0.00281112337464051	-0.900669999902969	0.439351266039995	-0.900279770553989	0.439866264629527	-0.00371390281171079	-0.00497580616115335
2.4	-0.00811402470364254	-8.8213360381654E-05	-0.82071303268848	0.575732017763926	-0.820987780272596	0.575142583586487	-0.00574869512840329	-0.00267420165704936
2.5	-0.00502283848566781	0.0043782723932902	-0.719262774501601	0.698229083898415	-0.719484955953769	0.697716727688686	-0.00251701961987845	0.00116147108538964
2.6	-0.0025660387888464	0.001558117122962	-0.600327130301978	0.798857309239409	-0.600222621977603	0.798671908281784	0.000316213230973185	-0.00260463429989078
2.7	-0.00354018637321201	0.000700453860566567	-0.468457836038356	0.881861069598019	-0.468915053820132	0.881457190614019	-0.000965171298916903	-0.0046915102290328
2.8	-0.00426744634553283	0.00103447594033987	-0.326453959127043	0.943330402738716	-0.325779890043052	0.943481233549082	-0.00275380828416142	-0.0052503435690341
2.9	-0.00372110770086322	0.00212537194742711	-0.17371444575284	0.982225465006044	-0.173747202594193	0.982138075286127	-0.00342030413269779	-0.00409183334184544
3	-0.00222751267481047	0.00166668805018302	-0.0173857057778293	0.993665235182513	-0.0180907953605475	0.993517695933841	-0.00283843383301133	-0.00407382719492327
3.1	-0.00260637125570733	0.00193554055462435	0.13334452250986	0.984171677190363	0.133935945731048	0.984145538073704	-0.00401078451424289	-0.00345742081400957
3.2	-0.00138808238008118	0.00268918681204783	0.285592553094875	0.951323538683585	0.285536765703839	0.951263919598356	-0.00355100978806743	-0.00171096390719073
3.3	0.000184904857288546	0.00266979567085393	0.430297027714602	0.894074425309763	0.430159515479205	0.89406235308027	-0.00239233804036809	-0.000676560815070687
3.4	0.0020177563717997	0.0026078203247684	0.562865553760812	0.814384163104805	0.562705422844339	0.814504538318505	-0.000291033464684226	0.000147060475098744
3.5	0.00523682863851937	-0.000529615856580927	0.679431338556246	0.7182790346689	0.679352459725095	0.718318752807449	0.00334202528440314	-0.00239660399994249
3.6	0.00262270492355631	-0.0037570623199769	0.784058250167852	0.605216776551033	0.784292763572436	0.604765008009179	0.00108468563662104	-0.00540608407589147
3.7	0.00128928013668738	-0.00394348555841983	0.868360747902955	0.474008459493681	0.868244849647173	0.474153130257437	-7.29934641932663E-05	-0.0050968866030873
3.8	0.000193597476965901	-0.00415015114032865	0.929746994741371	0.33351356137396	0.929797784208639	0.333134723612163	-0.000722872589516568	-0.00487777476205226
3.9	-0.000477438686164835	-0.00320577884079808	0.969116295999915	0.185093972275661	0.968888274708698	0.185761967960518	-0.00140095554330976	-0.00370526872717521
4	0.00253688977083717	-0.00357910290108765	0.988273112836148	0.0335098474668015	0.988235670703971	0.0336130542092281	0.00256261556339443	-0.00377910471430577
4.1	0.00032096434398698	-0.0082659404321254	0.97964982520543	-0.12292698852613	0.979468129587317	-0.122797189200961	0.00121245542416981	-0.00890715729055092
4.2	-0.00349588578066155	-0.00865752141064699	0.946295787527327	-0.273254799361662	0.946341459672246	-0.272605419417041	-0.00184073203291386	-0.00996604038194005
4.3	-0.0066662003662455	-0.00828418981868547	0.892111872714294	-0.415048222386973	0.891978696122615	-0.414935720728094	-0.0045588461386154	-0.0104045364299761
4.4	-0.0104150518956998	-0.00604794950958117	0.817324213385369	-0.548292090642975	0.817162146699093	-0.548157089427926	-0.00798035925712934	-0.00909618087844537
4.5	-0.00991803043187798	-0.00157105453176718	0.719727710164437	-0.670255118137954	0.719543467799041	-0.670079755127821	-0.00713813610590812	-0.00542779311813379
4.6	-0.00957607461165405	-0.00256589112289495	0.604549077527646	-0.77022286960097	0.604899045671086	-0.769538957584965	-0.00627973460724042	-0.00796732481621909
4.7	-0.011564028157813	-0.00178364519955277	0.479142768529649	-0.852704008623075	0.479164487839997	-0.852352880037974	-0.00854902886579646	-0.0090751199216858
4.8	-0.0130634477674305	9.22790295961009E-05	0.341186954530634	-0.915889911865241	0.341410270635226	-0.915580824776497	-0.0107462240672138	-0.00927432989256825
4.9	-0.0136567515240593	0.00257888999123051	0.19450346727243	-0.956463843499657	0.194286382411422	-0.956468160484224	-0.0126737808354736	-0.00840317735958594
5	-0.0124972553824389	0.00428723493790732	0.0439142142382647	-0.970405517532958	0.0440917464263695	-0.970167279304556	-0.0128894375898598	-0.0077020923310239
5.1	-0.0133244741998342	0.00583167492703867	-0.102720143112711	-0.965820915856904	-0.102392310481354	-0.965603166935538	-0.0156441164070382	-0.00696061458318223
5.2	-0.012467379112876	0.0093342000588281	-0.250815352658296	-0.938881445285507	-0.250331990240612	-0.938859701456652	-0.0171761975678636	-0.00358080947990032
5.3	-0.0100194483321772	0.0124990024716572	-0.392726671256425	-0.888068454462056	-0.392394245868108	-0.888283656263798	-0.0168520317926839	0.000317601936575786
5.4	-0.00533222732837413	0.0158324367572481	-0.523727210700674	-0.815211170689193	-0.523520393593771	-0.81540938980251	-0.0139136619049741	0.00461874399564815
5.5	0.00227159916236772	0.0123333955352086	-0.6399138551581	-0.72695167940484	-0.639680449317034	-0.727142907138931	-0.00744821864533938	0.00181177934239151
5.6	-0.000335067400464344	0.00923139224421523	-0.746987223204691	-0.620847303998739	-0.746801335542183	-0.621016480473178	-0.0120898294953898	-0.00119352727636515
5.7	-0.000194184962071736	0.0109397883453364	-0.83397046501224	-0.496994287781559	-0.833844050934606	-0.497210322420498	-0.0143305282540275	0.00193310697476175
5.8	0.00133685572149107	0.0123744342826193	-0.899583360222125	-0.362172676717917	-0.899517128071057	-0.362452146194789	-0.014781664867191	0.00551837247152441
5.9	0.00392667794721733	0.0149994573562417	-0.943991676494786	-0.220920071256555	-0.944005707593486	-0.221002071323296	-0.0136288947787293	0.0111479315594967
6	0.0134476773405721	0.0140924818567687	-0.970648111966526	-0.0732611419656743	-0.970530577109582	-0.0733178874567621	-0.0042955785274557	0.013543023829437
6.1	0.014104416072605	0.00554219597446107	-0.968959604902083	0.080608738254375	-0.968835021636888	0.0804628721550567	-0.00297110843064706	0.00732599831233412
6.2	0.0122613653136832	0.00241128522178423	-0.943490063957517	0.228366841446145	-0.94347620678401	0.228167814696031	-0.00429729825536062	0.0060710057429711
6.3	0.0105496544120723	3.89441661425336E-05	-0.897378695158237	0.370262974929637	-0.897373527688004	0.370081093827599	-0.00521633956177651	0.00562459205681007
6.4	0.00880505212522904	-0.00107643622737673	-0.831182140808343	0.504895362815981	-0.831149903116696	0.504688401858766	-0.00611757205925789	0.00637082184956483
6.5	0.00822995913123761	-0.00275346717354359	-0.740953155080582	0.630008203960224	-0.740976436804698	0.629807454077326	-0.00526168362556733	0.00666198795880907
6.6	0.00638102907958034	-0.00402241826890028	-0.633580600034014	0.733363863586364	-0.633651886948061	0.733116454705751	-0.00552823114659668	0.00704330253054249
6.7	0.00543280670880905	-0.00481658320560033	-0.514614434892858	0.821810838708982	-0.514713681732102	0.821593250711297	-0.00456556701333752	0.00794459929984754
6.8	0.0044726537453383	-0.00603548964967598	-0.382342305279395	0.892376288119445	-0.382479953425911	0.892207499224557	-0.00331980534315106	0.00810179917765244
6.9	0.00331410754108533	-0.00715618633005512	-0.238702688585935	0.941525413000464	-0.238924478316313	0.941415226398943	-0.00172500601942895	0.00800306465710445
7	0.00148239595158416	-0.00926184096506471	-0.0904621913121124	0.963176763745166	-0.0906667235978879	0.963087065967068	-0.000777540625494991	0.00579638109696039
7.1	-0.00210977623960994	-0.00888260559471976	0.0552629532334701	0.967534428845897	0.0550667918915811	0.96740105322674	-0.00200254097304091	0.00578507998774998
7.2	-0.00388715332643689	-0.00766140836145191	0.204428777169204	0.949451746356847	0.204152131719963	0.949413682275559	-0.00138054522502375	0.00651382085720844
7.3	-0.00535737919586252	-0.00652266502614267	0.349175705686204	0.906900619476686	0.348943243867457	0.906922889764757	-0.000425222415167428	0.00675475834752638
7.4	-0.00602035825426487	-0.0049179457329504	0.48411171521124	0.84126679252402	0.483901325986517	0.841313578904417	0.000853203238036168	0.00695979327330754
7.5	-0.00528770346515353	-0.00518057268957341	0.605279344689075	0.760524828863546	0.60511109318957	0.76058964570854	0.00338704299447423	0.00513643464644426
7.6	-0.00785585405088227	-0.00567894805897993	0.719787060320394	0.660596115906183	0.71953063877123	0.660671981842188	0.0020816681790624	0.00235571701088637
7.7	-0.00963297851221548	-0.00331348301162055	0.814598249941696	0.540799857543349	0.814410062714778	0.541010860155898	0.000639350979976009	0.00242165722974581
7.8	-0.0100520626831691	-0.000431448777772005	0.888839456059084	0.40869462454262	0.888732446299863	0.408915587653273	-5.79726462132534E-05	0.00323380163484756
7.9	-0.00922383263349194	0.00385454903592449	0.942184325547775	0.268739868650489	0.942042917899442	0.268914668529824	0.000658099883266641	0.00615987999778911
8	-0.00118073867420112	0.00552697337148868	0.978424289666945	0.119954689989642	0.978394697400833	0.120216407675183	0.00774472235372891	0.00668657833999795
8.1	-0.000444546976946163	-6.32969272318721E-05	0.98512072700981	-0.0368457062044214	0.985144080168671	-0.0365898707292129	0.00824318618456045	-0.00115225131968732
8.2	-0.00209377949527647	-0.000798850582309353	0.967266410805582	-0.18873638641301	0.967307613605004	-0.188418727546294	0.00474620829284663	-0.00364133758922009
8.3	-0.00334579503573224	-0.000617822842463787	0.927926385008546	-0.336032900519461	0.927971007029763	-0.335744550601249	0.00133996519411422	-0.0045423606194995
8.4	-0.00526838696728728	0.00152103152638528	0.867612662796148	-0.477534438398468	0.86770602223237	-0.477329410005206	-0.00315133852021147	-0.00269561629346412
8.5	-0.000765602004551909	0.00648941749888659	0.780947609191889	-0.61088926545092	0.780996414772128	-0.610736806515363	-0.000493923645373316	0.00311886207574364
8.6	0.00247894630553883	0.00168843201169868	0.675521114420463	-0.721734586468699	0.675685223397668	-0.721493531323414	0.00177456949763578	-0.00118164316664025
8.7	0.00118327375359964	0.000542075072102214	0.557457116793931	-0.818350440379931	0.557712725323014	-0.818128477817618	-0.000797809437209386	-0.00201794108367854
8.8	0.0009776106725969	0.000605938996579741	0.424483450027193	-0.897085835072361	0.424666982919505	-0.896941872357523	-0.00273310727319589	-0.00127235156454357
8.9	0.000788791262342986	0.00135376416461035	0.278152361814297	-0.954200813522339	0.278329709457541	-0.954025974893175	-0.00432078513133728	0.00106353837132257
9	0.00356559625133488	0.00263075595664316	0.126054394680541	-0.981805426259507	0.126363139052055	-0.981752884700821	-0.00212803872909884	0.00484791769987548
9.1	0.00531345740013855	0.00125729821843634	-0.024004808365678	-0.992692830955238	-0.0236942783500878	-0.992644527183998	0.00023046038603742	0.00560730687051992
9.2	0.00789799234978737	0.000606373809043553	-0.179591346829057	-0.979707900408088	-0.179240514608557	-0.979677887531163	0.00416669487945866	0.00674489784414513
9.3	0.0105872059108668	-0.00155715314735676	-0.331536587503217	-0.940361097360361	-0.331180957009896	-0.940328322970388	0.00911082194673274	0.00540031836193387
9.4	0.0128973842324369	-0.00342603850081439	-0.473496868553021	-0.875983009412825	-0.473168504283164	-0.876068762273642	0.0136737390046093	0.00326743907835946
9.5	0.016905416538959	-0.0115107531510783	-0.600860679033928	-0.795911920629019	-0.600619614274878	-0.795957224170622	0.0198143383553696	-0.00685668074631759
9.6	0.0087336798998033	-0.0166190170203877	-0.722795120124837	-0.694917734164488	-0.722474924120369	-0.695052341535966	0.011507012418062	-0.0149300545268055
9.7	0.00463387045276747	-0.0148461233230943	-0.823892507158251	-0.572572404862251	-0.823595191804025	-0.57280445121114	0.00561006855907189	-0.0155866464876785
9.8	0.00227081275153425	-0.0131383444977839	-0.903256173646916	-0.437095911061031	-0.902994991955723	-0.437263653330916	0.000529320682445013	-0.0151423952253271
9.9	0.000920776171499338	-0.008705787038014	-0.960991318628815	-0.293212974403833	-0.960729781361897	-0.29342130535826	-0.00373096852516859	-0.01089534786746
10	0.00803579449779604	-0.00839109129534929	-1.00157058910837	-0.139269623463341	-1.00140658411036	-0.139639341234755	0.00138269815656527	-0.00960722818148842
10.1	0.00458346737891701	-0.0141731454702834	-1.00983216186007	0.0235239668583263	-1.0097622117554	0.0230816376884025	-0.00414249862155884	-0.0151318242612833
10.2	0.000967332226117115	-0.013070908642633	-0.993013579926489	0.180747780752125	-0.992884270446468	0.180306614940576	-0.0106432375848032	-0.0126228580032691
10.3	-0.00103171403382315	-0.0111401699255223	-0.953679888493794	0.333597567496618	-0.953692757701793	0.33304126053189	-0.0151527763909776	-0.00829538440422488
10.4	-0.00238472119558381	-0.0081369823049889	-0.892228466744807	0.480661369096381	-0.892365637207624	0.480133526063294	-0.018254929033973	-0.00164427690766628
10.5	0.00140851796728955	-0.00476205068822342	-0.802115170728122	0.619307267245198	-0.802293816068892	0.618862271983935	-0.0140885885201967	0.00581869682291212
10.6	0.0038922391664835	-0.00778279161489368	-0.692916312322343	0.733115985467693	-0.693196282909291	0.732777943566913	-0.0098121522377743	0.00607845902784826
10.7	0.00373630311733589	-0.0100542802963101	-0.570850211393361	0.831973254165719	-0.571159168758171	0.831656393401307	-0.00775856094373163	0.00598873955106327
10.8	0.00234690856036497	-0.0118155539649075	-0.433480985968292	0.911907755506612	-0.433842279789918	0.911602913803	-0.00669546372438685	0.00630517141122476
10.9	0.00096263733416809	-0.0124225957467396	-0.282629787965674	0.96889596222918	-0.283031289732917	0.968773018000929	-0.004897865265957	0.00727929158831467
11	-1.74278335424882E-05	-0.0139079441983999	-0.127134012650981	0.994832986499553	-0.127580509335641	0.994744592680912	-0.00256296211425351	0.00663710829713159
11.1	-0.00281157814656361	-0.0136813810737144	0.0257324524043254	1.00408824107736	0.0252333181045364	1.0041049758289	-0.00223284440225979	0.00693837268622664
11.2	-0.00414815316208796	-0.0129256630714836	0.183483779137404	0.988798716103026	0.183016894119432	0.98887723119671	-0.000229578172197125	0.00754204623653481
11.3	-0.00509940700196468	-0.0118748145787216	0.336740976652269	0.946734971585804	0.336273398836954	0.946879595066771	0.00218261431927288	0.00808955429532348
11.4	-0.00489547980077856	-0.00975520002374527	0.479089005111055	0.879428464194355	0.478679154166068	0.879548682188318	0.0060034054429805	0.00926563241977604
11.5	-0.00191268202747934	-0.0130096755868449	0.60606631781378	0.797526451587926	0.605744022730808	0.797836762626926	0.0130251087989128	0.00350320973882089
11.6	-0.00817568500019614	-0.0153384414612509	0.727709844731185	0.693851723290828	0.727493357661808	0.694189278870324	0.00928605371768308	-0.00212712063821515
11.7	-0.0115106526795702	-0.0123414412186216	0.827145915870113	0.56908842820092	0.826942889854829	0.569404345752614	0.00727614705077496	-0.00255698564911997
11.8	-0.0137880463100818	-0.0092150540579417	0.904102856927178	0.431824302043227	0.903924680961183	0.432286473410797	0.00559717449149358	-0.00234206045463339
11.9	-0.0138613683306386	-0.00281002271214861	0.95906736577914	0.287417793699885	0.958966063717624	0.28787741450163	0.00534833796677526	0.00167935974012307
12	-0.00565510373181521	-0.00125360718445307	0.997161002955922	0.133347226171766	0.99713778108673	0.133720603252471	0.0153866368978472	0.00123922594427131
12.1	-0.00773134549135567	-0.00608541017927259	1.00211979669101	-0.0283571927247685	1.00205614162477	-0.0279633628748713	0.0135748201476561	-0.00797381157435739
12.2	-0.00995721846924636	-0.00584474930783039	0.98253528737448	-0.183544752681233	0.982559971851833	-0.183242152309547	0.0104057075393808	-0.0113409390635986
12.3	-0.0118916241148132	-0.00517954887141479	0.940997995507238	-0.333462473166759	0.941126511544532	-0.333153767937214	0.00676085839186915	-0.0140310827705357
12.4	-0.0148758114702063	-0.00254083339670844	0.878532088496138	-0.477280912311419	0.878605416878743	-0.47690649058114	0.00156652749108993	-0.0139098320686346
12.5	-0.0120247224394678	0.0020577379984306	0.787293034538048	-0.61196631765907	0.787650854226103	-0.611581085824782	0.00179112110401867	-0.0111654698717783
12.6	-0.0115043993692546	-0.000243345163530239	0.679181798354331	-0.721044573373299	0.679442723205061	-0.720807724269541	-0.000178267618569379	-0.0152480475980582
