# GHZ S RI R 50
0.2	-0.000313935754631841	-1.15402592622719E-06	0.94850337860365	-0.308156645608885	0.948281237197628	-0.308131140626488	-0.00027826319314777	6.10166047640555E-05
0.3	-0.000328759237495585	8.26253186898737E-05	0.888335572010905	-0.451728418473372	0.888179523440923	-0.451633031947485	-0.0003540692299774	-8.42620841318836E-05
0.4	-8.53183470433655E-05	7.85599534888217E-05	0.806680725976799	-0.583772649897163	0.806692495256212	-0.583797750459587	-0.000251555557572828	-0.00017147794510043
0.5	-0.000252862260784696	-0.000137138008785705	0.706015732702372	-0.701706660961419	0.705860901874598	-0.701605246346022	-0.00039381268178986	-0.000393447722155362
0.6	-0.000433418028433625	0.000168191488655378	0.588173269194084	-0.802655733741736	0.58805418548815	-0.802494149534539	-0.000619957968330572	-0.000215341413477829
0.7	-0.000293566433506409	0.00051324144470763	0.456102064127158	-0.883779585558911	0.456083357808916	-0.883667213022056	-0.0005113263037723	-0.000149915669063014
0.8	5.6239321858703E-05	0.000616622556317576	0.31323703867436	-0.943495391335068	0.313205770387713	-0.943305896556988	-0.000480009503719872	-6.98573179988278E-05
0.9	0.000510769310198543	0.000701498047978958	0.163028315881228	-0.980268106280436	0.162963380144543	-0.980176315993545	-0.000379579891799054	-0.00013252663700006
1	0.000841557022276394	-0.000111570632904127	0.00887521988899566	-0.993517693958145	0.00882364015646932	-0.99348626384784	-0.000443260744050123	-0.000709491525310322
1.1	0.000378394034422973	-0.000309516054627797	-0.145505252937498	-0.98256190631042	-0.145520951377269	-0.982431652998098	-0.00120919574263414	-0.000478213796019434
1.2	0.000637373563243516	-0.00104093542559275	-0.296227196621938	-0.94766534638224	-0.296150946970145	-0.947639304283259	-0.000829669929155023	0.000201928893830743
1.3	0.000822758534969181	-0.00256229292678501	-0.439528473112391	-0.889959461595062	-0.439505480606105	-0.889952858602246	0.000676407948747571	0.000852048187356877
1.4	0.000778260698889472	-0.00452955318086036	-0.57201067226232	-0.810884382064442	-0.571986540458581	-0.810862783364029	0.0026666057949823	0.00029379912470414
1.5	-4.72121379105785E-05	-0.00519649020056908	-0.691036261980991	-0.71188169323923	-0.690934680562139	-0.711796897150161	0.00384763645992181	-0.000700667578340849
1.6	-7.5448778766153E-06	-0.00504050042157668	-0.792599325686776	-0.595756398065118	-0.792525425006635	-0.595696494115873	0.00427535534570816	-0.00183966066361126
1.7	-0.000265327907691552	-0.00511079261498863	-0.874806999340947	-0.466110085945564	-0.874971073573966	-0.465595134366202	0.00388655581350674	-0.0030906055039147
1.8	-0.000839995045682617	-0.00512046956000739	-0.936572183081229	-0.324317841033605	-0.936461170565737	-0.324316436816283	0.00290162692449733	-0.00409299638541347
1.9	-0.00157701989856336	-0.00516223273863123	-0.975239264847625	-0.175417691666252	-0.97533213403536	-0.174931261811986	0.00167170847168866	-0.00479495457515209
2	-0.00317884145057679	-0.00465229189431952	-0.990007359835956	-0.0215773330473475	-0.990019287628608	-0.0215316074661933	-1.392625944937E-05	-0.0047403121553604
2.1	-0.00346497727416011	-0.00326575929267451	-0.981412849093879	0.131870679130448	-0.981450895536515	0.131907641465787	-0.000499652819863991	-0.00403178775230621
2.2	-0.00379884700681142	-0.00277239680947763	-0.949192623988319	0.282398728236732	-0.949117780292072	0.282461466830994	-0.00084567143541038	-0.00398206253318073
2.3	-0.00425636310693395	-0.0021786794868243	-0.894015472912173	0.425558190723674	-0.893634798920424	0.426070699237331	-0.00144187965979331	-0.00405757205763035
2.4	-0.00480906163518708	-0.00175636104506535	-0.816272613797145	0.559920688050229	-0.816537765412342	0.559335881473082	-0.00221670480076668	-0.0041610788945182
2.5	-0.00597406335668694	-0.000997319676767465	-0.720187881013152	0.679401480628351	-0.720400068809933	0.678892350916491	-0.00330029669067445	-0.00420452334703672
2.6	-0.00626459607439496	0.000945956204694814	-0.606550062125105	0.782862874676079	-0.606443794314326	0.782680677591216	-0.00344603301762209	-0.00325449168591424
2.7	-0.00549904458204296	0.00222535808780409	-0.477157173393387	0.867655154221243	-0.477604712676927	0.867248129586455	-0.00311462591300628	-0.00308556786324031
2.8	-0.00441121021985889	0.00289014702361676	-0.338120053393177	0.930609964739731	-0.337453819811959	0.93076980935062	-0.00309576506253058	-0.00317291066778482
2.9	-0.00303096395036975	0.00313320646062283	-0.189332871079335	0.97192286427948	-0.189363879477819	0.971835561060753	-0.00284645036260984	-0.00285231980820383
3	-0.00166202380487452	0.00317152772752847	-0.0353807949871918	0.990048250780913	-0.0360808616722686	0.989888391646984	-0.00237607925739218	-0.00229644987791436
3.1	3.12576649853826E-05	0.00270621367139786	0.117451067866658	0.98333500905552	0.118041138195078	0.983318259783663	-0.00139801666626841	-0.00216875051437597
3.2	0.00104509314997064	0.00171379850404965	0.269013122894233	0.953052876443104	0.268958493190196	0.952992524275281	-0.00106552408969354	-0.0023137542528667
3.3	0.00193710588981394	0.000604828782249953	0.413766566962805	0.899855000822702	0.413629538082095	0.899840540717292	-0.000542739220793957	-0.00241888108506598
3.4	0.00217545984468769	-0.000742613381739084	0.548568503018675	0.824936287004488	0.548406123231598	0.825053856419929	-4.31054517162407E-05	-0.00295226982234339
3.5	0.00215660818899662	-0.00149172840863655	0.670079440727474	0.72957352387388	0.669999835281893	0.729612152265069	0.000238451830287814	-0.00307889008031582
3.6	0.00238258811006324	-0.00249616938947932	0.774364844540294	0.617304293394241	0.774606355772201	0.616856323809394	0.000842206514291222	-0.00374196175828068
3.7	0.00209334776974038	-0.00378935319692086	0.861177043709401	0.489284943199096	0.861058562504488	0.48942778818506	0.000818881710187844	-0.00452467412223137
3.8	0.00126456976575952	-0.0048897359481515	0.926620386216613	0.350284543218398	0.926677774925404	0.349905528347853	0.000508335555274609	-0.00524064295542574
3.9	0.000267571554179432	-0.0059270791959326	0.969957658028171	0.200936017790944	0.969718330388876	0.2016030254002	-0.000463375498579697	-0.00617001074778729
4	-0.00169043519336631	-0.00614255331517568	0.989072232037651	0.0490256638171459	0.989033124091491	0.049128422657863	-0.0016108736028762	-0.00620568665903632
4.1	-0.00257763123965624	-0.00587815069458337	0.985306719365195	-0.104763117081667	0.985121945080129	-0.104636323405914	-0.00177693955240411	-0.00627882296925294
4.2	-0.0038801378286648	-0.00600492647424213	0.957025234669501	-0.257267264585536	0.957059089871683	-0.256613162403997	-0.00231377684204304	-0.00695093856070276
4.3	-0.00531638033628893	-0.00611401468320094	0.90584821610065	-0.402192203783451	0.905712092516608	-0.402081260117416	-0.00323554014698035	-0.00782007756844458
4.4	-0.00717128420814184	-0.00605879729125791	0.832457524770572	-0.537777299375852	0.832291999010302	-0.53764420396609	-0.00467024362553948	-0.00870189983815802
4.5	-0.00977364041033308	-0.00553158682134165	0.73954730548564	-0.660503512510021	0.739357910062118	-0.660330615568741	-0.00691817039422726	-0.00910950711856037
4.6	-0.0119375636303858	-0.0034858414226274	0.627554702984313	-0.768340631191909	0.627895766762057	-0.767640948345704	-0.00871352359573047	-0.00865422774514455
4.7	-0.0133592353334534	-0.00147281899014188	0.500927706699735	-0.856316063358072	0.500943550153039	-0.855959590783966	-0.010483332258621	-0.00844707034379792
4.8	-0.0143934543410325	0.00107618657028445	0.361679038820376	-0.923627082572094	0.361900427383991	-0.923309669862576	-0.0122084777119416	-0.00786479306945495
4.9	-0.0144763655128285	0.0035897940940872	0.214517935977957	-0.968293192131671	0.214297462121003	-0.96830141593889	-0.0135560752882193	-0.00692286683073717
5	-0.013860103924988	0.00626312480908804	0.0610386378788605	-0.990399399689078	0.0612159880445042	-0.990153111802986	-0.0142859335123891	-0.00527363215802024
5.1	-0.0119568643884183	0.00836608527980026	-0.0936403111471241	-0.987693015010423	-0.0933080043023467	-0.987466777064389	-0.0142452665640296	-0.00385514628738244
5.2	-0.00988604948556004	0.00998922111121284	-0.245955771316102	-0.96120488045895	-0.245462539511864	-0.961177481260379	-0.0143770634015045	-0.00239854422730364
5.3	-0.00764165168390814	0.0110149670644021	-0.392302258698711	-0.911539074562232	-0.391960353784854	-0.911755612948308	-0.0141581234785014	-0.000836572822472714
5.4	-0.0055641889331994	0.0119132639943973	-0.529536320459853	-0.83971495172244	-0.529322723174363	-0.839916246816155	-0.0139279719188168	0.00074219034025747
5.5	-0.00327990650059854	0.013324640376634	-0.653767851210163	-0.746665141925725	-0.653528154470618	-0.746860465859149	-0.0131959232122647	0.00285026503403593
5.6	0.00029185439914066	0.0136649067089018	-0.761282496065747	-0.636105169564168	-0.761092185707809	-0.636277462639653	-0.0117031293223297	0.00357601186065045
5.7	0.00302891514104668	0.0128630702489327	-0.851029150568999	-0.510265135392683	-0.850899350343636	-0.510485595436704	-0.0112342426104714	0.00428516327734667
5.8	0.00537745455631053	0.0117961052656657	-0.920025476437644	-0.371665439924165	-0.919957369573905	-0.371951315940503	-0.0108156476295651	0.00531379684355769
5.9	0.00706337181361439	0.00995492330665705	-0.966531015746161	-0.224045141137133	-0.966545551820391	-0.224129027338936	-0.0105881868896013	0.00633368014803944
6	0.00769534840753434	0.0090102291194606	-0.98925093556123	-0.0715101698923366	-0.989131360126623	-0.0715683691289126	-0.010433578772973	0.00853047166628287
6.1	0.00965275383997039	0.00783477733662034	-0.988728716907722	0.0829456839522319	-0.988601688215722	0.0827967443994297	-0.00819629283582808	0.00993994204874801
6.2	0.0107445089616678	0.00551330350058616	-0.963731065286923	0.235917132969927	-0.963717430677779	0.235713671580801	-0.00663751912754604	0.0098917782101515
6.3	0.010823829846412	0.00278928480450789	-0.91512365511084	0.382876620998117	-0.915119291788909	0.382690739202697	-0.00562477590152813	0.00937459959668131
6.4	0.0100608553299118	0.000133411960127672	-0.84427460617077	0.520160471975257	-0.84424306490783	0.519949236476857	-0.00527353284099837	0.008697454564401
6.5	0.00863710333655507	-0.00205560390431002	-0.753599749663301	0.644908598739227	-0.75362414519364	0.644703943601232	-0.00512459504864669	0.00845617484556519
6.6	0.00733963064925959	-0.0038294014844111	-0.643904771592295	0.754605023639352	-0.643979287923392	0.754352235239358	-0.00467507203226324	0.00838229277831631
6.7	0.00570186156680525	-0.00534682523529219	-0.518482795723504	0.845238928862607	-0.518586339578437	0.845017361519377	-0.00423704521008672	0.00845847526774776
6.8	0.0041048570824705	-0.0064338742050615	-0.380829094902729	0.915311557304149	-0.380971459836214	0.915140684657351	-0.00359577332749418	0.00863434939285523
6.9	0.00223334738352308	-0.00725654507949603	-0.234134935933031	0.963325750749944	-0.234362404615952	0.963215528619709	-0.00272043179401355	0.00871123698270186
7	0.000702974910985385	-0.00744572155367173	-0.081139760305117	0.988244380104086	-0.0813504628089265	0.988154906915098	-0.001530117547107	0.00853690317076302
7.1	-0.000881877444890604	-0.00771347842373088	0.07365348926239	0.988165022409842	0.0734505813021658	0.988032146028594	-0.000602710501475638	0.00794076054593455
7.2	-0.00246756011406674	-0.00755762408464415	0.226130522624933	0.964387455099732	0.225847708573263	0.964353787543506	0.000294009185054423	0.00757138544973625
7.3	-0.00409362154373755	-0.00718873166797622	0.373105923143403	0.917390400089071	0.372869488346884	0.91741753228718	0.00116920470235114	0.00702348294734353
7.4	-0.00552343942340541	-0.00645961486296355	0.51129048882811	0.848039961395807	0.511076861375787	0.848092057956528	0.00172998599965262	0.00628058477209061
7.5	-0.00669757375741925	-0.00532279257298936	0.636606793215124	0.757348832419214	0.636437361349092	0.757419369735897	0.0024377751611285	0.00584284407313371
7.6	-0.00697264791220685	-0.0043460039613278	0.745811235923572	0.649222189661529	0.745553817783403	0.649305765140718	0.00345294521488465	0.00455960049671801
7.7	-0.00739724798166341	-0.00336041627391273	0.837348909134224	0.525462011290822	0.837164179669708	0.5256801546877	0.00354228588179143	0.00318685695640369
7.8	-0.00741648036738053	-0.00222727294620564	0.908648138441338	0.388721554489024	0.90854604055226	0.388947588074845	0.0033759944789806	0.00202627235602329
7.9	-0.00758320537690783	-0.00115221306166116	0.957481440831964	0.242611425805397	0.957344175810036	0.242791803577866	0.00272979223104109	0.0013916634828404
8	-0.0076175577303796	0.00104701864283971	0.982572229074036	0.0914259541612879	0.982550269553112	0.091688708446224	0.00172845110361055	0.00187025268530429
8.1	-0.00578234340565441	0.00292832781955451	0.985079456590359	-0.0621082635587048	0.985109383051623	-0.0618527918199426	0.00261899534415061	0.00198557502166862
8.2	-0.00380268176842709	0.00362218383512375	0.963026225744233	-0.21445200761008	0.963075857686695	-0.214135191945515	0.00259978642450089	0.00122243946374401
8.3	-0.0020448463439097	0.00379446101063433	0.917480652605594	-0.361129732286874	0.917533150710559	-0.360842983004625	0.00219593062333407	0.000599611290955356
8.4	-0.000425358920800349	0.00312482562003308	0.849949852187996	-0.498536473093395	0.850048279900569	-0.498335088997974	0.00141707471426268	-0.000151130637043225
8.5	-0.000292274226583654	0.00264953071150247	0.762796025048279	-0.624091298771965	0.762847846070292	-0.623940849858183	-0.000206316267372493	0.000114676533653682
8.6	0.00101106288763667	0.00296201778145264	0.656063196376219	-0.735103169398114	0.656232409948877	-0.734866851249416	-0.000144065825618402	0.00108873939092286
8.7	0.00230979327319173	0.00251757944244338	0.533649505627233	-0.827473334314832	0.533909162616798	-0.827259091288979	-9.71172315961094E-06	0.00139300960618172
8.8	0.00372941845710048	0.00178575648847926	0.398907272288078	-0.899760736775673	0.399092748770325	-0.899622497125752	7.55168206331537E-05	0.00161357888524975
8.9	0.00503012467910418	0.000514877512843453	0.254752118664325	-0.95069147308623	0.25493147594821	-0.950522212261652	0.000528086817595517	0.00192642770913541
9	0.00597394223378056	-0.00111624900376869	0.103507272686034	-0.978679035876571	0.10381532023325	-0.978633661985797	0.00128046491951009	0.00243055754606323
9.1	0.00694011001693062	-0.00266013945676423	-0.0495148770655507	-0.98196886178665	-0.0492062537136481	-0.981929105961153	0.00302273804513823	0.00265170078682951
9.2	0.00771711378172541	-0.00437206431172531	-0.200998149442604	-0.962034650473754	-0.200651350282528	-0.962013583995345	0.00513402425625498	0.00226953395719143
9.3	0.00829172889709375	-0.00601584501371439	-0.347648447795831	-0.9190615092844	-0.347297338767337	-0.919037164531606	0.00765604987349688	0.00105986536809931
9.4	0.00828912563348229	-0.00810314640804631	-0.486096510194603	-0.853778751115289	-0.485774475000153	-0.853870474612007	0.00949482796845235	-0.0015091251561153
9.5	0.00766814481966228	-0.0086649897075579	-0.612131344824782	-0.766962687366768	-0.61189542433059	-0.767013642207474	0.0103676690594671	-0.00393297944291237
9.6	0.00785980403260307	-0.0101192459257552	-0.722853811880566	-0.662831741933386	-0.722543816048147	-0.662970768596962	0.0102813216820645	-0.00771617993564091
9.7	0.00702477912922896	-0.0111569002332015	-0.816607192575956	-0.542744538555088	-0.816321398024091	-0.542977289814042	0.00787945505096012	-0.010869546864014
9.8	0.00616718908776421	-0.0119765307576424	-0.890567151780674	-0.409416192385557	-0.89031532200165	-0.409585055738846	0.00459107733531786	-0.0128713719099936
9.9	0.00478941923384041	-0.0125644718381913	-0.94260561059903	-0.26616081477665	-0.942354958263783	-0.266369201155908	0.000574384783711234	-0.0137298255955903
10	0.00301999949512822	-0.0116907482467103	-0.971609367429915	-0.11760341042088	-0.971456996787694	-0.117963998379036	-0.00336516516964338	-0.0121952627128057
10.1	0.00303453423597299	-0.011007467730653	-0.978262736420756	0.0341391047971348	-0.978199924385391	0.0337097016600758	-0.0056014507643641	-0.010994984055665
10.2	0.00268036599148357	-0.0111322734686732	-0.960943369148706	0.185256440690564	-0.960822447729267	0.184827409257131	-0.00857178424340521	-0.00953281882485996
10.3	0.00198103139069649	-0.011135090437401	-0.92032527508051	0.331589982908977	-0.920342755034319	0.331051492746512	-0.0114160085081491	-0.00722539455494279
10.4	0.00108137063508634	-0.0114757687628269	-0.857830207609798	0.469372131014625	-0.857965875141355	0.46886371164005	-0.0137334866457015	-0.00432610437799952
10.5	-0.000351820142858547	-0.0109179366663967	-0.775690106170883	0.596608003367816	-0.775861820486834	0.596177964061349	-0.0149982475084557	-0.000347717776279647
10.6	-0.000560871067570324	-0.0101783356414874	-0.673542108359378	0.709906538227681	-0.673813079920971	0.709578091524962	-0.0139933708866066	0.00341940559069338
10.7	-0.000548411493212739	-0.00989614845982852	-0.555309560011781	0.805433143758775	-0.555608432789416	0.805125242558758	-0.0120479758329392	0.00611235389625076
10.8	-0.000679875893282195	-0.0102508526757336	-0.42399209000676	0.881482393538942	-0.42434073727667	0.881185470544872	-0.00990704720081101	0.00793936641172639
10.9	-0.0012883861024857	-0.0103554044179189	-0.282741724149988	0.936747509268464	-0.283129851316364	0.936624696569094	-0.00787209021444065	0.00946395041046046
11	-0.00169502338006257	-0.010331451089178	-0.133487925040548	0.969637198063084	-0.133922816526725	0.969546708331569	-0.0051132190706524	0.0107296195794323
11.1	-0.00193734261621083	-0.0104552657430964	0.0183249040017794	0.977783011199222	0.0178388189449132	0.977795959131812	-0.00208959364291752	0.0109514994293209
11.2	-0.0022954818534056	-0.0108968850895737	0.169213426888955	0.963163860558811	0.168758721166851	0.963235862590271	0.000962034004471159	0.0105210499265948
11.3	-0.00289171775671213	-0.011355343901971	0.316258058000876	0.925584494084476	0.315801189997326	0.925719579775154	0.00399544422204885	0.00940022606211239
11.4	-0.00413188041974418	-0.0118809015161577	0.456241317564306	0.865477877664434	0.455839345662935	0.865589832602403	0.00640808136779058	0.00792646236786012
11.5	-0.00522208546080654	-0.0110453208559271	0.58440404381208	0.783418038341123	0.584086881587395	0.783718006337665	0.0090165709800734	0.00661007660607393
11.6	-0.00573406418736789	-0.0112569253282461	0.698053230517204	0.684019767033929	0.697838343974603	0.684344964952939	0.0110800032298161	0.00344931903121156
11.7	-0.00694774033981061	-0.0111032322320507	0.795749787024607	0.567913708209647	0.795546831038105	0.568217874574661	0.011532652857462	0.000386640683421841
11.8	-0.00844519596335533	-0.0108725789653034	0.874296346126372	0.437612989009068	0.874114174220582	0.438060691102517	0.0110243723100332	-0.00245663801506821
11.9	-0.0103555700987986	-0.010179504408607	0.931128544812712	0.296740373246478	0.931021898223087	0.297187221711045	0.0093481672015131	-0.00451658429325441
12	-0.0129754412705592	-0.00764394700265076	0.965554999800049	0.150113115323483	0.965524727404683	0.150475210283981	0.00771562582354652	-0.0046434737509789
12.1	-0.0132037907212903	-0.00498338998579932	0.978003415734308	-0.00108749648574891	0.977930899944263	-0.000705127199175404	0.00759822445285728	-0.00584076488696839
12.2	-0.0133302523883857	-0.00285005533084954	0.966305787358192	-0.152715101128452	0.966321665556384	-0.152418369631959	0.00643296831484716	-0.00710979786402146
12.3	-0.0127548851572925	-0.000823914384823684	0.931041979748673	-0.300475666002466	0.931159283362828	-0.300169695177836	0.00530703832240559	-0.00822282214938314
12.4	-0.0121615289357013	0.000110372532264619	0.873917996572086	-0.440758997041797	0.873978555512709	-0.440390430637033	0.00374182870215464	-0.00964554618166812
12.5	-0.01232637529174	0.00144044993226861	0.796203403238556	-0.571541514582037	0.796540402155524	-0.571149734097596	0.00119075260597222	-0.0100939657548288
12.6	-0.0113442152789299	0.00266399196412027	0.69767925311645	-0.688664340413617	0.697928782084486	-0.688420699418397	-0.000291568026768939	-0.010508607576744
