# GHZ S RI R 50
0.2	-0.000176330847750478	-4.76485795319602E-05	0.948814093356153	-0.308140291449394	0.948591884400089	-0.308114803887916	-0.00019259331965856	7.29006582397505E-05
0.3	-0.000207004268697118	-4.58558170756978E-07	0.88869177035809	-0.451776167786403	0.888535657303717	-0.451680767415614	-0.000297925317566744	-4.06757578446863E-05
0.4	7.1929553903529E-06	-1.9251861634723E-05	0.807065105973596	-0.58391568748301	0.80707688268371	-0.583940796714071	-0.000204141255164541	-7.63730071534848E-05
0.5	-0.000145264718855598	-0.000193112480465294	0.706371043491256	-0.701976559469817	0.706216137855002	-0.70187510897747	-0.00031755130690168	-0.000246352191730802
0.6	-0.000249086780229901	3.76628548437233E-05	0.588456040282762	-0.802982778136311	0.588336899357799	-0.802821128113725	-0.000526020715366758	-7.89854879663603E-05
0.7	-0.000143806055951998	0.000290479769801843	0.456340256287817	-0.884174111772344	0.45632153784745	-0.884061687856172	-0.000443917506047097	2.58571011457588E-05
0.8	0.000133139335980072	0.000340196945568645	0.313391040292055	-0.943962488563596	0.31335975672937	-0.943772900003192	-0.000397574450965168	0.000183582791153374
0.9	0.000464461352459316	0.000431377904121393	0.16306514270206	-0.980766450874093	0.163000178642581	-0.980674611651025	-0.000208706067987633	0.000214845230147091
1	0.000756736945471333	-0.000202852207446892	0.00883792154694329	-0.993995941398383	0.00878631831944795	-0.993964494010063	-4.40611627593794E-06	-0.00038814017275149
1.1	0.000450556885424549	-0.000406475650109012	-0.145618822101249	-0.983091055497896	-0.145634524509215	-0.982960730810832	-0.000685593877790477	-0.000548409595484339
1.2	0.000693845930399236	-0.00126657833204036	-0.296486136310314	-0.948194792558237	-0.296409839578446	-0.948168742026892	-0.000581589511747892	-0.000221267174377756
1.3	0.000741320079387868	-0.00283168338526422	-0.439915689194884	-0.890428143163662	-0.439892682052884	-0.890421539468872	0.000393168561068114	0.000355703772101738
1.4	0.00070429056359633	-0.00468011408710152	-0.572478151566934	-0.811278588710191	-0.572454002007562	-0.811256980896858	0.00205644306690318	0.000182226083752105
1.5	0.0001662601856982	-0.00548763117515132	-0.691627995343525	-0.712252835748897	-0.691526330263272	-0.712167998675607	0.00325280222314679	-0.000535138731561681
1.6	0.000118501514187273	-0.0056159501230605	-0.793348066209355	-0.595948768811809	-0.793274094416244	-0.595888843787909	0.00372939716327124	-0.00122582868785616
1.7	-0.00029739845370479	-0.0057298683597163	-0.875591850517976	-0.466106851260732	-0.875755845940079	-0.465591479066592	0.00371633512859398	-0.00223949479908044
1.8	-0.000980098286739593	-0.00565136044639595	-0.937361045002056	-0.324143791561079	-0.93724995477576	-0.324142433700821	0.00309310241703471	-0.00322378133967389
1.9	-0.00166766646389348	-0.00551033337838349	-0.976045147355256	-0.175068951579071	-0.976137846568575	-0.174582117127877	0.00222765899622956	-0.00409215582277184
2	-0.003016762279265	-0.00510588252985885	-0.990763895171804	-0.0209090814963691	-0.990775800285459	-0.0208633134108662	0.000552159872703553	-0.00458330106045839
2.1	-0.00343231563441649	-0.00390544538695	-0.981896782113951	0.132712855609389	-0.981934822541442	0.132749869627961	-0.000330742247803289	-0.003796504944078
2.2	-0.00391781491359925	-0.0034087200905687	-0.949477009377131	0.283318200329838	-0.949402074569743	0.283380912327646	-0.000593307992398474	-0.00356359230599313
2.3	-0.00450926204686324	-0.00271056781251112	-0.89409506572904	0.426554644562845	-0.893713751446505	0.427067079195425	-0.000992253789192392	-0.00364711715704231
2.4	-0.00509146967956596	-0.00204226271503491	-0.816073858360182	0.56098798708934	-0.816339714202169	0.560403186540755	-0.00150533061554656	-0.00395787809836559
2.5	-0.005979205525321	-0.00121104773233989	-0.719604107355507	0.680314902898616	-0.719816886144512	0.679805897489577	-0.00260673685421443	-0.00475123077413799
2.6	-0.00630410434620382	0.000599948227527882	-0.605871346463488	0.783553212758556	-0.605765241186247	0.783370888814168	-0.00367171273533028	-0.00403545124725927
2.7	-0.00559512464923301	0.00196670518558881	-0.476340122259699	0.868210477661007	-0.476788107801319	0.867803859370181	-0.0038999088371106	-0.00337017481351932
2.8	-0.00439471626351416	0.0027297852705172	-0.337160637634125	0.930957396889316	-0.336494240056961	0.931116554736358	-0.00391441927914612	-0.00287453515120246
2.9	-0.00283071135207648	0.00290095015680704	-0.188306287594936	0.971951104041568	-0.188337380034427	0.971863847414015	-0.00343104773483358	-0.00225391439479453
3	-0.00142992623802578	0.00271070066475917	-0.0345742900896146	0.989835677711972	-0.0352743151331914	0.98967642170005	-0.00288372896054298	-0.00156872539534596
3.1	0.00015180241205004	0.00216349836082382	0.11825955817226	0.983113674053426	0.118849540663873	0.983096432910807	-0.00169674857297767	-0.00117374813684702
3.2	0.00111339692517745	0.00117062141381134	0.269814531875052	0.952623704208386	0.269759858837586	0.952563412924326	-0.00105260238215795	-0.00127429231864415
3.3	0.00201979571450587	0.000114498983805545	0.414431150513518	0.899225259255623	0.414294149723436	0.899210923388251	-0.000284758504792106	-0.00144855254487406
3.4	0.00240698300925854	-0.00122977938006296	0.548998409069966	0.824234884738851	0.548836174571096	0.824352535427366	0.000398156815895373	-0.00221591021326817
3.5	0.00243480978376245	-0.00222889373161828	0.670521855979606	0.728954888105087	0.670442292123358	0.728993570212453	0.000391805441002399	-0.00260269575747774
3.6	0.00253829049739481	-0.00328486835016964	0.774734685717725	0.616397407377726	0.77497570454704	0.615949333528714	0.000932569407183582	-0.0028968744155858
3.7	0.00217630734414524	-0.00459360559595109	0.861267963759978	0.488291683223183	0.861149662819242	0.488434577524889	0.00119100536375989	-0.00361308793630536
3.8	0.00128616805954915	-0.00562865152640304	0.92649077046745	0.349324651066332	0.926547806492271	0.348945763085989	0.00112371556786456	-0.00444874956123281
3.9	0.000393112049518273	-0.00652915450995973	0.969729727258031	0.200019694522714	0.96949107151613	0.20068663229539	0.000397041871618739	-0.00571669933522567
4	-0.00136042781969914	-0.00694881306087724	0.988604719305748	0.0478931890867343	0.988565746981323	0.0479959374112797	-0.00109586773896931	-0.00649360398351533
4.1	-0.00237674450844795	-0.00679053733385193	0.984375722751188	-0.105636750853788	0.984191227641412	-0.105509883467235	-0.00199453888542965	-0.00631041543756225
4.2	-0.00376200543680997	-0.00695467295884093	0.955972111140118	-0.25784291983698	0.956006484085066	-0.257189418622826	-0.00265004393325295	-0.00662657749214298
4.3	-0.00533683234776243	-0.0070122744870252	0.904723314871298	-0.402564129668017	0.904587400911843	-0.402453174811871	-0.0035599026555364	-0.00723926183550275
4.4	-0.0072355306921155	-0.00668595492359835	0.831171359038764	-0.537998723892874	0.831006112355077	-0.537865609804212	-0.00475962738569413	-0.00793633872810751
4.5	-0.0095096249097133	-0.00604110264993685	0.738030788784479	-0.660176644498664	0.737841784630473	-0.660003836360834	-0.00685815152903204	-0.00878510928102691
4.6	-0.0115245343325258	-0.00402226325333831	0.626405680641175	-0.767622599403687	0.626746610636222	-0.766923971204882	-0.00925373780583082	-0.008244787042118
4.7	-0.0127017320078058	-0.00210828586473222	0.499955423062321	-0.855444171095178	0.499971390022983	-0.855088151717604	-0.0111290660046343	-0.00761195185302992
4.8	-0.0135955565620276	0.000201171638339365	0.360856098430935	-0.922529014512445	0.361077308900677	-0.922212106681359	-0.0127591608719959	-0.00670265550855261
4.9	-0.0136540992943146	0.00246337995665656	0.213964032682139	-0.96685082233613	0.213743896611	-0.966858982606958	-0.0138828353420084	-0.00553231580800444
5	-0.0131570203508972	0.00481765644164576	0.0611992674226976	-0.98891497152137	0.0613762920909	-0.988669003947386	-0.0145254838056299	-0.00376464227655824
5.1	-0.0115098283945859	0.00680022800582027	-0.0933199765094767	-0.986522390453571	-0.0929881176610462	-0.986296355345074	-0.0140802988770855	-0.00192333379169344
5.2	-0.00964273649605611	0.0083984404359554	-0.245434128568592	-0.9600531918596	-0.244941521777958	-0.96002571774577	-0.013451406294042	-0.000585715625206017
5.3	-0.00752780596814445	0.0094588311426717	-0.391457639767	-0.910509305872778	-0.391116095316876	-0.910725437967126	-0.012706858759142	0.000307827415341308
5.4	-0.00542572818776203	0.0103372181202281	-0.528364379118624	-0.839056250200354	-0.528150906450414	-0.839257167877272	-0.0125379539023156	0.000832303301677126
5.5	-0.00344760835114034	0.0114292414554528	-0.652838978683832	-0.74650370484776	-0.652599342444285	-0.746698741348186	-0.0132591251409656	0.00236040496862343
5.6	-0.000209744681441636	0.012070523070967	-0.760378539426719	-0.63580103184931	-0.760188339406179	-0.63597310417864	-0.0122283886368633	0.00430834339523252
5.7	0.00238535752627773	0.0115183241680092	-0.84995290536519	-0.510168170587604	-0.849823127911498	-0.510388352974915	-0.0113084289945842	0.00543722791811821
5.8	0.00467211525606904	0.0108764785787302	-0.918962540329292	-0.371883712441559	-0.918894322485742	-0.372169286864434	-0.0104587599103702	0.00647153161246819
5.9	0.00677492852579964	0.00958715346628308	-0.965732987771639	-0.224476201828399	-0.965747463145333	-0.224560039322811	-0.00975462427962613	0.00702181340594306
6	0.00804776743061626	0.00841725178680321	-0.988425082155271	-0.0716631565541874	-0.988305592231651	-0.0717212825282337	-0.0104070475648559	0.00805311641055435
6.1	0.0102620549073865	0.00717480837441059	-0.987637711424813	0.0823167365190621	-0.987510748258499	0.0821680366160466	-0.00931777339541588	0.0104189450782655
6.2	0.011687903858453	0.00449228289372069	-0.962925633287734	0.234926813461993	-0.962911854680863	0.234723571374788	-0.00757561777849646	0.0112321783621025
6.3	0.0117494399202745	0.00135012104497052	-0.914639192367087	0.381780121513363	-0.914634678366853	0.381594406394087	-0.00606107040088073	0.0111839438815594
6.4	0.0108355361133855	-0.00155331258743611	-0.843910873144331	0.519126507629997	-0.843879212113191	0.518915475563032	-0.00500881342348553	0.0105357544185662
6.5	0.00916938641560807	-0.00397563567947863	-0.753268866877827	0.643387575443007	-0.753293037845872	0.64318315312171	-0.00448437776104724	0.00990417745934979
6.6	0.00758255033247724	-0.0057913229530467	-0.644365823155501	0.753079863412206	-0.644439933145532	0.752827193708519	-0.00373870005887449	0.00946261737398819
6.7	0.00564807164245765	-0.00728227326055414	-0.519230108671426	0.844041364484035	-0.519333304448811	0.843819806036097	-0.00340362660650931	0.00889632852769258
6.8	0.00382936150494039	-0.00817068293418433	-0.381694549201006	0.914284545529925	-0.381836619953501	0.914113607618776	-0.00327983980986164	0.00875097620066209
6.9	0.00195202999570408	-0.00881700004908951	-0.235224523543431	0.962245023667938	-0.235451664187752	0.96213458818661	-0.00297021008558128	0.00885355702842708
7	0.000377941130042951	-0.00887946000298162	-0.0829779993030358	0.987591107367708	-0.0831884252576311	0.987501278672762	-0.00233136326171627	0.00917435217109309
7.1	-0.00109201503574795	-0.00899618780260511	0.072029139144879	0.988255805814282	0.0718264554981014	0.988122600392135	-0.00126831299492002	0.00916712405532617
7.2	-0.00256574220146548	-0.00880342316118135	0.224651465273165	0.964701991540612	0.22436871158081	0.964667893404689	-0.000192308779451122	0.00906801113720914
7.3	-0.00406703888712454	-0.00842864428439299	0.371624711706573	0.917973699521367	0.371388237526668	0.918000451204881	0.000885363264383189	0.00876523033987264
7.4	-0.00533586632014853	-0.00779038039279048	0.509794280290378	0.849162611206769	0.509580514177873	0.849214316231484	0.0017392214711163	0.00813253382107735
7.5	-0.00655870335373649	-0.00694303400434064	0.635932390461956	0.759054562764612	0.635762694251355	0.759124885867868	0.00243113804983536	0.00774273109827746
7.6	-0.00696268886774484	-0.00598038785576099	0.745503149334498	0.650557918243925	0.745245461123046	0.650641233264976	0.0038636009271395	0.00703532170629115
7.7	-0.00746553470632323	-0.00495856753095688	0.837177113676988	0.526895423382515	0.836991980958074	0.527113458851032	0.00484039571159069	0.00562327200360506
7.8	-0.00744096794369576	-0.0037036959586312	0.908855202522519	0.390289228582079	0.90875271025457	0.390515306246696	0.00546781884605491	0.00384352489592017
7.9	-0.00720894788439991	-0.00254446527877936	0.958322912592897	0.244060915812068	0.958185265893445	0.244241341021114	0.00530020435985523	0.00174548159273176
8	-0.00716072931198485	-0.00109613426198092	0.983487419928542	0.0920490346346952	0.983465296234568	0.0923120350070303	0.00289077114908148	0.000245467749496352
8.1	-0.00575881569048401	0.000841424745253171	0.985780005725089	-0.0612792343868281	0.985809726246608	-0.0610235687656516	0.00156515271312461	0.00114557440767787
8.2	-0.0038966726186631	0.00165614270423603	0.96409742107707	-0.213681759732062	0.964146781006804	-0.213364612544337	0.000956865916519502	0.00162510968813162
8.3	-0.00222795167110566	0.00199730973892339	0.918800402969215	-0.360749521492211	0.918852715580554	-0.360462410992752	0.000590922328921604	0.00210069915613792
8.4	-0.000439942613650522	0.0016979918982316	0.851075428291165	-0.498679016501162	0.851173868931891	-0.498477374639793	0.000617598774911033	0.00214316212806066
8.5	0.000245233712912499	0.000877859194791631	0.763605171469264	-0.623855913617597	0.76365691155732	-0.62370535533878	-0.000506397197700917	0.00156816384445626
8.6	0.00133726295130449	0.00093653332098782	0.65746447721409	-0.735137197581846	0.657633610072551	-0.734900473895333	-0.00139886533080442	0.00318456980066475
8.7	0.00254942376223394	0.000296286143605011	0.53494181739767	-0.828030879488898	0.535201612097555	-0.82781617539394	-0.00080437307194322	0.00460056044981451
8.8	0.00365911933989249	-0.000579077783051723	0.399898110823701	-0.900548587729722	0.400083716341673	-0.900410079990105	0.000346009607418811	0.0054531225311057
8.9	0.00465210239236635	-0.00168683037156342	0.25560474031495	-0.951339923726031	0.255784139184278	-0.951170397744638	0.00227256992644684	0.00576100700435131
9	0.00553479475294387	-0.00323226485692076	0.104870786006644	-0.979808380986273	0.105179172942938	-0.979762561447703	0.00411351328150571	0.0050891463127752
9.1	0.00642818863463355	-0.00463774942058397	-0.0489198314924537	-0.983746964454342	-0.0486106877710555	-0.983706923381629	0.00617775719085224	0.0042304444908125
9.2	0.00720332266238303	-0.00638739626862286	-0.200925539638351	-0.963694872679997	-0.200578181059906	-0.963673626789564	0.00812931053470856	0.00238149575384478
9.3	0.00758175070201805	-0.00796167066234924	-0.347787997616054	-0.920620846860202	-0.347436360217701	-0.920596314256969	0.00946496818298758	8.53741330050981E-05
9.4	0.00779297594942277	-0.00973520996929429	-0.486329960847636	-0.855594393918047	-0.486007305648657	-0.855686047565982	0.00992165216807472	-0.00284674994919417
9.5	0.00707051508937797	-0.0104860359078427	-0.613512741325319	-0.768990942878275	-0.613276222892012	-0.769041980220037	0.00848672071752611	-0.00459089058783936
9.6	0.00750103265680222	-0.0115991417868599	-0.72458968488763	-0.663897517184283	-0.724279111994273	-0.664036949907179	0.0085071480157808	-0.00581697355720341
9.7	0.00684277551680669	-0.0127738586524509	-0.818338970143728	-0.543476624140783	-0.818052720019418	-0.543709915635968	0.00732946513124513	-0.00822252502336873
9.8	0.00598150326687389	-0.013511246378215	-0.892500921742077	-0.409907443932581	-0.892248650205374	-0.41007673809176	0.00507899410912919	-0.0101865508853347
9.9	0.00504342412744555	-0.0138531562283676	-0.945008930417219	-0.266122701760341	-0.94475783562754	-0.266331754323575	0.00212318268787609	-0.0118927942917246
10	0.00342740446405334	-0.0136958520513112	-0.973588094985056	-0.116278624793376	-0.973436015358533	-0.116640119615166	-0.00292122632843337	-0.0121127020620266
10.1	0.00319349001414695	-0.0128428731024526	-0.979553128306677	0.035325943054719	-0.979490731433194	0.034895882827729	-0.00620641338467808	-0.00956599683720137
10.2	0.00287256742583257	-0.0129934881581916	-0.962190029619398	0.186632188672033	-0.962069413516474	0.186202368683752	-0.0084720740940198	-0.00744546250077882
10.3	0.00208324415670829	-0.0129248946897253	-0.921306404799274	0.333417132436756	-0.921324675468792	0.332877818033339	-0.0104957406292376	-0.00523810263718984
10.4	0.00131032063430353	-0.0130284780091792	-0.857999863656815	0.471627948323584	-0.858136688608237	0.47111915185165	-0.0120075850335282	-0.00316818315024414
10.5	0.000100567061026006	-0.012739969227564	-0.775065616808205	0.598003267773808	-0.775238046790557	0.597573332985612	-0.013791706965221	-0.00106947712625105
10.6	-0.000357807163612756	-0.0119530249334293	-0.67330950173174	0.711252760867473	-0.673581067037676	0.710924343328932	-0.0146685189308048	0.00257629077818665
10.7	-0.000307183900601232	-0.0113753460402047	-0.554712048496518	0.80695278096396	-0.555011626224161	0.806645006504058	-0.0138075149529949	0.00626798796507298
10.8	-2.56699817508577E-06	-0.0115440649508709	-0.422885916433488	0.882791180622075	-0.423235288046807	0.882494602659029	-0.0117224228719274	0.00929392702758109
10.9	-7.5585565347433E-05	-0.0119117382558633	-0.281444214019543	0.937354036438576	-0.281832600728722	0.937231760152391	-0.00925625191611281	0.0114220243769501
11	-0.000362463207776757	-0.012520810942583	-0.132896911423303	0.970376721572514	-0.133332156084216	0.970286476535855	-0.00644262393828758	0.0129986046990895
11.1	-0.000693057258253282	-0.0131262756099034	0.0196829218459711	0.978773335368828	0.0191963497250592	0.978786962406645	-0.0029245684025585	0.0137731720190835
11.2	-0.00135513139813067	-0.0139798105602534	0.170873399245338	0.96357924040925	0.170418484826132	0.963652020496169	0.000697190815794487	0.0134445966405179
11.3	-0.00228184088176579	-0.0146137463812998	0.31778215669525	0.92554906867652	0.317325274939651	0.925684896792318	0.00427766126148337	0.0121979948740782
11.4	-0.00363221432973297	-0.0153168689396615	0.457476273749114	0.865527036891587	0.457074169756124	0.865639502132634	0.00709960529784069	0.010055438125713
11.5	-0.00545644537867486	-0.0148824365350789	0.58657545211815	0.783456359112876	0.586258385753873	0.783757292368688	0.00845688569687245	0.00837719838224518
11.6	-0.00642099295470184	-0.0146657539342002	0.700009200496713	0.682833350512317	0.699794926836835	0.683159224308896	0.0107752590381737	0.00668782500886844
11.7	-0.00799534469744366	-0.0142156418476968	0.797144331579507	0.56645061361041	0.796941938970226	0.566755284114453	0.0123368775714205	0.00380816984460633
11.8	-0.00974731362635824	-0.013306305083801	0.875455317174818	0.43609370335513	0.875273938548108	0.43654191842851	0.0128392561060468	0.000540780387728019
11.9	-0.0112747952145987	-0.011666995890325	0.932521289252025	0.294862583368302	0.9324155715382	0.295310019242554	0.0119922247530219	-0.00289182235486429
12	-0.0132968897653537	-0.00939549036989104	0.96595651606797	0.147012917561403	0.96592740417532	0.147375079820878	0.00887103360760642	-0.0054651762952893
12.1	-0.0130123591831072	-0.00618396558972004	0.97728035006549	-0.00360597928237443	0.977208872638384	-0.00322370482978585	0.0070876951215678	-0.00551629082040449
12.2	-0.0123613237895187	-0.00439802101075643	0.965245573625723	-0.154936410140262	0.965262156143698	-0.154639929416241	0.0057993901431013	-0.00620126525985695
12.3	-0.0115616360204263	-0.00290898906446068	0.929533300793099	-0.302600764137441	0.929651287929315	-0.302295336271487	0.00452794315514205	-0.00697094946594206
12.4	-0.0108087947016173	-0.00220236761948071	0.871471224610424	-0.442724813389586	0.871532779004494	-0.442356913063887	0.0032780659784367	-0.0081064237668961
12.5	-0.0108260091107346	-0.00174549690034434	0.793116566972963	-0.571799761129957	0.793453558830625	-0.571409613936117	0.000352371247368528	-0.00956234078356597
12.6	-0.0104822944983645	-0.000774570267699835	0.695450406900485	-0.688433502638425	0.695699839137694	-0.68819065290925	-0.00254247441449157	-0.00882614149557409
