# GHZ S RI R 50
0.2	0.000105876720246711	-0.000936156913402561	0.952068610511756	-0.307253111766215	0.951845725876933	-0.307227963994154	6.71341659599531E-05	-0.000790241804873888
0.3	-0.000503972315151531	-0.00100154157091417	0.892910958312974	-0.451331962758142	0.892754066953226	-0.451236583154028	-0.000623550352742938	-0.000987349935496493
0.4	-0.00106289651982068	-0.000703605245344773	0.812300403014951	-0.584558768968258	0.812312298531773	-0.58458396449496	-0.00129494158012582	-0.000677902348986336
0.5	-0.000936752761137474	0.000496148895981894	0.711505928283844	-0.704774397984702	0.711349982745997	-0.704672629848007	-0.00112330663277195	0.000531545137022573
0.6	-7.62015824644081E-05	-6.01975557633019E-05	0.592716072689865	-0.806330214966586	0.592596070615015	-0.806167892038003	-0.000393252821968794	-6.1795942368989E-05
0.7	-0.000454581052601612	-0.000265454646687847	0.460485948262324	-0.888534849913102	0.460466930881636	-0.888421804976784	-0.000791411835730198	-0.00035868141431217
0.8	-0.00063506647395915	-0.000363952411578749	0.316786906642532	-0.949711955485959	0.316755148791669	-0.949521167230874	-0.00116601936682878	-0.000291143723796411
0.9	-0.00148640366899974	-0.000324966302480138	0.164767909204129	-0.98766685377727	0.164702431509838	-0.987574395750928	-0.00206809309876086	-0.000271517014705166
1	-0.0019345091953116	0.0021211753638309	0.00880323100845829	-1.00016431310924	0.00875131043214662	-1.00013266581714	-0.0024718636867988	0.00211662462438759
1.1	0.00137170171954379	0.00173229961124383	-0.145727544919782	-0.989830363029429	-0.145743468132379	-0.989699175907959	0.000406651977575262	0.00159096805088235
1.2	0.00217150492543363	-0.00113947947102493	-0.298402813573261	-0.955550717868225	-0.298325943251576	-0.955524440202059	0.000974312412308386	-0.000184792387290876
1.3	0.00228548210513523	-0.0046604555494541	-0.443769545949694	-0.897325000055884	-0.443746353375065	-0.897318353226798	0.00184212036534861	-0.00155648558466399
1.4	0.00138017872851246	-0.00768846522779084	-0.577599229705286	-0.816855611202141	-0.577574876463719	-0.816833863530008	0.00249005128302678	-0.00277256837136255
1.5	0.00205410791658856	-0.0095326052167267	-0.696805656744052	-0.717792884766985	-0.696703227727665	-0.717707384986896	0.00478263492856467	-0.00434891915020513
1.6	-0.0014044826700878	-0.0114884433720013	-0.801334678179749	-0.601118566123556	-0.801259958843486	-0.601058117330725	0.00193111541489556	-0.00648107183342496
1.7	-0.00368678004503598	-0.00919006770297646	-0.885046933694826	-0.468846965184305	-0.88521147019578	-0.468326252904875	0.000317093847748152	-0.00500121776422337
1.8	-0.00476603213666672	-0.00706314026489495	-0.947161036969313	-0.324646154422267	-0.947048887267842	-0.324645089189087	-0.000502539310259158	-0.00399261599372605
1.9	-0.00515399886338953	-0.00403909154432187	-0.985807275546707	-0.174094108975761	-0.985899539741413	-0.173602390791215	-0.000929558514677512	-0.00214069239129349
2	-0.00141432539306941	-0.00255565810659828	-1.00222309833461	-0.0178979302074016	-1.00223499017771	-0.017851596877212	0.00238745125297487	-0.00175585836332146
2.1	-0.00233794036829097	-0.0057409265132783	-0.99203005066562	0.140095208385476	-0.992068292072516	0.140132863329688	0.00087403749476331	-0.00526136005559887
2.2	-0.0048011090577678	-0.00509082531960572	-0.95725820419999	0.292624417706396	-0.957182080641502	0.29268726395085	-0.00126231907876027	-0.00480661359620743
2.3	-0.00633459414786042	-0.00360960231052301	-0.899959697766793	0.437255436180513	-0.8995708828313	0.437770246740346	-0.00245883752287024	-0.00417396633995272
2.4	-0.00781163649755844	-0.0011105205920116	-0.820221552996379	0.573406950384098	-0.820494871176786	0.572818093560989	-0.00376697282896063	-0.0028705781727263
2.5	-0.00524360497225136	0.00268353295246175	-0.719591950898796	0.695233545467114	-0.719812506481746	0.694721607774406	-0.00156157610773517	-0.00110021503313478
2.6	-0.00306102671344394	0.000574500251061789	-0.601665519092659	0.796489963383307	-0.601560662226262	0.796305025014399	-0.000525377908381903	-0.00432705846174913
2.7	-0.00361080101013203	-0.000277082536805092	-0.470064179556569	0.879901145560885	-0.470520004204072	0.879496591293848	-0.00224355779102872	-0.00568687700124026
2.8	-0.0040749999074405	-0.000274066913404173	-0.328415397466454	0.941606062109885	-0.32774236087979	0.941758376062559	-0.00399999583567278	-0.00572294576373349
2.9	-0.00359531280194607	0.000310645292217506	-0.176290735094918	0.980782057328067	-0.176323215739664	0.980694661236857	-0.00459411187015887	-0.00449110040850626
3	-0.00243453711028975	-0.00024858958271448	-0.0204902739112071	0.993500724399484	-0.0211948240889731	0.993350997186356	-0.00426102939111939	-0.00398069273555752
3.1	-0.00271580468954271	-0.000186399461574734	0.130912218730919	0.984490297188944	0.131503700055899	0.984465619135999	-0.00480050055346915	-0.00288808314906261
3.2	-0.0019644576285528	0.000301602214572795	0.283092665943755	0.95191837052886	0.283037040903995	0.951858616306946	-0.00415757234872022	-0.00142926914011297
3.3	-0.000782808611042391	0.000417078951867795	0.427781904299145	0.895302671576804	0.427644423897752	0.895290211248032	-0.0030069331974522	-0.000483432207183333
3.4	0.000758073446867793	0.000500929386200922	0.560737399934403	0.816513872559763	0.560576821238804	0.816633834630755	-0.00114553348753373	6.721139348886E-05
3.5	0.00346597544433699	-0.00196660832008612	0.678542270318862	0.720485409479689	0.678463225553744	0.72052499494598	0.00138300441029673	-0.00180657665460839
3.6	0.00158232009360564	-0.00462992025750088	0.783036961891712	0.607184134683554	0.783272563379498	0.606732703042226	-3.92860856404696E-05	-0.00352170623322832
3.7	0.00049140554162226	-0.00493416974278123	0.867697289155654	0.476451257549701	0.867580961957143	0.476595725914198	-0.000346850880041662	-0.00320534172502259
3.8	-0.000490699826678243	-0.00510191095243997	0.929799526091434	0.336114620396219	0.92985129547535	0.335735551815379	-0.000374134066852382	-0.00326830924007523
3.9	-0.000987652727259736	-0.00426788705452704	0.969910389216368	0.187298490217078	0.969680726870384	0.187966827990643	-0.000653768543219348	-0.0030096231923129
4	0.00142302872735774	-0.00457625475310304	0.988695583613339	0.0352551278607587	0.988657942684268	0.0353583193455235	0.00177722434554152	-0.0039034411543732
4.1	-0.000236015679419658	-0.00835181888003443	0.980593420416668	-0.120522162134052	0.98041127844509	-0.120392739831395	-2.60924594776578E-05	-0.00750572454608616
4.2	-0.00341578186894389	-0.00883647137698336	0.948025768622118	-0.27121263004119	0.948069881582687	-0.270562414569361	-0.00249329273668753	-0.00798550832690695
4.3	-0.00614776283147911	-0.00857558394939994	0.894174301421043	-0.413568953737561	0.894040703369101	-0.413456608880759	-0.00452885038917776	-0.00819816783030531
4.4	-0.00929674163774474	-0.00672807186553419	0.819285392311523	-0.547167834976203	0.819122882655539	-0.547033029909017	-0.0068863628724093	-0.00740980326283748
4.5	-0.008985623745562	-0.00330421606023207	0.722287727006274	-0.668690129146006	0.722102818196366	-0.66851516363904	-0.00649376194023102	-0.00570725706380595
4.6	-0.0090953214229884	-0.0041929685952412	0.607982604557871	-0.769952090348352	0.608331250989304	-0.769265821239683	-0.00730742680219353	-0.00798039925970981
4.7	-0.011172371301314	-0.00358761872048698	0.482290880676133	-0.853362576186724	0.482311777548422	-0.853010634082239	-0.0102327991184845	-0.00839711886355332
4.8	-0.0128847856558584	-0.00175531237150435	0.344037053535189	-0.917088384059248	0.344260141263591	-0.916778112513611	-0.0127218112869177	-0.00770713733160669
4.9	-0.0136072905123764	0.000723121838380442	0.197359644004443	-0.958038159097628	0.19714210041697	-0.958043038162734	-0.014424881497518	-0.00608440967174737
5	-0.012677291398584	0.00255952059521283	0.0467149356370591	-0.97349461924568	0.0468924030170814	-0.973255107316899	-0.0145469678295635	-0.0046050856286436
5.1	-0.0130725536160244	0.00409984713290487	-0.101591787570327	-0.969297339320612	-0.101263162356524	-0.969078339330957	-0.0158167960978527	-0.00293755863364307
5.2	-0.0121973542585635	0.00722114939626047	-0.250335528732549	-0.942177258397694	-0.249850673567556	-0.942154792443648	-0.0157238750541778	-0.000103422237584816
5.3	-0.00988948626424813	0.0101523445728946	-0.392781916756752	-0.891470845419717	-0.392448124686038	-0.891686288011118	-0.0144667392181246	0.00237364677392239
5.4	-0.00548431650310695	0.0132169692259781	-0.524648068984914	-0.818952789001203	-0.524440218514667	-0.819151487624795	-0.0119670752651694	0.00466226327423893
5.5	0.00129671242232476	0.0105112688544896	-0.642564913938074	-0.729884575988611	-0.642330565664427	-0.730076596823027	-0.00831477093717779	0.00221909605551271
5.6	8.679033061549E-05	0.00787546774718522	-0.749386269543856	-0.622605041510853	-0.74919984545686	-0.622774769857668	-0.0117837740379179	0.00127342044715694
5.7	0.000607384203971365	0.00883812997665715	-0.836512346411426	-0.498504754398926	-0.836385548332133	-0.498721447519346	-0.0126078619248925	0.00397149154565513
5.8	0.00215047037411091	0.00979870136293519	-0.902555759237172	-0.363214730051375	-0.902489353736186	-0.363495116032243	-0.0122367130101337	0.00638338688679395
5.9	0.00467950165791798	0.0116396986603667	-0.947370095670822	-0.220924365953397	-0.947384239271192	-0.221006633174378	-0.0110423868180847	0.00954585854576189
6	0.0125117843347939	0.0102959102350362	-0.972877822959259	-0.072197485063707	-0.972760101031429	-0.0722545039582443	-0.00577961304565238	0.00992083266379935
6.1	0.013008870002257	0.00301973430320717	-0.971111689699813	0.0810746087748952	-0.97098687004543	0.080928378309821	-0.00700390665562094	0.00665371456784919
6.2	0.0112266521113152	0.00014511357380366	-0.945929476899281	0.229421187827541	-0.945915675330934	0.229221617756699	-0.00853891169303299	0.00772515560029015
6.3	0.00952180023475764	-0.00187359642907275	-0.899508117865763	0.372076929426772	-0.899503098692222	0.37189454557221	-0.00857511688973451	0.00910536468497232
6.4	0.00795512514455235	-0.00288298545693865	-0.832393598900633	0.507072957399592	-0.832361551636791	0.506865495134461	-0.00791413821371382	0.0104321985542076
6.5	0.00731662834645412	-0.00450048255407204	-0.74214615177567	0.631410422186272	-0.742169537950805	0.63120930435746	-0.00612091315149174	0.010538048413446
6.6	0.0056361034695649	-0.00577821163108047	-0.635035105517156	0.735906262159729	-0.635106747262492	0.735658160800842	-0.0052523231051838	0.0104264031449874
6.7	0.00462351584541109	-0.00655214935418435	-0.515017653954796	0.824824933064805	-0.515117466449561	0.824606852658453	-0.00399564862502822	0.0102816568475357
6.8	0.00380398731907818	-0.00752062264566691	-0.381879623899347	0.895147912077776	-0.382017871130788	0.894978927069829	-0.00305829741804304	0.00984189244046579
6.9	0.00295408313350309	-0.00856629768852954	-0.238043983560478	0.943744547800395	-0.238266361796448	0.943634405903306	-0.00199722672903247	0.00949687157385253
7	0.00156551667165685	-0.0105257910281197	-0.0898522498284225	0.966326948738131	-0.0900575167744349	0.966237156130291	-0.00147418707809486	0.00799870730175967
7.1	-0.00132137868962401	-0.0106480328576535	0.0576869354668563	0.970285106720698	0.0574898787062306	0.970151792229299	-0.00194828761608328	0.00824314654984287
7.2	-0.00299221844702202	-0.0100732431935805	0.207228329706437	0.951173391197622	0.206950943879463	0.951135914497135	-0.00107945717991105	0.00870826578686533
7.3	-0.00459148882917883	-0.00947403693338882	0.352018419223788	0.908059950446945	0.351785505575121	0.908082803951981	-0.000100055556044562	0.00877954750093783
7.4	-0.00558864847760749	-0.00831221677909857	0.487289813064205	0.842393405386314	0.487078974250432	0.842440790427102	0.00102493864522378	0.00882882669764211
7.5	-0.00555766260024845	-0.00848272293575734	0.609867330776896	0.760252502578101	0.609698872257774	0.760318146400967	0.00285209615236555	0.00760941347454765
7.6	-0.00792208965134928	-0.00855718413088977	0.723232861965764	0.658524893514816	0.722976441138195	0.658601859872539	0.00264782501484632	0.0061969054281747
7.7	-0.00954589013070369	-0.00641270281442451	0.817297173414771	0.538363781075024	0.817109572867702	0.538575656064868	0.00292277563126477	0.00600622545979775
7.8	-0.00995775031255178	-0.00361290889235148	0.89109983336359	0.405842267386733	0.890993527924475	0.406063811965386	0.0035052252486382	0.00555442072209012
7.9	-0.00900859373740912	0.000448648421856468	0.944043913181489	0.264972531157947	0.943903133931988	0.26514806222005	0.004431889466609	0.00576333402420825
8	-0.00206780535143276	0.00195750265728852	0.978029240689847	0.115504161810078	0.978000836523476	0.115765762769449	0.00824020812165307	0.00384219726232475
8.1	-0.000989741766820301	-0.00230749651743206	0.983972936239495	-0.0399010619876191	0.983997068435707	-0.0396455678891217	0.00576311743446819	-0.00142866418339367
8.2	-0.00190458554633233	-0.00313098819995587	0.965993928608692	-0.191571462578804	0.966036077356235	-0.191254157796381	0.00216965618122138	-0.00207155781829609
8.3	-0.00283192718304642	-0.00312384595675215	0.926043447518428	-0.338855295766837	0.926088995633767	-0.338567331318092	-0.000721605038431867	-0.00152479158726893
8.4	-0.00419258723200914	-0.00129557904350887	0.864514859818307	-0.479865199495049	0.864608801344414	-0.47966083358583	-0.00354190822563303	0.000829851269231975
8.5	-0.00014992696944298	0.00244327026754877	0.777909323995561	-0.611186983224658	0.777958344564509	-0.611034967846975	-0.00126854948410077	0.00451724685655276
8.6	0.00280793402903829	-0.00169089279701012	0.673218929999953	-0.722450509872848	0.67338339372975	-0.722210070814611	-0.000723548398957189	0.00223088692978034
8.7	0.00183894058515479	-0.00348523488420412	0.554494243636685	-0.818784140411373	0.554750117875525	-0.818563166579097	-0.00214909779397902	0.0031162286817034
8.8	0.00106044071382182	-0.00410518315535428	0.42121881051877	-0.896559475614405	0.421402392546389	-0.896416288612263	-0.00233578472432738	0.00464125681940103
8.9	0.000150974678569878	-0.00350334129513551	0.275516436932612	-0.952445292795449	0.275693711186108	-0.952271244155323	-0.00148696339549976	0.00667816228876305
9	0.00222626597949502	-0.00225555738123734	0.12439505957075	-0.980926470461682	0.124703547582082	-0.980874464263503	0.00207565625749555	0.00821766902387731
9.1	0.00388798258057483	-0.00337112327513737	-0.0268703654797184	-0.990964763333865	-0.0265602128209599	-0.990917449318866	0.00503946914564277	0.00714321102439391
9.2	0.00596697981720106	-0.00416377393645995	-0.181676994998047	-0.976683813128958	-0.181326999973844	-0.976654793042129	0.00827645821841213	0.00564967579111337
9.3	0.00803853448172091	-0.005715063143394	-0.332368597276881	-0.936991332058713	-0.332013938840395	-0.936959332189185	0.0109273458742532	0.00288639665644279
9.4	0.0104885413658707	-0.00680444614514524	-0.473531368188606	-0.873357415393251	-0.473203869904164	-0.873443392299861	0.0130885314263303	0.000307116671416566
9.5	0.0143271313393804	-0.0134904594151326	-0.601856224897508	-0.79265844422418	-0.601615767122867	-0.792704324189019	0.0150255038368972	-0.00713202388758015
9.6	0.00862948617109508	-0.0182975921337492	-0.721856104843646	-0.690736492566813	-0.721537368854725	-0.690871374928586	0.0088057554354341	-0.0110160698016068
9.7	0.00510015730617542	-0.0177800142787197	-0.821802693397965	-0.56919477220467	-0.821506823913215	-0.569426443848087	0.00522018871439515	-0.0113148650406951
9.8	0.00263560646413902	-0.0166561034468817	-0.900772133729408	-0.434432868466885	-0.900512055716387	-0.434600384899085	0.00181683689989951	-0.0114299637953674
9.9	0.00132375817313142	-0.0128743189386086	-0.958420020493589	-0.290495532047925	-0.958159713145905	-0.290703669880754	-0.00105456321907817	-0.00948787447710905
10	0.00686080077289283	-0.012700898349049	-0.996771407509123	-0.136688341380393	-0.996608924242861	-0.137056498656244	0.000438316916969136	-0.0102979928375467
10.1	0.00418138489409108	-0.0172622624879211	-1.00493717546739	0.0236117662145364	-1.00486765299291	0.023171564809498	-0.00576709112258298	-0.0126703762339353
10.2	0.00095536170086285	-0.016681570723373	-0.988700163964893	0.180054307334383	-0.988571453672208	0.179615039601242	-0.0107540688838784	-0.00947900994730241
10.3	-0.00120163607815567	-0.014956647347153	-0.949361446580195	0.332393073399935	-0.949374417525167	0.331839233769159	-0.0138277030927948	-0.00562608705798467
10.4	-0.00242874716557816	-0.0121343940405245	-0.887265958621098	0.478330382508425	-0.887402545116695	0.477805431087431	-0.0155533066958462	-0.000989988566787651
10.5	0.000739828595902046	-0.00951953166421509	-0.798435297197639	0.614076085693343	-0.798612034728328	0.613633439867017	-0.0132042519649501	0.00274317793667652
10.6	0.00245602370271299	-0.0121259651535394	-0.691476473669849	0.728296918332712	-0.691754439128139	0.727959753189703	-0.0127416888503227	0.00292049834399968
10.7	0.00179935639788276	-0.0137347964833414	-0.570099414745989	0.827220356801832	-0.570406391951979	0.826904226346855	-0.0131566782888059	0.00493758513655241
10.8	0.000608404525021081	-0.0146675585522026	-0.433614782177325	0.906813028460756	-0.433973753238871	0.906508732731409	-0.0127112630989443	0.00787078410808667
10.9	-0.000138585999778686	-0.0147941601805266	-0.284524800363952	0.963429404151332	-0.284924017515332	0.963305701868321	-0.0106412988365542	0.0107179505935831
11	-0.000503364025297366	-0.016090807710911	-0.13085957954049	0.99170676534013	-0.131304545375418	0.991616781554929	-0.00776855904663208	0.0119487915406345
11.1	-0.00243207568745043	-0.0163587331636463	0.0230143271359175	1.00144198129975	0.0225164972851721	1.00145735412901	-0.00555920987684965	0.0135677660773463
11.2	-0.0035888201044517	-0.0162599308932935	0.179993163384296	0.986189987962092	0.179527533868382	0.986266881254642	-0.00190406684900615	0.0144677342226131
11.3	-0.00463700779464345	-0.0155816883814348	0.332350739126106	0.945025882184971	0.331884082703883	0.945168403976961	0.00207182935418313	0.0146234371085973
11.4	-0.00451679024839754	-0.014058815627832	0.474512205019986	0.879613453260167	0.474102690134376	0.879731746368101	0.00677085218873001	0.0143074174726702
11.5	-0.00233601247475781	-0.0169521406483409	0.603394762355948	0.79766549727113	0.603072266775955	0.797974630335904	0.0118492394245442	0.00913099759424169
11.6	-0.00732238085084884	-0.0190793185988888	0.723568905880975	0.693754344141216	0.723352142891557	0.694090270958534	0.0105891019836647	0.00567171905334416
11.7	-0.0105609802964588	-0.0169012921849067	0.822774671843251	0.570532665621062	0.822571054541893	0.570846965939316	0.0112814820306759	0.00431850470114465
11.8	-0.0129188962979347	-0.0141197425306101	0.900486140647276	0.434461119365479	0.900306526333949	0.434921609088632	0.0117668532834422	0.00235919335132753
11.9	-0.01252612269565	-0.00836106208767288	0.956652558935524	0.290090375086372	0.956549919685971	0.290548957078925	0.0130897474006907	0.00159573424088202
12	-0.00663619290148931	-0.00734929654667751	0.993523365714821	0.136172137497231	0.993499000304034	0.136544239638307	0.0168843383613275	-0.00330594013601072
12.1	-0.00826487250682418	-0.0110730260560479	0.999738205706752	-0.0234660584882074	0.999672816388584	-0.0230735243583562	0.0121563766333427	-0.0101860079660377
12.2	-0.0107023943240179	-0.0108325728587233	0.981807442690465	-0.178602481710696	0.98183065676416	-0.178300256019869	0.00719413705288605	-0.0120675073305196
12.3	-0.0128546324366621	-0.00953610529928159	0.941103623958935	-0.328917988010464	0.941230621978236	-0.32860916541812	0.00262735302622995	-0.0126572551139209
12.4	-0.015228021096822	-0.00633827956715635	0.878617661602644	-0.47262968327593	0.878689286725256	-0.472255762157362	-0.00181808955231293	-0.011028565728708
12.5	-0.0121762843869927	-0.00210433832133778	0.789259939944156	-0.605561486304712	0.789614486558037	-0.605174925326927	-0.00201316167296772	-0.00867168465992347
12.6	-0.0110860277388738	-0.00389882084270222	0.683413923867705	-0.71654950670358	0.683673277756134	-0.716311122707098	-0.00454190448390612	-0.00998857940954433
