# GHZ S RI R 50
0.2	-5.82601189223028E-06	-0.000699274982908789	0.951187147443362	-0.30746880726612	0.950964446905543	-0.307443572865816	-1.20294101014133E-05	-0.000589726805576486
0.3	-0.000471230469282033	-0.000734651992758714	0.891793171094073	-0.451417987970569	0.891636485479413	-0.451322608653403	-0.000549452637328904	-0.00079959265590283
0.4	-0.000864473592488428	-0.000512225372944724	0.81095847024692	-0.584365014452014	0.810970335709002	-0.584390187153034	-0.00106764009174175	-0.000607301130920784
0.5	-0.000801798323447338	0.000405038707794234	0.710179672026654	-0.704094230893832	0.710023993501726	-0.70399253707273	-0.000968481422555154	0.000312545814224056
0.6	-0.000157775396379962	5.30922171287448E-06	0.591572862008736	-0.805472333347951	0.591453091012865	-0.805310182855396	-0.00041775558063825	-0.000163574693045238
0.7	-0.000451099568008541	-9.43258124677899E-05	0.459391526242686	-0.887409697845522	0.459372588698727	-0.887296814028898	-0.000735582878698828	-0.000437597688709085
0.8	-0.000547435688136983	-0.000166915756977252	0.315890529669977	-0.948253066367743	0.315858898790761	-0.948062583597744	-0.00108078692494517	-0.000427262781306597
0.9	-0.00120624588394673	-0.000164699590345354	0.164260352933257	-0.98595876548916	0.164195011151664	-0.985866456421473	-0.00192354269231052	-0.000500597074105554
1	-0.00173154243189628	0.00169248754039876	0.00862575364521046	-0.998549661342703	0.0085739221432095	-0.998518056821389	-0.00259923358965063	0.0014274465696884
1.1	0.000700596453228439	0.00161883329734467	-0.145789863993479	-0.987995390090356	-0.145805715448188	-0.987864434636202	-0.000544408887165051	0.00146337297017258
1.2	0.00138719357868991	-0.000382586782629526	-0.297991638335659	-0.953570042397583	-0.297914917479161	-0.953543832752979	6.7962197408266E-05	0.000688620419620487
1.3	0.00190929519755358	-0.00300569902409332	-0.442880075381042	-0.895426024424995	-0.442856931093657	-0.895419392513006	0.00158683799048114	0.000226137994651867
1.4	0.00175441901771181	-0.00585680288324622	-0.576372857557884	-0.815182549417499	-0.57634855556384	-0.815160845956072	0.00318963037060047	-0.000981504532719003
1.5	0.00242408213340622	-0.00781779848799458	-0.69532030842372	-0.716093138895985	-0.695218100095178	-0.716007843858925	0.00566744233446716	-0.00292741845102448
1.6	-0.00044127602379793	-0.00996363164300047	-0.799137875251826	-0.599696600367956	-0.799063361507928	-0.599636295623853	0.00329941958719738	-0.00572026653091316
1.7	-0.00263374330845805	-0.00834587796500657	-0.882501242008798	-0.468036916246983	-0.882665594027633	-0.467517648831879	0.00143533108761191	-0.00509254567306495
1.8	-0.00385705136622944	-0.00673209331003296	-0.944466880497257	-0.324391646037302	-0.944355026149691	-0.324390512734035	0.000181885077303057	-0.00455282015989931
1.9	-0.00464093110300635	-0.00428054507572648	-0.982984904714878	-0.174309870241768	-0.983077261650722	-0.173819563666509	-0.000840603442643314	-0.00304944269981836
2	-0.00201828155678429	-0.00260199116986866	-0.99909806655827	-0.0189056045430532	-0.999109970675124	-0.0188594273968331	0.00151236780486189	-0.00218860833336439
2.1	-0.00267881540476408	-0.00495044630596519	-0.989364633180198	0.138103542468775	-0.989402823273943	0.138141026665334	0.00043048531833542	-0.00502065427622167
2.2	-0.00479456643834129	-0.00430510072404002	-0.955154413755964	0.290104210777001	-0.955078611934932	0.290167020926546	-0.00150942547764386	-0.00467977850851384
2.3	-0.00615555307993118	-0.00294960046666464	-0.898402810413651	0.434292104849857	-0.898016064240779	0.434806299949521	-0.00274248900935022	-0.0040935737817941
2.4	-0.00758694374280432	-0.000785206046033577	-0.819300146730898	0.569963904643465	-0.819571370155846	0.569376026434795	-0.0041761531317453	-0.00283186554339657
2.5	-0.00579531817451353	0.00291849856489064	-0.719836446056004	0.691491031332928	-0.720055003188321	0.690979703420821	-0.00255458495853432	-0.00062291076686561
2.6	-0.00356456524169704	0.00178693009302803	-0.602727626388099	0.793198319446127	-0.602622453571239	0.793014046526748	-0.00089950425019196	-0.0028125635379683
2.7	-0.00347718600800496	0.00120102983204757	-0.471737624092825	0.876854226895965	-0.472191400270105	0.876449112262334	-0.00165452193608428	-0.00417638969761964
2.8	-0.00346310518715015	0.00103989487058182	-0.330799122744834	0.938899798261838	-0.330127760819159	0.939053962371491	-0.00284038863605412	-0.00469828047663388
2.9	-0.00283116016246912	0.00132887429297925	-0.179452134410218	0.978739069892748	-0.179484263149923	0.978651687904394	-0.00333036029276359	-0.00399476511464976
3	-0.00165984124974055	0.000692606797329706	-0.0238446053562411	0.992618407352977	-0.0245480710867679	0.992466411987566	-0.00302091624886579	-0.00379240776343019
3.1	-0.00179386358485943	0.000484921590681244	0.127645679006253	0.984064673726096	0.128236731692789	0.984041911878566	-0.00360814231222035	-0.00319704680191128
3.2	-0.00113670225160024	0.000746732989004783	0.279697088181717	0.95216907850253	0.279641704024823	0.952109181759883	-0.0033104082809608	-0.00198312374342202
3.3	-9.16712331078485E-05	0.000618950837082907	0.424506349860036	0.89636075534018	0.424368975684273	0.896347828055201	-0.00244270621524809	-0.00119949712553556
3.4	0.00104519446650798	0.000467810333971016	0.557957059075935	0.818298325833128	0.557796097154668	0.818417740102624	-0.00100718580655326	-0.000726717779561583
3.5	0.00334235928657226	-0.00154604152927818	0.676221532924909	0.722346819045623	0.676142388354408	0.722386158253912	0.00132811253864905	-0.0021380185422408
3.6	0.00172129632633074	-0.00411442329650774	0.780727980754123	0.609639114997607	0.78096503460718	0.609188627011213	0.000131733487989685	-0.00403041132271621
3.7	0.000540687344754647	-0.00453140867942689	0.865980757301139	0.479521174878735	0.865863919995532	0.479665225980341	-0.000491001368521776	-0.00387372287603731
3.8	-0.000582351094068124	-0.00472973209185308	0.928805296248781	0.339503194683673	0.92885842840696	0.339124227473544	-0.000848199665470365	-0.00384644319463355
3.9	-0.00137553934810635	-0.0039829004627136	0.969531577176863	0.190744690267026	0.969299511486306	0.191412415103464	-0.00150643064064342	-0.00337799190717832
4	0.000451555283853428	-0.00365373495897853	0.988751755206362	0.0391674766789137	0.988713699228072	0.039270539872334	0.000686309424155865	-0.00330472907715151
4.1	-0.000534961523877624	-0.00680685824240272	0.981987753964014	-0.116479037962014	0.981804899839441	-0.116350270141635	-6.83352301669108E-05	-0.0065107789201468
4.2	-0.00316990055835891	-0.00746775365048963	0.950412433315277	-0.267690948776659	0.950453940077208	-0.267039678125971	-0.00196921034254184	-0.00741211389939597
4.3	-0.00566439383194614	-0.00762607185326544	0.897271907124683	-0.41067165948957	0.897137644583361	-0.41055966568452	-0.00384658256609929	-0.00816458998203204
4.4	-0.00899038878380784	-0.0063476917038381	0.822982870973009	-0.544818671244275	0.82281952102418	-0.544684284955809	-0.00654514942425589	-0.00790097840526009
4.5	-0.00962865388042029	-0.0028739127813142	0.726991222953942	-0.667274647667062	0.726805093749787	-0.667100034983799	-0.00699754985096736	-0.00581573072162812
4.6	-0.00963630877989821	-0.00283480223943019	0.612657168435767	-0.770066759607582	0.613004359700198	-0.76937712253419	-0.00725027140502298	-0.00723179844304348
4.7	-0.0110867370728738	-0.00201961364234554	0.486685868410248	-0.8544030475411	0.486705640718435	-0.854049933118221	-0.00933960288101879	-0.00777603404222213
4.8	-0.0123246442347632	-0.000440792169254952	0.348198920144736	-0.918978835495462	0.348421719942028	-0.918666803938147	-0.0113274020640846	-0.00768867868753638
4.9	-0.0129341952584562	0.0015648137937611	0.201263331805496	-0.96097420487416	0.201044989609486	-0.960979820796733	-0.0130473636656677	-0.00683459616175679
5	-0.0122068803654732	0.00327633958686219	0.0494778742106217	-0.977647992316278	0.04965549183463	-0.977406962048324	-0.0134962533289103	-0.00574195314849383
5.1	-0.0125421069689404	0.00460068209451754	-0.0999079270205281	-0.973530187443857	-0.0995784169617807	-0.973309567467803	-0.0151148292490157	-0.00464112612129514
5.2	-0.011939959357573	0.00748834379666541	-0.249450169139756	-0.946716665071745	-0.248963291638965	-0.946693097928357	-0.0159035751201823	-0.00198478246155579
5.3	-0.0100373512359825	0.0103594709703663	-0.39293299777035	-0.896242364021051	-0.39259729377893	-0.89645817392741	-0.0154645081562381	0.000867001107296934
5.4	-0.00628746239098022	0.0135406368681533	-0.52612129445526	-0.823611257101238	-0.525912175913588	-0.823810647525399	-0.0135843978149465	0.0039163995934324
5.5	0.000246250275723709	0.0120305374629679	-0.644897517774908	-0.733556822985568	-0.644662000360582	-0.733749529600832	-0.0094606386010829	0.00284688741958666
5.6	-0.000240633359090046	0.00942234804701873	-0.752099232813543	-0.626062942333147	-0.751911825276078	-0.626233241959088	-0.0121289552988628	0.00134168563435921
5.7	0.000231467187879478	0.0102521252385076	-0.8400918445868	-0.501484358143937	-0.839964285640236	-0.501701980244428	-0.013400174790291	0.00380199655680178
5.8	0.00160660404607878	0.0113229953162109	-0.906873178606861	-0.365278032173733	-0.906806359950632	-0.365559773843916	-0.0135114185349893	0.00659833469942154
5.9	0.00378690026076996	0.0134196044257498	-0.951916030916394	-0.221760477121639	-0.951930260032487	-0.221843131658809	-0.0127117031223563	0.010660828250357
6	0.0115501543561806	0.0136750931857369	-0.977222128210932	-0.0725332469000903	-0.977103879607701	-0.0725905188014018	-0.00662956078553814	0.013235045864208
6.1	0.0142989072442329	0.00688342937875081	-0.975997863156941	0.0817292177959078	-0.97587244949793	0.0815822169208668	-0.00473080339494261	0.00984034502983228
6.2	0.0139136672323724	0.00265977186009256	-0.950533139573629	0.231381943109235	-0.950519436130926	0.231181349170945	-0.00477627809074508	0.00882228986592096
6.3	0.0122455568006753	-0.00103157803594972	-0.903404491423783	0.375001776554534	-0.903399675294134	0.374818502266632	-0.00509020422407205	0.00801394485486942
6.4	0.00974490658961515	-0.00307651791429645	-0.835544599127381	0.510452564492131	-0.835512671003858	0.510244114206067	-0.00585417030970771	0.00814761307319208
6.5	0.00806479953026367	-0.00461465301300035	-0.745126250826283	0.635529741335245	-0.745150004527326	0.635327633019694	-0.00546680095130433	0.00843710738690208
6.6	0.00589113411765527	-0.00556785536946855	-0.636735026199965	0.740947505956575	-0.636807543237104	0.74069829482213	-0.00542617201796704	0.00884869343973601
6.7	0.00466707494849968	-0.00596750024015679	-0.515542158352699	0.829971458928006	-0.515642958976716	0.829752571283318	-0.00448492546148948	0.00947729344737776
6.8	0.003827946762544	-0.00676308129539953	-0.381471464034848	0.900281607197741	-0.381610774272316	0.900112169559045	-0.00337893029834138	0.00952265879453177
6.9	0.00283427695289706	-0.00773138459804055	-0.23679003551814	0.949039623234476	-0.237013800898859	0.948929508710759	-0.00212828968014941	0.00936418537824836
7	0.00145603691460047	-0.00945220377365949	-0.0867977202191625	0.971697051452646	-0.0870043856954462	0.971607538703326	-0.00124475434232462	0.00790325089082818
7.1	-0.00148502751185039	-0.00963046170298274	0.0618977221169229	0.974357486484181	0.0616992471574895	0.974224383349959	-0.00175957090878548	0.00778607637668508
7.2	-0.00328441323996282	-0.00892971452810654	0.212121774384586	0.95432830028773	0.211843055202626	0.954291835834558	-0.00106235701935916	0.00821151778641045
7.3	-0.00487985839344573	-0.00818500547786923	0.357622498158288	0.910221404170889	0.357388722385922	0.910245415248678	-0.000127088370352233	0.00827510190142361
7.4	-0.00588735789897077	-0.00701996618199826	0.493671581163901	0.843195556689286	0.493460149014564	0.843244240966718	0.000957252394262536	0.00819208067828942
7.5	-0.00577120691402715	-0.00703128243968313	0.615924182345798	0.758946335984163	0.615755618025089	0.759013124343092	0.00288679167603431	0.00690656822861897
7.6	-0.00797654234496257	-0.00757134557988508	0.728550937264654	0.656436258131972	0.728294257489229	0.656514766737392	0.00243644209978957	0.00471298307168302
7.7	-0.0101413004065227	-0.00556944764134626	0.822305270115829	0.535320910411798	0.822118335280751	0.535534343626119	0.00161208675749503	0.00430726435683837
7.8	-0.0110903422086142	-0.00266159406999443	0.895554478355964	0.40159516861271	0.895449216158786	0.401817852224352	0.00115514667019418	0.0043786895542018
7.9	-0.0107261455943617	0.00170447746891165	0.94722893234357	0.259499668410636	0.947089022521255	0.259676363782424	0.00143558287135112	0.00592794681743477
8	-0.00460586173056458	0.00504590800806623	0.979660066533861	0.11002774507712	0.979633129655285	0.110289768012231	0.00516365016978302	0.00653548532669215
8.1	-0.00190767050719565	0.00176093619529099	0.984971856209882	-0.0458236648588904	0.984997543557326	-0.0455679935759294	0.00561254665845548	0.00186427049389772
8.2	-0.00155386469467868	0.000872791022544543	0.965463240327918	-0.19788988572212	0.96550744956982	-0.197572622318518	0.0035642874011186	0.000439244718143064
8.3	-0.00139867523128565	0.000271886636532788	0.923818371102905	-0.34482048999387	0.923865776578208	-0.344532831221288	0.00167271736043295	-0.000213824489421929
8.4	-0.00227616122473591	0.000695769149308477	0.861033765092325	-0.484674321845667	0.861128857446986	-0.4844706626206	-0.00108257696591542	0.000450464095661208
8.5	0.000631613837802407	0.00375609175713904	0.774282332133275	-0.615345974383518	0.774332185805262	-0.615194275535523	3.23561108362181E-05	0.00381355453652654
8.6	0.00360053557959236	-0.000132040962723944	0.668303843364112	-0.726081079318386	0.668469669495122	-0.725841820540373	0.00112914750234441	0.00127848846389351
8.7	0.0026446250124925	-0.00216178719050649	0.548878981206792	-0.821022742469169	0.549135839777655	-0.820803585905195	-0.000580575658072106	0.00106167041476292
8.8	0.0018920959818148	-0.00306126496150592	0.415504027085116	-0.897461237591826	0.415688113092914	-0.897319313525971	-0.00159546797873128	0.00175894399705875
8.9	0.00071601573206257	-0.00312639870377143	0.270109330371295	-0.952525140522318	0.270287265371818	-0.952352274847988	-0.0021825415652109	0.003183045779587
9	0.00155948793176852	-0.00196639123776062	0.118240514446953	-0.980295190632044	0.118548882455619	-0.980245138372013	-0.000604654738141764	0.00545368083284653
9.1	0.00246575471197064	-0.00214637108592197	-0.0325753230365759	-0.988493928457571	-0.0322656192566239	-0.988448530016593	0.0013565639746964	0.00608329286867305
9.2	0.00460647327563734	-0.00157388564535085	-0.186656891549751	-0.973317204060973	-0.186307580584224	-0.973290195932261	0.00473246486989687	0.00685795711077756
9.3	0.00773468485267601	-0.00245261369617348	-0.33684386081784	-0.932846297426378	-0.336489881936623	-0.932816374436364	0.00904246850757891	0.00550332448566273
9.4	0.0106886641863143	-0.00404514986269173	-0.477723192671204	-0.868092293777205	-0.477397098048933	-0.868180085374586	0.0126086160221839	0.00287698985036853
9.5	0.0148109912300848	-0.0100659249402254	-0.604413314352196	-0.785532446847545	-0.604174147936273	-0.785579669199197	0.016372722881298	-0.00436736448648275
9.6	0.00972165040042972	-0.0156885770459594	-0.722417847373341	-0.683691527593637	-0.722101274935	-0.683827553865917	0.0108963364317027	-0.0105113253283369
9.7	0.00605599805252519	-0.0155480325026151	-0.821014215004059	-0.562127534149136	-0.820720970049416	-0.562359709444857	0.00652104368065948	-0.0117820197750653
9.8	0.00356999177209994	-0.0148326069914325	-0.898431584318187	-0.427362873113907	-0.898173749315054	-0.427530913839105	0.00243627297824114	-0.0123021883819242
9.9	0.00159127445020343	-0.0116936901119662	-0.953967630186925	-0.283761792980837	-0.953710008965946	-0.283969978685633	-0.00161523343022634	-0.0103653402667785
10	0.00634046746612501	-0.0103529735171485	-0.990548696140973	-0.132111010619761	-0.990388659015674	-0.132477280171599	-0.000132339298256614	-0.00926630656662439
10.1	0.00459863131971777	-0.0149151506542634	-0.998365374558261	0.0268746522353666	-0.998297797075749	0.0264370580930588	-0.0048337206129339	-0.0123438579502756
10.2	0.00141347556501747	-0.0148793103915902	-0.98131181254608	0.181769769470136	-0.981185310085762	0.18133315875557	-0.0101623459273412	-0.010152359615163
10.3	-0.00116502100001306	-0.0136366545813773	-0.941683884000597	0.332036184470587	-0.94169797153287	0.331486427905811	-0.0142232470380898	-0.00669665773346542
10.4	-0.0034614995764858	-0.0109451449292195	-0.880325656909261	0.475644548694799	-0.880461726899768	0.475123568631557	-0.0174620139670171	-0.0015344480912303
10.5	-0.00153310984372203	-0.00664330102120246	-0.793462677292019	0.610687681523385	-0.793638512681715	0.610247736296381	-0.0158998002974125	0.00497065882895431
10.6	0.00141283686584706	-0.00730655876901643	-0.686650939569166	0.724542288146838	-0.686927538696107	0.724207405711739	-0.0129919124993985	0.00724655300505831
10.7	0.00298249032064754	-0.00882445367629419	-0.565973361624748	0.822309198720014	-0.566278579872358	0.821995264022128	-0.010530402388426	0.00875240271157893
10.8	0.00299033683576635	-0.0110605964172676	-0.430828761824011	0.901001746832619	-0.431185433307404	0.900699404427052	-0.00861358555305238	0.00967511183545772
10.9	0.00219465544393578	-0.0123248883415367	-0.283363249727002	0.957663890885143	-0.283760074817243	0.95754070376678	-0.00654676550807375	0.0108470538484914
11	0.00164265530631875	-0.0141859275430643	-0.12978574996677	0.986066392038905	-0.130228194800527	0.985977069312868	-0.00386077191830863	0.0108987518643638
11.1	-0.000605036479286716	-0.0150841860684371	0.0224734738341586	0.994882143966092	0.0219789031714743	0.994897221795036	-0.00237418215735793	0.0111916683171709
11.2	-0.00215874170881164	-0.0153388078731406	0.177791577556198	0.980116942516729	0.177328823940504	0.980192847764276	0.00028981965337163	0.0113874376699478
11.3	-0.00369093319322572	-0.0151088455596999	0.329058254250185	0.939814069918003	0.328594201138377	0.939955095454063	0.00314928138275797	0.0110679335170344
11.4	-0.0046219070843183	-0.0137996475444973	0.470818658701715	0.875014188819976	0.470411394590314	0.875131358043061	0.00639803874288307	0.010900167394045
11.5	-0.00279535826433613	-0.0156549364037213	0.597980415838439	0.79294488227685	0.59765973298076	0.793251368110849	0.0115154927665157	0.00675853392079888
11.6	-0.00779538877631712	-0.0181307613923589	0.716998945663393	0.69119141462732	0.71678268791973	0.691524574610984	0.00973598440224044	0.00221983862133143
11.7	-0.0118023765348149	-0.0159574107462918	0.816135052079669	0.569436722340144	0.815931766406692	0.569748527573443	0.0086784154029801	0.000972647814624972
11.8	-0.0150232900666794	-0.0128296299490387	0.893786087137119	0.434475587806758	0.893606208797088	0.43493277580349	0.00747917635269809	5.34122795272502E-05
11.9	-0.017021993992594	-0.00641198372316679	0.949257608034942	0.291311697301649	0.949154138494882	0.291766855248406	0.00600198982213354	0.00167659599227824
12	-0.0106092971113237	-0.00150189261344182	0.986370153528193	0.140144265817868	0.986344126547266	0.140513819201952	0.0118171907103466	0.0020448213335349
12.1	-0.00994687922362078	-0.00357953725562488	0.994238350157175	-0.018153845572836	0.994171294551913	-0.0177638574522066	0.0106409676802199	-0.00354927459028422
12.2	-0.00973378033350869	-0.0030454187292471	0.977470498586864	-0.172123535423951	0.977491890997254	-0.171822822944413	0.00899296539347018	-0.00566264493564885
12.3	-0.00939101674771935	-0.00291753273419079	0.938374220959233	-0.321285651064709	0.938498617002607	-0.32097760356702	0.00724148284084748	-0.00799731166027407
12.4	-0.0105570900510979	-0.00229174584186456	0.87822357939907	-0.464053919466354	0.878292127350845	-0.463681122243364	0.00396784172426992	-0.00929618110145528
12.5	-0.00863406029720238	0.000196676002638281	0.791872228124484	-0.598208143584829	0.792223033251579	-0.597819870625776	0.00300449434623857	-0.00872722927899559
12.6	-0.00777975926075173	-0.00267780195590732	0.686675062396171	-0.710385370774033	0.686932245151002	-0.710145786386704	0.000651645940477135	-0.0120273867129943
