# GHZ S RI R 50
0.2	-0.000463020380099318	-2.51593996615876E-05	0.948546365854531	-0.308087859229539	0.948324218064668	-0.308062371275341	-0.000409053928955799	1.65112036405856E-05
0.3	-0.00049041287625235	0.000128911034802871	0.888439976289676	-0.451674949383322	0.888283907854129	-0.451579571142399	-0.000492648608744127	-8.24603789829851E-05
0.4	-0.000208600137974932	0.000214401432516405	0.806818501302851	-0.583785588528335	0.806830273767965	-0.583810691264398	-0.000358962784699823	-0.000103385183982814
0.5	-0.000215670833597192	-1.20185925551608E-05	0.706083886315933	-0.70173681905872	0.705929041954214	-0.701635401499136	-0.000345662834786168	-0.000339624160043979
0.6	-0.000449032154266109	0.000211785420566211	0.588320756954518	-0.802670150420345	0.588201643499151	-0.802508563386428	-0.000603846387790256	-0.000265507756767262
0.7	-0.000295925591625958	0.000607275524963176	0.456250891787565	-0.883883775874796	0.456232172911491	-0.883771386753354	-0.000484805299227335	-0.000195895381027666
0.8	9.25171189328651E-05	0.000724078153137178	0.313333592517506	-0.943647838510447	0.31330231042719	-0.943458311726728	-0.000445729443448909	-0.000148524955753914
0.9	0.000574979465445685	0.00088131816561421	0.163067626982029	-0.980404436952808	0.163002680537988	-0.980312634721457	-0.000391731452637575	-0.000169774837163657
1	0.00120853173196243	6.29052844828765E-05	0.00900127700023357	-0.993657824795749	0.00894968600926413	-0.993626396704224	-0.000260785830135076	-0.000681209511591544
1.1	0.00056641318010278	-0.000447412426684138	-0.145488323769598	-0.982847578032222	-0.145504034310532	-0.982717288925006	-0.00118003353514343	-0.000626453582488869
1.2	0.00054825733378445	-0.00106506820557821	-0.296318457869566	-0.947907458704298	-0.296242187983743	-0.947881410979463	-0.000992794801004432	0.000239768695271767
1.3	0.000340131553316931	-0.00239522901806078	-0.439650679789744	-0.890160321685981	-0.439627681715563	-0.890153717619185	0.000252906275336021	0.00109709903165626
1.4	-5.67608761918912E-05	-0.00391358949269788	-0.572129326302518	-0.811104144668968	-0.572105189107688	-0.81108253985667	0.00201130094253809	0.000901461301561192
1.5	-0.00099610376853009	-0.00438045583459445	-0.691346564112527	-0.712175687689074	-0.691244937427171	-0.7120908569426	0.00319011897816455	-4.53367233631889E-05
1.6	-0.000737764761909294	-0.00369467575735298	-0.792979013080712	-0.595791017602889	-0.792905076109437	-0.595731109018579	0.00378557546898803	-0.000905128101985368
1.7	-0.000387794286940549	-0.00383325195529861	-0.875101776378457	-0.466085561101886	-0.875265808501508	-0.465570453852639	0.00381756088559904	-0.00232640075905427
1.8	-0.000576157831775133	-0.0041098956279839	-0.936869856308274	-0.324290976684834	-0.936758813091291	-0.324289585848322	0.00305120566633117	-0.00357348474065519
1.9	-0.000944402219417314	-0.00452274141560738	-0.975641374796898	-0.175332465821263	-0.975734203533723	-0.174845834567458	0.00208028300530203	-0.00452408324106319
2	-0.0027070854693224	-0.0048439292000102	-0.990345712384868	-0.0211701144690746	-0.990357624988135	-0.021124368693465	0.000318537222121313	-0.00514890534760478
2.1	-0.0035112073455822	-0.00319584181275485	-0.981510189683398	0.132185152342393	-0.981548230285074	0.132222131309348	-0.000592649805889946	-0.00427059684724329
2.2	-0.00365787249597369	-0.00258076764893286	-0.949314611982004	0.282703762055418	-0.949239736550697	0.282766494095853	-0.000833186032594745	-0.00416272473380486
2.3	-0.0039615739900338	-0.00207545003944891	-0.894092728433404	0.425949166039485	-0.893711797468792	0.426461674678547	-0.00139159676683546	-0.00428943939686542
2.4	-0.00429454766291896	-0.00184002787742181	-0.816166361360045	0.560399917777632	-0.816431831102763	0.559815124773358	-0.00204662609041186	-0.00441825860647737
2.5	-0.00553314336797868	-0.00193276484169729	-0.719853625706695	0.679590865946916	-0.72006597800761	0.67908187313766	-0.00309692241140622	-0.00502398965299719
2.6	-0.00693831488520689	-3.57690245952361E-06	-0.606473010481461	0.783017299310554	-0.606366763201777	0.782835071738605	-0.0040458804738465	-0.00405932022474878
2.7	-0.00669535354414513	0.00197514511194	-0.476999640883549	0.867915150534954	-0.477447357041256	0.867508182435773	-0.00406863121086491	-0.00334072541736583
2.8	-0.0055648669485417	0.00340675212696555	-0.337839250760089	0.930816279331253	-0.337172897231651	0.93097591474076	-0.00396504896632506	-0.00282690379829648
2.9	-0.00379782202371052	0.00407647530526063	-0.189034170753597	0.971931201400143	-0.189065203605294	0.971843911706645	-0.00334437025299724	-0.00219774050328371
3	-0.00218857987139105	0.00431560387560456	-0.0354015084033426	0.990140191554502	-0.0361016377223638	0.989980305155707	-0.00264479276143173	-0.00156763788378691
3.1	2.04748886724509E-05	0.00407210606495877	0.117747964191455	0.983636534867026	0.118338229514132	0.983619625583993	-0.00126638794999225	-0.00134207993348305
3.2	0.00147773900339401	0.00288755732705925	0.269429080713042	0.953149971835081	0.269374416833244	0.953089627712371	-0.000615000192487477	-0.00169381542853769
3.3	0.00264483210476964	0.00151603104080552	0.414122050895655	0.899830814608375	0.413984999646119	0.899816398738069	0.000101686050927699	-0.0020183309426986
3.4	0.00307694794026625	-0.000237694457923641	0.548827111660732	0.824993327139801	0.54866472242462	0.825110949305652	0.000783624731725189	-0.00287584275580624
3.5	0.00265232172811126	-0.00135962240658243	0.670758759648842	0.729720965427433	0.670679124170719	0.729759648164674	0.000774461684127688	-0.00337819120410147
3.6	0.00295848939026612	-0.00200165314879206	0.775008810895571	0.61689846565057	0.775250058106906	0.616450207431234	0.00143767031660041	-0.0038171539905743
3.7	0.00301959374705713	-0.00348793936867465	0.86158767688789	0.48880568092765	0.86146927064674	0.488948617371799	0.00164173776996911	-0.00482147506317316
3.8	0.0023820705976696	-0.00494784637530756	0.926975555963339	0.349790296377346	0.927032728858849	0.349411187204053	0.00141616941273329	-0.00583261489003494
3.9	0.00154803863823419	-0.00656932424290896	0.970392734165763	0.20028324031188	0.970153825437416	0.200950621393559	0.000558361298266272	-0.00717901064633705
4	-0.00109654910197769	-0.00781541731631854	0.989099061960793	0.0478311877581077	0.989060079223411	0.0479339904093144	-0.00108039308454471	-0.00805818921994053
4.1	-0.00298702710824601	-0.00715649311495143	0.984789489315187	-0.105537299228343	0.984604901187983	-0.105410407134957	-0.00203811025905926	-0.00786770046491979
4.2	-0.00458228195945897	-0.00689059325822375	0.956508143744179	-0.257823931032944	0.956542430252976	-0.257170086017488	-0.00285592626053715	-0.00828846722876405
4.3	-0.00618574789209916	-0.00657428119764834	0.905261000964278	-0.402697730874261	0.905125001308448	-0.402586728136619	-0.00400286226594686	-0.00880375205675433
4.4	-0.00776661595472506	-0.0060862101124759	0.831590335707193	-0.538231969751855	0.831425004882994	-0.538098796653418	-0.00526293718054303	-0.00922317975571434
4.5	-0.0101258367624431	-0.00603110217577983	0.738483415780285	-0.660215085985497	0.738294294678015	-0.660042266634689	-0.00720518199385741	-0.00990208567687701
4.6	-0.0129210782796505	-0.00375174031414431	0.627124862812516	-0.767970027129498	0.627465803880118	-0.767270772355248	-0.00936730093631436	-0.0092493389294552
4.7	-0.0143500765643689	-0.00125663313936207	0.500523315934117	-0.856088163802035	0.500539237059486	-0.855731839024009	-0.0110241557473229	-0.00874383104887236
4.8	-0.0152358539447729	0.0016615155049068	0.361218293632813	-0.923310584925026	0.361439679281474	-0.922993390284745	-0.0125845386917912	-0.00798772600132624
4.9	-0.0150278434033065	0.00443708624506068	0.214192571443839	-0.967663913107878	0.213972248303278	-0.967672090877789	-0.0137095324141461	-0.00694602438613601
5	-0.0143128656378746	0.00723996134506147	0.06136272590697	-0.990048110067452	0.0615399313271528	-0.989801842585112	-0.0144032870730699	-0.00532611048365487
5.1	-0.0118958801970193	0.00976187373577911	-0.0937782072736929	-0.987703310660333	-0.0934458615527166	-0.987477113067904	-0.0140858657539927	-0.00368258848037828
5.2	-0.00908716498493114	0.011151627500992	-0.246178274477145	-0.960959971302288	-0.245685125570719	-0.960932714474085	-0.0138161928228618	-0.00242246871851473
5.3	-0.00638590227025511	0.011473020284679	-0.392352908287804	-0.911215096946155	-0.392011137094131	-0.91143163492469	-0.0133670710779025	-0.00132054706382367
5.4	-0.00441441763888034	0.011272553656002	-0.529428872817165	-0.839650757322774	-0.529215288046035	-0.83985201760682	-0.013211031030354	-0.000484927104691147
5.5	-0.00380887652767359	0.0122264890479628	-0.654352291083003	-0.746733834749859	-0.654112566473578	-0.746929339925238	-0.0137702821448974	0.00125199169076181
5.6	-0.000309089143114852	0.0139785037719348	-0.761686613702047	-0.635391648186059	-0.761496471689283	-0.635564070460089	-0.0123024547340101	0.00308763681726352
5.7	0.00307260115279704	0.0133172475440697	-0.85102853651765	-0.509545252690964	-0.850898921869051	-0.509765711148941	-0.0113850333571223	0.00388302029652224
5.8	0.00586892060967842	0.0119971573955287	-0.919883800045529	-0.371065584618867	-0.91981586255523	-0.371351392639485	-0.0106864956567356	0.00479865832068816
5.9	0.00800029699305964	0.00935130922243683	-0.966501317570635	-0.223385270640077	-0.966515904785364	-0.223469132503973	-0.010036778433544	0.00537137303683453
6	0.00723509780840232	0.00686831494413556	-0.988601199230433	-0.0702809328848336	-0.988481781713486	-0.07033923113259	-0.0107600388366016	0.00636653734044579
6.1	0.00764878407856133	0.00710886506087866	-0.987489531162125	0.0832932709323895	-0.987362724353616	0.0831444546937931	-0.00956887516784186	0.00881122700002373
6.2	0.00886267186042178	0.00604671791325229	-0.962758914709165	0.235817261327243	-0.962745320889627	0.235613996533268	-0.00784341525760909	0.0095896684133919
6.3	0.00968157254654317	0.0042328530659761	-0.914345143453332	0.382672559181156	-0.914340804665567	0.382486826178505	-0.0062809245669825	0.00966363803617591
6.4	0.0100857469782696	0.00167918546492471	-0.843346702154624	0.519966236233578	-0.843315257715154	0.519755180468133	-0.00505645420363779	0.0089938214563007
6.5	0.00929885278080387	-0.00112206581298304	-0.752666544663892	0.643776119510762	-0.752690852292711	0.643571756325116	-0.00448249834320089	0.00817941339875913
6.6	0.00838783135933112	-0.00353388710453065	-0.643970494513782	0.753659484155627	-0.644044790871254	0.753406818277363	-0.00387716250696648	0.00758531797262217
6.7	0.00649516060562924	-0.00589129449946066	-0.518556105260342	0.844681899794615	-0.51865952447555	0.844460392999697	-0.00376685037742144	0.00706599020150826
6.8	0.00420731368177218	-0.00728540504325902	-0.380783756208614	0.914732913528355	-0.380926010802938	0.914562109996713	-0.00371089663809242	0.00712130349547233
6.9	0.00169571944638172	-0.00797631217762312	-0.234303079176339	0.962377719237625	-0.234530302523436	0.962267506177969	-0.00327583290823447	0.0073706165347788
7	-0.000346587344380275	-0.00752258897753557	-0.0821919506683543	0.987858085064452	-0.0824024922033314	0.987768409214823	-0.00243936787991447	0.00771939393658277
7.1	-0.00162095888071693	-0.00720646644803709	0.0732820314722482	0.988314510499652	0.0730791497779829	0.988181539672686	-0.00119784108394443	0.00756833402958474
7.2	-0.00295233976632873	-0.00685534585459575	0.225879835359056	0.964285486201366	0.225597073484356	0.964251760914516	-6.80385512424826E-05	0.00731150903106453
7.3	-0.00433429122972025	-0.00632549940765826	0.372645453939295	0.917276372334075	0.372409075260875	0.917303405308286	0.00102110591607684	0.00684362298601162
7.4	-0.00548083282732895	-0.00557743741198532	0.510642277563677	0.848409959927199	0.510428614696593	0.848461894584064	0.00180882279560377	0.00605709982348635
7.5	-0.00682660093282603	-0.00437911099248493	0.637020494471998	0.758000829593239	0.636850924240738	0.758071403870105	0.00235606058668266	0.00557022255066709
7.6	-0.00652940266908848	-0.00270359754009124	0.746039994434202	0.648929159448261	0.745782612839412	0.649012829881568	0.00376014340340726	0.00475454124818918
7.7	-0.00591300724674739	-0.00188989582278143	0.837165241260927	0.525283984909175	0.836980570280125	0.525502083022248	0.00454367618984744	0.00326014923083226
7.8	-0.00505233532199625	-0.00155049284955558	0.908472078564882	0.388783611903697	0.90836996598501	0.389009600995132	0.00500477952818321	0.00158141314972125
7.9	-0.00459888398082273	-0.00202831416336112	0.957690781336097	0.242601658058042	0.95755349956195	0.24278208090455	0.0048375459020296	-0.000281794807140854
8	-0.00641510134094575	-0.00244995913872955	0.982130270619468	0.09064387322558	0.982108518940407	0.0909065074572629	0.00283952386053223	-0.00174891068294214
8.1	-0.00680078291219935	0.0003327321809033	0.984172767695078	-0.0618067928581666	0.984202603035234	-0.0615515528492276	0.00192758460485783	-0.00104368083181213
8.2	-0.00564002149520961	0.00202385591077055	0.962706256100082	-0.21381198682906	0.962755687059879	-0.213495288198615	0.00128542285482836	-0.00119020652095391
8.3	-0.00426492399351566	0.00333584183683027	0.917529426619808	-0.360702998934979	0.917581798145256	-0.360416259814487	0.000465403290442581	-0.00100535560825865
8.4	-0.00205140255436896	0.00378693754839177	0.849712688568119	-0.498442217708499	0.849811098990224	-0.498240889034757	5.90591934656682E-05	-0.000785774304454825
8.5	-0.00157125448020857	0.00261147532277403	0.7624716980597	-0.62296853991851	0.762523367202765	-0.622818202958285	-0.00118272184066082	-0.00103810325861675
8.6	-0.00115319356200602	0.00417255146606781	0.656815381655621	-0.73441278188906	0.656984347926442	-0.734176291825557	-0.00175315412186745	0.000853142543035479
8.7	0.000992283664252926	0.004953916607431	0.53426732332758	-0.827323673099938	0.534526904830832	-0.827109226269156	-0.000982488141278384	0.00193150722050273
8.8	0.00363002016983063	0.00481298823820781	0.399269365027564	-0.899651497803834	0.399454797637426	-0.899513180843813	-0.000155180394299998	0.0024745331360774
8.9	0.00649581443368514	0.00358515890352021	0.255265735622595	-0.95017983445238	0.255444918977241	-0.950010521214365	0.00124346558603664	0.00289344472923587
9	0.00868103357828202	0.000756611446052107	0.104940553310118	-0.978978765878488	0.105248677096285	-0.978932935019451	0.00283279113712121	0.0026346379252995
9.1	0.0101996186203347	-0.00200924665746912	-0.049137090974188	-0.98283541098555	-0.0488282189534101	-0.982795488810779	0.00498285295038561	0.00206356316059801
9.2	0.0107367650289548	-0.00556408737912661	-0.200847576553917	-0.962492140678896	-0.200500635395356	-0.96247098024874	0.00692223779335117	0.000337125355457858
9.3	0.00979264316860479	-0.00843382419978226	-0.347256900677867	-0.919451431167293	-0.346905723306281	-0.919426900687411	0.00827074461148855	-0.00170266316087236
9.4	0.00818511221718329	-0.0108010947963328	-0.485484070328798	-0.85481622911956	-0.485161741301055	-0.854907665871594	0.00905528877678352	-0.00431719834039449
9.5	0.00501061465191592	-0.0103698877816144	-0.612942293853379	-0.768294864932697	-0.61270599119589	-0.768345852810114	0.00815907946793946	-0.00604527798045996
9.6	0.00584443619073358	-0.00908925362569774	-0.723498434891638	-0.663076797382698	-0.723188272767707	-0.663215995626446	0.00876530422246337	-0.00786610807768473
9.7	0.00634683336930311	-0.00970730151181644	-0.816961934906756	-0.543140150831328	-0.816675958949014	-0.543372985495465	0.00733296395532405	-0.0109132418530849
9.8	0.00642668305322697	-0.0106057235713203	-0.891175164723567	-0.410031141672003	-0.890923074665912	-0.410200066158263	0.00461089546923795	-0.0129841101985254
9.9	0.00612744897398269	-0.0120676878228684	-0.943941596417505	-0.266444207258549	-0.943690614623527	-0.266652906519632	0.00143962383148967	-0.0143248196302744
10	0.00289051470417214	-0.0129499120261245	-0.972230082599337	-0.116647661781699	-0.972078010871822	-0.117008593900225	-0.00351746133941381	-0.014173535282167
10.1	0.00212464650560122	-0.0104009322655265	-0.978468374882857	0.0341986751273568	-0.978405572518946	0.033769177547243	-0.0062530395621453	-0.0115333837410728
10.2	0.00281116451039747	-0.00986934906715922	-0.961655914813972	0.18543835912737	-0.961534921871419	0.185009000464542	-0.00843167254737665	-0.00965401438725699
10.3	0.00322131344227047	-0.00996871460389349	-0.921010682084009	0.332375692396377	-0.921028457327533	0.331836709733806	-0.0104943830015415	-0.00736932220901473
10.4	0.00356421515119238	-0.0112916697430603	-0.857590647739878	0.470586193218447	-0.857726980489857	0.470077743853797	-0.0117968525939412	-0.00506190185234949
10.5	0.0018027936623161	-0.013180017169095	-0.774996792478785	0.596301783271441	-0.775168456575451	0.595872099046315	-0.0131189949772931	-0.00299138490427567
10.6	-0.000651966324104144	-0.0130300885072095	-0.673963364065356	0.709860655193044	-0.674234293463792	0.709532028806526	-0.0137490067768644	0.000191432599003401
10.7	-0.00220922551823065	-0.0119490747455283	-0.555571081830371	0.805822363671837	-0.555870099665219	0.805514316379298	-0.0129810486123593	0.00341801437135379
10.8	-0.00277583427817716	-0.0109102038414908	-0.423956118612093	0.881824029676286	-0.424304924972849	0.881527082112953	-0.0111209621464663	0.00625436088691393
10.9	-0.00302341673001659	-0.0102853897124201	-0.282906869916752	0.936517627940345	-0.283294900647813	0.93639474766378	-0.00870574594280538	0.00827297292276845
11	-0.00342345009805011	-0.00974326669238436	-0.134729089153231	0.970441562454169	-0.135164306556237	0.970350485810433	-0.00595360945231309	0.00975615646949178
11.1	-0.00310610005695099	-0.00925437442984273	0.0184324245515319	0.97920086781369	0.0179456349108658	0.979213874789794	-0.0025358522920096	0.0102553461141231
11.2	-0.00296187453313319	-0.00956601324545797	0.169701122781012	0.964069420845681	0.169245986922797	0.964141645257071	0.000729576469792798	0.00976581409247992
11.3	-0.0030801255518645	-0.0100537002603973	0.31660106390654	0.926305747751115	0.31614383792558	0.92644098570332	0.00397654481678471	0.00861872638673115
11.4	-0.00385891397468678	-0.0111607340683259	0.456489661782164	0.866812030461695	0.456087111346273	0.866923968348944	0.00668056982840458	0.00674662010926328
11.5	-0.00626061040921357	-0.0104208546144517	0.586443353923623	0.784735975974986	0.586125713031569	0.785036917135656	0.00815025376523758	0.0052859581368872
11.6	-0.00596546317830534	-0.00900530682159785	0.699749341873446	0.683813107382198	0.699534664881925	0.684138953745034	0.0107529337318253	0.00334894715874588
11.7	-0.00578215497172835	-0.00892963848917167	0.796993951142534	0.567695900871977	0.796791091219809	0.568000529806393	0.0120651739229301	0.000244142915786866
11.8	-0.00606312686575043	-0.00933371852995079	0.875714998707938	0.437476211350202	0.875532948626217	0.437924607424242	0.0123166414184379	-0.00284630231275225
11.9	-0.00663600215686386	-0.0105293342545671	0.933328572329453	0.296004144938875	0.933222347609339	0.296451999061549	0.0118346922694327	-0.00595665620099393
12	-0.0112062472910009	-0.0109812784462078	0.966550197651724	0.147689071691917	0.96652085058114	0.148051471944612	0.00894829103324919	-0.00845508717827345
12.1	-0.0131879471708965	-0.00775627106501275	0.978130754883033	-0.0026043566489272	0.978058822495956	-0.00222182448891084	0.00784000452811549	-0.00917404914045679
12.2	-0.0141807570358759	-0.00554391141791253	0.966511855154951	-0.154319318912816	0.966528211565358	-0.154022474926394	0.00614546724342833	-0.0106816940184531
12.3	-0.0147656183012822	-0.00301359372221282	0.930792646762764	-0.3024702287149	0.930910612971302	-0.302164377286776	0.00398629570611053	-0.011625383316183
12.4	-0.0145042915206444	-0.00102493610131511	0.872356788509255	-0.442808022137304	0.872418271956252	-0.442439789879895	0.00199389279803413	-0.0121780203743683
12.5	-0.015311825208628	7.65725018704297E-05	0.794210565172936	-0.571379473978376	0.794547386818826	-0.570988732797685	-0.00102322141072637	-0.0126911589361484
