# GHZ S RI R 50
0.2	-0.000169481851143263	-0.000452763676158831	0.950537731693326	-0.30757929337254	0.95031516894398	-0.307554005792659	-0.000132412878266076	-0.000391575470415395
0.3	-0.000494772600573	-0.000375298167363813	0.891004166675164	-0.451437348949502	0.890847625692964	-0.451341977405952	-0.000518119871477292	-0.000545459446428329
0.4	-0.000669411245014676	-0.000126383484689504	0.810017038747775	-0.584208333079102	0.810028883397288	-0.58423348926641	-0.000834456442214605	-0.000381897632968639
0.5	-0.00048919542622112	0.000551469570856315	0.709213792923268	-0.70356152639808	0.709058310234197	-0.703459893502752	-0.000629481485559282	0.000289341361491037
0.6	9.54572330386768E-06	0.000213525375335931	0.590808791745561	-0.804797659968609	0.590689175225415	-0.804635645147103	-0.000174796728897128	-0.000177794816342981
0.7	-0.000148120640241197	0.000191861518240948	0.458669073619238	-0.886583442840317	0.458650185818708	-0.886470674465862	-0.00036360225089085	-0.000483704973828906
0.8	-0.000120908678797937	0.000101467792880938	0.315297560083773	-0.947194521374561	0.315266010347052	-0.947004258483622	-0.000658282089147664	-0.000600950442724504
0.9	-0.000598272201523731	9.37302736361608E-05	0.163954174608208	-0.984692925555625	0.163888926401193	-0.984600730280607	-0.00149612086175343	-0.000757830783048619
1	-0.00099186160007508	0.00144171368327071	0.00866149093125019	-0.997394044445556	0.00860971790108434	-0.997362478867675	-0.00229708264117428	0.000831368085947302
1.1	0.00049652865001823	0.00145821961243904	-0.145753920342613	-0.98677749028857	-0.145769734017577	-0.986646691176753	-0.00112042537167282	0.00128258591864441
1.2	0.000742798344772017	0.000434080715222289	-0.297637182889448	-0.952225366122463	-0.297560567071732	-0.952199197652014	-0.000734844408325212	0.00166860457242292
1.3	0.00108285861880447	-0.000997703502962091	-0.442165162930177	-0.894155977928865	-0.442142052831113	-0.89414935381437	0.000929933190353864	0.00241989731383071
1.4	0.00112414962347752	-0.00302831951358276	-0.575405725838986	-0.814155790402619	-0.575381462047242	-0.814134112508502	0.00300905670128623	0.00181175243922385
1.5	0.00175169059726001	-0.00477670549250497	-0.694350546339198	-0.715124931832135	-0.694248480060523	-0.71503975172823	0.00567907535930913	-0.000274168167017414
1.6	-0.000200673203467379	-0.00663894111194637	-0.797678578794916	-0.598751588506209	-0.797604201573552	-0.598691379559172	0.00410563697763042	-0.00341427382691547
1.7	-0.00161220192540876	-0.00585916223943478	-0.880735773316205	-0.467538336419963	-0.880900031266785	-0.467020064892587	0.00256274243380374	-0.00384799358523396
1.8	-0.00253427992176591	-0.005084462977139	-0.942627332181405	-0.324336248828243	-0.942515675312802	-0.324335056514763	0.00121989060125714	-0.0040799618917447
1.9	-0.00325276199200393	-0.00361073253428303	-0.981181493883529	-0.174564986555857	-0.981273968673871	-0.17407558260988	-3.64360573550005E-07	-0.00325992859248653
2	-0.00166102537694285	-0.00264655626935685	-0.997045786102015	-0.019492237269991	-0.997057694782662	-0.0194461618817953	0.00152416287652703	-0.00274568028833512
2.1	-0.00253616597637948	-0.00425916481808539	-0.987520611109826	0.136726667724716	-0.987558765673236	0.136764033835941	0.000450048486608782	-0.00505971127393566
2.2	-0.00428185398779257	-0.00365462595386205	-0.953757512875932	0.288373651524882	-0.95368192937502	0.288436440819788	-0.00131812345833838	-0.00490737474875054
2.3	-0.00545912591654407	-0.00255419632819307	-0.897363232946427	0.432317285918904	-0.896977865671098	0.432831069569566	-0.00264438015202657	-0.00447815368196804
2.4	-0.00675998599042712	-0.000866673563972216	-0.818579650944637	0.567693088242996	-0.818849505569462	0.567105927499828	-0.00418156835546387	-0.00330995278938984
2.5	-0.00578032166922882	0.00203686289237538	-0.719838235621869	0.688750059357437	-0.720055364034437	0.688239270415852	-0.0031210440802421	-0.00120675978817595
2.6	-0.0045737097179843	0.00171957668960721	-0.603560828423911	0.790807095368779	-0.603455413065903	0.790623304152957	-0.00174396439393324	-0.0025019479116776
2.7	-0.00459409451982868	0.00203130302207033	-0.472956203666209	0.874741483996009	-0.473408551124664	0.874335946227944	-0.0021840474142324	-0.00331690432769868
2.8	-0.00432778380100361	0.00263483565677093	-0.332449617072363	0.937010683647775	-0.33177942517329	0.937166130008556	-0.00299542244318784	-0.00348658842543275
2.9	-0.00324945350662466	0.00338240475918732	-0.181658412614492	0.977188208098255	-0.181690289783175	0.977100846030139	-0.00308470693821897	-0.00263214305659765
3	-0.0016475053409056	0.0031811556736756	-0.026454717061849	0.99199778181446	-0.0271573858721561	0.99184401255861	-0.0023827026818234	-0.0023015971002759
3.1	-0.000882807778882982	0.0030232472094119	0.125344595010192	0.983904134350211	0.125935428446521	0.983882729862734	-0.00233609209877259	-0.00194404794873451
3.2	0.000366483845026453	0.00281142910691707	0.27731069560619	0.952364381888601	0.277255480049259	0.952304383578027	-0.00176901693844813	-0.00124130475227852
3.3	0.00168769078006136	0.00212563499403086	0.422110866254081	0.897130480819249	0.421973570253296	0.897117212330051	-0.000816734128711081	-0.000912504747401056
3.4	0.00278163756568228	0.0013004150977438	0.55585007505178	0.819760045752139	0.555688800589688	0.819879045773132	0.00054439474851829	-0.000913497110646242
3.5	0.00452478367492902	-0.000815471694329834	0.674832181658733	0.723974306777923	0.674752933443698	0.724013485392133	0.00260684126165911	-0.00242261599623942
3.6	0.00327325465331122	-0.00320132997143144	0.779328126389091	0.611345996133109	0.779566171264123	0.610896060289267	0.00172923164346577	-0.00448372237751953
3.7	0.00234827081450151	-0.00412280442276136	0.86492285993827	0.481685421297686	0.864805658012201	0.481829206320975	0.00106182267047193	-0.00489435687464845
3.8	0.00124851079267231	-0.00492781673993956	0.928332046623675	0.341883962269495	0.928386117977614	0.34150498104936	0.000474708319071456	-0.00531366278068141
3.9	0.000227985543230465	-0.00505113330970269	0.969637460242128	0.192986482037821	0.969403795931121	0.193654057712679	-0.000523587488679234	-0.00531733956111733
4	0.000725398157696855	-0.00533904938219545	0.988841885885746	0.041283459433461	0.988803603372327	0.0413864595580024	0.000797787886180389	-0.00541856065075056
4.1	-0.000964128451563186	-0.00776924419348866	0.982649423912282	-0.113954083273318	0.982466166631984	-0.113825746674808	-0.000158658673008917	-0.00820118129870482
4.2	-0.00380830514413848	-0.00807795325359994	0.951770286953197	-0.265392754823767	0.951810120568137	-0.264740924591873	-0.0022410570273934	-0.00907645523702397
4.3	-0.00639713827946987	-0.00785909287866128	0.899073303501999	-0.408739701250593	0.898938643033936	-0.408627953820415	-0.00433342329638658	-0.00962258865535829
4.4	-0.00948179863335133	-0.00645688488209981	0.825031191963644	-0.5431702595316	0.824867368831135	-0.543036179212054	-0.00701637029087067	-0.00916145219046823
4.5	-0.0105221213380911	-0.00343713489449048	0.729732627761971	-0.665659490172736	0.7295457850551	-0.665485287478677	-0.00772435909645486	-0.00706992008308105
4.6	-0.0111060979054134	-0.00265591099260215	0.616019318904802	-0.769558846822769	0.616365042970393	-0.76886698150018	-0.00793779430313522	-0.00784415155269511
4.7	-0.0124807707999136	-0.00120333311798536	0.489952545333016	-0.854761733364429	0.489971400828857	-0.854407872889833	-0.00966164810212764	-0.00818707607946881
4.8	-0.0134790044814454	0.000893385291523559	0.351307652847181	-0.920010250599243	0.351530114031638	-0.919696986851043	-0.011361388777932	-0.00805555872298888
4.9	-0.0137063975118013	0.0031955977921023	0.204285857699791	-0.96264604721532	0.204067028781901	-0.962652257720035	-0.0128676127225061	-0.007301408876026
5	-0.0128198092589941	0.00519479027668047	0.0521290864371488	-0.98052913016584	0.0523066343734408	-0.980286904384211	-0.0133234810431136	-0.00627671404192913
5.1	-0.012418879116201	0.00682124424977906	-0.0984818314761869	-0.976789173196115	-0.0981516736742572	-0.976567265504547	-0.0147536118163468	-0.00533574694802698
5.2	-0.0112122494473721	0.00935689811808603	-0.248700150918476	-0.950036313252421	-0.248211809866233	-0.950011892126552	-0.0157448900405951	-0.00295318994450884
5.3	-0.0090798449596932	0.0115956535147371	-0.392856579471727	-0.89971334272496	-0.392519472698671	-0.899929344798698	-0.0156211602724686	-0.000149424852586201
5.4	-0.00573581834179924	0.0139598579901474	-0.52695576414065	-0.827222651173066	-0.526745645066781	-0.827422488659839	-0.0140833809970288	0.00293618597408056
5.5	-0.000528111556393358	0.012959298769941	-0.646963779512579	-0.73649377170714	-0.646727324806789	-0.736687089303486	-0.0103375993224862	0.00260393995823697
5.6	-0.000157160962711463	0.0113468482741221	-0.754244366734263	-0.628241922545093	-0.754056323763363	-0.628412693818454	-0.0120366551817295	0.00132641728744535
5.7	0.00109788525595066	0.0118332912872779	-0.842586285781735	-0.503336752369219	-0.842458254239241	-0.503555021508874	-0.0130428072222358	0.00329842735171713
5.8	0.00286891931695226	0.012154932946989	-0.90979796456778	-0.36657505582952	-0.909730895434696	-0.366857711617227	-0.0131751550356861	0.00570089805930564
5.9	0.004900818278102	0.0129085861815146	-0.955100142245243	-0.222171489606631	-0.955114445020974	-0.222254409780825	-0.0125828220024113	0.00928100789946287
6	0.0104749890344361	0.0124292330961349	-0.979805711092623	-0.0722148792932564	-0.979687184016089	-0.072272361884724	-0.00748686558490526	0.0119234907431745
6.1	0.0122634320527766	0.00734199388080963	-0.978644494833422	0.0820011096864087	-0.978518747801233	0.0818537029694809	-0.00537000010507664	0.00939742213336153
6.2	0.0121611113991816	0.00435306682675786	-0.953328383433416	0.232257497904808	-0.953314677696095	0.232056301703129	-0.00499709274439683	0.00860730981204155
6.3	0.0114581521219219	0.00146272815683138	-0.905981485301097	0.376555046608049	-0.905976738055174	0.376371212276383	-0.0047853188548285	0.00786665843283008
6.4	0.0101431677406582	-0.000690571714365716	-0.837597132272569	0.512443775344661	-0.83756524720318	0.512234710346387	-0.00504158768879314	0.00766162071816275
6.5	0.00902165679982743	-0.00279460076670363	-0.747148025299035	0.637525382466547	-0.747171890380382	0.637322694347531	-0.00460091791122391	0.00750459789733396
6.6	0.00720029029074995	-0.00440951259717724	-0.638547310598431	0.743943074423119	-0.638620231401399	0.74369302519727	-0.00469611647907717	0.00753254979967249
6.7	0.0057164015729643	-0.00551088194595295	-0.516421805858075	0.833444688896678	-0.516523201972644	0.833225148176997	-0.00416599782259771	0.00800898800297856
6.8	0.00431201572020912	-0.00659710002178748	-0.381504210018581	0.903798051045162	-0.381644215942657	0.90362824120878	-0.00337716635154688	0.00818997508330471
6.9	0.00269655731421501	-0.00749668451583232	-0.236284044035927	0.952447965849583	-0.236508686093728	0.952337793842465	-0.00229474986845308	0.00823875900889851
7	0.000920429993257909	-0.00858919055401306	-0.0855782453767177	0.975608846404979	-0.085785856606995	0.975519317091559	-0.00137395325720296	0.00713255229297353
7.1	-0.00176916618817682	-0.0083988996840825	0.0645767289564516	0.977692490512221	0.0643772071620544	0.977559410904562	-0.00162357866536116	0.00701028106079587
7.2	-0.00345637872307901	-0.00753308828746658	0.215387373068993	0.956782503718394	0.215107669770913	0.956746680489129	-0.000863465540453992	0.00739041033207888
7.3	-0.004924574282803	-0.00662863533590633	0.361267972053902	0.911970458800499	0.36103355608497	0.911995200772238	0.000138829747094208	0.00740994124295275
7.4	-0.00581663773906454	-0.00539569859053356	0.497810443436792	0.844357203932264	0.497598490547036	0.844406688180622	0.00123526850685865	0.00722821502351175
7.5	-0.00582146961075767	-0.00503527096694094	0.620731158322978	0.758625065980309	0.620562383557644	0.758692722855171	0.00306580166645596	0.00604900340575726
7.6	-0.00727899393750037	-0.00500666955627152	0.732626156444276	0.65477386443332	0.732369292737987	0.65485356359268	0.00291750275678472	0.00388277706149942
7.7	-0.00854473485544947	-0.003412785053907	0.825824569479463	0.533010923185595	0.825638151595863	0.533225458449897	0.00218797950879849	0.00313180444122176
7.8	-0.00890480672100341	-0.0013694899953086	0.898555028396769	0.398606010389498	0.898450501132401	0.398829461883009	0.00169460759637308	0.00292508167253461
7.9	-0.00863506753997857	0.00148582705130435	0.949547318951488	0.255678268652102	0.949408007723626	0.255855796942346	0.00169334965008656	0.00409770036954424
8	-0.00416907795094569	0.00360598314639067	0.980385810050597	0.105892567990585	0.98035997983828	0.106154774438838	0.00504421991527829	0.00465510782710177
8.1	-0.00280698229708884	0.00135596115565313	0.985077043792283	-0.0494185747296936	0.985103668086031	-0.049162926304098	0.00562496625208804	0.000455669987588964
8.2	-0.00276757079471437	0.00103364835159	0.965115716670173	-0.201527777178974	0.965161113133101	-0.201210551214482	0.00368554173509129	-0.00135316847521311
8.3	-0.00279018131880779	0.00108261348118609	0.922716847288903	-0.348494613271766	0.922765381441577	-0.348207064745002	0.00151652692943981	-0.00214247874047425
8.4	-0.00328936515514795	0.00192069007557861	0.858908815878561	-0.48798456269555	0.859004695709216	-0.487781328396025	-0.00139896717709041	-0.00144194380533944
8.5	-0.00102065064854239	0.00460909810373149	0.771946345556547	-0.617638138621043	0.77199667716646	-0.617486665135425	-0.000927279139784343	0.00198526361008566
8.6	0.00144039883400098	0.00250239446016103	0.665740593355718	-0.728525815792668	0.665907288668734	-0.72828713699462	0.000334602271975659	0.000539491516703001
8.7	0.00157476641714112	0.0017640804787773	0.545491553749744	-0.822970609974015	0.545749208955422	-0.822752525795877	-0.000703689036525245	0.000479316614016533
8.8	0.00228428208100737	0.00142675740215614	0.411643451014308	-0.898482093114223	0.411827971868073	-0.898341000793611	-0.00138098466516225	0.00105056295732274
8.9	0.00281024629726129	0.00111017287981177	0.266360320886242	-0.952547405801609	0.266538706701614	-0.952375364280985	-0.00178107965975506	0.0023105059175784
9	0.00453879221287143	0.00103893299997379	0.114577738032253	-0.980269949077396	0.114886145446717	-0.98022105496616	-0.000309648084902502	0.00441723283309592
9.1	0.00586985314394713	-0.000230422581047389	-0.0368718776003932	-0.987281167997567	-0.0365623101212795	-0.987237175918655	0.0017478335193213	0.00497184788071088
9.2	0.00768644095419284	-0.00114188590522587	-0.19041885486488	-0.970862301180398	-0.190070030698695	-0.970836804632786	0.00489624611057115	0.00546747454113698
9.3	0.00965381502669994	-0.00299055685184457	-0.339783929790149	-0.929672486246757	-0.339430543972347	-0.929643994750586	0.00886166824461738	0.00412292458676262
9.4	0.011056413846999	-0.00512545844653337	-0.480026721086032	-0.86468040738052	-0.479701569031184	-0.864769237977045	0.0121611324597003	0.00154245273592183
9.5	0.0129844582126245	-0.00972487558285265	-0.606497233087013	-0.781121132454644	-0.606258809979566	-0.781169296927803	0.0156529330756843	-0.00493414161438124
9.6	0.0087735248642848	-0.0135033279940681	-0.722781655051102	-0.678688157565919	-0.722466624655211	-0.678824986277881	0.0112097492158995	-0.0111207445173394
9.7	0.00598297434566931	-0.0132028195111545	-0.820179259794259	-0.557450407753242	-0.819887787286928	-0.557682804177521	0.00684315110838248	-0.0129932352326382
9.8	0.00414622533855122	-0.0127165048240937	-0.896742099353871	-0.423046585881474	-0.896485676056471	-0.423214877834396	0.0025412281297946	-0.0137261454783951
9.9	0.00256516975067732	-0.0106003238390932	-0.951480151499559	-0.279587734083466	-0.951224143981817	-0.279796024224139	-0.00172583418449727	-0.0119375931232722
10	0.00550210216069945	-0.00964062723516853	-0.986402283822518	-0.128626115276963	-0.986244043792676	-0.128991174946308	-0.000998965240855361	-0.0102824694376742
10.1	0.00394482948913098	-0.0124032144593477	-0.993982262765462	0.028757509743584	-0.993915854517796	0.0283216776772274	-0.00480902016518325	-0.0125401052243497
10.2	0.0019193938486031	-0.0119287842073959	-0.976895622758622	0.18291601296397	-0.976770489217111	0.182480965596357	-0.0095158554879559	-0.0104962989905566
10.3	0.000554532871420422	-0.0109317735819977	-0.936955874473524	0.332450776794011	-0.936970982092371	0.33190342689271	-0.01311097139135	-0.00716411532994808
10.4	-0.000648434055333802	-0.00946479300099181	-0.875142212914846	0.474847895803577	-0.875278529460947	0.474329727178062	-0.0158247630460347	-0.00236666589612083
10.5	0.000693044086343714	-0.0071126573915772	-0.789055069900519	0.608046490950757	-0.789230270444199	0.607608892904147	-0.0142812512149262	0.00356385717794771
10.6	0.00236742408421591	-0.00815199413051869	-0.683193065576122	0.721604256784655	-0.683468578713545	0.721271023178704	-0.0113046078790909	0.00558247427080888
10.7	0.00274375788183359	-0.00949279830003386	-0.563019275978917	0.818711191548186	-0.563323199683283	0.818398835952102	-0.00889293639298152	0.00671718923556072
10.8	0.00210990227985255	-0.0110967012764746	-0.428724356014428	0.896663828478332	-0.42907931387026	0.896362955351509	-0.00729419304201875	0.00732328809711404
10.9	0.000790026388912907	-0.0117839126071018	-0.282689206279972	0.952873549178715	-0.283084042286911	0.952750668984052	-0.00571618288728579	0.0083277253499481
11	-8.41163993285867E-05	-0.0127094514881887	-0.130157661985304	0.982211562796113	-0.130598350031034	0.982122191263912	-0.00334872317022773	0.00854010429707485
11.1	-0.00192805420433528	-0.0128186707415788	0.0219939162941544	0.990775312145576	0.0215013859343903	0.990790135240667	-0.00194413058313369	0.008750546668585
11.2	-0.00306838532116044	-0.0126004599526419	0.176227648948954	0.975942597282634	0.175766872546261	0.976017799348018	0.000378217569834525	0.00896492383376232
11.3	-0.00406090007527884	-0.0122147903477207	0.326437538125744	0.936193829341826	0.325975299990018	0.936333653142091	0.00299723334447187	0.00877775899156207
11.4	-0.00475936442490004	-0.011193988224465	0.467675419934929	0.872431368462448	0.467269516471242	0.872547461045254	0.00599637451228255	0.00879171987721934
11.5	-0.00362861223157582	-0.0122014291743937	0.595012064263674	0.79037819867668	0.594692365751281	0.790683234276898	0.0109071436412606	0.00547552380709925
11.6	-0.0070838183369626	-0.0136609059916204	0.712712105262546	0.689161266995092	0.712496317303548	0.689492594509938	0.0100792561850244	0.000994946686932199
11.7	-0.00961308501560015	-0.0120510579287345	0.811452192345616	0.568731846408882	0.811249115119743	0.569041892716609	0.00920714952558258	-0.000717729791034455
11.8	-0.0117071817931783	-0.0101683370047475	0.889260647266184	0.434870396721297	0.889080400855176	0.435325369385612	0.00803397722051327	-0.00195227955107683
11.9	-0.0131275216136284	-0.00618086378134019	0.945050310277049	0.292289079806589	0.944946235886721	0.292742299509642	0.00674781781831068	-0.000776149260616194
12	-0.00960024573815533	-0.00344854489323502	0.981580496072086	0.142168956337997	0.981553592064058	0.142536786417104	0.0114305732071822	-0.000611364080210416
12.1	-0.00985963706223945	-0.00487170712749324	0.990437726153556	-0.0146417674769409	0.990369581180819	-0.0142535269004056	0.0111741441681864	-0.00607736060237252
12.2	-0.0108135924320978	-0.00429045362009398	0.974698606322841	-0.168133267386131	0.974718879963121	-0.167833517335035	0.00911647472320392	-0.00891906830041721
12.3	-0.0117159067977624	-0.0035355886456203	0.936283968425147	-0.316939690772743	0.936406873196725	-0.31663226393127	0.00646199929572276	-0.0113231757403577
12.4	-0.0135492849366719	-0.00193070477329176	0.87667624946557	-0.458990698958462	0.876743130860878	-0.458619043932675	0.00244030030700302	-0.0120958203010675
12.5	-0.0124585240668072	0.00148229856180643	0.792230525942536	-0.592129074872281	0.79257815464434	-0.591740332722897	0.00100088974900962	-0.0104942814109384
12.6	-0.0115587856514045	0.00100725923357893	0.688657785510089	-0.705227583832165	0.688913146693586	-0.704987260350454	-0.000614133004751475	-0.0125392632820928
