# GHZ S RI R 50
0.2	-0.000477226053274652	-7.45793363789435E-05	0.948508989212442	-0.30805342906841	0.948286851168857	-0.308027947016594	-0.000516551660946994	7.14799373830629E-05
0.3	-0.000484553699027231	4.78329138760677E-05	0.888415819400664	-0.451631104573283	0.888259754757779	-0.451535734700519	-0.000604592269790729	6.35653822203566E-05
0.4	-0.000174705324030976	0.000100692853165402	0.806785290777301	-0.583738411754296	0.806797063073435	-0.58376351289368	-0.000405861695781733	0.000128961365117805
0.5	-0.000138492444399756	-0.000217158593218172	0.706045401417075	-0.701604894486592	0.705890569002057	-0.701503499519096	-0.000324400980008728	-0.000180608687845312
0.6	-0.000411130565402172	-4.73592510053597E-05	0.588395925139506	-0.802538694975627	0.588276796598896	-0.802377134501228	-0.000727703430933833	-4.60975238281812E-05
0.7	-0.000246182228987377	0.000288760208142307	0.456346789770109	-0.883793414566704	0.456328057272823	-0.883681031933279	-0.000582344837545222	0.00020034910801237
0.8	0.000101229236586965	0.000322926295753288	0.313440585866189	-0.943560608307884	0.313409280733534	-0.943371094939562	-0.000426515546634894	0.000400438656632138
0.9	0.000495191688527202	0.000478325846945293	0.163227295920473	-0.980290018460327	0.163162338868006	-0.980198235756722	-8.13206049010119E-05	0.000534525206204824
1	0.00116236462917026	-0.000348650559311591	0.00930917840563092	-0.993652083540764	0.0092575778452855	-0.993620671540161	0.000633766086225047	-0.000352451428010913
1.1	0.000354684561882369	-0.000815995143611436	-0.145290246505756	-0.982976565803032	-0.145305986774159	-0.98284626717699	-0.000576115638022684	-0.00094538818078359
1.2	0.000388551687876106	-0.00129533625381824	-0.29615298995766	-0.948028062361645	-0.296076720108291	-0.948001998028764	-0.000798008861636852	-0.000339383642193938
1.3	0.000176190923621734	-0.00262496068531872	-0.439469742104035	-0.890319425107981	-0.439446744130435	-0.890312815241223	-0.000262171202468002	0.000458324337471598
1.4	-0.000212576656464852	-0.00408613588686148	-0.571955809614341	-0.811384240104004	-0.571931675889038	-0.81136262511706	0.000899001542696161	0.000794131231407142
1.5	-0.00108143994483379	-0.00468571225907731	-0.691424131775357	-0.712524911327988	-0.691322489938599	-0.712440035345097	0.00165199615903756	0.000464451686763772
1.6	-0.00065593884790356	-0.00407664916365705	-0.793053322394698	-0.595940374243407	-0.792979378829086	-0.595880451081075	0.0026627245821066	0.000823503964936331
1.7	-0.00030230262420637	-0.0045200021209907	-0.875128366292383	-0.466279685497436	-0.875292499922059	-0.465764544924142	0.00364704544370359	-0.000388948739606382
1.8	-0.000623082581332865	-0.00490245699733175	-0.936970659883014	-0.324538958274023	-0.936859597197981	-0.324537544633638	0.00359004992637632	-0.00185918367250341
1.9	-0.000977290427843259	-0.00532323483660435	-0.975906852538175	-0.175516989495501	-0.975999774907632	-0.175030226548005	0.00319852758070045	-0.00344113405336853
2	-0.00288366427680336	-0.00589553607358211	-0.990496647417779	-0.0210818250172791	-0.990508557572025	-0.0210360712586102	0.000858409117064029	-0.00510364569167697
2.1	-0.00379022671374069	-0.00402305392465612	-0.981544635640247	0.132067918125707	-0.981582681459877	0.13210489314079	-0.000632547697183615	-0.0035232630430651
2.2	-0.0039064600965006	-0.00346927567659243	-0.949479862866556	0.28258421055717	-0.949404988284198	0.282646962694048	-0.000419804212661558	-0.00315387265510985
2.3	-0.0043419889608676	-0.0029344324786498	-0.894285529381365	0.425931152297536	-0.893904585773838	0.426443785151785	-0.000515492720753395	-0.00345115859221442
2.4	-0.00468143588487755	-0.0024931732990905	-0.816224505964817	0.560458579764878	-0.816490006590425	0.559873742981769	-0.000655228535650685	-0.0041892240971725
2.5	-0.00584142526616367	-0.00269523976132406	-0.719860775394991	0.679323327757641	-0.720072986849316	0.678814383957242	-0.00215629838666231	-0.00637424820782823
2.6	-0.00742392129338634	-0.000522470788488595	-0.606835719519939	0.782874793236948	-0.6067293916494	0.7826925856194	-0.00486883227002198	-0.00534653222485058
2.7	-0.00704693371633263	0.00169617085668748	-0.477312686558958	0.867952640102573	-0.477760380420923	0.867545480647848	-0.00565471890400829	-0.003651259171013
2.8	-0.00562843021959509	0.00324323038200456	-0.338085328515927	0.930866897364372	-0.337418920999348	0.931026698000526	-0.00551487601026583	-0.00215648730172663
2.9	-0.00355535484927958	0.00375727957318043	-0.189360724365721	0.971886957111898	-0.189391728819262	0.971799655441779	-0.00449723574580054	-0.00103325542908983
3	-0.00188698808602519	0.00373109937252682	-0.0360441549983728	0.99043660641236	-0.036744407942529	0.990276222155691	-0.00366212420628031	-3.06784078750944E-05
3.1	0.000375120995374191	0.00327625228390004	0.117541154722827	0.984207858159981	0.118131748061901	0.984191102426746	-0.00164928098258219	0.000618560333551969
3.2	0.001742156733504	0.0018948813554355	0.269374410492139	0.953605715095429	0.269319733987914	0.953545335416702	-0.000451773338391973	0.00014583161142321
3.3	0.00283950462911234	0.000475502463755181	0.414077686380343	0.90027988068267	0.413940584574492	0.90026542759424	0.000609315646487589	-0.000444446352474098
3.4	0.00333241666000837	-0.00136092360830367	0.548831720927333	0.825639941908649	0.548669200983031	0.825757570218724	0.00141204283536545	-0.0018085245824683
3.5	0.00274450869075375	-0.00263126165117537	0.671379418925475	0.730393961822135	0.67129970994966	0.730432680413418	0.00064219964776883	-0.00246704691442933
3.6	0.00317771824234657	-0.00320508817648647	0.775597932093016	0.617007661464695	0.77583918075572	0.616559095337941	0.00154147751572463	-0.00209339804737424
3.7	0.00324521268516764	-0.00489554048303006	0.862051727876222	0.488873057122781	0.861933294001347	0.489016076970607	0.00238448576576102	-0.00315503618568652
3.8	0.00251903207480509	-0.00642407342093697	0.927509259278777	0.349815142905494	0.927566398292205	0.349435829779029	0.00261551028461635	-0.00456421501853612
3.9	0.00174815891795828	-0.00807500186809757	0.971102015720267	0.20004730151402	0.970863203203735	0.200715208629408	0.00207337993526358	-0.00679074290537417
4	-0.00106530197081207	-0.00962646312115207	0.989346903672408	0.0470236789058685	0.989307997702313	0.0471265354267437	-0.000721312758606996	-0.008935977270887
4.1	-0.00306932741666237	-0.0087498815032672	0.984647709476448	-0.10589016177498	0.984463187498637	-0.105763214717417	-0.00287254219406292	-0.00786928621040572
4.2	-0.00468030003535568	-0.00854340293426049	0.956472603830996	-0.258084718865157	0.956507063798079	-0.257430860735501	-0.00376130644759653	-0.00764037519479977
4.3	-0.00644000361429207	-0.00813014631360992	0.905179512647837	-0.40303979540987	0.905043542851925	-0.402928737991865	-0.00479332100088206	-0.00770882397289545
4.4	-0.00796128796499868	-0.00732013884500595	0.831187100831834	-0.538598522932744	0.83102186408981	-0.538465280641782	-0.00549422475467693	-0.00795711612806134
4.5	-0.010064991024443	-0.00731147441251059	0.737988055030793	-0.65985528203576	0.737799061018304	-0.659682557133892	-0.00750151431126197	-0.00968383028889894
4.6	-0.0127341062023443	-0.00478975082587108	0.627241218413377	-0.767759199543	0.627581971027507	-0.767059931190214	-0.0108795056175101	-0.00859236410239613
4.7	-0.013716444494941	-0.00238543815905761	0.500556335286177	-0.856099313834403	0.500572248612001	-0.855742979245046	-0.0127095240344511	-0.00723961815817587
4.8	-0.0143605108978825	0.000222840830254342	0.361130158326367	-0.923258514018149	0.361351546165743	-0.922941359258075	-0.0141058667879597	-0.00579444454398162
4.9	-0.0140733587491273	0.00264200109801669	0.214249417415614	-0.967336296169818	0.214029163693952	-0.967344499479513	-0.0147968021693286	-0.0042592230262841
5	-0.0135315147122868	0.00506073698475343	0.0619761869119449	-0.990198385416942	0.0621532762231826	-0.989951963555436	-0.0153055278226795	-0.00224111682713915
5.1	-0.0112781376979006	0.0073779834968309	-0.0938149470485048	-0.988162119205641	-0.0934824487098726	-0.987935814417336	-0.0139723778929714	0.000170775655047352
5.2	-0.00876635717808436	0.00855415169754332	-0.246351959926299	-0.961139104101187	-0.245858699920765	-0.961111902866678	-0.0122855109644834	0.00104728111668993
5.3	-0.00634928034523253	0.00883146722134114	-0.392420521436858	-0.911325011363912	-0.392078710307893	-0.91154158363688	-0.0109584406390183	0.000854297676051363
5.4	-0.00453481812803989	0.00854524496856521	-0.529465526205013	-0.840040326640585	-0.529251830461873	-0.840241619682484	-0.0111222874618942	-0.000238209564603859
5.5	-0.00459472674290826	0.00953218395904693	-0.655229711828399	-0.747080674552382	-0.654989869514199	-0.747276449139183	-0.0143966768541272	0.0010911792382762
5.6	-0.000882408786573867	0.0118113268838533	-0.762310777118039	-0.634883456572049	-0.762120742978224	-0.635056057078831	-0.0129352723137499	0.00509387999567384
5.7	0.00250676221211375	0.011092560402652	-0.85128160927545	-0.509010721716971	-0.851152132981165	-0.509231244349181	-0.0109638239350689	0.00613654006825736
5.8	0.00519591595005112	0.0100234544164294	-0.920052709281153	-0.370575280595132	-0.9199849228727	-0.370861116381377	-0.00949524202811245	0.00656652383672168
5.9	0.00768929154493445	0.00770806435343274	-0.966788558379643	-0.222668926784443	-0.966803211823004	-0.222752787434843	-0.00837190848149232	0.00566316834229111
6	0.00695528666485678	0.00494332550805855	-0.988061552275795	-0.0689401107088511	-0.987942287441312	-0.0689985282406762	-0.0116364072587305	0.00470825660730949
6.1	0.00775581112375354	0.0057047144732561	-0.986382696920301	0.0836894845625895	-0.986256100234477	0.0835407665124886	-0.012544646820385	0.00952074164214456
6.2	0.00953109884890099	0.00430615131577532	-0.961885515850704	0.235836056731803	-0.961871979953059	0.235632961881342	-0.0104909122203504	0.0121372174682609
6.3	0.0104801403589627	0.00209159689686847	-0.913560882775896	0.382617648282748	-0.913556594495413	0.382432053715189	-0.00788015544972657	0.0133879254019206
6.4	0.010870095338168	-0.000850568976592963	-0.842272413488975	0.519837138653995	-0.842241096921066	0.519626277730825	-0.00514114511757366	0.0128013835561418
6.5	0.00977349192388459	-0.00403680500921731	-0.751679999109348	0.642543353031492	-0.751704207658583	0.642339302662815	-0.00378948617001186	0.0113120797710162
6.6	0.00852657487047854	-0.00659411937856584	-0.64398633696244	0.752701457032868	-0.644060417769301	0.75244892664615	-0.00247108078995492	0.0100034015659962
6.7	0.0061511908554649	-0.0089545813221747	-0.518519133391734	0.844047893250294	-0.51862242705569	0.843826480223886	-0.00248712916040348	0.00827766762762925
6.8	0.00353603771043961	-0.0100140944069109	-0.380647224044646	0.91397197547713	-0.380789341475215	0.913801278180367	-0.00328467506453089	0.00773071623506559
6.9	0.00104095284949294	-0.0103886681145216	-0.23450511705283	0.961177122927689	-0.234732030230333	0.961066924101584	-0.00383787763576779	0.00802816315620787
7	-0.000904667020089635	-0.009646076558563	-0.0833119527467685	0.987356327536631	-0.0835223030854064	0.987266442504214	-0.00379681950968098	0.00933364048251564
7.1	-0.00182283417171461	-0.00927811397831957	0.0728828919448927	0.988247778060231	0.0726800826388704	0.988114739632213	-0.00215032915872706	0.00999659760869087
7.2	-0.00297932734699743	-0.00903099297281695	0.225510166125651	0.963934339953273	0.225227535460312	0.963900549280082	-0.000728533979906536	0.0100354498044591
7.3	-0.00421591487359781	-0.00862254670329803	0.371989965895023	0.916940361786602	0.37175370731271	0.916967264730509	0.000641755894434156	0.00985923940778565
7.4	-0.00524134676569593	-0.00810396480787204	0.509798610684673	0.848617387474205	0.509584959820732	0.848669129586952	0.00176586638538594	0.00920410735342263
7.5	-0.00684159037184276	-0.00717237073454863	0.637230582097847	0.758380567906856	0.637060932995827	0.758451158299518	0.00213558311903001	0.00905250971820218
7.6	-0.0065151563620461	-0.00544674980865111	0.745833212404045	0.64838320709953	0.745575988065513	0.648466905900301	0.00454259409466152	0.00929342469666481
7.7	-0.00593285872596774	-0.00476036667351668	0.836497339127887	0.524991189964239	0.836312779331797	0.5252091089003	0.00700335148196315	0.0075744616820858
7.8	-0.00503969919451097	-0.00439961801069155	0.907817962274089	0.388821650799747	0.907715843437086	0.389047475582873	0.00883965640026574	0.00457748576440087
7.9	-0.00420471546254197	-0.00478625270293137	0.957388312915291	0.242566684998387	0.957251065708507	0.242747047126065	0.00908545919593505	9.52706793085846E-05
8	-0.00640793059114975	-0.00634279779405416	0.980980477663194	0.0899666913359124	0.980958904032829	0.0902290166707401	0.00401935931285998	-0.00482481443414486
8.1	-0.00691852050115414	-0.00296363517012826	0.982632051983083	-0.0611606928686266	0.98266169767144	-0.0609058447587953	-0.000143428430495809	-0.00208543480940278
8.2	-0.00574849953791767	-0.00138434727484415	0.961794636632998	-0.212735525373829	0.961843737288923	-0.212419144724591	-0.00159806193482328	-0.000346402098873906
8.3	-0.00457608484271584	3.71282415021962E-06	0.91698225341299	-0.359706410854149	0.917034366988512	-0.359419887256929	-0.00239009011044559	0.0015763346975461
8.4	-0.00218869193429324	0.000833357135703083	0.848886332740478	-0.497532352171822	0.848984551031697	-0.49733122663833	-0.00147056083428196	0.00292607818779081
8.5	-0.00144983548777368	-0.000893676929171705	0.76188398132729	-0.620737928763242	0.76193534555171	-0.620587805612796	-0.0025717966265116	0.00121372979406749
8.6	-0.00122030042671973	0.000899472447168219	0.657539637064218	-0.732654913529983	0.657708050579137	-0.732418328540616	-0.00464747195928734	0.00497477873955055
8.7	0.00111512051573025	0.00136012230414062	0.535051488837214	-0.826046855598919	0.535310605486434	-0.825832193493038	-0.00267440781139854	0.00802611280395246
8.8	0.00338132941453838	0.00085488543455876	0.400069270085604	-0.898379284598147	0.400254369487102	-0.898240850482179	0.000235834132317727	0.00958300674510203
8.9	0.0057663238775102	-0.000280408618299898	0.256598561805002	-0.948580230869061	0.256777233848119	-0.948410813981328	0.00432402201584965	0.00977787813706087
9	0.00766480362666771	-0.00302361717987098	0.10737846162787	-0.978553610564866	0.107686419576144	-0.9785070144677	0.00766708332747823	0.00736592572195356
9.1	0.00905672145456432	-0.00548397283179543	-0.0476545865833648	-0.983085295462122	-0.0473457200035147	-0.983044897538564	0.0104254726539379	0.00491209020335156
9.2	0.00947969090749536	-0.00908431379857955	-0.199427693153007	-0.962570481464186	-0.199080857516307	-0.962548829587671	0.0119288410066023	0.000590761545307449
9.3	0.00821251869282466	-0.0117190143709082	-0.345523761459707	-0.91977565976923	-0.345172737878188	-0.919750516820828	0.0111808711932693	-0.00325952366792948
9.4	0.00682212425524737	-0.0136058920340037	-0.483632693168787	-0.856119121514225	-0.483310082970529	-0.856209839837337	0.00934328586820082	-0.00657269473062245
9.5	0.00354460973499305	-0.012882891505068	-0.612681739962246	-0.769932177471589	-0.61244510519023	-0.769982928802654	0.00438603157471901	-0.00646030933509537
9.6	0.00549700610528202	-0.0112670200198709	-0.723003438667197	-0.663811341979715	-0.72269311081723	-0.663950281995567	0.00587983108258735	-0.0039912991258185
9.7	0.00632199431199691	-0.0125488277261539	-0.816278334487449	-0.544262351359326	-0.815992031807171	-0.544494815623658	0.0066520770815824	-0.00611406909818656
9.8	0.00628362165607307	-0.0136050483653211	-0.890911059949975	-0.411535282643175	-0.890658615788027	-0.411703894542118	0.00569417879604092	-0.00842283397385826
9.9	0.00636459798085346	-0.014991217777456	-0.944535083736094	-0.26766246465587	-0.944283656158017	-0.26787109690949	0.00401779971538136	-0.0116556960196676
10	0.00272576639948522	-0.016515257255678	-0.972066109491187	-0.116822107154454	-0.971913988533685	-0.117182957030467	-0.00357792277008736	-0.0140135842416525
10.1	0.00211443541266399	-0.0133086726832197	-0.978149453827208	0.0328616001097328	-0.978086093591042	0.0324323478693727	-0.00759802722173626	-0.00862290225839719
10.2	0.00306250162579767	-0.0130062928162691	-0.962109476809749	0.184104540235836	-0.961987848225235	0.183675269488185	-0.00830680664704959	-0.00575863207950549
10.3	0.0034014455579233	-0.0131231067414092	-0.921711658783021	0.331552714780444	-0.921728883830573	0.331013504623986	-0.00880229286695765	-0.00382859416413158
10.4	0.00396403367608633	-0.0142983528368576	-0.85766509899123	0.470086343290163	-0.857801160950155	0.469577919028052	-0.0086867544781972	-0.00333354573851844
10.5	0.0022351926348517	-0.0166471243480641	-0.775214916794515	0.594269758662822	-0.77538562719033	0.593840237233433	-0.0113975018177015	-0.00459205214392798
10.6	-0.000265740371614094	-0.0163143757221368	-0.675607961397066	0.708491799776789	-0.675878211979018	0.708162535121824	-0.0150477378098185	-0.00138171786218941
10.7	-0.00179982119103762	-0.015069136860712	-0.557229925180833	0.805133581563817	-0.55752850459096	0.804824878849141	-0.0162185654986892	0.00329534846936898
10.8	-0.0020242711736571	-0.0138777497963737	-0.42551833602367	0.881308355426893	-0.425866723417923	0.88101076153542	-0.0148637952390182	0.00808941159378622
10.9	-0.00175417745616658	-0.0132738905191876	-0.2849129524973	0.935787527183131	-0.285300668851043	0.935663816330496	-0.0121843256808166	0.0115741959053541
11	-0.00195879455667315	-0.0133729155347436	-0.137813820537365	0.971307177074255	-0.138249334737172	0.971214677493191	-0.00934892872219422	0.0141456338779827
11.1	-0.00159222348993361	-0.0135572561569504	0.0168000357795361	0.980933997046463	0.0163123781813036	0.980946199287919	-0.00483039882510086	0.0158244345653648
11.2	-0.00183253590302269	-0.0144830142952931	0.168508170561873	0.965615534985958	0.168052316458903	0.965687185586611	-0.00039196507277999	0.0156475863063631
11.3	-0.00240484557574393	-0.0152061811707448	0.315416413160152	0.928036848588039	0.314958368829661	0.928171474820722	0.00391524158683196	0.0143196726824463
11.4	-0.00341222819313907	-0.0166100085564952	0.455553331334679	0.869504451276555	0.455149743279473	0.869615755577309	0.00731124875534585	0.01131345026413
11.5	-0.00684879098929718	-0.0160124098802055	0.587651833986405	0.787380112862164	0.58733308293542	0.787681727550268	0.00693282524119962	0.00987785978720172
11.6	-0.0065385348142052	-0.0141314584285719	0.700752821119842	0.685070216535639	0.700537728016871	0.685396551142177	0.0108424938601886	0.010251285084034
11.7	-0.00672280389540097	-0.0140367734660104	0.797848410210478	0.569067217750239	0.797645047671201	0.569372182238277	0.0144489618975584	0.00696451693894586
11.8	-0.00734122213970096	-0.0138087171618066	0.877090475706206	0.438939999259706	0.876907756884509	0.439389129396627	0.0166586022429436	0.00251291382047011
11.9	-0.00772852434012593	-0.0142880003104384	0.935513212757843	0.296718297465413	0.935406729401339	0.297167200631107	0.0172644099141078	-0.00419187297805848
12	-0.0118593105746854	-0.0148858638419456	0.967843112783144	0.146677078119577	0.96781417522633	0.147039931375778	0.0109753404467931	-0.0104774755673083
12.1	-0.0129440495857098	-0.0108909169100525	0.978834438090226	-0.00265312003309038	0.978762472360511	-0.00227030924494717	0.00691542133611975	-0.00954100259699171
12.2	-0.0131458822058154	-0.00941124066507426	0.9675765259292	-0.154568334799428	0.967592924241514	-0.154271161388502	0.00434821659916442	-0.0101305716353093
12.3	-0.0138356622669618	-0.00751140507519973	0.93164476374671	-0.303278522311303	0.931763015684218	-0.30297240048735	0.0014062049400694	-0.0100831169865171
12.4	-0.0135925788318982	-0.00558081914058999	0.872061509348567	-0.443832981185608	0.872123399726316	-0.443464739239631	-0.00025917790394658	-0.00974484368867791
12.5	-0.0145952997904972	-0.00517962148075733	0.79387728062349	-0.570385316994362	0.794213564846782	-0.569994705153638	-0.00449760012068727	-0.0113504269535994
12.6	-0.0149054108180604	-0.00139316706858074	0.698147286177311	-0.688317705132438	0.698396694853817	-0.68807389528477	-0.00834490990526858	-0.00711442684559714
