# GHZ S RI R 50
0.2	-0.000332212897488719	-5.11424025700747E-05	0.948889322492344	-0.308046137536726	0.948667101195764	-0.308020674012502	-0.00027630408254734	-1.14851959920707E-05
0.3	-0.000390245009324752	8.09781993557567E-05	0.888848955064144	-0.451686201463407	0.888692811962992	-0.451590815297277	-0.000389982064726608	-0.00013503357503072
0.4	-0.000175290660174127	0.000171338114631119	0.807310573446263	-0.583893536290078	0.807322356436255	-0.583918648291198	-0.000323900766902427	-0.000153628358031735
0.5	-0.000185772594218887	0.000103945684480728	0.706575948110576	-0.702085792839999	0.706421001074006	-0.701984330108888	-0.000314526925813161	-0.000231378752196501
0.6	-0.000243920067608237	0.000256385785028495	0.588645934922274	-0.803077642555985	0.588526755649372	-0.802915973496811	-0.000395419932507404	-0.000231064159216714
0.7	-0.000127755454123241	0.000542521724604138	0.456542196583386	-0.884341074469069	0.456523461998756	-0.884228625252706	-0.000313668152863387	-0.000275911093961067
0.8	0.000193949658093091	0.000600245599239304	0.313550756129042	-0.944213937445258	0.313519449704256	-0.944024296072579	-0.000344849048262423	-0.000292440314837982
0.9	0.000503269161784773	0.000690660154943914	0.16310887312127	-0.981080218004338	0.163043889160583	-0.980988348978503	-0.000471982971447939	-0.000383368530723032
1	0.000835607324212878	0.000233463531116862	0.00879192280189266	-0.994206727160655	0.00874031019350714	-0.994175270632318	-0.000654167605318206	-0.000525265971179486
1.1	0.000570178639762162	-4.10027131399905E-05	-0.145632117175409	-0.983336125708009	-0.145647826410127	-0.983205769339624	-0.0011959358570547	-0.000220779633391898
1.2	0.000612483657570327	-0.000682905908958806	-0.296580534278085	-0.948457554287486	-0.296504215802015	-0.948431497343554	-0.000930721326718379	0.000633600214568446
1.3	0.000532140040138786	-0.00192271409679824	-0.440083627615823	-0.890653187784605	-0.44006061372689	-0.890646583437666	0.000462209303409171	0.00158185895438843
1.4	0.000298243398665224	-0.00350673851975836	-0.572667073503769	-0.811415335234924	-0.572642916919332	-0.811393724463648	0.00239580090902733	0.00130905320520073
1.5	-0.000271229667037637	-0.00419745313622124	-0.691732619615571	-0.712432958364789	-0.6916309381283	-0.712348098871843	0.00394706817143561	0.000124123663347807
1.6	-0.000355567135279309	-0.00416633892697517	-0.793596613964156	-0.596153333789449	-0.793522619037607	-0.596093388299048	0.00419880318519694	-0.00141896372694996
1.7	-0.000423469743320386	-0.00422489322954954	-0.875882668487114	-0.466217760432217	-0.876046694811913	-0.465702221397936	0.00379214127592301	-0.00277223238448674
1.8	-0.00081426917361583	-0.00433409492414688	-0.937638349163066	-0.324197878049669	-0.93752722753198	-0.324196524256805	0.00280617702537084	-0.00384817799169283
1.9	-0.0013373640467684	-0.0043973041249406	-0.976308974117691	-0.17514895488254	-0.976401714710251	-0.174661989036821	0.00166741043830283	-0.0044368356105138
2	-0.00247586741316077	-0.00429756531822946	-0.991226542144309	-0.0209785020432828	-0.991238455583106	-0.0209327132561839	0.000539985671918756	-0.0046242535863084
2.1	-0.00312447936056555	-0.00335920455219976	-0.982354412665853	0.13288778838174	-0.982392467210495	0.132924824511682	-0.00020678584125957	-0.0044685422051791
2.2	-0.00363012408790595	-0.00283381629851888	-0.949858739372678	0.283581461035744	-0.94978376214253	0.283644190119902	-0.000816292018161675	-0.00445743072019457
2.3	-0.00415499245753119	-0.00222993585897059	-0.89443801332091	0.426876040443001	-0.894056452954891	0.427388651953695	-0.00160865306039587	-0.00448137188826278
2.4	-0.00474800122590854	-0.00171505319189612	-0.81643409241535	0.561412513588514	-0.816700178589005	0.560827434848778	-0.00253770183242987	-0.00431707355520944
2.5	-0.00562922455629697	-0.00104090934282462	-0.719791628606213	0.68099606045455	-0.720004725417352	0.680486823149478	-0.00322448267167126	-0.00412978061267576
2.6	-0.0062935821101602	0.000509302471893619	-0.605824077256438	0.784156777247884	-0.60571799875371	0.783974327180558	-0.00340116992483846	-0.00353274957118389
2.7	-0.00601367032697821	0.00202087987576674	-0.476210749138894	0.868800760727418	-0.476659103764147	0.868394135245894	-0.00336383069983608	-0.00329168782935036
2.8	-0.00511823441595119	0.00316704786870367	-0.3368997794756	0.931577220323262	-0.33623297606463	0.931736150428512	-0.00348525965759438	-0.00308246745773704
2.9	-0.00360650713068264	0.00386644339555521	-0.187792333617976	0.972565932912898	-0.187823496698762	0.972478651205865	-0.00312227503612105	-0.00244027992123144
3	-0.00198831906266336	0.00410707701108533	-0.0338263972122652	0.990110973485485	-0.0345267199724526	0.989952212490521	-0.00241755480686744	-0.00181873583748681
3.1	-4.88519462819465E-05	0.00386010811223376	0.118883179404517	0.983217301049683	0.119473257016455	0.983199695280393	-0.00132107031079243	-0.00162295090979267
3.2	0.00135303676424638	0.00286478318014325	0.270460326672182	0.952640040243646	0.27040560548667	0.952579771349679	-0.000735205521350835	-0.00177807623178927
3.3	0.00253687761023633	0.00163220396752217	0.41510125348361	0.899080417220209	0.414964222397797	0.899066171792152	-1.12298011455873E-05	-0.00195947880708416
3.4	0.00307149899414446	9.72968823410562E-05	0.549592163894939	0.823842579695323	0.549430013505738	0.823960347279229	0.000770237840356715	-0.00258845599295107
3.5	0.00318542325923416	-0.00114746689737257	0.670795040562351	0.728545799779379	0.67071550470491	0.728584515751262	0.00131454973388424	-0.00321243190436469
3.6	0.00321839429543361	-0.00228665858707645	0.775075140793249	0.616082799416107	0.775315969438651	0.615634582103534	0.00169964130870137	-0.00416952452478842
3.7	0.00299977279318351	-0.00369892220810994	0.861588827925312	0.487855806504377	0.861470596885662	0.487998774281926	0.00160889681972777	-0.00510216208315437
3.8	0.002208927296126	-0.00502353302757451	0.926690285215222	0.348803309291593	0.926747107798768	0.348424388101332	0.00121744153394114	-0.00597075849949132
3.9	0.00124744088750933	-0.0063006296138386	0.969767226209325	0.199548749012286	0.969528900326881	0.200215760439379	0.000225632664234863	-0.00695463103961972
4	-0.000723047743156553	-0.00713448751569329	0.98879260194197	0.0474923556864527	0.988753665498266	0.0475951376017548	-0.000721806113409989	-0.00740082305513037
4.1	-0.0023779551253877	-0.00717351108607359	0.984439888688172	-0.106323791444117	0.98425545468968	-0.106196780461888	-0.0014226034265332	-0.00791826048747798
4.2	-0.00420751177102155	-0.00709026018305594	0.955776571780514	-0.258517377650584	0.955811407669175	-0.257863909493117	-0.00247401109388708	-0.00853490719069602
4.3	-0.00596463477857643	-0.00684008828610283	0.904385205493244	-0.403116443983694	0.904249375056209	-0.403005410456219	-0.00377860038950021	-0.00912323182323788
4.4	-0.00784239989033284	-0.00629755673974195	0.830854901334023	-0.538473121434813	0.830689732626783	-0.538339913239725	-0.00534635549681082	-0.00948518121926233
4.5	-0.0100175837803602	-0.00565927912859538	0.737527976750199	-0.660836684303727	0.73733910448716	-0.660663706890676	-0.0071040022023614	-0.00956325400371351
4.6	-0.0123443167883866	-0.00382075618438654	0.625625194367988	-0.767985725497216	0.625966639655002	-0.767287533953082	-0.00877068823726916	-0.00934791068958522
4.7	-0.0139643832160303	-0.00162099559022522	0.499202670565275	-0.855606240614162	0.499218896563732	-0.855250319232152	-0.0106038036027287	-0.00915277195113685
4.8	-0.0150464218324823	0.00121424198653491	0.360103721085465	-0.922616048817601	0.36032512275588	-0.922299366291944	-0.0123587325056493	-0.00849954651217087
4.9	-0.0150104383272474	0.0040257993254367	0.213053319232197	-0.966886366493131	0.2128332118031	-0.966894326051719	-0.0136642938537151	-0.00743680280527188
5	-0.0142219787296237	0.00679924240802641	0.0601236129657196	-0.988462412324898	0.0603008046402925	-0.988216760203491	-0.0142936798361616	-0.0058482306392859
5.1	-0.0122045895481449	0.0091182529868515	-0.0940419359436307	-0.985831355968386	-0.0937101059270129	-0.985605724781693	-0.0143865943891439	-0.00442554224798243
5.2	-0.00980545107211178	0.0108142529908205	-0.246027460864456	-0.959287577966264	-0.245535128562246	-0.959260500376272	-0.0145568509034766	-0.00285775696289749
5.3	-0.00725876583248589	0.0116989989454614	-0.391942193427966	-0.90957610271991	-0.39160105592296	-0.909792370019772	-0.0142820451954239	-0.00116497485938989
5.4	-0.00492762052844668	0.0122845288059763	-0.528594775107829	-0.837848426912521	-0.528381665956035	-0.838049342905338	-0.0137574896435986	0.000499933525866159
5.5	-0.00290319834095839	0.0130188132221235	-0.652462745690242	-0.745371243567854	-0.652223466188728	-0.745566175421892	-0.0128360840029559	0.00202330055192856
5.6	0.000182243290748112	0.0136877796721117	-0.759944537237944	-0.634960380304433	-0.759754568178106	-0.63513237156043	-0.011774863671534	0.00272298877483014
5.7	0.0031072014023973	0.0130734408839697	-0.849388791383482	-0.509352087497086	-0.849259223106421	-0.509572122787898	-0.0113408343256538	0.00354893539637196
5.8	0.00567309783191146	0.0119100798363585	-0.91813658087839	-0.371172866597299	-0.918068534547511	-0.371458167713609	-0.0108879946561555	0.004631753161245
5.9	0.00759717680028211	0.00979004634793977	-0.96463243071783	-0.224129308849122	-0.964646896688021	-0.224213047826984	-0.0104476762859605	0.00575326904517936
6	0.00805593206553769	0.00785406739551357	-0.987611545381927	-0.0717768091315061	-0.98749214208909	-0.0718348673268635	-0.00991333701087588	0.00732008689038711
6.1	0.00867470954686118	0.00675149490171283	-0.98690095928387	0.0823150393736461	-0.986774099017728	0.0821664419151341	-0.00846655487345561	0.00839826530467541
6.2	0.0092934226471949	0.00539235302516842	-0.962124092456783	0.234742106923923	-0.962110327376467	0.234539033211736	-0.00732721296436947	0.00882798307538746
6.3	0.00971363697820942	0.00360194199437243	-0.913947363694257	0.381355401463824	-0.913942829819163	0.381169837091134	-0.00618343620733125	0.00888855884469698
6.4	0.00980075305710006	0.00132866725866113	-0.843546172454276	0.518615001057854	-0.84351447781785	0.518404099954033	-0.00531840897244662	0.0084839868079188
6.5	0.00908496373605528	-0.00118439935667295	-0.752895604887977	0.643230008008411	-0.752919791770114	0.6430256682647	-0.00470012654028931	0.00797299723418126
6.6	0.00807655632511875	-0.00340550374243785	-0.643777665896052	0.752636663604157	-0.643851762638499	0.752384189020941	-0.00420430977547524	0.00757255072508265
6.7	0.00640038267393233	-0.00542551293676511	-0.518829132458649	0.843412837056417	-0.518932253395848	0.843191446475046	-0.00389366244341848	0.00740801469041269
6.8	0.00448724620973633	-0.0067773271686207	-0.381463360115037	0.913664268399319	-0.381605331654892	0.913493440885757	-0.00346348339599365	0.00752620608995978
6.9	0.00230754813839377	-0.00761934157832216	-0.234946470816703	0.961713074828367	-0.235173493919054	0.961602737248594	-0.00268743799814794	0.00765194882670637
7	0.000435712911358052	-0.00768177895788712	-0.0826031607296656	0.986610161421684	-0.0828133989233764	0.986520486029117	-0.001654236259731	0.00746851913823104
7.1	-0.0012021719301302	-0.0075955345556681	0.0718451443191197	0.987166433572062	0.0716426996570681	0.987033354660066	-0.000788937654277749	0.00707173346562753
7.2	-0.00270173417614185	-0.00724743598373375	0.22422552377148	0.963775391669334	0.223943062309707	0.96374126949254	0.00016824080739143	0.00681258153672556
7.3	-0.00422976973206579	-0.00672563379536958	0.371064733233492	0.917133296437201	0.370828489731212	0.917159972763718	0.00111019835078221	0.00633289625621518
7.4	-0.00549205043917078	-0.00587793675346283	0.50901872760594	0.848256675790921	0.508805204918916	0.848308276560567	0.00178108385671846	0.00564431373106626
7.5	-0.00659209145816358	-0.00474298299621913	0.6345464439811	0.758485881667621	0.634376925494217	0.758555991137513	0.00256020128717668	0.00508838983180138
7.6	-0.00671818173100154	-0.00344386143379436	0.744279881786808	0.650555659324606	0.744022366422884	0.65063868758348	0.00353148922923134	0.00387881261297897
7.7	-0.00661747801409803	-0.00245394715773007	0.836020726913224	0.527034159778451	0.835835601882845	0.527251858550824	0.00377715156542956	0.00256727903752009
7.8	-0.00615819939321717	-0.00165290612694499	0.907607798792445	0.39064803595203	0.90750522276147	0.390873798820644	0.00381080051567703	0.0013690063269303
7.9	-0.00591330477511621	-0.00119885863502905	0.957021579852286	0.244932668907048	0.956883866005575	0.245112740987582	0.00351880685872081	0.000574516065747439
8	-0.00604593728016874	-0.000466220970541365	0.982858202050335	0.0934848643433496	0.982835693143429	0.0937477001968884	0.00309549853477108	0.000244233324038477
8.1	-0.00561573020515643	0.00100744290341626	0.985546549365402	-0.0600504379771368	0.985575946859358	-0.0597948159412161	0.0031763723143193	-0.000393752632276161
8.2	-0.00456082059052946	0.00200867216417743	0.964093057584647	-0.212405058118369	0.964142003477756	-0.212087938768547	0.00243943686245623	-0.00128007369937158
8.3	-0.00347898504549753	0.00281654628275469	0.919186037362958	-0.359447475722381	0.919237950260673	-0.359160327525293	0.00132163087386569	-0.00163849239041906
8.4	-0.00202256530383108	0.00314713994318548	0.852027078702777	-0.497607480293887	0.852125259886748	-0.497405641047883	0.000131844492835477	-0.00156938279649159
8.5	-0.0013300619868083	0.00302760248445588	0.764590099739208	-0.62358870681185	0.764641744236045	-0.623438014329037	-0.000920866772833809	-0.000754738889354039
8.6	-0.000252458424824663	0.00371100750065558	0.658141871940254	-0.734862975244077	0.658310882115131	-0.734626074291994	-0.000794811337490946	0.000246584160854977
8.7	0.00136569336215492	0.00399496321725522	0.535726175902609	-0.827835972539118	0.535985873100366	-0.827621009899781	-0.000554796909726799	0.000768107333832723
8.8	0.00342903075250493	0.0037802868094028	0.400710128340847	-0.900630221895225	0.40089571032645	-0.900491523789092	-0.000355562083198756	0.00119914656291707
8.9	0.00564224737761098	0.00281073175990812	0.256106432475974	-0.951743893381976	0.256285860766395	-0.951574208711143	0.000315109843411941	0.00187542185161021
9	0.00769638492802307	0.000771909721160422	0.104972751715798	-0.979768441275422	0.105281124706137	-0.979722590025816	0.00172388093882613	0.00246111820036381
9.1	0.00923931287313645	-0.0016622759888317	-0.0483906789778243	-0.983619333920813	-0.0480816047430579	-0.98357913521547	0.00388603993858727	0.00226283951389902
9.2	0.0100057835622116	-0.00456000411260798	-0.200323259046933	-0.963776759200177	-0.199975928645527	-0.963755300296206	0.00604753486214284	0.00125307554271307
9.3	0.00978384724318209	-0.00706471361380989	-0.347251142928034	-0.920797199776815	-0.346899528444058	-0.920772466087249	0.00815419476859896	-0.000365647126891543
9.4	0.00896677247599202	-0.00933516115482211	-0.485756976186999	-0.855628549906308	-0.485434356113107	-0.855720011130136	0.00978556180433892	-0.00284595305701463
9.5	0.0072844770905343	-0.0100386241795259	-0.612354290219194	-0.769358371256088	-0.612117817541414	-0.769409113233876	0.0104685073586171	-0.00573092281182556
9.6	0.00694040974001388	-0.0103996011423725	-0.723787448127671	-0.664905783904005	-0.723476664490163	-0.665044823220414	0.00991674066196034	-0.00928134023924956
9.7	0.00639451095318121	-0.0109078261537448	-0.817873089401005	-0.544600803133539	-0.817586487495987	-0.544833802312148	0.00740456657407307	-0.0122599498743438
9.8	0.00582079119661689	-0.0114631035074047	-0.89221506610736	-0.411130305893869	-0.891962518059362	-0.411299327329003	0.00399305085674235	-0.0139947206135857
9.9	0.00496640219287294	-0.011965382331131	-0.944894961475349	-0.267685625181325	-0.944643459512249	-0.267894352102947	0.00023620345430209	-0.0143556799439509
10	0.00325028906650847	-0.011921563503086	-0.974464925269234	-0.118123620204319	-0.974312039643952	-0.118485248682563	-0.00317269322647015	-0.0132356403075093
10.1	0.00259578226112259	-0.0107618386865988	-0.980951224588709	0.0342203354407524	-0.980888234426097	0.0337897531781674	-0.00576594554440856	-0.0120161692151443
10.2	0.00258410654229239	-0.0102933669134615	-0.963705097364173	0.1859608211358	-0.963583898418184	0.185530521520132	-0.00866349552634907	-0.0102278869950165
10.3	0.002573335687844	-0.0100693289003221	-0.922943466135693	0.333107457956669	-0.922961296637904	0.332567338374549	-0.0111839604851537	-0.00762113717779619
10.4	0.00259645040618482	-0.0106791470771448	-0.859868634070282	0.471798884505724	-0.860005309474236	0.471289089307883	-0.012848251953024	-0.00456404241883272
10.5	0.0017238950084495	-0.0114555436621152	-0.776542713061672	0.599143912893677	-0.776715472152309	0.59871315865426	-0.01326184416532	-0.00128939993356565
10.6	0.000634424192157572	-0.011813282510595	-0.674107477985078	0.712286059275248	-0.674379447322852	0.711957242467428	-0.0125115178977896	0.00146427397105943
10.7	-0.000534701252077236	-0.0116545305778717	-0.555416285200438	0.807958397059207	-0.55571623509233	0.807650233442529	-0.0113041225037551	0.00378589132302437
10.8	-0.00142662361477915	-0.0114271472642492	-0.423458879959505	0.884023031671859	-0.423808741093032	0.88372604752955	-0.00970136578596191	0.00581702071390308
10.9	-0.00225755193191955	-0.0108895749740994	-0.281505800419965	0.938883252389914	-0.281894822959445	0.938760941903737	-0.00782283859240423	0.00759617987957219
11	-0.00280009429667603	-0.0104918499763946	-0.132337741347307	0.97131317015071	-0.132773427366108	0.971223149182076	-0.00518455674610295	0.00887325241626996
11.1	-0.00299973009575531	-0.0100700984260844	0.0199372371877876	0.979530154050162	0.0194502897290667	0.97954391045114	-0.00232322529920067	0.00925146402424209
11.2	-0.00315580649642769	-0.0101312049988798	0.171271888885103	0.964437945175377	0.170816567068862	0.964510905998851	0.000610539974041943	0.0089913697533579
11.3	-0.00344275100271847	-0.0102933318972799	0.318466209333626	0.92626240518865	0.318008966505374	0.926398551697491	0.00362247876830188	0.00816607644295687
11.4	-0.0041626248070848	-0.0107331120440009	0.458224208070865	0.865756509261324	0.457821940834911	0.865869265519117	0.00635540472600975	0.00696603521262144
11.5	-0.00532842279228287	-0.0102054358811521	0.586703370896702	0.783780695195122	0.586386167295815	0.784081702063558	0.00909662327251618	0.00529235365238991
11.6	-0.00566523329040041	-0.00979220904209206	0.700547931734662	0.683546050254821	0.70033341987135	0.683872189051327	0.0110704346717103	0.00231968449685438
11.7	-0.00607642883278013	-0.00956117773422862	0.797960014688254	0.566930867230004	0.797757452122812	0.567235848335899	0.0117420136427134	-0.000644245606172156
11.8	-0.00675995581192387	-0.00968458812137285	0.876245179353328	0.436344261813734	0.87606370750476	0.436792875820023	0.0115398685407889	-0.00342979786760018
11.9	-0.00755112917578177	-0.00997435228815413	0.933142894644764	0.295285190802096	0.933037000475558	0.295732932834456	0.0107717653501915	-0.00554710190011227
12	-0.0105539575714416	-0.00962147272848401	0.967426106540575	0.147621800787459	0.967396807461036	0.147984524204064	0.00957047607633086	-0.00712023049388468
12.1	-0.0123059137851325	-0.00789073700773813	0.978989241382401	-0.00388985116725701	0.978917747463281	-0.00350688753755051	0.00874599749217473	-0.00938233167299159
12.2	-0.0138799538502362	-0.0058953313920806	0.966724548423994	-0.15571604315756	0.966741320175997	-0.155419091163375	0.00649728051582326	-0.011147159936328
12.3	-0.0147532545781494	-0.0033311148745352	0.930783962072038	-0.303662807806492	0.930902326994817	-0.303356980811556	0.00406152046093136	-0.0120798504001765
12.4	-0.0150031275927461	-0.00107258647426377	0.872737980310598	-0.444107445241727	0.872799893266612	-0.443738925639803	0.0015680208727039	-0.0123906537509019
12.5	-0.0151281649919603	0.00112340320450278	0.793757008390154	-0.574097228980908	0.794095236581348	-0.573706851594452	-0.000770455918570415	-0.0118496088676202
