# GHZ S RI R 50
0.2	-1.37825307208629E-05	-0.000689328631815879	0.951411252869825	-0.307398366933752	0.951188506220681	-0.307373157985391	3.75625014075071E-05	-0.000644126564881713
0.3	-0.000508897714706744	-0.000663008086425136	0.892083475081049	-0.451378284013266	0.891926735783877	-0.4512829077961	-0.000513937759158376	-0.000868164557005961
0.4	-0.000896971469863187	-0.000360381827681165	0.811308084010804	-0.584395258583032	0.811319957580356	-0.58442043673623	-0.00104929921466279	-0.000669663805861786
0.5	-0.000770345013432007	0.000627534660461122	0.710529803801872	-0.704236438023006	0.710374056190263	-0.704134731391002	-0.000901884410296528	0.000308640104866575
0.6	-8.34668993189055E-05	0.000224773916632698	0.591894105542852	-0.805661323645133	0.591774269646633	-0.805499135210593	-0.000242800586583665	-0.000240983193520135
0.7	-0.000357635737563805	0.000167997190178259	0.459707654672694	-0.887670302589855	0.459688691810656	-0.887557379266838	-0.00055005259953718	-0.000619058281377613
0.8	-0.000395851757827209	0.000149922943167133	0.31616584942709	-0.94859904712625	0.316134176465341	-0.948408490029261	-0.000935203593624924	-0.000700720492014278
0.9	-0.00095212738734473	0.000206422748010178	0.164454907988581	-0.986368357462788	0.164389526198883	-0.98627601628427	-0.00191164313935907	-0.000818023525811354
1	-0.00123833672941559	0.00204858683973905	0.00876278855464921	-0.998964227347846	0.00871093125840115	-0.998932616613876	-0.00269356748045667	0.00132229607795239
1.1	0.00129934188250358	0.00165168004216322	-0.145693574316948	-0.988486079340587	-0.145709455157187	-0.988355064752764	-0.00045238248674848	0.00146803427668603
1.2	0.0017823709180357	-0.000627985312919564	-0.298003907380792	-0.95411152729864	-0.297927150507769	-0.954085292498543	0.000245420867832109	0.000670090085445787
1.3	0.00180759391959477	-0.00337335683503032	-0.443009289457771	-0.895977651796806	-0.442986133253655	-0.895971013225478	0.00170770170149503	0.00012423142504758
1.4	0.00109086882472046	-0.00591753683725846	-0.576599724400191	-0.815721763917297	-0.576575411230297	-0.815700044960149	0.00312511947944998	-0.00106962549810013
1.5	0.00154429375092972	-0.00744150385265529	-0.695672546935048	-0.716664144467302	-0.695570283917339	-0.716578778599375	0.00569509137727372	-0.00306050040267404
1.6	-0.00121617081936545	-0.00894422852908305	-0.799687645631027	-0.600177973558623	-0.799613080859817	-0.600117620735057	0.00328923883116579	-0.00603549116270503
1.7	-0.00288548145329348	-0.0070910867232753	-0.883154696742096	-0.468373855129717	-0.883319165292971	-0.46785420416653	0.00133685617570018	-0.00547925553780708
1.8	-0.00366495650155565	-0.00552713378333873	-0.945190937782746	-0.324600015024917	-0.945078999107942	-0.324598885139097	4.44026174067806E-06	-0.00490563411590937
1.9	-0.00405498125573099	-0.00331279161266154	-0.98379556392659	-0.174387046904671	-0.983887963759027	-0.173896335619651	-0.000974360823316983	-0.00324852703097709
2	-0.0013367794908685	-0.00215536294411986	-1.00000140733072	-0.0187255059408684	-1.00001331306156	-0.0186792848643238	0.0017489216242332	-0.00242253229101469
2.1	-0.0022747378444397	-0.00457533298085065	-0.990158104221796	0.138540144812863	-0.990196314557378	0.138577673119705	0.000683680470824473	-0.00562454828361935
2.2	-0.00431967437492505	-0.00388231131099384	-0.955820381709189	0.290712614602144	-0.955744493608822	0.290775446474005	-0.00145156152337916	-0.00543667392459812
2.3	-0.00552985338042443	-0.00263232203854051	-0.898920136401514	0.435049045491963	-0.898532846867455	0.435563473485071	-0.0029045333407622	-0.00482895606109787
2.4	-0.00680706070309565	-0.000734618232049501	-0.819626809626735	0.570865622342985	-0.819898571985077	0.570277433316355	-0.00449247980539183	-0.00333032062899463
2.5	-0.00509087908980796	0.00233059280461805	-0.719853434044659	0.692435891622893	-0.72007248021578	0.691924368741183	-0.00261795348844903	-0.000846461144390638
2.6	-0.00364989842993102	0.00090992243648286	-0.602574132589832	0.794062773248372	-0.602469016260714	0.793878322074992	-0.000762267442118304	-0.00321649935331065
2.7	-0.00420575590650787	0.000644640714310114	-0.471406094712782	0.877691369268587	-0.471860415440582	0.877286332403058	-0.00160415297720665	-0.00472559606103684
2.8	-0.00450265981083467	0.00105314723090526	-0.330256867062723	0.939663253102896	-0.329585022529463	0.939816984794312	-0.00294847247789638	-0.00522440121938753
2.9	-0.00385023039611898	0.00188172140502496	-0.178687737545247	0.97931514201803	-0.178719955269571	0.979227749997211	-0.00348491581115363	-0.00437371948899994
3	-0.0025057659609448	0.00171892962647597	-0.0230516773149986	0.992912303106819	-0.0237554601441546	0.992760832296062	-0.00305568747780746	-0.00409376503817101
3.1	-0.0022045756325272	0.0018900366371791	0.12846295940294	0.984234680617568	0.129054157040775	0.98421144275893	-0.00356390181028685	-0.00354518894382318
3.2	-0.00107016728191885	0.00210616703031483	0.280523240396924	0.952142605845238	0.280467796370984	0.952082741234995	-0.0032133020793328	-0.00238360027332267
3.3	0.000256479117560448	0.00184143846308044	0.425274541607547	0.896148667227804	0.425137138206724	0.896135846892344	-0.0023178260063888	-0.00159266084089676
3.4	0.00158411123376657	0.00147039905025407	0.558595989524059	0.817957567937521	0.558435101653799	0.818077108651636	-0.00072880527044836	-0.00106826934372514
3.5	0.00376524353378442	-0.000765733055102489	0.67683277622622	0.722011276909663	0.676753644685985	0.72205067702303	0.00187622327426032	-0.00270098390489087
3.6	0.00218518735194247	-0.00313150342950032	0.781350740793342	0.609109968596671	0.781587470203138	0.608659213960099	0.000650457987314142	-0.00486112454947925
3.7	0.00132026695804073	-0.00362430438775447	0.866476085450228	0.478839815206128	0.866359357619229	0.478983980011041	-5.47620150572806E-05	-0.00486342454037578
3.8	0.000439794989427613	-0.00412225811938394	0.929161352877325	0.338715914790961	0.929214158275045	0.338336876707502	-0.000504506644507816	-0.00492459915002559
3.9	-0.000235463470665976	-0.00388855750847799	0.969770674914558	0.189871759140322	0.969539203683883	0.190539740635563	-0.00119362826973757	-0.00444011258261158
4	0.00114811955777804	-0.00431347119015853	0.988807942821136	0.038058292181377	0.988770002037087	0.0381613993594807	0.00116669592180322	-0.00453543378216228
4.1	-0.000706549816974655	-0.00737843312767877	0.981613347718802	-0.117591693995905	0.981430687728897	-0.11746274505979	0.000209108819914402	-0.0080561967000108
4.2	-0.00372260104032882	-0.00760197989428795	0.94973841416948	-0.268653468556097	0.949780636245741	-0.268002500335361	-0.00203899418324019	-0.00895887553935338
4.3	-0.00625083016518147	-0.00728631160550617	0.89636462363351	-0.411436168362805	0.89623055180482	-0.411324086117058	-0.0041150827388169	-0.00946628515007252
4.4	-0.00918893044270621	-0.00577428147449728	0.821870519533791	-0.545375688627326	0.821707419061428	-0.545241208270348	-0.00673284811240678	-0.00887355189918436
4.5	-0.00956248036599285	-0.0028616884050647	0.725643466017365	-0.667421683212246	0.725457685786619	-0.667247036302383	-0.00673759009763538	-0.00673595584517589
4.6	-0.0102619541875982	-0.00315029913778657	0.611477427124535	-0.769809932699519	0.611824823288495	-0.769121220550201	-0.00687159034462432	-0.00860022196021709
4.7	-0.0124108469078146	-0.00198692686111274	0.485642146812782	-0.853948124963059	0.485662145607977	-0.853595351736624	-0.00927973974294954	-0.0093670284897064
4.8	-0.0140054801228803	0.000319806749402599	0.34724663799077	-0.91834608300139	0.347469438700664	-0.918034497519297	-0.0115621893642076	-0.00917149938944012
4.9	-0.0144887586544126	0.00308422812694358	0.200404621719285	-0.960080329589448	0.20018650947112	-0.960085793338713	-0.0133854786791945	-0.00806783757528662
5	-0.0134431305316508	0.00532547148949944	0.0489863771820349	-0.976524113130029	0.0491638935130555	-0.976283444112404	-0.0137307179134642	-0.0068921721681944
5.1	-0.013146534020712	0.00721364097830337	-0.100203177894273	-0.972438755520101	-0.0998739319231783	-0.972218509918583	-0.0154258745328259	-0.00583774706944457
5.2	-0.0116308364842135	0.0101085412552292	-0.24954567718218	-0.945527179953309	-0.249059350076887	-0.94550383656104	-0.0163625737766219	-0.00306529615409847
5.3	-0.00902750147250147	0.0124763376941275	-0.392743280046599	-0.89500317073811	-0.392408062927976	-0.895218824646662	-0.0159335751578379	6.52186260782368E-05
5.4	-0.00503188636318833	0.0148375691613637	-0.525583436849628	-0.82245109320595	-0.52537462441242	-0.822650261735698	-0.013704684460136	0.00343588955269284
5.5	0.000804246594230472	0.0127818233688072	-0.644240668132402	-0.732644320155308	-0.644005442085813	-0.732836832315625	-0.00898997255322709	0.0021080414748509
5.6	0.000292776697474096	0.0107926349444716	-0.751268900735055	-0.625115486180096	-0.751081765780212	-0.625285606978559	-0.0115300296895713	0.00018985166545458
5.7	0.00143475662971631	0.0115375726585588	-0.838972285461184	-0.500691284413538	-0.838844928689717	-0.500908616230214	-0.0128068257929603	0.00236015307967428
5.8	0.00333244038987857	0.0118691009423265	-0.905518700645447	-0.364780905710311	-0.905451967617164	-0.365062228693239	-0.0129339121207625	0.00487566747356514
5.9	0.00555534990902085	0.0125645244815689	-0.950508555451629	-0.221648398063757	-0.950522746466585	-0.221730937553314	-0.0121604901679526	0.0086577035173511
6	0.0116027216844595	0.0111122278611343	-0.975812597820841	-0.0725619511849298	-0.975694510840755	-0.0726191249693116	-0.00620580850744671	0.0105741293251312
6.1	0.0117234678655544	0.00509526345179159	-0.974458039814367	0.0812553228117648	-0.974332776089056	0.0811086023189527	-0.00535771441947819	0.00683514854113273
6.2	0.010255622461157	0.00293798965510537	-0.949196504023336	0.23048975750401	-0.949182708682409	0.230289480919304	-0.00630541440711769	0.00651921117138451
6.3	0.00913687821178778	0.00124573668932714	-0.902367778794449	0.373850944903013	-0.902362844725046	0.373667935934569	-0.00665827481160032	0.00672417161010765
6.4	0.0081202914800712	0.000109297450146274	-0.834769389155935	0.509214343835129	-0.834737364725488	0.509006192966141	-0.00685501865176226	0.0074503179092033
6.5	0.00771274887120204	-0.00162923497768736	-0.74447205970044	0.634038556314427	-0.744495631337044	0.633836733170584	-0.0058664992725645	0.00769089378609376
6.6	0.00639310214079921	-0.00314814959398453	-0.636559831788239	0.739318543296622	-0.636632011706389	0.739069607452322	-0.00563077266584873	0.00787968381971449
6.7	0.00543674045660212	-0.00433744480311552	-0.515678306381122	0.828402176108961	-0.515778765484573	0.828183473611457	-0.00465115914128518	0.00843938607163786
6.8	0.00439674765494167	-0.00564758313566064	-0.381849970821438	0.898744746196565	-0.38198893618995	0.898575393065563	-0.00343930180177829	0.0085370683119984
6.9	0.00307876782297066	-0.00680537094003567	-0.237436903555226	0.947454444810137	-0.237660239057195	0.947344254408556	-0.00194154888194815	0.00837372908141941
7	0.00135782767553613	-0.00837305598332757	-0.0880277359180917	0.970219388725173	-0.0882339882917048	0.970129713566453	-0.000842866160762427	0.00669788763020627
7.1	-0.00148029434946133	-0.00827438842394026	0.060456517137224	0.973289979111393	0.0602584641562365	0.97315675497935	-0.00127025078521971	0.00637539618874713
7.2	-0.00316566164125588	-0.00753763680275045	0.210473387790349	0.95351044767846	0.210195051543206	0.953473618185478	-0.000539163125105418	0.00658220397550825
7.3	-0.00474318399176456	-0.00676637692532003	0.355744893737264	0.909744467752751	0.355511349591183	0.909768075055781	0.00032371028898121	0.00642284606883915
7.4	-0.00574490868720159	-0.00548527722430231	0.49160210381859	0.843226496076536	0.491390802394432	0.843274739700703	0.00124249549330308	0.00626425724189311
7.5	-0.00576251039891998	-0.00520870519839609	0.614150480523023	0.759575637033251	0.613981903545109	0.759642076484384	0.00305917722365419	0.00493814888761959
7.6	-0.00752807632311612	-0.00494117461156642	0.726961279627514	0.657151996322324	0.726704655794937	0.657230031054189	0.00252209434595682	0.00281817674366376
7.7	-0.00855859255170716	-0.00302777564310787	0.820764582287064	0.536299229511891	0.820577430567201	0.536512181629398	0.00174511305832354	0.00246505906547993
7.8	-0.00863600332566517	-0.000861079384068019	0.894119302920866	0.40295411561333	0.894013706969356	0.403176432305904	0.00134323857827075	0.00259195513115891
7.9	-0.00800535464724584	0.00213592745767647	0.946170910188505	0.26126495774696	0.946030722688508	0.26144127108411	0.00167536030386624	0.00423644772717876
8	-0.00267094404896337	0.00348680703425093	0.978984012415914	0.111862071178693	0.978956583741696	0.112123918084825	0.00634065481471222	0.00451526045736885
8.1	-0.00213290749397405	0.000319770717663504	0.984541123286498	-0.0436680839431154	0.9845662436824	-0.0434124946280293	0.00658137077495903	-0.000867689042914351
8.2	-0.00286237842737799	0.000151522101093171	0.965684984518799	-0.195573596110766	0.965728437832836	-0.195256308715528	0.00403131643645651	-0.00283800940963782
8.3	-0.00334915357750626	0.000545782913969578	0.924701162995946	-0.342690212760685	0.92474790015056	-0.342402419242813	0.00137957744082331	-0.0035570058878633
8.4	-0.00412090697622508	0.00207364031061017	0.862324039784361	-0.483014229232802	0.86241873334505	-0.482810305961422	-0.00198672691081332	-0.00231672772443979
8.5	-0.000924540643347685	0.00526057675553818	0.775667468242657	-0.613865833061478	0.77571702022829	-0.61371400722973	-0.000604637059898495	0.00174858849131287
8.6	0.00154935528889835	0.00231469695357292	0.670146198244869	-0.724960202192618	0.670311582743876	-0.724720485556092	0.000909015383779284	-0.000760547539734448
8.7	0.00121647912807917	0.00158100998015251	0.550822100283378	-0.820433452182033	0.55107868115737	-0.820213659356722	-0.00073766006142798	-0.00122525234086012
8.8	0.00168650963512462	0.00151528974470404	0.417365080555139	-0.897294592586612	0.41754903155733	-0.897152250628949	-0.00204889198857403	-0.000624352975884787
8.9	0.00227406366647854	0.00170632425715288	0.271808570449258	-0.952543076165188	0.271986307295369	-0.952369833597569	-0.00291979791334105	0.00117703410243002
9	0.00483108675969011	0.00182949740806662	0.120164913473919	-0.980575354486085	0.120473345090125	-0.980524690163164	-0.000970979661127827	0.00385589591373049
9.1	0.00658119233705525	-4.31813570544974E-06	-0.0309528871060992	-0.98918286242802	-0.0306430599063696	-0.989136920013397	0.0013910325185601	0.00418263025733158
9.2	0.00844654229280282	-0.0015404682585013	-0.185129173572535	-0.974094303845103	-0.18477973999064	-0.974066702352825	0.00461976509246948	0.0044744303754174
9.3	0.0100341696105927	-0.00374424966374461	-0.335268217668074	-0.933842156473568	-0.334914150427431	-0.933811571507922	0.00848721661999686	0.00311967071651901
9.4	0.011332475678368	-0.00561403038242175	-0.476078891888308	-0.869577183980504	-0.475752438672827	-0.86966431065897	0.0121075993184142	0.00101042453126322
9.5	0.013414477983484	-0.0110504732202478	-0.603328136560314	-0.787650149840259	-0.603088621376559	-0.787696901818198	0.0164118306920198	-0.00650853077782589
9.6	0.00809377031252826	-0.0145759572805274	-0.721800068127495	-0.685824428972394	-0.721482902173335	-0.685959967092046	0.0109385927554567	-0.0130831251489919
9.7	0.00522652444953923	-0.0136379609409769	-0.820779920885017	-0.564458014105588	-0.820485865781194	-0.564689846116114	0.00621812796149484	-0.0145952811461123
9.8	0.00348161252682467	-0.0127406242971186	-0.898750907026888	-0.429859916569804	-0.898492361960658	-0.430027638301072	0.00171419644229001	-0.0149386217005669
9.9	0.00229274995649142	-0.0100944762968316	-0.9550994872871	-0.286222071060567	-0.954840977938599	-0.286430103500608	-0.00237733255215466	-0.0123790884828728
10	0.00627137247319191	-0.00986678911262855	-0.992234082140363	-0.133896420789411	-0.99207317267896	-0.134263141435917	-0.000300892017225425	-0.0111424205131382
10.1	0.00375880127556116	-0.0132948602912717	-1.000340097991	0.0253727270421871	-1.00027170860184	0.024934390800059	-0.0048427538475637	-0.0143841251396932
10.2	0.00128666460817926	-0.0124228964879075	-0.983707654775278	0.180881921844696	-0.983580301432014	0.180444517241284	-0.0102042247391483	-0.0121399050763014
10.3	-7.76647590208879E-05	-0.011054454874854	-0.944142983917881	0.331968745442537	-0.944156618608946	0.33141771194883	-0.0140874520021273	-0.00838087848870484
10.4	-0.000938113222385684	-0.00933165181611142	-0.882346262955171	0.476338605678062	-0.882482437371766	0.475816480605949	-0.0166834401993512	-0.00299956869391515
10.5	0.00121066145874616	-0.00758679744207565	-0.794814319272868	0.611292958129017	-0.794990256114606	0.610852319540911	-0.0141355039660123	0.00283307340970701
10.6	0.00220022356824284	-0.00987383471759706	-0.688137359483937	0.725185106032049	-0.68841415761304	0.724849547622626	-0.0113478227345166	0.00368764060703448
10.7	0.00127882017725456	-0.0112415921903215	-0.567392389436014	0.823274187092062	-0.567697901160214	0.822959559298472	-0.00989438565074092	0.00467289421840927
10.8	-0.000270430918878839	-0.0119644396924169	-0.431983026045126	0.902251268523621	-0.432340125847679	0.901948254735959	-0.00905954399230578	0.00581995916133986
10.9	-0.00154533118777847	-0.0116987860717524	-0.284201785082056	0.958927946376948	-0.284599131364161	0.95880440342123	-0.00733459248898483	0.0075960047485099
11	-0.00214088941152513	-0.0121312171460698	-0.130746941565654	0.987562749785007	-0.131190034358249	0.987472945627107	-0.0046590345167371	0.00802152733771291
11.1	-0.00374333607931906	-0.0116530753362507	0.0221234434569498	0.996724733311998	0.0216279556782168	0.996739644417374	-0.0031548829274456	0.00853630715171627
11.2	-0.00437780235158448	-0.0110560707368007	0.177878363869779	0.981837580434638	0.17741479976622	0.981913512692891	-0.000531740464811901	0.00896713900740846
11.3	-0.00481159930270708	-0.0103632950663014	0.329387193220942	0.941383219725602	0.3289223697086	0.941524373381166	0.00233777222780054	0.00906195719689513
11.4	-0.00466415039542029	-0.00919420049462278	0.471240462210519	0.876614283888174	0.470832493068795	0.876731484386016	0.00604414268957632	0.00936549200949531
11.5	-0.00282625936826784	-0.0111594205621988	0.599132823162425	0.794652990747093	0.598811442459486	0.794960076580692	0.0119038546349089	0.00504988820082296
11.6	-0.006702831292647	-0.012707022760423	0.718399611916102	0.692272532596713	0.718183037087934	0.69260632300113	0.0105089895477848	0.000158641051815513
11.7	-0.00879324961207828	-0.0109156701951065	0.817582543432831	0.570271038235085	0.817378962870109	0.570583394427837	0.00966613313840318	-0.0013962256197758
11.8	-0.0103084764081144	-0.00927943923134409	0.895378790914004	0.435142908940926	0.895198644741562	0.435600907534538	0.00871880415998211	-0.00258203118512553
11.9	-0.0103318849320617	-0.00577472130628199	0.951356020787499	0.291679862520538	0.951252451800192	0.292136016992732	0.00856072272099708	-0.00124917334316235
12	-0.00675442369825758	-0.00516531387416864	0.988420190457014	0.139710256943322	0.988394378401857	0.140080559312006	0.0139576542322975	-0.00265732651891965
12.1	-0.00913457221122036	-0.00804665708647706	0.996048759141841	-0.0189683987195513	0.995981886910017	-0.0185776421826486	0.0121291409418298	-0.00977260853722168
12.2	-0.0119465935196384	-0.00703276631096515	0.979121708864299	-0.173504226199984	0.979143466709168	-0.173202971599622	0.00847000619301516	-0.0124410976404498
12.3	-0.0139693769342099	-0.00513693346274936	0.939501233835956	-0.323220990708356	0.939626297518637	-0.322912601200679	0.00479325936067099	-0.0139656006020476
12.4	-0.016076640410985	-0.00201566735028043	0.878481274168297	-0.466294483970183	0.878550608393182	-0.465921336773577	0.000446685330660113	-0.0134004236384358
12.5	-0.013854619002217	0.00228956372429672	0.791307001282123	-0.599826644393076	0.791658630359507	-0.599438743128032	0.000183176168009621	-0.010865268988912
12.6	-0.0128657627753452	0.00177564010337149	0.686114465433526	-0.711754071765858	0.68637213135939	-0.711514695753665	-0.00122592783224298	-0.0133151388633689
