# GHZ S RI R 50
0.2	-0.00021755969490608	2.27439146307092E-05	0.948701123297729	-0.308114530028849	0.9484789403133	-0.30808904310064	-0.000226390711505949	0.000134883673270928
0.3	-0.000207422381441759	9.86562127787723E-05	0.888584727947192	-0.45171715022124	0.88842863363233	-0.451621762182333	-0.000288987932367738	4.03295538990983E-05
0.4	4.82168717580128E-05	9.04914534959164E-05	0.806980492194328	-0.583828086531568	0.806992268029516	-0.583853192485569	-0.000156646718795467	5.85592239291588E-06
0.5	-4.39801931364388E-05	-7.93935339770602E-05	0.706301406780202	-0.701880074279676	0.706146517441731	-0.701778638755	-0.000211805882423069	-0.000161569708653157
0.6	-0.000103997841337059	0.000107712857032172	0.588410863465207	-0.802860335314345	0.588291731730452	-0.802698709960568	-0.000367975988539079	-4.69553843413352E-05
0.7	2.64731021136732E-05	0.000314099644819763	0.456327772333281	-0.884044513433492	0.456309050720303	-0.883932104080322	-0.000261789784449849	-7.31983216707195E-06
0.8	0.000297400512860499	0.0002953005145383	0.313412410013597	-0.943837421574567	0.313381118616736	-0.94364785622763	-0.00023388155166695	6.3059783594117E-05
0.9	0.000534323956308389	0.000313443414523888	0.163103828525805	-0.980667067538513	0.163038865454582	-0.980575240341493	-0.00016950810537052	8.74144718839904E-06
1	0.000591921019372898	-0.000223950590671938	0.00886133307076929	-0.993879891118616	0.00880973511314378	-0.993848448672488	-0.000243630619692051	-0.00046801504589669
1.1	0.000125375726585875	-0.000112670783890165	-0.14554188266627	-0.982963796622489	-0.145557590424651	-0.98283349084068	-0.00107503533740275	-0.000259086919198879
1.2	0.000271955107391761	-0.000403813887335669	-0.296378337878013	-0.94809408319792	-0.296302052895241	-0.948068030446536	-0.00102705668354131	0.000668564278647309
1.3	0.000537099125449487	-0.001304360202085	-0.439793800108491	-0.890353180363324	-0.439770796270064	-0.890346575719281	0.000221346795020588	0.00191164763416346
1.4	0.000872623078153707	-0.00295384852809154	-0.57234936185435	-0.811203520172241	-0.572325216926729	-0.81118191380985	0.00230254951709069	0.00189868341627387
1.5	0.000631594221674689	-0.00400037772975474	-0.691403998465405	-0.71219388867937	-0.691302363896939	-0.712109056318629	0.00383080196205414	0.000887543045540218
1.6	0.000652740194570183	-0.00466003096365495	-0.793120467807092	-0.596006144520199	-0.79304651801292	-0.595946214817591	0.00435440203144794	-0.000443566830827771
1.7	0.000143638639352464	-0.00514198447944713	-0.875393498401098	-0.466208529915062	-0.875557567811525	-0.465693254146234	0.00417294076264923	-0.00186343327931257
1.8	-0.000671157054722875	-0.00532493815569394	-0.937170285184358	-0.324279209527915	-0.937059210436279	-0.324277830571191	0.00335232289084264	-0.00309638845016913
1.9	-0.00156815660400858	-0.00529421560988492	-0.975835216673718	-0.175274172910747	-0.975928017314282	-0.174787444503065	0.00223267005682139	-0.0040250758187541
2	-0.00290976337988057	-0.00475391095223526	-0.990660563549525	-0.0212712930272056	-0.990672484348228	-0.0212255337628247	0.000600134235194681	-0.00431656550069765
2.1	-0.00325659678344996	-0.00374844385873106	-0.981938606535039	0.132402301802929	-0.981976658667544	0.132439303774033	-0.000175148029718724	-0.00376316946236459
2.2	-0.00385756124899884	-0.00333385911415156	-0.949567567050391	0.283026768598605	-0.949492651297881	0.283089503886383	-0.000586780598114027	-0.00363781597984199
2.3	-0.00456455800319082	-0.00265178385795412	-0.894257169263772	0.426259309117822	-0.893876021603447	0.426771883116802	-0.00114828830780035	-0.00372072858274845
2.4	-0.00533648757316501	-0.00191575283426704	-0.816374402533889	0.560705412502235	-0.816640043836185	0.560120452003191	-0.00189672751382704	-0.00389880176957422
2.5	-0.00628328810012484	-0.000660103501371027	-0.72002167603343	0.680249232528372	-0.720234338348016	0.679740022449064	-0.0030149466041425	-0.00414986263919484
2.6	-0.00626851428145104	0.00129513941982625	-0.606188981683807	0.783567776854793	-0.606082809736761	0.783385440993979	-0.00361217942214189	-0.00327374664968104
2.7	-0.0054020382442615	0.00261594467482902	-0.476680235285819	0.868272643726758	-0.477128209317411	0.867865814526062	-0.00360863967009038	-0.00271351822918358
2.8	-0.00419332930013134	0.00335357431560076	-0.337511620183051	0.931132511775892	-0.336845074791451	0.931291897277235	-0.00359411852805517	-0.00231499388456583
2.9	-0.00263026953036922	0.00362555525460235	-0.188577704383001	0.972297806901177	-0.188608791441835	0.972210509426863	-0.00312124155198162	-0.00164909741014108
3	-0.00105847987300615	0.0035159498499896	-0.0345929838511875	0.990161113673869	-0.0352932380363088	0.990001800085689	-0.00241048720320042	-0.000933075059642504
3.1	0.000621986506065841	0.00289856762722429	0.11818769359371	0.983357843713508	0.118777817170233	0.983340658385966	-0.0011673496318213	-0.000655887848544267
3.2	0.00169198005442682	0.00183407885223001	0.269792417627891	0.952943346205367	0.269737734544509	0.952883030576673	-0.000469718473353282	-0.0008351141697388
3.3	0.00266198772813035	0.000643539719232422	0.414530963105055	0.899555578628633	0.414393915716108	0.899541231226597	0.000329256321870322	-0.00112555184482561
3.4	0.00304065466877158	-0.00078898224421479	0.549219274923911	0.824446441671359	0.549056999428527	0.824564138725763	0.000999677100796201	-0.00194607165108995
3.5	0.00324932769758173	-0.00188047258605518	0.670576505075469	0.729055839185134	0.67049693118117	0.729094523381637	0.00122322534956023	-0.00242417864257886
3.6	0.00327983818563495	-0.00329577757634162	0.774856240480191	0.616672958974825	0.775097387571039	0.61622479850009	0.00168302528733409	-0.00313856427441297
3.7	0.002732459240455	-0.004748575923404	0.861516849146533	0.488508525801636	0.861398500047496	0.488651458915196	0.00170624503539949	-0.00401068288752447
3.8	0.00166373478120724	-0.00587990154769373	0.926766104978957	0.34944690514482	0.926823164932421	0.349067903070882	0.0014179267580825	-0.00491660131680395
3.9	0.000518386321442821	-0.00677150944525191	0.969933159056799	0.200122071207818	0.969694410452716	0.200789142850359	0.000419141335046511	-0.00610866865642629
4	-0.00119843078956663	-0.00693559785087009	0.98897680281651	0.0481649196312503	0.988937789036729	0.048267697921687	-0.000958568491147044	-0.00655384034469607
4.1	-0.00212264579058777	-0.00701322980444156	0.984925843568885	-0.105659111234804	0.98474124140937	-0.105532180247723	-0.00167890642175485	-0.00665887530149849
4.2	-0.00367855298378146	-0.00727553038802071	0.956431622147929	-0.258023267157913	0.956466048070654	-0.257369444018764	-0.0024998893718027	-0.00712968616554962
4.3	-0.00541300289240772	-0.00735872508666906	0.90512652651663	-0.402795799084361	0.904990554417372	-0.402684785845218	-0.00359125093785716	-0.00779653447481477
4.4	-0.00756398562675714	-0.00700250598691347	0.831644056766542	-0.538270892115534	0.831478715354963	-0.538137709528113	-0.00508301414774341	-0.0084526989294049
4.5	-0.00997691466516982	-0.00592407686345423	0.738508125451005	-0.660853240186192	0.738318999756807	-0.66068025572911	-0.00729595723814886	-0.00878969534364299
4.6	-0.0116949842514501	-0.00380393312069644	0.626470062577887	-0.768342217367309	0.626811484075112	-0.767643306719553	-0.00928907365115883	-0.00816606228080424
4.7	-0.0127828866861718	-0.00190651124698141	0.499896568580451	-0.856090270136497	0.499912679450528	-0.855734067070403	-0.0110264664641133	-0.00762409763481495
4.8	-0.0136056581018022	0.000379966814632012	0.360704848271213	-0.923193587975162	0.360926307160789	-0.922876585288012	-0.0125811906331961	-0.00681855884475805
4.9	-0.0136535342762657	0.00260357835261523	0.2136054541109	-0.967624215831854	0.213385163138937	-0.967632266707782	-0.0137249944529484	-0.00575500178923458
5	-0.0130958534247274	0.00493549344302306	0.0603760264466588	-0.989425519831658	0.0605533448830524	-0.989179590822876	-0.0143389066161592	-0.00406836334673845
5.1	-0.0116071884858398	0.00674813796947527	-0.0940080737828998	-0.986704031166841	-0.0936759803101143	-0.986478163718845	-0.0141445888914336	-0.00247212408668828
5.2	-0.0100311452547211	0.00843562190659182	-0.246139758324891	-0.960176936733248	-0.245646986945016	-0.960149779068061	-0.0139432593582951	-0.001031481726767
5.3	-0.00812022153021463	0.00979317485426501	-0.392261782121897	-0.910471391911427	-0.391920304583564	-0.91068784542822	-0.0134959961366536	0.000260032182116091
5.4	-0.0059945455307352	0.0111542004154149	-0.529203902137165	-0.838667175686313	-0.528990589983217	-0.838868314885751	-0.0132920232990509	0.00141803375054801
5.5	-0.00327874869783842	0.012472720018557	-0.653203210866209	-0.745862980679561	-0.652963770075845	-0.746058137681325	-0.0131071676308708	0.00321032790832951
5.6	3.12346432382927E-05	0.0125284075944985	-0.76068970408874	-0.635399748945956	-0.760499595699254	-0.635571915445609	-0.0119874783607456	0.00443842944094469
5.7	0.0024512083074929	0.0118657895382915	-0.850282370999864	-0.509655078616303	-0.85015272642258	-0.509875344962771	-0.0113270501519429	0.00543522534090615
5.8	0.00459628682390352	0.0111839895497404	-0.919140386050457	-0.371231698422375	-0.919072366914777	-0.371517296192519	-0.0106862388566121	0.00649262308952322
5.9	0.00642524786992838	0.0100636332106603	-0.965594266212726	-0.223853567005334	-0.965608786100429	-0.223937372959019	-0.0102601479157048	0.00735494435143896
6	0.0081231895739538	0.00950221344799754	-0.988383852530903	-0.0714194250613278	-0.988264383783519	-0.0714775767375138	-0.0102830284486653	0.00912570493367303
6.1	0.0108193799005241	0.00775893180172739	-0.987710970617189	0.0828811154460703	-0.987584075580937	0.0827323261493502	-0.00851148409747962	0.0108490524291838
6.2	0.0122156998323284	0.00480391438644193	-0.962734308773245	0.23555118733756	-0.962720664385392	0.235347943858515	-0.00677401506775725	0.0112157607753311
6.3	0.0122424822274655	0.0014818859768452	-0.91427115691883	0.382275318492301	-0.914266755794698	0.382089628479083	-0.0053646017615897	0.0108613659441267
6.4	0.0111890568245885	-0.001509603677408	-0.84361297326228	0.519450094320023	-0.843581406864659	0.519239066327191	-0.00457499875920603	0.0100841291229487
6.5	0.00946859499814191	-0.00388811441449666	-0.752969225932656	0.644080496079368	-0.752993551230467	0.643876045432483	-0.00419183608033503	0.00952379589990277
6.6	0.00773685261540758	-0.0056807729547311	-0.643541550601531	0.753547041324839	-0.643615884198729	0.753294487223215	-0.00366514046611057	0.00914512185951437
6.7	0.00579482169994163	-0.00700189919829505	-0.518404682415256	0.844171488071355	-0.518508017176788	0.843950081805826	-0.0033648462120297	0.00883792259798176
6.8	0.00406855086784808	-0.00785694694700329	-0.3809593558154	0.914286678043027	-0.381101503479528	0.91411588603343	-0.00310765234827645	0.00879625701097572
6.9	0.00223028735434184	-0.00851692083499777	-0.234418672492204	0.962311420165189	-0.234645873120698	0.962201181922947	-0.00268308761434913	0.00890820367142781
7	0.000719993207703191	-0.00873028795662089	-0.0817639911566732	0.987201543499712	-0.0819744198263507	0.987112009141809	-0.00190429237395542	0.00901690198206988
7.1	-0.000964640873704488	-0.00893076983056281	0.0727739918663816	0.987428505349771	0.0725713579655935	0.987295567832153	-0.0010674392669664	0.00885694162994286
7.2	-0.00254789429600074	-0.00865947221241932	0.225170305747891	0.963871729010436	0.224887725420945	0.963837852665923	-0.000114875725502953	0.00880313187731964
7.3	-0.00410178599895084	-0.00821736237742761	0.372060010968603	0.91705794781653	0.371823720656809	0.917084859382024	0.000896609639839464	0.00853222894640304
7.4	-0.00540349196678064	-0.0074886264708875	0.510108443169384	0.847929066581047	0.509894917629741	0.847980920003887	0.00170139053026082	0.00796378590153055
7.5	-0.00643430715061092	-0.00659703904306703	0.635426446354769	0.757683970083918	0.635257020830913	0.757754279877632	0.00256647575306362	0.00756370510972281
7.6	-0.00694958033097088	-0.00592267609625344	0.744848849803873	0.649757486709021	0.744591441605455	0.649840760929495	0.00379810330217404	0.00648779514886338
7.7	-0.00777762717801766	-0.00493093285744866	0.836500490348461	0.526173052415639	0.836315592132641	0.52639092381689	0.00431790145750553	0.00506020657567085
7.8	-0.00806062433654598	-0.00351466667959996	0.907968873834627	0.389638573841199	0.907866549272022	0.389864432387322	0.00452579108573058	0.00355052357663055
7.9	-0.00813716522393674	-0.00189158877059024	0.957081584041283	0.243726553876537	0.956944119485179	0.243906747014702	0.00408079351237095	0.00219048686282686
8	-0.00739636111686865	0.000497000477447571	0.982552917523369	0.0924555864418437	0.982530682858768	0.0927183381520936	0.00251744532248847	0.00177213188635815
8.1	-0.00520071482040382	0.00185994697059464	0.985153630712187	-0.0611206336252144	0.985183301210134	-0.0608651287858238	0.00229495425912662	0.00197606351482548
8.2	-0.00325798401675314	0.00215713804711225	0.963329838110563	-0.213445901391669	0.96337913742082	-0.21312900806731	0.00181747401939491	0.00177771846690593
8.3	-0.00172075846690551	0.00208675144826712	0.918052473529789	-0.360222425337557	0.918104675834852	-0.359935561853988	0.00129806642014128	0.00171386460790927
8.4	-0.00043296960094141	0.00152306456516271	0.85072044585967	-0.497876419818167	0.850818710572223	-0.497674872312793	0.00073245558976376	0.00143459609211761
8.5	-2.65199688158434E-05	0.00140715424870093	0.763506618553193	-0.623590358671744	0.763558323940323	-0.623439830181412	-0.000660875330539644	0.00163698660288351
8.6	0.00155647591888139	0.00134740228031478	0.656962800055578	-0.734644527788324	0.65713182350969	-0.734407980323643	-0.000953722987781031	0.00300318790104581
8.7	0.00268605231663113	0.000546660608330547	0.53467559496975	-0.827262222721573	0.53493513930526	-0.827047639716614	-0.000523473043817288	0.00407348417283786
8.8	0.00370976564589817	-0.00036313051955962	0.399938162807766	-0.899801314929737	0.400123594965206	-0.899662836885567	0.000340480063617108	0.00478107606503392
8.9	0.00448132578959824	-0.00149314277065207	0.255707331584119	-0.9508984172702	0.255886620887336	-0.95072892118085	0.00178873384251371	0.00509575469061094
9	0.00517271625585635	-0.00267380245308996	0.104581873062794	-0.979008388954915	0.104890010832526	-0.978962671095842	0.00327984227056688	0.00497093141249523
9.1	0.00604489723767338	-0.00383221695499812	-0.0485203054960607	-0.982728523513445	-0.0482115014276755	-0.982688415235106	0.00526199287818744	0.00453434522187154
9.2	0.0069393835258373	-0.00510742243228614	-0.200279170686832	-0.963017422032757	-0.199932103349116	-0.962996018823016	0.00736026506624498	0.00336373767231454
9.3	0.00783376539769307	-0.00647083504387134	-0.347177239301051	-0.92014216530756	-0.346825849067363	-0.920117505549292	0.0093548720373925	0.00144243516482845
9.4	0.00837134988749915	-0.00834747239549151	-0.485781737678084	-0.854937163442416	-0.485459344518427	-0.855028688863417	0.0103764228918044	-0.00149367443999248
9.5	0.00846456750405569	-0.00951161613434898	-0.61213437053646	-0.768372213339877	-0.611898139211207	-0.768423014669179	0.0100640317989511	-0.00378650236522323
9.6	0.00838050766419918	-0.0116967626080039	-0.723300984380451	-0.664107847754608	-0.722990521313949	-0.664246841623953	0.00958433512049482	-0.00640366259292773
9.7	0.00707679206560363	-0.0129059213335702	-0.81728692968726	-0.543859392057132	-0.817000659198134	-0.544092263167725	0.00761033667743	-0.00897133129284004
9.8	0.0058071620355413	-0.0135476240850484	-0.891462477941438	-0.410398223136066	-0.891210244452369	-0.410567164060946	0.00480132629759872	-0.01083335600652
9.9	0.00433630834021925	-0.0134960936921489	-0.943784632380065	-0.266999253872574	-0.943533527772335	-0.267207805566183	0.00122636636540103	-0.0119848143595308
10	0.00333428394962635	-0.0123869275749476	-0.973062166218886	-0.117980925871866	-0.972909490126867	-0.11834203078186	-0.00302733902432392	-0.0111106291112289
10.1	0.00352223060077441	-0.0121753930776124	-0.979618290438003	0.0340884200733401	-0.97955534858118	0.033658429688164	-0.00577853221368071	-0.00936976697292514
10.2	0.0029873481941413	-0.0124302453169979	-0.96231582541887	0.185451638654238	-0.96219470301379	0.18502200861601	-0.00835468180603703	-0.00745032359948915
10.3	0.002084949925552	-0.012293952323557	-0.921689797297989	0.33211254570016	-0.921707319348915	0.331573251858052	-0.0106227165595794	-0.00514988850864744
10.4	0.00111036577679206	-0.0121641677043282	-0.859054933498952	0.470315004025862	-0.859190937291733	0.469805823843238	-0.0124373198264641	-0.00268961142856526
10.5	0.000235560465052015	-0.0110893988738728	-0.776473680129964	0.597764085955705	-0.77664581995182	0.597333540889923	-0.013767195817451	0.000434220135490413
10.6	0.000728730739324279	-0.0104197273200931	-0.674156226024032	0.711108658455714	-0.674427684357536	0.710779882933867	-0.0134552422226348	0.00396038386378622
10.7	0.00129781341682309	-0.0105214444122598	-0.555665007168868	0.806792880208764	-0.555964434444886	0.806484709583172	-0.0119382687883404	0.0068675758442658
10.8	0.00146146796965155	-0.011481141776746	-0.423997729158171	0.882903761474282	-0.424347019387225	0.882606666709255	-0.00994018248771428	0.00897504635728486
10.9	0.000862154079240157	-0.0122058412715701	-0.282370566439765	0.938045362536456	-0.282759235633774	0.937922697062829	-0.00796332385804873	0.0106529381110442
11	0.000278745665240169	-0.0128522065686855	-0.133070700978108	0.970733130093573	-0.133506101626601	0.970642795331848	-0.00541880175997008	0.012047907846752
11.1	-0.00048392711409821	-0.0134704412218996	0.0189678210202348	0.978967581459162	0.0184811495084191	0.978980853710168	-0.00242720600351211	0.0126534758529027
11.2	-0.00143348110050567	-0.0141093690378111	0.170167035619848	0.964194374794773	0.169711837261719	0.964266817513355	0.000780667383674436	0.0124729034662638
11.3	-0.00256025699555093	-0.0145211052486312	0.317411362034745	0.926353572547494	0.316954096305584	0.926489203856516	0.00403332059278558	0.0114516193784409
11.4	-0.00407513387157082	-0.0147510742131832	0.457436810598903	0.866015094612742	0.457034506742006	0.866127499300158	0.00662807691113496	0.00984797313046858
11.5	-0.00511729857532294	-0.0140367047186749	0.585800617493748	0.783920620070188	0.5854833049057	0.784221233734452	0.00883301461727308	0.00842755119722003
11.6	-0.00620497632446524	-0.0144808178260288	0.699671299854818	0.684076575612495	0.699456513787157	0.684402411393964	0.0109274464415024	0.00594258240422793
11.7	-0.00811300476639047	-0.0140627591414152	0.797315481129658	0.56758713717982	0.797112665644442	0.567891885036682	0.0119546734554844	0.00304766690301589
11.8	-0.0101651768691181	-0.0131188659886514	0.875767230656653	0.436991709931537	0.875585421365282	0.437440113179267	0.0119739927859284	-3.42880303150152E-05
11.9	-0.0121876869492379	-0.0111070237597525	0.932587937895832	0.295856480180959	0.932481756552851	0.296303981971477	0.0105855302061537	-0.00274847692104505
12	-0.013443509681379	-0.00778075725957786	0.966861082678418	0.14866031790073	0.966831383523962	0.149022859072191	0.00853933369524574	-0.00395884896083156
12.1	-0.0126434849362349	-0.0053141578207621	0.978756839827159	-0.00280641140913449	0.978684939744812	-0.00242361942912934	0.00757895448144753	-0.00485283367323254
12.2	-0.0121242462074055	-0.0037940974381069	0.966652730276365	-0.154493850506683	0.966669135022898	-0.15419695849185	0.00628463203617694	-0.0059397069574152
12.3	-0.0114300899616235	-0.00247549667558146	0.931028102857928	-0.30228981636803	0.931146012983815	-0.30198388294142	0.00496327317326264	-0.00701100408359564
12.4	-0.0111128452534006	-0.00186094744122843	0.873484248305854	-0.442635505150679	0.873545540041306	-0.442266882142795	0.0032555212569954	-0.00831851138412471
12.5	-0.0111781453568176	-0.000587724336853879	0.795151664566739	-0.573149741095715	0.795489459560958	-0.572758587380728	0.000357454369255204	-0.00894421429361001
12.6	-0.0103017997363453	0.000215958923601071	0.696481847975273	-0.689897750210543	0.696731807795619	-0.689654543221507	-0.00191321814001241	-0.00858235117762241
