# GHZ S RI R 50
0.2	-0.000308085033507724	-0.000202623389395178	0.949323665098387	-0.307885404006492	0.949101355510073	-0.307859995131861	-0.000271533540137216	-0.000141177810756694
0.3	-0.000456298671316797	-0.00010808121089347	0.889435984892635	-0.451566991977643	0.889279732679232	-0.451471619203642	-0.000480451785364738	-0.000277005006252198
0.4	-0.00037721583970476	9.93527808169289E-06	0.80806843524825	-0.583914580995307	0.808080236407418	-0.583939703735461	-0.000542721484575772	-0.000243378892204634
0.5	-0.00037038431261858	0.00014252311292399	0.707342675697713	-0.702410844394452	0.707187576848195	-0.702309351125458	-0.000510902362113706	-0.000117231804984168
0.6	-0.000313806407538127	0.000172464513775992	0.589326919125872	-0.803474833138995	0.589207602261758	-0.803313084337439	-0.000498923430534559	-0.000215679947651547
0.7	-0.000296978339590755	0.000397354289007975	0.457246407819429	-0.88490431898561	0.457227616211281	-0.884791783639407	-0.000513288156823181	-0.000273014445389646
0.8	-6.72398547342204E-05	0.000437774212293534	0.314178383485062	-0.945008944997257	0.314146981298767	-0.944819132968822	-0.000603882114432249	-0.000258136036154897
0.9	2.95099233716059E-05	0.000515702305764513	0.163513681484466	-0.982088245270358	0.163448606575572	-0.981996293549422	-0.000864999097383349	-0.000329070619546177
1	0.000177045956952104	0.00054998829507985	0.00894016940408771	-0.995157850376848	0.00888850290575634	-0.995126370969464	-0.00111901445378985	-5.5927901406212E-05
1.1	0.000437577160019837	0.000328483284924229	-0.145501844071489	-0.984411260163405	-0.14551760738259	-0.984280771345368	-0.00116439146908163	0.000156116103845672
1.2	0.000640370942148804	-0.000524660340816926	-0.296734554033649	-0.949664027995315	-0.296658149192345	-0.949637923279252	-0.0008353686188261	0.000712545211461232
1.3	0.000808340566745714	-0.00202396856989454	-0.440553507025847	-0.891825367300201	-0.440530464628805	-0.891818752303435	0.000653700820020761	0.00139087310064094
1.4	0.000714403632870699	-0.00395309053492524	-0.573365314870899	-0.812412767177688	-0.573341128778543	-0.812391129789037	0.00259738418105253	0.00087782491313694
1.5	0.000420229673188944	-0.00500518043187753	-0.692461466185967	-0.713430149897383	-0.692359674132141	-0.713345168276991	0.00433407334734018	-0.000509373170801885
1.6	-0.000308029025503327	-0.00547521745677989	-0.794780334646421	-0.59712852075853	-0.794706229655556	-0.597068477597333	0.00398603677265927	-0.00226606886451884
1.7	-0.000875580656407791	-0.00519779670593094	-0.877341243034101	-0.466841565739152	-0.877505460685846	-0.466325183167467	0.00328623558211423	-0.00318605778998574
1.8	-0.00149783485167986	-0.00493650635229831	-0.93920431992903	-0.324473873493282	-0.939093022092086	-0.324472545646204	0.00224661753848109	-0.00392549535682226
1.9	-0.00213131888074255	-0.00445237943381158	-0.977900589953379	-0.175176962047345	-0.977993353049461	-0.174689200947076	0.0011155180965967	-0.00409691105003867
2	-0.00252773242161741	-0.00397328582718289	-0.993106189481111	-0.020707175893405	-0.993118111077858	-0.0206612968255185	0.000643468032306191	-0.00406924573114352
2.1	-0.00319327058553445	-0.00366561326608591	-0.984090143127328	0.133844786249987	-0.98412824188807	0.133881918923419	-0.0002199740014075	-0.00445028917164106
2.2	-0.00402352255251356	-0.00307628906499204	-0.951286290944226	0.28486224307887	-0.951211130720026	0.284925019980009	-0.00106743967174365	-0.00430919420361994
2.3	-0.00471783687496474	-0.00229555612718576	-0.895617598969951	0.428416393382989	-0.895234917093764	0.428929559073495	-0.00190622026975453	-0.00419850738560545
2.4	-0.00549829515380495	-0.00140971170018743	-0.817392181171279	0.563263603146561	-0.817659341126507	0.562677702730424	-0.00291404965552495	-0.0038323569796027
2.5	-0.00582163764495839	-4.04421167359977E-05	-0.720166390737419	0.683322694761321	-0.720380626198376	0.68281280386768	-0.00315282501562434	-0.00325974807572774
2.6	-0.00582653957536056	0.00101376959504123	-0.605541879361444	0.786275748412245	-0.60543591947699	0.786092858794804	-0.00299662557853951	-0.00319501729790308
2.7	-0.00548590947739053	0.00210389254249679	-0.47559546468155	0.870811640147596	-0.476045101599561	0.870405093899692	-0.00308366412019084	-0.00322734469033533
2.8	-0.00467069241628944	0.00292956306985582	-0.335882677054479	0.933512327883367	-0.335214622541118	0.933670407655999	-0.00334361926988338	-0.0031651931827498
2.9	-0.00328434825541763	0.0034160801516672	-0.186239576908868	0.974339172667716	-0.186270949474398	0.97425182202997	-0.00310673089730798	-0.00258599655356199
3	-0.00179781848146782	0.00335386824363284	-0.031827975667844	0.99121641913223	-0.032529357304123	0.991058930578906	-0.00251827546368928	-0.00212733652344882
3.1	-0.000387089207838125	0.00306211457132931	0.120798549619045	0.984028273708356	0.121389211833816	0.984009574595399	-0.00182374277304342	-0.00185936970735529
3.2	0.000796208424901836	0.00233763759201528	0.272656081053685	0.953152745272051	0.272601179443317	0.953092518845998	-0.00132719032661845	-0.00170739681323904
3.3	0.00190820837540541	0.00135930111333821	0.417494644189126	0.899059023024621	0.417357445576402	0.899045065371596	-0.000584960814327004	-0.00167596904165462
3.4	0.00253023835385402	0.000135533828226904	0.551921486431899	0.823125240097102	0.551759499863427	0.823243472885327	0.000301575442050037	-0.0020802835534061
3.5	0.00308476596976863	-0.00122643457697426	0.672629896847285	0.727518775914761	0.672550401820555	0.727557675214872	0.00116512453917386	-0.00282812759259625
3.6	0.00276096620268196	-0.00263846001972373	0.77700412456555	0.614817713825795	0.777244137340099	0.614368636429921	0.00121852004278748	-0.00390498487364047
3.7	0.00233023153657903	-0.00381802547958089	0.863255499982339	0.486015341823152	0.86313755387788	0.486158677378126	0.00104923010819272	-0.0045742209849531
3.8	0.00146003867162782	-0.00488225971251438	0.927848281508824	0.346584934463523	0.927904170808662	0.346205755030867	0.000694134105759681	-0.00525276464169328
3.9	0.000516035790357701	-0.00570499208726598	0.970350229272054	0.19725871006063	0.970113467313932	0.197926363462446	-0.00022590571404673	-0.00596038920344066
4	-0.000647821438119853	-0.00622712527616217	0.989284447405316	0.0451794791038656	0.989245738315196	0.0452823923004909	-0.000569293114278957	-0.00629802809960909
4.1	-0.00211259357381216	-0.00691086108284441	0.984292657762778	-0.109107442374518	0.984108552382267	-0.108979893381143	-0.00130437153068098	-0.00732920883996511
4.2	-0.00409310364432968	-0.0070138701215655	0.954881898569474	-0.261160309415285	0.95491856631977	-0.260507053798808	-0.0025205121733406	-0.00799030630373718
4.3	-0.00605012026548127	-0.00688455515717812	0.902972380921718	-0.405465184044333	0.902836901397951	-0.405353814799386	-0.00397348072270871	-0.00862541924308727
4.4	-0.00835861690559238	-0.00614834954076786	0.829119059529046	-0.540574690594479	0.828954307447145	-0.540441072909793	-0.00587180797738308	-0.00882808920801406
4.5	-0.0102774850770684	-0.00468327257367057	0.735081597462292	-0.662940782844707	0.734893363789815	-0.66276726817508	-0.00744470066426583	-0.00829151939295732
4.6	-0.0119207632649952	-0.00297850854996342	0.622503407310118	-0.769143597530552	0.622846703814746	-0.768447249338342	-0.00871588144566321	-0.00816291644621268
4.7	-0.0131789109724227	-0.00104745670673774	0.495999946598169	-0.855984730441415	0.496017213991301	-0.855629319948084	-0.0103228699642719	-0.00803642789091044
4.8	-0.0140461491549037	0.00133654100232379	0.356894549332477	-0.922337489143692	0.357116555673631	-0.922021908349307	-0.0118860711734601	-0.00762088513816095
4.9	-0.0140725411763151	0.00371543424433618	0.209788625716682	-0.965973725778221	0.209568848551692	-0.965981007406881	-0.0131846462876521	-0.00680442412364781
5	-0.0133570058224586	0.00605390030983606	0.0570305692818309	-0.986373310072731	0.0572080886253483	-0.986128751521073	-0.0138132073141117	-0.00547323950160574
5.1	-0.0119411243721613	0.00802357202033311	-0.096188912099182	-0.983251327904768	-0.095857331592015	-0.983027033690284	-0.0142536583308792	-0.00419081215780464
5.2	-0.0100545780702097	0.0098942769887051	-0.247671034622518	-0.956446038072177	-0.247179804853996	-0.956420166981937	-0.0145731348491926	-0.00247768800504553
5.3	-0.00778239220428043	0.0111735891587138	-0.393035618107386	-0.906374944791901	-0.392695840031202	-0.906591446837167	-0.0143223651397376	-0.000645354702925843
5.4	-0.00529012346317296	0.0123249731306334	-0.528898660796453	-0.834265477823572	-0.528686608497419	-0.834466278679072	-0.0136595230574175	0.00120825284634327
5.5	-0.00240806942731117	0.0126514751673723	-0.651578493150517	-0.742075182258049	-0.651340249701153	-0.742269875142989	-0.0122909431415281	0.00222213511305567
5.6	-0.000191894234588461	0.0126571977381648	-0.758808733261702	-0.632108980702623	-0.758619535687568	-0.63228078309438	-0.0121478828638397	0.00259586622052188
5.7	0.00207126809437555	0.012462070434415	-0.847723465114899	-0.506593381525047	-0.847594604676687	-0.5068129817812	-0.0121482526420694	0.00390363269157111
5.8	0.00425183351582473	0.0119875258947362	-0.915816521340826	-0.368747443784035	-0.915749082619296	-0.36903195811145	-0.0118860857459727	0.0055209863830608
5.9	0.00620985551738565	0.0111274071580839	-0.961719596178024	-0.222390718733173	-0.961734102514054	-0.222474169406618	-0.0113764009325161	0.00751505372957216
6	0.00856098488849439	0.0100984618312572	-0.98484564204143	-0.070750150196425	-0.984726628759493	-0.0708081414873487	-0.00948675669240597	0.0096261840998675
6.1	0.0102772691703009	0.00779168007589793	-0.98371235350526	0.0832101267813344	-0.983586064421869	0.0830618468423354	-0.00745904329786302	0.0098809865440515
6.2	0.0111303151887424	0.00536934327835283	-0.95855316863768	0.23479655177029	-0.958539636027175	0.23459417438146	-0.00613486954391666	0.00969258343196945
6.3	0.011102663937433	0.0025817612922515	-0.91043053487206	0.380483277240443	-0.910426120322661	0.380298381523567	-0.00523993337934196	0.0090800757614204
6.4	0.0103043829609735	6.69714318987437E-06	-0.840480570094345	0.51701474677362	-0.840449037457217	0.516804572684999	-0.00494788803376867	0.00846810943934955
6.5	0.00901787299954053	-0.00234345894220021	-0.749913297358432	0.641394078938442	-0.749937511399456	0.641190466447871	-0.00466776568026345	0.00805846135330183
6.6	0.00750991860771918	-0.00419024614056188	-0.641053702180299	0.749656396003674	-0.64112753082131	0.749404960089279	-0.00444772043268439	0.00788842815514432
6.7	0.00580386491288401	-0.00571911544489462	-0.517054355012574	0.839811141175018	-0.517156975646069	0.839590605300087	-0.0041055005221262	0.00795021879676759
6.8	0.00406399800034914	-0.00683701245994499	-0.38058838626528	0.909856962637187	-0.380729691860874	0.909686704933279	-0.00362399042223515	0.00809763434809507
6.9	0.00210084832098972	-0.00761563627901113	-0.234716921359006	0.957906812898126	-0.234943008207003	0.957796737497569	-0.00285926184728408	0.00823231760333744
7	0.000313601521861064	-0.00793729005957692	-0.0831138816386564	0.982264794919453	-0.083323130394486	0.982175322834771	-0.00194133097124529	0.00791248695949944
7.1	-0.00160182621093935	-0.00780826843622811	0.0698948534244831	0.983216320128515	0.0696934665354703	0.983083450742843	-0.00137354055949907	0.00772062654760556
7.2	-0.00313057939392534	-0.0072762802683801	0.221577659104107	0.960509013184138	0.221296340489198	0.960474496489526	-0.00043730137283349	0.00774049393158007
7.3	-0.00457760786535268	-0.00661558203054386	0.367875747138151	0.914423977584797	0.367640336646452	0.914450090671971	0.000599101492358532	0.00749723836572772
7.4	-0.00563964254203906	-0.00568453926411651	0.505186083338959	0.846014447652161	0.504973290034544	0.846065384954012	0.00152193078717346	0.00698301898039434
7.5	-0.0063536690848229	-0.00490406697650687	0.629735626662531	0.757482678214205	0.629566553265271	0.757551992123003	0.00267690334544934	0.00620419599442462
7.6	-0.00696050709442288	-0.00416544021390564	0.739824994039186	0.650914738926513	0.739568021938012	0.650996671128361	0.00336244029515016	0.00470957335108185
7.7	-0.00746187320137	-0.00299695667252134	0.831814632356409	0.528182100270789	0.831629351142245	0.528398548049509	0.00337465422205327	0.00352504011827771
7.8	-0.00739169330253327	-0.00170938786568569	0.903663396456167	0.392645876025521	0.90356033896904	0.392870639186463	0.00330192687859408	0.00254909920935855
7.9	-0.00717352075392266	-0.000369376275376772	0.953490142333617	0.247953845199831	0.953352107873413	0.248132900131236	0.00309231320746036	0.00214434451289935
8	-0.00593125767158473	0.00108128259123107	0.980674147965565	0.097255259449751	0.980650626199399	0.0975175212421676	0.00338801244242487	0.00200426112321996
8.1	-0.00497102930404243	0.00158540015661679	0.983964927600357	-0.0564534340494362	0.983993366977432	-0.0561981733222824	0.00342704321788516	0.000655065372886305
8.2	-0.00396311226756414	0.00219579570047423	0.963039431296348	-0.208409149924291	0.963087102840094	-0.208092455035272	0.00245738997209272	-0.000206056105886466
8.3	-0.00298582148217483	0.00264707914900006	0.919010914132223	-0.355111219731121	0.919061578994423	-0.354824369386436	0.0012831022661854	-0.000572609120996093
8.4	-0.00200049583894263	0.00288373968833791	0.853051127688601	-0.493317432457814	0.85314831812984	-0.493115434890112	-0.000137886604628901	-0.000442368692074641
8.5	-0.000890603740502573	0.0033946756480289	0.766164954135076	-0.620059171292791	0.766215975969124	-0.619908437853749	-0.000794229421089482	0.000813564425445392
8.6	0.000567634384428553	0.00307754338090311	0.660273701195781	-0.731129483388501	0.660441499046631	-0.730892209965633	-0.000556431485502742	0.00114540073354437
8.7	0.00164657639707387	0.002844138416013	0.538936058431841	-0.824540697494109	0.539194508546328	-0.824324776533969	-0.000654013375018626	0.00162363700784562
8.8	0.0031072691625672	0.00237830359375755	0.404717561013288	-0.898209902411426	0.404902379772961	-0.898070411698997	-0.00055512052821267	0.00208802637729613
8.9	0.00446773835490921	0.00143346776933929	0.260415005245491	-0.950402493821939	0.260593625229484	-0.950232018523137	-8.41745310094189E-05	0.00272377254017757
9	0.00591918893319302	6.8918222816226E-05	0.109478876278342	-0.978818358261262	0.109786890665944	-0.978771094790621	0.00114034329441572	0.00351366418694739
9.1	0.00709600977492893	-0.00156952563904916	-0.0431867432082281	-0.984062260416268	-0.0428778234358784	-0.984020416019649	0.00306412569594519	0.00367535573961597
9.2	0.00826795370828205	-0.00333141716707062	-0.195546269748306	-0.965664983033129	-0.1951987403913	-0.965641719178616	0.00557238594495313	0.00328422861172397
9.3	0.00908465265632386	-0.00533511532349304	-0.343229632342896	-0.923639318640434	-0.342877694524901	-0.923612851006348	0.00836337163673656	0.00174900337849549
9.4	0.00931163443297883	-0.00752833882650787	-0.482409434846381	-0.858935284827229	-0.482085991462986	-0.859025369807261	0.0104616954301273	-0.000907268058902429
9.5	0.00897813692947039	-0.00944030194745748	-0.609251568223706	-0.773703823568733	-0.609014477673397	-0.773753406539318	0.0116666902666516	-0.00469211341441112
9.6	0.00768604040037649	-0.0110365225738323	-0.722277769793115	-0.670045476088372	-0.721965558194293	-0.670183330072172	0.0101166356380602	-0.0086604768830268
9.7	0.00649847024547055	-0.0114749141757035	-0.817564082518642	-0.549687651402633	-0.817275688577451	-0.549919973123551	0.00735337328518709	-0.0112433308495676
9.8	0.00553830267774505	-0.0118438151025651	-0.892853099333534	-0.416100856004962	-0.892599136695863	-0.416269243144517	0.00394181079135985	-0.0128112085955939
9.9	0.00440756034942202	-0.011669703280612	-0.946422095096643	-0.272691677709235	-0.946168932211331	-0.272899880073009	0.000151440236155576	-0.012926272805026
10	0.00403790378492251	-0.0113370037840736	-0.977726208277586	-0.122800537684081	-0.977571164818965	-0.123162904179524	-0.00239550659210231	-0.011913822118036
10.1	0.00317742049522697	-0.0115021173562333	-0.984840697350214	0.0308829791167589	-0.984775942540834	0.0304509654592361	-0.00550670583640167	-0.0115811342166143
10.2	0.00241944879436379	-0.0112584026143218	-0.968020989611344	0.183290656259194	-0.96789782188028	0.182859145264667	-0.00891841430461432	-0.00976262717326389
10.3	0.00166902822346641	-0.0109404571872816	-0.927903966317214	0.331193514599514	-0.927919951855952	0.330651120953452	-0.0118596083249723	-0.00712067584350181
10.4	0.000850990095770662	-0.0108139470226298	-0.865602793541831	0.471101148692849	-0.865738371097878	0.470588445353525	-0.0141386577465746	-0.00370722563263144
10.5	0.000289497107322786	-0.010109954510302	-0.781953627358369	0.600422761757024	-0.782126271685125	0.599989379169326	-0.0145170176090147	0.000486504793254259
10.6	0.000237244085834269	-0.00997459148255512	-0.678848189107744	0.714216006394619	-0.679120741207679	0.713885040101821	-0.0133257233923097	0.0036717876846854
10.7	0.000182581549200659	-0.00995654736886493	-0.559819736900622	0.810830286242217	-0.560120544779201	0.810519982381061	-0.0114321757535552	0.00612557384439547
10.8	-6.32551656931092E-05	-0.0104838184251816	-0.427192342187721	0.887900501361956	-0.427543514508858	0.887601365217673	-0.00937729869982678	0.00781023720059675
10.9	-0.000780765111442886	-0.0107056421166966	-0.28405315991307	0.943632964883316	-0.284444144219857	0.943509568461603	-0.00734674279044786	0.00921722949626161
11	-0.00132485648745438	-0.0110368101306123	-0.133736476822889	0.975767985180252	-0.134174136472479	0.975677192903725	-0.00470245992704008	0.0100935032281226
11.1	-0.00203449136362676	-0.0111054020686035	0.0188916541923181	0.984528743432375	0.0184022173574484	0.984541999607009	-0.00214281515863905	0.0103677106437024
11.2	-0.00259406039629531	-0.0113496862282424	0.171494205904363	0.969849546135974	0.171036335106214	0.969922568644435	0.000733633264139868	0.0101288297363678
11.3	-0.00326299638467421	-0.0115658114951445	0.320056221999922	0.931486668960593	0.319596404454394	0.931623483012588	0.00369650071895169	0.00929476011033845
11.4	-0.00423533294965194	-0.0117308124803198	0.46085677805336	0.870207191984133	0.460452417818534	0.870320643326593	0.00640488213423879	0.00816594701890447
11.5	-0.00497521744002765	-0.0116800328432646	0.589666516218138	0.788078024229517	0.589347560270684	0.788380568938547	0.00939872549284047	0.00599392587571517
11.6	-0.00652950367722996	-0.0118722923201934	0.705107356651523	0.687336730612163	0.704891706342833	0.687664942124568	0.0104479113950222	0.00280266179820499
11.7	-0.00799748553990273	-0.0111089708195412	0.803365256330404	0.569332039446558	0.803161859652353	0.569639069514355	0.0106315829680002	0.000305106376372339
11.8	-0.00951017009716822	-0.0102467838380725	0.881932057531922	0.437384360862223	0.881750291065073	0.437835817703469	0.0100747298170946	-0.00192053058618651
11.9	-0.0110078603222817	-0.00852141493315324	0.938773257878056	0.295301488130102	0.938667552366317	0.295751870194036	0.00879180071886043	-0.00297507028329734
12	-0.011570103724416	-0.00650422786705195	0.973661696450847	0.146426326529775	0.973633004893212	0.146791331401625	0.00927593209002178	-0.003592040011452
12.1	-0.0119163099192844	-0.00499283256284768	0.984415598105387	-0.00702894011189066	0.98434492651194	-0.00664362127731044	0.00901861980510014	-0.00600889839262973
12.2	-0.0121796908576868	-0.00359012275202443	0.971073117049834	-0.159700135048749	0.971090956329916	-0.159401744459538	0.00769010968461381	-0.00803036829614762
12.3	-0.0123057067378643	-0.00225584184539014	0.934312870725623	-0.308259843235632	0.934432836866968	-0.307952918953637	0.00583811804968783	-0.00985470452872837
12.4	-0.0127693559750883	-0.00107056843463412	0.87564551704243	-0.449497914392425	0.875709060143129	-0.449127719934531	0.00318648623395933	-0.0110434477416053
12.5	-0.0127090170992331	0.000793085831027899	0.794949175916993	-0.580726764307778	0.795290941322661	-0.580336067172098	0.000797369727545388	-0.0109397918247323
