# GHZ S RI R 50
0.2	-0.000134813152421553	-0.000535037740505627	0.950682792066455	-0.307540406320702	0.950460199171564	-0.307515133741458	-0.000169947612437198	-0.000393094098128795
0.3	-0.000473247277522966	-0.000489232829779227	0.891183695969246	-0.451426204893047	0.891027121981479	-0.45133083281352	-0.000588195547186081	-0.000483634868746458
0.4	-0.00064536316699836	-0.000256713598070376	0.810198747737885	-0.584243213455557	0.810210596343232	-0.58426837294386	-0.000873898852044352	-0.000243946688094016
0.5	-0.000442869145242208	0.000357128254473144	0.70938393055327	-0.703575927317815	0.709228416339726	-0.703474298161559	-0.000626985798199176	0.00037821290149374
0.6	1.3772240984508E-05	-1.23327212359545E-05	0.59105245751078	-0.804855305547679	0.590932791812042	-0.804693279237302	-0.000296561280279591	-3.2133037703137E-05
0.7	-0.00014726572093179	-5.60679323950773E-05	0.458906290719545	-0.886718280600361	0.458887381790626	-0.886605489206023	-0.000477824914532887	-0.000176400059869666
0.8	-0.000142177884623241	-0.000165359498118282	0.315501961317698	-0.947372027720266	0.315470377940581	-0.947181724797708	-0.000672143294520711	-0.000129280143752913
0.9	-0.00061387420443343	-0.000107349464685621	0.164153981758882	-0.984861540198686	0.164088704884586	-0.984769337618281	-0.0012091589870516	-9.78944422932117E-05
1	-0.000736039048124917	0.00118060175667621	0.00897545130119226	-0.997681056474915	0.00892365337207895	-0.9976494979084	-0.00130871077651591	0.00114567082230312
1.1	0.00076899692273362	0.000920336912299787	-0.14560678984389	-0.987229096552132	-0.145622638008507	-0.98709824504882	-0.000216191503283009	0.00078084588560644
1.2	0.00108584126064631	-0.000476290927011905	-0.297599914106888	-0.952674114094795	-0.297523270709881	-0.952647921678974	-0.000122161203188583	0.00048855349595001
1.3	0.00112467304133307	-0.0024297917032309	-0.442188315354043	-0.89462354864675	-0.442165196555665	-0.894616917365203	0.000695118341369456	0.000676537196025328
1.4	0.000726803428063639	-0.00447066676615571	-0.575497675241744	-0.814723196070436	-0.575473404385888	-0.814701500808124	0.00187005342469526	0.000424495920411762
1.5	0.00112564999333412	-0.00604432205708181	-0.694813310496457	-0.71574163975595	-0.69471117425821	-0.715656384293186	0.00391575145990432	-0.000907084327133336
1.6	-0.000727463105366809	-0.00741836465839433	-0.798235196310094	-0.599041534031494	-0.798160766759549	-0.598981295310575	0.0026468242835711	-0.0025398352906856
1.7	-0.00193312779665535	-0.00658522993017173	-0.88127153407292	-0.467743591282964	-0.881435849499429	-0.46722501223247	0.00205633152135968	-0.00252699098050939
1.8	-0.00278015078694751	-0.00573028276243134	-0.943235685441666	-0.324482648046984	-0.943123958732969	-0.324481461628664	0.00143766066865093	-0.00277330807332867
1.9	-0.00323490582266814	-0.00421811931355336	-0.981959237275824	-0.174537695861504	-0.982051702572466	-0.174047903083805	0.00092182926878224	-0.0024034857406764
2	-0.00172651581704277	-0.00370592871368503	-0.997662270868666	-0.0190078124426607	-0.997674163858073	-0.0189617030749112	0.00202130731898255	-0.00295451821422812
2.1	-0.00281575900307974	-0.00498683282731456	-0.987877150737403	0.13708366397477	-0.987915309262642	0.137121056823809	0.000363632333741593	-0.00456414091907127
2.2	-0.00440856697298084	-0.00434395879122691	-0.954156139776666	0.28878041535281	-0.954080501133937	0.288843215328053	-0.000918876797523092	-0.00412461433348625
2.3	-0.0055447471378294	-0.00322253627516786	-0.897691558582542	0.43289353870408	-0.897305785831957	0.433407458213703	-0.00174104442925659	-0.00383672777292777
2.4	-0.00661902899524445	-0.00146405737765922	-0.818616449113568	0.568424301366154	-0.81888676661211	0.567837034286556	-0.00265610034321352	-0.0032331789797482
2.5	-0.0054615307711514	0.000834604204454747	-0.719596466461096	0.689090311258214	-0.719813819804084	0.688579581284788	-0.0018308165257591	-0.00288162114457958
2.6	-0.00486104694524523	0.000471962577605412	-0.60361405462536	0.791200685562323	-0.603508638987114	0.791016809759145	-0.002304184972816	-0.00436512307370264
2.7	-0.00507637702612259	0.00106618933025005	-0.472824796715011	0.87527685594359	-0.473277480945026	0.874871320008722	-0.00364934871298168	-0.00431742932048248
2.8	-0.0046888113560998	0.00193699834827289	-0.332104211627527	0.937453395020189	-0.331433742300655	0.9376085693274	-0.00454014349006262	-0.0035276717830038
2.9	-0.00334728110225813	0.00264659144968227	-0.181279593474998	0.977325504773909	-0.181311507710621	0.977238149665142	-0.00427136724543987	-0.00221132051295472
3	-0.00176124827472841	0.00229000526611682	-0.0264970629123571	0.992295700342827	-0.0271999380814227	0.992141860415188	-0.00351850420913616	-0.00154045038941602
3.1	-0.000859790526495712	0.00206067909920858	0.12579324815572	0.984411050928578	0.126384406677583	0.98438940741247	-0.00289418860197651	-0.000738081818279458
3.2	0.000345814624631188	0.0016611511365424	0.277884388473417	0.952571530606632	0.27782912309843	0.952511538002265	-0.00184957961992035	-0.000190964620688267
3.3	0.00158625805005589	0.000936312386890069	0.42258729745782	0.897185944471893	0.422449960963977	0.897172729023053	-0.000658586660823188	-7.50937513212212E-05
3.4	0.00272821127993405	9.21535229216833E-06	0.556215704292126	0.819964642079118	0.556054391407017	0.820083717679299	0.000798245913044723	-0.000514378008477195
3.5	0.00406709889559905	-0.0022618156964755	0.675845423122298	0.724235486920033	0.675766126581493	0.724274745534646	0.00198274611862115	-0.00218421953899695
3.6	0.00287953508301889	-0.00422993243430884	0.780224724666318	0.610844088198308	0.780462433870602	0.610393744724885	0.00125611070435747	-0.00323542057452517
3.7	0.00208355868878619	-0.00516017594986868	0.865513959089419	0.481098705105541	0.865396846040244	0.48124261839825	0.00121627701061784	-0.0035477935232977
3.8	0.00104158383766116	-0.00588687460401	0.928858203840089	0.341276413414465	0.928912002640233	0.340897282379486	0.00110932911250489	-0.00415137776493101
3.9	0.000328266850724748	-0.00598258405722859	0.970288046838088	0.192140045624314	0.970054917065183	0.192808166805512	0.000608916666392332	-0.00478955890587983
4	0.000682091468067229	-0.00677699620150807	0.988881919139644	0.0397281295714172	0.988843799491592	0.0398311872769396	0.00102219677661714	-0.00613579253259246
4.1	-0.00118052398747986	-0.00872549792491761	0.982055864804877	-0.114912821275802	0.981872828713861	-0.114784357749198	-0.000942427805228872	-0.00793249326580021
4.2	-0.00372660111264472	-0.00895017500626547	0.951214807923658	-0.266148488667616	0.951255206810248	-0.265496912870614	-0.00277271774473217	-0.00817491421352071
4.3	-0.00611054484058249	-0.00869985942058197	0.898381389650673	-0.40951584300289	0.898246883614004	-0.409403995117624	-0.0044561909366073	-0.00841806712004421
4.4	-0.00872488832269898	-0.00727279596748705	0.823840906526476	-0.543907977775957	0.823677353481331	-0.543773766597426	-0.00629079616311222	-0.00804500594622816
4.5	-0.00936778377508949	-0.00514738159920783	0.728219082665686	-0.665310432861177	0.728032630398244	-0.665136324703123	-0.00683819542876919	-0.00760640901159671
4.6	-0.010550716912476	-0.00466626750420289	0.615335532533449	-0.769088934775784	0.615681146626123	-0.768397711088644	-0.00866943220775273	-0.00852954388221938
4.7	-0.0121861971126562	-0.00328317445640471	0.489257620239536	-0.854407912868437	0.489276616588301	-0.854054294939684	-0.0111289978953299	-0.0082188303182947
4.8	-0.0134571671493624	-0.00112995650355065	0.350541714478534	-0.919441817415247	0.350764157091593	-0.919128925329504	-0.0131653183943145	-0.00725339121767383
4.9	-0.013804249258345	0.00131921261290586	0.203773529697738	-0.961555870884545	0.203554959838338	-0.961562012864885	-0.014506208574019	-0.00570423159892068
5	-0.0131273710375016	0.00338852923467803	0.0525986133291836	-0.97982395699213	0.0527759135451221	-0.979581807223743	-0.0148931343736379	-0.0040391394126088
5.1	-0.0125487730594788	0.00534952262724111	-0.0986062755951295	-0.976531169861663	-0.0982761660864512	-0.976309367713742	-0.0152539530718389	-0.00200601761403118
5.2	-0.0110520721620125	0.00780795965931655	-0.248820926690879	-0.949428084677677	-0.248332856286926	-0.94940381211099	-0.0146265259171353	0.000166765139292047
5.3	-0.00871391435795127	0.00978241211886987	-0.392640543464212	-0.89905311789539	-0.392303688698786	-0.899268990547662	-0.0134021706565546	0.00173206354119138
5.4	-0.00530767692902411	0.0115836647940723	-0.526462711808714	-0.827024279859215	-0.526252622299715	-0.827223963022067	-0.0119234004422949	0.00282084691522754
5.5	-0.0013029824332769	0.0102888385551563	-0.647428769478017	-0.736507790022352	-0.647192305258804	-0.736701252236561	-0.0109973658531328	0.00183914441228316
5.6	-0.000676719017384005	0.00979687805055602	-0.754353875514315	-0.627299913416515	-0.754166070020498	-0.627470746533203	-0.0126143516259795	0.00298368846847719
5.7	0.00104988571374571	0.0102557079086554	-0.842159069006751	-0.502540653044883	-0.842031241858458	-0.502758810378158	-0.0123025701183595	0.00517308762724606
5.8	0.00315810642994251	0.0105562249464572	-0.909262879212394	-0.366079328720797	-0.90919593157927	-0.36636180578036	-0.0114192353298346	0.00697253601421639
5.9	0.00590467852443314	0.0109119532817573	-0.954875965624557	-0.221653002541591	-0.954890301866193	-0.221735887582543	-0.0100275025410307	0.00875232327473837
6	0.0107765329619937	0.0089200710683692	-0.97881144153879	-0.0709084570542783	-0.978693117550989	-0.070966024318271	-0.00761089800067118	0.00858442749575941
6.1	0.0115974918396343	0.00460681541198145	-0.977000599632982	0.0821348461770782	-0.976875101500728	0.0819876490289093	-0.00840624953835602	0.00822303044440225
6.2	0.0114169498431971	0.00203633110043531	-0.95208383010961	0.231930991457296	-0.952070137718149	0.231730059371703	-0.00832413153680635	0.00953768135957619
6.3	0.0107639042072878	-0.000396563263382515	-0.904914877183623	0.376192722622056	-0.904910149452485	0.376009098575566	-0.00734181841257843	0.0104704483000407
6.4	0.00984598457601438	-0.00228783909318824	-0.836169816018404	0.512061249281325	-0.836138066098486	0.511852472577102	-0.00604386019399582	0.0109059608687774
6.5	0.00893786362349056	-0.00454963788787987	-0.7456832886709	0.63571043411293	-0.745707009269866	0.635508208653231	-0.00455309512075504	0.0103674483627597
6.6	0.00734641538996783	-0.00633092523982182	-0.63846928291048	0.742283909756235	-0.638541845728787	0.742034118678799	-0.00363358410692497	0.0098045986326079
6.7	0.0057169798860146	-0.00778394750172633	-0.516413571551153	0.832186876591084	-0.516514709791251	0.831967508497652	-0.00297436880926031	0.00903072883485327
6.8	0.00404007894617163	-0.00883185926405365	-0.381462006993208	0.902396136614737	-0.381601738540642	0.902226480930402	-0.00285030862871329	0.0085426027606204
6.9	0.00238237375048377	-0.0096033365333091	-0.236726686649555	0.950461495629612	-0.236950809763352	0.950351320264789	-0.00254576442297871	0.008473743641458
7	0.000564848891057596	-0.0104189279454063	-0.0875075768785405	0.974458089265921	-0.0877147958940906	0.974368220569175	-0.00238871194090726	0.00813184965620565
7.1	-0.00160289440550803	-0.0101740317959179	0.0634529848264486	0.977387628571695	0.0632536896056397	0.977254376063426	-0.00208425566879753	0.00868709635103206
7.2	-0.00306912134744771	-0.00962157441745291	0.214263413307263	0.95628144814779	0.21398395582769	0.956245370460934	-0.00100211565921943	0.00907243147807536
7.3	-0.00449494974086887	-0.00902557786984814	0.359748528515556	0.911671725660972	0.359514279793737	0.911696135254379	0.000153187779892826	0.00910227429468737
7.4	-0.00544020009780484	-0.00812843317351042	0.496027726633224	0.845013539672582	0.495815752943213	0.845062602589127	0.00133770312502915	0.00885393880649562
7.5	-0.00608336033584708	-0.0079600281278624	0.620544349201232	0.759751384630651	0.6203753855068	0.759818945805477	0.00256198562842259	0.00793924736793516
7.6	-0.00754594171489842	-0.00729545191034146	0.732221784484478	0.654763115746738	0.731964980262562	0.654842721520605	0.00317440252779216	0.00716736238948248
7.7	-0.00841676547005316	-0.00566067002714826	0.825011277940523	0.533307166139644	0.824824808597352	0.533521456465733	0.00413788154598666	0.00643379475299105
7.8	-0.00838062140365068	-0.00369346599975162	0.897915443781031	0.399318369301084	0.897810740994984	0.399541656739138	0.00508999121665155	0.00515796827303308
7.9	-0.00738018385487538	-0.0013514897486529	0.949621255964292	0.256252658455217	0.949481816807655	0.256430150744931	0.00588352498788581	0.00368673179191446
8	-0.0038869084536527	-0.00087589712893513	0.97955459548175	0.105339228810273	0.979528911023543	0.105601211784101	0.00639378820329721	0.000825223036773632
8.1	-0.00363558956189434	-0.00209425185875631	0.983679500085537	-0.0485188640787444	0.983705870725578	-0.0482635667545348	0.0032061998406698	-0.00129762006141534
8.2	-0.00347298873555027	-0.00177293224159328	0.964473098328665	-0.200155329624038	0.964518062905974	-0.199838340508751	0.000749952859260137	-0.000887410094651496
8.3	-0.00328151357873915	-0.00125574775027385	0.922541668651676	-0.347308695375254	0.922589868729746	-0.347021265233661	-0.00102761985244926	9.6571144499506E-05
8.4	-0.00294788067036134	4.92812518135135E-05	0.858372227822693	-0.487084335494177	0.858467912710892	-0.486881238424917	-0.00220485289762948	0.00188709062409749
8.5	-2.43699590567747E-05	0.00129365311603144	0.77144156169521	-0.615090779650375	0.771491535794814	-0.614939525185351	-0.00108402711774346	0.00314294807314376
8.6	0.00152439422970813	-0.000658801752943222	0.667059133991069	-0.726527596093238	0.667225168977209	-0.726288666829269	-0.00185372872084398	0.00302506485829284
8.7	0.00178145224716066	-0.00140347840507217	0.546872491233155	-0.82178009785754	0.54712968706302	-0.821561592333267	-0.00205364150795967	0.00483473183899399
8.8	0.00225121120621213	-0.00183992166896478	0.41288797583795	-0.89745600510606	0.413072196749944	-0.897314680920478	-0.00106917638039884	0.00645090801082982
8.9	0.00276244931468938	-0.0018318588524639	0.26801317916861	-0.951068681583153	0.268191042306121	-0.950896451398086	0.00104609090891456	0.0078600817892269
9	0.00485209144053812	-0.00220549954311229	0.11778711254701	-0.98021198600858	0.118095460085669	-0.980162078075093	0.00451747113498393	0.00788689286192685
9.1	0.00645469537311392	-0.00386760845353364	-0.0351552203376808	-0.988232708251838	-0.0348454529580546	-0.988188128022421	0.00741687966258832	0.0063439323143473
9.2	0.00793082194954289	-0.00587426684194449	-0.188926488262189	-0.971439111752297	-0.188577606388767	-0.971413052507596	0.0100329576079194	0.0037353522782111
9.3	0.00857756796980865	-0.00800925408887202	-0.337883699510118	-0.930430160429565	-0.337530351279552	-0.930400937110515	0.0113079004427333	0.000470397994607492
9.4	0.00933747671722899	-0.00952738702821453	-0.477860354611545	-0.866731142649921	-0.477534699025652	-0.866819089890695	0.0118319610270379	-0.00245546186891748
9.5	0.00993686181424993	-0.0132989800094516	-0.606655074403141	-0.78385516090073	-0.606416031379552	-0.783903061592071	0.0107866508644325	-0.00698847908336125
9.6	0.00711420299408561	-0.0151745570286057	-0.722893620652163	-0.68001171913639	-0.72257815433908	-0.680148402279453	0.00748384365227493	-0.00813479028648264
9.7	0.00539195867642736	-0.0151527329575497	-0.820129533785443	-0.559083630449543	-0.819837480842456	-0.55931582708781	0.00562910342982925	-0.00900979913398301
9.8	0.00400767779359788	-0.0147516890579939	-0.897292672063395	-0.42500091152015	-0.897035644416162	-0.425169032880272	0.00323407833005975	-0.00985253836958846
9.9	0.00346291746076994	-0.0129366553368679	-0.953272852941157	-0.28098206305905	-0.953016125059958	-0.281190581984702	0.00100411324731932	-0.00981470075772109
10	0.00547788370353276	-0.0136009566946886	-0.987146335561705	-0.12818183230632	-0.986988184273622	-0.128547226925932	-0.000910975097229516	-0.011316869180059
10.1	0.00359353808008647	-0.0149561791056358	-0.99420413631267	0.0278470622231982	-0.99413731349666	0.0274112057051048	-0.00621601753371425	-0.0105640561919494
10.2	0.00223595052240656	-0.0144024690983291	-0.977926769244306	0.18207227009723	-0.977801081572439	0.18163697563597	-0.00934083472338199	-0.00746680285616468
10.3	0.00125643092577369	-0.0134205339343796	-0.938149329913465	0.332340817819148	-0.938164177046029	0.331792861483429	-0.0112734597486129	-0.00437380655054593
10.4	0.00093681973934761	-0.0121757851030063	-0.875296177008464	0.47530067779694	-0.875432710250021	0.474782370570052	-0.0121225883912373	-0.00128738222149352
10.5	0.00239391611201336	-0.0116993412789981	-0.788897346993829	0.606323105135179	-0.789071783204118	0.605885800814641	-0.0114914461608399	0.000425985780887979
10.6	0.00240560237738814	-0.0132640602030399	-0.685053112983572	0.720504201420043	-0.685328052540828	0.72017022255392	-0.0124125435994638	0.00162313686367805
10.7	0.00167791871235132	-0.0137688162755872	-0.564855341381184	0.818612134383911	-0.565159065077713	0.818298997269327	-0.0129060404038252	0.00469638170311197
10.8	0.00103991797892878	-0.0141717184703245	-0.430182262333159	0.896851088073702	-0.430537131488767	0.896549532343502	-0.0118817920107072	0.00797488423027412
10.9	0.000493649528599309	-0.014435237608464	-0.284429855105547	0.952526900441157	-0.28482453732986	0.952403297972041	-0.00977024277075225	0.010560238555535
11	-2.87792701169633E-05	-0.01550298388451	-0.133502158832226	0.983718042387541	-0.133943425298023	0.983627109762876	-0.00713060687816851	0.0120017811412685
11.1	-0.00129027270442047	-0.0158846730496166	0.0208278921194668	0.993437555815583	0.0203340333371445	0.993451809554303	-0.00428985805654128	0.0134190038004025
11.2	-0.00236131978148598	-0.0162391095302525	0.175761029824467	0.978065871960691	0.1752992576538	0.978140837622218	-0.000670517279588927	0.0138013441917567
11.3	-0.00343517634395067	-0.0161516699925204	0.325961159076358	0.938242478471623	0.325497933715574	0.938382028819362	0.00316873387563267	0.0133258332633903
11.4	-0.00397040390566309	-0.0158063095715804	0.46725764807136	0.875541388152298	0.466850486064579	0.875657025408054	0.0070889727418227	0.0119606032659797
11.5	-0.00448176836138353	-0.0172522000514795	0.597580851416994	0.793485339872683	0.597259908041153	0.793791676538189	0.00955703836084526	0.00834934840815973
11.6	-0.00759865377029924	-0.0174087411263568	0.714870166037128	0.690021854098257	0.714654204785881	0.690354091862145	0.0100881067027068	0.00668529422862447
11.7	-0.0097208638373428	-0.0158465272583245	0.813135407370859	0.56959686097712	0.812932026577463	0.569907546691913	0.0117155643301781	0.00479122229747571
11.8	-0.0114718475728954	-0.0138134860022574	0.891362804992078	0.435848456902761	0.891182157118116	0.436304503083323	0.0127122080657719	0.0021872247255023
11.9	-0.011630625185427	-0.0102742921296182	0.948353365395959	0.292333661439645	0.948249385172228	0.292788431061802	0.0134591418311672	-0.000471283791308765
12	-0.00962753150383479	-0.00971522439290923	0.98322531211738	0.139914838790297	0.983199287478928	0.140283219653824	0.0135126151339058	-0.00562366317142231
12.1	-0.0108335915404855	-0.00966097414083384	0.991240196603922	-0.0155366156286599	0.991172341593352	-0.0151479946605792	0.0094017139737617	-0.0086788823778472
12.2	-0.0117703023260609	-0.00861038145966742	0.975968077973358	-0.169249110214973	0.975988648997875	-0.168948941712317	0.0060908597282881	-0.00981256623636789
12.3	-0.0126602726310091	-0.00716862721549501	0.937246030363784	-0.318877026627968	0.937369600455012	-0.318569313003274	0.00288497256465443	-0.010322667099828
12.4	-0.0135066230452526	-0.00485968053104274	0.875973436311425	-0.461420310537145	0.876041282629755	-0.461048633641233	-1.42682784958079E-06	-0.00965495495221878
12.5	-0.0118054624611008	-0.0028356252598819	0.79092264250013	-0.591809510782315	0.791270042898947	-0.591421440813448	-0.00147192821069577	-0.00953042266095545
12.6	-0.0116893445409474	-0.00288556612883192	0.689164614487927	-0.705565660998208	0.689420099289034	-0.705325159477809	-0.00489794543749687	-0.00923276759365013
