# GHZ S RI R 50
0.2	-0.000270064897332868	-5.14212931445423E-06	0.948585233756278	-0.30808552322229	0.948363077528951	-0.30806003751119	-0.000313009127178688	0.000145156512194973
0.3	-0.000250586969225892	7.1612666316265E-05	0.888459584047906	-0.451660048362878	0.888303511810336	-0.451564672566917	-0.000375195882346216	9.632206071775E-05
0.4	5.53523252959931E-05	5.32685630030442E-05	0.806821515781461	-0.583723126574127	0.80683328916122	-0.583748227829415	-0.000179001141845488	9.51303743989E-05
0.5	-4.10987874405163E-05	-0.000253084559705093	0.706183457218623	-0.701607751284483	0.706028599544042	-0.701506360955721	-0.000229333525135712	-0.000202175491736323
0.6	-0.000215315885646263	2.68998569713329E-06	0.588455107471194	-0.802610046008693	0.588335966945864	-0.802448471171396	-0.000538374909920671	2.29600629635148E-05
0.7	-2.99535866268382E-05	0.000267002583668718	0.456404529929532	-0.88381561602251	0.456385791906025	-0.883703228938365	-0.000371996475080436	0.000206928661022782
0.8	0.000300703558080637	0.000275043599386264	0.313542604284196	-0.943584487037308	0.313511280393869	-0.943394966026723	-0.000226690618306137	0.000390180755855749
0.9	0.000703394207316324	0.000361131342589459	0.163367584898897	-0.980377152798094	0.163302609248708	-0.980285368133132	0.000142251854279925	0.000461102158993204
1	0.00113096822183802	-0.000510213733719993	0.00934080923544522	-0.993793385077407	0.00928920034335339	-0.993761970162577	0.000639656626177153	-0.000484141958237202
1.1	0.000469987596153862	-0.000729212122993422	-0.145197527660985	-0.983026088537886	-0.145213281473349	-0.982895786816334	-0.000430194950343361	-0.000857179689147894
1.2	0.000647301129052858	-0.00136763800957455	-0.296011085588751	-0.948175022476201	-0.295934812923174	-0.948148941795642	-0.000521353689884517	-0.000418402156619061
1.3	0.000521028178332447	-0.0027922849896233	-0.439378049164351	-0.890552869819491	-0.439355048517684	-0.890546254523925	8.05240843111833E-05	0.000281428788144432
1.4	0.000251738269799427	-0.00440379547799326	-0.571966288784792	-0.811636078011836	-0.571942152882027	-0.811614455085762	0.00134154354361697	0.000477630908266522
1.5	-0.000521501880899719	-0.00498763776068556	-0.691388351201302	-0.712709875068811	-0.691286711534909	-0.712624974043664	0.00214095020270788	0.000197287076288221
1.6	-0.000104800518291891	-0.00474980744096931	-0.793072007885409	-0.596323147536576	-0.79299806387296	-0.596263187597995	0.0031629285802529	0.00021988721731736
1.7	-0.0001077819724762	-0.00517298095643172	-0.875341651864513	-0.466649619803876	-0.875505962951994	-0.466134328501992	0.00382593367374336	-0.000942689998183687
1.8	-0.00062474546044176	-0.0054091764244191	-0.93728649756155	-0.324816188771172	-0.937175391512544	-0.324814756805809	0.00361176789477513	-0.00226133016915012
1.9	-0.00117992843520419	-0.005637006463068	-0.976228557457395	-0.175719105272301	-0.976321582550201	-0.175232182632774	0.0030424695000008	-0.00367632624249712
2	-0.00293861000753514	-0.00565537583472446	-0.99093318190985	-0.0213923250144816	-0.990945111310703	-0.0213465544109088	0.000833990265350263	-0.00481591220650813
2.1	-0.00341211643074444	-0.00408540213907922	-0.982207428943606	0.132030957819263	-0.982245504476656	0.132067952378932	-0.000242144325669239	-0.00352220415305949
2.2	-0.00370961625144316	-0.00370762799438283	-0.950066410821626	0.28275316629126	-0.949991490448263	0.282815957501356	-0.000194787181869747	-0.0033165757702985
2.3	-0.00429093922423426	-0.00314755726193309	-0.894811805088604	0.426196245885682	-0.894430628168585	0.426709178618036	-0.000412902937002663	-0.00359619389210907
2.4	-0.00480826512040233	-0.00262051964436695	-0.816768554875071	0.560799982040058	-0.817034211922705	0.560214759079134	-0.000716216653828242	-0.004281817090715
2.5	-0.00597558423502818	-0.00224755726566834	-0.720422658837521	0.680020092035279	-0.720635122726737	0.679510718146881	-0.00224677157785478	-0.00595238994865066
2.6	-0.00680862164442952	-0.000105860062061059	-0.606977773266959	0.783675034084254	-0.606871437739093	0.78349265356851	-0.00427431812532491	-0.00496216406525869
2.7	-0.00618485343931811	0.00159162528234189	-0.477308888814554	0.868682968404216	-0.477757017121991	0.868275707259812	-0.004847390543896	-0.00375691750113395
2.8	-0.00495322969612396	0.00266107954644167	-0.337961831659987	0.931623416858407	-0.337294913627962	0.931783073569856	-0.00490503442827845	-0.00270704829774465
2.9	-0.00324980281377742	0.00308090554230636	-0.189019278054913	0.972714717075591	-0.189050349405872	0.972627364991918	-0.00425141592711613	-0.00165428003144012
3	-0.00167092716820053	0.00312403084050041	-0.0352544098871945	0.991029529235946	-0.0359551923958036	0.990869626607123	-0.00350484350244286	-0.00055320121556293
3.1	0.000386981646647777	0.00258280122841029	0.118185898149089	0.984427985111148	0.118776656896923	0.984410858498311	-0.00167230436070841	3.43592769982684E-05
3.2	0.00156939625732985	0.00133300324785974	0.26997931057105	0.953817334479868	0.26992458179118	0.953756961319628	-0.000634561798692543	-0.000297723717976994
3.3	0.00255528863093742	5.73229160137123E-05	0.414774341938759	0.900407956459971	0.414637175306954	0.900393577591768	0.000334726381736466	-0.00075302215008565
3.4	0.00297663584614209	-0.0015305762463683	0.549614029163909	0.825518417571367	0.549451540097564	0.825636203083748	0.00107108514518783	-0.00188529005039607
3.5	0.00275465000033365	-0.0025847070339563	0.671812139792686	0.730027913046611	0.671732451042462	0.730066678044635	0.000645481452984728	-0.00233061808929163
3.6	0.00318001644364706	-0.00352311911995121	0.776034169917434	0.616916992739801	0.776275332906778	0.616468214268946	0.0015400020511473	-0.00229334653067631
3.7	0.00300642990774198	-0.00516298636784844	0.862634688930509	0.488642450391396	0.862516278499912	0.488785585343091	0.00216862924770879	-0.00329831177076904
3.8	0.00214648196732534	-0.00652910015308865	0.928038419325555	0.349387554472514	0.928095353636789	0.349008075804424	0.00228951263996232	-0.00455884382160774
3.9	0.00122947130252677	-0.00787380863978894	0.971419732833707	0.199553925217152	0.971181238046331	0.200222106731212	0.00161235376339651	-0.0065148104666715
4	-0.00117541020440325	-0.00878255761525439	0.989793187696228	0.0467788773052317	0.989754292265602	0.0468817893523186	-0.000813298416426573	-0.00805800733086096
4.1	-0.00259530424828314	-0.00824909937191549	0.985263456442628	-0.106618946830666	0.985078890321946	-0.10649178856541	-0.00242539466985164	-0.00731112920821816
4.2	-0.00414178368792403	-0.00824824552646563	0.956755713189569	-0.259051135343828	0.956790758563769	-0.258396960537162	-0.00325734288000619	-0.00725958643626056
4.3	-0.00578335259081835	-0.00799626351556687	0.905186220042534	-0.404007406960775	0.90505029416745	-0.403896183818442	-0.00416164088222581	-0.00747132700523598
4.4	-0.00734260702494459	-0.0074686671532826	0.831110043962826	-0.539495986169314	0.830944843551055	-0.539362554279724	-0.0048825245822307	-0.00800641021213861
4.5	-0.00951700045202438	-0.00732890707124696	0.737779145624206	-0.661158093624864	0.737590209311763	-0.660985032387795	-0.00697193286728872	-0.00963956938832472
4.6	-0.0119323386335498	-0.00526643534271416	0.626312071677531	-0.768866117478224	0.626653918352827	-0.768167147153024	-0.0101564442357483	-0.00900867497066784
4.7	-0.0133319635972305	-0.00321212596810613	0.499465053847301	-0.856816333440054	0.499481436813646	-0.856459995283193	-0.0124304875362364	-0.0079626834757688
4.8	-0.0143760660066977	-0.000571848845707649	0.359975127323066	-0.923763212670972	0.360196929106541	-0.923446323414429	-0.0142273188056282	-0.00644318569320107
4.9	-0.0143458639436583	0.00203226599020947	0.212908873198627	-0.967762868073697	0.212688579735544	-0.967770760969386	-0.015163630498295	-0.00468748409987856
5	-0.0137432506096699	0.00464362356171686	0.0601458643075048	-0.990025696475173	0.060323353469346	-0.989779669956039	-0.0156005762126452	-0.00243861322701056
5.1	-0.0116628686026977	0.00680689644754196	-0.0951537425719691	-0.987352973499428	-0.0948211503759132	-0.987127295582315	-0.0143886707057519	-0.000135247795216108
5.2	-0.00949276006293277	0.00822033316871157	-0.24742376472286	-0.960228801400787	-0.24693077613797	-0.960202245547818	-0.012968707312697	0.000972786156570467
5.3	-0.00722091864943821	0.00902551558401562	-0.393372855878653	-0.910213720986437	-0.393031553477583	-0.910430605407336	-0.0117358857230076	0.00125698205379007
5.4	-0.00513391912523535	0.00952126466015226	-0.530209255561711	-0.838516764115704	-0.529996044105282	-0.838718186477671	-0.0116296694814091	0.000874497148419706
5.5	-0.00376119684668598	0.0107551980018245	-0.655063960230396	-0.745358151882434	-0.654824656112829	-0.745553893805628	-0.0135446119549063	0.00242708538489854
5.6	0.000201225659703302	0.0118521113928688	-0.761921797089787	-0.633755198112479	-0.761732066027138	-0.633927739299757	-0.0118473140893687	0.00530698251063125
5.7	0.00329877735413838	0.0107998215081086	-0.8508524070423	-0.50792874154973	-0.850723208792103	-0.508149151228177	-0.0101217532062395	0.00602769022400148
5.8	0.00580930953594569	0.00951719067034263	-0.919363879454124	-0.369534709541928	-0.919296367246486	-0.369820297475897	-0.00879588292232134	0.00621579241401716
5.9	0.00787893264596453	0.00717754378259902	-0.965705439652107	-0.221934051524754	-0.965720115029348	-0.222017801966977	-0.00808655282102215	0.00521266582397662
6	0.00753206129555453	0.00495069392964203	-0.987281040891781	-0.0689385754184909	-0.98716186669369	-0.0689969405887697	-0.0110723753935226	0.00471830496606615
6.1	0.00840667319750134	0.00471371036738755	-0.985941490114575	0.0841126886971331	-0.985815013976908	0.0839639726583544	-0.0120159388705481	0.00861280424138666
6.2	0.00937045902174604	0.00323223316886764	-0.961135189809992	0.23633167828802	-0.961121797577849	0.236128699661924	-0.0107826059842634	0.0112391291873992
6.3	0.00989549693924592	0.00134861858527888	-0.91262562469495	0.382895855726188	-0.912621455454753	0.382710399985937	-0.00854060766166705	0.0128900219834404
6.4	0.0100422483906625	-0.00114672932795604	-0.841470906791676	0.519841313091764	-0.84143970216791	0.519630583564181	-0.00598660538678263	0.0127654308003886
6.5	0.00908727591560904	-0.00387331969691433	-0.750887406400059	0.643015028077515	-0.75091178797724	0.642811060138919	-0.00444608617577671	0.0117303575219319
6.6	0.00790862330611597	-0.00618194175206904	-0.642470394971396	0.75270690156415	-0.642544696976945	0.752454707761471	-0.00300142033343014	0.0106310368586441
6.7	0.00588046905601372	-0.00814081867492636	-0.517149830147011	0.843428331710946	-0.517253182386073	0.843207284725993	-0.00265821352544273	0.00924778537199655
6.8	0.00384870141455933	-0.0091341379914298	-0.379595141047117	0.913091828047466	-0.379737192984115	0.912921431449932	-0.00289728582718931	0.0087228533896399
6.9	0.00186981476302246	-0.00971715139714306	-0.233553557276359	0.960334441880126	-0.233780311771237	0.960224525663489	-0.00298273336278219	0.00879926144066409
7	0.000322396661413126	-0.00955972547134188	-0.0820600510039925	0.985845902404008	-0.082270161104562	0.985756401464531	-0.00257986924341112	0.00952908081871416
7.1	-0.000805839851086677	-0.00973014100801952	0.073148414544366	0.986242343374355	0.072945955253999	0.986109655253116	-0.00116311126265247	0.00967849336499019
7.2	-0.00217471183995599	-0.00975453678385016	0.225218521725435	0.962180590926226	0.224936393619963	0.962146893802613	4.36273004871259E-05	0.00947003786628717
7.3	-0.00369713141952197	-0.00956983971247558	0.371440093331884	0.915365990688037	0.371204234667437	0.915392868005262	0.00113405662262076	0.00908968949147543
7.4	-0.00509308854845694	-0.00906745832962387	0.509019798048413	0.846935893978736	0.508806555174708	0.846987582587564	0.00187936030978095	0.00843013878589018
7.5	-0.0066760778056689	-0.00798511048350867	0.635393200125191	0.75683076724999	0.635223927448875	0.756901118665059	0.00224598579172016	0.00845077207823396
7.6	-0.00666442144637798	-0.00657168606921838	0.743982851892518	0.647928784051585	0.743725994857052	0.648012112634662	0.00439373015423859	0.00840058440959846
7.7	-0.00658363024189325	-0.00574825267535638	0.834834898096932	0.524803674640967	0.834650460122945	0.52502112540301	0.00640705672430523	0.00686132743244461
7.8	-0.0061821778277547	-0.00495653101229693	0.906056941089743	0.388873166649427	0.905954818169927	0.389098549315524	0.00779993291700085	0.00425229248545028
7.9	-0.00569820483858886	-0.00447833934242407	0.955397316177573	0.243189999664228	0.955260116253577	0.243369885372205	0.00782971311119846	0.000632257827294613
8	-0.00661055895625146	-0.00423023616733612	0.979740135482473	0.0916330070510768	0.979718113527662	0.0918950051776751	0.00380295142683028	-0.00264931181391592
8.1	-0.00579915948624585	-0.00186298350915135	0.982103091821869	-0.0599933132685618	0.982132426340876	-0.059738586493857	0.000947571666768652	-0.000922638328569806
8.2	-0.00436209000970564	-0.00104933364401343	0.961221304745315	-0.21160499467153	0.961270050555164	-0.211288823390983	-0.000312984424121849	0.000126182874792436
8.3	-0.00321835823022847	-0.000348103507561753	0.916582373051274	-0.358316721446867	0.91663410623758	-0.358030393033594	-0.00113901011591655	0.00143781991848991
8.4	-0.00142912003096075	-3.59278463432148E-05	0.849142337011105	-0.495962630078594	0.849240194834464	-0.495761473521045	-0.000777405348183118	0.00231132235645589
8.5	-0.00089620456748204	-0.00096533580353883	0.762489568786951	-0.620120058523571	0.762540805548824	-0.619969878283793	-0.00207622773128548	0.00136588884424349
8.6	6.8214968353248E-05	0.000110345670012695	0.657574922379523	-0.731830569020177	0.657743096341005	-0.731594027118244	-0.00347434060454526	0.00445228279196534
8.7	0.00188717914817603	-0.000150966040601742	0.535432246170041	-0.824984156694256	0.535690986776954	-0.824769407739211	-0.00199676306963763	0.00689292890899504
8.8	0.00341597066661349	-0.000890240018427639	0.400824916916407	-0.897524037715247	0.401009780981098	-0.897385474896402	0.000265528133352837	0.00828319926727728
8.9	0.00498397109544557	-0.00184932442709857	0.257296331272429	-0.948241713949685	0.257474845655007	-0.948072183444065	0.00367006608532735	0.00865745106120205
9	0.00652997929677311	-0.00379097073468314	0.107500800481909	-0.977692068417929	0.107808484447313	-0.97764544476033	0.0067554106252899	0.00695616659980823
9.1	0.00792524334855754	-0.00593290572763304	-0.0465655436886189	-0.981971142462318	-0.0462570852788476	-0.981930467925946	0.00953321235250936	0.00473809005782089
9.2	0.00834668547588427	-0.00883620592819906	-0.197973408969485	-0.962028376792592	-0.19762689363118	-0.96200627947605	0.0110374906558282	0.00101720259737802
9.3	0.00768705573868843	-0.0108386077255725	-0.344129830625424	-0.919641087566903	-0.343779059337117	-0.919615511121353	0.0108395456745329	-0.00228782018614445
9.4	0.00707685898716726	-0.01242779240148	-0.482353825108766	-0.855927164882027	-0.482031382077104	-0.856017475416296	0.00971912592583928	-0.00536418741820932
9.5	0.00548666587140958	-0.0123357210294599	-0.610419348244155	-0.770051333711809	-0.610182934689614	-0.770101573649222	0.00624150786583945	-0.00585223476017514
9.6	0.00686674151387803	-0.0125633755536402	-0.72117845673565	-0.665217856921685	-0.720867931784817	-0.665356023499017	0.007130961371989	-0.00507142372888175
9.7	0.00665495801799743	-0.0140414159191784	-0.815110119574993	-0.545901429180476	-0.814823358486352	-0.546133291500509	0.00693359434715197	-0.00732107715294343
9.8	0.00589865741441965	-0.0149151077304968	-0.890051069219133	-0.413244835428518	-0.889798312826094	-0.41341294436231	0.00532993729461986	-0.00944383466682069
9.9	0.00522200247626187	-0.0155684754983271	-0.943728351089645	-0.269763562254968	-0.943476499122292	-0.269971577352599	0.00295843316467007	-0.0120025490940611
10	0.00266631396189802	-0.0157634358743044	-0.972484932215059	-0.119752379572437	-0.972331638678201	-0.120113067175849	-0.00364179218974636	-0.0131254202225256
10.1	0.00262124835081945	-0.0137604844550133	-0.979484260648793	0.0309495791137932	-0.979419960413323	0.0305198965484535	-0.00716303000406196	-0.00885530277366635
10.2	0.00294070645357538	-0.0137103460346673	-0.963484404921971	0.182604678760093	-0.963361884858762	0.18217515475491	-0.00845800546392837	-0.00618852281926866
10.3	0.0028352158011592	-0.0135855291423912	-0.923345644887869	0.330165929898963	-0.92336186592928	0.329626099084636	-0.00933355171060245	-0.00402041315457053
10.4	0.0030648567063283	-0.0141843229963541	-0.860052588408003	0.468966040778271	-0.860187759467398	0.46845651174717	-0.00949975961638822	-0.00301277428200191
10.5	0.00199610558146391	-0.0154731279777027	-0.777773423213615	0.594777258828503	-0.777944035292873	0.594346506880512	-0.0115679168308686	-0.00332587840954359
10.6	0.0005887750837428	-0.0156256953301304	-0.677225084341758	0.709105592955335	-0.677495514827898	0.708775597733016	-0.0142468755954662	-0.000674760035639473
10.7	-0.000744344322886339	-0.0151797168741127	-0.558892365658409	0.805807383501883	-0.55919109226345	0.805497908503413	-0.0153501428145845	0.00324543933248315
10.8	-0.00133771617823252	-0.0145588477166415	-0.427188713502381	0.882479165998478	-0.427537431738392	0.882180676534878	-0.0144409458882176	0.00758431004231587
10.9	-0.00156908626579401	-0.0140957650724008	-0.286028016870463	0.937715459288084	-0.28641652876532	0.937591273868503	-0.0122162704148462	0.0110531673598697
11	-0.00183452375838823	-0.014033766053714	-0.1377537136556	0.972622495205615	-0.138189824919864	0.972529981617075	-0.00941435956948611	0.0138368421907238
11.1	-0.00173947043304478	-0.014214515804109	0.0162496051790399	0.981957354052968	0.0157614364729785	0.981969286567971	-0.00514450846827896	0.0155825976507039
11.2	-0.00212934176233486	-0.0148892695429997	0.168103709151584	0.96710982660513	0.167647154869517	0.967181274971153	-0.000794548066544681	0.0157116257944119
11.3	-0.00274048831067845	-0.0153169684063783	0.315578814681754	0.929640654558881	0.315119986555179	0.929775327213674	0.003540131759971	0.0147100202961845
11.4	-0.00368436785841998	-0.0161044636099318	0.456154190401595	0.870521181335425	0.455750124261994	0.870632644201238	0.00707235144632522	0.0122672602707853
11.5	-0.00573673366307767	-0.0154043688067856	0.587308178730072	0.788350282271414	0.586988979432561	0.78865179492875	0.00801368072740549	0.0108886251420813
11.6	-0.00552202227919959	-0.0147413029964828	0.701094028667132	0.686971795078198	0.700878216877702	0.687298407499192	0.0118801731019136	0.0101589425833612
11.7	-0.00615435058147717	-0.0148587297053095	0.798923142429422	0.570660164794751	0.798719197008717	0.570965549799081	0.0151609500232318	0.00665761455974905
11.8	-0.00711879514025406	-0.0147529209924113	0.878330271001811	0.440082224358362	0.878147036730964	0.440532009358357	0.0171154188357918	0.00201132491773532
11.9	-0.00747108037263518	-0.0148070995552602	0.936667692291757	0.297924348319105	0.936560683820797	0.29837383473056	0.0177814417959813	-0.00449467863536867
12	-0.0113848257435493	-0.0146254562455284	0.969984411051662	0.148624315056755	0.969954807471267	0.14898801373804	0.0116261013600883	-0.0100798557641004
12.1	-0.0123917190637661	-0.0121740651615383	0.981832124881963	-0.00211481549048366	0.981759725109208	-0.00173087303138357	0.00749195426981845	-0.010709700483303
12.2	-0.0136792525361697	-0.0104973656173063	0.970407977326816	-0.154824550296823	0.970424364386842	-0.154526513364604	0.00375968671585797	-0.01105222264771
12.3	-0.0146519233114139	-0.00791942660722379	0.934420134215284	-0.304020268642452	0.934538684339322	-0.303713231956925	0.000500889893131359	-0.0102639094357356
12.4	-0.0145686347868166	-0.00542866203022613	0.875234426245261	-0.445179567548569	0.875296444136158	-0.444810016465149	-0.00131342754043339	-0.00933989504892227
12.5	-0.0147134843752797	-0.00373843556249903	0.796549259373879	-0.573820921385832	0.796887471510438	-0.573429064682696	-0.00472880300618498	-0.00965550129194526
