# GHZ S RI R 50
0.2	-0.000364290596953903	-7.26976146712457E-05	0.948653549069974	-0.308083970008923	0.94843137789966	-0.30805848767916	-0.000375243195555934	4.17469957588893E-05
0.3	-0.000395543700347168	1.06470268201888E-05	0.888562338326803	-0.451683114075657	0.888406247619935	-0.451587732585804	-0.000479753728234587	-4.26153332829906E-05
0.4	-0.000173806046290365	3.5988715621523E-05	0.806973977125425	-0.583817051364976	0.806985752949869	-0.583842156964154	-0.000380479095568122	-4.09400074079688E-05
0.5	-0.000223602337000034	-0.000120898931686028	0.706246041985848	-0.701869566805977	0.706091163122235	-0.701768131127964	-0.000392631193543914	-0.000194960056699506
0.6	-0.000349364463458326	3.45584063439641E-05	0.58839847970367	-0.802813296189474	0.588279350488297	-0.802651680321545	-0.000616900227418498	-0.000109508251746225
0.7	-0.000240204063287659	0.000298023108096647	0.45632255129648	-0.884027589483959	0.456303829650932	-0.883915182163969	-0.000531708082159072	-7.52516151617915E-06
0.8	4.29185747539823E-05	0.000310476475060302	0.313388288984471	-0.943828207888419	0.313357001900625	-0.943638645032334	-0.000488109603825005	9.94183798968937E-05
0.9	0.000286115679342871	0.000369276919385767	0.163055967381055	-0.980636989682996	0.162991010651894	-0.980545163190881	-0.000408951041008549	8.94291879223777E-05
1	0.000495548444807067	-0.00012305778847117	0.00885853743878031	-0.993816404278532	0.00880694283324947	-0.993784963720253	-0.000318804265545657	-0.000350581916305326
1.1	8.9411637601229E-05	-0.000189012463894699	-0.145565347830607	-0.982946049292774	-0.145581051990328	-0.982815744948307	-0.00109151264946789	-0.000333832223054265
1.2	0.00032082921074533	-0.0006115058567791	-0.296423195378677	-0.948033716117635	-0.296346912204385	-0.948007669191923	-0.000969473615453676	0.000452861139507009
1.3	0.000628467246083574	-0.00183615456226368	-0.439815603880251	-0.890255194922583	-0.439792601438966	-0.890248592252313	0.000304378456397218	0.00137131627296312
1.4	0.00076304955139603	-0.00369734526545265	-0.572321865721786	-0.811094023559749	-0.572297722476001	-0.811072420474708	0.00217034532048614	0.00115913711213704
1.5	0.000265180849104986	-0.0047075180755815	-0.691384076951134	-0.712126049610079	-0.691282445977704	-0.71204122596374	0.00343600926918305	0.000197459371519935
1.6	0.000144971532223982	-0.00500730346939204	-0.793086770723561	-0.595862517285059	-0.793012823664256	-0.595802601462262	0.00382377545214257	-0.000741660356198828
1.7	-0.000252060539188176	-0.00529182991896754	-0.875275800424904	-0.466075065565516	-0.875439809821237	-0.465559866014254	0.0037743803295799	-0.00195505983989076
1.8	-0.000988118665703616	-0.00538483527969432	-0.937005765830322	-0.324196281176748	-0.936894711503419	-0.324194905211481	0.00304846846155875	-0.0031024648460715
1.9	-0.00178366397883849	-0.00529833381031792	-0.975668818977694	-0.175247198132063	-0.975761605249908	-0.174760552720941	0.00204251531493077	-0.0039885374360177
2	-0.00309425808244402	-0.0048918718948652	-0.990477449784666	-0.0212207183362889	-0.990489366206841	-0.0211749670061062	0.000430926143036977	-0.0044314058116183
2.1	-0.00356415875353956	-0.00375435990877633	-0.981682459162562	0.132339894843904	-0.981720502253946	0.132376885966081	-0.000478535744850083	-0.00373411682027946
2.2	-0.00405596117058863	-0.00325948017358116	-0.949368863979027	0.282877884768609	-0.949293971277725	0.282940611805933	-0.000771195402704377	-0.00352065680950493
2.3	-0.00467855631461699	-0.00258633963334534	-0.894112397367378	0.42607896142602	-0.893731381844958	0.426591466326573	-0.00123458996736618	-0.00361675926206446
2.4	-0.00535488069464751	-0.00187199134283014	-0.816255089389526	0.560517267986314	-0.816520624037099	0.559932405011789	-0.00187409175715363	-0.00383463604344893
2.5	-0.00620155096047158	-0.000833112079452624	-0.719902088921543	0.679961865110713	-0.720114625035358	0.679452773956832	-0.00290282030349969	-0.00433450978347148
2.6	-0.00637962827480836	0.00101770524858895	-0.606237599059866	0.783262218279812	-0.606131408334307	0.78307994557603	-0.00372710882286908	-0.00356775888382666
2.7	-0.00559125048041077	0.00236784772556537	-0.476781921254493	0.868028482776747	-0.47722973575389	0.867621627920804	-0.00382219737299134	-0.00296358195114937
2.8	-0.00439062106154568	0.00313531701890932	-0.337642068191247	0.930909906994767	-0.336975665678526	0.931069399553008	-0.00382206472401899	-0.00251609944602016
2.9	-0.0028080582758884	0.00337293805948173	-0.188756357051099	0.972069096150111	-0.188787418840628	0.971981808591353	-0.00332778457855305	-0.00186826243772645
3	-0.00131186708705282	0.00321296138055326	-0.0349144440527884	0.990008207839077	-0.035614545654544	0.989848686178092	-0.00269012397379839	-0.00118943635671541
3.1	0.000340440115091339	0.00263871380743108	0.117935664088889	0.98334784349294	0.118525768147638	0.983330807238537	-0.00146290050935914	-0.000856977503206935
3.2	0.00137816309620103	0.00157054619328534	0.269568954609639	0.952927909489365	0.269514288543584	0.952867586831648	-0.000783495575778069	-0.00103756921318013
3.3	0.00229932238887369	0.000406235449359453	0.414283049832516	0.899562044373219	0.414146019287367	0.899547666859464	-2.47314516368493E-05	-0.00130676898659297
3.4	0.00265437672694515	-0.000998703637437884	0.548940901317427	0.824531979387191	0.548778606282635	0.824649620842762	0.000622915379273696	-0.00210946317851571
3.5	0.00273554843037176	-0.00206594193377032	0.670420844969748	0.729239960969569	0.670341259311687	0.729278627125424	0.000704883065976502	-0.00256349211281722
3.6	0.00277830196392905	-0.00325294675900695	0.774710706690684	0.616754760888319	0.774951908435233	0.61630666654825	0.00117895485587191	-0.00303227462203141
3.7	0.00234975367320517	-0.00463312861155807	0.861321378054141	0.488642936997228	0.861203010561883	0.488785829644997	0.00133462565805571	-0.00382838682238413
3.8	0.00137310641410402	-0.00573463904045144	0.926597247121951	0.349656708697458	0.926654400152736	0.349277753499426	0.00114992028550358	-0.00471158489753974
3.9	0.000350114890461432	-0.00663842705867746	0.969853940808176	0.2003653619467	0.969615027781724	0.201032353145681	0.000278846521586967	-0.00593434201331219
4	-0.00137960449814873	-0.00696774267624423	0.988885233037231	0.0483116288358227	0.988846206905295	0.0484143924259368	-0.0011337917893838	-0.00656557508014075
4.1	-0.00238863452925611	-0.00692229209763175	0.984786712400851	-0.105357358372648	0.984602105476516	-0.105230502382353	-0.00196288527984351	-0.00653227142251895
4.2	-0.00385221571181739	-0.00714814354679793	0.9564266848474	-0.257659273016494	0.956460876210944	-0.257005503429226	-0.00269221737268868	-0.00695044056178481
4.3	-0.00553767349061658	-0.00724427669850651	0.905224829807402	-0.402458527508145	0.905088825195231	-0.402347567347369	-0.00372775649000729	-0.00762235815245163
4.4	-0.0076154763206427	-0.00688409386802238	0.831771572401902	-0.537989092222857	0.83160619755963	-0.537855966877737	-0.00513481283608941	-0.00827765188289417
4.5	-0.00995922474378073	-0.00597612573985068	0.738655761707403	-0.660457064470752	0.738466596717403	-0.660284182053544	-0.00728492947168489	-0.0088069982531963
4.6	-0.0118215550861918	-0.00386462771439593	0.626863494930056	-0.7680216171861	0.627204558680758	-0.767322531651084	-0.0094512366928679	-0.00818675435816381
4.7	-0.0128990022164506	-0.00194173472542155	0.500330504779897	-0.85592798198276	0.500346452882076	-0.855571743230243	-0.0111912444307568	-0.00759984378540402
4.8	-0.0137265208643286	0.000327462722673194	0.361134252042026	-0.923122886521029	0.361355594985312	-0.922805759802875	-0.0127522942484983	-0.00679042151054442
4.9	-0.0137864822815771	0.00254495680519656	0.214058439656247	-0.967587619519115	0.213838138577745	-0.967595770987436	-0.0138996433229098	-0.00571464511728339
5	-0.0132828383139351	0.00488238528416539	0.0609719665252166	-0.989575269579957	0.061149172879581	-0.989329189710152	-0.0145581941256347	-0.0040071865610882
5.1	-0.0117260688246765	0.00680611923832053	-0.0936109449244668	-0.987066224151777	-0.0932788411849792	-0.986840139155067	-0.0142709288742207	-0.00228000435524939
5.2	-0.0100021178978395	0.00845505263179084	-0.24585634227493	-0.960542974877823	-0.245363439626642	-0.960515627755694	-0.01388454043239	-0.000881657974668263
5.3	-0.00799486573461647	0.00966699202410506	-0.392026860618128	-0.910873761503528	-0.391685205949193	-0.911090146252414	-0.0133157551307196	0.00023613126526675
5.4	-0.00589100918089408	0.0107859204063019	-0.529031212816882	-0.83917731247151	-0.528817742853226	-0.839378430509084	-0.0131377584722561	0.00110968077711357
5.5	-0.00358227762147481	0.0119805948492059	-0.653328535515956	-0.746431238294807	-0.653088916421304	-0.746626428043608	-0.0134093714161492	0.00276818194580738
5.6	-0.000326168071818426	0.0123972667664638	-0.760876090284252	-0.635741497434664	-0.760685887656688	-0.6359136994398	-0.0123483057428871	0.00439714066914115
5.7	0.00221429881594393	0.0117961077595497	-0.8504581825014	-0.509975795535944	-0.850328455644805	-0.510196107846156	-0.0115423975718489	0.00546294989854933
5.8	0.00442577433353264	0.0111433089608452	-0.919386011413779	-0.37154486517719	-0.919317911498837	-0.371830548687424	-0.0108164288287661	0.00653139430704506
5.9	0.00639817084442454	0.0099801694701849	-0.965967717717061	-0.224082215212017	-0.965982232030579	-0.22416605822789	-0.0102463951027513	0.00731116309773847
6	0.00794702121634374	0.00913143126712696	-0.988671224874704	-0.071396863621386	-0.988551724300268	-0.0714550371443478	-0.0104751675407069	0.00875944850918933
6.1	0.0104647968114905	0.0076350475409898	-0.987882489431325	0.0827657722642103	-0.987755554335584	0.0826169753750427	-0.00893691184307505	0.0107683746140473
6.2	0.0119348425726858	0.00473803988418244	-0.963010874591555	0.235427825155704	-0.962997188847025	0.235224535205679	-0.00713251531674757	0.0112414186573017
6.3	0.0119603337432938	0.00143893990620463	-0.914599019136684	0.382239933553054	-0.914594586903488	0.382054190158722	-0.00570715147125024	0.0109469736602848
6.4	0.0109325456113319	-0.0015242967427867	-0.843876530774096	0.519517091266428	-0.843844938815602	0.519306010607033	-0.00485638506693167	0.0102096921698105
6.5	0.00921746305240351	-0.00390685388681632	-0.753194178554598	0.643986466989439	-0.753218461605089	0.64378198837188	-0.00444312357831253	0.00963617951897396
6.6	0.00756539492305622	-0.0056938593481707	-0.644000329724659	0.753593405678383	-0.644074607046115	0.753340742765777	-0.00381848207635393	0.00925357186894239
6.7	0.00563553643849626	-0.00711627451448043	-0.518797143593616	0.844417747730907	-0.518900475692117	0.844196227232402	-0.00349797947629546	0.00882212849243508
6.8	0.00383913067715859	-0.0080125592850402	-0.381230402438893	0.914602844351847	-0.381372584745522	0.914431965590705	-0.00332128484176114	0.00872100096346682
6.9	0.00193720889892291	-0.00866373575361049	-0.234638235376695	0.962588252631336	-0.23486549314736	0.962477944760452	-0.00297895736931109	0.00883448887889077
7	0.000364788919764373	-0.00877655377909032	-0.0820975801018177	0.987658728869945	-0.0823080847573148	0.987569088222075	-0.0022828909930278	0.00906213200373387
7.1	-0.00121555942538209	-0.00890130891065808	0.0727647130178687	0.988034645741592	0.072561962768018	0.98790161613211	-0.00133518181075824	0.00899753067859984
7.2	-0.00273653544633216	-0.00864937212662233	0.225326356186827	0.964362904401727	0.225043627802225	0.964329021950867	-0.00031516322793424	0.00893150991478226
7.3	-0.00424934876146632	-0.00822884049342454	0.372271712271027	0.917472246532668	0.37203531239304	0.917499180348321	0.000740996772852872	0.00864777459190402
7.4	-0.00552054764259889	-0.00755268221766898	0.510360811565837	0.848373570818618	0.510147175086397	0.848425448235491	0.00158423096100138	0.00803375267272434
7.5	-0.00665408424775481	-0.00670767304256893	0.636019201744461	0.758087058491253	0.635849671919662	0.758157450763724	0.00235517693039736	0.00760262104580969
7.6	-0.00713790724129032	-0.00589176589735901	0.745415926402398	0.649786574356915	0.74515843149677	0.649869977563038	0.00363879712239069	0.00669090483917071
7.7	-0.00782797998896978	-0.00487232897104101	0.836964875547047	0.526125395461734	0.836779971938402	0.526343401741984	0.00433523965404374	0.00528189989899479
7.8	-0.00797210481428462	-0.00351824278034889	0.908428597721002	0.389535860421116	0.908326296620856	0.38976183483191	0.00471299006540628	0.00367813643029623
7.9	-0.00788809755817795	-0.00208723481979871	0.95759549156998	0.243476925908415	0.957458033546446	0.24365724999286	0.004392532949061	0.00204820914427769
8	-0.00747753663397531	-0.000161215621809527	0.982807181930304	0.0918916187647103	0.98278509858568	0.0921544369941116	0.00248632857912682	0.00112389680867543
8.1	-0.00564140377422456	0.00150588045118245	0.985167520789497	-0.0614788918565392	0.985197284707859	-0.0612233884079075	0.00180068691102068	0.00167536302709765
8.2	-0.00369624061703183	0.00203253468794111	0.963365270378763	-0.213750726948393	0.963414667831539	-0.213433815821981	0.00131557774682393	0.00175212533517943
8.3	-0.00208544667356605	0.00211516267251896	0.918049322429272	-0.360570745740289	0.918101625966119	-0.360283863326032	0.00087733033472956	0.00187654336244749
8.4	-0.000586313529388805	0.00163991714394701	0.850536906513153	-0.498255592800987	0.850635260394855	-0.498054080389753	0.000549567319597432	0.00170134719417595
8.5	-9.26197967664344E-05	0.00118093566875872	0.763232489647177	-0.623633435715596	0.763284216900965	-0.623482946328682	-0.00075892586268686	0.00154040550773434
8.6	0.00121175816356232	0.00123310836229884	0.656933095231441	-0.734748167552444	0.657102150435407	-0.734511621943752	-0.00135973767131379	0.00305574791411329
8.7	0.00241467149342654	0.000560587818724384	0.534561559361556	-0.827459624279989	0.534821175278178	-0.827245072112701	-0.000832770611214609	0.0043026528983717
8.8	0.00351984903459541	-0.000338382037659858	0.399720159806314	-0.89994485027348	0.399905636203883	-0.89980641472915	0.00016880655122557	0.00505133382631521
8.9	0.00438683945355701	-0.00148501664073193	0.255509470858362	-0.950875646466732	0.255688778674595	-0.950706196720153	0.00178364982303704	0.00534083285898984
9	0.00511517620933031	-0.00281416865689217	0.10461041764813	-0.979146022963212	0.104918598559125	-0.979100294301119	0.00335546020743084	0.00501729017203813
9.1	0.00599792801512556	-0.00398918150518602	-0.0488062605807085	-0.982955712584175	-0.0484973696844062	-0.982915680602485	0.00536763870947115	0.00451414511467948
9.2	0.00692884133783457	-0.00543968978213167	-0.200646642522796	-0.963041080348654	-0.200299532887094	-0.963019800250831	0.00749384887122086	0.0031107265242906
9.3	0.00766061806965201	-0.00695750424728215	-0.347473744425884	-0.920040079570825	-0.347122343057207	-0.920015531576626	0.00928471876702261	0.00098959184953116
9.4	0.00802819463279713	-0.00886854650705915	-0.485983661322483	-0.854889396226216	-0.485661267596889	-0.854980992362904	0.0100643273243099	-0.00200753025345235
9.5	0.00766684374947246	-0.00984005851612276	-0.612638388781369	-0.768291125484386	-0.612402120170244	-0.768342046734832	0.0092161857174838	-0.00406652819589619
9.6	0.00784453906624764	-0.0114608102217576	-0.723642925116691	-0.663643061807923	-0.723332563009098	-0.663782228231918	0.00899579114733426	-0.00602967043204644
9.7	0.00689851950958076	-0.0126772178942065	-0.817406231683297	-0.543383542272427	-0.817120118790151	-0.543616509222547	0.00742247486091939	-0.00856872756911621
9.8	0.00583378783002513	-0.0134199069615055	-0.891492658272694	-0.409962278318679	-0.891240534986834	-0.41013129759538	0.00486177626208027	-0.0105337302366285
9.9	0.00458893328106546	-0.0135980333725546	-0.943830786096556	-0.266497260497829	-0.943579810511318	-0.266705919399653	0.00153402438171643	-0.0119603383884644
10	0.00324876988856191	-0.012946477152874	-0.972740874814367	-0.117240163203515	-0.972588518949431	-0.117601226289941	-0.00310449467970065	-0.0115821167656077
10.1	0.0032315889641117	-0.0123904660036391	-0.979043033895187	0.0344327275191508	-0.97898028792944	0.0340029607044005	-0.00608948557407449	-0.00945327976480489
10.2	0.00282531174283864	-0.0126083810580446	-0.961800855570764	0.185629324774581	-0.961679910726849	0.185199868087423	-0.00850888230258432	-0.00747237889023653
10.3	0.00196219156250984	-0.0125318277240596	-0.921166993143614	0.332241647383572	-0.921184671597152	0.331702605566631	-0.0107003379109818	-0.00524149115040362
10.4	0.00103900893641503	-0.0125034403918775	-0.858361613787146	0.470373734079696	-0.858497736899774	0.469864908831707	-0.0124348800497786	-0.00292974411238765
10.5	-0.000125691055771172	-0.0116549876895583	-0.775773038801843	0.597302060535772	-0.775945058477797	0.596871893971403	-0.0140470471375337	-0.000237187128104307
10.6	0.000100587955682155	-0.0109492296182732	-0.67385447951715	0.710644911342975	-0.674125753516053	0.710316290640141	-0.0141170271425488	0.00346075535526311
10.7	0.000507878442800831	-0.0107643890945011	-0.555406518246797	0.806383806079897	-0.555705791710906	0.806075781688786	-0.0128004833381678	0.00668480254032297
10.8	0.000750789235260689	-0.0114162072302494	-0.423761851212478	0.882418312364759	-0.424110949715816	0.882121382192396	-0.0107382137169613	0.00913392717083766
10.9	0.000379350028572668	-0.0120072318141655	-0.28230682323831	0.937376569756926	-0.282695214555122	0.937253934501659	-0.00855239218052665	0.0109693528721769
11	-8.564801207993E-05	-0.0126429477955683	-0.133403877377006	0.970321368359291	-0.13383908126549	0.970230895502957	-0.00590215897434766	0.0124197371108344
11.1	-0.000643526575244383	-0.0132613308038612	0.018880352367018	0.978716192607493	0.0183938055063528	0.978729420382533	-0.00267721522248306	0.0130726144993029
11.2	-0.00146321307125928	-0.0140302317076994	0.170057313480416	0.9638151911973	0.169602294477391	0.963887585279159	0.000695682625978574	0.0127807648686635
11.3	-0.00253278401029105	-0.0145771751704646	0.317138788875897	0.925969703847115	0.31668171550035	0.926105210313588	0.00403802294578604	0.0116161915021331
11.4	-0.00402523667217893	-0.0150464404495122	0.457029159063311	0.865849904466169	0.456626960900104	0.865962154166934	0.00666972338608557	0.00976156643085871
11.5	-0.00549192942351642	-0.0144424534310777	0.585749592523213	0.783820686852354	0.585432321612397	0.784121272682489	0.00843867722641895	0.00824538687113704
11.6	-0.00653877317356654	-0.0145337762611596	0.699411342821546	0.683674862882748	0.699196694327577	0.684000566411563	0.0106022909475115	0.00614998390393217
11.7	-0.00830759232313189	-0.0140950921282334	0.796838861543295	0.567327700869958	0.796636137444407	0.567632267491017	0.0118236996171762	0.00327364492970774
11.8	-0.0102642845753306	-0.0131482158487329	0.87527543209126	0.436920549540109	0.875093639024382	0.437368707655396	0.0119958123804015	0.000156141186768205
11.9	-0.0121332422486582	-0.0112192273010432	0.932264528867875	0.295802721148206	0.932158361460334	0.296250069438007	0.0107691922394976	-0.00272512219907041
12	-0.0136839244868934	-0.00826757975975581	0.966195396611337	0.148394727051574	0.966165778446977	0.148757014298562	0.0083459666803898	-0.0044132613076823
12.1	-0.0130045373149961	-0.00533319598366252	0.977940751516404	-0.00258649189194965	0.977868826330177	-0.00220403531839731	0.00717425459957066	-0.00480248082499106
12.2	-0.0122423753180781	-0.00374423168610224	0.966019103268935	-0.154070015969238	0.966035399802432	-0.153773328667899	0.0060932557567731	-0.00578258166025115
12.3	-0.0114149350451437	-0.00248865874449402	0.930503564678445	-0.301806880734237	0.930621303810271	-0.301501114026859	0.00489206797433471	-0.00688137591342983
12.4	-0.010918002709205	-0.00197393295195036	0.872877774839117	-0.442080804051951	0.872938933954488	-0.441712465263933	0.00337197584995489	-0.00826758136900481
12.5	-0.0108840960172501	-0.00124527338319852	0.794692496985413	-0.572010534957901	0.795029672392072	-0.571619569762497	0.000515124274631443	-0.00937850023209627
