# GHZ S RI R 50
0.2	-0.000266179329537802	-6.20597020330646E-05	0.949089739505434	-0.308008257452762	0.948867475853778	-0.307982811171544	-0.000205781901666252	-2.74222296429163E-05
0.3	-0.000340290460846348	7.25985967943427E-05	0.889089350497348	-0.451678963346901	0.888933163309355	-0.451583575057739	-0.000334353212468552	-0.000154440844403521
0.4	-0.000125460691147034	0.000176501622334206	0.80757395728042	-0.583937197567067	0.807585746093456	-0.583962314185497	-0.000270265519137339	-0.000165275631073027
0.5	-0.000130404056879926	9.32738335138474E-05	0.706848021412858	-0.702167440047409	0.706693021763963	-0.702065972617459	-0.000256532596844447	-0.000259664988305397
0.6	-0.000222265975260373	0.000245694167367695	0.588941405683657	-0.80321638652889	0.588822166728589	-0.803054689645994	-0.00036590441113924	-0.000264918433182164
0.7	-0.000129043480716654	0.000564841704315165	0.456834800787596	-0.884558266660071	0.456816041915956	-0.884445783491349	-0.000307664434609942	-0.00028838741600313
0.8	0.000194370110216883	0.000679118526772087	0.313809946892901	-0.944504351802024	0.313778599773623	-0.944314647183863	-0.000344919098588642	-0.000260039390941121
0.9	0.000581703417904752	0.000859695876540682	0.163331103015379	-0.981413202579934	0.163266079992499	-0.981321310597758	-0.000412944327078373	-0.000269087534469066
1	0.00118585268280283	0.000311235807830936	0.00902872632759101	-0.994634240337212	0.00897708403558874	-0.994602782305241	-0.00035132916790744	-0.000485220275940913
1.1	0.000925709158659117	-0.000308080611641292	-0.14552398909079	-0.983895592349699	-0.145539731601531	-0.983765168463421	-0.000882810552442892	-0.000491747300993784
1.2	0.000828597779445741	-0.00127694228337855	-0.296613583883624	-0.949050331959784	-0.296537225015676	-0.949024248753266	-0.000745185836991939	4.74280760304968E-05
1.3	0.000361495430477574	-0.00273124792630593	-0.440240315747949	-0.891255299541674	-0.440217288587933	-0.891248688217396	0.000288656996206197	0.00078960469808798
1.4	-0.000137105171624854	-0.00410720536644509	-0.572942746822214	-0.812046781902764	-0.572918576849362	-0.812025153066886	0.00198895771232056	0.000708679188773443
1.5	-0.000780541179672715	-0.00460141643851415	-0.69228259567992	-0.713067699853758	-0.692180832401811	-0.712982763826893	0.00350912036098268	-0.000318187890697294
1.6	-0.000779537004338132	-0.00414224270704437	-0.794303124039695	-0.59655850579981	-0.794229062803393	-0.596498518975568	0.00382822608108347	-0.00148526114268603
1.7	-0.000578201081066309	-0.00404971532320071	-0.876654690851346	-0.466481725678577	-0.87681878293643	-0.465965746661933	0.00364798125832438	-0.00271635251216334
1.8	-0.000753417636866447	-0.0041114484544053	-0.938503546619416	-0.324317840606824	-0.938392328784864	-0.324316504602435	0.00283916702672461	-0.00374530370726806
1.9	-0.000996892068659135	-0.00427664196421503	-0.977297781797645	-0.175046525075722	-0.977390476482488	-0.174559064522565	0.0019540638347044	-0.00440639165296286
2	-0.00226658880869022	-0.00464031408669674	-0.992126741552179	-0.0204676612484057	-0.992138641199722	-0.0204218250220972	0.000716928255693514	-0.00502185993156826
2.1	-0.00323095008065655	-0.0034250779759551	-0.98303085435722	0.133474444912372	-0.983068919320287	0.133511527860698	-0.000323285611865385	-0.00461295005474627
2.2	-0.00359417831735823	-0.00273733820585078	-0.950467458446285	0.284292125668422	-0.950392389651641	0.284354866193194	-0.000810898942843021	-0.00445612165213383
2.3	-0.00395262758974536	-0.00211748810545894	-0.894908535362619	0.427770572970984	-0.894526350446334	0.428283370614554	-0.001466375754486	-0.00445601647990547
2.4	-0.00428182890307716	-0.00172712906087611	-0.816610744334571	0.562472909197192	-0.816877487796014	0.561887597490515	-0.0021513360446552	-0.00437315814758526
2.5	-0.005171654923138	-0.00175500776766365	-0.719639264541461	0.681869547559932	-0.719852846552873	0.681360217611623	-0.00281678084046944	-0.00481606383807612
2.6	-0.00662502922551089	-0.000267059017570784	-0.605696488499513	0.785018306429401	-0.605590460921669	0.784835677998795	-0.00370363836383204	-0.00428154207003713
2.7	-0.00667083874870181	0.00170168298328044	-0.475863523989481	0.869705640491627	-0.476312465648729	0.869299092442151	-0.00395669941925143	-0.0036275009565657
2.8	-0.00564142759014474	0.00326881127557317	-0.336315147380451	0.932370493814553	-0.335647844189846	0.93252896002871	-0.00394294205942269	-0.00303810468594148
2.9	-0.00383581984741835	0.00402355817614447	-0.187093719910758	0.973102673398867	-0.187124964826413	0.973015381702833	-0.00329749599451388	-0.00235553181795923
3	-0.00221244654827581	0.00419508828476939	-0.0333046847459963	0.990648020271541	-0.0340054608360766	0.990489557666179	-0.00258784897052759	-0.00183250295789186
3.1	-0.000158971374862696	0.00404589712057938	0.119751009200593	0.983834514704509	0.120341499960217	0.983816427009752	-0.00140632436037646	-0.00158158232627952
3.2	0.00136143730127651	0.00300479132152059	0.271520881005176	0.952978317088426	0.271466069361505	0.952918062031806	-0.000734437882974974	-0.00176808229540453
3.3	0.00262938403958006	0.00172273160983265	0.416181298808737	0.899170285361961	0.416044180220846	0.899156162723045	5.7107560934037E-05	-0.00198525860728549
3.4	0.00324241868562701	4.8450883786114E-06	0.55062865381911	0.823843766611953	0.550466511544291	0.823961743782051	0.000918886678488899	-0.00277719854296367
3.5	0.00296466998706154	-0.00139246455643876	0.672197176476116	0.728429455837052	0.672117614622233	0.72846829476306	0.00110015811765504	-0.00355850778372745
3.6	0.00298465743889618	-0.00210071899884406	0.776403755138513	0.615319109638079	0.776644076286821	0.614870290104884	0.00146939564653232	-0.00411704510446106
3.7	0.00297873311140676	-0.00343904665280558	0.862625144456786	0.486836836019717	0.86250706745026	0.486980028368028	0.00156289550961091	-0.00498285516986099
3.8	0.00235606801588849	-0.00476653476713705	0.927530370775608	0.347624864241804	0.927586679337846	0.347245720759105	0.00131501464271741	-0.0058395122849734
3.9	0.00165649216639101	-0.00621042251749073	0.970509232112345	0.198126882890121	0.97027183925792	0.198794562115969	0.000574368345853478	-0.00694992508239394
4	-0.000607031194600393	-0.00760817840280731	0.988998894670929	0.0455488904846126	0.988960156368219	0.0456517608552728	-0.000615863098286493	-0.00791649924474683
4.1	-0.00268559195652624	-0.00722471325530128	0.984007452811303	-0.107955134474212	0.983823280269082	-0.107827845413005	-0.00168878800049873	-0.00804774467802559
4.2	-0.00438324102761603	-0.00690988231577698	0.955147189864696	-0.259976374795615	0.955183055755786	-0.259323111531486	-0.0026066030970289	-0.00846986005824403
4.3	-0.00602490589564637	-0.00656504192990204	0.903488434032769	-0.404525208654598	0.903352822510763	-0.40441397606357	-0.00381197176051647	-0.00898149842995995
4.4	-0.00763641718290561	-0.00594687142510299	0.829468442098156	-0.5397819851102	0.829303597960236	-0.539648528655195	-0.00513916936851837	-0.00926183941113656
4.5	-0.00968464145798032	-0.00584054556828348	0.735733494023939	-0.661361745223301	0.735545087313913	-0.661188637076888	-0.006753658103162	-0.00982140976507394
4.6	-0.0125128468096669	-0.00386921221873709	0.624164567994474	-0.768211593156829	0.624506654391163	-0.767514367932591	-0.00886454381331448	-0.00948287742119205
4.7	-0.0140793730926751	-0.00140869981512303	0.497639016476793	-0.855669083833665	0.497655727102209	-0.855313448719065	-0.0106202762949754	-0.00907105679161459
4.8	-0.0150393590536616	0.00151990444313476	0.358448538930395	-0.922284641954436	0.358670191543989	-0.92196856832393	-0.0122517706209323	-0.00836766996262331
4.9	-0.0148634135512205	0.00434067644285733	0.211581059750354	-0.965960361592687	0.211361213830547	-0.96596803599621	-0.013435547123081	-0.00732734966186787
5	-0.0141548249501981	0.0070852321009836	0.0593682548905031	-0.987516133109684	0.0595454421360623	-0.987270851284925	-0.0141534846534397	-0.00580605128147571
5.1	-0.0118828562740755	0.00971033086789554	-0.0949921256429632	-0.985006034240032	-0.0946603073182195	-0.984780912895316	-0.0140518349000587	-0.00412451990229532
5.2	-0.00898247522753782	0.011244851151631	-0.246843886569342	-0.958109030523641	-0.246351991338774	-0.958082517304422	-0.0138004214276664	-0.00270462451453254
5.3	-0.00612404446253638	0.0115766387454203	-0.392379315679816	-0.908237233530824	-0.392038745444088	-0.908453590872873	-0.0132649339463091	-0.00150531649531539
5.4	-0.00394436208603166	0.0112747993871813	-0.528660249659893	-0.836714129533661	-0.528447473331866	-0.836915000160705	-0.0128803784698949	-0.000644785293948485
5.5	-0.00340185228921191	0.0116565194079038	-0.652924293931554	-0.7443665041367	-0.652685322160982	-0.744561590791641	-0.0133531859844777	0.000542004638958317
5.6	-0.00054584317915744	0.0135619397690651	-0.760064750689502	-0.633322837946718	-0.759875196979786	-0.6334949187478	-0.0125105534234063	0.00241821032057435
5.7	0.00275060124469376	0.0132854013862662	-0.848967385193771	-0.507774770157096	-0.848838222729839	-0.507994693579293	-0.0117464902857784	0.0035692511609949
5.8	0.00564069346088893	0.0122802248043902	-0.917440939512936	-0.369813857092832	-0.917373260405024	-0.370098894339044	-0.0110071562744518	0.00484548587862284
5.9	0.00813749084371472	0.00995548324681734	-0.963935195086504	-0.22281721576899	-0.963949741574731	-0.222900855820713	-0.00999638461867696	0.00585389175742613
6	0.008020268772759	0.007056793467196	-0.98624999343393	-0.0700375662059011	-0.98613086502001	-0.0700957346442045	-0.00989716922712946	0.00654526484712927
6.1	0.00810235517104637	0.00690349673031669	-0.98485324276444	0.0831893677111476	-0.984726790921784	0.083040932141935	-0.00885782441980911	0.00846469258784688
6.2	0.00918583471455099	0.00584906742687728	-0.960135579159443	0.235048925775676	-0.960121997733202	0.234846222635248	-0.00724495064933085	0.00908849675431714
6.3	0.00991914771271811	0.00402720240590959	-0.911981447246448	0.381340585030594	-0.911977061012702	0.381155358340794	-0.00583044849129644	0.00904278348911948
6.4	0.0102927245198314	0.00158511442291735	-0.841331804240713	0.518297727298594	-0.841300364743199	0.518087234946833	-0.00474250379675105	0.00844410862088926
6.5	0.00957049908008674	-0.00123326906746452	-0.750668999437159	0.64169401351729	-0.750693178022001	0.641490235855205	-0.00417580210829333	0.00762012928194011
6.6	0.00866398099350251	-0.00363342971808703	-0.642586038161416	0.750859285831733	-0.642659912174582	0.750607334363188	-0.00364939508175106	0.00706038311197983
6.7	0.00678700338783122	-0.00607136894581017	-0.517925503207602	0.841672426583203	-0.518028388587946	0.841451458493759	-0.00356349067535262	0.00653661678006837
6.8	0.00441421865576234	-0.00752269339967578	-0.380787843513513	0.911684285851738	-0.380929491599635	0.911513798476975	-0.00356911181387431	0.00659647202311229
6.9	0.00184233649550473	-0.00822885755021996	-0.234852413285176	0.959265947935636	-0.235078831524334	0.959155765532173	-0.00314155370748409	0.00685536567701069
7	-0.000381714460250195	-0.00780366519495615	-0.0837280620675614	0.984656328634584	-0.0839377904248138	0.984566548370733	-0.00244121525827114	0.00713070589051304
7.1	-0.00174260386775778	-0.00728439056152475	0.0709306654587873	0.98582999880829	0.0707286165740853	0.985696941300669	-0.00130151228091137	0.00713981661361587
7.2	-0.00303190850562398	-0.00681716787779807	0.223122080441815	0.962419835425848	0.222840093698548	0.962385548285819	-0.000146307348332953	0.00698044033178388
7.3	-0.00435498931660027	-0.00620293095080078	0.369519487999042	0.916006217515474	0.36928360513947	0.916032608934607	0.000983776843761516	0.00657923832295544
7.4	-0.00537444959196436	-0.00541264706847244	0.507103894116961	0.847870686638546	0.50689058024107	0.847921907230757	0.00188025983953705	0.00582448048728903
7.5	-0.00666725821066941	-0.00438371198150512	0.633456670205976	0.758699519068943	0.633287174523254	0.758769423808766	0.00247850774224144	0.00513926871021489
7.6	-0.00654121922699663	-0.00262625487283204	0.74304573604412	0.650285554103	0.742788457915399	0.650368330777139	0.0036518521585168	0.00435064445662939
7.7	-0.00585059346549115	-0.00166094621634979	0.834509661027195	0.527184596251969	0.834324554870581	0.527401856333618	0.00439519531469498	0.00301611059876808
7.8	-0.00482694881063575	-0.00124999024275544	0.906286130081492	0.391282180862531	0.906183401578005	0.391507608931844	0.00492994547348884	0.00151056164522123
7.9	-0.00410215280199248	-0.00176591691463398	0.956254901538741	0.245642328446124	0.956117106735559	0.245822174872955	0.00507362842462703	-0.00024647170453531
8	-0.00564549666944525	-0.00283498799782262	0.981671905525809	0.0935483159171098	0.981649376687492	0.0938108349749662	0.0035051745514534	-0.00214139361226655
8.1	-0.00678534223000708	-0.000195529566691445	0.98400760930497	-0.0589870002230149	0.98403670856496	-0.0587317637923775	0.00207162978525561	-0.00170707396419653
8.2	-0.00586251133090655	0.00186498457093846	0.963115964355449	-0.210890226724051	0.96316443910287	-0.210573455662687	0.00125533774714119	-0.00162416694908994
8.3	-0.00447541944107592	0.00347600690373134	0.918640632967792	-0.357921758821207	0.918692134306041	-0.357634855776911	0.000435154615999966	-0.00126056942177363
8.4	-0.002071787194336	0.00427296495494149	0.8514128934781	-0.496157263412771	0.851510756306822	-0.49595558848237	0.000136511704816058	-0.00075574294172034
8.5	-0.000938091299755088	0.00289865049293866	0.764199698200381	-0.621004247054729	0.764250973148318	-0.620853758339787	-0.000447922009473062	-0.00113576091460019
8.6	-0.000832998446364082	0.0040043543282067	0.659166141786861	-0.732556771093132	0.659334421998272	-0.732319724277663	-0.00122686371738903	0.000188224968564102
8.7	0.00108694861698858	0.00492371716787523	0.537101565685374	-0.82610490153262	0.537360620177715	-0.825889541008862	-0.000746502222607461	0.00122499781784267
8.8	0.00369596893436663	0.00499065369985929	0.402267647234617	-0.899142745868834	0.402452807256555	-0.899003768156332	-0.000127232693315089	0.00186747304288973
8.9	0.00673213485663233	0.00399957375150576	0.258185135030651	-0.950191380811777	0.258363973686279	-0.950021422379703	0.00120279397241324	0.00254061632728052
9	0.00932443043927241	0.00108435264123743	0.108212241253941	-0.979414958756891	0.10852046063283	-0.979368087983779	0.00304164190676372	0.00235871975128098
9.1	0.0109424470045592	-0.00194319930487813	-0.0459761410277252	-0.984376821627376	-0.0456669665354917	-0.984335828337875	0.00524231782660568	0.00169108002318955
9.2	0.0115077243383235	-0.00583106563028644	-0.198229191696554	-0.964721998181527	-0.197881733993276	-0.964699737113106	0.00723352971698038	-0.000181816400113286
9.3	0.0102913631745492	-0.00895825313940666	-0.345164647353347	-0.922138691325499	-0.344812908404182	-0.922113077943823	0.00843679022594557	-0.00233232864426679
9.4	0.00853538481380811	-0.0112759411599056	-0.483784081255446	-0.85794330367703	-0.483460854790954	-0.858033924223204	0.00926394732100246	-0.00480764245497703
9.5	0.00498906541415603	-0.0112213145102253	-0.612116166967967	-0.772234357779279	-0.611879086803535	-0.772284732750111	0.00828759580527878	-0.00701246005142804
9.6	0.00530828345782291	-0.00934127642071669	-0.723888911336312	-0.666899019919908	-0.723577479793985	-0.667037818129541	0.00840837730851667	-0.00851787081040327
9.7	0.00597787737624578	-0.00951610361818162	-0.818125624423152	-0.546702671107948	-0.81783823982955	-0.546935526884001	0.00701523422508149	-0.0112439044439275
9.8	0.00628802514945412	-0.0101455971934674	-0.893074684613892	-0.413335520831451	-0.892821415987027	-0.413504412926519	0.00438803429784267	-0.0130515500289935
9.9	0.00649087557780358	-0.0114176627629571	-0.946740156396115	-0.26939426148526	-0.946487838058137	-0.269603172361855	0.00161533627791601	-0.0140863891155171
10	0.0036504529387407	-0.013071455417246	-0.975853368088567	-0.11845125030819	-0.975700203222875	-0.118813376508304	-0.00280089025491722	-0.0145648591770079
10.1	0.00226018516862989	-0.0105924292841893	-0.982010220865881	0.0332523091784609	-0.981946724383257	0.0328213418925523	-0.00606352809009883	-0.0121401191443667
10.2	0.00290591662128487	-0.00980723963915289	-0.965342734799261	0.185139503963006	-0.965220866922006	0.184708705527895	-0.00837978055222714	-0.0100914905848515
10.3	0.00340239316653129	-0.00978104724357553	-0.924803479275351	0.332907929187476	-0.924820889436945	0.332366868974771	-0.0104864120769226	-0.00765061112913559
10.4	0.0039556024182648	-0.0110124125861136	-0.861178936654091	0.472200886730734	-0.861315654638833	0.471690355245769	-0.0116753198906659	-0.00509772202032971
10.5	0.00246780227898431	-0.0132870613848414	-0.777674280378054	0.598504307491936	-0.777846602363474	0.598073120486471	-0.012621417775214	-0.00319780097659661
10.6	-0.000168560305028538	-0.0133707985151065	-0.67639488388238	0.712328913402623	-0.676666750576466	0.711999106329393	-0.0133198854317956	-0.00014753027759368
10.7	-0.00195061361834033	-0.012189388959993	-0.557511571561984	0.808898802960974	-0.557811746378642	0.808589657228981	-0.0126434811261249	0.00318705323288019
10.8	-0.00275999393777928	-0.0107892123051348	-0.425096352835558	0.885349095752502	-0.425446619583838	0.885051212168799	-0.0108049858903739	0.00613465121250934
10.9	-0.0027136493394702	-0.0101329206285305	-0.283086108429959	0.940011456516166	-0.283475591611532	0.939888482302437	-0.00807280870817709	0.00807565425107916
11	-0.00305946184834595	-0.00983074422656808	-0.134639774769208	0.973704499649643	-0.135076472338442	0.973613362239265	-0.00525662510549644	0.0091929992378302
11.1	-0.00281534969359773	-0.00937823375592805	0.0192458878947217	0.98279363948676	0.0187573150780814	0.982807065014035	-0.00196821644039481	0.00953820523276844
11.2	-0.0026977784061448	-0.0097333778312401	0.171423175196904	0.967405993992202	0.170966455127015	0.967479002491299	0.00118717821477643	0.00893627413530474
11.3	-0.00280764132668641	-0.0102591499804458	0.318982762678193	0.929105998651864	0.318524125520321	0.929242338721498	0.00435317745568089	0.00778544579117938
11.4	-0.00345969812652466	-0.0114727086051323	0.459159351124893	0.869121195369273	0.4587555969445	0.869234037340546	0.00714593883529787	0.00585531149834875
11.5	-0.00622330317309046	-0.0112131466167245	0.589820386760984	0.78694382567473	0.589501941954457	0.787246379691469	0.00832276094647148	0.00385221403280659
11.6	-0.00645719995127853	-0.00935722209877621	0.703834096150689	0.684936449637822	0.703619289105357	0.685263980573873	0.0103253857804292	0.00218694426515518
11.7	-0.00625356163822206	-0.00889474483009269	0.801141113463449	0.567832203034782	0.800938251351076	0.568138383974359	0.0114684937087754	-0.00054211427153074
11.8	-0.00639414811595638	-0.00897953358575447	0.879787903364773	0.436821071971074	0.879606332342646	0.437271450385542	0.0117003524794723	-0.00318534190405174
11.9	-0.00660407914775271	-0.00991793354718149	0.937466642363958	0.294634255229801	0.937361204100074	0.295084001478964	0.0114747714974152	-0.00579714209269427
12	-0.0108126068434468	-0.0111195085062504	0.970508352474326	0.144856000279608	0.970480160445693	0.145219794159231	0.00926168584956718	-0.00874844805528008
12.1	-0.0132866355368649	-0.00762115466275688	0.980965892450212	-0.00623918438164779	0.980895169441132	-0.00585527295285317	0.00784773339874335	-0.00932809496892631
12.2	-0.0141231492383096	-0.00514802679399951	0.968529717556827	-0.158352634060491	0.968547229341582	-0.158055054131518	0.00639977459991904	-0.010677528705024
12.3	-0.0144885230506885	-0.00256674527621515	0.932020181700069	-0.306912864468784	0.932139655935904	-0.306606682677369	0.00449741025835772	-0.0116738863816567
12.4	-0.0139093393074089	-0.00054697323040341	0.872531572184855	-0.447756558544287	0.872594837309111	-0.447387696898925	0.00278551349979969	-0.0122595942149546
12.5	-0.0142389581483752	-0.000158936859319578	0.792759840116675	-0.576010506076391	0.793099027153055	-0.575620740937828	0.000341044067272466	-0.0135441811681355
