# GHZ S RI R 50
0.2	-0.000232679015729602	-7.43521316500736E-05	0.948671876189817	-0.308152980259775	0.948449697920318	-0.308127483581126	-0.000255865732463949	5.38825837152797E-05
0.3	-0.000268495829763073	-3.60191303558327E-05	0.888521409841049	-0.451762663466996	0.888365327761387	-0.4516672680103	-0.000368161627347391	-5.94589857985643E-05
0.4	-5.37571678391621E-05	-6.86107018024355E-05	0.806865502628533	-0.583853623050943	0.806877275314567	-0.583878728077905	-0.000271130081194001	-0.000100135142318779
0.5	-0.000244935016827133	-0.000287983191424619	0.706189598263425	-0.701823172051077	0.706034731410256	-0.70172174271387	-0.000421436634393666	-0.00031418267927477
0.6	-0.000406446401240873	1.81344745062872E-07	0.588327546828162	-0.802813573993581	0.588208431914359	-0.802651958032216	-0.000695297708074571	-8.08602970122688E-05
0.7	-0.000280765227779643	0.000296320955470453	0.456226962332234	-0.883971872498214	0.456208249144403	-0.883859474611231	-0.000591628411741782	8.48160224274223E-05
0.8	2.89416403374292E-05	0.000371240863604692	0.313319464546342	-0.943712901444384	0.313288187100589	-0.943523362672711	-0.00050075555814398	0.000285080942654046
0.9	0.00044015177743721	0.000472602834551235	0.163073172970712	-0.98048271975487	0.163008222081893	-0.980390909824673	-0.000203934707220781	0.000337994907045106
1	0.000824242449850996	-0.000300828047024345	0.00892556701386532	-0.993760511242865	0.00887397312623758	-0.993729075938154	0.000132944385580351	-0.000431265839025562
1.1	0.000493720470520361	-0.000577113829798103	-0.145527488234745	-0.982849699486669	-0.145543193870598	-0.982719408733171	-0.000581278422600192	-0.000715177181051316
1.2	0.000863824310941913	-0.0016111109482399	-0.29631645280755	-0.947947992301122	-0.296240180371438	-0.947921942494424	-0.000384057053012918	-0.000587345578784923
1.3	0.000926085054276536	-0.00351875819726481	-0.43966855440709	-0.89022721851906	-0.439645554857016	-0.89022061367979	0.000554042979977329	-0.000358051221730027
1.4	0.000691998834681531	-0.00558066461692398	-0.572191561318732	-0.811159264289532	-0.572167421751902	-0.81113765817332	0.00197561743356394	-0.000712427688590618
1.5	-0.000152841599724418	-0.00622485289633031	-0.691362826784258	-0.712156770412672	-0.691261198224954	-0.712071942387075	0.00281740167853272	-0.00121262201099311
1.6	-0.0001409389180723	-0.00600619876257339	-0.792990722770978	-0.59588530065677	-0.792916785030653	-0.595825382971323	0.00337938391972398	-0.00146903974003865
1.7	-0.000477544624072353	-0.00600330244243093	-0.875207349372072	-0.466162372161946	-0.875371412347509	-0.465647200725899	0.00351290410193918	-0.00232297698654243
1.8	-0.00110703160901914	-0.00585615559903832	-0.937004734121814	-0.324302931232033	-0.93689367616933	-0.324301543863663	0.00300541201565568	-0.0032423084466482
1.9	-0.00175179857804858	-0.00572542560625853	-0.975740656102598	-0.175287732008383	-0.975833463037478	-0.174801050877503	0.0022253784162391	-0.00416649270168639
2	-0.00322763190605729	-0.00529431578572651	-0.990440836265196	-0.021193086016054	-0.990452751001163	-0.0211473360495312	0.000391731368896255	-0.00468862346801484
2.1	-0.0035341839089706	-0.0039228358010923	-0.981679772496093	0.132286961791271	-0.98171781715762	0.132323950565177	-0.000416282595344205	-0.00369547216911424
2.2	-0.00391620624544657	-0.00347326008554055	-0.949384436222032	0.282870582663275	-0.949309543273634	0.28293331138801	-0.000543918215920593	-0.00348627210883323
2.3	-0.00447257233777172	-0.00282791478763955	-0.894090391239582	0.426102922467213	-0.893709363302421	0.426615410463233	-0.000863871035267201	-0.00363728706702766
2.4	-0.00501700267712104	-0.00223834446372382	-0.816142250065902	0.560516055237738	-0.816407796724904	0.55993126447539	-0.00130193561494951	-0.00408771248325683
2.5	-0.00600188393514506	-0.00152930828367843	-0.719841313055331	0.679796698109139	-0.720053775068018	0.679287671156868	-0.00253941659293029	-0.00511060642073148
2.6	-0.0063388710350738	0.000345848219622236	-0.60625385343563	0.78318018449664	-0.606147657010469	0.78299792865424	-0.0037340904503484	-0.00434526374934092
2.7	-0.00558491385317169	0.00161607358050662	-0.476765106491501	0.867936815858035	-0.477212868949845	0.867529984045184	-0.00398464627347848	-0.00372220922397714
2.8	-0.00444196905557343	0.00225885821141994	-0.337633472533776	0.930767366431568	-0.336967168721662	0.930926864211421	-0.00407633928453319	-0.00328265656474801
2.9	-0.00299979475982608	0.0023840673894156	-0.188843733521338	0.971859297034696	-0.188874778306825	0.971772022225349	-0.00370623029086147	-0.00266207267246617
3	-0.00169380538822557	0.00225521513159029	-0.0351186491171143	0.989947498245002	-0.0358186797336299	0.989787839460977	-0.00324967726441651	-0.00186776670392207
3.1	-9.9449873093318E-05	0.0017217780108004	0.117825755059538	0.983281404084266	0.118415813749776	0.98326442950081	-0.00200667230092378	-0.00140645846979415
3.2	0.000783627238168892	0.000733061658123561	0.269378296862597	0.952851452885683	0.269323647627121	0.952791128893364	-0.00139636805194488	-0.00149783114717743
3.3	0.00161571881310694	-0.00026322260392095	0.414023017835924	0.899565438990636	0.413886005363171	0.899551030135056	-0.000670659881336626	-0.00162716781156089
3.4	0.00194860705354622	-0.00151896196140268	0.548690629403595	0.824703920114531	0.548528297585283	0.824821512350846	-3.57851627063476E-05	-0.00233635288125631
3.5	0.00194586374788716	-0.00232965773527599	0.670393384108993	0.72941867527168	0.670313783863423	0.729457334495253	-0.00011423457629972	-0.00253574753729986
3.6	0.00223486325420324	-0.00327548549436278	0.774615889619977	0.616864222084868	0.774857155377513	0.616416165705902	0.000620784694272277	-0.00266497084535787
3.7	0.00198128128252961	-0.00460519347294948	0.861262543479225	0.488823721200795	0.861144144562482	0.488966597071298	0.00103533506472661	-0.00339179072140767
3.8	0.0011662883482962	-0.00567741326903731	0.926636501569252	0.349845249934644	0.926693722755157	0.349466264592988	0.00108464701389015	-0.00428919741080862
3.9	0.000306076995970946	-0.00666519783504231	0.970000086915874	0.200440934778322	0.969761105741153	0.20110802194761	0.000410701435583474	-0.00570783711787662
4	-0.00157440037669722	-0.00710448368579064	0.988845465183165	0.048238180985761	0.988806448170504	0.0483409428970578	-0.00128067608927676	-0.00657619780984736
4.1	-0.00254908356387255	-0.00683916972916489	0.984730397015071	-0.105265904013736	0.984545791461461	-0.105139072273457	-0.0022165466108825	-0.0062385806882275
4.2	-0.00390952883569031	-0.00698801540625689	0.956415486250459	-0.257584179495182	0.956449630632649	-0.256930427534478	-0.00285136755653918	-0.00648811043364235
4.3	-0.00543006138757401	-0.00699072552827791	0.905185127343472	-0.402409478823465	0.905049127235214	-0.402298528896358	-0.00368786589786041	-0.00702011015435031
4.4	-0.00718701347596942	-0.00669599384957211	0.831618409417304	-0.537898717228651	0.831453065221814	-0.537765614544076	-0.00470859808495688	-0.00775927695435697
4.5	-0.00946822809170101	-0.00623551702514446	0.738593801708469	-0.660081047043871	0.738404651685711	-0.659908262042819	-0.00683594006030951	-0.00886549937495095
4.6	-0.0115594823504459	-0.00427029109136386	0.627026312719531	-0.767763777569301	0.62736713925439	-0.767064660806722	-0.00941092237611777	-0.00837232600413161
4.7	-0.012862027524534	-0.00239951594384264	0.500501373178805	-0.855736569967253	0.50051723229778	-0.855380355680831	-0.0114580221454239	-0.00771245609703631
4.8	-0.0138755584257653	-1.3570215587515E-05	0.361321489113884	-0.922931957867066	0.361542729545402	-0.922614811742204	-0.0132114940552583	-0.00665429244159435
4.9	-0.013960862268137	0.00236231393844509	0.214365593442647	-0.967354200337652	0.21414533115826	-0.967362428356115	-0.0143371727151091	-0.00530834812007498
5	-0.0134220482449516	0.00483314314865743	0.0614488843540977	-0.989620498205391	0.0616259865579342	-0.989374315266999	-0.0149131485138458	-0.003366918484466
5.1	-0.0116190510542236	0.00683336748347069	-0.0933470583226211	-0.987188857831389	-0.0930149845823653	-0.986962658801899	-0.014227184877106	-0.00143566032225867
5.2	-0.00967497163141692	0.00836679557943473	-0.245582588838902	-0.96065001070427	-0.245089676437359	-0.960622517557176	-0.0133959165239693	-0.000175617489504554
5.3	-0.0075179130261975	0.00937638936153324	-0.391721736159926	-0.911061698495078	-0.391379986212176	-0.911277972426758	-0.0125249682646852	0.000574136792926426
5.4	-0.00540339505667744	0.0102090757450564	-0.52877806969128	-0.839558149701728	-0.528564474876939	-0.839759215889164	-0.0123579829061078	0.000916325643458952
5.5	-0.00340960774028598	0.0114206174090884	-0.653423107344968	-0.746782511000195	-0.653183377867786	-0.746977726295676	-0.0132172005781926	0.00253304309939587
5.6	0.000141591353733775	0.0119824147801651	-0.760873204557441	-0.635912119876546	-0.760682958357076	-0.636084314979241	-0.0118914815412465	0.0045236941268424
5.7	0.0028272574240255	0.0111716579671145	-0.85044341516111	-0.510203861817343	-0.850313629552241	-0.510424170716904	-0.0108055959309891	0.00541961062302696
5.8	0.00510712928800581	0.0102562448908073	-0.919449453373493	-0.371809766674782	-0.91938127878905	-0.37209548037533	-0.00989991688203211	0.00612896721031196
5.9	0.00703696808070926	0.00859784289210514	-0.966171562952213	-0.224258702623598	-0.966186070207876	-0.22434256747681	-0.0093596778253555	0.00618355764592132
6	0.00772198573894571	0.00726524716708122	-0.988663531972509	-0.0714011577855104	-0.988544032024402	-0.0714593301097552	-0.0107850198932492	0.00693102258454588
6.1	0.00952186214151654	0.0062696816229889	-0.987903933937869	0.082500534657423	-0.987776959004626	0.0823517720723693	-0.0102928655433969	0.00968283604001958
6.2	0.0106446719996203	0.00398451859032736	-0.963197514022939	0.235197661340573	-0.963183771602453	0.234994349194646	-0.00886540401721205	0.011058043074319
6.3	0.0107322441188515	0.00132339264639622	-0.914848116686175	0.3821272541506	-0.914843646152632	0.381941476770321	-0.00725753877451196	0.0116095789332665
6.4	0.0100687187787313	-0.00134709558513557	-0.844007039774058	0.519493060382198	-0.843975425764987	0.519281961605265	-0.0058381606527907	0.011229706924177
6.5	0.00862598579224899	-0.0037233388558296	-0.753392414074449	0.643710473001445	-0.753416626567679	0.643505992066649	-0.00500802470344077	0.0106234983285844
6.6	0.00721656730667767	-0.00559162715997802	-0.644407537598254	0.753576146702084	-0.644481751990977	0.753323395722688	-0.00400259330784091	0.0100874787330942
6.7	0.00537941072119687	-0.00712337567268398	-0.519076787621905	0.844534373548045	-0.519180105718272	0.844312779691005	-0.00353920558462745	0.0093885785340435
6.8	0.00367461715122241	-0.00802966007608073	-0.381409975729409	0.914691709104988	-0.381552157014238	0.914520785445287	-0.00333780185744283	0.00915220270546148
6.9	0.0019180942896765	-0.00871799210332093	-0.234894534980676	0.962555959210202	-0.235121770886524	0.96244558923435	-0.00298214526199913	0.00918614448467333
7	0.000482108627662275	-0.0088345946594465	-0.0825464841898159	0.987933404502948	-0.0827570164723885	0.987843645556858	-0.00227021126046059	0.00949961661540675
7.1	-0.000879246034124475	-0.00911874550997355	0.0726263104155916	0.988375593728128	0.0724235145516302	0.988242486463148	-0.0010959021094593	0.00937617729231193
7.2	-0.00235339165290176	-0.00908703767453518	0.225205355373275	0.964630203282279	0.224922566644721	0.964596261875279	-1.33704817194983E-05	0.00914377170528361
7.3	-0.00392097087968435	-0.00884104633710928	0.372117064463117	0.917793396602901	0.371880600227994	0.917820273893956	0.00100893184858207	0.00874102962580472
7.4	-0.00531097339962904	-0.00825538725369298	0.510275904831668	0.848912464255197	0.510062159780141	0.84896428793846	0.00174649617008119	0.00808111961711142
7.5	-0.00664291590520047	-0.0072847961994032	0.636433755703823	0.758556191167989	0.636264119807531	0.758626630714893	0.00233601582874839	0.00785969739570907
7.6	-0.0069334842314224	-0.00621349028253414	0.745726539337365	0.649909299559555	0.745468971875768	0.649992758372629	0.00396622189498616	0.00730784799732564
7.7	-0.00730228108659886	-0.00525319198994387	0.837213158007237	0.526241855056907	0.837028210886698	0.526459927632946	0.00518964567628906	0.00585567108601763
7.8	-0.00722223718486717	-0.00409954867586411	0.908713924538948	0.389646042874919	0.908611594361265	0.389872088324768	0.00597220373837011	0.00387778789299438
7.9	-0.00702303190980772	-0.0030436367974813	0.958008109443411	0.243447247909089	0.957870620611856	0.243627661789006	0.00574821223104338	0.00146113829237734
8	-0.0071135054972136	-0.00164974666625424	0.982889841995878	0.0916180413779238	0.982867831955711	0.0918808810070124	0.00304291668118943	-0.000244082883501602
8.1	-0.00564698214470557	0.000306427677595378	0.985223014299218	-0.061410374300306	0.985252761163812	-0.0611548554532848	0.00153867887484556	0.000772310075737931
8.2	-0.00387892755363914	0.000970375287312845	0.963611792006593	-0.213724156570408	0.963661175738796	-0.213407166029333	0.000772472917856194	0.00124708086328814
8.3	-0.00239762339332537	0.00130436135372318	0.91833184375942	-0.360734491560457	0.918384178704758	-0.360447517853747	0.000233336667345299	0.00183929142131084
8.4	-0.000725950747001773	0.00108143868343759	0.850579823075174	-0.498562974397011	0.850678245937087	-0.498361446951194	0.000227597002454949	0.00201626969817811
8.5	-0.000213277881075864	0.000374910829010434	0.76325762730696	-0.623593400925013	0.763309347090606	-0.623442909970985	-0.00107571450807866	0.00149031084255522
8.6	0.000990272842518844	0.000684555319996702	0.657140737975056	-0.734970633441112	0.65730984380037	-0.734734013697526	-0.00195451976128613	0.00347519994097329
8.7	0.00233601144462326	8.67007396788592E-06	0.534557833516539	-0.827785778880149	0.53481756032513	-0.827571214957933	-0.00115561077917695	0.00502328954194247
8.8	0.00344378183834322	-0.000931741320424271	0.399534800807355	-0.900178735119186	0.399720340449518	-0.90004032989922	0.000170390572554986	0.00591713359984171
8.9	0.00442121726214471	-0.00204251320367917	0.255346523957783	-0.950865419816212	0.255525848878013	-0.950696007220452	0.00231390309044022	0.00620456872807873
9	0.0053335370577024	-0.00358289466858778	0.104640215958419	-0.979366994175675	0.104948466346015	-0.979321253212975	0.00433796208026144	0.00537868552033277
9.1	0.00632194634436392	-0.00508250568981348	-0.0491371225448226	-0.983064994801968	-0.0488281790074191	-0.983025059716568	0.00655469202984327	0.00426459327176953
9.2	0.00701016482519228	-0.00696913094797701	-0.200871574977259	-0.962884508519176	-0.200524497759404	-0.962863319707358	0.00839908377292297	0.00209011932528816
9.3	0.00727425197223702	-0.0085041308221932	-0.347465421091479	-0.919852883988622	-0.347114081855215	-0.919828361298954	0.0094931079978279	-0.000320987879320083
9.4	0.00745178042156432	-0.0101956702925198	-0.485845600684491	-0.854981354507119	-0.485523187665235	-0.855072897530554	0.00971813201448211	-0.00326488893724605
9.5	0.00681431024850397	-0.0107289744991421	-0.612936584332163	-0.768369451490468	-0.612700265842404	-0.768420429923391	0.00806747525985812	-0.00468067313378259
9.6	0.00756241621639354	-0.0119514414163282	-0.723709172747855	-0.663449622780114	-0.723398863111827	-0.663588836880869	0.00838317222033395	-0.00573041235381684
9.7	0.0069038362044012	-0.0133405404569018	-0.817375638551318	-0.543328427492004	-0.817089548930684	-0.54356138966766	0.00734057202460391	-0.0082337251647245
9.8	0.00595942484084032	-0.0141886340750763	-0.891560172224319	-0.410008494748535	-0.891308025982978	-0.410177524415975	0.00514454513937703	-0.0103146275220202
9.9	0.00490062693126576	-0.0146264528002393	-0.944127701495279	-0.266392150626014	-0.943876698942496	-0.266600910717692	0.00214490262008517	-0.0122503729788158
10	0.00304346906974903	-0.0143333293371862	-0.972671003122708	-0.116806910169532	-0.972518821582468	-0.117167994107832	-0.00329922852586876	-0.0124726201035802
10.1	0.00294847906899818	-0.0133501011690067	-0.978941196410587	0.0345324267175598	-0.978878502047645	0.0341026964411848	-0.00655198520140177	-0.00964417199621523
10.2	0.0026352969040814	-0.0135373740709069	-0.961814246274783	0.185842099036133	-0.961693385332931	0.185412593457037	-0.00872223882947096	-0.00746864084829237
10.3	0.00186563396897049	-0.0134497238946953	-0.921038281132351	0.332648881058156	-0.921056194820125	0.332109837579135	-0.0106038001265676	-0.00526313162462685
10.4	0.0011837795470817	-0.0136256996267665	-0.857769969319239	0.470779213334709	-0.857906380022827	0.470270645575872	-0.0119314511648423	-0.0034078735398212
10.5	-0.000175895122879165	-0.0134957796018254	-0.775107993132322	0.59699287461056	-0.775279957582203	0.596563050720112	-0.0139024662140051	-0.00183245049939206
10.6	-0.000692195844499364	-0.0129325760746163	-0.673549575867137	0.710356876747657	-0.673820741504513	0.710028402919152	-0.015111918472131	0.00171362665025912
10.7	-0.00101820947179209	-0.0123860561206425	-0.555113161417553	0.806075571023618	-0.555412327390241	0.805767699181381	-0.0147798407154992	0.00545759961888541
10.8	-0.00101525246090318	-0.012289904701672	-0.423496582316137	0.881981879194642	-0.423845514765429	0.881685121061419	-0.0130730573623022	0.00888047378871431
10.9	-0.001150792371206	-0.0123120944727076	-0.28229097088984	0.936695349871309	-0.282679078875846	0.936572724965501	-0.0106860775395005	0.0114954886254771
11	-0.00132240774961798	-0.0125683417319656	-0.133802318022991	0.970064499908963	-0.134237393254259	0.96997385459541	-0.00776215588976122	0.013550003956118
11.1	-0.00140945609615225	-0.012999995098056	0.018824432717928	0.978517074291849	0.0183379846430759	0.978530273478831	-0.00392485795966535	0.0146276098878029
11.2	-0.00186659010416359	-0.0137688431706525	0.169905648522196	0.963459524569673	0.169450798136814	0.963531850085693	1.07464841290035E-05	0.014450762122403
11.3	-0.00259118412898786	-0.014338418918069	0.31676804725448	0.925663386759173	0.316311130487638	0.925798719032638	0.00388835700994488	0.0132684218787288
11.4	-0.00375657415123562	-0.0150341187309556	0.456541055145522	0.865899710542805	0.456138880331624	0.866011752294808	0.00696758096049721	0.011079733185692
11.5	-0.00535454721801088	-0.0144966296251435	0.585780531833423	0.783860526909747	0.585463244860311	0.784161128533131	0.0084979553596538	0.0095124260034811
11.6	-0.00587172602027748	-0.0144304317520315	0.699132316151833	0.683434516074932	0.698917740603071	0.683760092120401	0.011350338847947	0.00781371483277964
11.7	-0.0072004243495492	-0.0142707530118975	0.796416728329677	0.567314865131417	0.796214004067074	0.567619273784594	0.0133553305406201	0.00463519590983476
11.8	-0.0087567639429281	-0.013708675744771	0.874957361154536	0.437116718793554	0.874775459211938	0.437564727653083	0.0142189796490261	0.000873985147252129
11.9	-0.0100397898711122	-0.0126456679658909	0.93223547403357	0.295938325011677	0.932129242059061	0.2963856643999	0.0136892214047203	-0.00347087508738797
12	-0.0125913656120434	-0.0108238993277753	0.965832129923325	0.148222757565705	0.965802565995652	0.148584905526531	0.00975543416278087	-0.00672054110038847
12.1	-0.0126348318702348	-0.00811420151032051	0.977606675485332	-0.00231961091094332	0.977534670896559	-0.00193730483176368	0.00738536409389903	-0.00722529346047432
12.2	-0.0127713992954465	-0.00643128261178072	0.965885927003632	-0.153891811252278	0.965902173868278	-0.153595169765056	0.00518451298444497	-0.00789377004390445
12.3	-0.0126439901142132	-0.0045667169098688	0.930290525514838	-0.301794963947129	0.930408256816908	-0.301489268271427	0.00319253623416528	-0.00816523235461869
12.4	-0.0122286445800416	-0.00325343148197297	0.87226132565553	-0.442028746968477	0.872322536297152	-0.441660638559258	0.00163751903120383	-0.00862431120842559
12.5	-0.0122443503057195	-0.00211193855531869	0.794175215210589	-0.571172086170122	0.794511926328092	-0.570781353910632	-0.00137733533654875	-0.00941948458054498
