# GHZ S RI R 50
0.2	-0.000378182547076021	-9.10297924174492E-05	0.948819425686656	-0.30805229953484	0.94859721947504	-0.308026831546275	-0.000327902181950795	-4.51165866817962E-05
0.3	-0.000450549093250819	2.66046897554044E-05	0.888768849858491	-0.45168122935546	0.888612721341173	-0.45158584524869	-0.000457399196393366	-0.000175779733259012
0.4	-0.000253424816042285	0.00010775769735629	0.807217330481423	-0.583872688419168	0.80722911148031	-0.58389779865643	-0.000406982874552894	-0.000196427745453583
0.5	-0.000286170706289544	1.51030345320936E-05	0.706475622741209	-0.702021560532833	0.706320696376396	-0.701920105753232	-0.000418377551309392	-0.000298245671720261
0.6	-0.000408477993627913	0.000182278798777554	0.588581223285356	-0.802994891001156	0.588462057105566	-0.802833238602956	-0.000569738058572998	-0.000276262507369846
0.7	-0.000311620149743457	0.000509765765389106	0.456486564961303	-0.884252776972429	0.456467833333875	-0.884140339341536	-0.000506366657303811	-0.000265496742437355
0.8	1.01527535899257E-05	0.000600650928873729	0.313506817431788	-0.944107370847431	0.313475516159115	-0.943917751141765	-0.000527939045065982	-0.000234709144569598
0.9	0.000347952789788112	0.000721221542501967	0.163093508943474	-0.980951874239082	0.163028532859162	-0.980860017529282	-0.000603773224290966	-0.000286144233189755
1	0.000761023743076483	0.000213983278598254	0.00882560463150918	-0.994095517820709	0.00877399666566535	-0.994064066599289	-0.000672178241365946	-0.000500350336016851
1.1	0.000481012778620797	-0.00015373775141478	-0.145612867804533	-0.983240624139657	-0.145628576177282	-0.983110280604768	-0.00123604110629058	-0.00033069838545421
1.2	0.000585307569956444	-0.000896896830248053	-0.29654537977832	-0.94834011703942	-0.296469070686855	-0.948314063419641	-0.000941755903470701	0.000395397572345913
1.3	0.000570585491568079	-0.00233684315013343	-0.440013055556501	-0.890531813221848	-0.439990044983232	-0.890525209581328	0.000469822928047923	0.00114062313092175
1.4	0.000345800508652228	-0.00408139546985098	-0.572562247216803	-0.81131507392737	-0.572538094708797	-0.811293465571428	0.00237456780818565	0.000738339126493885
1.5	-0.000328027384659579	-0.0047950190801182	-0.691639349327575	-0.712346739180975	-0.691537681422904	-0.712261889816391	0.00380198573545811	-0.000425347788551808
1.6	-0.000473585553829275	-0.00461370675719391	-0.793451373123972	-0.596048933790765	-0.793377391767399	-0.595988998810081	0.00400135728459725	-0.00173036177319857
1.7	-0.000561555628888576	-0.00457789879254343	-0.875693647629919	-0.466163699386356	-0.87585766353489	-0.465648267024269	0.0036353918909108	-0.00296163319131746
1.8	-0.000971866605989259	-0.00460068923167492	-0.937442674368991	-0.324195903463411	-0.937331573617903	-0.324194542956509	0.00268151818612307	-0.00396428177343755
1.9	-0.00149167725541154	-0.00461545851214005	-0.976123695832361	-0.175176303499729	-0.976216449109217	-0.174689430376867	0.00158062703276825	-0.00454163562366731
2	-0.00272629281165016	-0.00451074287792002	-0.990995371063114	-0.021018432233905	-0.991007283805645	-0.020972654610166	0.000331235316605914	-0.00477132946503642
2.1	-0.003400859935093	-0.00338909287874797	-0.982117044305845	0.132726800255878	-0.982155093765855	0.132763821894245	-0.000469869662698756	-0.00440336007365741
2.2	-0.00382514817026408	-0.00279664762263059	-0.949688653016834	0.283357562236856	-0.949613703457998	0.283420289505668	-0.000972404749213821	-0.00430558753278744
2.3	-0.00429214979740607	-0.00217363684362782	-0.894323560695789	0.426625376083585	-0.893942173174344	0.427137946444711	-0.00167095475805916	-0.00432215399382218
2.4	-0.00481843365242336	-0.00166981050399215	-0.816351493256241	0.561135890101726	-0.816617412105339	0.560550895462538	-0.00249769662532638	-0.0042162810046149
2.5	-0.00570373278875434	-0.00110398129315988	-0.719782402228862	0.680632004757726	-0.71999531114075	0.680122843972144	-0.00321789374548357	-0.00422507172614263
2.6	-0.00642829525017602	0.000497552700621491	-0.605956805383279	0.783827520684123	-0.605850689688335	0.783645136436518	-0.00354832941276952	-0.00359065675238002
2.7	-0.00606899512200581	0.00203839779409211	-0.476398866079407	0.868520502804781	-0.476847027427782	0.868113805461121	-0.00348615891435951	-0.00327999025838733
2.8	-0.00505462011821136	0.00311987036719611	-0.337147515143886	0.931321859443592	-0.336480867987444	0.931480979807944	-0.00350702358973097	-0.00308635052787161
2.9	-0.00348814177359707	0.00362890171835248	-0.188135645701658	0.972350042014116	-0.188166770865118	0.972262761357632	-0.00309193092182829	-0.00258678749017294
3	-0.001986934343188	0.00370691185076328	-0.0342720925415212	0.990058949042415	-0.0349723176466466	0.989899877804347	-0.00249811824942517	-0.00208943748281154
3.1	-0.000183472948680152	0.0034216378152719	0.118521798755515	0.98330298826047	0.119111907760161	0.98328560163542	-0.00150270748983844	-0.00189314935910081
3.2	0.00108693335900725	0.00245650316102019	0.270147329707114	0.952768688650627	0.270092626866611	0.95270839884717	-0.00101109544979032	-0.00201065082941194
3.3	0.00218908139713399	0.00129870707349019	0.414816965264438	0.899266960626757	0.41467993206917	0.89925266793992	-0.000341450995249084	-0.00212970031368543
3.4	0.00267087991076086	-0.000177841062767252	0.549359641358587	0.824112774716776	0.549197434461934	0.824230497461918	0.000393104811491248	-0.00272653374608117
3.5	0.00267662645764459	-0.00131897758710701	0.670714222138503	0.728832061827541	0.670634663859498	0.728870763543727	0.000791809049121757	-0.00324849118372156
3.6	0.00274802071630281	-0.00228434195568203	0.774996130096139	0.616293784505245	0.775237072655836	0.61584558789281	0.00122455433907522	-0.00398664407995419
3.7	0.00258751634010592	-0.00361929260765109	0.861511717394665	0.488101068675558	0.86139344363359	0.488244014191587	0.00123088845134047	-0.00483351696120536
3.8	0.00184875233471687	-0.00487160409377417	0.926665508730412	0.349080181803358	0.926722438083706	0.348701247533496	0.000925049023930884	-0.0056502296182184
3.9	0.000967048593789963	-0.00610585376896153	0.969819520575609	0.19980752647407	0.969581006150912	0.200474549069806	2.92199829301568E-05	-0.00664328712335232
4	-0.00101117083330795	-0.00693541342742828	0.988809655947792	0.0476977561566042	0.988770697229387	0.0478005328259374	-0.000984110691429958	-0.00714401345275275
4.1	-0.00258058625135589	-0.00683872756928537	0.984492683977898	-0.106006280612272	0.984308205332879	-0.105879327125969	-0.00166401323528384	-0.00748822390103707
4.2	-0.0042644738555036	-0.00678710385578706	0.955958741141644	-0.258205005343017	0.955993349945466	-0.257551462672353	-0.00257314444278422	-0.00809520285158186
4.3	-0.00598283785824399	-0.00662268997424229	0.904652153483906	-0.402875186784987	0.904516266176185	-0.402764182067925	-0.00382339856107659	-0.00874752319845382
4.4	-0.00790143476875925	-0.0061115489896558	0.831134540115974	-0.538308185535278	0.830969308142739	-0.538175006297321	-0.00540241589840551	-0.00915019644390858
4.5	-0.0101532104856326	-0.00543869829565561	0.737858488780272	-0.660645480399911	0.737669530505371	-0.660472551502561	-0.00725400297200548	-0.00925339573900135
4.6	-0.0124127914342957	-0.00336337240429958	0.626061870514284	-0.767946096682763	0.626403144006998	-0.767247607069536	-0.00893556538664764	-0.00879088807618314
4.7	-0.0137243959420624	-0.00114031106020913	0.499589587259082	-0.85568798994507	0.499605712333407	-0.855331968333205	-0.0104982391994808	-0.00851656106031614
4.8	-0.01458579978812	0.00149231497501182	0.360444991719218	-0.922744321704262	0.360666361099674	-0.922427500650324	-0.0120381454202372	-0.00800632898562974
4.9	-0.0144940662619296	0.00403631575398122	0.21340933996378	-0.967037496664832	0.213189185224826	-0.967045528088153	-0.0132656799787497	-0.00716056442163597
5	-0.013803244704054	0.00660636000726119	0.0605211009470286	-0.988792564116114	0.0606982624575587	-0.988546756856797	-0.0139703976723052	-0.00573175273749976
5.1	-0.0118482668632641	0.00883602641302629	-0.0938346243843281	-0.986267047055658	-0.0935027120816525	-0.986041238520012	-0.014057329177984	-0.00434094108868942
5.2	-0.00950890779290166	0.0104172011222202	-0.24591921451255	-0.95971709268033	-0.245426694531331	-0.959689899276982	-0.01418512816303	-0.00289851720192646
5.3	-0.0070587305965283	0.0111806388711849	-0.391903236962385	-0.910030296842042	-0.391561914042014	-0.910246577625142	-0.013938020050907	-0.001403593208131
5.4	-0.00491083906115498	0.0116312515827422	-0.528667499551819	-0.838367908295193	-0.528454243805007	-0.838568874866133	-0.0136079005722959	1.35266250601051E-05
5.5	-0.00326635927418159	0.0124209346437006	-0.652790176911623	-0.745834036827217	-0.652550749715268	-0.746029065525985	-0.013194749913317	0.00156409822402784
5.6	-0.000273923990421337	0.0133522936285184	-0.760299812162549	-0.63523725417566	-0.760109759436781	-0.63540932655237	-0.0122431660503816	0.00262876783523843
5.7	0.0025674672705853	0.0128857057388938	-0.849767088538498	-0.509572704314452	-0.849637464207958	-0.509792837585758	-0.011829536060384	0.00362159701722695
5.8	0.00504586588542967	0.0119862786196791	-0.918589281063065	-0.371312071879092	-0.918521214077138	-0.371597511710672	-0.0114144563714019	0.0049263064912895
5.9	0.00706711231166929	0.0102183965590867	-0.965151579336199	-0.224089490591268	-0.965166065863624	-0.224173269242308	-0.0108718576990917	0.00629657041192934
6	0.00775173367301529	0.00858179974502987	-0.987958738809087	-0.0715144557454435	-0.987839312957984	-0.0715725676423873	-0.0102620860186944	0.00806619176574157
6.1	0.00901537071017198	0.00768068035944985	-0.987120860286366	0.0825095211915155	-0.986993996286572	0.0823608660323503	-0.00832079671766123	0.00945477597540915
6.2	0.0101859566855963	0.00583428758921542	-0.962328276514857	0.234955112894099	-0.962314540522236	0.23475198605447	-0.00664505198684609	0.00953297107891847
6.3	0.0105875019392679	0.00340123149824592	-0.914090305965481	0.381615683190594	-0.914085805722274	0.381430074557319	-0.00546162348459289	0.0090493887318475
6.4	0.0103156184836297	0.000753660568509294	-0.843558541700295	0.518874892465908	-0.84352688812245	0.518663953320793	-0.00485982608552623	0.00830164278747118
6.5	0.00918661793137382	-0.00180865074535447	-0.752897402198685	0.643312442533747	-0.752921603065381	0.643108093020088	-0.00458624793749961	0.00772173554745851
6.6	0.0079568043034909	-0.00391013496808015	-0.643894908351492	0.752799623203443	-0.643969024295196	0.752547098920024	-0.00425033131942077	0.00740516481312267
6.7	0.00614784626767964	-0.00582988145480809	-0.518879040551613	0.843646321757334	-0.518982202713834	0.843424889203499	-0.00405032917559102	0.00726971819436418
6.8	0.00414693570910876	-0.00707310880157822	-0.381442769648789	0.913883514481497	-0.381584786863166	0.91371266827656	-0.00373757391954762	0.00743931913779772
6.9	0.00191351685704659	-0.00782382534113005	-0.234937267670158	0.961878728791248	-0.235164332506048	0.96176838458285	-0.00306922361628838	0.00763497995686124
7	1.2704934096352E-05	-0.00774425378650687	-0.0826415387050096	0.986924975530085	-0.0828518430851854	0.986835268872079	-0.00212178848467525	0.00763192051041413
7.1	-0.0015623071012434	-0.00756316356383892	0.0720423575003693	0.987508513671969	0.0718398170290214	0.987375422102995	-0.00119096439767564	0.00737630790326044
7.2	-0.00301507908869864	-0.00714891065424389	0.224516097061336	0.963995996494941	0.224233547436498	0.963961931147316	-0.000181194889820452	0.00720609542448804
7.3	-0.00445166514163416	-0.00656552565807031	0.371372851944621	0.917261782129067	0.371136558807962	0.917288521473362	0.000857267478053322	0.00681372146926119
7.4	-0.00559095959211057	-0.0057383566563329	0.509340808560504	0.848366944477811	0.509127241140118	0.848418606181405	0.00167683412068851	0.00612100303549167
7.5	-0.00665598109370785	-0.00472143214167674	0.63502737230037	0.758467720894166	0.634857830274351	0.758537916477358	0.00249265079801003	0.00548170040474618
7.6	-0.00677968090123983	-0.00351181808092997	0.744621405144699	0.650328520576548	0.744363894974005	0.650411660981475	0.00351201361006758	0.00428511144877242
7.7	-0.00674991419276541	-0.00253112023361861	0.836268658375476	0.526810403451041	0.836083587227209	0.527028182367587	0.00379246633614071	0.00291626030894546
7.8	-0.00631352434630487	-0.00170455538738901	0.90786385374266	0.390397945648696	0.907761339174615	0.390623774027282	0.00388221730097587	0.00166583557190544
7.9	-0.00602490996288809	-0.00128776808585182	0.957285211584272	0.244534304999168	0.957147558167233	0.244714468549966	0.00362884540994153	0.000680870493883552
8	-0.00643479932265204	-0.000600053127655358	0.982843643137161	0.0929003835739324	0.982821290358132	0.0931632140752885	0.00278740178007597	0.000142988947604922
8.1	-0.00602219170558326	0.00121870661112854	0.985346159242187	-0.0604775762190796	0.98537566508833	-0.0602220122941157	0.00265560026636735	-5.83186480186569E-05
8.2	-0.0047659162842351	0.00239062870366455	0.963823090357438	-0.212771222477728	0.963872160611183	-0.212454183117755	0.00206556704669734	-0.000653007682838426
8.3	-0.00344384379354938	0.00321533474274362	0.918800149537055	-0.359757688015106	0.91885217441736	-0.359470634095476	0.00119896680438883	-0.000891436742682729
8.4	-0.00174116250970554	0.0034024898353828	0.851471718885593	-0.497775446610107	0.851569947743178	-0.497573730437991	0.000323984801789015	-0.000913818411732013
8.5	-0.00106411860124186	0.00290796828529008	0.76407144623308	-0.62339193674987	0.764123089958708	-0.623241333826021	-0.000741667831751052	-0.000524603443082111
8.6	-0.000163370600407509	0.00356311341481709	0.657835830398685	-0.734639710616989	0.658004796077116	-0.734402912174811	-0.000872648939415364	0.000537817112672082
8.7	0.00144720371980324	0.00378348354177607	0.535451856514875	-0.827581424707241	0.535711478235495	-0.827366565376877	-0.00058850758853333	0.00113709619453519
8.8	0.00345209143496179	0.00342619236903463	0.40050451585679	-0.900270626742545	0.400690026118328	-0.900131994470573	-0.000300989326597536	0.00151299324357586
8.9	0.00550345095605861	0.00229098381601614	0.256112543889985	-0.951286813324457	0.256291870652277	-0.951117181672792	0.000400990740890281	0.00200700151296853
9	0.00718848557297198	0.000193588382942795	0.105231537955945	-0.97956010275434	0.105539841738943	-0.979514172389294	0.00156438407587859	0.00239546712240818
9.1	0.00847558864050226	-0.00190513459687882	-0.0482828361396156	-0.98356674432318	-0.0479737843455408	-0.983526514984118	0.00351067811231424	0.00240826380389392
9.2	0.00933827016767683	-0.00447219843255877	-0.200271236250927	-0.963714907499606	-0.199923931793155	-0.963693436614163	0.00575605760016264	0.00157825857497933
9.3	0.00933881988822689	-0.00684557376706305	-0.347201532758717	-0.9207384693993	-0.346849944821332	-0.920713728340163	0.00798453677564053	-3.50645571398161E-05
9.4	0.00871050352085	-0.00915627744615595	-0.485730121061581	-0.85564509626907	-0.485407497700436	-0.855736547229023	0.00963803538343139	-0.00263304329531426
9.5	0.00693748567317119	-0.00978479334914246	-0.612571198085296	-0.76928420068923	-0.612334718026711	-0.769334998526317	0.00998904492671197	-0.00536036970912616
9.6	0.00688564463177422	-0.00998776358734419	-0.723862512023031	-0.664592654644819	-0.723551817702408	-0.664731760729977	0.00970700037924545	-0.00851462265577801
9.7	0.00655546698831831	-0.0106284409069039	-0.817803985287575	-0.544290769877837	-0.817517502380196	-0.544523778702027	0.00751922354195626	-0.0115264948537862
9.8	0.00609293324560609	-0.0113373842953421	-0.892084796998644	-0.410841349576271	-0.891832346206164	-0.411010383237454	0.00432970007933498	-0.0134145579375811
9.9	0.00531485468093691	-0.0120735803557754	-0.94472521091926	-0.267327692837653	-0.94447383908679	-0.267536440603796	0.000721515721320373	-0.0141223874515893
10	0.00332037519677313	-0.0122784206535788	-0.973951701719141	-0.11770537627487	-0.973799033471853	-0.118066853568367	-0.00309586009699626	-0.0133653187211061
10.1	0.00258970650697062	-0.011003348532715	-0.980289239188161	0.0342742748189178	-0.980226325136428	0.0338439770163839	-0.00585365469354145	-0.0119061042428494
10.2	0.0025457774611353	-0.0106729604854445	-0.963106574172428	0.185797337794704	-0.962985430962962	0.185367315237691	-0.00871195068562736	-0.0101794317635628
10.3	0.00229927785816992	-0.0105865126589207	-0.922421500108869	0.332798329678541	-0.922439257263399	0.332258536064951	-0.0113679387343152	-0.00772642130090888
10.4	0.00196055327640966	-0.0111660362997985	-0.859381792471634	0.471348788977218	-0.859518294846794	0.470839305815471	-0.0133175235533496	-0.00475323673092123
10.5	0.00065690010930996	-0.0116317986807733	-0.776295595116437	0.59840083720848	-0.776468047716771	0.597970291213494	-0.0142395306140952	-0.00134590576410334
10.6	-0.000440849930729898	-0.0112555646657682	-0.674183960304762	0.711700845758046	-0.674455672869554	0.711372026893846	-0.0136792804598277	0.00212181976495788
10.7	-0.0010634923519971	-0.0106461718076181	-0.555519868854489	0.807485132179037	-0.555819606309461	0.807176964611245	-0.0120483022399742	0.00497488715664739
10.8	-0.00139264443157919	-0.0103451087202483	-0.423601190157248	0.883527477349095	-0.423950809977134	0.883230487832569	-0.00991649488073243	0.00706227679581872
10.9	-0.00174972687661033	-0.0102561422853699	-0.281844653842568	0.938330042542076	-0.282233444338391	0.938207594224502	-0.0075896069517558	0.0086063079888295
11	-0.00216928908578672	-0.0102233362701026	-0.132916014456548	0.971064914706805	-0.133351570121326	0.970974639643845	-0.00483923879888723	0.00961954096262408
11.1	-0.0023165733276025	-0.0101277772528123	0.0195266991451107	0.979431361190244	0.0190397992234369	0.97944491310991	-0.00186269185163903	0.00978481923304217
11.2	-0.00254162696179581	-0.0105137909738807	0.170853745898898	0.964347423675252	0.170398470036353	0.964420188404238	0.00109525271935428	0.00925576037598651
11.3	-0.00299034383646331	-0.0109468740074292	0.317987717780409	0.926274801413696	0.317530478660281	0.926410714809083	0.00404609228901198	0.00815908076959271
11.4	-0.00396680767008326	-0.0116619576639496	0.457783398559959	0.86599678108412	0.457381071015611	0.866109331889777	0.0065800391621534	0.00662934392923428
11.5	-0.00565902578157026	-0.0111920664217607	0.586590529139798	0.784013338897361	0.586273216470925	0.784314307792723	0.00873887569446916	0.00490412952946581
11.6	-0.00624808766198351	-0.0105741200845315	0.700350039372523	0.68361281684743	0.700135486359968	0.68393888321954	0.0105282093620073	0.00224744776889846
11.7	-0.00695365426045339	-0.0101855715632784	0.797724229972865	0.567081004763728	0.79752160851004	0.56738589948252	0.0110610549237344	-0.00056761148747773
11.8	-0.00793242303861666	-0.00994285331622408	0.876101753492583	0.436550284369965	0.875920174605572	0.436998835575275	0.0107008077340826	-0.00310120672826977
11.9	-0.00911526793309168	-0.00958699389226306	0.933140502314547	0.295351431321718	0.933034577012953	0.295799174530281	0.00961641649104023	-0.00484427786227384
12	-0.0117894545290017	-0.00862646552965989	0.96709125621375	0.147521180384749	0.967061985642505	0.147883776936791	0.00851767110577859	-0.00598333967462058
12.1	-0.0127362970807177	-0.00592090574970603	0.978526282151796	-0.00368521734864572	0.978454742766166	-0.00330244995187479	0.00824674565204682	-0.00726049664090411
12.2	-0.0130882291163771	-0.0040739933579546	0.966341786699517	-0.155323092315437	0.966358451711385	-0.155026268272078	0.00710324818599685	-0.00906803039637755
12.3	-0.0131902445099783	-0.00223472587104441	0.930508854603259	-0.303162382108597	0.930627047185437	-0.302856638091321	0.00539691653319437	-0.0106154507857318
12.4	-0.0131161233446609	-0.000889937182764963	0.872494662724575	-0.443506062909925	0.872556384546061	-0.443137700648994	0.00325009282381275	-0.0117718204183012
12.5	-0.0135526154662492	0.000338365742498096	0.793789759514627	-0.573182974486517	0.794127509009178	-0.572792537637998	0.000547151680520185	-0.012228944448243
