# GHZ S RI R 50
0.2	-0.000317403457288929	-0.000203796558983792	0.949486042631265	-0.307832765031591	0.949263699703991	-0.307807374950012	-0.000267529917447873	-0.000157172300497096
0.3	-0.000472995083077857	-7.59945607142365E-05	0.889654584997066	-0.451542336420644	0.889498292435529	-0.451446965021713	-0.000480271366603088	-0.000277254805644718
0.4	-0.000384005589317221	9.04172036338582E-05	0.808333764358845	-0.583959832461122	0.808345571368831	-0.583984959880786	-0.000537823836802825	-0.000212248212501621
0.5	-0.000285375304867976	0.000263857910071421	0.707573847199285	-0.70254911294107	0.707418701074067	-0.702447603125026	-0.000417789885318462	-4.80240844639774E-05
0.6	-0.000190743765016032	0.000220243234570854	0.589542841632264	-0.803628370414294	0.589423481131674	-0.803466590751611	-0.000352723079346371	-0.00023642972573641
0.7	-0.000177698946333693	0.000425854659459713	0.457452320359397	-0.885124575395245	0.45743351403779	-0.885012008792853	-0.000373015937894259	-0.000346864148355942
0.8	4.72060409447732E-05	0.00044874505154905	0.314331409259652	-0.945294834522049	0.314299986521649	-0.945104963303561	-0.000491113421562098	-0.000383073061049805
0.9	9.96927994713095E-05	0.000545586710412897	0.163577702623147	-0.982404179519111	0.163512605633958	-0.982312198766126	-0.000850786130298673	-0.000457368583538676
1	0.000313989678768423	0.000690688893959737	0.00896979425367898	-0.995441128787675	0.00891811219779815	-0.995409641802566	-0.00111708482589868	-2.10875865754092E-05
1.1	0.000578752416050398	0.000375763121652423	-0.145514746017124	-0.984759223468526	-0.145530519784347	-0.984628689858693	-0.00113984852219483	0.000196919860390562
1.2	0.000608931923678059	-0.00039318329240559	-0.296848610230051	-0.9500145570765	-0.296772176947098	-0.94998844301941	-0.000917627404624459	0.000895827785335354
1.3	0.000562420444739765	-0.00167916925913388	-0.440746762137843	-0.892138275616642	-0.44072371100984	-0.892131658991758	0.000458388363363328	0.00179888068236414
1.4	0.000350026786170808	-0.0033038644498573	-0.573596842256853	-0.812680234087176	-0.573572646824176	-0.81265858989788	0.00237270460922412	0.0015250034747734
1.5	0.000162770995841824	-0.00432376657208637	-0.692762755755685	-0.713722321698921	-0.692660919648215	-0.713637305536357	0.00429306641421434	5.56949320964703E-05
1.6	-0.000525122344283574	-0.00475277266732284	-0.795202080513662	-0.597301988406018	-0.795127935676992	-0.59724192715227	0.00395022394383079	-0.00184317222272744
1.7	-0.000880734560156262	-0.00453472204760334	-0.877770074621579	-0.46689890490258	-0.877934280896822	-0.466382286731226	0.00332371765048905	-0.00289687472966923
1.8	-0.00135812504013257	-0.00439718646656258	-0.939627066442223	-0.324450948581042	-0.939515724465214	-0.324449638121038	0.00230600021195618	-0.00374458306812307
1.9	-0.00183515787341178	-0.0040279218160332	-0.978345456061318	-0.175090283623718	-0.978438178210338	-0.174602299759433	0.00125033611537925	-0.00394178263103038
2	-0.00213698079732985	-0.00390744490748468	-0.993576574678595	-0.0204344199913184	-0.993588488795766	-0.0203885160837209	0.000934703419500112	-0.00416185291183438
2.1	-0.00306377479966162	-0.00367067716698928	-0.984405179818497	0.134219849675816	-0.984443280179308	0.134257008527741	-0.000123367558591212	-0.00468165177443861
2.2	-0.00390063033840238	-0.0030292121179793	-0.951521638549716	0.285276241584172	-0.951446431464775	0.285339015330591	-0.00103792075602285	-0.0045342827212757
2.3	-0.0045667212276496	-0.00225956188474731	-0.895772714133798	0.428888716963969	-0.895389714119543	0.429401921890748	-0.00193322576039383	-0.00440660258047456
2.4	-0.00528691768702073	-0.00139171369694836	-0.817423709400688	0.5638152986176	-0.81769121816272	0.563229315557192	-0.00295090715636313	-0.00394268051739906
2.5	-0.00552992404356897	-0.000289887545275049	-0.719960715886004	0.683829169832112	-0.720175255789943	0.683319286360315	-0.00303301099661166	-0.00342864333567907
2.6	-0.00596440956953154	0.000632636152841568	-0.605302876561711	0.786668941331905	-0.605196978083507	0.786485975354471	-0.00307926914540971	-0.00347180805421548
2.7	-0.00592553269495905	0.00200479138670396	-0.475273975458622	0.871178169716646	-0.475723875892675	0.870771762281427	-0.00334217447099977	-0.00332978924852537
2.8	-0.00514685068069257	0.00321358278815227	-0.33545159724827	0.933801754605389	-0.334783377364088	0.933959515397772	-0.00360529990310097	-0.00300763235737866
2.9	-0.00358734076912088	0.00396496882956619	-0.185714233639162	0.974463788380061	-0.185745654438777	0.97437645270659	-0.00320753324579099	-0.00225012937819936
3	-0.0019374098422389	0.00401190988154268	-0.031411137453703	0.991170079807114	-0.0321125427861328	0.991012894331467	-0.00246501455887987	-0.00177443216952297
3.1	-0.000299979722720337	0.00382839519943637	0.121233817428018	0.983987856459912	0.121824479106439	0.98396889677984	-0.00162843247396926	-0.00149909180434515
3.2	0.00114032012411102	0.00302778187323378	0.273102384060307	0.952977459247389	0.273047455993321	0.952917262036074	-0.000966577358712794	-0.00142630336978446
3.3	0.00241498393323995	0.00190924230352623	0.417863969329746	0.898753955922832	0.417726780959408	0.898740064122522	-0.000121524108689909	-0.00150420416928291
3.4	0.00316841399986211	0.000482929860378662	0.552139058957863	0.822766834871593	0.551977146612494	0.822885108764787	0.00088648773500399	-0.0020510771399463
3.5	0.00361701131815236	-0.00116650033523848	0.6728456931084	0.727246388034772	0.672766215854516	0.727285312783443	0.00172897651885171	-0.00308694530441547
3.6	0.00319890550018982	-0.00252109819382413	0.777202651481304	0.614373813610997	0.777442421637781	0.613924676331843	0.00166989136352607	-0.00421144434760206
3.7	0.00283855796058994	-0.00376545928221413	0.863292977385922	0.485528817127502	0.863175119810896	0.48567217553796	0.00147930536710465	-0.00496500534799662
3.8	0.00200074123976943	-0.00494597525561226	0.927767408182353	0.346130282835944	0.927823132014994	0.345751170876601	0.00107788389607253	-0.0057117002145367
3.9	0.00111782443361759	-0.00593210515655341	0.970235666449179	0.196850211570989	0.969999205320633	0.197517824665156	0.000182314813210211	-0.00646031592007751
4	-0.00019074665081987	-0.00687262441960051	0.989081156329458	0.04462181641664	0.989042513100399	0.0447247272776168	-0.000166312001988432	-0.00707922483716508
4.1	-0.00209059491319252	-0.00750610751233644	0.983814006737269	-0.109532161057346	0.983630042261003	-0.109404579029611	-0.00118382482138818	-0.00815208019627114
4.2	-0.00421090323216741	-0.00745544179765465	0.954346508833018	-0.261419696596415	0.95438341829576	-0.260766751103336	-0.00253204927427551	-0.00875919830880024
4.3	-0.00623366829415685	-0.00717503380275851	0.902407785536321	-0.405619330999854	0.902272409708941	-0.405507961698266	-0.00408922415818587	-0.00929357466223991
4.4	-0.00844356460871708	-0.0062758893350596	0.828476549318252	-0.540666745441621	0.82831193623724	-0.540533122382192	-0.0059602125506605	-0.00931034804048575
4.5	-0.0101847530737873	-0.00502395511084681	0.734277026133157	-0.662732255674681	0.734088999943506	-0.662558797200386	-0.0073109561622084	-0.00884159272862203
4.6	-0.0121408896090317	-0.00340396523997231	0.621938387134484	-0.76870175715305	0.622281554618826	-0.76800595675503	-0.00870376992117589	-0.00882382292144117
4.7	-0.0135666339838355	-0.00130440955778483	0.495547196241952	-0.85548864996463	0.495564503559867	-0.855133477718608	-0.010388932699148	-0.00866111070265975
4.8	-0.014498197601119	0.00129382233276925	0.356511799066148	-0.921749176508136	0.35673369739264	-0.921433847340828	-0.0120031224737112	-0.00817353450871833
4.9	-0.0144655810343939	0.00388586904934461	0.209511653934774	-0.965203101718852	0.209292056483646	-0.965210353551304	-0.0132929298167474	-0.00726152117085952
5	-0.013706810209026	0.00634328384250775	0.0571529353720588	-0.985543935774921	0.0573302651320341	-0.985299549870088	-0.0139242677649632	-0.00591966832667375
5.1	-0.0121296309811429	0.00856475323292267	-0.0959928333731	-0.982607591014289	-0.0956615043734838	-0.982383402125884	-0.0143685126859434	-0.00452617281151964
5.2	-0.00992302757422247	0.0104516664417405	-0.247371397395314	-0.955782656410963	-0.246880527509631	-0.955756742563758	-0.0146097437939848	-0.00277118932971401
5.3	-0.00740637440243419	0.0115306898827302	-0.392541554155193	-0.905748942895957	-0.392201996440671	-0.905965205761295	-0.0142764587336059	-0.000961123437106277
5.4	-0.00483859826508253	0.0123030399876439	-0.528176457707991	-0.833823152985175	-0.527964492745117	-0.834023719201562	-0.0135120926746119	0.000773091979065042
5.5	-0.00250177579536339	0.0123016339583951	-0.650959038704004	-0.741945005481515	-0.650720842580385	-0.742139506945661	-0.012397456820991	0.00151942421221241
5.6	-0.000445002809429477	0.0128526304205598	-0.758179086599006	-0.631890094708377	-0.757989967634801	-0.632061743627334	-0.0123785901639041	0.00220748447855293
5.7	0.0021022311118843	0.0127857043335974	-0.846952967688934	-0.506522268006714	-0.84682412393015	-0.506741669540748	-0.0122433680478595	0.00359377412198084
5.8	0.00453946577005289	0.0122357054618742	-0.915018395108065	-0.368906488756384	-0.914950874408469	-0.369190776492784	-0.0118488510304046	0.0052368385808974
5.9	0.00678821818559966	0.0110602858976415	-0.961070431953752	-0.222758219812534	-0.96108488750879	-0.222841631525934	-0.0110673722394934	0.00716987811131402
6	0.00878116240165697	0.00921765055545168	-0.984244012799619	-0.07100092571161	-0.984125052373206	-0.0710588475806136	-0.00916998940600071	0.00870980628690665
6.1	0.00967535855927379	0.00723446639936961	-0.982991560906035	0.0826566451234511	-0.982865295893855	0.0825085427099468	-0.00760352119054057	0.00902143161962263
6.2	0.0103950964548452	0.0053655733215941	-0.958049742189463	0.234022302503601	-0.958036089130205	0.233820071698691	-0.00637795052304787	0.00906984475248642
6.3	0.0106084692024047	0.00305899975980456	-0.91015738128092	0.379650086978558	-0.910152844988661	0.379465301551354	-0.00537894304470847	0.00870959374394312
6.4	0.0103133405894817	0.000665856462512731	-0.840326058767516	0.516245504299109	-0.840294420938325	0.516035462364755	-0.00479999489586769	0.00820698122865017
6.5	0.00939861966362998	-0.00188307146064146	-0.749764300553041	0.640371836427189	-0.749788355221206	0.640168367670837	-0.00430422668542582	0.00763030543404008
6.6	0.00811361095947755	-0.00398987266090161	-0.641384946397719	0.748624914411963	-0.641458497437449	0.748373554391311	-0.00402432100815943	0.00728125075085228
6.7	0.00636330811012938	-0.0058996797087161	-0.517562858573129	0.838980887016775	-0.517665239226928	0.838760359232666	-0.00378420356057978	0.0071364596062906
6.8	0.00435580301938943	-0.00720241490264128	-0.381171261880706	0.909135353422705	-0.381312363431273	0.908965054830884	-0.00349985854892326	0.00723644005178054
6.9	0.00212945707866929	-0.00797885078788658	-0.235418223811886	0.957151564981937	-0.235644084686215	0.957041355437438	-0.00285923728525263	0.00741343272933515
7	8.07203016314746E-05	-0.00811626422003769	-0.0842832204772467	0.981712806717054	-0.0844922634329455	0.981623118361546	-0.00208226554744743	0.00719354340910883
7.1	-0.0017775261586307	-0.00773790375151389	0.0688115202351931	0.983099704564516	0.0686103173400022	0.982966642101058	-0.0014583286883738	0.00715038504622442
7.2	-0.00322901254742283	-0.00712351873088801	0.220525723147536	0.960521971065865	0.220244504395474	0.960487168841928	-0.000459877917529344	0.00719728058374528
7.3	-0.00461295914959398	-0.0064025878165577	0.36676527710345	0.914616064768065	0.366529893841886	0.914641908418124	0.000620248942468423	0.00695869883777525
7.4	-0.00559372764557166	-0.00545360537707701	0.504001208193149	0.846558444822953	0.503788378209214	0.846609094951015	0.00158859308809559	0.00641816986599872
7.5	-0.00640470221760629	-0.00467082481025269	0.628993096793255	0.758456553108668	0.628823892350466	0.758525681448277	0.00265134025436742	0.00556446174183745
7.6	-0.00688815821936387	-0.00359790816512596	0.739304282584217	0.651722387782072	0.739047194293288	0.651804084013486	0.00333431903071717	0.00424287953590533
7.7	-0.00699657847092832	-0.00242360569401275	0.831346735912243	0.5291036368826	0.83116121009791	0.52931991295727	0.00349228820917203	0.00309450022647583
7.8	-0.0065707208946789	-0.00137181355022557	0.903389620820778	0.393729175595479	0.903286292902331	0.393953864619835	0.00359075144849839	0.00207502497998143
7.9	-0.00603015148750887	-0.000547700952117225	0.953606106166529	0.249093447325056	0.953467820653812	0.24927242433908	0.00362301825238197	0.00145128816584006
8	-0.00529727127599991	-0.000187214034462551	0.980915501399454	0.0980028124032203	0.980891780509461	0.0982651405549787	0.00390417908187841	0.000642493942547808
8.1	-0.00531458208072287	0.000571139309455955	0.984151578896415	-0.0555048205072527	0.9841797740325	-0.0552494979568097	0.00333812920692998	-0.000663691541324614
8.2	-0.00463021311071796	0.00163261910366807	0.963561290750075	-0.207432885082412	0.963608634822959	-0.20711604112243	0.00218082540502205	-0.00135765819066948
8.3	-0.00376262537385366	0.00254075032280178	0.919819765943227	-0.354343313899468	0.919870161942631	-0.354056272644438	0.000870820689098521	-0.00150930192907675
8.4	-0.00252210950432672	0.0032493986689014	0.853893355632636	-0.492906807689731	0.853990438414294	-0.49270462616293	-0.00045803423048974	-0.00102188140717761
8.5	-0.00109254801255732	0.00345824808971019	0.766877784647351	-0.619510551622976	0.766928683500168	-0.619359740937198	-0.000782106400755118	6.58644087793484E-05
8.6	-6.49548698828578E-05	0.00343672560063358	0.66140492489624	-0.730796219596746	0.661572553756157	-0.730558642092814	-0.000776983293424927	0.000464941811225468
8.7	0.00122968681510611	0.00372117170850063	0.540044642345012	-0.824592362157056	0.540303065733376	-0.824376062716699	-0.000799987050486836	0.00111492408649854
8.8	0.00312530931231779	0.00359449156500114	0.405664538262497	-0.89848260491603	0.405849370261054	-0.898342882966018	-0.000614828525844186	0.00171531502820555
8.9	0.00515432138439596	0.00281756586113954	0.261238836766233	-0.950653841954003	0.261417414190697	-0.950483155076254	6.5506895308659E-05	0.00255787486358063
9	0.00730141172881096	0.0010329995631398	0.110603708508326	-0.979335838422805	0.110911871942098	-0.979288212673991	0.00168497375587613	0.00325051507557296
9.1	0.00881098684763129	-0.00120215651586316	-0.0424955902768794	-0.984964586810222	-0.0421864283049364	-0.984922476446822	0.00383986914761551	0.00312000617761395
9.2	0.00990432949032143	-0.00386586596659552	-0.195094807043531	-0.966503936460663	-0.194747033635651	-0.966480440497714	0.00630825400563343	0.00219659904190725
9.3	0.00999913350853871	-0.00647787222735378	-0.342824659295724	-0.924469849758126	-0.342472511750685	-0.924443126080642	0.00862748292671206	0.000351050694707811
9.4	0.00949235074852512	-0.00877311901133053	-0.481975522259446	-0.860001656319453	-0.481651760981451	-0.860091511249967	0.010387857199776	-0.00222751886156531
9.5	0.00806184856848878	-0.0104395254197203	-0.609444023965639	-0.775064631964918	-0.60920661252675	-0.775114108563969	0.0110732969434558	-0.00597214930945052
9.6	0.00676440790339628	-0.0108423310555553	-0.722701911996096	-0.670983711384444	-0.722389343801364	-0.671121571711106	0.009564710789781	-0.00931352244539753
9.7	0.00606203182956406	-0.0109474475840476	-0.818041104264306	-0.550576158071292	-0.817752338264882	-0.55080855218526	0.007024086775971	-0.0117953778393504
9.8	0.00547978914765295	-0.0112113454123526	-0.89353594144554	-0.416982644506771	-0.893281635945222	-0.417151069438796	0.00372437935317595	-0.0132551233401183
9.9	0.0048791982140458	-0.0112179574741572	-0.947522938648691	-0.273402754043221	-0.947269373256417	-0.273611124308478	0.00029144355780626	-0.0132847659994336
10	0.00415973261185021	-0.0116815523302335	-0.978789021874183	-0.12280485325782	-0.978633859480774	-0.123167627904285	-0.00228708153762048	-0.0127942119182864
10.1	0.00287137357249005	-0.0111701090093228	-0.985682186968809	0.0308020065309216	-0.985617329985003	0.0303696322267971	-0.00561677982379413	-0.0120897891191829
10.2	0.00253018335350918	-0.0105604888402798	-0.969008886177059	0.183384050918775	-0.968885554622047	0.182952118665738	-0.00878625890456283	-0.0100856398852371
10.3	0.00230423045372318	-0.0101887028110124	-0.928868273999169	0.331650197792583	-0.928884335089592	0.331107221360644	-0.0114413630322083	-0.00734760680300242
10.4	0.0021509379878702	-0.0103780957661097	-0.86618202919658	0.471940024936289	-0.866317971172813	0.47142691154041	-0.0132312702628103	-0.00397535268769773
10.5	0.00174379796921768	-0.0107904381465953	-0.782065309087121	0.600846389903841	-0.782238131905214	0.600412901842097	-0.0132669917569157	-0.000490856078571754
10.6	0.000862400666762751	-0.0111808126552419	-0.679265441344492	0.714659309350982	-0.679538162842717	0.71432813934304	-0.0124984119758637	0.00222039822822557
10.7	-6.8696787564076E-05	-0.011006782057138	-0.560096308026903	0.811479883960205	-0.56039737166112	0.811169405377645	-0.0111242979222611	0.00461623896547453
10.8	-0.000531607810542249	-0.0110210666470998	-0.427204621607529	0.888573687047011	-0.427556097317907	0.888274465124538	-0.00921420402863277	0.00660795571342688
10.9	-0.00120951806021867	-0.0108896651292341	-0.283912103056559	0.944026244259792	-0.284303251794751	0.943902904281476	-0.00712320472527443	0.00812426535509281
11	-0.00180898888301513	-0.0110448371626048	-0.133986034009657	0.976312589491676	-0.134423932544202	0.976221667276795	-0.00453392339884026	0.00894718406004937
11.1	-0.00238293141009187	-0.0108442573880713	0.0191455364917557	0.985304018565916	0.0186557151214249	0.985317403981813	-0.00197017031951313	0.0092416031724294
11.2	-0.00280320289565175	-0.0109938657761461	0.171961911680407	0.970349008735152	0.171503802028738	0.97042224743555	0.000834941858887259	0.0089618927293397
11.3	-0.00331986988880902	-0.0111386860335436	0.320486489546887	0.931771220768085	0.320026524764017	0.931908238440934	0.0037212601745435	0.00817240801890513
11.4	-0.00406275891905467	-0.0114742356013952	0.461123512767908	0.870586503685195	0.460718970333268	0.87070003193635	0.00652683001466802	0.00701173663366212
11.5	-0.00532146652456824	-0.0115857750262151	0.590526381820754	0.788567333503426	0.590207253499906	0.78887028509547	0.00916161932740877	0.00466906058787112
11.6	-0.00669562012403407	-0.0110500392010092	0.705903936312781	0.687180405742943	0.705688407626379	0.687508917304594	0.0102155686965378	0.00191321813588421
11.7	-0.00757800179419421	-0.0102232041908845	0.803914605323387	0.569093389787433	0.803711304329433	0.569400622426635	0.0105967027769895	-0.00050069468543857
11.8	-0.00854429956597376	-0.00958323909380487	0.88243517775913	0.437185580258422	0.882253528567733	0.437637277453974	0.01026122853192	-0.00266726786519964
11.9	-0.00937395491582302	-0.00860519400502124	0.939524082786017	0.294991049313024	0.939418548986785	0.295441772516618	0.00949344865181885	-0.00387491968502249
12	-0.0106579505360053	-0.00808572652325246	0.97408090838805	0.145418070061408	0.974052601842285	0.145783203880827	0.00981392138072837	-0.00545757546099957
12.1	-0.0120542036546684	-0.00636311300146853	0.98439117908171	-0.0077514637976796	0.984320791728284	-0.00736610063460594	0.00902568296313849	-0.0077886002446089
12.2	-0.0128252676741205	-0.0047011543040886	0.971029437079858	-0.160402522413589	0.971047489932417	-0.160104123032549	0.0074286745609419	-0.00977923913677662
12.3	-0.0133667873371475	-0.00292417350123285	0.934104291151615	-0.309086281764856	0.934224529932748	-0.308779442164902	0.00526020280952013	-0.0113883554318053
12.4	-0.0137895883420655	-0.00115369133390432	0.874939993996495	-0.45042680177039	0.875003955948752	-0.450056757985946	0.00260018354322539	-0.0121284087489169
12.5	-0.0136772920391975	0.000553085182732636	0.793818302946723	-0.58082928807953	0.794160069928906	-0.580439189672265	0.000388448692129236	-0.0121177218098165
