# GHZ S RI R 50
0.2	-0.000140838311064186	-0.000219274404478599	0.949490879710251	-0.307929346539816	0.949268531421939	-0.307903935450578	-0.000165826794598445	-8.8832434892469E-05
0.3	-0.000282232239586226	-0.000174728407054567	0.889584501616215	-0.451656505082102	0.889428223514208	-0.451561113801456	-0.000384273040122343	-0.000193711251227307
0.4	-0.000198669457223142	-0.000108511722587542	0.80817320601752	-0.584031148162645	0.80818500815508	-0.584056275155864	-0.000417909920501148	-0.000133237324739959
0.5	-0.000243786456548141	-2.88181371022512E-05	0.707447819056355	-0.702513913337808	0.707292697201419	-0.702412405228008	-0.00042157467552258	-4.76520731057811E-05
0.6	-0.000174236203746877	1.82095650393994E-05	0.589406748353994	-0.803632068714588	0.589287415299262	-0.8034702882424	-0.000466578582644474	-5.34410746976436E-05
0.7	-0.000158016086717174	0.000186531806896601	0.457280169979954	-0.885065224166181	0.457261380336626	-0.884952670093782	-0.000472086015295224	-1.10912384389467E-05
0.8	3.47402559113172E-05	0.000203519321639107	0.314176045400669	-0.945156744149695	0.314144648121878	-0.944966903993813	-0.000495382606968086	0.000136138236897225
0.9	0.000137470963603691	0.000310749502365065	0.163513002517775	-0.982197966658894	0.163447922263259	-0.982106003734914	-0.000499540434977917	0.000198421938811645
1	0.000381574571389249	0.000257853854701935	0.00898334172043251	-0.995333162123541	0.00893166478016743	-0.99530167932219	-0.0002925620534217	0.000141586976597129
1.1	0.000670520701587634	-7.3082729063901E-05	-0.145552534867382	-0.98461406088005	-0.145568298791976	-0.984483544461204	-0.000394953121987715	-0.000213427487154281
1.2	0.000904219641311071	-0.00125162021229791	-0.296823069572041	-0.949846483495909	-0.296746648545818	-0.949820375828838	-0.000344418852824453	-0.00024525204653236
1.3	0.000805001935902685	-0.00305727720577997	-0.440663657543684	-0.892001681102449	-0.440640610221453	-0.891995065209946	0.000411852828399387	9.03198639808153E-05
1.4	0.000531911458154999	-0.00491480971923108	-0.573507243883471	-0.812632456461833	-0.573483051675964	-0.812610813127019	0.00177992580683054	-3.93142769548284E-05
1.5	0.0002655474345479	-0.00586892508095958	-0.69280192594713	-0.713628947765233	-0.692700085975917	-0.713543944517561	0.00321295657676369	-0.000832297478536495
1.6	-0.00032339127146849	-0.00624686896658975	-0.795125957108433	-0.597144414002866	-0.795051819051745	-0.597084368096285	0.00317216603376306	-0.00163263875519478
1.7	-0.000900898037864681	-0.00598661038804573	-0.877668201504248	-0.466804689492629	-0.877832367284987	-0.466288135176009	0.00309635850954683	-0.00223339537958756
1.8	-0.00154421608312053	-0.00562698095497696	-0.939560343186728	-0.324383760707073	-0.939449010699442	-0.324382454996084	0.00259153140446848	-0.00295543833446309
1.9	-0.00204705448669714	-0.00507881319968137	-0.978330044597896	-0.174948177684153	-0.978422695662825	-0.174460200729218	0.00196541427091151	-0.00347736635515298
2	-0.00249654944325462	-0.00478903474293108	-0.99336394746892	-0.020194613012186	-0.993375848113412	-0.0201487163064284	0.00115134722299743	-0.00416043328950904
2.1	-0.0032090913772714	-0.00434520697869225	-0.984147715594808	0.134284643483593	-0.984185802812053	0.134321796935934	-7.4278530608649E-05	-0.00409003807183561
2.2	-0.00403728660586082	-0.00378830328284996	-0.951277932129267	0.285319052636684	-0.951202734776039	0.285381804016743	-0.000639138915218102	-0.00376941305695446
2.3	-0.00479277164233243	-0.0029603949768751	-0.8954826118432	0.428917779245812	-0.895099629615229	0.429430797033836	-0.00114635327448025	-0.00374690506451467
2.4	-0.00549123213387509	-0.00196870045104885	-0.81700917792255	0.563764039817024	-0.81727670091349	0.563178327339844	-0.00173030281958478	-0.00381436436630179
2.5	-0.00574666554147465	-0.000856559596753357	-0.719603568923924	0.683465682275999	-0.719817989756506	0.682956056519697	-0.00225311949488577	-0.00447309288537503
2.6	-0.00601654246416595	0.000243985978410594	-0.605140332254251	0.786342648466295	-0.605034459017553	0.786159755901789	-0.00341685659115917	-0.00448248827690146
2.7	-0.00571957905136869	0.00149592851089445	-0.475125187182224	0.870823715361302	-0.475574898243713	0.870417446780202	-0.00414730863148392	-0.00386162289469229
2.8	-0.00476131406040892	0.00242429853999319	-0.335369831825474	0.933352253738813	-0.334701927414933	0.933509993392502	-0.00443399667965131	-0.00311472139055027
2.9	-0.00320077419837463	0.00279961131793452	-0.185840801902193	0.973906735416908	-0.185872186024309	0.973819438598318	-0.00395176200410513	-0.00221706006983741
3	-0.00174769916866838	0.00256161448883873	-0.0318161006068452	0.990863524117488	-0.0325172326179289	0.9907060920265	-0.00334353146711574	-0.00151118778329967
3.1	-0.000351868012682359	0.00218598018327188	0.120962007750802	0.983787110305092	0.121552535604074	0.983768301169362	-0.00228773359471987	-0.000898356219727677
3.2	0.000731878751283667	0.00140977899500972	0.272758100787654	0.952779103859303	0.272703205314759	0.952718908676283	-0.00145193019855406	-0.000759074348813985
3.3	0.00180797311463417	0.000494619653184218	0.417423054943629	0.898666254510102	0.417285908394183	0.898652316207022	-0.000473155559163831	-0.00081061272673813
3.4	0.00252526239649336	-0.000733847549721592	0.551693423233476	0.822929008680008	0.551531474504531	0.823047193772378	0.000548803245804785	-0.00150227190825013
3.5	0.00294548915485492	-0.00217910307295892	0.672741460199832	0.727454737436352	0.672661967792047	0.727493647924213	0.000880697582093046	-0.00233938559063505
3.6	0.00272119419241482	-0.0034412954500948	0.777002548102531	0.614419905273728	0.777242359835	0.613970864985923	0.00110600250035453	-0.00276805413016555
3.7	0.00234961916493263	-0.00467850395989378	0.863071715417381	0.485682127788705	0.862953836807751	0.485825440355078	0.00141750975648871	-0.00340082395333166
3.8	0.00150235174344416	-0.00572251695948715	0.927644319823858	0.346346614861538	0.927700135491659	0.34596753192995	0.00144549764496472	-0.00428006111008469
3.9	0.000730900883720153	-0.00655068793954158	0.97026207873328	0.19696504760744	0.970025533614453	0.197632667929214	0.000863111873349599	-0.00555639240366282
4	-0.000520234037581932	-0.00738866570128333	0.988842889531882	0.0445394548748712	0.988804263173133	0.0446423434022685	-0.000219041592409846	-0.00684205381466052
4.1	-0.00210895228812242	-0.00787167274695237	0.983522404763934	-0.109279848159223	0.983338471174193	-0.109152347688497	-0.00178980061566285	-0.00724110883740531
4.2	-0.00405125683935058	-0.00794601016801885	0.954206048614965	-0.261109838623497	0.954242777256548	-0.260457026779382	-0.00300625095130102	-0.00740694039128446
4.3	-0.00601227323511981	-0.0077097868357235	0.902321505160959	-0.405339406118944	0.902186131047831	-0.405228088690337	-0.00428626606105066	-0.00769945587250599
4.4	-0.00811196276308057	-0.00678751060029925	0.828287234763523	-0.540365173969099	0.828122655353327	-0.540231619393238	-0.00564748322399258	-0.00781609313190864
4.5	-0.00975150372795836	-0.00561598882270206	0.734222640643587	-0.662019159248824	0.734034626514161	-0.661845885343099	-0.00714867234719449	-0.00822956599708877
4.6	-0.0115011454717454	-0.0039261380545751	0.622299304846525	-0.768174305789349	0.622641977912064	-0.76747842167283	-0.0094041211236636	-0.00798555213649048
4.7	-0.0126462687347594	-0.00206326309254849	0.495941277042297	-0.855119350831326	0.495958393220856	-0.854764213214009	-0.0113065896987095	-0.00730932739047849
4.8	-0.01347700139231	0.000199767021620664	0.356943164653455	-0.921406241371586	0.357164858266324	-0.921090846497096	-0.0128867289481987	-0.00634978019584738
4.9	-0.0134749355053725	0.00245442577644709	0.210151221897227	-0.964818061029888	0.209931683129818	-0.964825468217033	-0.0139170444627717	-0.00509879457357452
5	-0.0128713800756657	0.00460682002785592	0.0581273628602285	-0.98563783908535	0.0583044801192027	-0.98539324224175	-0.0144175851486437	-0.00345111772995197
5.1	-0.0114651037557565	0.00655029378926267	-0.0953759686078752	-0.982971885006116	-0.0950446855178692	-0.982747409484088	-0.014095954289646	-0.00155321336714895
5.2	-0.00959625395678069	0.00827536036926097	-0.246821321637158	-0.95617561061456	-0.246330347702901	-0.956149376673959	-0.0132988559523322	-0.000100825557806953
5.3	-0.00736107928469567	0.00940192862394971	-0.392003224080287	-0.906300825078635	-0.391663409542164	-0.906516906587228	-0.0123189810987579	0.000746438578335254
5.4	-0.0049132210454782	0.0102765533261491	-0.527782504174382	-0.834710914385663	-0.527570259293982	-0.834911416660264	-0.0118073497874225	0.00110017377406508
5.5	-0.00273421464420864	0.0104445093233465	-0.651223807025429	-0.742839757848094	-0.650985329425662	-0.743034331858901	-0.0125083309317655	0.00165475579528092
5.6	-0.000448760848526386	0.0110084749522197	-0.758431854508663	-0.632418121694737	-0.758242591231648	-0.632589816417733	-0.0124451003242884	0.0036808167952798
5.7	0.00189779764504939	0.0108385987673734	-0.847236668839483	-0.507068891355983	-0.847107684834446	-0.507288367070495	-0.0116607354489453	0.00521699805410819
5.8	0.00411640926315134	0.0105207746369242	-0.915492676692281	-0.369432900959392	-0.915425022942118	-0.369717350753358	-0.0107840848030832	0.0064982611663773
5.9	0.0064647498791591	0.00971958758831884	-0.961815837335106	-0.223018776474401	-0.961830297259168	-0.223102255638074	-0.00981518800284759	0.00735589584630915
6	0.00860487303327417	0.00808319072650143	-0.984627975354718	-0.0708036944245545	-0.984508983725993	-0.070861664806071	-0.00983499639614817	0.00775553091875336
6.1	0.010114059810623	0.00627796080370134	-0.983255095935384	0.0825026982272226	-0.98312877268863	0.0823545809715866	-0.00966963411019258	0.00971757707765988
6.2	0.011175171761367	0.0039344543399188	-0.958510564449761	0.233904652147191	-0.958496859759625	0.233702338539731	-0.00830946862799937	0.0110503493520105
6.3	0.0112607257470786	0.00115909919919349	-0.910669015619848	0.37972405370207	-0.910664452916632	0.379539175186204	-0.00669418394529672	0.0114916377512694
6.4	0.0106309350913522	-0.00151991400054843	-0.840607045491883	0.516460283040748	-0.840575404011898	0.516250165133635	-0.00523418569089135	0.0111016376090842
6.5	0.00928833410455548	-0.00414586863029127	-0.750093664298589	0.64015229076643	-0.750117642981231	0.639948790557217	-0.00429064666413235	0.0102317552812676
6.6	0.00767914844777593	-0.00613980653495701	-0.642118720877436	0.748783750172099	-0.64219220076377	0.74853220389949	-0.00348614307186332	0.00954657032491094
6.7	0.00569454292023024	-0.00778094202487804	-0.518109791176167	0.8394395244495	-0.518212191869009	0.839218821857976	-0.00318640840110249	0.00871613322649966
6.8	0.0037244336063461	-0.00872311433693226	-0.381511587256186	0.909621271012759	-0.381652749953782	0.909450854309363	-0.0032760402962589	0.00842932725637114
6.9	0.00177615911746082	-0.00932572768039226	-0.235807855120631	0.957487448853207	-0.236033778659516	0.957377124159175	-0.00314140809503145	0.00855049350332776
7	1.34848462978468E-05	-0.00943709391629771	-0.0849522007116803	0.982572333603671	-0.0851613834761862	0.982482436284328	-0.00279945052199862	0.00887288261148799
7.1	-0.00158599265877453	-0.00925138781154976	0.06878886105641	0.984180439496225	0.0685874516285106	0.98404721166869	-0.00188382983903009	0.00925645135967369
7.2	-0.0029634693835247	-0.00884288588001956	0.220737628549886	0.961438218201517	0.220456141392659	0.961403383203729	-0.000711500050370728	0.00942376421602771
7.3	-0.0043205998618631	-0.00830368261572374	0.367066422160352	0.915495735664778	0.366830815840179	0.91552159223153	0.000510934326172928	0.00933420686844336
7.4	-0.00531353085354746	-0.00754816807854495	0.504485033408682	0.847647113523054	0.504271940627812	0.847697793969223	0.00164469659215978	0.0088761154329102
7.5	-0.00627804044797492	-0.00693564675990408	0.630321399240355	0.759332156892266	0.630151965968995	0.75940147159976	0.00258938604812851	0.00832311624853448
7.6	-0.00682100246126129	-0.00597379113508379	0.740511225704587	0.651877564361801	0.740253930981062	0.651959521981497	0.00398692472045966	0.00771630293163657
7.7	-0.0071383745804913	-0.00485719888690601	0.832448495585964	0.52912677461621	0.832262917988687	0.529343365110691	0.00531163302622698	0.00642075015984291
7.8	-0.00685266426000717	-0.00364054094959526	0.904579249062578	0.39359911427227	0.904475947801255	0.393824102440489	0.00634496261142966	0.00450285273656213
7.9	-0.00620951997633397	-0.00254752676499603	0.954974260800438	0.24852190300224	0.954835973035406	0.248701220273061	0.00659826290779323	0.00200941946418131
8	-0.00545601697431135	-0.00227221246259842	0.98162951702768	0.0967715352485621	0.981606126905446	0.0970340510847983	0.00473275638863541	-0.000774375033394433
8.1	-0.00514415504100931	-0.00124846324966436	0.984523885849065	-0.0563303157231301	0.984552301000423	-0.056074907821125	0.00194596005695331	-0.000711122069366019
8.2	-0.00424894715366598	-0.000393378195701582	0.963987896811937	-0.208327175154346	0.9640355221379	-0.208010174307119	0.00031528370474022	3.31318896451422E-06
8.3	-0.00336490108329753	0.000379303073864095	0.920071804687545	-0.355487695224536	0.920122518329979	-0.355200515650678	-0.000802246967158004	0.00106163153962036
8.4	-0.00200631930407881	0.00107844630244195	0.85356851642695	-0.494163661946448	0.853665889895633	-0.493961532432079	-0.00108911116408149	0.00216599932000567
8.5	-0.000461001479094374	0.000918455536275581	0.766361285423043	-0.620013749108036	0.766412289393699	-0.61986298847999	-0.00135649796334182	0.00214882707030157
8.6	0.000639429910294048	0.000717183996604423	0.661222752448494	-0.731526975042274	0.661390603413367	-0.731289402776203	-0.00238435851112761	0.00364315445629962
8.7	0.00183913945798271	0.000353121090220444	0.539537546406123	-0.825421149094764	0.539796271457693	-0.825204988741995	-0.00172184198697662	0.00555041727786568
8.8	0.0030863682512477	-0.000283357553104784	0.404870215394737	-0.899073763630568	0.405055224213136	-0.898934192988683	-0.000213915830203025	0.00678514149742544
8.9	0.00430299508470302	-0.00108539906791084	0.260539521316204	-0.950780067841985	0.260718209755574	-0.950609520173096	0.00223588081308198	0.00738567892497921
9	0.00582158885919375	-0.0025981649597506	0.110329049193639	-0.979881544338734	0.110637388686609	-0.979833998353983	0.00490257493110972	0.00653652127323351
9.1	0.00701066359495102	-0.00434266808326571	-0.0434583731906645	-0.985508389813885	-0.0431489877431098	-0.985466548749583	0.00732711190506643	0.00513948112299974
9.2	0.00796830923931577	-0.00654207913140616	-0.196133672387431	-0.966602639336959	-0.195785768535624	-0.966579488447119	0.00943934208051816	0.00260815560578147
9.3	0.0081543960307746	-0.00853414324234111	-0.343680398359768	-0.924362462138551	-0.343328157722548	-0.924336033025217	0.0104277015959505	-0.000294536541230858
9.4	0.00830449030370254	-0.0102904254454323	-0.482734450960314	-0.860118983079917	-0.482410589307211	-0.860209079770634	0.0105793363062292	-0.00331876677114134
9.5	0.0074667491297825	-0.0118549153407868	-0.611009078229885	-0.774938390149506	-0.610771523436884	-0.774988225395153	0.0086299711347561	-0.0057562761217783
9.6	0.00704502724664241	-0.012651137478973	-0.723882877640488	-0.670033414740096	-0.723570449849041	-0.670171781074604	0.00777392953597522	-0.00628609536145158
9.7	0.00634547621557706	-0.0134116386928175	-0.818861714417261	-0.549547089229006	-0.81857322662011	-0.549779892501372	0.00673418577171482	-0.00812921017694127
9.8	0.00551323503740392	-0.013834022919342	-0.89426600587849	-0.415901503032028	-0.894011867859608	-0.416070295061402	0.00468602507861993	-0.00979152436959657
9.9	0.00496235291472757	-0.0137204758366144	-0.948321612309654	-0.271919410310152	-0.9480683033399	-0.272128279056742	0.00224761375167311	-0.011234645163258
10	0.00413408916838063	-0.014332946400876	-0.978610981247152	-0.120686548655675	-0.978456652922898	-0.12104948839301	-0.00223611872223643	-0.0124218254719379
10.1	0.00309920546365982	-0.0137850202405746	-0.98498793559134	0.0322306402348568	-0.98492375693112	0.0317984553609366	-0.00648743859577852	-0.00999005726326059
10.2	0.00260742167685496	-0.0135650712496963	-0.968255715532506	0.184690451290139	-0.968133069669043	0.18425855881728	-0.00883979926014251	-0.00737379502231505
10.3	0.00193806156925607	-0.0132300102348648	-0.927797291474448	0.332980922502226	-0.927814231572826	0.332438281348032	-0.0106119405211456	-0.00491375919255863
10.4	0.00150066439591653	-0.013126950987016	-0.864377817084588	0.473049768645899	-0.864514569753527	0.472537456508197	-0.0116907046571671	-0.00279424119285233
10.5	0.00092944062076258	-0.0133100475725066	-0.780162992013131	0.600651255784444	-0.780335970931879	0.600218659001248	-0.0129672792377253	-0.00142421717552782
10.6	-5.92116843162879E-05	-0.0132372228322909	-0.678008102667785	0.714429866857484	-0.678280791494424	0.714099251908199	-0.0145911969048937	0.00137175793326693
10.7	-0.00045416649816722	-0.0126492060889947	-0.558772695059081	0.811162463513237	-0.559073735600068	0.810852581424874	-0.0144277399344724	0.00539106192724341
10.8	-0.000432836729936339	-0.0125052821633986	-0.425859204462194	0.887863807924517	-0.426210518962014	0.887565279707009	-0.012672649176508	0.00893295163236945
10.9	-0.000501124327157615	-0.0126213654030076	-0.283009879739088	0.942713792257798	-0.283400487495658	0.942590834916884	-0.0101689343031078	0.0114562001001094
11	-0.00077371038367584	-0.0132849758274588	-0.133923289794812	0.975561133666	-0.134360850051258	0.975470263209047	-0.00732839079153214	0.0131375361857785
11.1	-0.00122064778275778	-0.0137144017713403	0.019730763957285	0.984657021109404	0.0192412666233066	0.984670695022749	-0.00380270598411217	0.0142786006816728
11.2	-0.0018587710325045	-0.0143980257379555	0.172390495191191	0.969341378900494	0.171932856479864	0.969414827339813	2.46985929452069E-05	0.0142081680191157
11.3	-0.00266997236174285	-0.0148206114403225	0.320495156188515	0.930727083227786	0.320035699376636	0.930864126334026	0.00389572304945842	0.0131923552426138
11.4	-0.00359261591528856	-0.0153677879868538	0.4608722787239	0.870041493178795	0.460467986156711	0.870154965951372	0.00726262859600254	0.0110965206575554
11.5	-0.00531318136320583	-0.0156262413841775	0.591097046877307	0.787918565382496	0.590778236016995	0.788221736406165	0.00864657871230607	0.00871585475097719
11.6	-0.00678315418704932	-0.0151634691378147	0.705875675242833	0.685857537973672	0.705660662380756	0.686185938134679	0.0106234283948646	0.00743228665219701
11.7	-0.00823281570809375	-0.0143706362975871	0.803430074448923	0.568018660358911	0.803227169541338	0.568325699205818	0.0125823534493378	0.00483962861611137
11.8	-0.00970026702827015	-0.0131751946901411	0.881914629598687	0.436392418229015	0.881733351384644	0.436843828431137	0.0135891913988253	0.00163826899476113
11.9	-0.0104741331618178	-0.011321472269584	0.939291452164212	0.29402444309266	0.939186363394226	0.294475023531919	0.0136106244813993	-0.00208375185851056
12	-0.0113950817113082	-0.010288015917456	0.972858679853503	0.143912417943275	0.97283089964797	0.144277058785645	0.0111785562882699	-0.00626817696679907
12.1	-0.0117540895862811	-0.00811087065982379	0.982756855328234	-0.00829902363243643	0.98268680391994	-0.007914258485799	0.00837074847438447	-0.00728214296616455
12.2	-0.0117804707808445	-0.00693064515030661	0.969515850394717	-0.16062501492657	0.969534017876176	-0.160327065887735	0.00621109897250331	-0.00843658126429551
12.3	-0.0120889944341887	-0.00565800239124544	0.932490434604638	-0.309158101644285	0.932610668279734	-0.308851803111355	0.00372618985915103	-0.00927515185655586
12.4	-0.0123286825538663	-0.00418418360441292	0.872803928165576	-0.450129956927363	0.872868026258807	-0.44976072478022	0.00147633204939265	-0.00955187087082613
12.5	-0.0121530416209005	-0.00307848964917793	0.791983503192719	-0.578981060956783	0.792324214608188	-0.57859184083625	-0.00140681204613484	-0.0103611560025736
