# GHZ S RI R 50
0.2	-0.000199381228071115	-0.000110088935694737	0.949267366753091	-0.30796230674841	0.949045066113648	-0.307936878469477	-0.000152793079740168	-5.9893852579426E-05
0.3	-0.00030438936347698	-1.49094954359447E-05	0.889314349037477	-0.451645190925118	0.889158120199612	-0.451549805588464	-0.000315857614514035	-0.000208268258240734
0.4	-0.000169073922987611	7.1174728928676E-05	0.807874777347058	-0.583944107119581	0.807886573391608	-0.583969227965795	-0.000325814092035276	-0.000219367970947423
0.5	-0.000214003017106978	0.000124035255038865	0.707175443634786	-0.702343800624228	0.707020377752045	-0.70224231331407	-0.000348387735155128	-0.000175023774859802
0.6	-0.000171927646112216	0.000231795752156614	0.589155589557917	-0.80342190619242	0.58903630728256	-0.803260167972186	-0.000339588410108489	-0.000207999266204445
0.7	-0.000117275226623783	0.000461123905355645	0.457052675235893	-0.884785345531232	0.457033900575132	-0.884672829956787	-0.000317774553070093	-0.000286337779658836
0.8	0.000140240843333097	0.000517908185715318	0.314010054851357	-0.944812608991915	0.313978678854385	-0.944622839510826	-0.00039763920587641	-0.000280471493371272
0.9	0.000349873952472547	0.00060892956245767	0.16342823748985	-0.981829839329612	0.163363184024806	-0.981737909709655	-0.000586926252746831	-0.000355294774993152
1	0.000575324550678259	0.000399517379814157	0.00891983892697848	-0.994955956296558	0.00886818350768873	-0.994924482318424	-0.000822227596146924	-0.000286002257203809
1.1	0.000669980300765768	0.000126292272148553	-0.14553047260883	-0.98415437402346	-0.145546223319489	-0.984023916936706	-0.00101916843695034	-5.00522820188541E-05
1.2	0.000773988438391693	-0.000797871853724027	-0.296674182724439	-0.949386973817355	-0.296597798915623	-0.949360878432813	-0.000740172623454021	0.000480265032388957
1.3	0.000705220460476906	-0.00224104976557174	-0.440416199389877	-0.891579767733443	-0.440393163596585	-0.891573154274835	0.000591519932521548	0.00122159540053608
1.4	0.00053031517919219	-0.00395016154938153	-0.573195273258255	-0.81224018093902	-0.573171093838201	-0.812218547795298	0.00252307916872036	0.000874720266541741
1.5	0.000195353756294306	-0.00478947177696652	-0.692333676004105	-0.713229495475207	-0.692231903696877	-0.713144538690847	0.00426830090980122	-0.000382597452081962
1.6	-0.000229977410449526	-0.00508167368874117	-0.794523948149588	-0.596928826474368	-0.794449867039407	-0.596868803360521	0.00419901916514323	-0.00210775875626215
1.7	-0.000626871686136709	-0.00490606343189181	-0.877044323780929	-0.466729825838004	-0.87720851066209	-0.466213613484032	0.00356368402528459	-0.00318132996370278
1.8	-0.00114561748510475	-0.00474063921323099	-0.938908581200731	-0.324426470235825	-0.938797316474157	-0.324425136985056	0.00253659202500396	-0.00400113367349854
1.9	-0.00170180085554382	-0.00446139822350318	-0.977617387727036	-0.175139023662876	-0.977710130348751	-0.174651403887486	0.00142161536172258	-0.0043104385095142
2	-0.00239247966278228	-0.00412714429188063	-0.99269734733969	-0.0207013439260222	-0.992709264149828	-0.0206554837794919	0.000700732676468516	-0.00434308771982994
2.1	-0.00303172290309352	-0.0035895698897829	-0.983715518100237	0.133676669022175	-0.983753606092917	0.133713782512029	-8.50046397553056E-05	-0.00454428439675529
2.2	-0.00376025407657713	-0.00302575111635411	-0.950964959895477	0.28464315456938	-0.950889835169271	0.284705916943403	-0.000876266331744831	-0.00446363211947336
2.3	-0.00438413426349807	-0.00229611126798734	-0.895318604061657	0.428148062820948	-0.894936129214036	0.428661072816621	-0.00170906536399022	-0.00438256868475117
2.4	-0.00506204525807835	-0.00157151858630147	-0.817088012894418	0.562910329430412	-0.817354981670213	0.562324663319531	-0.00266874423553262	-0.00408996747860399
2.5	-0.00562469970270482	-0.000536631554886841	-0.71999664424304	0.682788701118353	-0.720210634863359	0.682279003868234	-0.003089942008816	-0.00369242953028851
2.6	-0.00594459683922524	0.000690595513136312	-0.605525766039141	0.785802018464922	-0.605419796361068	0.78561922932328	-0.0030794481569063	-0.00343661328515329
2.7	-0.00567661909034703	0.0019721736172631	-0.475633343738083	0.870327890653662	-0.476082687863814	0.869921390779681	-0.00314403247955126	-0.00335508957536882
2.8	-0.00482854555936424	0.00295139226511938	-0.336015123784741	0.932997780248271	-0.335347412714422	0.933155991243257	-0.00334225050771036	-0.0032297370508854
2.9	-0.0033847796573767	0.0035178598715881	-0.186538870137651	0.973806496617535	-0.186570193241801	0.973719174644487	-0.00305060968302976	-0.00264470803029351
3	-0.00185847489287531	0.00357283266823523	-0.0322899617743297	0.990869729448069	-0.0329910337386737	0.990711959135972	-0.00243041832316571	-0.00214028576107272
3.1	-0.000260608904321261	0.00331166234894108	0.120364125717157	0.983726452485139	0.120954585357216	0.983707995003006	-0.00161601382934346	-0.00191203303368309
3.2	0.00100736164801964	0.00251050574037086	0.2721022592119	0.952911249974035	0.272047407207156	0.952851021097412	-0.00110140331514136	-0.00184496063630276
3.3	0.00216540350964065	0.00146091292628056	0.416845685734738	0.898967206805891	0.416708544221323	0.898953178060865	-0.000358931992276887	-0.00186225906415997
3.4	0.00277992249466245	0.000115304670224296	0.551264743881992	0.823260591850829	0.551102724651899	0.823378692937273	0.000511924769489365	-0.002343408343574
3.5	0.00315268192619003	-0.00120937243484375	0.672149005173138	0.727736475035503	0.67206950384914	0.727775327607091	0.00125780902706429	-0.00305084971550377
3.6	0.00295748587509528	-0.00249901594459444	0.776457566375014	0.615080263552298	0.776697761818435	0.614631438605708	0.00142611721540047	-0.00408594749789689
3.7	0.00260639211855809	-0.00374052679376201	0.86276723274708	0.486451144221268	0.862649222240122	0.486594375419368	0.00126710710250188	-0.00483251544397654
3.8	0.00178293215008984	-0.00487291067687466	0.92749790221537	0.347132716183356	0.927554027196003	0.34675362489911	0.000899007562442839	-0.00554253217633537
3.9	0.000871173066041208	-0.00585660738523757	0.970167417961548	0.197809554649055	0.969930284075269	0.198477023470597	-1.65885423474994E-05	-0.00631861792047838
4	-0.000599648399587356	-0.00651785071619698	0.989057539242563	0.0457059066439236	0.989018782349017	0.0458087778206609	-0.000561764901554317	-0.00669075888256828
4.1	-0.00213776352584597	-0.00692354155805077	0.984220048462479	-0.108392398345617	0.984035880640129	-0.108264999427083	-0.00125436512336791	-0.00751226184901198
4.2	-0.00402739084331843	-0.00692825042892288	0.955011045392457	-0.260470996596868	0.955047249784444	-0.259817752886883	-0.00237324991800777	-0.00814899824756231
4.3	-0.00585550992630526	-0.00674794863121609	0.903223015579506	-0.404847478484724	0.903087464440598	-0.404736203163813	-0.00372419340808572	-0.00877176837141209
4.4	-0.00793344740465055	-0.00611956871251145	0.829405620404527	-0.53999663931558	0.829240794418975	-0.539863138496933	-0.0054447702788153	-0.009064215331125
4.5	-0.00993503118886469	-0.00508150504662867	0.73556329394362	-0.662241442893614	0.735374933728364	-0.662068107725239	-0.00706407131940455	-0.00884447021740328
4.6	-0.0119205822446689	-0.00338027325083819	0.62323133086863	-0.76868503033059	0.623574061366268	-0.767988314311814	-0.00853125593230273	-0.00874290170644687
4.7	-0.0133888957383324	-0.00133794975692848	0.496767206713694	-0.855708793939627	0.496784188457425	-0.85535331702023	-0.0102792113345827	-0.00860725717708256
4.8	-0.0143786559181469	0.00125891093858445	0.357694019731321	-0.922195771655327	0.35791580692791	-0.921879962119832	-0.0119537921316151	-0.0080877980707308
4.9	-0.0143819659136306	0.00384299453519037	0.210678628082493	-0.96594500523856	0.210458821612849	-0.965952482776355	-0.0132660115007371	-0.00715928527071898
5	-0.0136359152677111	0.00636948388881645	0.0579959273871675	-0.986716695930492	0.0581732846925773	-0.986471869133909	-0.0139008179333993	-0.00572796133913982
5.1	-0.0119591890178472	0.00851204073143803	-0.095473965061265	-0.983756773446957	-0.0951424117985848	-0.983532125496649	-0.0142088835219005	-0.00437964631980731
5.2	-0.00981101284565337	0.0103177729061412	-0.247030227628948	-0.957039133041561	-0.246538812395426	-0.957012868763317	-0.0144524426165837	-0.00271494483317448
5.3	-0.00737863059071601	0.0113964761375597	-0.392480179802285	-0.907122409420978	-0.392140065024238	-0.907338735782932	-0.0141680709948792	-0.0009502967111039
5.4	-0.00493809074313288	0.0122433169292445	-0.528523208812469	-0.835227096661	-0.52831085619008	-0.835427843141722	-0.0135415521531914	0.000794195716584808
5.5	-0.00249671829688688	0.0126741686843985	-0.651612272334651	-0.743021696377197	-0.651373733795454	-0.743216389334936	-0.0123975225646257	0.00196263403883693
5.6	1.45206644924498E-05	0.0130201629375345	-0.758883403076486	-0.632936553294731	-0.758693990732449	-0.633108345148891	-0.011933160968178	0.00250057488839207
5.7	0.00255844078428157	0.0127074286336386	-0.847945504113016	-0.507470286675294	-0.847816418041767	-0.507689945972859	-0.0117696291543312	0.00365446302767471
5.8	0.00493848343130604	0.0119884719301482	-0.916264009367524	-0.36960355023578	-0.91619633973237	-0.369888233493891	-0.0114073779388484	0.0051065562510091
5.9	0.00695857296448067	0.0106010789544123	-0.962424221190404	-0.223080874687892	-0.962438696437042	-0.223164404084685	-0.0108526104289006	0.00677215879961731
6	0.00852303971534429	0.00908844521601101	-0.985504419322631	-0.0711963277308912	-0.98538529958007	-0.0712543115560645	-0.00947114511477654	0.00858592629832122
6.1	0.00970048160296982	0.00729470738511743	-0.98452441344137	0.0827245139664885	-0.984397943100558	0.0825761892706924	-0.00771263130999251	0.00915515772706144
6.2	0.0104417298104223	0.00535018169815311	-0.959545618965765	0.234552499315137	-0.959531976894682	0.234349942622521	-0.00647357416002732	0.00921055355135529
6.3	0.0106038196754231	0.00299216816970578	-0.911446311375469	0.380533216788179	-0.911441827791886	0.380348143372077	-0.00549181879155689	0.00885913274477178
6.4	0.0101808961895217	0.000556593015317541	-0.841346856130348	0.51729621994942	-0.841315249601695	0.517085864125815	-0.00498596069010632	0.0083348986276793
6.5	0.0091345621289824	-0.00186604546491424	-0.750776567633739	0.641641156343365	-0.750800724683494	0.641437366182145	-0.00458561945258271	0.00788030560744666
6.6	0.00784457668020401	-0.00386604878091757	-0.641951432918629	0.750265490999533	-0.642025266873493	0.750013766913189	-0.00426650992035287	0.00762599966646025
6.7	0.00615203261359547	-0.00561592930275091	-0.517704573902732	0.840628348729626	-0.517807274418768	0.840407567974229	-0.00394755388761154	0.00760132849788205
6.8	0.00433033234880954	-0.00683406506246137	-0.381008001035333	0.91073267051972	-0.381149437098693	0.910562238345408	-0.00348901179306721	0.00775323668227065
6.9	0.00227592625337209	-0.00764350250368397	-0.235029557771332	0.958756292843702	-0.235255839497309	0.958646093783984	-0.00270339690746545	0.00788575052670685
7	0.000430504116890404	-0.0078524189487086	-0.0833573253856264	0.983388390095253	-0.0835668027455454	0.983298783142	-0.00174514571780232	0.00761576312275713
7.1	-0.00136127078917909	-0.00772039692963357	0.0701013515608765	0.984329373689772	0.0698997177048401	0.98419637863361	-0.00104829768855587	0.00734552776631035
7.2	-0.002869492672636	-0.007264074157092	0.221967579951248	0.961483670699894	0.22168595964332	0.961449163596783	-9.93412262441534E-05	0.00724395164743696
7.3	-0.00434700860745062	-0.00665964794046672	0.368401071990781	0.915331745811504	0.368165417463112	0.91535792189564	0.000896522920674443	0.00689797746709677
7.4	-0.00548098204480094	-0.00576335683517328	0.505912445646805	0.846943485222277	0.505699407290735	0.846994514829161	0.00171985350803249	0.00630786434013246
7.5	-0.00637136974977014	-0.00484816712242391	0.630938796583559	0.758146468481039	0.630769538801674	0.758215958391353	0.00270411039596119	0.00560012659976278
7.6	-0.00678237890099842	-0.00382761778921931	0.74097951350817	0.651146368272235	0.74072232441748	0.651228538788933	0.00348646494305747	0.0042521840909859
7.7	-0.00698656149735466	-0.00272116537395673	0.832959994663454	0.528225106433094	0.832774654191788	0.528441880294913	0.00360773049641061	0.00303242591265236
7.8	-0.00670382968911155	-0.00164806489486806	0.904837511710032	0.392467586969859	0.904734493057931	0.392692645619268	0.00360438737448643	0.0019823357205483
7.9	-0.00640766949682996	-0.000730391623104438	0.954690811183572	0.247431339839064	0.954552779164717	0.247610695247955	0.00341035084195011	0.00139833991899725
8	-0.00583181612669402	0.000263616604637843	0.981474912037126	0.0963656895960729	0.981451629957366	0.0966281631014481	0.00339670358860608	0.00108950834896328
8.1	-0.00526001320398442	0.00126049294500195	0.984604697231311	-0.0572566312954683	0.984633354556442	-0.0570012153100162	0.00334092482828438	9.21875554488095E-05
8.2	-0.00424204339321045	0.00217485571976027	0.963598848855245	-0.20937871498496	0.963646823319681	-0.20906181857192	0.00247933688822149	-0.00068207301954075
8.3	-0.00315121577352345	0.00287054131845323	0.919344576849906	-0.356271799342574	0.919395559404013	-0.35598478607624	0.00139445866246342	-0.00098613845893051
8.4	-0.0018352431177866	0.0031885823504899	0.852975345646355	-0.49455302756939	0.853072817657617	-0.494351025889998	0.000179077265676015	-0.000856823054936427
8.5	-0.000779729494660007	0.00328433522054652	0.765906214034035	-0.620984132353423	0.765957390427515	-0.620833386329986	-0.000521733274950475	8.42327685307765E-05
8.6	0.000421840806883363	0.0032996502559057	0.659948325065505	-0.732200398047291	0.66011645217878	-0.731963149109275	-0.000395884183881264	0.000577313974789496
8.7	0.00167695191600917	0.00329680761573605	0.538264361711753	-0.825566557776238	0.538523186977378	-0.825350823923993	-0.000421974469419823	0.00103082008803606
8.8	0.00337879028350077	0.0029751556768878	0.403762701240407	-0.899011790456496	0.403947753470695	-0.898872476884268	-0.000345978542356607	0.00148989619537898
8.9	0.00515740423392418	0.0020585086628014	0.259367346772231	-0.950856050969862	0.259546191395008	-0.950685752765555	0.00019886573600564	0.00218759957401911
9	0.00695097153659919	0.00033636240207515	0.108459323352316	-0.979276607668106	0.108767495785068	-0.979229660580374	0.00154404657164337	0.00286762000923364
9.1	0.00828379551381568	-0.00173136026732288	-0.0445473530091301	-0.984178583685912	-0.0442383205531029	-0.984137156524278	0.00355740955213915	0.00282456184194136
9.2	0.00923341383807196	-0.00408229300686298	-0.196817080269155	-0.965338094109436	-0.196469544014936	-0.965315294077638	0.00587280267649444	0.00211745882384654
9.3	0.00948564551066603	-0.006329713200783	-0.344274505880688	-0.92305566772256	-0.343922601688928	-0.923029627439422	0.00828568029559924	0.000559031408471543
9.4	0.00920679656902648	-0.00850766299405191	-0.483268801372532	-0.858329804056579	-0.482945488742161	-0.858420222611141	0.0101789376387975	-0.00194801130700299
9.5	0.00818098252025942	-0.00989540941579053	-0.610276221947558	-0.772839491727416	-0.610039209689751	-0.77288939504151	0.0111246245493483	-0.0053673276847225
9.6	0.00727074884333363	-0.0107810222130237	-0.722881326373456	-0.668825302110684	-0.722569420163439	-0.668963515518166	0.00998607459852927	-0.0090527883444217
9.7	0.00643235529831692	-0.0111626586287326	-0.81785802599317	-0.54846630234988	-0.817570037876235	-0.54869886564257	0.00737024839197639	-0.0117513531781858
9.8	0.00572071672532414	-0.0115599476567123	-0.892954683219168	-0.414883327321397	-0.8927010254727	-0.415051937861191	0.00400579637574566	-0.0133405722793728
9.9	0.00484602703508071	-0.0116866145053485	-0.946390232537789	-0.271346734675874	-0.946137444566721	-0.271555181741229	0.000341074103266512	-0.0135430638312806
10	0.00389470793083796	-0.0116734264537107	-0.977092564962456	-0.121321376219365	-0.976938160076646	-0.121683662239102	-0.00254087362998013	-0.0126427213271743
10.1	0.00300349359626741	-0.0112282769803184	-0.983952143976314	0.0319411476688922	-0.983887921306575	0.0315094375270642	-0.00552284607540021	-0.0119275595996164
10.2	0.0025734590695985	-0.0108429148549263	-0.967006214765284	0.184218170939958	-0.966883631943796	0.183786883551012	-0.00873171311020459	-0.0101003084452891
10.3	0.0021647108052413	-0.0105523872407798	-0.926641508827505	0.331989670246007	-0.92665812582874	0.331447802893218	-0.0115024175045402	-0.00745382207737295
10.4	0.00175964987096785	-0.0107613547350664	-0.863948152967072	0.471597283195194	-0.864084201394069	0.471085381329901	-0.0134911746688405	-0.00417398196909553
10.5	0.0010515752061785	-0.0108341960849778	-0.780303039240008	0.600139486446307	-0.7804757672142	0.599706891852576	-0.0138735820693206	-0.00045905060009722
10.6	0.000304869770234067	-0.010894414667049	-0.677489738654554	0.713763255327088	-0.677762167076334	0.713432899652862	-0.0130237395546295	0.00252883686580005
10.7	-0.000236729862890941	-0.0107023393691865	-0.558523053576634	0.81013523317869	-0.558823673602477	0.809825546641989	-0.0114382234710662	0.00505770348008418
10.8	-0.000697568628928323	-0.0107768458970646	-0.426025337774757	0.886887845474876	-0.426376190512826	0.886589358271379	-0.00949560897676499	0.00698961609249021
10.9	-0.00135642013666861	-0.0106614026637576	-0.283236573843192	0.942254562629764	-0.283626989249861	0.942131513525049	-0.00740953615857878	0.0085415740254444
11	-0.00185786731595681	-0.0107271979211245	-0.133385169677656	0.974568358523112	-0.133822297055357	0.974477762463822	-0.00472483897491693	0.00951104355088853
11.1	-0.00232215696474816	-0.0106031809050673	0.0192893932017849	0.983197382964658	0.018800619874842	0.983210831658305	-0.00202454544398942	0.0097810084238094
11.2	-0.00269024696284665	-0.010797590429887	0.171540500465322	0.968313876085284	0.171083352132228	0.968386932573302	0.000871165590839338	0.00948632660842362
11.3	-0.00317224412941925	-0.0110116874555255	0.319656478688791	0.929965742115168	0.319197409430183	0.93010239256107	0.00384557319461559	0.00863582140569086
11.4	-0.00400248751589248	-0.0113669970093491	0.460103287996569	0.868989734837161	0.459699503305482	0.869102982135521	0.00658672663622627	0.0074211589967542
11.5	-0.00505838618463633	-0.0112121647025858	0.589019142316325	0.786904991415397	0.588700673095656	0.787207187973117	0.00936762668115732	0.00535565766605983
11.6	-0.00616293674678183	-0.0110234731016612	0.703925131845449	0.686144064720255	0.703709858862831	0.68647172288344	0.010722896441754	0.00233519353705939
11.7	-0.00714737188578175	-0.0104225610933275	0.80186939080828	0.568553305889031	0.801666267670066	0.568859767575606	0.0110962718348617	-0.00029795602799467
11.8	-0.00824783598378595	-0.00994536753496802	0.880357362817175	0.437030998642572	0.880175710148508	0.437481665793139	0.0107100229754938	-0.0026898320721682
11.9	-0.00938692522511856	-0.00909106415938801	0.937295104088232	0.295190842598405	0.93718939891286	0.295640527849822	0.00966905888211349	-0.00414823777687615
12	-0.0110291656916375	-0.0080276273849371	0.971854345819487	0.14648935068349	0.971825583320101	0.146853686821636	0.00949087901957512	-0.00531892378544696
12.1	-0.0121603825422889	-0.00622218049794939	0.982755593269831	-0.00627110873810473	0.982684749252081	-0.00588649530031007	0.00885466008177181	-0.00751625974897579
12.2	-0.0129406648534245	-0.0044201708030725	0.969739051783402	-0.158690761109545	0.969756627878399	-0.158392805190781	0.00720049871758082	-0.0093112111082259
12.3	-0.0132694806251056	-0.00247316793753839	0.933175365462233	-0.307109568265562	0.933294926350227	-0.306803003665893	0.0052260882998125	-0.0106941071747238
12.4	-0.0134501194343521	-0.000829010994027717	0.874526964065551	-0.448128737646501	0.874590136560821	-0.447759106966538	0.00282692394287145	-0.0115239807098356
12.5	-0.0132803093476639	0.000855216107087533	0.794259592971395	-0.578704638190478	0.794600264397842	-0.578314209786429	0.000710758398253807	-0.0115651476311514
12.6	-0.0129755109015595	0.00255532877423908	0.694586589916414	-0.694659439571549	0.694838230988863	-0.694416937943995	-0.00139854756351802	-0.0117846263369157
