# GHZ S RI R 50
0.2	-0.000329464622156162	-3.34088529973487E-05	0.948429323054981	-0.308159705846337	0.948207197786067	-0.308134196896025	-0.000351238794239096	9.31139205118639E-05
0.3	-0.000333959364688348	3.19087996666647E-05	0.888246822451841	-0.451723605376677	0.888090790050147	-0.451628221004487	-0.000431796070595016	4.94762482392684E-06
0.4	-6.57212733261623E-05	4.18000919126012E-06	0.806558071954859	-0.583745625106004	0.806569838611728	-0.58377072335594	-0.000281723792693486	-3.2700820738649E-05
0.5	-0.000233473930057185	-0.000293163548316031	0.705897842001435	-0.7015801079431	0.705743037377739	-0.701478711971317	-0.000408977255881229	-0.000325093255006481
0.6	-0.000460209132451293	2.70425831444922E-05	0.588136616787466	-0.802532573964808	0.588017540542085	-0.802371014581055	-0.000746397725752838	-6.15257912010528E-05
0.7	-0.000291135496525598	0.000361806475849563	0.45607076933617	-0.883658722296684	0.456052062186921	-0.88354636403707	-0.000599553964412754	0.000139129938512992
0.8	6.29957923126254E-05	0.000435825160359148	0.313224358801862	-0.943343681507372	0.313193088351303	-0.943154216061321	-0.000466606950793956	0.00033471728640777
0.9	0.000537892124987105	0.000531658886087234	0.163087025428773	-0.980071991100239	0.163022093382359	-0.979980223680659	-0.000111903803331338	0.000379507590916364
1	0.000975220458863745	-0.000404093908592107	0.00906360238917754	-0.993418588665328	0.00901202172661048	-0.993387171462509	0.000270028926443415	-0.000546495482846705
1.1	0.000392795305698001	-0.000660048759083061	-0.145396035609432	-0.982531805129383	-0.145411746915546	-0.982401559457977	-0.000692240714458938	-0.000798890774437295
1.2	0.000713517776668639	-0.00146816660935646	-0.296099009863945	-0.947619190121665	-0.296022769380463	-0.947593141843229	-0.000535965873029748	-0.000439218131811487
1.3	0.000785558986940146	-0.00319392168754753	-0.439354120407868	-0.889956582922097	-0.439331130781597	-0.889949976868946	0.000424113543801789	-2.87108479129755E-05
1.4	0.00054653902529343	-0.00516269337296044	-0.571828817799152	-0.810999077203108	-0.571804690940553	-0.810977473525032	0.00185067726583263	-0.000298669813976278
1.5	-0.000434330909763916	-0.0057233235854316	-0.691044686244487	-0.71203594693955	-0.690943101565079	-0.711951130510404	0.00255930640265922	-0.000725368165632135
1.6	-0.000186204257443692	-0.00533004358487684	-0.792557113169233	-0.595779625558871	-0.792483216629155	-0.595719719533208	0.00335388866596259	-0.000837057243679398
1.7	-0.000309381034816366	-0.00549932356363431	-0.874725125351313	-0.466207932183373	-0.874889260116192	-0.465693014904498	0.0036823749521818	-0.00186638339641439
1.8	-0.00085216469949835	-0.00555057773075271	-0.936559288519936	-0.32448245871727	-0.936448271578656	-0.32448103653861	0.00324870798006628	-0.00297702437219197
1.9	-0.0014850168369597	-0.00566549071711877	-0.975365317951605	-0.175536393788246	-0.975458247146906	-0.1750499015567	0.00247182887793433	-0.00413641634232226
2	-0.00326267374123864	-0.00538627505582135	-0.990028534320761	-0.0215070737023436	-0.990040459078808	-0.021461346346552	0.000342589201551584	-0.00479755756943978
2.1	-0.00357433001462927	-0.00377411012651859	-0.981384500772218	0.131769466689462	-0.981422549217442	0.13180642377071	-0.00046238727509993	-0.00356953196407503
2.2	-0.00383282465953089	-0.00336345270364069	-0.949263910812912	0.282316529820994	-0.949189069999564	0.282379278755027	-0.000472610354051338	-0.00340402948739371
2.3	-0.00434975327501881	-0.00280374798922403	-0.894089281005333	0.42555103690892	-0.893708602333195	0.426063593009284	-0.000762061368374133	-0.00363715094252046
2.4	-0.00487415185891422	-0.00234646102458045	-0.816231219525844	0.559941827952547	-0.816496389330522	0.559357045424322	-0.00119025608675071	-0.00420595945441443
2.5	-0.00610347834284624	-0.00182703787445103	-0.720152082008421	0.679148005040759	-0.720364144740377	0.678638943917217	-0.00266246419363968	-0.00539289596454839
2.6	-0.00664919282040681	0.000301414048217241	-0.606787202185075	0.782735806324322	-0.6066808807618	0.78255362943684	-0.00403960737420068	-0.00437254758803577
2.7	-0.00586973243318491	0.00174239387897433	-0.477351026188688	0.867656427054343	-0.477798538642493	0.867249287051571	-0.00424953477364291	-0.00359106771579965
2.8	-0.00468049900971792	0.00250577394650639	-0.338271128715719	0.930616032257289	-0.337604879191101	0.930775980260665	-0.0042898095095403	-0.00304531550913587
2.9	-0.00317730951245621	0.00272640530034865	-0.189559950604612	0.971860929579921	-0.189590937776733	0.971773620543396	-0.0038576787107727	-0.00234324941362239
3	-0.00179199484150133	0.00272372991869976	-0.035829375684905	0.990267679032705	-0.0365295375850039	0.990107470679881	-0.00332292594475192	-0.00143483077739094
3.1	3.29848890812982E-05	0.00219770392921038	0.11733978279445	0.98371822224512	0.11793007461443	0.983701559682825	-0.00185480131812209	-0.000970369936297646
3.2	0.00102336177705627	0.00109645989111254	0.26897446480573	0.953351628085184	0.268919827033081	0.953291252506494	-0.00115369287479281	-0.00118069407972961
3.3	0.00189742064883382	-1.85342428740714E-05	0.413720829824542	0.900179481536134	0.413583765385522	0.90016499290158	-0.000392891355410231	-0.00142601898812668
3.4	0.00220088156042938	-0.00140002826586828	0.548581719921761	0.825443393645004	0.548419237704658	0.825560969820351	0.000210586107539783	-0.00225446824499367
3.5	0.00207332832051422	-0.00216080644520787	0.670588140867874	0.73007609617432	0.670508479377563	0.730114755205938	1.52322500767265E-05	-0.00240394255657268
3.6	0.00254858577527139	-0.00305570549343494	0.774836234193032	0.617405552973175	0.775077753608591	0.616957335747016	0.000934796980102632	-0.00249255404726745
3.7	0.00240289008940739	-0.0045476172777298	0.861604863612187	0.489365141537893	0.861486353595112	0.489508062823316	0.00144648419425039	-0.00338330809947875
3.8	0.00161483930261899	-0.00581825155411227	0.927148459585267	0.350294932541416	0.927205809398413	0.349915717020302	0.00151403261206388	-0.00447308719546479
3.9	0.000681507887459896	-0.0070846435238189	0.970628762578962	0.200675696349413	0.970389552240887	0.201343205386274	0.000762622258687422	-0.00615641631569369
4	-0.00160166454963941	-0.00768622277289464	0.989340816222874	0.0483010565306255	0.989301775577705	0.0484038685913966	-0.00131650531737472	-0.00717134345618886
4.1	-0.0027593313604568	-0.00722950847449521	0.985280088779495	-0.105169961988027	0.985095363541154	-0.105043090228626	-0.00241767041125948	-0.00665018299383846
4.2	-0.00422586938877246	-0.00728769995897824	0.957024159599053	-0.257637646513302	0.95705825432163	-0.256983493781277	-0.00315490459511505	-0.00681962694076343
4.3	-0.00580931018488313	-0.00713983986227781	0.905753677412626	-0.402608659504931	0.905617589387672	-0.402497649049186	-0.00406134696051001	-0.00721204513664982
4.4	-0.00749198812200854	-0.00675791145934105	0.832091589362144	-0.538161925942899	0.831926150138879	-0.538028756660399	-0.00501598214743684	-0.00786095115182506
4.5	-0.00987189788896953	-0.00636671987874998	0.739161768012569	-0.660314645298918	0.738972471765846	-0.660141798290559	-0.007237095990654	-0.00901868920131803
4.6	-0.0120470551699702	-0.00417651185955051	0.627629819339953	-0.768303580799351	0.627970832031114	-0.767603856624215	-0.009873565572507	-0.00830683912283928
4.7	-0.013286977413214	-0.00216120852892481	0.500928392977146	-0.856458941574199	0.500944264119081	-0.856102425709407	-0.0118475142193584	-0.00751664836370509
4.8	-0.014213988350045	0.000346086610531059	0.361573514164085	-0.923744867364176	0.361794963806376	-0.923427463392139	-0.0135102287294658	-0.00635811792631284
4.9	-0.0141817299207922	0.00278773184921226	0.214496434661305	-0.968237544363384	0.214275973841079	-0.968245765692268	-0.0145255671066561	-0.00496129343375002
5	-0.0135659696407282	0.00532791755253129	0.0613455903494627	-0.990739972687446	0.0615229338043825	-0.990493544733799	-0.0150322493542921	-0.00296367472509488
5.1	-0.0115482636991462	0.00733905408474811	-0.0938972985929265	-0.988202179508145	-0.0935647664621474	-0.987975890038992	-0.014152735964272	-0.00103608423568485
5.2	-0.00948528950832578	0.0087335909389916	-0.246345517874897	-0.961463364701666	-0.245852104895895	-0.961436111769707	-0.0132319962266243	8.84380691060138E-05
5.3	-0.00730638472781441	0.00958291964441913	-0.392654466398357	-0.911707293175174	-0.392312516360413	-0.911923984209962	-0.0123603429971822	0.000698437479428909
5.4	-0.00530846325535883	0.0102442013529555	-0.529919685083126	-0.840032711639869	-0.529706017353371	-0.840234135999488	-0.0123119340741901	0.000899863708772228
5.5	-0.00356331904609802	0.0116557483964895	-0.654800748678528	-0.74682034918546	-0.654560992222	-0.747015993015894	-0.0133906280398501	0.00273173448176375
5.6	0.000331080750666984	0.0123463354172476	-0.762063310977461	-0.635557292532595	-0.761873113044914	-0.635729805355974	-0.0117157257011464	0.0048295370227533
5.7	0.00319057855824862	0.0113136686628279	-0.851513583669698	-0.50963367672493	-0.851383947269558	-0.509854260360473	-0.0104758887397425	0.00550210167837792
5.8	0.00550525054311878	0.0101014668412799	-0.920393869274679	-0.370995403070253	-0.920325974982644	-0.371281357284737	-0.00954962102514614	0.00593144141860108
5.9	0.00725718638935426	0.00801172733679116	-0.966896641478097	-0.223154500564702	-0.966911260220266	-0.223238385897562	-0.00918683434095304	0.0055927147539512
6	0.00718468970072767	0.00656321671145545	-0.98889038241725	-0.0701904909986195	-0.988770937519132	-0.0702488190294131	-0.011318851987975	0.00625772959637844
6.1	0.00868369842329142	0.00609420833034038	-0.987948869236237	0.0835300918428164	-0.987822030985002	0.0833811787457615	-0.0110781502729892	0.00950886869542861
6.2	0.00980346712245927	0.00424246829903636	-0.963101623411454	0.236230533803444	-0.963088089290614	0.236027176293035	-0.00963676583041789	0.0112811133218776
6.3	0.0101646682203912	0.00194138417629081	-0.914542641429934	0.383138046624166	-0.91453836723295	0.382952244319957	-0.00777097529511575	0.0121596657724416
6.4	0.00989544904204074	-0.000723829201648505	-0.843455613201273	0.520373620204953	-0.843424220734486	0.520162489994253	-0.00597711806287711	0.0117692969745957
6.5	0.00864769449185091	-0.00326111881928785	-0.75285763598273	0.64434824702174	-0.7528820203912	0.644143784815621	-0.00497288620682734	0.0110008885090892
6.6	0.00733809289340613	-0.00532988187100683	-0.643798434252733	0.754325090059921	-0.6438729036989	0.754072365954185	-0.00388567501230283	0.0102749060819297
6.7	0.00543450692998633	-0.0070189269864447	-0.518219947332418	0.845182370143122	-0.518323515235261	0.844960864600124	-0.00349179878277853	0.00943589456733756
6.8	0.0036266018495551	-0.00796729259333945	-0.380401974144505	0.915116026002384	-0.380544344590675	0.914945258592105	-0.00338342327587217	0.00917012669848732
6.9	0.00176444340394984	-0.00861336444988661	-0.233889451741377	0.962757590923663	-0.234116792025873	0.962647460552621	-0.00311964622941844	0.00924771055436219
7	0.000323094831623681	-0.00858191771350946	-0.0814608430547351	0.98814072555461	-0.0816714995480515	0.988051189491207	-0.002395029904448	0.0097015108481294
7.1	-0.000936736627069134	-0.00884322290131546	0.0739329321034374	0.988228030174043	0.0737299702784101	0.988095198680092	-0.00111421357091324	0.00958225686846149
7.2	-0.00237484153935284	-0.00881393629594329	0.226421508632457	0.964124150316758	0.226138737131395	0.964090587263528	3.1762354619004E-06	0.00933416332325219
7.3	-0.00391411452045653	-0.00856224625832189	0.373177166897884	0.917051149641943	0.372940806024679	0.917078320235119	0.00105213252331889	0.00892421884119158
7.4	-0.00529502543560317	-0.00796545143323428	0.511235129605735	0.848013189490545	0.51102151149458	0.848065276101781	0.00178263682972735	0.00826640143362
7.5	-0.00664454669451639	-0.00685416178843357	0.637334091014797	0.757250542518217	0.637164636111931	0.757321214010627	0.00235880310091137	0.00817377104465842
7.6	-0.00667284681704391	-0.00569235346759216	0.746102468227451	0.64834557345161	0.745845214785804	0.648429340758357	0.00423916126375164	0.00766774685728641
7.7	-0.00679355124985516	-0.00488465224338421	0.837185268176564	0.524690537187099	0.837000766242159	0.524908665366553	0.00566763847780331	0.00608928720416729
7.8	-0.00658026584675151	-0.00401085563542258	0.908341176585584	0.388141887827855	0.908239225680414	0.388367847311186	0.00655803611154769	0.00385494858582423
7.9	-0.00642555377128384	-0.003338318279248	0.957288964929342	0.24199190892282	0.957151848019629	0.242172301725165	0.00625229711560254	0.00106611156444059
8	-0.00701801749427611	-0.00220274277057141	0.981616781323981	0.0904589669518369	0.981595077769266	0.0907214635340215	0.00312201087256913	-0.000821642920592406
8.1	-0.00569512661778193	-0.000126626736774652	0.983876961488955	-0.0620111233786843	0.983906845873575	-0.0617559631987248	0.00151342142870517	0.000296268105066218
8.2	-0.00413101385373068	0.000504674101142903	0.962307171728631	-0.214047394959373	0.962356687309265	-0.213730820909446	0.000557200895523105	0.000709173230785837
8.3	-0.00289182248147777	0.00097204064800836	0.917019652988537	-0.360829714195268	0.91707209031796	-0.360543115749296	-0.000227751745535069	0.00141167443980046
8.4	-0.00130499870425832	0.000925719808946291	0.849225237695403	-0.498344538098178	0.849323634364333	-0.498143321671006	-0.000333932371008858	0.00175677866091339
8.5	-0.00107439199061222	0.000364526686471811	0.762189725277424	-0.622989033031338	0.762241413303766	-0.622838737628629	-0.00191483764693543	0.00139438906009236
8.6	0.000187843098094112	0.00127170594170839	0.65624735151055	-0.734394798687578	0.656416349294364	-0.734158473284321	-0.00270607740653454	0.00395137529829761
8.7	0.00189679546671762	0.000859757719771077	0.533702803883884	-0.827050390223954	0.533962315138202	-0.82683614599012	-0.00156022134055541	0.00571780566473476
8.8	0.00337716589835771	-1.12930046392648E-05	0.398838468631145	-0.899228178631243	0.399023826629741	-0.899089982465223	0.000101198773091584	0.00665570314087945
8.9	0.00471396193589778	-0.00123162340399193	0.254966435900986	-0.94978101111356	0.255145566877043	-0.949611811324326	0.00255245891416872	0.00683488831165286
9	0.00578997473584166	-0.00303097799190451	0.104432947133094	-0.978450168251005	0.104740910380586	-0.978404504661564	0.00470819366276689	0.00578467650392227
9.1	0.00690026782779557	-0.00478063794237902	-0.0493105357143619	-0.981961361457431	-0.0490019261593761	-0.981921542402066	0.00703376782526783	0.00444954620582088
9.2	0.00748072357014776	-0.00697731678755909	-0.200710183314519	-0.96168663522306	-0.200363529628209	-0.961665502966629	0.008769081066511	0.00200582527395223
9.3	0.0075108120268222	-0.00867214163447773	-0.346976494025894	-0.918764834247353	-0.346625582034213	-0.918740315224252	0.00965267343419252	-0.000530344920012816
9.4	0.00736796445125761	-0.0104512277447342	-0.485196471462491	-0.854138334183235	-0.484874390150254	-0.854229730669544	0.00961010200196774	-0.00353192676105058
9.5	0.0064045423097144	-0.0105972239756377	-0.612240703930741	-0.7674886337931	-0.612004655630469	-0.767539555288565	0.00769217146599866	-0.00458323314113005
9.6	0.0074859799967782	-0.0115972786127807	-0.722600536653453	-0.662736674362327	-0.722290605887325	-0.662875633610371	0.00834682140807218	-0.00547455788591383
9.7	0.00697201706837376	-0.0130900356427474	-0.816126033317114	-0.543002540534902	-0.815840199866286	-0.543235090373761	0.00742190381425545	-0.00810644867310373
9.8	0.00609320470889425	-0.0140639463272076	-0.890333945866876	-0.410009118087197	-0.890081997486205	-0.410177824134317	0.00526511840283785	-0.0103145721352618
9.9	0.00498406471354296	-0.0147630507077296	-0.942960576738943	-0.266584160249282	-0.94270974148349	-0.26679256402838	0.00219108134484512	-0.0124794857650317
10	0.00264414563854602	-0.0143749059585546	-0.97137217174503	-0.11734509558668	-0.971219926547747	-0.117705620823295	-0.00369566799205126	-0.0125782569497971
10.1	0.00272500073499954	-0.0129826376972875	-0.978013937895884	0.0335547376997973	-0.97795089074618	0.0331254895239255	-0.00675018016678025	-0.00937814754344597
10.2	0.00266949708144769	-0.0131202972328199	-0.961237919600628	0.184807723249052	-0.961116755338152	0.184378663618537	-0.00868163808540407	-0.00717443530051589
10.3	0.00217332711265399	-0.0131036411659918	-0.920649156250134	0.331619100189987	-0.920666596462753	0.331080435423148	-0.0103140526659719	-0.00503940081499494
10.4	0.00173001734155626	-0.0136022228670721	-0.857474506456271	0.46961616438414	-0.857610346988015	0.469107899781807	-0.0114240251576146	-0.00348426195073371
10.5	0.000164885694775857	-0.0139026526401986	-0.775284695397806	0.595615566703116	-0.775456009954271	0.595185839782316	-0.0135889108435198	-0.00231093672175679
10.6	-0.00059009623216598	-0.0134842243931456	-0.674064314718186	0.709233690633265	-0.674334968019851	0.708905053880298	-0.0149975419262863	0.00111279933329547
10.7	-0.00126448569007066	-0.0129835851726696	-0.555825123145166	0.805076901229784	-0.55612379851145	0.804768808673641	-0.0149882776845964	0.00479010947286621
10.8	-0.00159149439520055	-0.0126194386934542	-0.424457207983563	0.881132453468496	-0.424805641485544	0.880835361458229	-0.0136897408281918	0.00838925741294653
10.9	-0.00191413887165739	-0.0124653015919659	-0.283589972669288	0.936111799730461	-0.283977830727348	0.93598863762605	-0.0114210548235702	0.0112242763109369
11	-0.00215166093023983	-0.0123464405947135	-0.135138302030201	0.970094858194045	-0.13557334963643	0.970003607052123	-0.00856348536776669	0.0136488365632241
11.1	-0.00208627325273904	-0.0125068905219411	0.0177017090665499	0.978728301048555	0.0172151515625763	0.978740942844891	-0.00458112582940713	0.0149760406570041
11.2	-0.00238121516841172	-0.0131012737917381	0.168794191215923	0.963884213522215	0.168339149753148	0.963956012502277	-0.000504788101478302	0.0149647269230801
11.3	-0.00291122800362475	-0.0135812238404885	0.315742784085789	0.926406338472026	0.315285526609239	0.926541156691942	0.00355470903253907	0.0138829160943036
11.4	-0.00395321728021261	-0.0142735880347329	0.45582342053163	0.866974847017224	0.455420862439141	0.867086492491588	0.00675083555153805	0.0117196162734909
11.5	-0.00548036729327217	-0.0134527913585723	0.585470752244588	0.784840243635517	0.58515301455419	0.785140758754379	0.00837582996870392	0.0104322576213258
11.6	-0.00543885027930736	-0.0133283821142417	0.698830250242327	0.684469999188215	0.698615246342589	0.684795535491679	0.0117667925040112	0.00875660187775569
11.7	-0.00636345598534383	-0.0134426611156579	0.796379962731055	0.568511646952351	0.796176790622788	0.568816055933156	0.0141379993950269	0.00530457743857661
11.8	-0.00761592184546719	-0.0132998128353555	0.875283414963358	0.438304832155617	0.875100939921685	0.438753047271324	0.0152618086875526	0.00114366409968459
11.9	-0.00868124121895606	-0.0130353591838038	0.932860743878132	0.296903094941824	0.932754081426461	0.297350761083073	0.0149665694320028	-0.00396795765695075
12	-0.0119134390915011	-0.0116303201825383	0.966430914411134	0.149099187330369	0.966401041145984	0.149461580461284	0.0103863640801442	-0.00752303206847412
12.1	-0.0122633128373318	-0.00928858898612341	0.978587995746706	-0.00144402640260454	0.978515575717005	-0.00106140203404904	0.00778488235898889	-0.00843180469093166
12.2	-0.0130395861037585	-0.00781375711151624	0.967103138758518	-0.153384874184024	0.967119194346797	-0.153087880814827	0.00496642172785126	-0.00933565170031853
12.3	-0.0136320400512553	-0.00575866090281085	0.931494711622572	-0.301629236161326	0.931612409235236	-0.301323134743247	0.00226308802752225	-0.00943650295589771
12.4	-0.0137256441238528	-0.00396034111655796	0.873345061055123	-0.441979477424837	0.873406129860962	-0.44161098008231	0.000203511679898459	-0.00942297353094769
12.5	-0.0141559458886669	-0.00208382238123393	0.795547257776186	-0.571160986735298	0.795884026472156	-0.570769533313238	-0.00325155848047709	-0.00947876862989116
