# GHZ S RI R 50
0.2	-0.00022663301727518	7.98865265326863E-05	0.948448097368899	-0.308203726368569	0.948225966016026	-0.308178208580257	-0.000234930626496703	0.000191356611059286
0.3	-0.000179016032938319	0.000157564578224762	0.88824052557235	-0.451776338771445	0.888084495080494	-0.451680944840988	-0.000259868853966398	9.78943800606888E-05
0.4	0.000136200564295006	0.000116929900705307	0.806532222735846	-0.583793577498518	0.806543988119443	-0.583818676566411	-6.81038803840257E-05	3.02359510052183E-05
0.5	-1.04898524155843E-05	-0.000192811586491605	0.705867006573876	-0.7016375547611	0.705712205423794	-0.70153614717233	-0.000177907379548298	-0.000277242660765648
0.6	-0.000190305655523868	9.68426148803302E-05	0.588061657860586	-0.802585512336	0.587942596712936	-0.802423942231231	-0.000453253268623273	-6.07124965414973E-05
0.7	-2.294123694193E-05	0.000378331952637017	0.455980816537745	-0.883685033046502	0.455962120129173	-0.883572675074197	-0.000310292358079519	5.26905022610349E-05
0.8	0.000302846215253471	0.000416135440485334	0.313126508493863	-0.943352243532906	0.313095256984904	-0.943162779407516	-0.000228405904144708	0.00017821223090041
0.9	0.000721248140858447	0.000483721241750452	0.162978125378716	-0.980069005705855	0.162913204584552	-0.979977233220075	1.51160249425363E-05	0.000172198060548199
1	0.00100637895476322	-0.000418137368022679	0.00892089070023394	-0.993380296088512	0.00886931661220137	-0.993348872754246	0.000165499388547593	-0.000666841467211929
1.1	0.000279824706303606	-0.000488904559723954	-0.145513425935443	-0.982446118031706	-0.145529119293019	-0.982315879194127	-0.000923014850193733	-0.000634272312541374
1.2	0.0004120065716089	-0.000910893469613498	-0.296210191041898	-0.947518816630045	-0.296133951794298	-0.947492780448204	-0.000889822345229741	0.000164706448413094
1.3	0.000522681630489964	-0.00199823664086938	-0.439465029079658	-0.889823934181917	-0.439442040014094	-0.889817332260882	0.000209792452634852	0.00122144439351022
1.4	0.000692728544234755	-0.00362583981788952	-0.571927613141202	-0.810815766572999	-0.571903484474875	-0.810794169450691	0.00213166697940844	0.00122547113607603
1.5	0.000123479765615855	-0.00441165558456877	-0.691069872740817	-0.711805829072017	-0.690968287908653	-0.711721043523327	0.00333302255232434	0.000468798857278815
1.6	0.000449567707300267	-0.00453053345244814	-0.792546729725183	-0.59556613771716	-0.792472833405067	-0.595506252207572	0.00416206850687234	-0.000337026692118251
1.7	0.000216806758448726	-0.00502666913688446	-0.874677349613968	-0.465958367277207	-0.874841355193119	-0.465443500148228	0.00424633134491237	-0.00177012646856705
1.8	-0.00045825467219766	-0.00527692671311666	-0.936429675608418	-0.324206693619276	-0.936318682152131	-0.324205296205581	0.00355990980135606	-0.00306686988866382
1.9	-0.00124876054166726	-0.00548795362460744	-0.975119698822133	-0.17528179158985	-0.975212499444832	-0.174795420784296	0.00254303570676467	-0.00423313650949364
2	-0.00311105038238075	-0.00516277190323332	-0.989716460421097	-0.0213611885318175	-0.989728374969429	-0.021315474098237	0.000390678340506975	-0.00473476334206689
2.1	-0.0034660414586436	-0.00358377707542921	-0.981040108535848	0.131866365096064	-0.981078139076471	0.131903315352319	-0.00038980031597145	-0.00360800574750967
2.2	-0.00377709862559135	-0.0031182684979213	-0.94888080921453	0.282310955441757	-0.948805989698335	0.282373673148976	-0.000513969551899721	-0.00343302885811624
2.3	-0.0042883576490185	-0.00250940010215922	-0.89372044904248	0.425440085430835	-0.893339886551145	0.425952422031795	-0.000883498226708211	-0.00358700811569076
2.4	-0.00482647030593643	-0.00202780335542671	-0.815915463586857	0.559744978595217	-0.816180543440779	0.559160420046578	-0.00139818278694903	-0.00401342247314243
2.5	-0.00608476190368806	-0.00137353490936635	-0.719886407170928	0.678942966021477	-0.720098415400459	0.678434083742733	-0.00282318409332107	-0.00485352368438754
2.6	-0.00656245550113859	0.00086614661456208	-0.606507221952576	0.782440282602677	-0.606400951405753	0.782258175936111	-0.00390329355359675	-0.00369482685724093
2.7	-0.00569886800804885	0.00244831211498176	-0.47715381085397	0.867272779884156	-0.477601123439002	0.866865811687326	-0.00389825595994552	-0.00287801190458058
2.8	-0.00435534430671163	0.003308997241937	-0.338173494550217	0.930187624431414	-0.337507547174774	0.930347538747775	-0.00374597587313444	-0.00236076599272281
2.9	-0.00268253166342623	0.0035327918006619	-0.189556897113793	0.971433263239381	-0.189587864156978	0.971345988800006	-0.00315838032748476	-0.00175049632409488
3	-0.00115887382662164	0.00345064919858425	-0.0358756024595511	0.989803618908771	-0.0365754276623739	0.989643440768178	-0.00249569173056746	-0.00101479493656035
3.1	0.000700175810675451	0.00282145571175241	0.117125061535855	0.983256965726226	0.117715067977376	0.983240405780171	-0.00108073382604469	-0.000750379418395199
3.2	0.00176224739329736	0.00161228568057564	0.268677996679051	0.952968010915162	0.268623394755869	0.952907652753477	-0.000396508916902545	-0.0010780611882295
3.3	0.00266584129705977	0.000332192026061596	0.413365411546019	0.899851231105115	0.413228411624611	0.89983672328893	0.000332907156879107	-0.00145759418452118
3.4	0.00290368911754984	-0.00123335032227534	0.548164048159053	0.825146793826047	0.54800162254711	0.82526428315824	0.000860851985192068	-0.0024091536601233
3.5	0.0026711621083582	-0.00214575240436529	0.670014397143678	0.729849373639112	0.669934769763661	0.729887989393687	0.000646357632300974	-0.00270546669271069
3.6	0.0028962954492098	-0.00315637259287856	0.774230243908613	0.617361082807243	0.774471796147073	0.616913176111094	0.00129984421027371	-0.00301966189810306
3.7	0.00251048045286075	-0.00459041555878802	0.860976766190412	0.489432419702561	0.86085826433989	0.489575222908224	0.00148001947850487	-0.00387378242675127
3.8	0.00154468624397062	-0.00571223998612568	0.926490705014904	0.35051495686201	0.926548191422921	0.350135972372438	0.00129081044634689	-0.00476720765779544
3.9	0.000517650536150787	-0.00674092843417628	0.969978244248446	0.201108100251894	0.969738792650795	0.20177510523695	0.000409011267429497	-0.00609092086552521
4	-0.00162904675166245	-0.00703579737914461	0.988877254779636	0.0489944651993072	0.988838156818314	0.0490972045225253	-0.00139295832479897	-0.00666112370111189
4.1	-0.00249930968027247	-0.00651007284495623	0.985047669982107	-0.104445178572881	0.984862913051044	-0.104318476014032	-0.00205364202634715	-0.006165707526278
4.2	-0.00366681599167372	-0.00666387914770469	0.956972254549647	-0.256885458199851	0.957005870326952	-0.25623144308507	-0.00248655706880923	-0.00652988444006942
4.3	-0.005079768588925	-0.00681779370440631	0.905890870842426	-0.401880002115733	0.905754725425965	-0.401769109834091	-0.00325346081744155	-0.00727138241174739
4.4	-0.00686703097253808	-0.00675804544487786	0.832413819302988	-0.537502631256985	0.832248296768313	-0.53736959536634	-0.00438373462197317	-0.00822181247924404
4.5	-0.00947460876188095	-0.00641813426645715	0.739592127353793	-0.65986003822671	0.739402718526216	-0.659687307570058	-0.00678719217264923	-0.00928938948412424
4.6	-0.0117208348060375	-0.00421121395879124	0.628028039803805	-0.767885377363985	0.628368623634539	-0.767185506975859	-0.0092993725442011	-0.00858240354188323
4.7	-0.0129764976666995	-0.00218567280910563	0.501418388360854	-0.85607172128987	0.5014340358837	-0.85571522674088	-0.0111992186472673	-0.00792069423290898
4.8	-0.01391880216398	0.000259381974262945	0.362165797919652	-0.923443559163598	0.362387021500372	-0.923126028246258	-0.0128683903701313	-0.00696392198471073
4.9	-0.0139814740433115	0.00262782177434638	0.215154550083761	-0.968082230067886	0.214934096932623	-0.968090601618821	-0.0140270638050669	-0.00576435489748198
5	-0.0135097933598264	0.0051671506570477	0.0619849128073684	-0.990644454401869	0.062162086419597	-0.990397925244998	-0.0147278232866747	-0.00388321552949708
5.1	-0.0116792641274957	0.00725913076643078	-0.0931059846357816	-0.988238995740368	-0.0927736456741257	-0.988012449918142	-0.0142046761023605	-0.00201763569154271
5.2	-0.00973311990412181	0.00882111334838188	-0.245553860169673	-0.961734569828139	-0.245060437167739	-0.961706900373548	-0.0136480526150854	-0.000703035342934231
5.3	-0.00762238564897078	0.00983215730680454	-0.391938620589291	-0.912170539405996	-0.391596438002505	-0.912386971907834	-0.0130120474717532	0.000247706663303241
5.4	-0.00568186370345414	0.0106660769312222	-0.52931461948506	-0.840625912080403	-0.529100745286197	-0.84082719454613	-0.0129977045071666	0.0008856660927449
5.5	-0.00387441426425686	0.0122335448362904	-0.654204620026225	-0.747574230414192	-0.653964635370409	-0.747769680335164	-0.0137192293383084	0.00293565619402728
5.6	-8.84364011654183E-05	0.0130205016634592	-0.761716737508943	-0.636565924585473	-0.761526293457075	-0.63673831247508	-0.0121207483194399	0.00489070327992103
5.7	0.00277286034650033	0.0122408902963548	-0.851444258105773	-0.510720403003153	-0.851314341299198	-0.510940971074033	-0.0110278988981062	0.00576902589538883
5.8	0.00519704018168283	0.0113191579569967	-0.920601635734519	-0.37209344227967	-0.920533428970445	-0.372379506068462	-0.0101201317300028	0.00659242872979675
5.9	0.00720331813599118	0.00958029819647702	-0.96736962739163	-0.224210493273848	-0.967384178302195	-0.224294451431925	-0.00952311903063396	0.00685546454098053
6	0.00784539638172076	0.00844255037028013	-0.989747530363072	-0.0711670486555272	-0.989627920383934	-0.0712253212714354	-0.0105823574267422	0.00806989316243028
6.1	0.010183670113221	0.00756545358941015	-0.989046031460458	0.0829681611157224	-0.988918961475848	0.0828191742444123	-0.00915387862483695	0.0106475193445136
6.2	0.0117326805647565	0.00489138223063484	-0.964213522840489	0.235995647003943	-0.964199873682985	0.235792086167026	-0.00726412456429984	0.0112881388129569
6.3	0.011892961450863	0.00174112942203655	-0.915590082989529	0.38316171275601	-0.915585732855315	0.382975729323075	-0.00572368938610808	0.011105786012796
6.4	0.0110245910913799	-0.00122385167852969	-0.844449099706152	0.520572104679254	-0.844417602014916	0.520360783287064	-0.00474709134122155	0.0103532860965463
6.5	0.00933579267896834	-0.00360330286707046	-0.753749079627454	0.644829861503492	-0.753773444317383	0.644625189642554	-0.00433778298927993	0.00978686031664929
6.6	0.00783451974085827	-0.00542983870113176	-0.644475270259575	0.754833914732139	-0.644549754766944	0.754580966142672	-0.00359188495368619	0.0093866537203961
6.7	0.00590449498248805	-0.00696241312622449	-0.518869074930764	0.845750022523748	-0.51897267151203	0.845528306215155	-0.0032757479362249	0.00887969841411611
6.8	0.00407028239819576	-0.00788927168412187	-0.381001797290049	0.915827720435592	-0.38114424687816	0.915656759777826	-0.00311765396587393	0.00877331425285122
6.9	0.00211475727434292	-0.00854191313526134	-0.234346327077506	0.963670076636106	-0.234573870186342	0.963559783269188	-0.00279885079619138	0.00888907559618923
7	0.000561798890083298	-0.00851129181636341	-0.0816396842808053	0.98906911078693	-0.081850531275601	0.98897946818824	-0.00205370740130512	0.00924925724539484
7.1	-0.00084522758715056	-0.0087102661650856	0.0738139787287597	0.989212607363466	0.0736108433816843	0.989079606118609	-0.000923446148823795	0.00908393071374688
7.2	-0.00235505750753488	-0.00858857602762661	0.226540926813948	0.965214497843493	0.226257848951628	0.965180859910594	0.00010778010759675	0.00887019971869755
7.3	-0.00391752575164117	-0.00827357341754878	0.373587241020245	0.918126311763499	0.373350604808922	0.91815350786055	0.00111389132759721	0.00846480819124509
7.4	-0.00531335095503444	-0.00768155365121274	0.511910321192097	0.848937115103904	0.511696462503908	0.848989283512319	0.00181859028937682	0.00775141767188432
7.5	-0.00669307967238213	-0.0066774948516373	0.638050090937801	0.758044541107062	0.637880455700029	0.758115295142251	0.00235584280994009	0.00745981512816193
7.6	-0.00698468945985025	-0.00563158257289897	0.747109031544347	0.649132693984444	0.746851451591595	0.649216586636652	0.00380914744128043	0.00672403427438907
7.7	-0.007488207409061	-0.0046933686315542	0.838463157978426	0.525217468838788	0.83827845283822	0.525435941200466	0.00463513122275009	0.00524826887029968
7.8	-0.00753586693851997	-0.00350386338855119	0.909792665318122	0.388318683124271	0.909690662762179	0.388545005905051	0.0050666843195595	0.00350950092128416
7.9	-0.00751639397103764	-0.0024068352752703	0.958737450763458	0.241769366966318	0.958600250687078	0.241950085618102	0.00464985500371033	0.001615123187082
8	-0.00796193865654063	-0.000561992872716407	0.983102739507294	0.0899024536507469	0.983081188370035	0.0901653458517263	0.00197101604251957	0.000664609859826099
8.1	-0.0061341697487599	0.00192605413377908	0.985144416648909	-0.0631874670675466	0.985174624852778	-0.0629319935051027	0.00136460189474884	0.0020287398670586
8.2	-0.00382807213680402	0.00277840802114516	0.963059011045067	-0.215496090575987	0.963108980980378	-0.21517924267077	0.0012673127226965	0.00237216284985928
8.3	-0.0017848171836862	0.00296075153674623	0.917293782234145	-0.362283414106889	0.917346625686429	-0.361996653311583	0.00125399467502641	0.00254834048459571
8.4	0.000233211648344374	0.0022105345828489	0.849213554924911	-0.499651781799491	0.84931224831059	-0.49945054548765	0.00141143949772391	0.00207807189142405
8.5	0.000454460624901852	0.00106401349101065	0.761936186664181	-0.624335685190588	0.761988092819491	-0.624185352814848	-0.000167820428482535	0.00125885687914321
8.6	0.00148970117683471	0.00141845619207585	0.655670463666527	-0.735489370902848	0.65583981376799	-0.735253140849841	-0.00099680451321054	0.00303490164435887
8.7	0.0028141008678398	0.000825511843119814	0.533048407821252	-0.827953884595368	0.53330825198722	-0.827739826478955	-0.000371851224007451	0.0042956983333043
8.8	0.00405647089725386	-4.50972267841505E-05	0.39811118099355	-0.900023184562539	0.398296759049471	-0.899885113727936	0.0007000509732673	0.00502964597939571
8.9	0.00519690701289891	-0.00128581844748248	0.254115238330979	-0.950533682861897	0.254294636567346	-0.950364581262369	0.0024961140286085	0.00522732647501464
9	0.0059839354188974	-0.00297957985149102	0.103355801897903	-0.978964487213986	0.103663941644025	-0.978919157515887	0.00406384463402504	0.00460422490226084
9.1	0.00683912571225823	-0.00442470962079036	-0.0503321805401286	-0.982341606187162	-0.0500233951674655	-0.982302083971709	0.00603161378222726	0.0038920574328323
9.2	0.00746259116920025	-0.00621848509404006	-0.20190529892041	-0.961988916655388	-0.201558430852706	-0.961968163797247	0.00785486790771642	0.00221825075334344
9.3	0.00771436533576193	-0.00776340286047663	-0.348372468773569	-0.918820498110681	-0.348021329860097	-0.918796425046343	0.00921405704810286	0.000127766418102436
9.4	0.00763960112243548	-0.00959784060389539	-0.486702100577642	-0.853762100546482	-0.48638002179643	-0.853854025902108	0.00963384639330295	-0.00275427780638471
9.5	0.00670708708973396	-0.0098032122330104	-0.613508685547686	-0.766748098475941	-0.613272661665239	-0.766799380269516	0.00832906919416186	-0.00408707337122263
9.6	0.00752941643328152	-0.0107971296565778	-0.723845998343153	-0.661786015952306	-0.723536199133751	-0.661925501715312	0.00876264215384437	-0.0055385327037881
9.7	0.0069779762077006	-0.0120527004079972	-0.817193713052847	-0.541638593872963	-0.816908250349476	-0.541871678836337	0.00753015548113776	-0.00816193826210983
9.8	0.00619692371642778	-0.0129001571708627	-0.891023351125529	-0.408292066165174	-0.890771744337761	-0.40846123129279	0.00520073433575595	-0.0102286081216797
9.9	0.00514733901860019	-0.0135030028932218	-0.943086203548041	-0.264697722126923	-0.942835861850023	-0.264906515886502	0.00202986397051792	-0.0120247128368934
10	0.00306956958473699	-0.0129822546706241	-0.971091747213075	-0.115560399597534	-0.970940219061579	-0.115921013956504	-0.00327648814171741	-0.0117173741304461
10.1	0.00327692096615655	-0.0117948294186294	-0.977174738758492	0.0353606687157037	-0.977112545952268	0.0349316430988184	-0.00599014724303075	-0.00901733244311692
10.2	0.00324624593699099	-0.0120417372700285	-0.959851869467328	0.1861882542992	-0.959731550368804	0.185759476817018	-0.00806199460593425	-0.00710240379072285
10.3	0.00264817402344822	-0.0121284721004826	-0.919052794803937	0.332411474845918	-0.919070921186638	0.331873511918449	-0.0100299823862236	-0.00502969390615247
10.4	0.00196114175372425	-0.0125074734906646	-0.856023582033116	0.469917370591691	-0.856159765519354	0.469409825854636	-0.0115577470487012	-0.00307921715452404
10.5	0.000371768343638659	-0.0122430029865406	-0.773956166089467	0.595880684923154	-0.774127772609818	0.595451528673411	-0.0135527866903487	-0.000912812300022828
10.6	0.000155668104966206	-0.0114676547990072	-0.672618775515083	0.709214641837223	-0.672889497166898	0.708886630435382	-0.0139937745513585	0.00289290082589915
10.7	0.000253981288411057	-0.0110445504312801	-0.554433399449301	0.804794951331671	-0.554732072874223	0.804487481688105	-0.012918626958784	0.00631180329985921
10.8	0.000449232199808094	-0.0113796575296157	-0.423150031297275	0.880603326535163	-0.423498380852228	0.880306889463069	-0.0108780369148863	0.00900931765947255
10.9	0.000167544906973326	-0.011782815837877	-0.282336539705039	0.935419590361782	-0.282724116758585	0.935296953583295	-0.00862839221344026	0.0109683595032128
11	-0.000277891518392665	-0.0122260777963399	-0.13389356437531	0.968968391049052	-0.134328140500941	0.968877738428545	-0.00596859289661318	0.0125767500473374
11.1	-0.000604349172489262	-0.0127525332310438	0.0185075548925571	0.977362248835571	0.0180216797589055	0.977375285944938	-0.00253739842549489	0.0132686982653365
11.2	-0.0012796492438439	-0.0135536322411438	0.16934198319842	0.962446034620208	0.168887614339578	0.962518102865662	0.00092816237889964	0.01291508145346
11.3	-0.00223465044392562	-0.0141966103178395	0.316052824097687	0.924852371171728	0.315596316556768	0.924987371872861	0.00434656395892227	0.0116499145990936
11.4	-0.00375628367909509	-0.0149207630728148	0.455852324069964	0.865240975603092	0.455450486065146	0.865352789812669	0.00691414668814085	0.00957452453856983
11.5	-0.00563691044132376	-0.0140434914660469	0.58489867695237	0.783119268417202	0.584581672975307	0.783419440311285	0.00829395212434642	0.00834055457266136
11.6	-0.00620477862994401	-0.0138175382277006	0.698035948469501	0.682994816097922	0.697821461937908	0.683319929517569	0.010888770898537	0.00650401534012211
11.7	-0.00763341139108827	-0.0135720452410978	0.795290262300101	0.567108694844889	0.795087601868417	0.56741267995028	0.0123656010974692	0.00344844787632061
11.8	-0.00935131479538604	-0.0129701042668828	0.873815147936512	0.437086042148334	0.873633217320119	0.437533486858514	0.0127134225029207	5.68385769237515E-05
11.9	-0.0111873278114606	-0.0118017539366256	0.930941651526292	0.296027323424125	0.930835332716891	0.296474059385139	0.01148274426257	-0.00348136447254899
12	-0.0140115023325156	-0.00920771771552603	0.964406983705793	0.148885076846842	0.964377136598431	0.149246713619027	0.00789393541697332	-0.00538512286891715
12.1	-0.0137923032709168	-0.00551195780697732	0.97648464922792	-0.00129601954915319	0.976412328207938	-0.000914228399192562	0.00638615370389585	-0.00503613800101556
12.2	-0.013077874592698	-0.00327850504921716	0.965046957047407	-0.152561983340593	0.96506282840213	-0.152265636983136	0.00531402645409198	-0.00541498735786042
12.3	-0.0118738802473217	-0.00143247462675843	0.929847899886414	-0.30022998251606	0.929965099774429	-0.299924406636604	0.00451665656151362	-0.00596620659154178
12.4	-0.0106296449840705	-0.000869950450995815	0.872333801939686	-0.440290652963149	0.87239437149298	-0.439922716889677	0.00374350810058349	-0.0073305088483829
12.5	-0.0105760420063723	-0.000679637207087258	0.794949773876342	-0.569710300191008	0.795285752972458	-0.569319093548055	0.000946120517363784	-0.0089722200897476
12.6	-0.010202995507215	0.000496862139037451	0.697525913628807	-0.687100180976244	0.697774885227541	-0.686856584252956	-0.00175459981365127	-0.00832629886751642
