# GHZ S RI R 50
0.2	-0.00026983662504822	-4.52920444203329E-05	0.94863332284266	-0.308150952379295	0.948411153135602	-0.308125454430573	-0.000277474443041665	6.54886465635943E-05
0.3	-0.00029342226527051	8.19114596528726E-06	0.888491785656449	-0.451753025602509	0.888335708859201	-0.451657632333941	-0.000373448258842543	-5.31126175398957E-05
0.4	-8.55657521730791E-05	-9.25856956222358E-06	0.806864323368948	-0.583852694942459	0.806876096040011	-0.583877799930741	-0.000289402086404627	-9.84617244245962E-05
0.5	-0.000227684097167049	-0.000158757665362037	0.706161943238059	-0.701893430119265	0.706007078796995	-0.701791986950889	-0.000394786514724208	-0.000245707094654522
0.6	-0.000317142626373992	5.96111114448797E-05	0.588241726197694	-0.802844453765455	0.588122628580398	-0.802682831527313	-0.000578996199446145	-0.000101307690568606
0.7	-0.000203381210268113	0.000302934275785814	0.45614240986966	-0.883986184327434	0.45612370640622	-0.883873787846839	-0.00048970758623907	-2.78149062567476E-05
0.8	7.41909798749965E-05	0.000318101611573684	0.313224333780096	-0.943732571730389	0.313193075084497	-0.943543032077238	-0.000457230540466535	7.35206697054972E-05
0.9	0.000336509630409807	0.000341348161482718	0.162919607601102	-0.980519946971272	0.16285467052012	-0.980428125676012	-0.000372440590500155	2.24518928748978E-05
1	0.000411609127681252	-0.000189769483403804	0.00867164307851665	-0.993667095257023	0.00862006216902062	-0.99363564984002	-0.000436068101771071	-0.000442796851206154
1.1	9.96807535855363E-05	-0.000122830740392302	-0.145676405546961	-0.982671838965769	-0.145692086009719	-0.982541565683307	-0.00111076856259697	-0.000268741961095945
1.2	0.00044619381087593	-0.000663821987216845	-0.296444470196842	-0.947756491628885	-0.296368204158406	-0.94773045938486	-0.000855084208665202	0.00041921083079481
1.3	0.000866949641474754	-0.0020105118900528	-0.439787499398313	-0.889981316083419	-0.439764502298908	-0.889974717352279	0.00056017844431869	0.00121648319618675
1.4	0.00109458363799564	-0.00405113797103823	-0.572260547096087	-0.810796948572952	-0.572236407982684	-0.810775354482422	0.00254119847000312	0.000803414322570038
1.5	0.000619537329722119	-0.00506119990157598	-0.691173669763795	-0.711776295824564	-0.691072071581563	-0.711691515630304	0.00383562051491127	-0.000185708128338825
1.6	0.000444779268713622	-0.00554367980471488	-0.792789419728197	-0.595670024678389	-0.792715500510012	-0.595610128344406	0.00416521075896585	-0.00135644055335952
1.7	-0.000191996115044206	-0.00576133301405452	-0.874990449552682	-0.465934183951692	-0.875154411420846	-0.465419151263647	0.003841472007899	-0.00251908296061658
1.8	-0.00105211299360472	-0.00572619671080698	-0.936685915927989	-0.324081387610075	-0.936574899664314	-0.324080012552825	0.00296226754736443	-0.0035323564511223
1.9	-0.00198625938810209	-0.00550079832822738	-0.975264495359265	-0.175194497692649	-0.975357253140598	-0.174708054049078	0.00179750456740648	-0.00425740921149866
2	-0.00322523677786097	-0.0047078569346281	-0.9900866503686	-0.0213833559095681	-0.990098570034529	-0.0213376245093443	0.000273378377982285	-0.00428482565412124
2.1	-0.00341726681614085	-0.0037218272186762	-0.981416146632765	0.132199393631649	-0.981454182738837	0.132236370222502	-0.000340627208659664	-0.0037570340030102
2.2	-0.00400201052307052	-0.00331406807272525	-0.94906496723598	0.282708676623337	-0.948990104980141	0.282771387861561	-0.000741856550645878	-0.003642264630878
2.3	-0.00469429247033423	-0.00262416135614449	-0.893817068971187	0.425808792224462	-0.89343626118155	0.426321143981406	-0.00129640585549733	-0.00371365071584252
2.4	-0.00547818467364306	-0.00187095459314974	-0.816063643840612	0.560135155348475	-0.816328956115672	0.55955045794464	-0.00206260431287802	-0.00386479945001673
2.5	-0.0063481459674458	-0.000465820479176665	-0.719860217566261	0.679682415087669	-0.720072616313191	0.679173400791266	-0.00309727922429742	-0.00394675252635139
2.6	-0.00603252557184368	0.00137950651396596	-0.606075926085201	0.782948624808387	-0.605969760776039	0.782766422832683	-0.00337238064390828	-0.00317698690553428
2.7	-0.00505289508812357	0.0023871170202642	-0.476712292605269	0.867596772645985	-0.477159860544564	0.867190020638095	-0.0032422498336533	-0.00293893545909981
2.8	-0.00394007471897715	0.00280918430277393	-0.337704180476688	0.930466845660542	-0.337038077749339	0.930626415513331	-0.00331896137777692	-0.00286816335259453
2.9	-0.00260101773801289	0.00291143531897468	-0.188898219199009	0.971707195217568	-0.188929252339196	0.97161993006434	-0.0030705258346067	-0.0023817719576511
3	-0.00121461530589897	0.00275484127399986	-0.0349529026994283	0.989580420780385	-0.0356526945047664	0.989420929929454	-0.00254727718274839	-0.00172150990261274
3.1	0.000244497270994834	0.0021341597197639	0.117619914543987	0.982790604342144	0.118209670793137	0.982773725509978	-0.00153481118122179	-0.00145385929166084
3.2	0.00111403003036352	0.00118423412627767	0.269076761942182	0.952521699298572	0.269022146959955	0.952461388570898	-0.00104440084110496	-0.00152217348176011
3.3	0.00194526652632689	0.000157086817878116	0.413734753603407	0.899289536537255	0.413597794614759	0.899275112811269	-0.000389795669320745	-0.00164666594458138
3.4	0.00223822255631	-0.00104762339745777	0.548375681317312	0.824300960088997	0.548213428438646	0.824418485395085	0.000194081273674267	-0.00223350150367213
3.5	0.00255646696123349	-0.00191378810127475	0.669570283880664	0.729061157272755	0.669490735329574	0.72909975523555	0.000535402438487606	-0.00248613789576119
3.6	0.0026198365837219	-0.00329590298033371	0.773860991568441	0.617011663316239	0.77410240079701	0.616563975258208	0.00102566497769169	-0.00317839455701487
3.7	0.00207299741396813	-0.0046170304965353	0.860627999942704	0.489056492998303	0.860509578872138	0.489199244177877	0.00104037715120884	-0.00392067603707957
3.8	0.0010452164124298	-0.00561459246017209	0.925980390512667	0.350175598736469	0.926037789903706	0.349796834857422	0.000785268838871825	-0.00468802305509048
3.9	-6.46428718527621E-05	-0.00634143115991593	0.969253691648247	0.201056226372618	0.969014349246691	0.201722723285319	-0.000181117867219744	-0.00570393264234649
4	-0.00154550019773174	-0.00624587349899065	0.98858455842348	0.0493740597368034	0.988545430418626	0.0494767551292373	-0.00130973578935501	-0.00587598700742063
4.1	-0.00217338136557565	-0.00641906241010106	0.984875125101761	-0.104479951388718	0.98469040623865	-0.104353260461469	-0.00171923999114826	-0.00608509717197318
4.2	-0.00360194955311961	-0.00678264880175333	0.956594655870636	-0.256861483664329	0.956628308398085	-0.256207715900358	-0.00241244855915626	-0.00666540912582745
4.3	-0.00523993206962836	-0.006994744087722	0.905529963413059	-0.401649546372972	0.905393868961031	-0.401538710296545	-0.00340910512024185	-0.00746067387746357
4.4	-0.0074106403295912	-0.00679338427638295	0.832354110358194	-0.537191913901859	0.832188593661532	-0.537058945569165	-0.00492423635313989	-0.00826905395321299
4.5	-0.00986125447708119	-0.00567758014074272	0.739481101207791	-0.660092136179949	0.739291721747275	-0.659919345811823	-0.00716731609042995	-0.008556880854344
4.6	-0.011459900907559	-0.00370947033018938	0.627452820180399	-0.767759925223049	0.627793503748808	-0.767060505873872	-0.00902485509729393	-0.00809321735013388
4.7	-0.0126309364442295	-0.00197928448327937	0.501017230585052	-0.855665739528792	0.501032920041499	-0.855309445933035	-0.0108361435223957	-0.00773194126648057
4.8	-0.0135771818489303	0.000223073050795854	0.361939243471521	-0.923024922025014	0.362160380275271	-0.922707555297521	-0.0125122271790738	-0.0070245379620361
4.9	-0.01374737507817	0.00243089865300196	0.214837594448294	-0.967793262986104	0.21461721721234	-0.967801576738778	-0.0137827273830047	-0.00599054017550934
5	-0.01321011685207	0.00479279190383112	0.0614065387463726	-0.989757204737226	0.0615836774479773	-0.989510997636553	-0.0144227757987953	-0.00428474820555156
5.1	-0.0117961620927289	0.00654106746190041	-0.0929148560672597	-0.98716608623203	-0.0925829012092354	-0.986939758276789	-0.0143180354626798	-0.00276671445877171
5.2	-0.010334085159875	0.00828615645126055	-0.245132121121108	-0.960924823338524	-0.2446391458135	-0.960897075110738	-0.0142531358817824	-0.00126878587974818
5.3	-0.00847681187371747	0.00979239262537963	-0.391457443184916	-0.911431481274538	-0.391115527339101	-0.911647672521142	-0.0138753656707654	0.000185464173656342
5.4	-0.00628582413409939	0.0113897591988209	-0.528633322465875	-0.839703294509221	-0.528419677320036	-0.839904326936514	-0.013605248825722	0.00160189933728202
5.5	-0.00312175861030135	0.0127869873042152	-0.652647064086145	-0.746980301124612	-0.652407281573821	-0.747175272611544	-0.0129452276214199	0.00347495321466229
5.6	0.000221813861348063	0.0124503949774869	-0.760423716748896	-0.636814467647764	-0.760233255389099	-0.636986515213676	-0.0117945705145581	0.00428378009435357
5.7	0.00249224358580013	0.0117043569015532	-0.850388882273489	-0.51109572287918	-0.850258866562416	-0.511316019573489	-0.0113023916388495	0.00519334866622637
5.8	0.00451471340824134	0.0110157994208675	-0.919545720574345	-0.372605806688703	-0.919477317055681	-0.372891583871943	-0.0108002281799353	0.00625365602210972
5.9	0.00616768849962608	0.010008470196582	-0.966213849505342	-0.22516782302596	-0.966228286215805	-0.22525172165896	-0.0105552415533239	0.00725274140728252
6	0.00808133001046146	0.00977541509002856	-0.989425308294729	-0.0727692023609717	-0.98930562799731	-0.0728272672806954	-0.0103367875932611	0.00937095764400188
6.1	0.0109722299752943	0.00769881252441878	-0.989141484218547	0.0819699387451031	-0.989014262162027	0.0818210785771532	-0.00834725601479462	0.0107439448669121
6.2	0.0121719566447125	0.00455931778434971	-0.964264318596405	0.235013224878974	-0.964250473768695	0.234809715143919	-0.00680680851641971	0.0109060438949727
6.3	0.0119359116402973	0.00119394754798744	-0.915866388775868	0.382046964733364	-0.915861826703534	0.381861019170326	-0.00567412401616863	0.0104962604612035
6.4	0.0106151396170538	-0.00167251974388399	-0.845312050442273	0.519530712541401	-0.84528026144838	0.519319393611893	-0.00517217417708167	0.00984581836779939
6.5	0.00881936250391589	-0.003797760917982	-0.754646680207915	0.644762269059847	-0.754670929572551	0.644557449939052	-0.00487608424842908	0.00955268985397348
6.6	0.00710728822425301	-0.00538337322516034	-0.644827535541842	0.754496539874813	-0.644901893846939	0.754243561841079	-0.00433422964054509	0.00939148171157014
6.7	0.0053523925860293	-0.00649845439453496	-0.519507199820266	0.84529088180642	-0.519610615189646	0.845069096529358	-0.00384712666656813	0.00930796063529488
6.8	0.00390257419260627	-0.00732012897636496	-0.381858970572477	0.915647994743269	-0.382001295314112	0.915476882380277	-0.00330378008324059	0.00931444187580983
6.9	0.00229670503650053	-0.00807725557578332	-0.234962981618203	0.963957218160083	-0.235190563087482	0.96384675566783	-0.00262758731518638	0.00933461477558946
7	0.000966506849879915	-0.00852062297426573	-0.081723611043129	0.988780163211604	-0.0819343886140078	0.988690523203103	-0.00164923215641871	0.00920358159062945
7.1	-0.000776356245884219	-0.00894355807450445	0.0729497382125687	0.988862952667519	0.0727467995169781	0.988729835643537	-0.000869638752535852	0.00880954448724458
7.2	-0.0024320706342482	-0.00879252467724774	0.225626912046346	0.965324856552624	0.225343894193221	0.965290960795162	1.31345714267444E-05	0.00863214176066486
7.3	-0.00408539187481165	-0.00844547114625044	0.37287953113635	0.9183974404365	0.372642877865465	0.918424455212866	0.000929935423063837	0.00826126917674065
7.4	-0.00552291285132043	-0.0077338134312391	0.511252634820564	0.848939129041043	0.511038819334109	0.848991157929686	0.00160541177115804	0.00766134658977845
7.5	-0.00654454625768019	-0.00681889538340087	0.63647239401044	0.758381153719868	0.636302786930917	0.758451609843148	0.0024744616724415	0.00727524000736591
7.6	-0.00718922798155941	-0.00628237615197424	0.746110200439634	0.650452218981934	0.745852451523149	0.65053569135487	0.00357063466591865	0.00605873078268218
7.7	-0.00823534971724879	-0.00521050981281286	0.837983158543736	0.526530986290772	0.837798097101759	0.526749267417777	0.00384894960444395	0.00469636398046728
7.8	-0.00870379758933569	-0.00360105731169505	0.909474804901196	0.389607972258889	0.909372480452328	0.389834208808403	0.00385224067599057	0.00339003806504535
7.9	-0.00895750568749551	-0.00158750547460779	0.958431669720942	0.243415300034773	0.958294149574106	0.243595806221255	0.00324270296235723	0.00248812363139797
8	-0.00775836180869108	0.00144167636220155	0.984005936679991	0.0920883892946764	0.983983803772939	0.0923515283034704	0.00214094199583767	0.00269959940095306
8.1	-0.00499404437390131	0.00256750025101847	0.986602566674137	-0.0620661854744606	0.986632503471073	-0.0618103168009434	0.00255489344532276	0.00264752107183259
8.2	-0.0028712091727961	0.0025822418333488	0.964417273511743	-0.214740096274155	0.964466970115247	-0.214422823433394	0.00225453373479116	0.00213728152449021
8.3	-0.00128093206236349	0.00221740373173437	0.918784826685883	-0.361663523695332	0.918837405350279	-0.361376365642134	0.0017788753398169	0.00175877831404821
8.4	-0.000186541586143529	0.00137617538912791	0.85124578978479	-0.499382794324853	0.851344387122509	-0.499181101689075	0.00100061259963666	0.00119507828508216
8.5	9.75180870073844E-05	0.00147051771188748	0.763718028619638	-0.62550126172807	0.763770011565936	-0.625350594270298	-0.000516359579533997	0.00162237560418616
8.6	0.00191165782906921	0.00110894040830192	0.656480694036163	-0.736451234720891	0.656650268662384	-0.736214709328603	-0.000560200870182463	0.00266858379184905
8.7	0.00282190913935705	-2.07110905845471E-05	0.53385487374923	-0.828824521866753	0.534114981333482	-0.828610155148588	-0.000359220439127509	0.00338260605088836
8.8	0.00351213643778402	-0.00110276531549454	0.398847849465323	-0.901183195431638	0.399033655077061	-0.901044895401003	0.000139181763429354	0.0039017955237898
8.9	0.0038473704168861	-0.00224882167036645	0.254260548349958	-0.952154746962744	0.254440286802897	-0.951985420502678	0.00111165679196224	0.0042068435402233
9	0.00421166963802182	-0.00309440358950105	0.102605194090357	-0.979691651234908	0.10291357341206	-0.979646549421494	0.00225437404855882	0.00444837388000281
9.1	0.00496924990444589	-0.00392708677898028	-0.0503345878230467	-0.982835614339939	-0.0500256484547217	-0.98279606511502	0.00411630051114276	0.00436473764848046
9.2	0.0059572676216149	-0.0047278120139941	-0.20205633141471	-0.962830795969844	-0.201709162182916	-0.962810016197661	0.00631481180254299	0.0036980984159627
9.3	0.00728577119087291	-0.00578156135629781	-0.348967485674481	-0.919576610937656	-0.348616011695534	-0.919552618407222	0.00876581180537961	0.00210964721594162
9.4	0.00828023634031147	-0.00760721243501288	-0.487492498984269	-0.85379704453456	-0.487170344620613	-0.853889228680226	0.0102733828850274	-0.000772527319646806
9.5	0.00904080793544411	-0.00901893056874952	-0.613180717487094	-0.766808165642065	-0.612944716282505	-0.766859368528839	0.0106837852399085	-0.00332442398416364
9.6	0.00882838170557052	-0.0119335426106036	-0.724085331150772	-0.662611251786027	-0.723775236547627	-0.662750700368754	0.0100752490862546	-0.00672396825030827
9.7	0.00720773830023552	-0.0132930030116065	-0.817814445434286	-0.542141798284493	-0.817528732825274	-0.542375050028788	0.00775698007883825	-0.0094610281233093
9.8	0.0056942420094494	-0.0139801103004192	-0.891540020848159	-0.408513566511462	-0.891288272068509	-0.408682832256499	0.0046797231334995	-0.0113631436548126
9.9	0.00389617097299589	-0.0137681630837262	-0.943259004295468	-0.265204660276305	-0.943008491049535	-0.265413406076163	0.000757403355831251	-0.0123225171233937
10	0.00320272444942202	-0.0122246837817852	-0.972390568256009	-0.116629958168606	-0.972238485699193	-0.116990953813756	-0.0031562970020833	-0.0109847074119461
10.1	0.00351649526621922	-0.0125144018920316	-0.978743581682444	0.0355746382549573	-0.978681357569253	0.035144911373716	-0.00575458828474102	-0.00976538421722619
10.2	0.00263294513447696	-0.0129378479067336	-0.960979364044531	0.186724261295147	-0.960859032769057	0.186294915308963	-0.008685025240479	-0.00802973799358931
10.3	0.00137138678834183	-0.0127658858079245	-0.920074384860591	0.33295729553876	-0.920092623779886	0.332418704672026	-0.0113253569948851	-0.00569036691119984
10.4	5.14159655832717E-06	-0.0123714877788197	-0.857480290692235	0.470717588545141	-0.857616706267844	0.470209180020316	-0.0135396456739525	-0.00294222682446391
10.5	-0.000863578385822074	-0.0106341411331731	-0.774866994865436	0.598245465471457	-0.775039560799627	0.597815589996601	-0.014830641810282	0.000877992105539887
10.6	8.7000428422585E-05	-0.00977979725703122	-0.672131390012101	0.711105601570731	-0.672402954067797	0.710777700722861	-0.0140123985941969	0.00456902162744915
10.7	0.000961757459254702	-0.00999776814761286	-0.553705611692727	0.806219548720336	-0.554004960225284	0.805912270083135	-0.0121703673352334	0.0073234375913093
10.8	0.00117772966814264	-0.0111522104462289	-0.422253944209884	0.881927573150861	-0.422602999998331	0.881631384175444	-0.0101206296762145	0.00920507196808858
10.9	0.000534461469533534	-0.0119171226651702	-0.280771783328862	0.93685979399482	-0.281159968134777	0.936737800196023	-0.00818269893137895	0.0108379935717475
11	6.8640188694488E-05	-0.0125257950629883	-0.131424857950636	0.968895217823985	-0.13185947742295	0.96880568520509	-0.00551698378103409	0.0122268949334589
11.1	-0.000673703126776068	-0.0132141029378938	0.0198405315239259	0.97664522406467	0.0193550181267469	0.976658921113872	-0.00253779169477067	0.012723361073877
11.2	-0.00159006905260524	-0.0138694219512352	0.170478292415334	0.96182840623795	0.170024205253115	0.961901014247905	0.000668813244790504	0.0125110435925654
11.3	-0.00271242421909219	-0.0142932263664093	0.317286901866275	0.92395599221388	0.316830805454928	0.924091611708437	0.00388056476805393	0.0114598714153775
11.4	-0.00424935453784516	-0.0144148192906012	0.456841416433771	0.863447368868488	0.456440236644136	0.863559757428012	0.00642654398785004	0.00997545568938691
11.5	-0.00483877541984319	-0.0137053077577576	0.584161156984143	0.781487296768136	0.583844838643872	0.781787056669776	0.00908822027945171	0.00855732412992708
11.6	-0.00602557781633081	-0.0146339606781838	0.697667955740768	0.682369914271105	0.697453685977554	0.682694836210225	0.0110525207071531	0.00557736700201624
11.7	-0.00819415527661117	-0.0142822187900152	0.79506780984205	0.566252319480022	0.794865466940504	0.566556211352266	0.0117802651187501	0.00263032818237575
11.8	-0.010478379050088	-0.0133127045904349	0.873171276457503	0.436074732635812	0.872989819587257	0.436521821228778	0.0115338792969914	-0.000393086001021874
11.9	-0.0127651453092922	-0.0110347749621137	0.929564039429002	0.29563992989404	0.929457854165915	0.296086006588238	0.00983388191047176	-0.00274456386714024
12	-0.0136455540017823	-0.00705467926764494	0.96416428762818	0.149491709422852	0.964134209146496	0.149853272190353	0.00824432068607957	-0.00323704102982084
12.1	-0.0125715263035532	-0.00493372840164807	0.976402498012891	-0.00171731775125964	0.976330347816229	-0.00133552727377549	0.00761663580773675	-0.00449332315937803
12.2	-0.0120822519582795	-0.00344922228944979	0.964453797401032	-0.15291006730928	0.964469792505591	-0.152613889251196	0.00631730625377256	-0.00562625012872025
12.3	-0.0112803922732034	-0.0021447102257108	0.929220446342802	-0.300151337391736	0.929337608603491	-0.299845969944498	0.00512486572020218	-0.00672456790198565
12.4	-0.0109646503589045	-0.0016488327883607	0.872419086101068	-0.440092938103003	0.872479573909089	-0.439724993574576	0.00342371367845451	-0.00815543100048793
12.5	-0.0108774925633073	-0.000139398916802026	0.794651989374866	-0.570961228934889	0.794988611795711	-0.570570236506345	0.000712836085143266	-0.00855652726422816
12.6	-0.00963219757683163	0.000215604035473286	0.696060957695605	-0.687466612008239	0.696310050023489	-0.687223538777203	-0.00117122887207532	-0.0086825072242347
