# GHZ S RI R 50
0.2	-0.000288619021184246	-4.38094606174166E-05	0.948895078382426	-0.308040966962605	0.948672856050737	-0.308015504831031	-0.000229844860710028	-7.37608320407021E-06
0.3	-0.000346886907363549	7.97920036143696E-05	0.888843820459576	-0.45167235459808	0.888687678098203	-0.451576971039861	-0.00034295749530898	-0.000143275926020196
0.4	-0.000115679625273661	0.000152416383687353	0.807284358511279	-0.583850515598184	0.807296141440989	-0.583875626199857	-0.00026176911676391	-0.000183347613067456
0.5	-0.00018427989612016	6.27718111439038E-06	0.706600108814145	-0.701958306003892	0.706445162138934	-0.701856867400036	-0.000311201976057235	-0.000340449623942476
0.6	-0.000329557053753036	0.000238871421313973	0.58874702754136	-0.80298948375846	0.58862782791793	-0.802827832542266	-0.000475950335449025	-0.000263612598649718
0.7	-0.00020910547403986	0.000595158100105817	0.456664214465363	-0.884270786341461	0.456645464098358	-0.884158340511185	-0.000390320762575815	-0.000245714650195564
0.8	0.00014777148884039	0.000732377507134802	0.313707792948993	-0.944149534357003	0.313676454598315	-0.943959900535317	-0.000391312694902897	-0.000190243551930379
0.9	0.000625458678972583	0.000906046813185358	0.163344980021456	-0.98102438450542	0.163279974749188	-0.980932532810578	-0.000362111765949245	-0.000203310611103802
1	0.00125427531999973	0.000176104668359823	0.00912323730551905	-0.994311063484327	0.00907160865521851	-0.994279620710851	-0.000265216209806091	-0.000607070091828414
1.1	0.000917805366977507	-0.000428099305494103	-0.145401502494387	-0.983540676888503	-0.145417248253628	-0.983410302489767	-0.000873908239896737	-0.000610192531668953
1.2	0.000937893242947483	-0.0014805028746196	-0.296376396930575	-0.9487033444986	-0.296300072161401	-0.948677262399186	-0.000622936992653389	-0.000157749717590186
1.3	0.00055117066781861	-0.00314204836199503	-0.439907694811798	-0.890977556078879	-0.439884678004526	-0.890970943329573	0.00048468892248491	0.000373669718070295
1.4	-2.81996198805958E-06	-0.00471294947968248	-0.572571715711376	-0.811866795239104	-0.57254755886398	-0.811845169406167	0.00212082768195589	0.000100757390282141
1.5	-0.000885573182620294	-0.0050899588800253	-0.691901767598506	-0.712895180385793	-0.691800057248364	-0.712810261929764	0.00338140905125885	-0.000794231164575116
1.6	-0.000792618169740257	-0.00442703198229327	-0.793797814717041	-0.59647939768185	-0.79372380166238	-0.596419420207758	0.00379856101460572	-0.00174482776894233
1.7	-0.000588859227071522	-0.00429176341556383	-0.876136880758392	-0.466553540781819	-0.876301062221119	-0.466037832413298	0.00363482328107038	-0.00291975834939676
1.8	-0.000773331509757237	-0.00431763320983024	-0.938017424526367	-0.324507418278039	-0.937906251681674	-0.324506044942919	0.00283002352882223	-0.00390979739773628
1.9	-0.00106641629956264	-0.00450945063164407	-0.976842069841662	-0.175314154899538	-0.976934895843723	-0.174826923501203	0.00190441588828023	-0.00460810523612844
2	-0.00252997948577213	-0.00471492489958881	-0.99164932542725	-0.0208926513135814	-0.991661239539347	-0.0208468419361315	0.000464388717440599	-0.00507787820429918
2.1	-0.00329911300254245	-0.00332008434657757	-0.982734742153586	0.132887063014055	-0.982772813095026	0.132924111241904	-0.000388426084193236	-0.00447947876209068
2.2	-0.00356686215383075	-0.00268870787078139	-0.950322874965781	0.283671774911563	-0.950247865071325	0.283734537274592	-0.000772842728779267	-0.00437280355484459
2.3	-0.00388888004903578	-0.0021163824533116	-0.894889381473464	0.42712425644203	-0.894507607812649	0.427637122549669	-0.0013812575969056	-0.00442301443264627
2.4	-0.00420276883424057	-0.00181974557942896	-0.816728137204555	0.561782825030599	-0.816994426594611	0.561197516527657	-0.00204465998873028	-0.00444893154529763
2.5	-0.00525193720193556	-0.00185344413370535	-0.720024171245046	0.681193521215087	-0.72023732514518	0.680684123840221	-0.00287954368307301	-0.00492202086875142
2.6	-0.00656306467609486	-0.000226992918159464	-0.606203123500905	0.784536255554656	-0.606096975531624	0.784353714788593	-0.00365285889087158	-0.00424966759260124
2.7	-0.00645920738638939	0.00158539188921489	-0.476440856850508	0.869329999973891	-0.476889493150583	0.868923162412391	-0.00376865111595024	-0.00373476788342216
2.8	-0.00546510016340652	0.00294167610323283	-0.336977968343728	0.932116696756412	-0.336310787934806	0.932275638507093	-0.00378783762508286	-0.00333999789542953
2.9	-0.00381603109142665	0.00361085818613466	-0.187840055505881	0.973026106451664	-0.18787123666689	0.97293878540423	-0.00328921613645911	-0.00274601946749168
3	-0.00228710402686209	0.00383541206597378	-0.0339738811181085	0.990818692736003	-0.0346746877020837	0.990659730472578	-0.00267424348205021	-0.00216206231286661
3.1	-0.000251151145178686	0.00365183507829354	0.119161334639662	0.984035569956539	0.119751912981837	0.984017843146629	-0.00149769361482099	-0.00192887429174215
3.2	0.00115348744341348	0.00261188730505972	0.270927386460102	0.953300990272488	0.270872606729291	0.953240689771802	-0.000933704587744052	-0.002124286951063
3.3	0.0023185777960696	0.0013724095920161	0.415659036735331	0.899650093270777	0.415521897874988	0.899635874070864	-0.000241965619224038	-0.00230494044188077
3.4	0.00281317891313106	-0.000255696576963012	0.550274355563359	0.824447264975951	0.550112088406031	0.824565175371704	0.000498222358813567	-0.00301467764335546
3.5	0.00251391771820525	-0.00140947833558732	0.671979048925171	0.728976021129241	0.671899445898738	0.72901482737736	0.000646553648292935	-0.00354796302898802
3.6	0.00268606020068913	-0.00207035289759432	0.776206298712205	0.615967782677141	0.776446965940698	0.615519003795618	0.00116605968652583	-0.00404616419214312
3.7	0.00270041645387383	-0.00339835318894242	0.862608676814185	0.487556946472752	0.862490467496495	0.487700112190002	0.00128935226981924	-0.00489814423937586
3.8	0.00209540743294835	-0.00469756932886347	0.927696230155647	0.348318229872583	0.927752787616431	0.347938967401522	0.00106727026386605	-0.00573051709727541
3.9	0.00136865539321654	-0.00612977225751538	0.970791261474333	0.198723949950765	0.970553417468225	0.199391769258881	0.000302549171213023	-0.00684229487972922
4	-0.000958323892231736	-0.0073154224145375	0.98932291741044	0.0461798527497188	0.989284101366496	0.0462827356891062	-0.000969246251169171	-0.00761093446672436
4.1	-0.00277792647557305	-0.00682182626871909	0.984592924663757	-0.107390672198104	0.984408574937248	-0.10726343249	-0.00180186139097977	-0.00761762861288063
4.2	-0.00432690142695013	-0.00655430113885753	0.955840173796887	-0.259608666641792	0.955875706164885	-0.258955006391481	-0.00257114971369392	-0.00807191985746525
4.3	-0.00582793445790939	-0.00627879323056089	0.904209224931564	-0.404315054646296	0.904073480402436	-0.404203824412025	-0.00362891270444482	-0.00864645462389888
4.4	-0.00733536322462367	-0.00586420712482262	0.830211703236192	-0.539660536208382	0.83004669796823	-0.539527089160447	-0.00484159279965965	-0.00913151937099527
4.5	-0.00952950684486642	-0.00592844575953268	0.736642554739009	-0.661422659269153	0.736453913107587	-0.661249532809171	-0.00660463611900896	-0.00987901072050533
4.6	-0.0124030796466088	-0.00402491643576175	0.624965721317608	-0.768576108262837	0.625307804013555	-0.767878192442739	-0.00878047354751825	-0.00960937642374016
4.7	-0.0141296832865955	-0.00164669593368664	0.498316960291791	-0.856170753798341	0.498333564053781	-0.85581483478795	-0.0107054202795419	-0.0092665783643447
4.8	-0.0152478853684203	0.00133482347515187	0.35902387466649	-0.922917645823137	0.359245608084553	-0.922601248391363	-0.0124964720971095	-0.00849518973276034
4.9	-0.0151570235007	0.00425549384016291	0.212044616247908	-0.966767847664528	0.211824575086512	-0.966775591220318	-0.0137598599254437	-0.00734486561853079
5	-0.0144351921712143	0.00714932485856981	0.0594868144817442	-0.988494141011506	0.0596641630586643	-0.988248604697196	-0.014463064189809	-0.00566405813229187
5.1	-0.0120665303558596	0.00977075632186154	-0.09510982515299	-0.985836182440347	-0.0947777174441581	-0.985610883108529	-0.0142480320308954	-0.00396639732667596
5.2	-0.00917788282528226	0.0113014761444419	-0.247097204825682	-0.958893703818391	-0.246604899072514	-0.958867193174013	-0.0139806059620635	-0.00255160256037384
5.3	-0.00633422495572216	0.0116937287536346	-0.392814798620294	-0.908965860053275	-0.39247396292692	-0.909182439576418	-0.0134410547283203	-0.00131097535714817
5.4	-0.00415724038184791	0.0115167087838046	-0.529319653519529	-0.837301070840688	-0.529106744324312	-0.837502166094594	-0.013062588239199	-0.000354921674782089
5.5	-0.00334748266148059	0.0121787480517686	-0.65362721833408	-0.744618411522894	-0.653388160406477	-0.744813714247333	-0.0133027543363802	0.00110992510264819
5.6	-0.00011576430056201	0.0138123991315275	-0.760689087018874	-0.633524634641956	-0.760499459243212	-0.633696868170495	-0.0120863002616334	0.00274101174757124
5.7	0.00321739162876071	0.0132674190538409	-0.849659889338568	-0.507866107633004	-0.849530704785429	-0.508086209730942	-0.011267645410207	0.00362903900179098
5.8	0.00607934296090472	0.0120124448259525	-0.918146232152647	-0.369725684167839	-0.918078610123078	-0.370010923988678	-0.0105420614389655	0.00464448497965502
5.9	0.00833881002776225	0.0093981259279764	-0.964535264025863	-0.222540452387332	-0.964549852449724	-0.222624130578153	-0.00976458206567976	0.00533433923989013
6	0.00783321497508517	0.00663315013742851	-0.986715621973328	-0.0698199709456167	-0.986596454198294	-0.0698781958457252	-0.0100963654855922	0.00612688701343094
6.1	0.00785319982617806	0.00650193612924073	-0.98544853643276	0.0835355772187293	-0.985322049260505	0.0833870105303486	-0.00916510360989702	0.00810117896720475
6.2	0.00867878672810552	0.00556172344592461	-0.960621409207487	0.235610953143945	-0.960607907715004	0.235408119964357	-0.00781260241799519	0.0088770170422901
6.3	0.00931367260647251	0.00397909188704513	-0.912277627426017	0.382005514237807	-0.912273332376953	0.381820186091849	-0.00648146257394212	0.00909596599714163
6.4	0.0096861330227223	0.0017144056445965	-0.841464419681278	0.51893160857468	-0.841433066156195	0.518721006407324	-0.0053699317089365	0.00868144760855007
6.5	0.00903746071317308	-0.000919395223597347	-0.750814666860814	0.642425444990995	-0.75083895499093	0.642221557717449	-0.0047151705118963	0.00803997056529062
6.6	0.00825242624974335	-0.00323815509593376	-0.642397577461858	0.751692586395531	-0.642471664283471	0.751440555980806	-0.00404383858119078	0.00755702960393382
6.7	0.00653019784618773	-0.00557726238372824	-0.517517781157959	0.84235807862131	-0.517620863090207	0.842137101319152	-0.00379164953726132	0.00711134942498326
6.8	0.00438103011784336	-0.0070223302647148	-0.380279203289922	0.912228094636379	-0.380421012387165	0.91205765186269	-0.00357960030877945	0.00716073669247656
6.9	0.00199657731957329	-0.00780544840752414	-0.234283711696804	0.959757633894336	-0.234510283113346	0.959647566775394	-0.00298388202694269	0.00733775370309102
7	-3.51122339055724E-05	-0.00752396846981592	-0.0828544367559509	0.985055884887641	-0.0830643160661851	0.984966267147951	-0.00210020524126044	0.00748178696216239
7.1	-0.00136370871296712	-0.00726013731671188	0.071826331745568	0.985831742874088	0.0716241491233895	0.985698859099535	-0.000924153428321725	0.00724438971018993
7.2	-0.00271443026211022	-0.00696990932200772	0.223923420345929	0.962242313599691	0.22364140282714	0.962208260448684	0.00017405450652208	0.00691192126521155
7.3	-0.00415596739585024	-0.00649740528887439	0.370278243596094	0.915695746863413	0.37004238361432	0.915722333957679	0.00119111107297866	0.00637129324990884
7.4	-0.00536188845320907	-0.00576201805367305	0.507883269582777	0.847362394353534	0.507670011722346	0.847413813823919	0.00189825847378692	0.00556945186865703
7.5	-0.00675055619481302	-0.00459295815573782	0.634002405733201	0.757812424951168	0.633833036686128	0.757882475606188	0.00239957967151913	0.00503016139629282
7.6	-0.00661067600445723	-0.00284562234866243	0.743275824198596	0.649435644346029	0.74301871311681	0.64951859473879	0.0035991403723977	0.00421937484718206
7.7	-0.00599008745832218	-0.00189959121106567	0.834591392230505	0.526301692394868	0.834406535443351	0.5265190120586	0.00430348746801243	0.00289169814631258
7.8	-0.00509330264759097	-0.0014462788516514	0.906145974424713	0.390347125490801	0.906043481233462	0.390572523091192	0.00473389690558148	0.00140184731747204
7.9	-0.00453769290125702	-0.00179261199144323	0.955786885411542	0.244728925704062	0.955649325528985	0.24490875538325	0.004692828250233	-0.000199699720831899
8	-0.00605382403429057	-0.00230563679059068	0.98095373101685	0.0930208887411849	0.980931341289386	0.0932832145952398	0.00310365722570045	-0.00162148790547081
8.1	-0.00663954802449913	0.000325242075451084	0.983384727027321	-0.0594015156492348	0.983413925449	-0.0591464470964105	0.00217674262347853	-0.00114847741445653
8.2	-0.00552220952447956	0.00214702833634459	0.962368362258762	-0.211232839419679	0.962416963610628	-0.210916303767477	0.00153885976535863	-0.00126779036817194
8.3	-0.00407415539834888	0.00352497629893198	0.917770257304633	-0.358063856662599	0.917821849454028	-0.357777198030819	0.000784214460319772	-0.00110486147155966
8.4	-0.00177319639057543	0.00403914283878453	0.85056161153658	-0.495983186198609	0.850659449555927	-0.495781707358247	0.000406987043664599	-0.000866697114257885
8.5	-0.00095339219811593	0.00276832969761388	0.76360239913361	-0.620796072071443	0.763653675987952	-0.620645685467792	-0.000492585800731406	-0.00116392554601951
8.6	-0.000641949658256087	0.00389642205898096	0.658417174806437	-0.732297303346425	0.658585428708929	-0.732060488868671	-0.00108849334950553	0.000214392729744856
8.7	0.00123498761167843	0.00460176725948888	0.536396308243639	-0.825595919391625	0.536655218074418	-0.825380818662703	-0.000625222146838833	0.00107760859270067
8.8	0.00367556911821089	0.00454082951328779	0.401730368964469	-0.89846732436783	0.401915402125418	-0.898328504941436	-0.000125475526965245	0.00161537995927257
8.9	0.00649288371385453	0.00350437383777122	0.257828517254758	-0.949512919876243	0.258007248695774	-0.949343120787917	0.00104803183296327	0.00223282782157594
9	0.00888455229093332	0.000746438751039977	0.107725139583319	-0.978649957526676	0.108033123428933	-0.978603250615447	0.0027249068396188	0.00216342853538861
9.1	0.0104748636866636	-0.00216878751133149	-0.0461747545008633	-0.983262339422836	-0.0458659159505223	-0.983221470613439	0.00490879369409689	0.00155508881198863
9.2	0.010978912246229	-0.00586106221114242	-0.198062336601686	-0.963609360143833	-0.197715273864684	-0.963587145820093	0.00682284008707871	-0.000171259770572426
9.3	0.0099060701652526	-0.00875789900598211	-0.344758664983087	-0.921134918009723	-0.344407313432919	-0.921109322671447	0.00812995059626359	-0.00212289230480788
9.4	0.00829945295622784	-0.0109861394094212	-0.483277185949685	-0.856998235784511	-0.482954313428442	-0.857088765132307	0.00905441295317151	-0.00452633690111334
9.5	0.00518346159433785	-0.0108055613299854	-0.611197009252094	-0.771200746002719	-0.610960257338175	-0.771251031549818	0.00843361015960234	-0.00656934745268953
9.6	0.00568761068133117	-0.00942259791999172	-0.722663935623602	-0.666314426501311	-0.722352858058156	-0.666452915229406	0.00873719461341383	-0.00849400156530991
9.7	0.00616573437504358	-0.00980625991359893	-0.816873525087749	-0.546421829500834	-0.816586380749785	-0.546654267013466	0.00719152650425669	-0.0113963337396722
9.8	0.00630252924375241	-0.0105266714969636	-0.891786159972139	-0.413278823924814	-0.891533114371969	-0.413447385213009	0.00443157189677409	-0.0132948570479765
9.9	0.00619344510345776	-0.0118100330144514	-0.945319935893584	-0.269588681528057	-0.945067831886431	-0.269797166252261	0.00138569916031365	-0.0143810105789834
10	0.00330780841003655	-0.0129647431930208	-0.974496333299349	-0.119259761660358	-0.974343007353174	-0.119621276939378	-0.00311514862300458	-0.014404306367803
10.1	0.00224883350335776	-0.0106373936879925	-0.981067367871757	0.0322845285554278	-0.981003524167408	0.0318540494157621	-0.00607077272039932	-0.0120975419918703
10.2	0.00279019403040638	-0.0100026122906295	-0.964552710821935	0.184059945076924	-0.964430564894506	0.183629688826273	-0.00846508560966755	-0.0101858626998828
10.3	0.00316749242787341	-0.00998773253772646	-0.924189081257969	0.331625209926393	-0.92420592367004	0.331084689404468	-0.0106595003568392	-0.00777520405009226
10.4	0.00359455225375924	-0.0111933373603306	-0.860914465065384	0.470653703897523	-0.861050408129134	0.470143508481454	-0.011957854154852	-0.00524630505014396
10.5	0.00206015782497517	-0.0132276714500494	-0.77796931733531	0.59712925205679	-0.778140975275258	0.59669810786323	-0.0129889955550405	-0.00316175171681538
10.6	-0.000544048177162854	-0.0133967882110893	-0.676753195608798	0.711082153063742	-0.677024504916529	0.710752257257744	-0.0136200628484213	-0.000248967190157354
10.7	-0.00240855651865993	-0.0122711029608615	-0.558148347156378	0.807651937792359	-0.558447931001359	0.80734262509242	-0.0130515943113595	0.00296930731530294
10.8	-0.00295296134591202	-0.0111738691586702	-0.426065869663161	0.884236374100573	-0.426415517020907	0.883938184084354	-0.0111533771486121	0.00595391008851008
10.9	-0.00326386249878044	-0.0101967545912166	-0.284320096279223	0.939306272574086	-0.284709279188416	0.939182788943836	-0.00874766622418398	0.00808231487023632
11	-0.0035639188838124	-0.00964055741046077	-0.135667383470227	0.973260543471848	-0.136103848083323	0.973168954550692	-0.00588467791646206	0.00949575290361533
11.1	-0.0032170261892775	-0.00910328300000862	0.0180034003860678	0.982348802691381	0.0175150438990117	0.982361608674877	-0.00247970012744171	0.00996235055084852
11.2	-0.00299710083965521	-0.00937801043254252	0.17002945611256	0.967295027258908	0.169572799346963	0.967367380596805	0.000801570961646564	0.00946813299336418
11.3	-0.00300688070954635	-0.00983478468628024	0.317637655939916	0.929347603298059	0.317178928555214	0.929483283852582	0.00407552937714468	0.00837006291662584
11.4	-0.00361850700433878	-0.0109548621336146	0.458026511444215	0.869538086221546	0.457622685871393	0.869650418337123	0.00692358878002407	0.00653068433692783
11.5	-0.00597019421826617	-0.0105157343422761	0.588513133541877	0.787368787899598	0.588194432272628	0.787670784084836	0.00851518423075565	0.00474273805110599
11.6	-0.00591297507362196	-0.00906055118057648	0.702574989628467	0.685903478471225	0.702359708451262	0.686230589743038	0.0108415941004973	0.00273023567422093
11.7	-0.00569693861442655	-0.00885592868962503	0.80020345354024	0.56905522285047	0.800000123177551	0.569361067629688	0.0120585221926697	-0.000253000623288279
11.8	-0.00586855700891597	-0.00921872663116443	0.879109755707323	0.438150111716001	0.878927503624581	0.438600206838539	0.0123134090282824	-0.00320698441053996
11.9	-0.00618397403918348	-0.0104281257557182	0.936859000218201	0.296070463055942	0.93675286749217	0.296519974518954	0.0120045767920583	-0.00616633051299764
12	-0.0107597981935901	-0.0113896596846071	0.970302190132766	0.146816483756302	0.970273265469433	0.147180252742951	0.00935077879439565	-0.00895329331373575
12.1	-0.0132914540629899	-0.00826754858487592	0.981470584121025	-0.00439758494449881	0.981399103598178	-0.00401361356051002	0.00784165340084311	-0.00988423260567083
12.2	-0.0146144174268217	-0.00566001438775478	0.969395536546365	-0.15675920688786	0.96941253980499	-0.156461415251789	0.00589428267128766	-0.0110811548814102
12.3	-0.0151278487761307	-0.00269848738597486	0.933166874007845	-0.305524316039593	0.933285904538303	-0.305217725658313	0.00383264444888472	-0.0116803344524188
12.4	-0.0145403714678423	-0.000434725355609554	0.874054229236739	-0.446522861713704	0.874116871115825	-0.446153586743658	0.00213923932100141	-0.0120124128265342
12.5	-0.0147902256437804	0.000483973626635285	0.794722851726474	-0.575460761807616	0.795061840725672	-0.575069940170318	-0.000286290143778329	-0.0127213473888873
