# GHZ S RI R 50
0.2	5.45185070923233E-05	-0.000840014127923856	0.952169096230754	-0.307157859607819	0.951946193751344	-0.307132737235627	8.91983956501502E-05	-0.000776147355843621
0.3	-0.000537822589738996	-0.000827615269388824	0.89309609908409	-0.451228590575458	0.892939172371705	-0.451133227219795	-0.000563851519786287	-0.000992418853550259
0.4	-0.00108177424516884	-0.000447164039200162	0.812602181605568	-0.584512309454419	0.81261408511455	-0.584537507910089	-0.00124877791076501	-0.000695049375110859
0.5	-0.000810514002221399	0.000882597266331023	0.711792976413528	-0.704912793817359	0.711636973456306	-0.704811011216812	-0.000952242185821906	0.00062864917974174
0.6	0.000156303623644586	0.000189953095226542	0.592952353636211	-0.80644340569832	0.592832303859004	-0.80628106010304	-3.20508990855976E-05	-0.00019069948555404
0.7	-0.000251700195394375	-5.06784080320456E-05	0.460768893520232	-0.888720988840698	0.460749851837087	-0.888607913725592	-0.000470505184728936	-0.00071086361656368
0.8	-0.000453634795972848	-0.000183178790513238	0.317051031098779	-0.950024352640544	0.317019232285224	-0.94983349686201	-0.000991627286128761	-0.000864827269730048
0.9	-0.00146277475894632	-0.000196951190943813	0.164902826613131	-0.988114767477592	0.164837313092771	-0.988022270555158	-0.00235326419106838	-0.00102378051181707
1	-0.00218983441916189	0.00259551416064007	0.00875282783986791	-1.00050898083512	0.00870089113056459	-1.00047732004763	-0.00347859483671416	0.00200127119155091
1.1	0.0011025813444951	0.00245959027346466	-0.145712242228337	-0.990207109908095	-0.145728180734493	-0.990075875495756	-0.000510173872534825	0.00228088948367991
1.2	0.00160028818927399	0.000334181899144662	-0.298507771725308	-0.955993919285382	-0.298430867539804	-0.955967627219475	0.000124412580490994	0.00155884759819821
1.3	0.00193346433404278	-0.00210009160197913	-0.444034921162627	-0.897730179952174	-0.444011717133736	-0.897723531178664	0.00176552546606997	0.00131733102819177
1.4	0.00160420155597053	-0.00469590290003013	-0.577964568158801	-0.817094549281457	-0.577940201500111	-0.817072796603396	0.00345870899421195	0.000165490185810186
1.5	0.00281472209123885	-0.00695908884671086	-0.697005030453972	-0.718021084340163	-0.696902571748637	-0.717935557012791	0.0067089605201915	-0.0024218430213961
1.6	-0.000822459335280004	-0.00969661186315135	-0.80175581595351	-0.601434155549846	-0.801681057215605	-0.601373674999304	0.00346470350355681	-0.00638272495837227
1.7	-0.00320737510888084	-0.00766284967428117	-0.885574480688789	-0.468973641231103	-0.885739033212164	-0.468452633604578	0.000977973377877326	-0.00556748097415961
1.8	-0.00435031786027642	-0.00582582904255179	-0.9476492436229	-0.324604367302652	-0.9475370434256	-0.324603323798733	-0.000565225437233378	-0.00475051478231842
1.9	-0.00494960860325994	-0.0029114271573679	-0.986165535124179	-0.174037662252471	-0.986257773000119	-0.173545764756747	-0.0016529808071913	-0.00250757824141496
2	-0.000961902924888802	-0.00135476756243755	-1.00279912740688	-0.0179387464114419	-1.00281102747718	-0.0178923867618674	0.00226483584483158	-0.00142481460064377
2.1	-0.00208283037015781	-0.0049687783163587	-0.992604099711941	0.140418605204221	-0.992642355442923	0.140456292348343	0.000928950272684868	-0.00574148929293506
2.2	-0.00472155305930813	-0.00418319020079387	-0.957682963209791	0.293007896656596	-0.957606784988108	0.293070756950595	-0.00172562314307771	-0.00540442436215942
2.3	-0.00623262362169146	-0.0026546100673271	-0.900352822917666	0.437656820565312	-0.899963705060153	0.438171829757441	-0.00337375355585533	-0.00455587130082314
2.4	-0.00783402021538521	-0.000144049269297166	-0.820706642085173	0.573903697119393	-0.820980222600708	0.573314474180674	-0.00520146461939705	-0.00259109058330322
2.5	-0.00516982145521672	0.00407179066738854	-0.719916076527847	0.696206534767345	-0.72013707530709	0.695694236507836	-0.00247651327704332	0.00077303519462195
2.6	-0.0027682639395381	0.00181888761710961	-0.601537677109663	0.797310384669899	-0.601432870089421	0.797125276628815	5.63676909989494E-05	-0.00245438754046226
2.7	-0.00337855824389756	0.00105984009165925	-0.469886082721633	0.880639371192855	-0.470342371318394	0.880234817628007	-0.000998270995981103	-0.00432530106819804
2.8	-0.00385948575073807	0.00125151819621283	-0.328130499499276	0.942390623129437	-0.327456945718958	0.9425426799905	-0.00257419742512027	-0.00488869450471868
2.9	-0.00327345956592636	0.00211635973851537	-0.175719808486616	0.981664914809414	-0.175752377119027	0.981577474796003	-0.00317336537397001	-0.00387620218505879
3	-0.00182433861886145	0.00163883144401064	-0.019462815862534	0.993932379353057	-0.0201678131100545	0.993783324940033	-0.00262440835423129	-0.00378532407771672
3.1	-0.00203453576780477	0.00169430917565009	0.131657444816732	0.984716606178745	0.132249100638686	0.984691497929082	-0.00353715707213935	-0.00326423446838598
3.2	-0.000962014912094592	0.00218904661075525	0.283971932172414	0.952131272592397	0.283916234608395	0.952071534818324	-0.00312436712280611	-0.00178876638180682
3.3	0.000401294425089661	0.00201516883813179	0.42883386754607	0.89527736635684	0.428696315414297	0.895265033644014	-0.00211595920217407	-0.000945926436428709
3.4	0.00190311631376898	0.00183378590620703	0.561805073785707	0.81600646788109	0.561644606292681	0.816126641742828	-0.000338783299722402	-0.000309231916061801
3.5	0.00471175348969515	-0.000957860548596277	0.678980750749266	0.719794209860512	0.678901753824436	0.719833850607917	0.00278772317195832	-0.00250027483094319
3.6	0.00229133915480462	-0.00395383666513946	0.783596772388025	0.606714042964702	0.783832085128428	0.606262371124226	0.000739797403060389	-0.0051622925354204
3.7	0.000895074306193815	-0.00414869527537413	0.868202256322485	0.475711719391279	0.868086049024256	0.475856305114368	-0.00038204522158955	-0.00484217281656658
3.8	-0.000290840421144174	-0.00423892581590373	0.930011865227988	0.335235815766971	0.93006328486686	0.33485673811511	-0.00104047724625529	-0.00455817905892125
3.9	-0.00103449779569157	-0.00320028512483717	0.969741529813194	0.18659190091535	0.96951238490337	0.187260189720372	-0.00175628846649274	-0.00342107563410671
4	0.00167467217174228	-0.0031322260256231	0.988847361834448	0.0349543849011923	0.988809747464244	0.0350576027369152	0.00175183013730138	-0.00319422588423476
4.1	8.75684752668175E-05	-0.00720975428044959	0.980774799578605	-0.121327117838673	0.98059270809895	-0.121197515858065	0.00086740880299434	-0.00761169067426191
4.2	-0.00307123627538437	-0.0077245284072364	0.94789492635159	-0.272043371963053	0.947939594320211	-0.271393126138981	-0.00153480066465797	-0.00868132348580814
4.3	-0.00580567062476687	-0.00771346894625992	0.893900128536277	-0.414300198703859	0.893766611398226	-0.414187741636565	-0.0037717421649464	-0.00942877355798759
4.4	-0.00931729790975688	-0.00609734520990373	0.819097866386461	-0.547852831827165	0.818935411870598	-0.547717884915033	-0.00687922424754191	-0.00876134506618789
4.5	-0.00927774280113181	-0.00227012498728774	0.721865914985887	-0.669957714259791	0.721681118805725	-0.669782422142755	-0.00653206132875984	-0.00588931902598034
4.6	-0.00930228958338313	-0.00318156425528786	0.606787777787235	-0.77076974012877	0.607137399506075	-0.77008405341026	-0.00623456896456164	-0.00832736877239753
4.7	-0.0114595948289244	-0.00243476386621166	0.481072362066106	-0.853747693417288	0.48109370221303	-0.853395872830383	-0.0087647098497251	-0.00933732850927449
4.8	-0.0131543850940825	-0.000521340082676703	0.342842223906498	-0.917261748400845	0.343065626684326	-0.916951827033183	-0.0111709210725167	-0.00935000280131945
4.9	-0.0139250479578899	0.0020145594915254	0.196003375421005	-0.958165288407361	0.195785858245997	-0.958169865591429	-0.0132197432311088	-0.00831392874493825
5	-0.0129734680220007	0.00396667743668547	0.0449448079077914	-0.972831081641659	0.0451225658483437	-0.972592069600698	-0.0135954646150367	-0.0072745003922446
5.1	-0.0136137872213072	0.00565350072182954	-0.102581326432049	-0.968201359867651	-0.102252787173449	-0.967982951989189	-0.0160039625393332	-0.00623945272633408
5.2	-0.0127522996591774	0.00912978833432865	-0.251112997473373	-0.941126606119682	-0.250628524499755	-0.941104666854838	-0.0172780865894157	-0.00291069335763335
5.3	-0.0103704319432564	0.0123161924708388	-0.393463228578086	-0.890252520239735	-0.393129970913976	-0.890468158955736	-0.0168514861498732	0.000819672311735062
5.4	-0.00588871199432194	0.0156781946876554	-0.525073884474365	-0.817305485087082	-0.524866536114458	-0.817504213779798	-0.0141484781138922	0.00486996638588547
5.5	0.00150336031718979	0.0129192664752774	-0.641918910188575	-0.728300653465955	-0.64168506220387	-0.728492490620348	-0.00822177591645699	0.00274118802278946
5.6	-0.00026428041812257	0.00998633474742166	-0.74882860585292	-0.621688066172152	-0.748642436693699	-0.621857684394755	-0.0120607810359015	0.000165623691595829
5.7	0.000141009359256803	0.011362434913316	-0.835937555875089	-0.49758512185401	-0.835810993468962	-0.497801664860565	-0.0138697592545908	0.00301111646076155
5.8	0.00180073123931924	0.0125736060458933	-0.901734676359716	-0.362341107450471	-0.901668490053141	-0.362621214437074	-0.0140659966334037	0.00626894190512745
5.9	0.0043575253045792	0.0148125542057188	-0.946165578752148	-0.22042004493396	-0.946179721879586	-0.220502200271469	-0.0129288529595981	0.0112506460032325
6	0.0132971830956557	0.0140813436238824	-0.972261215357738	-0.0723819664883339	-0.972143552364622	-0.0724389224596794	-0.00455107980632763	0.0135709257922439
6.1	0.0145258080137336	0.00587942528890349	-0.970631552753834	0.081572920831711	-0.970506869022167	0.0814266871459617	-0.0030400116836134	0.00797058998216834
6.2	0.0129431585036173	0.00229994987594229	-0.944995570174691	0.229876274477946	-0.94498191535547	0.229676858785543	-0.00414980322997365	0.00660380256787633
6.3	0.0110168146750944	-0.000473275687884525	-0.898355287415422	0.372172967893812	-0.898350372504269	0.371990773658621	-0.0051349711468127	0.00600508337865675
6.4	0.0088836480100159	-0.00167514824347834	-0.831483205490638	0.506801392645426	-0.831451239981021	0.50659411765482	-0.00619632088646615	0.00674084859605516
6.5	0.0079802336163936	-0.00303372148776066	-0.74116986979738	0.631629287046605	-0.741193406557879	0.631428312560904	-0.0055085098165326	0.00731063419234782
6.6	0.00619013388417558	-0.00403615009698848	-0.633484253490847	0.73534319243223	-0.633555994928199	0.73509551782005	-0.00555543088730472	0.00788623244659397
6.7	0.00533667562068102	-0.00467807098645393	-0.513937651266039	0.823683444545587	-0.514037375558693	0.823465741457043	-0.00443071299668819	0.00876848780178617
6.8	0.00454608478757733	-0.00583236201687928	-0.381301067376121	0.893932471068619	-0.381439133168196	0.893763727389378	-0.00308008572212442	0.00885050745385958
6.9	0.00349037209626174	-0.00700039481502967	-0.237594377317169	0.942814321241503	-0.237816547955285	0.942704341455209	-0.0015161902339372	0.00864186362812766
7	0.00182657217511081	-0.00907171540829213	-0.0890191632287292	0.964707780108506	-0.0892241357538424	0.9646182875025	-0.000536586476625392	0.00655811113402488
7.1	-0.00156006733470994	-0.00897868182199515	0.0573630109512362	0.968456470847573	0.0571663576235961	0.968323365824664	-0.00154282627602367	0.00637568295008722
7.2	-0.00338328999004542	-0.00804616471815432	0.206578466239318	0.949790313682894	0.206301518035286	0.949752797286573	-0.000943000600983306	0.00686994549930824
7.3	-0.00499318392235008	-0.00716022285537625	0.351310164550529	0.906850129274562	0.351077576664646	0.906872896910391	-0.000101439580079605	0.00691063953014703
7.4	-0.0059332252735638	-0.00578076106256773	0.486416674581077	0.840913306452903	0.486206207327116	0.840960604692301	0.000927798224887984	0.00693384063884594
7.5	-0.00560027995336946	-0.00595200087199441	0.607710239615839	0.759173985257826	0.607542091927983	0.759239307375107	0.00306133224734149	0.00526948551818705
7.6	-0.00823757426094365	-0.0063372109533517	0.721458678738489	0.658646582197288	0.721202479259584	0.658723115045954	0.00181003452640011	0.00274053752269634
7.7	-0.0102777611728834	-0.00401009397376422	0.815841835478831	0.538636546507412	0.815654216505832	0.538847993746362	0.000357378251797755	0.00276593897599215
7.8	-0.0110122028847365	-0.000953340026296244	0.88968468781074	0.406230472147938	0.889578292077613	0.406451659707638	-0.000460255824527208	0.00356096336401556
7.9	-0.0102982287750735	0.00361169893824082	0.942404178429714	0.265814516241566	0.942263368731171	0.265989625405054	0.000136117753260807	0.00644932374234959
8	-0.00306472418631872	0.00631321767612923	0.977368306299138	0.117092171356505	0.977339476187252	0.117353599712991	0.00605598500002024	0.0075041468650609
8.1	-0.00119696281601705	0.00169093351136386	0.983701398750728	-0.0391039049606154	0.983725319720176	-0.0388484703777724	0.00717775559439564	0.000902523328305806
8.2	-0.00175619997227104	0.00101457783681292	0.965366090156077	-0.190748249080849	0.965407984874952	-0.190431164993715	0.00462423804359778	-0.00121350525421697
8.3	-0.0020825177015152	0.000770811602772981	0.92541863190808	-0.337567694574335	0.925463842064508	-0.337279984754091	0.00217039219929359	-0.0022697491603026
8.4	-0.0033929019757835	0.00192816217246434	0.864598552250704	-0.478161750344966	0.864692105940902	-0.477957394812663	-0.00152666199708414	-0.00125743746409181
8.5	0.000563591524881565	0.00588009458368146	0.778365535520066	-0.610426576692321	0.778414415663873	-0.610274534763916	0.000611783703326375	0.00339986253808293
8.6	0.00356055942605941	0.00107895904961195	0.673213906200107	-0.721131718842535	0.673377990612834	-0.72089136656917	0.00239848831785549	-0.000693190835334196
8.7	0.00212934208380812	-0.000488283746297609	0.555213096245467	-0.817227225639564	0.555468413068648	-0.817006069894894	-0.00017373899801461	-0.00156760974907898
8.8	0.00157169338818064	-0.000712715566213841	0.422586861920373	-0.895387619757872	0.422770104200888	-0.895244180134254	-0.00209006462798937	-0.000870802778221873
8.9	0.000978762307858022	-0.000151561054987728	0.276967307172911	-0.952154746163628	0.27714434465986	-0.951980412168833	-0.00356855141926648	0.00125881003865805
9	0.00311917607241157	0.00116838937804525	0.125142118636901	-0.980159713911773	0.125450354546367	-0.98010748184914	-0.00167257130456597	0.00472400467679034
9.1	0.00459988514608532	0.00016817225462112	-0.0248842919545294	-0.990489989919228	-0.0245743986168579	-0.990442083873017	0.000536284342627117	0.00551188564432748
9.2	0.00694225406177803	-0.000101206186958557	-0.179809061024562	-0.977234843598135	-0.179459051917098	-0.977205135320444	0.00419988655057414	0.00662168353473825
9.3	0.00965973927300127	-0.00179841240487816	-0.331135527848255	-0.938009503034518	-0.330780722653	-0.937976949879961	0.00889547718070664	0.00541164213634221
9.4	0.0119842816518872	-0.00350230878880147	-0.472855832208271	-0.873965526787309	-0.472528187752102	-0.874051230921497	0.0130669857805541	0.00324515860672444
9.5	0.0160198514179796	-0.0106995154020683	-0.60011296015664	-0.793434807053653	-0.599872522920902	-0.793480216989989	0.0185755106388346	-0.00579288754095014
9.6	0.00883316972443518	-0.0158623222083613	-0.721012662368464	-0.692596070684441	-0.720693449388453	-0.692730429234803	0.0111803847350938	-0.0132862721768125
9.7	0.00492917756036097	-0.0144641801446684	-0.821630710081707	-0.570792561937479	-0.821334285406318	-0.571023994331014	0.00575713525676094	-0.0140487680405937
9.8	0.00263991836043077	-0.0130052428913357	-0.900711249836552	-0.435737700600401	-0.900450837299322	-0.435904990820441	0.00104247465744873	-0.0138394291864127
9.9	0.00109773136184096	-0.00901091479250112	-0.958036887172297	-0.29206975772608	-0.957776220322916	-0.292277493793696	-0.00316716533000132	-0.0102908937736818
10	0.00752538195981086	-0.00820689746994179	-0.997674820046849	-0.139066987110985	-0.997511322626502	-0.139435229342791	0.000939123442714545	-0.00884335985678204
10.1	0.00481194023972603	-0.0136164958437267	-1.00619261970098	0.0224747276393264	-1.00612250106228	0.022034069025427	-0.00407998950550604	-0.0136897116757661
10.2	0.00145126074638681	-0.0129110396988272	-0.98966805299422	0.178898508484498	-0.989538674381904	0.178459082473998	-0.0101388626267259	-0.011391328115329
10.3	-0.000653723558390397	-0.0112580796346905	-0.950696505473802	0.33090242994529	-0.950708469062285	0.330348143753162	-0.0144938809084536	-0.00739510039180309
10.4	-0.0022253578290324	-0.00838970946742709	-0.889834312039553	0.476941326896648	-0.889969844055833	0.476415210915712	-0.0176127428155862	-0.0011886113363507
10.5	0.00105187101657916	-0.00485017890781259	-0.801321034028761	0.614786875235006	-0.801497723482198	0.614342823879586	-0.0141575335372639	0.00601135519429416
10.6	0.003950255304534	-0.00724415428976205	-0.693272034215322	0.729123722514209	-0.693550261774938	0.728785738162354	-0.0100059490036941	0.00663172251466133
10.7	0.00421803770282622	-0.00953870633612487	-0.571969719172042	0.828208533241447	-0.572276961158079	0.827891513559521	-0.00783083041924698	0.00685738629186816
10.8	0.00306505988472591	-0.01160663829993	-0.435451380025534	0.908408264635801	-0.435810854743854	0.908102947382532	-0.00667994029551628	0.00715102138522388
10.9	0.00167590143600558	-0.0124015133705729	-0.285642376745157	0.966022446904853	-0.286042666422257	0.965898265334467	-0.00499553973035618	0.00819300409905424
11	0.000721156251670355	-0.0139477762925972	-0.130396011885726	0.993374897889637	-0.130841747121639	0.993285072337539	-0.00264920147120257	0.00778162372862046
11.1	-0.00197119723222705	-0.014035048869623	0.0226012658411483	1.00294914734726	0.0221026851920626	1.00296432059024	-0.00205371193098467	0.00806912916803573
11.2	-0.00341292587566526	-0.0135629359586192	0.180044771073437	0.98826779447523	0.179578163105056	0.988344695308658	7.81482828428122E-05	0.00855935692693671
11.3	-0.00460846924343705	-0.0127639074884308	0.333247547663215	0.947067274762488	0.332779879363931	0.947210191463055	0.00252229281673435	0.00881832803998421
11.4	-0.00487237411902077	-0.0108926400117234	0.476069540812851	0.880669285869632	0.475659445330667	0.88078813298879	0.00603859953706751	0.00961378041318569
11.5	-0.00224859151105148	-0.013553662928191	0.603601391349684	0.798615376291606	0.603278485085028	0.798924650429384	0.0125224053430136	0.00454442824854465
11.6	-0.00810579604242871	-0.0159638673558417	0.724963213666987	0.695500507366201	0.724745872714302	0.69583711255023	0.00938018506561141	-0.000846895108229855
11.7	-0.0116733156363698	-0.0132296905255237	0.824810869319189	0.571430751785238	0.824606940183839	0.571745823919629	0.00757404760541522	-0.00153044996905669
11.8	-0.0142717798432806	-0.0101806999488653	0.90237380614225	0.43454449376747	0.902194223124127	0.435005917194877	0.00596762328088149	-0.00168240688024562
11.9	-0.0153318606422827	-0.00387325055231559	0.957735492596014	0.290153517158501	0.957632861626572	0.290612609019802	0.00490881423635275	0.00154886347406942
12	-0.00780495881547821	-0.0010455590329969	0.995758154714487	0.136743010446507	0.995733636364073	0.137115956538223	0.0136519635453437	0.00180368128675873
12.1	-0.00962932321880854	-0.0045616619739481	1.00192685656438	-0.0242479984615379	1.00186160965935	-0.0238545504991679	0.0115502336396313	-0.00596734002621469
12.2	-0.0109672640531092	-0.0033948419668884	0.983443969420749	-0.179503795521115	0.983467404550698	-0.179201047163749	0.00902260653043804	-0.00815536631627617
12.3	-0.0114055784953147	-0.00229682864396254	0.9428177400201	-0.329732784130965	0.942945041469909	-0.32942340295184	0.00677141035272106	-0.0101871545590589
12.4	-0.0128679392652046	-0.000432884645265073	0.881108450960883	-0.473842373037888	0.881180232905182	-0.473467406393831	0.00312123233721128	-0.0106753729582231
12.5	-0.00991928897356802	0.00300743690978076	0.791192836999298	-0.609143881920765	0.791549354575987	-0.608756471302832	0.00339913917382715	-0.00917576113341517
12.6	-0.00913730224204342	-6.59566146702971E-05	0.683489512162459	-0.719706319557789	0.683749989338268	-0.71946792941106	0.00149477222730024	-0.0136680872094511
