# GHZ S RI R 50
0.2	-0.000143221312045944	-0.000145028710113723	0.949164540727044	-0.308050674040407	0.948942258750374	-0.308025221767412	-0.000157523699894771	-2.66099291956616E-05
0.3	-0.000239874888287385	-0.000112117590375778	0.889142966017837	-0.45173645256466	0.888986769844332	-0.451641052989302	-0.000328367983706591	-0.000157132331797043
0.4	-0.000114352954844476	-9.76715676227337E-05	0.807622154318415	-0.583994354752987	0.807633943532593	-0.584019473415565	-0.000324175994005714	-0.000162093227061506
0.5	-0.000244360258077441	-0.000123831525246285	0.706911742645695	-0.70228650691333	0.706756726935885	-0.70218502018177	-0.000415633801349914	-0.000184576519688115
0.6	-0.000256833765998203	2.56514051371072E-05	0.588901193042638	-0.803348233113649	0.588781962122173	-0.803186509618395	-0.000530495558529311	-0.000100934177532852
0.7	-0.000212883290112683	0.000240898527897664	0.456771838851757	-0.884647594461853	0.456753089973972	-0.884535103770748	-0.00050993876404222	-3.87232301937842E-05
0.8	1.28438388322234E-05	0.000288674501926589	0.313739990480624	-0.944583709040559	0.313708659097678	-0.944393991402377	-0.000518246610400422	0.000112159826246662
0.9	0.00022516639861218	0.000385076490833681	0.16323115085034	-0.981509610585306	0.163166133240284	-0.981417703867318	-0.00045642138256783	0.000145393684966996
1	0.000451620689703408	6.98222039789866E-05	0.00881315405615662	-0.994661943027674	0.00876151723464986	-0.99463047298583	-0.000330064075245507	-0.000131236059419794
1.1	0.000521176063042179	-0.000176381685734661	-0.145656393426045	-0.983810502181302	-0.145672116118228	-0.983680084524344	-0.000635523014546069	-0.000321213394843763
1.2	0.000815996447041038	-0.00126273501105411	-0.296718394049093	-0.94897480232002	-0.296642035113803	-0.948948729596833	-0.000470652697220819	-0.000218163468694248
1.3	0.000880516761963885	-0.00303297018580035	-0.44035544497511	-0.891150661958662	-0.440332417823251	-0.891144054380508	0.000531656550434726	0.000155617520825852
1.4	0.000796769322724379	-0.00501379463308288	-0.573050523317605	-0.811852141630288	-0.573026351355729	-0.811830519767118	0.00215751653298142	-0.000155549378709183
1.5	0.000406806581233452	-0.00594591091558482	-0.692200429659696	-0.712813518859223	-0.692098680840892	-0.712728615388742	0.00352112291456475	-0.00100583354928894
1.6	-2.12584231831448E-05	-0.00627970203780047	-0.79421316344545	-0.596469425437504	-0.794139110540442	-0.596409447450697	0.00360692014367216	-0.00192109827498313
1.7	-0.000651405673633546	-0.00611763313115188	-0.876610665142756	-0.466368193777208	-0.876774700680646	-0.465852249502296	0.00336745598744291	-0.00267431268563312
1.8	-0.0013796954337582	-0.00580091963008826	-0.938414924284543	-0.324162874499486	-0.938303721360009	-0.324161551820591	0.00268395577294738	-0.00342202500406353
1.9	-0.00203788974547567	-0.00534994636274396	-0.977089851049205	-0.174924488953644	-0.977182483654025	-0.174437131647125	0.00183663562830533	-0.00396830157521464
2	-0.00286659103908934	-0.00482851774313437	-0.991980187185496	-0.0205429698331163	-0.991992088732037	-0.0204971412248184	0.000692242460213279	-0.00432724511549019
2.1	-0.00335766951430703	-0.00407028301574111	-0.982957722106092	0.133544451134993	-0.982995781696075	0.133581534782217	-0.000256643303914578	-0.00399536353474101
2.2	-0.00404910484110984	-0.00352904206826079	-0.950277552714119	0.284348421756051	-0.950202489617513	0.28441114360505	-0.000734099866715806	-0.00372585037231887
2.3	-0.00472634801384521	-0.00273710379430034	-0.894683770003675	0.427726995653594	-0.894301640679952	0.428239656545891	-0.00123165890571902	-0.00371311976455655
2.4	-0.00539145579914968	-0.00188007825477654	-0.816472090029418	0.562334788539433	-0.816738760981847	0.561749581041954	-0.00184210860684325	-0.00381809334762224
2.5	-0.00591858283266439	-0.000752921253894343	-0.719553413500521	0.681915083468259	-0.719767036168892	0.681405789277842	-0.00257359453847228	-0.00428786264233578
2.6	-0.00600776199908584	0.000651684798739272	-0.605376858012273	0.784928481293437	-0.60527089545403	0.784745880742639	-0.00337060320075135	-0.00397235374669384
2.7	-0.00542264122013252	0.00181593903354585	-0.475630560730205	0.86944153922934	-0.476079378683678	0.869035167212551	-0.00370501834464228	-0.00352501987385995
2.8	-0.00435293589460055	0.00250261994209962	-0.336199220089742	0.932067147111555	-0.335532134533913	0.932225557322062	-0.00384763130904863	-0.00312357244393996
2.9	-0.00287090813391021	0.00267009680283395	-0.187014428282725	0.972865105930872	-0.187045668289568	0.972777837165408	-0.00345343140053984	-0.00251579714319423
3	-0.00152459296763861	0.00238790316150883	-0.0330791931038883	0.990218918068131	-0.0337796943701952	0.990060674383777	-0.00296208785179609	-0.00193097792632845
3.1	-0.00019128778382932	0.00190576273883823	0.119610684824304	0.983273067870815	0.120200834724484	0.983255033238074	-0.00203445466714792	-0.00149072500282405
3.2	0.000723398037261212	0.0011022621361724	0.271252976585829	0.952565524930555	0.271198199749774	0.95250529048507	-0.00144702106437492	-0.00139542751486767
3.3	0.00166066676319077	0.000197783813103955	0.41589316709998	0.898818082251668	0.415756111111977	0.898803950180834	-0.000655277199178212	-0.00141191616103584
3.4	0.0021740887498541	-0.000985839748392437	0.550299941881569	0.823411107848871	0.550137884440546	0.82352901506634	0.000155037879492262	-0.00200933039528103
3.5	0.00247947336750713	-0.00212516792490356	0.671432073127594	0.728031671536419	0.671352564927371	0.728070455196126	0.000440929103657402	-0.00253737427118664
3.6	0.0023703673064984	-0.00331966988929649	0.77567264702346	0.615378254209106	0.775913064816357	0.614929799024675	0.00076847410966933	-0.00298664944478146
3.7	0.00195026179205505	-0.00450229983274876	0.861996496524488	0.486975508449343	0.861878414531086	0.487118580277343	0.000957480505788273	-0.0035810288797999
3.8	0.00107122082149079	-0.00544169744059273	0.926872041132848	0.34785162321047	0.926928488884766	0.347472710430858	0.000890786077275839	-0.00431628568853364
3.9	0.000232675625842385	-0.00617036612845468	0.969759681229415	0.198592880270007	0.969522033220588	0.199259981932062	0.000213211922245198	-0.00539574714552865
4	-0.00108891169409942	-0.00659329103868818	0.988611404910181	0.0464792710912649	0.988572581658513	0.0465820686277224	-0.000826984571719198	-0.00615678529905607
4.1	-0.00219618826131322	-0.00684993181491753	0.983953381548396	-0.107288580264716	0.983769148089562	-0.107161429639412	-0.00179401484130872	-0.00640418172677579
4.2	-0.00378416520437197	-0.00704499911456651	0.955097844667432	-0.259321474878685	0.955133294136159	-0.258668334116915	-0.00265189433625266	-0.00676891032638756
4.3	-0.00551889314849768	-0.00706901156744832	0.903572539078662	-0.403784857817022	0.903436878698924	-0.403673747872652	-0.00373004837281738	-0.00735734125338
4.4	-0.00761568923931756	-0.00653923382282869	0.829878304103703	-0.539027204769787	0.829713355861608	-0.538893900118113	-0.00514214382797106	-0.00784948857063006
4.5	-0.00964257095930988	-0.00548307358565908	0.736310273817337	-0.661142281746767	0.736121717329113	-0.660969228728649	-0.0069918295099143	-0.00826622416602578
4.6	-0.0113817063936191	-0.00362725202136125	0.624382061723747	-0.767925627039197	0.62472387289195	-0.767228340878963	-0.00908130524279587	-0.00788521739908253
4.7	-0.0124729223284065	-0.00180547567447484	0.497992810573947	-0.855261958929195	0.498009334846819	-0.854906377731656	-0.0108594305022196	-0.00736150078437536
4.8	-0.0133032324453958	0.000367810545934034	0.358975793350772	-0.921962594876948	0.359197227263452	-0.921646419897795	-0.0124297041999372	-0.00660469325361205
4.9	-0.0133699454749574	0.00251812966331903	0.212111383212821	-0.965900412887145	0.211891529207398	-0.965908205741978	-0.0135690663599739	-0.00555934545242854
5	-0.0128487161735993	0.00470457683981744	0.0595920614030846	-0.987244115748499	0.0597691429803265	-0.986998854982931	-0.0141937264662565	-0.0039703747290034
5.1	-0.0114432292556385	0.00658026956206451	-0.094255353569243	-0.984661283861346	-0.0939238333349149	-0.984436021859607	-0.0140099064071781	-0.00225473354063894
5.2	-0.00970319474205186	0.00828220150995437	-0.246006832248481	-0.95812072581084	-0.24551505701672	-0.95809381343979	-0.0135407773413911	-0.000808883206527125
5.3	-0.00760923508721573	0.00947664975906022	-0.391645336331033	-0.908450824237596	-0.391304632945329	-0.908666899707412	-0.0128385038166017	0.00024675315436237
5.4	-0.00534300906432535	0.0105219014842558	-0.528014402755547	-0.836884141971927	-0.527801540472856	-0.837084834847352	-0.0124964098728935	0.000980091610423352
5.5	-0.00300015214257673	0.0111950041343484	-0.651793065271794	-0.744699165870075	-0.651554002447115	-0.744893896612717	-0.0128020540402923	0.00209377398718075
5.6	-0.000358399256158986	0.0115694284688053	-0.75926468055685	-0.634353251147802	-0.75907489150671	-0.634525089918848	-0.0123615279648138	0.00373886051272461
5.7	0.00194136264076866	0.0112844228543887	-0.848577490217411	-0.508864972399873	-0.848448045925104	-0.509084797491248	-0.0117532158534169	0.00512650796217342
5.8	0.00409075117548529	0.0109549012790394	-0.917268532605963	-0.370879400018418	-0.91720053388726	-0.371164433893768	-0.0110528622877374	0.00648493736232651
5.9	0.00625411628316898	0.0102005538336533	-0.963816444279299	-0.22398797211937	-0.963830894337057	-0.224071641792674	-0.010286403988732	0.0076007578996975
6	0.00838966141892542	0.00920946503235468	-0.986774243228079	-0.0715846210767297	-0.986654950132726	-0.0716426451511009	-0.0100230117788437	0.00883990188130487
6.1	0.010718983029813	0.00738654421644296	-0.98582019842809	0.0823180819625309	-0.985693490135835	0.082169634321147	-0.00876223713557129	0.0105826971126983
6.2	0.0120780464448719	0.00449335727110626	-0.961022642776916	0.234433575033491	-0.96100888572806	0.234230736423387	-0.0070816327816997	0.0111307428411117
6.3	0.0119914479430028	0.0011646428368158	-0.912923298761461	0.380801877470156	-0.912918748383517	0.380616530783926	-0.00573585241862427	0.010852107553834
6.4	0.0108774501804881	-0.00174217555962386	-0.842582508962855	0.517867694064205	-0.842550825037122	0.517657055494119	-0.00492502175127388	0.010188509668631
6.5	0.00914584577611221	-0.00414401968130176	-0.751977756921707	0.642109882750854	-0.75200185624937	0.641905831022266	-0.00448973375488784	0.00958282317863191
6.6	0.00742186632707165	-0.00588203623236158	-0.643297298438307	0.751212132636902	-0.643371147786033	0.750959971745262	-0.00390685441610797	0.00922207057062206
6.7	0.00550498187401252	-0.00726633811139634	-0.518736373409078	0.841956238999018	-0.518839207045381	0.841735065502046	-0.00357034970764807	0.0087846361185843
6.8	0.00372308871923294	-0.00812945711011551	-0.381686162731824	0.912213946284175	-0.381827822716176	0.912043225336146	-0.00340514586360841	0.00868261356539361
6.9	0.0018991040293246	-0.00877626365236623	-0.235508787352412	0.960247571612058	-0.235735414880147	0.960137172855184	-0.00302639797880659	0.00879535614079015
7	0.000278301962289529	-0.00896346116572995	-0.0837165055991569	0.985315404899472	-0.0839263792050183	0.985225579444759	-0.00242499951767087	0.0089688200812398
7.1	-0.00135405679539343	-0.00897924719673472	0.0705093107132421	0.98636135454394	0.0703072214244484	0.986228136078394	-0.00153935362372294	0.00905167009408193
7.2	-0.00282916741953529	-0.00865176974995795	0.222828142209616	0.963284016827304	0.222545950860217	0.963249565338054	-0.00047456928383151	0.00908483402775521
7.3	-0.00427744215516528	-0.00816518021538634	0.369583359182297	0.916928255216003	0.369347258782756	0.916954601883119	0.00064468466006978	0.00888982876920405
7.4	-0.00540819459755579	-0.00745007714422613	0.50744627723028	0.848442220619547	0.507232819525011	0.848493475851598	0.00163671657376467	0.00834282161921287
7.5	-0.00641015871261025	-0.00675574655911038	0.633182997484146	0.759176450118706	0.633013432612604	0.759246279895824	0.00253631857748801	0.00779056822380488
7.6	-0.00699651293881306	-0.00596409449880831	0.743175954792838	0.651410513658164	0.742918394313638	0.651493162429904	0.00374936455180675	0.00690539036425681
7.7	-0.00762851293061674	-0.00484311017138021	0.835119100826248	0.528128387826449	0.834933699541273	0.528345783673118	0.00458213826415337	0.00559623511260001
7.8	-0.00764033793833519	-0.00344830036740059	0.90705632966841	0.391948325831261	0.906953430158124	0.392173943809604	0.00515015525632243	0.00399443327739508
7.9	-0.00731230206215661	-0.00205300228573326	0.956915711191867	0.246251515804043	0.956777728380475	0.246431447033143	0.00511726782350557	0.00218941711557812
8	-0.00661242422121864	-0.000638410854770496	0.983015497958117	0.0944511026237931	0.982992731292037	0.0947139829401181	0.00339936921355145	0.000721568852085826
8.1	-0.00537518415716758	0.000671300720498439	0.985656727271395	-0.0591372882235504	0.985685888688314	-0.0588816247526949	0.00197720949219587	0.000937276676152963
8.2	-0.00381844714753309	0.0014062636388207	0.964331165135028	-0.211471593041839	0.964379803313905	-0.211154415774076	0.0010843115315063	0.00129783927581173
8.3	-0.00238942165976524	0.00177364295183934	0.91956616961394	-0.358568130591691	0.919617805743435	-0.358280922210677	0.000477579312810924	0.00176307347962403
8.4	-0.00087081216145147	0.00171709114062927	0.852458234554574	-0.496820838152392	0.852556229875208	-0.496618914669946	0.000212227695121107	0.00202904509157778
8.5	0.000199277419204322	0.00131209214840334	0.765034760804581	-0.622607858151854	0.765086231872421	-0.622457153223805	-0.000524123027570962	0.00188225290598336
8.6	0.00141331771043111	0.00094267493816602	0.659064985343766	-0.733853998881514	0.659233645476096	-0.733616897392989	-0.00127403018674322	0.00303183181653506
8.7	0.00242450092665219	0.000242260116248137	0.536946728575513	-0.827100771998071	0.537206127397497	-0.826885424279811	-0.000908371254116087	0.00434151586037011
8.8	0.00340790327377767	-0.000608789275704459	0.402096458957639	-0.900156401494398	0.402281860220405	-0.900017410286158	5.81959816039639E-05	0.00519519346269066
8.9	0.00423773362277564	-0.00162274641814551	0.257685391040972	-0.951472030560681	0.257864571564518	-0.951302030014994	0.00175476802529232	0.00561221798239161
9	0.00514454735727285	-0.00295990229305246	0.106958017954005	-0.979993818197425	0.107266436524298	-0.979947336435796	0.00357766565682257	0.00519681016257163
9.1	0.00602081385029415	-0.00423715207727007	-0.0466021447766291	-0.984648025415659	-0.0462928506488967	-0.984607211852473	0.00560681809082074	0.00451662795570737
9.2	0.00699494179071812	-0.00575686176195859	-0.198980579503653	-0.965231272402562	-0.198632878152211	-0.965209220122126	0.00777060073445189	0.00295360405959397
9.3	0.00767916359299167	-0.00732060082313885	-0.346320184476774	-0.922494899331837	-0.345968156766478	-0.922469608686092	0.00945589661181628	0.000711004546823694
9.4	0.00818427198633324	-0.00911451312466438	-0.485194178921002	-0.857570658357542	-0.484870961564142	-0.857661775815081	0.0102785590650468	-0.00221010273651805
9.5	0.00785921334153691	-0.0105269965628835	-0.612559285561569	-0.77152682185566	-0.612322312771061	-0.771577371714132	0.0093102763238779	-0.0046709114700608
9.6	0.00763908928326509	-0.011953593246446	-0.724588359404708	-0.666671288282272	-0.724276904328445	-0.6668103400982	0.0086840513727915	-0.00629229303927342
9.7	0.00674286578212168	-0.012927411368908	-0.818962931704437	-0.546052283978433	-0.818675687333318	-0.546285512673068	0.00722857477773318	-0.00853315138445263
9.8	0.00578040278836203	-0.0135012268786045	-0.89359120574775	-0.41229487586256	-0.893338128222343	-0.412464072185876	0.00483266479600316	-0.0103353443878338
9.9	0.00484350042908815	-0.0135129676527464	-0.946588444640819	-0.268435064469611	-0.946336417946194	-0.268644114509907	0.00186515881980279	-0.0116759881609373
10	0.00389939174999906	-0.0134733115101158	-0.976111903688733	-0.118136844461397	-0.975958831292052	-0.118499104624036	-0.00247353011660973	-0.0119811593517237
10.1	0.00331188260382403	-0.0131765283803928	-0.982216910058865	0.034374987405457	-0.982153886809296	0.033943840848386	-0.0060950592555905	-0.0100317719273326
10.2	0.00266304587116829	-0.0132588993943731	-0.964915254296597	0.186179989748175	-0.964793897302578	0.185749152765358	-0.00872673299759592	-0.00786151379117014
10.3	0.00166170842080774	-0.013070164758614	-0.924166750450771	0.333508718816844	-0.924184583476217	0.332967890216534	-0.0110078541668415	-0.00551591579358279
10.4	0.000686663927216177	-0.0128773251328837	-0.860977438288387	0.472505103797838	-0.861114341041116	0.471994638724618	-0.0127552977651667	-0.00309090972090592
10.5	-0.000261681143069931	-0.0122084795689907	-0.777411422479776	0.599846569718632	-0.77758438956412	0.599415329411471	-0.0142405250464933	-0.000537544865113477
10.6	-0.000510868241064202	-0.0114383560652777	-0.675101293070922	0.713210455276038	-0.675373609098642	0.71288116035838	-0.0148490234421852	0.00310672667995421
10.7	-0.000256537652671756	-0.010883119445651	-0.556152236673467	0.809241641199908	-0.556452675529164	0.808933051086068	-0.0137368340926191	0.00677100543840397
10.8	0.000178618636403963	-0.0111912405785259	-0.423792624176332	0.885416012584533	-0.424143076319708	0.885118711589309	-0.0114844270945573	0.0096375934545866
10.9	0.000139816385879062	-0.0116994492493391	-0.281556799006602	0.940129441640924	-0.281946339664009	0.940007103150375	-0.00893992030229506	0.0115822078749051
11	-0.000127325091726751	-0.0125253131624777	-0.132498773547296	0.972642977310865	-0.132935056638554	0.97255284230048	-0.00609074913073391	0.0128946465714274
11.1	-0.000638951443309848	-0.0132019864968826	0.020226527377877	0.981157221025321	0.0197387721144011	0.981171127697776	-0.00277046391164312	0.0135615320191016
11.2	-0.00138064996898198	-0.0140359370944578	0.172021644842245	0.965932052404425	0.171565613835582	0.966005354291764	0.00075347678482761	0.0132313100178044
11.3	-0.00235465446792228	-0.0146282772991479	0.319497950898049	0.927553945688948	0.31904005857584	0.927690568029188	0.00427105555016806	0.0120360038451899
11.4	-0.00364006357209104	-0.01519657394078	0.459454996387536	0.866960733389809	0.459052115997378	0.867073893825778	0.00714832738333016	0.0100238580079072
11.5	-0.00524275543710455	-0.0151235024632498	0.58856065390713	0.784857847205147	0.588243069000883	0.78515973396818	0.0087334247750595	0.00796148941441717
11.6	-0.00676347806034276	-0.0150465528158679	0.702693672936832	0.683844655143407	0.702479206892701	0.684171656738517	0.0104852565310474	0.00608875971438332
11.7	-0.00860989281782908	-0.0143148199778831	0.800034912293448	0.566697608310991	0.799832461334678	0.567003362353897	0.0117256383534733	0.00347652010144863
11.8	-0.0105165842205671	-0.0130459968663649	0.878269450834352	0.435684501301152	0.87808838178609	0.43613408772137	0.012020970945321	0.000594423371009469
11.9	-0.01202947593301	-0.0107733360577064	0.935209306121447	0.294062123589547	0.935104057366285	0.294510791673268	0.011207075009085	-0.0021161665741691
12	-0.0129813296472943	-0.00830742038450717	0.96888398415812	0.145497834992209	0.968855511278531	0.145861043250055	0.0092099955913039	-0.00446281463512441
12.1	-0.012528108796184	-0.00553267463118344	0.97954031576246	-0.00607424151670507	0.979469634596371	-0.00569089958729742	0.00764498746305104	-0.00496610492025322
12.2	-0.0117051901066687	-0.0040384628056485	0.966781440283397	-0.157726641860995	0.966798817712274	-0.157429609726223	0.00655239862573606	-0.00598275685743767
12.3	-0.0109562320639498	-0.00295919663559994	0.930501508346881	-0.30557715526899	0.930620508438584	-0.305271457305341	0.00523005308901063	-0.00720187555329632
12.4	-0.0105319648887576	-0.00239191059208895	0.871968250214724	-0.446003219747844	0.872030941384087	-0.445634763651344	0.00362857558651281	-0.00849947090066787
12.5	-0.0104417431799216	-0.00188983972979415	0.792463368112608	-0.575420577813154	0.792802231589829	-0.575030941064089	0.000818727995160445	-0.00989713585085082
