# GHZ S RI R 50
0.2	-0.000131124612526414	-0.00031986318985983	0.950193433322723	-0.307696767027822	0.94997094100291	-0.307671438311745	-7.2480150594588E-05	-0.00028296156694396
0.3	-0.000382911817418636	-0.000222036734241243	0.890521225007937	-0.451506955799973	0.890364773381367	-0.451411578446916	-0.000378980004403746	-0.000444820963551301
0.4	-0.000419568300947309	-1.90716720604084E-05	0.809363204779793	-0.584121379542356	0.809375034680052	-0.584146524789288	-0.000565770106225314	-0.000354749911816712
0.5	-0.0003303275003216	0.000371568399046471	0.708620874722574	-0.703092187988707	0.708465517581296	-0.702990618409699	-0.000457520166502333	2.49363282071369E-05
0.6	-6.76514919918015E-05	0.000245988242535525	0.59041421995262	-0.804321996752721	0.590294683292995	-0.804160077665547	-0.00021429560793865	-0.000256255864987199
0.7	-0.000140874874399632	0.000385485263060322	0.458289795748975	-0.886002025752886	0.458270928901937	-0.885889334094602	-0.000321945585656218	-0.000455730961564424
0.8	1.42988189420375E-05	0.000432315893573532	0.315033965801234	-0.94643093698962	0.315002443303478	-0.946240827779399	-0.00052519909030332	-0.000490700046661042
0.9	-3.32588341481521E-05	0.00057102010911007	0.163994199476766	-0.983760879601107	0.163928993150515	-0.983668781234123	-0.0010218185921087	-0.000538567030703811
1	0.000207532273795959	0.0010999059435726	0.00907261922626303	-0.996750457651954	0.00902086623638211	-0.996718933967489	-0.00131675988801896	0.000316138361447706
1.1	0.00113514669535935	0.00054790740364301	-0.145482540103141	-0.986188927024887	-0.145498367832793	-0.986058212387053	-0.000668734219918797	0.000362627831152143
1.2	0.00120832189347813	-0.00092553554590286	-0.297169220928328	-0.951586620167039	-0.297092669376621	-0.951560451714709	-0.000360630158853299	0.000394570300037767
1.3	0.0008753652286888	-0.00279172579979064	-0.441467297105769	-0.89366191824906	-0.441444207149702	-0.893655289733786	0.000794422593148194	0.000728784538210715
1.4	0.000301024254901549	-0.00451901446423475	-0.574624143705753	-0.814008696929309	-0.57459990587966	-0.813987017998135	0.00240472769304916	0.000311847871387681
1.5	0.000227611478161387	-0.00548335539904831	-0.693951815855336	-0.715008480348084	-0.693849804115066	-0.714923310132703	0.00449180827341432	-0.00117526029375751
1.6	-0.000950619297326719	-0.00592229065534689	-0.796943621431681	-0.598440531411545	-0.796869313620445	-0.598380354850247	0.00364002312543416	-0.00320180212796508
1.7	-0.00150377527656818	-0.00513756269926109	-0.879836223983154	-0.467542060808482	-0.880000572291009	-0.467024271331169	0.00272661852128931	-0.00374181734826777
1.8	-0.0019204969670316	-0.00455473506471724	-0.94181468660794	-0.324607363555374	-0.941703106557759	-0.324606113694554	0.00169193116486841	-0.00413539895098212
1.9	-0.00218761652714836	-0.00373177864508015	-0.980578240957211	-0.174847325428621	-0.980670853613273	-0.174358224438699	0.000793360818649737	-0.00382061240808633
2	-0.00172035466960779	-0.00357636017951097	-0.996031559506125	-0.0196546985965663	-0.99604346452396	-0.0196086720841463	0.00129184434524553	-0.00393396671967709
2.1	-0.00279364523232387	-0.00393306060351298	-0.986553854245618	0.135815449391728	-0.98659199623742	0.135852745446347	0.000131120098174749	-0.00509817631462343
2.2	-0.00388149993938958	-0.00319634379674398	-0.953204858118234	0.287293374427947	-0.953129393552323	0.287356176987179	-0.00107642608572888	-0.00488870305395632
2.3	-0.00458490502445917	-0.00228885640763938	-0.897033473853966	0.431241452340581	-0.896648828287318	0.431755161512403	-0.00206738180260641	-0.00460626792457154
2.4	-0.00527847555082068	-0.00123464358195462	-0.818225763342025	0.566539839494432	-0.818494921460156	0.565953035462619	-0.00310665053876341	-0.00387999613538502
2.5	-0.00497985358894977	-4.05412614986678E-05	-0.719894155734775	0.68691115311399	-0.720110314837873	0.686400697251762	-0.00259914007080581	-0.00313892509590692
2.6	-0.00536774833371255	0.000145126414243052	-0.604456276499549	0.789417230296319	-0.60435063334308	0.789233707605914	-0.00244820744040749	-0.00390253092752373
2.7	-0.0057350284658489	0.00129327589442168	-0.473935126310072	0.873690326026603	-0.47438670987379	0.873284356324494	-0.00303756013859052	-0.00405852717618317
2.8	-0.00523978512928762	0.00252648237213791	-0.333561644681268	0.936050848789855	-0.332892025935081	0.93620713461022	-0.00356912505142134	-0.00379369523382154
2.9	-0.00380864614294956	0.00337948537321082	-0.183199752404447	0.976246392012784	-0.183231460608513	0.976159032427809	-0.00331615179087107	-0.00298364154676334
3	-0.00223625362849366	0.0033904621597933	-0.0285977454381492	0.992027264134526	-0.0293001437510012	0.991871965101685	-0.00266008327815414	-0.00259589360877744
3.1	-0.000866851325405887	0.00337632433782618	0.123923327336883	0.984403428970594	0.12451438059653	0.984382895090307	-0.00214643929584875	-0.00224323184948494
3.2	0.000576218636095308	0.00282083004819706	0.275927517024743	0.952896203277296	0.275872383886574	0.952836115266954	-0.00154279598614437	-0.0018956581724718
3.3	0.00190899130648283	0.00189519836780201	0.42067462922168	0.898008410953302	0.4205373302812	0.897994908295599	-0.000675931796512161	-0.00175392375621631
3.4	0.00285181908160304	0.000645883880770688	0.554630430478005	0.821332817373885	0.554468828171097	0.821451583460852	0.000520700606393582	-0.0020799797289033
3.5	0.00353133987338436	-0.00124977104326317	0.674823040459854	0.725610605319571	0.674743652472189	0.725649741197632	0.00166000529332263	-0.0033646226230311
3.6	0.00275462047818852	-0.0026218620879735	0.779158277167888	0.61237291651413	0.77939685689717	0.611922972838459	0.00123133879863183	-0.00458144458108634
3.7	0.00234866071182287	-0.00357886149432193	0.86480262297484	0.482978757765394	0.864685186389799	0.483122478230775	0.000936747487224134	-0.00506101637154597
3.8	0.00158892033035556	-0.00451689239969017	0.928642853655755	0.343281892958057	0.928697428738511	0.342902680759138	0.00056388685622746	-0.0055353452483121
3.9	0.000935915289708005	-0.00520019839802251	0.970514978409611	0.193992607183302	0.970280513623714	0.194660703875903	-0.000124017890388408	-0.00590142936615355
4	0.000253387294738123	-0.00626511450645076	0.989105632695861	0.0415964772817619	0.989067308086039	0.0416994945149824	0.000247606618021055	-0.00655751606873022
4.1	-0.00179540427016164	-0.00729536628508035	0.982935753626491	-0.11281986927749	0.982752317415381	-0.112691727556526	-0.000817656961265683	-0.00809205667115167
4.2	-0.00398097391683452	-0.00718141634579585	0.952649676106546	-0.264394335745948	0.952688742791496	-0.26374207532023	-0.002227819972739	-0.00870646941127693
4.3	-0.00594844035530708	-0.00688483745854746	0.900116858419939	-0.408167950295197	0.89998199292648	-0.408056252003601	-0.00375746770115254	-0.00926184637848063
4.4	-0.00808525453011671	-0.00591969452400107	0.825705943776617	-0.542834652772881	0.825541969367323	-0.542700629029657	-0.00560673121290347	-0.00920093951143433
4.5	-0.00935243555877777	-0.00477092247174199	0.730651980795918	-0.664414028641091	0.730464896823873	-0.664240145448895	-0.00646251414240622	-0.00874172943658589
4.6	-0.0114488949378888	-0.00384915098186902	0.617967500352298	-0.769142960627954	0.618312287637444	-0.768449844109953	-0.00787917347857183	-0.00943269828179445
4.7	-0.0133530018328078	-0.00190476686808991	0.49167971302192	-0.855032543120262	0.491698099621127	-0.854678263656573	-0.00999078744994897	-0.00950687782057302
4.8	-0.0146420779448732	0.000805817964475864	0.352785691783204	-0.920499214389173	0.353007991512433	-0.920185365093603	-0.0119582674555588	-0.00899332818825599
4.9	-0.0147798963692474	0.0036559874852867	0.205946193188358	-0.963079527964045	0.205727203020779	-0.963086084467812	-0.0134573872760693	-0.00788722986692379
5	-0.0139947780894515	0.00622513829885081	0.054306714982889	-0.982247324286257	0.0544840801313493	-0.982004270018726	-0.0140889340776305	-0.00648692476275583
5.1	-0.0125476798726091	0.00868526929196356	-0.0977704214641261	-0.979020102433339	-0.0974397517685133	-0.978797395850702	-0.014760955266803	-0.00494491965633238
5.2	-0.0101277290093325	0.0108520706608861	-0.248425024225475	-0.951960017838624	-0.247935811147687	-0.951935177554333	-0.0149424445358374	-0.00288905593573569
5.3	-0.00728661403343168	0.0120111555385401	-0.392754203845218	-0.901702475952141	-0.392416289419751	-0.901918564545068	-0.0143835306108232	-0.000877388376722143
5.4	-0.00429111461348052	0.0127167909001968	-0.527313654802589	-0.829738759209549	-0.527102825985245	-0.829938843299242	-0.0131640178076642	0.000966628683209927
5.5	-0.00175390104834994	0.0119134724037619	-0.64909282419589	-0.738568653823856	-0.648855699954998	-0.738762611426171	-0.0116396829078438	0.000943878568914258
5.6	-0.00044389626098266	0.0124594576488311	-0.756013753284158	-0.628945240887485	-0.755825466660142	-0.629116440400052	-0.0123417528862532	0.00146904042725734
5.7	0.00205100399798416	0.0127467429570448	-0.844158850011634	-0.503958844971692	-0.844030661395681	-0.504177520777903	-0.0123536838540463	0.00316931589857672
5.8	0.004651549326887	0.0123910340797855	-0.911637830189211	-0.367038769627993	-0.911570706771674	-0.367321984613329	-0.0118681354460768	0.00507136219586494
5.9	0.00726989332121735	0.0113539571795814	-0.957432695232946	-0.221868432532946	-0.957447099761678	-0.221951526865771	-0.0107208205995047	0.00730225486729121
6	0.00987680620179039	0.00874936603940153	-0.980925131929885	-0.0706784383015324	-0.980806578205928	-0.0707361743638613	-0.00796836720074865	0.00823378445017721
6.1	0.00983139577445368	0.00609772226610706	-0.979341639060779	0.082544534582184	-0.979215869882029	0.0823969548773521	-0.00709183749359352	0.00769867308746962
6.2	0.00986796212878778	0.00455083147376276	-0.954384323113126	0.233021371195193	-0.95437070156666	0.232819920721494	-0.00652198191833159	0.00784509389316595
6.3	0.00980684344113758	0.00272977670412153	-0.906817725772186	0.377852723104834	-0.906813136896495	0.377668646631565	-0.00588530963525762	0.00781780087914069
6.4	0.00958158970589852	0.000870586039447387	-0.837476927990995	0.513943296523455	-0.837445306543744	0.513734043377905	-0.00538134677759883	0.00779524806252654
6.5	0.0090042727658356	-0.00148706831523872	-0.746955515076556	0.637572865694284	-0.746979410517816	0.637370205409288	-0.00464551774620841	0.00742333130398859
6.6	0.00795875371466776	-0.00351006292729387	-0.639301586326792	0.744797061027004	-0.639374587710555	0.744546720092304	-0.00423447999280106	0.00718934971676109
6.7	0.00646660846362916	-0.00551061679582981	-0.516512396479662	0.834777013710438	-0.516614054476535	0.834557273365258	-0.00378772850944426	0.00705424498112455
6.8	0.00456748572629701	-0.00695572753583074	-0.381024476131304	0.904829466653757	-0.381164736921796	0.904659644957622	-0.00336204226237555	0.00709261339055065
6.9	0.00243805546548276	-0.00785753107074001	-0.236027116271296	0.952760405112313	-0.236251849991003	0.952650280298958	-0.00255925999900058	0.0071732640826973
7	0.000289472441565101	-0.00821618900530481	-0.0861729449557965	0.977081678563047	-0.0863808358172502	0.976991912026626	-0.00181764424674319	0.0066692629422858
7.1	-0.00167088123581927	-0.00775713208724887	0.0656591948177147	0.9793426291413	0.0654591912218089	0.979209513981779	-0.0013199155888665	0.00664379351141412
7.2	-0.00309418185924973	-0.00715248256214043	0.216712483109624	0.957617169837423	0.216432424008614	0.957581622678927	-0.000318019607281303	0.00665500244736384
7.3	-0.00450257451830002	-0.0064648919886491	0.362381524050731	0.912541829929165	0.362146903931526	0.91256679280765	0.000712919813146231	0.00635802517523688
7.4	-0.00547866733140702	-0.00550462586952307	0.499001783117765	0.845457907832215	0.498789517981354	0.8455075715174	0.0016472126975578	0.00582093457746089
7.5	-0.0063278146661872	-0.00486619907645037	0.623805669171116	0.759046416503349	0.623636648849219	0.759114594032809	0.00267026157093206	0.00478595991929428
7.6	-0.00708264706166648	-0.00360442325683925	0.734822816595523	0.653340507691424	0.734565979840713	0.653420924274019	0.00301399359668126	0.00354067557192823
7.7	-0.00707645989334012	-0.00217269771984673	0.827275343667541	0.531501679678841	0.827089298323905	0.531716692071656	0.0031238877530481	0.00269661898371632
7.8	-0.0064481137569072	-0.00098387058454825	0.899851829021147	0.397013032181207	0.899747694933364	0.397236817049894	0.0033038704785913	0.00195022856816792
7.9	-0.00555953267912312	-9.00391510688832E-05	0.950983861630534	0.253284115960986	0.950844926858906	0.253462162711111	0.00371044356130573	0.00160193063687882
8	-0.00433166760960756	-0.000398882045270416	0.979686713217451	0.102286953855127	0.979661844599459	0.102548964456939	0.00472583782038151	0.000420960397681694
8.1	-0.00513547452632888	-3.53878010952037E-05	0.983449902569453	-0.0512564125403846	0.983476982368985	-0.0510012132198584	0.00369192165192372	-0.00144738492878849
8.2	-0.00480746145613312	0.00138245211371642	0.963704574294175	-0.202944318857201	0.96375045944036	-0.202627521311811	0.00227044067633265	-0.00197869794178978
8.3	-0.00400107212485072	0.00260185899999358	0.921031873365761	-0.349925103527281	0.921080918518988	-0.349637962337147	0.000885574407135028	-0.00198676901415622
8.4	-0.00265253368005425	0.00373725541242688	0.856117500872427	-0.489075482206928	0.856213676272391	-0.488872862238753	-0.000447669911414367	-0.00116079317062195
8.5	-0.000383857182350143	0.00386672869716708	0.769318532118541	-0.616261280449674	0.769368802293385	-0.61611028198943	6.36472196069054E-05	-5.7074617362149E-05
8.6	0.000351995359003408	0.0031294398098638	0.664697999763773	-0.72767347805179	0.66486451708987	-0.7274351543839	-7.52716160816479E-05	-0.000520200471535355
8.7	0.00125313747718024	0.00349076543929307	0.544139226660792	-0.822331380446197	0.54439671882848	-0.822113780984177	-0.000580187665749	-4.74731136333969E-05
8.8	0.00298462953005924	0.00361637278991797	0.410118521556538	-0.897269596535821	0.410302843818061	-0.897128916817767	-0.000809261141769543	0.000656436023244267
8.9	0.00512868389152094	0.00323015310969941	0.265620973980103	-0.950299910584812	0.265798952120946	-0.95012829940011	-0.000347431142710993	0.00191602322922247
9	0.00788329652962841	0.00147462180225056	0.115386401208443	-0.979489132977052	0.115694551270645	-0.979439993312827	0.00166138447772975	0.00287276208362454
9.1	0.00963393586150414	-0.00117612917528382	-0.0376472335617025	-0.986596462746606	-0.0373378357651473	-0.986552750626371	0.00399264900516875	0.00254521815358225
9.2	0.010735851999571	-0.00434041566225109	-0.190833859828018	-0.969196940480605	-0.190485564931758	-0.969171740570568	0.00649926177905391	0.00137925415087792
9.3	0.0104355822762427	-0.00725888680658921	-0.339198888619878	-0.927937472572057	-0.338846154909964	-0.92790905016605	0.0085999175535993	-0.000568538519712212
9.4	0.00972968035710409	-0.00938282387109727	-0.478848469437571	-0.864180417355157	-0.478523578190356	-0.864268898423134	0.0104225110914327	-0.00285438975264196
9.5	0.00806068561290916	-0.011577738004018	-0.607309324373007	-0.780537018843299	-0.607070940797307	-0.780585426606165	0.0112767745906486	-0.00725956278896964
9.6	0.00600929484534626	-0.0113731610974465	-0.722305536495022	-0.676643669782582	-0.721991222201923	-0.676780627796352	0.00906008147061977	-0.0103909524913767
9.7	0.00544112615258984	-0.0108930872965021	-0.818846836454695	-0.556065605226373	-0.818556009880695	-0.556297677428965	0.00647848385691006	-0.0124609139128994
9.8	0.00509547592819111	-0.0107941560699364	-0.895474628324711	-0.422261656110625	-0.895218616981832	-0.422429740156938	0.00322869561654415	-0.0135705673577215
9.9	0.00504006893615085	-0.0104628909714411	-0.950799713124382	-0.278376390477693	-0.950544166032456	-0.278584722160337	0.000197540257712877	-0.013116160295493
10	0.00501218318149073	-0.0117740742024392	-0.983530617024828	-0.126434816715013	-0.983373536113445	-0.126799013963702	-0.00150155782212774	-0.0132754632080686
10.1	0.002943324964013	-0.01154561317673	-0.990622310933688	0.0284559421243628	-0.990556038264563	0.0280215994476291	-0.0054791195640563	-0.0130499590841164
10.2	0.00244607885727636	-0.0106177348918313	-0.974315073105253	0.181998494955228	-0.974190093385183	0.18156468578276	-0.00894113031478451	-0.0108426655039691
10.3	0.00230960390651425	-0.0100333710316637	-0.934486759105764	0.331458754976346	-0.934501765976988	0.330912867347437	-0.0116911513889767	-0.0078470155700228
10.4	0.00247868846328919	-0.0100781235354414	-0.871747512771297	0.473304353309896	-0.871883456274101	0.472788156309579	-0.0132981772609012	-0.00411175062648793
10.5	0.00258779223236768	-0.0111227870300294	-0.786520700458698	0.603324394729073	-0.786694077532219	0.602888558872571	-0.0126525616273527	-0.000932274892266844
10.6	0.00113170855457588	-0.0121572698353625	-0.683374939297309	0.71755742485881	-0.683648694994387	0.717224326730091	-0.0121947654259835	0.00117494803708124
10.7	-0.000429644331989637	-0.0118651960499715	-0.563692168356243	0.815333151155561	-0.563994581226745	0.815020795522155	-0.0113193635105301	0.00364196737889313
10.8	-0.00129604962215685	-0.0113513327476563	-0.429801761019622	0.893272036346996	-0.430155054822932	0.892971079071088	-0.00963149695627121	0.00597213346303142
10.9	-0.00185773668504169	-0.0108544913788261	-0.285156210179118	0.949008548972256	-0.285549424634647	0.948884663819419	-0.00732485815595393	0.00770612774175025
11	-0.00233434717063687	-0.0109625393641134	-0.134655533194473	0.981039622182735	-0.135095551160408	0.98094825031326	-0.00459236505204627	0.0083973441398161
11.1	-0.00285704507974765	-0.0105512536497055	0.019418359856821	0.990607950176928	0.0189259024482585	0.990621491976761	-0.00205595252022	0.00873097007629887
11.2	-0.00310371869964233	-0.0105895356855159	0.173583741370106	0.975503018802536	0.173123192826966	0.975576979947534	0.000805033960897467	0.00846024859419208
11.3	-0.00339645212812384	-0.0106493116135676	0.323194353620277	0.936318432839694	0.322732120859144	0.936456675835153	0.0037580756617192	0.0077699214168344
11.4	-0.00373150622936579	-0.0110170983858695	0.46440255098997	0.874433132323841	0.463996108916981	0.874547679700255	0.0069044474736948	0.00665261489433136
11.5	-0.00504167283215641	-0.0118384125018833	0.594715372621299	0.792345721196315	0.5943947858677	0.792650727463124	0.00960975745748812	0.00354249454736557
11.6	-0.00694662653557188	-0.0109726503917155	0.711287142056452	0.689646470903109	0.711071056046964	0.689977277274188	0.0100465400403636	0.000894036164853995
11.7	-0.00763061748364354	-0.00980116794155098	0.809594541961052	0.570187164597417	0.809390898850884	0.570496533519841	0.010368711143257	-0.00119169084342774
11.8	-0.00826607007685419	-0.0090304452097323	0.888138352695664	0.43714552544297	0.88795694190332	0.437600032084373	0.0101503450135045	-0.00305093530974661
11.9	-0.00835985924927113	-0.00812117271491232	0.945355767153869	0.293983445027453	0.945250909024735	0.294436866926074	0.00995006784806431	-0.00398151504603858
12	-0.00943288733034018	-0.00895439765111233	0.980023892857529	0.142546122785915	0.979996807977186	0.142913385408479	0.0109184546464018	-0.00652594780919656
12.1	-0.0121254375994974	-0.00749154797394695	0.989100868419541	-0.0119496480305337	0.989031770839248	-0.0115621308295108	0.00910874599398795	-0.00929427270249903
12.2	-0.0135041239500368	-0.00527461298636028	0.974751723617185	-0.16539726830436	0.974771168948762	-0.165097587912318	0.00704994504310882	-0.0108775281667818
12.3	-0.0141566578819101	-0.00286216009742798	0.936808022568764	-0.314871032616302	0.936930244903379	-0.314563393149946	0.00482473684091702	-0.0120080565911379
12.4	-0.0142319220293103	-0.00048277676313741	0.876294406399719	-0.457119542563078	0.876360650201247	-0.456748240495249	0.00246545794178148	-0.0122445848948448
12.5	-0.0131867534565109	0.00087167126596348	0.792882187740317	-0.587520749198019	0.793227426083347	-0.58713145176491	0.00128389151275448	-0.0125726089422347
