# GHZ S RI R 50
0.2	-0.000169213859863862	-0.00029172408736148	0.949806428297529	-0.307809682543759	0.949584015994676	-0.307784311792583	-0.00011766791861377	-0.000246963429746664
0.3	-0.000391969772870687	-0.000224690632139062	0.890015516454687	-0.451564608845832	0.889859158177761	-0.451469228197051	-0.00039707730873167	-0.000430171288089026
0.4	-0.000407852560493928	-8.75982461734275E-05	0.808745954028194	-0.584042107493458	0.808757769966397	-0.584067242481408	-0.000560249016673742	-0.000396806453517986
0.5	-0.000438733854702573	0.000191469614985129	0.708036971193654	-0.702792196087809	0.707881731624694	-0.702690659318689	-0.000570155843336589	-0.000127252859308586
0.6	-0.000274815659824549	0.000198266379062703	0.589884756758826	-0.803968385669632	0.589765327098308	-0.803806537621529	-0.000433831857059524	-0.000267324878717263
0.7	-0.00031289901480248	0.000393090924234009	0.457766966365937	-0.885507445304785	0.457748139169146	-0.885394825929378	-0.000505315897495572	-0.000393140318811491
0.8	-0.00012055259253985	0.000468163500092615	0.314604179874679	-0.945771769551353	0.314572719480753	-0.945581799109848	-0.000659080677877322	-0.000381758952156641
0.9	-5.49568515769367E-05	0.000581290205590372	0.163748947415178	-0.982988280794963	0.163683804165064	-0.982896249024456	-0.0010130938112803	-0.000443095282153651
1	0.000138508954695129	0.000823740980431185	0.0089548219751839	-0.996019597540934	0.00890311051044967	-0.995988091241005	-0.00131163264795085	9.74016821808825E-05
1.1	0.00086808818213411	0.00039759775443525	-0.145526139507074	-0.985320426895717	-0.145541931409866	-0.985189821408597	-0.000870045401461378	0.000216742827144415
1.2	0.00111133682403867	-0.00106123665260786	-0.296975077258922	-0.950661421709056	-0.29689859559248	-0.950635284925466	-0.000426683016778116	0.000229393696448981
1.3	0.00102290444630555	-0.00308467178049886	-0.44104630135595	-0.892787045165415	-0.441023233833866	-0.892780423353281	0.000919728266428212	0.000397364712265206
1.4	0.000605721911740473	-0.00511626296842849	-0.574048543030737	-0.813241745135584	-0.574024329149023	-0.813220086384383	0.00263995302577349	-0.000291157368343951
1.5	0.000335396061585965	-0.00603700599595962	-0.693225437149308	-0.714224601651131	-0.693123532706294	-0.714139525290497	0.0044869652529118	-0.00166892794015738
1.6	-0.000692525959504256	-0.00641508097354165	-0.795889768478167	-0.597862183826443	-0.795815559711903	-0.597802066411105	0.00379881212102292	-0.00353945165758776
1.7	-0.00136707850852255	-0.00567442659847194	-0.878681031453632	-0.467271817331698	-0.878845348303055	-0.466754673933922	0.00283903394446519	-0.00408214499643749
1.8	-0.00189533721902414	-0.00505968906138407	-0.940643816569774	-0.324591666670798	-0.940532361568456	-0.324590377114349	0.00175955356426545	-0.0044504251959847
1.9	-0.00233973036250135	-0.00427226737748655	-0.979388505167255	-0.175028638240713	-0.979481202097645	-0.174540132760316	0.000726453711134811	-0.0042184253511366
2	-0.00222105684308667	-0.00377096677742123	-0.994760206464539	-0.0202034198183866	-0.994772122941985	-0.0201574583809463	0.000841675933990435	-0.00404380902918707
2.1	-0.00295188997252054	-0.00387229773008704	-0.985569100523922	0.134927301774518	-0.985607228449768	0.134964528217514	-1.13120609113884E-05	-0.00491435233413626
2.2	-0.00395902694994309	-0.00325006433733713	-0.952434315208447	0.286262870452388	-0.952358977325779	0.286325665661679	-0.00110502250060163	-0.00479438507528627
2.3	-0.00469221992526306	-0.0023954672534709	-0.896454309832423	0.430049873448023	-0.896070490276941	0.430563364801577	-0.00207977102748931	-0.00457930820612774
2.4	-0.00546877435852127	-0.00141700431883257	-0.817903006140674	0.565137941282914	-0.818171305399933	0.564551502233231	-0.00316697952191717	-0.00398975485349921
2.5	-0.00548533360682001	-2.06544283386727E-05	-0.720091965909189	0.685441048117252	-0.720307319950434	0.684930778743734	-0.00301529030049852	-0.003156482024609
2.6	-0.00549088636743181	0.000537069271217214	-0.604904307551414	0.788167766380717	-0.604798534995867	0.787984495026108	-0.00260397225707775	-0.00355895960808556
2.7	-0.00545585053564032	0.00145546329902513	-0.474615274574221	0.872510584170274	-0.475066060416852	0.872104378356855	-0.00285388450306184	-0.00388353407721826
2.8	-0.00487338073612436	0.00227982914340515	-0.334538343608393	0.935012032104852	-0.333869362895796	0.935169070529227	-0.00330910012893978	-0.00396284146473322
2.9	-0.00362824571423351	0.00283370393102756	-0.184482528821294	0.975515422370408	-0.184514098918393	0.975428060610336	-0.00323424756865973	-0.00341213020717236
3	-0.00224888187845456	0.00278723948347793	-0.0298568291689499	0.99175434188647	-0.0305588619174995	0.991598183552169	-0.00276529216464371	-0.00303660635596275
3.1	-0.00105266743369142	0.00268251306976654	0.122655690910697	0.984228837201224	0.123246572229183	0.984209046428661	-0.00238196541564834	-0.00271063947358645
3.2	0.000124457375017701	0.00220573099234332	0.274570883262499	0.953024522479462	0.274515845332695	0.952964375454584	-0.00199372853223914	-0.0022958333910407
3.3	0.00131302196586602	0.00145020168696141	0.419385328317995	0.898493919087655	0.419248062932211	0.898480227724266	-0.00124033337593256	-0.00200333261816069
3.4	0.00213083031598144	0.000416419273702033	0.553587795625758	0.822099587964058	0.553426029874314	0.822218149411686	-0.000166230292324673	-0.00214759937505886
3.5	0.00293175708823515	-0.00105189843202634	0.673919615099775	0.72635932515416	0.673840186211754	0.726398364534766	0.00104439528932973	-0.00300270590418605
3.6	0.00249740029631113	-0.0024792527157036	0.778270354968836	0.613466962335713	0.77850956904191	0.613017367854432	0.000968491695207104	-0.00421693639048061
3.7	0.00214446991905024	-0.003519012560405	0.864257198576986	0.484312920133636	0.86413953372719	0.484456496265172	0.000774667269766107	-0.00476857212611083
3.8	0.00140991500175592	-0.00452714149159281	0.92844701414261	0.344671962481967	0.928502131070986	0.344292711648356	0.00046818454901347	-0.00533747899788993
3.9	0.000634429487014498	-0.00530706865607518	0.970552460964605	0.195323850787309	0.970317049402677	0.195991840917615	-0.000322724133493564	-0.00586479920763026
4	-0.000213557190310539	-0.00605768836478334	0.989320734454655	0.0431341505421202	0.989282240095621	0.0432371377375818	-0.000190890039001414	-0.00627879091820755
4.1	-0.00194653083644826	-0.00707984423610968	0.983732058764727	-0.111365351941625	0.983548307714939	-0.11123741398899	-0.00102115874333615	-0.00775527886811432
4.2	-0.00417792503435968	-0.00709696870548345	0.953733540280115	-0.263218950709274	0.953771697376051	-0.262566152426009	-0.00248029649483515	-0.00844760890933466
4.3	-0.00624137476618888	-0.00680183047488201	0.901409260675855	-0.407213890925154	0.901274129813513	-0.407102295538121	-0.00408552635260091	-0.00897581884269545
4.4	-0.00854229319001154	-0.00583065899123244	0.827254090189585	-0.542052419282961	0.827089768425985	-0.541918527953763	-0.00605967524465383	-0.00892051891634063
4.5	-0.0101157805131368	-0.00425278115566854	0.732665404993106	-0.664130378708143	0.732477799530459	-0.663956563199434	-0.00724294357747158	-0.00811095597927306
4.6	-0.0117308826943194	-0.00285824229676272	0.619805084853922	-0.769523900078485	0.620149539404182	-0.76882934919259	-0.00827745464130768	-0.00831643502947419
4.7	-0.0131458614362866	-0.000966582833742434	0.493348196655364	-0.855744382118256	0.493366218192711	-0.855389561901048	-0.009944414787027	-0.00837414972392129
4.8	-0.0140947899775586	0.00147960607169654	0.354326122473515	-0.921557046166447	0.354548431841451	-0.921242467880191	-0.0115771810260844	-0.00805360499691325
4.9	-0.0141060045561359	0.00396735825930365	0.207303644377182	-0.964605260048319	0.207084266045622	-0.964612052599768	-0.012920433405481	-0.0072544131502712
5	-0.013277983402772	0.00628611451145478	0.0549803576873881	-0.984180010927097	0.0551579376425135	-0.983936368659491	-0.0134898228243516	-0.00605364088349942
5.1	-0.0118865558496066	0.00828921827321239	-0.0974958835164182	-0.980796653076415	-0.0971647306701915	-0.980573401393257	-0.0141336077603223	-0.0048919902202275
5.2	-0.00984641946113343	0.0102170830301565	-0.248463564888828	-0.953825351469941	-0.247973460448705	-0.953800249710042	-0.0145692809334108	-0.00309090819517855
5.3	-0.00738358804385351	0.0114331671844451	-0.393257008223501	-0.903593632419899	-0.392918364481892	-0.903810044980152	-0.0143070874193626	-0.00111735412079481
5.4	-0.00466511008562554	0.0124460883443215	-0.528385756026265	-0.831430703829586	-0.528174497146421	-0.83163119500159	-0.0133835290896027	0.000896626728971139
5.5	-0.00171877146778294	0.0121933395647523	-0.650334360455501	-0.739699878768434	-0.650096870331517	-0.739894210463391	-0.0116084176050106	0.00139932646474967
5.6	-5.77201818593486E-05	0.0121404151119992	-0.757348910563811	-0.630072126346461	-0.757160287350375	-0.630243627620336	-0.0119784557492525	0.0014460285770578
5.7	0.00208523240192571	0.0121472391364227	-0.845860021454321	-0.504805797607297	-0.845731618086786	-0.505024913710146	-0.0122641898273788	0.00289775272649321
5.8	0.00426452335053163	0.0117825231467643	-0.913542728556101	-0.367405673598654	-0.913475582145295	-0.367689462591965	-0.0121374785179006	0.00473721180034226
5.9	0.00632062974633813	0.0110249370175764	-0.959226123562516	-0.221710876533247	-0.959240600500276	-0.221794107308119	-0.0115453402771108	0.00711597620133384
6	0.00889774847367076	0.00960276625637591	-0.982550280174393	-0.0705108328562731	-0.982431549325948	-0.0705686975265766	-0.00901846691124961	0.00909874550239241
6.1	0.00989932813071887	0.00706709012135014	-0.981216287860356	0.0831423392806379	-0.981090339166744	0.0829944156017864	-0.00729583830441518	0.00882670841952896
6.2	0.0103431055947278	0.00509769095257377	-0.956053146452473	0.234098069374642	-0.956039632280638	0.233896225245432	-0.0063363020209134	0.00872978244590825
6.3	0.0103183144657034	0.00279151637388259	-0.908204490102243	0.37922023334956	-0.908200029391797	0.379035815188497	-0.00559198116382579	0.00833569567288629
6.4	0.009780530086684	0.000509992006776589	-0.838663471289157	0.51544026886873	-0.838631931610568	0.515230612612619	-0.00528537032760532	0.00793264804682462
6.5	0.00880514828865535	-0.00188244417256385	-0.748158165935204	0.639596892521604	-0.748182272154386	0.63939379079797	-0.0048677348056065	0.00751626393572904
6.6	0.00742739202543379	-0.00381778948763425	-0.639706659761789	0.74723713351825	-0.639780145406642	0.746986348445785	-0.00469423632511317	0.00733569085964626
6.7	0.00582026665197452	-0.00546768367479167	-0.516347617190817	0.8371473459447	-0.516449785484183	0.836927317501629	-0.00432339873172177	0.00746118901872544
6.8	0.00409332214624283	-0.00668161306435927	-0.380441309612228	0.907136034086841	-0.380582089560443	0.90696608853612	-0.00375704522264839	0.00765926208888741
6.9	0.00215262130148091	-0.00752076168069411	-0.23500744046023	0.955131221311388	-0.235232819921656	0.955021222977011	-0.00282746342017214	0.00778403900580224
7	0.000278986809427325	-0.00794233432198838	-0.0841694053165512	0.979262568783044	-0.0843779194982216	0.97917308316518	-0.00186293415747268	0.00726183122190628
7.1	-0.00171033955333373	-0.00770562022308957	0.0679777117981286	0.980698569337456	0.0677770995115446	0.980565702573451	-0.00138650731963707	0.00705981319411483
7.2	-0.00320828190745922	-0.00710573279755511	0.219194684794785	0.958524904370032	0.218914136490649	0.958489938731734	-0.000447721016548748	0.00708979066557286
7.3	-0.0046237519349582	-0.00638022358390443	0.365099826447876	0.912951098898162	0.36486493609172	0.912976664543511	0.000589375363063724	0.00685358185789432
7.4	-0.00558875374640228	-0.00536341287450986	0.501958944368688	0.845128089122823	0.501746552960644	0.845178401352144	0.00156533709314594	0.00638527141418348
7.5	-0.00618126214323212	-0.00463192131346836	0.626272615342011	0.757710955108446	0.626103694150136	0.757779643480705	0.0028369593524335	0.00548023692285363
7.6	-0.00679602098207964	-0.00379263939418121	0.736778220604774	0.651906978215794	0.73652144482544	0.651988055626962	0.00337092701330471	0.00391899022772448
7.7	-0.00705374743690508	-0.00255427539214824	0.829036348615195	0.529733365746062	0.828850737248262	0.52994895468781	0.00335896680617204	0.0028395255512908
7.8	-0.00672522171097033	-0.00135741684635286	0.901223555786727	0.394825874860356	0.901119963579432	0.395050014894734	0.00333788934093729	0.0019923230284846
7.9	-0.00627260790889658	-0.000206195584229914	0.951660663590644	0.250821489257232	0.951522188000534	0.250999900204948	0.00334639838397104	0.00175420325975366
8	-0.0047663060169828	0.000480604593625686	0.979877357428843	0.100294221540136	0.979853021706994	0.100556278077162	0.00436750691728731	0.00133623771534225
8.1	-0.00461371108572783	0.000522043883243805	0.983649664758668	-0.053469191927097	0.983677323162273	-0.0532139715384656	0.00408526120544925	-0.000736525987581373
8.2	-0.00422640287981011	0.00129589248485141	0.963377670518782	-0.205336467244211	0.963424338373046	-0.205019726227945	0.00264899363059772	-0.00175960688576621
8.3	-0.003666511385171	0.00211834076001834	0.920130505140297	-0.352193016111319	0.920180259602107	-0.351906007211487	0.00103038536633021	-0.00203525121148731
8.4	-0.00282481034387992	0.00296463606923572	0.854872281855184	-0.490941209158596	0.854968901914358	-0.490738839471653	-0.000721053388278299	-0.00143663742135631
8.5	-0.00119432915306118	0.00378141062125388	0.768058198174834	-0.618272434566265	0.768108843455973	-0.618121514407128	-0.000858564430919297	0.000270885550480386
8.6	0.000219020875191012	0.00328151489043738	0.6625234915391	-0.729501020807968	0.662690675349907	-0.72926320499372	-0.000438607583112811	0.000172110029715724
8.7	0.00124329544021544	0.00324423063279922	0.541576024852326	-0.823454255421274	0.54183400064726	-0.823237481447327	-0.000742826122836732	0.000452355919376693
8.8	0.00280573575763014	0.00298692493224247	0.40748980256346	-0.897778004887928	0.407674378110423	-0.897637901233184	-0.000941769241800245	0.000887121388762315
8.9	0.00441867536894784	0.00224829787682952	0.263030938236935	-0.950487963578269	0.263209265920029	-0.950316901213891	-0.000749571578749368	0.00176793816895472
9	0.00637967449630858	0.000805122790871145	0.112251698290063	-0.979101018588048	0.112559766185078	-0.979052874902627	0.000633177205401192	0.002851398867214
9.1	0.007783301927311	-0.00119950217047287	-0.0403333205671269	-0.985185422867966	-0.0400242113142136	-0.98514262664192	0.00266347315347771	0.00300122394774538
9.2	0.00901412639975641	-0.00338080987776342	-0.193052520069243	-0.967435418128345	-0.19270461924423	-0.967411138932439	0.00527019756378798	0.00261684009538044
9.3	0.00961426538794572	-0.00568810826379804	-0.34114754845496	-0.925852718172271	-0.340795201765564	-0.925825241812368	0.00813283039950413	0.00112494394130148
9.4	0.00972889639967019	-0.00788739752854286	-0.480608814589595	-0.861518918856466	-0.480284661827988	-0.861608198337026	0.010573397249029	-0.00132843043294409
9.5	0.00922459395692211	-0.0102266422236309	-0.60795940716293	-0.777109326559731	-0.607721707681875	-0.777158252334217	0.0122720327379503	-0.00577185898731559
9.6	0.00740496474957017	-0.0115201961065773	-0.72207953062473	-0.673663788161293	-0.721766195193047	-0.673801082857168	0.0102580008478022	-0.0100913924895163
9.7	0.00624799069210003	-0.0116431321429664	-0.818164037006639	-0.553228507681737	-0.817874305018915	-0.553460650583333	0.00723054182277172	-0.0126338105198598
9.8	0.00538037982836	-0.0118294685089345	-0.894196898572954	-0.419534038110531	-0.893941813194214	-0.419702225452795	0.00360604503738541	-0.0140263144072203
9.9	0.00452350210102237	-0.0114926656961714	-0.948668322613209	-0.275986807164943	-0.94841383265049	-0.276195004591414	-0.00012275584543922	-0.0136900172926352
10	0.00447685012741229	-0.0117356054731536	-0.981086954581099	-0.125261329537604	-0.980930594405488	-0.125624716715022	-0.00200251580549957	-0.0129363941015911
10.1	0.00297988367222725	-0.0120453913882897	-0.988477386176313	0.0294180355789629	-0.988411703548784	0.0289845520961664	-0.0055176808659856	-0.0130856053543053
10.2	0.0020423728556131	-0.011503053141631	-0.971907654016404	0.182647075395969	-0.971783430188305	0.18221411374139	-0.00931563212189936	-0.0111700370302895
10.3	0.0013508871074231	-0.0109847338678826	-0.931924236373509	0.331504082152997	-0.931939702057501	0.330959529433163	-0.0124814605441068	-0.00827277755901568
10.4	0.000736450550180294	-0.0107868166597691	-0.869469543810471	0.472572604891221	-0.869605396088947	0.472057692195901	-0.0147727465697121	-0.00446171238372832
10.5	0.000427622952686513	-0.0104887474730159	-0.784888816748591	0.60276441156285	-0.785062149102867	0.602329390869652	-0.0146889570885508	-0.000179632217519079
10.6	-0.000131314057927193	-0.0107516856967101	-0.681256593723514	0.716791532946156	-0.68153013074611	0.716459390242784	-0.013523238367181	0.0026802837387123
10.7	-0.000741896191910549	-0.0105209038800684	-0.56172090204984	0.813884878854643	-0.562022860934387	0.813573495391449	-0.0118501289932939	0.0051617049055253
10.8	-0.00118168433376	-0.0105537099428981	-0.428337998036348	0.891369301812275	-0.4286906045718	0.891069233954256	-0.00982796509501012	0.00706614576047626
10.9	-0.00177001135442885	-0.0104084085516875	-0.28421269334159	0.947148418133029	-0.284605139190493	0.947024935874597	-0.0075741473551887	0.00858243137537853
11	-0.00215508024393383	-0.0106078001775216	-0.133444293683775	0.978872440311346	-0.133883367977738	0.978781684138145	-0.00474931934445505	0.00930843845615192
11.1	-0.0027348683874541	-0.0104527509090213	0.0196789640409442	0.987803356443297	0.0191879021857192	0.987817016911194	-0.00221234094760338	0.00951253520299944
11.2	-0.00306491225493828	-0.0105611431310438	0.173055565021562	0.972936404244372	0.172596228850877	0.973010137160622	0.00066361708128092	0.00924989507003739
11.3	-0.00344741556691756	-0.0106838132967846	0.322245281258316	0.934095642226267	0.32178414953528	0.934233468528715	0.00364705016639277	0.00852948910026113
11.4	-0.00401859062839416	-0.0108593189701216	0.463302294021036	0.872263147133761	0.462896855840202	0.872377432004397	0.00661872797550328	0.00752619560617997
11.5	-0.00466013977639503	-0.0112867408919329	0.592495268761798	0.790097988249469	0.592175563748064	0.790401892820592	0.00989210289005915	0.00481087567231301
11.6	-0.00641684873908881	-0.0113141367742574	0.708663089520806	0.688623838932454	0.708447204912659	0.688953540299471	0.010556907348054	0.00144661474108509
11.7	-0.00761050507423803	-0.0103994473084452	0.807121710234952	0.569754839904251	0.806918199663597	0.570063279280015	0.0105831236243629	-0.000899051117408555
11.8	-0.00875419027019479	-0.00957617432310625	0.885685927464878	0.43706953899694	0.885504460091441	0.437522833977791	0.0100207221420762	-0.00286191517599844
11.9	-0.00964715089570963	-0.008078677502288	0.942610255785158	0.294402186420379	0.942505105633892	0.294854335865164	0.00914535058924074	-0.00349725622747407
12	-0.00990519076170241	-0.00725041669020975	0.977661298770653	0.14430543302468	0.977633499145045	0.144671865615811	0.0105989705427058	-0.00467572978893986
12.1	-0.0111204732636584	-0.00641499295860635	0.987597577045235	-0.0102023208144133	0.987527908566057	-0.00981552151564986	0.0100379756738818	-0.00795046820180914
12.2	-0.012144805573312	-0.00514753588970005	0.973439592534083	-0.163496676576533	0.973458504748449	-0.163197452109262	0.00820124850734376	-0.010374924102252
12.3	-0.0130431219008962	-0.00362044863315545	0.935827306796362	-0.312544664372374	0.935948733372595	-0.312237310916367	0.00567590744915862	-0.0122671446372435
12.4	-0.0139907813868159	-0.00176310101265887	0.876172343967034	-0.454280990543289	0.876237568268102	-0.453910057439787	0.00248040383561493	-0.0129456227103682
12.5	-0.0137235408106141	0.000484113878094238	0.793881965129835	-0.585482005110675	0.794226178854343	-0.585092088316462	0.000408548148417728	-0.0124126160550572
