# GHZ S RI R 50
0.2	-0.000238085931716374	-0.000482965154141698	0.950344909903661	-0.307657803195574	0.950122386031782	-0.307632489782581	-0.000171103459469463	-0.000455323877456703
0.3	-0.000585107285564084	-0.000392251073702436	0.890726581249145	-0.451503963103508	0.890570092008508	-0.451408583352711	-0.000570528691298852	-0.000635294854381562
0.4	-0.00072361766537547	-0.000142705451181751	0.809616274431482	-0.584197588056816	0.809628109467556	-0.584222738573515	-0.000862386047853406	-0.000509461102524908
0.5	-0.000637157331753023	0.000365656460659643	0.708825468940653	-0.703298183987561	0.708670066835578	-0.703196584536699	-0.000759255475669018	-1.38628235623728E-05
0.6	-0.000365996911900496	0.0002273938464389	0.590553567217859	-0.804536378058555	0.590434002337728	-0.804374415806321	-0.000498193207270028	-0.000317953109698376
0.7	-0.000473861515417852	0.000417897098845712	0.458398932176008	-0.88626393994436	0.458380062631034	-0.886151215902566	-0.000641745423191269	-0.000487623731145445
0.8	-0.000304452411336911	0.000518993541692208	0.315073709686763	-0.946745351102211	0.315042189112471	-0.946555180705782	-0.000844987607948665	-0.000489378231550902
0.9	-0.000340042017657914	0.000692404893172686	0.163912840350793	-0.98409791669421	0.163847625700789	-0.984005780003933	-0.00136365945741102	-0.000516566489917098
1	3.80193851732962E-05	0.0013827320031076	0.00890093395853229	-0.996976979126609	0.00884917480033703	-0.996945439319672	-0.0015711617402593	0.000532398247907575
1.1	0.00138011750490881	0.00058740103462205	-0.145637051184985	-0.986411476622706	-0.145652866971518	-0.9862807282752	-0.000497351535727253	0.000398288827716885
1.2	0.00167794326153448	-0.00145114089878618	-0.297400492595092	-0.951791993753143	-0.29732391651244	-0.951765830623185	8.30783089256748E-05	-9.49872606116908E-05
1.3	0.00132179677420885	-0.00413641129371985	-0.441757861919641	-0.893797706386885	-0.441734764846309	-0.893791080863599	0.00128291128134713	-0.000574060152070933
1.4	0.000234355783865706	-0.00632955370303389	-0.574918336639508	-0.814038958906006	-0.574894089258173	-0.814017281169498	0.00243524678381378	-0.00150246624341649
1.5	-0.00025539987476031	-0.00709175349949348	-0.694178906235988	-0.715043236457487	-0.694076863919506	-0.714958064794256	0.0041399140327073	-0.00285890220986054
1.6	-0.00179628719063196	-0.00700945478619618	-0.797276164696371	-0.598452618262606	-0.797201825084194	-0.598392439359092	0.00291148220005866	-0.00448783471744582
1.7	-0.00232364185478131	-0.00564515576489168	-0.880176219099254	-0.467439118703425	-0.880340478846098	-0.466921156965122	0.00193297815605102	-0.00449174397463551
1.8	-0.00259602310720745	-0.00470420518772783	-0.942108687972843	-0.324431743452399	-0.941997082902372	-0.324430522613815	0.00096431463710629	-0.00451051150344385
1.9	-0.00267972293296049	-0.00359548440144259	-0.980829818872768	-0.174663140834176	-0.980922340849328	-0.174173913114023	0.000198013493855573	-0.00385281522173255
2	-0.00179056521297937	-0.00337398230689848	-0.996378449736909	-0.0194161072513348	-0.996390347533918	-0.0193700619823297	0.00115857982390776	-0.00382980351802243
2.1	-0.00284822154502916	-0.00396204094431831	-0.986806269710297	0.136249804373915	-0.986844408735393	0.136287127210612	5.54750687463756E-05	-0.00526912181192793
2.2	-0.00396087500454568	-0.0032194028896053	-0.953316489790523	0.287773531382755	-0.953240979643937	0.287836317042886	-0.00121527947088461	-0.00508285609380542
2.3	-0.00464277940710261	-0.00232113606651785	-0.897040304982639	0.431728111840212	-0.896655350685027	0.432241764666383	-0.00223796536492382	-0.00479173584087669
2.4	-0.00532285537734761	-0.00125421891444904	-0.818166331524683	0.567051493008123	-0.818435823174949	0.56646466896117	-0.00331333729219558	-0.00398193969818489
2.5	-0.00477068732226053	-6.39966248454223E-05	-0.71963072163167	0.687507351584193	-0.719847243317629	0.686996915562969	-0.00250715921307306	-0.00311404924928757
2.6	-0.00507468285983736	-0.000326614409045302	-0.604016866204734	0.78983932449568	-0.603911327588822	0.789655724914441	-0.00213067880641401	-0.00430738321667461
2.7	-0.00565738027621011	0.000486710621264948	-0.473446859798736	0.874009111424555	-0.473898702283792	0.873603386404811	-0.00285526234246651	-0.00486298447492956
2.8	-0.00549567922248438	0.00155577475091107	-0.332999259777973	0.936295054226035	-0.332329517032845	0.936450934304987	-0.00369757920862743	-0.00483797514316495
2.9	-0.00437819618457382	0.00246725634582515	-0.182503595437253	0.976374045116499	-0.182535365813709	0.976286708374777	-0.00375973184159299	-0.00403049457297482
3	-0.00297630359743376	0.00260215161656828	-0.0278540505223241	0.991822235160014	-0.0285564040351485	0.991667493499044	-0.00328256019688709	-0.0035749371397422
3.1	-0.00175276747821706	0.00279423255854733	0.124479803111702	0.984063587367123	0.125070684599172	0.984042704834527	-0.00296826483689208	-0.00307565907409251
3.2	-0.000374090772188623	0.00241779787661016	0.276399618223003	0.952469704883978	0.276344465899644	0.952409665528634	-0.00248548226047409	-0.00255686911665914
3.3	0.000925643770921722	0.00170397965743495	0.42104957650514	0.897471533739999	0.420912315130411	0.897458114080003	-0.0016915337375079	-0.00218263684676058
3.4	0.00193336669660598	0.000721984813854247	0.554833081771812	0.820674417981479	0.554671614226043	0.820793219737548	-0.000437494519476926	-0.00220063188830562
3.5	0.00281998115011195	-0.00107251034607372	0.674758283114487	0.725042943976438	0.674678945356796	0.725082088866768	0.00096575908215238	-0.00338598888351772
3.6	0.00208229546617718	-0.00236102397749991	0.77911068108828	0.61189935177737	0.779349025661216	0.611449475400717	0.000564127252212679	-0.00458366242538132
3.7	0.00184362577220952	-0.00319252577830626	0.864684781586606	0.482480519771715	0.864567440780359	0.482624234822072	0.000379497573588696	-0.0049493201793745
3.8	0.00126599872844075	-0.00411856245192239	0.928410501630205	0.342805097684958	0.92846491515108	0.342426012069926	0.000140308088919745	-0.00538115515250197
3.9	0.000751003152423237	-0.00482129967813172	0.970179117301209	0.193625307338161	0.969944946286932	0.19429320284041	-0.000430924537758462	-0.00569001714183133
4	0.000292633007951412	-0.00603434564128776	0.988860383147674	0.0412852809752618	0.988822099812	0.0413882829873852	0.00025302803802181	-0.00640968624609066
4.1	-0.00192772027834091	-0.00732361314946998	0.982536518240267	-0.113228945391837	0.98235320544997	-0.113100765207974	-0.00088814166576137	-0.00826175170878819
4.2	-0.00430926271684282	-0.00713200960868249	0.952082504074051	-0.264670235985491	0.952121827544197	-0.264018303938059	-0.00248983369314487	-0.00886233518858142
4.3	-0.00631420960744744	-0.00667123900498332	0.899497197713078	-0.408254245195226	0.899362442176369	-0.408142561011848	-0.00408185764616847	-0.00928361162682574
4.4	-0.00834528720709279	-0.00556956406144795	0.82515068555034	-0.542786752835321	0.824986828448129	-0.542652751618296	-0.00586888308476624	-0.00907394669441346
4.5	-0.0093184854034697	-0.00445488003840701	0.730022107190099	-0.664351676552253	0.729835185943442	-0.664177811261128	-0.00640684673241363	-0.00856143117065831
4.6	-0.0114528432153372	-0.00395791937605304	0.617345995966127	-0.768784978280907	0.61769073255397	-0.768092422230675	-0.00774060397826958	-0.00969062240596668
4.7	-0.0137200119212182	-0.00212059790318646	0.491244298746526	-0.854548506424995	0.491262722391247	-0.854194458189778	-0.0101601512168793	-0.00995425687220481
4.8	-0.0152920668482244	0.00075394158898138	0.352485036989272	-0.920000665595632	0.352707240053357	-0.919687021848337	-0.0124009426257025	-0.00936443385890301
4.9	-0.0155122001545984	0.00389353627740541	0.205666268380431	-0.962576928451685	0.205447399391102	-0.962583443797189	-0.0140155898401994	-0.00804202090209088
5	-0.0145806159645029	0.00665768815690358	0.0541114205088131	-0.98150874525725	0.0542886888590059	-0.981265903663338	-0.0145308896279426	-0.00650913000746792
5.1	-0.0130159309592053	0.00922470982503996	-0.0976562701768991	-0.978319142443306	-0.0973258486546424	-0.978096581547332	-0.0151853265604655	-0.0049491571815284
5.2	-0.0103828805613076	0.0114679666302649	-0.24819970375466	-0.951350397371392	-0.24771081390012	-0.951325541553474	-0.015305889396175	-0.00280217790572249
5.3	-0.00730354522524175	0.0126252131187428	-0.392437060816645	-0.901127161780691	-0.392099357728335	-0.901343085704574	-0.0146108601746233	-0.000680213960257132
5.4	-0.0040152289876565	0.0132966298327892	-0.526828268333742	-0.829160195307277	-0.526617579870791	-0.829360105729899	-0.0130830309455366	0.00129569988658168
5.5	-0.00112537033619432	0.0121123753303957	-0.648337438057159	-0.738244748039633	-0.648100423041534	-0.73843847401072	-0.0110163160298593	0.000931569844837857
5.6	3.17766305569854E-05	0.0123564836780325	-0.755358843613414	-0.628855003900729	-0.755170603672332	-0.629026038795879	-0.0118494372807778	0.00100352041416432
5.7	0.00254248051502132	0.0125172046923836	-0.843508171573508	-0.503940537692049	-0.843379986451132	-0.504159045652547	-0.0119390172509884	0.00255428347555381
5.8	0.00514616820326848	0.0118693568563214	-0.910930873806678	-0.367160914113409	-0.910863683456466	-0.367443927385065	-0.0115227968478169	0.00422274741036116
5.9	0.00757673427915292	0.0104695287415841	-0.956715145739932	-0.22227101657552	-0.956729494637593	-0.222354067493684	-0.0105735713118917	0.00624327849993831
6	0.00984248376154191	0.00738585699282468	-0.980527653673031	-0.0712958161867341	-0.980409104745758	-0.0713534537701572	-0.00794080692814081	0.00683867593719375
6.1	0.00863680562214602	0.00456578293107506	-0.979053581333898	0.081977741005843	-0.978927773934106	0.0818302809553674	-0.00800230425065181	0.00597157756600891
6.2	0.00780106424375389	0.00385994591364614	-0.954215530759216	0.232348598602963	-0.954201787915794	0.232147223177101	-0.00828466189349043	0.00676024592390442
6.3	0.00765515540501983	0.00307551571187972	-0.906887657166273	0.377118458925442	-0.906882937245176	0.376934426680133	-0.00782339559512064	0.00762135222806532
6.4	0.00789279176210278	0.00186534654693482	-0.83785091276284	0.513318056800834	-0.837819136411439	0.513108828910897	-0.0069979418949864	0.00820704724965311
6.5	0.00790972456226836	-0.000346726197783185	-0.747341202927754	0.637264052633998	-0.747365000480894	0.637061361405746	-0.00576684730611947	0.00801185115672914
6.6	0.00725667430842928	-0.00244419267554113	-0.639668725112895	0.744449957557255	-0.63974159597748	0.744199585312373	-0.00505615090394808	0.00775630848400672
6.7	0.00608010359753113	-0.00456714435836045	-0.517004970721757	0.834525707977114	-0.517106510059071	0.834305900416311	-0.00432759357766161	0.0076077878955541
6.8	0.00441070567270777	-0.00617346131060763	-0.381555966112522	0.904756830104524	-0.381696157198142	0.904586910331476	-0.00362685229335838	0.00757302633742602
6.9	0.00246198914012491	-0.00723879075255779	-0.236438887008286	0.952843205558841	-0.236663619188631	0.952732973688057	-0.0025583680573833	0.00752039707317998
7	0.0004091655164531	-0.0078332375746262	-0.0865314489204182	0.977012376593388	-0.0867392985879523	0.976922536533621	-0.00163590161167858	0.00672530466324198
7.1	-0.00156027792856881	-0.00750147475293908	0.0651089071143192	0.979420828691039	0.0649089702926198	0.979287595008339	-0.00115011611186353	0.00650508997791675
7.2	-0.0029809692471244	-0.00702439665729743	0.216211102869932	0.957883346309397	0.215931021111397	0.957847637519519	-0.000152664857409756	0.00635540656261103
7.3	-0.00446621441272292	-0.00644361385833385	0.36198009566967	0.912907426965789	0.361745416842525	0.912932273327715	0.000794012150692538	0.00591580446521855
7.4	-0.00555577421458589	-0.00546843500576537	0.498642678394685	0.845830669632483	0.498430358086274	0.845880232492984	0.00158139565623018	0.00536612150709331
7.5	-0.00641041224200336	-0.00472553015975164	0.623402384643715	0.759669114910778	0.62323327655415	0.75973718643993	0.00260054098795738	0.00438927086946376
7.6	-0.00712137501030737	-0.00330484092890436	0.734752364644667	0.654086153498553	0.734495362824251	0.654166448512556	0.00292911203221816	0.00316389796282203
7.7	-0.00684775717367973	-0.00180525237134098	0.827375142057698	0.532143958066475	0.827188908780719	0.532358972698954	0.00314567822652901	0.00243949949036689
7.8	-0.00600903736044968	-0.000730192674169174	0.899989209542304	0.3976247500562	0.899884921279427	0.397848566317004	0.00341913507327562	0.00169312881687197
7.9	-0.0050535873492042	4.75693423047894E-05	0.951207380037324	0.254037581958222	0.951068266076852	0.254215608199665	0.00389069214195237	0.00141209644262163
8	-0.00347105802591342	-0.000691111969531471	0.980366467797884	0.10307697579829	0.980341389803237	0.103339170002018	0.00549794000065338	0.000113702778534671
8.1	-0.00468319618201743	-0.000908810832491007	0.984269030741435	-0.0507573000960066	0.984295992101813	-0.0505018806431446	0.00432042045917085	-0.00250698402044811
8.2	-0.00495632034227345	0.000338558235390618	0.964665107616998	-0.202590950488757	0.964710858260348	-0.202273848684757	0.0023826761071568	-0.00338783774974871
8.3	-0.00474126119772805	0.00172383386620545	0.922185451804413	-0.349807959233152	0.922234397249182	-0.34952049004493	0.000393078353241468	-0.00338770918362249
8.4	-0.00382464877475755	0.00335774468786286	0.857437743494786	-0.489384152170967	0.857533966146384	-0.48918122741787	-0.00147742799348704	-0.00214658481936831
8.5	-0.00138584737317639	0.00411254550457569	0.77035146181723	-0.617163455291874	0.770401810794699	-0.617012249899078	-0.000805356914960451	-0.000338342053721246
8.6	-0.000452809414427036	0.00343866720190036	0.66537705133417	-0.728651953286627	0.665543806440752	-0.728413370958171	-0.000621353341586538	-0.000870755953702525
8.7	0.000509937015684491	0.00392110864461264	0.544612108992795	-0.823457780022434	0.544869964740531	-0.823239975010296	-0.00114721992072044	-0.000485856980515148
8.8	0.00233559314564011	0.00416815668916326	0.410284593354051	-0.898557858279638	0.410469202247413	-0.898417073474383	-0.00149958868335283	0.000203505541037485
8.9	0.00463939120404147	0.0039365413834981	0.265291781716774	-0.951632797954488	0.26547009295562	-0.951461100826394	-0.00117076449032383	0.00163886726382472
9	0.00782903127918378	0.00222331223796865	0.114691306294332	-0.980381329229451	0.11499974737525	-0.980332397784835	0.00108511615130435	0.00284659200204521
9.1	0.00989909037071427	-0.000796762679315314	-0.0383326789131359	-0.987310593851405	-0.0380230201989614	-0.987267055027261	0.00366899675574794	0.00234460394602989
9.2	0.0110115331836693	-0.00436169219489667	-0.191634244228497	-0.969756426592744	-0.191285683908202	-0.969731447472224	0.00620942850173787	0.00100760311818336
9.3	0.0105401330999236	-0.00749404995160191	-0.340079379176065	-0.92827734091036	-0.339726403053331	-0.92824915425142	0.00829357779044694	-0.000966431267210136
9.4	0.00977122027469457	-0.00957468460269846	-0.47966553398519	-0.864239344313695	-0.479340556952116	-0.86432809117038	0.0102935748058265	-0.00309273135148852
9.5	0.0081766675744017	-0.0120279714832593	-0.607871189531877	-0.780659542929286	-0.607632717493276	-0.780708061207136	0.0115987559130265	-0.00787795816902788
9.6	0.005787526879952	-0.0118902564343199	-0.723085458039543	-0.676792255104819	-0.72277098960712	-0.676929440943335	0.00908082729310037	-0.0114386117815095
9.7	0.00512520089159406	-0.0112939166312811	-0.819689692213097	-0.556029178858539	-0.819398784982502	-0.556261557770972	0.00624133173314171	-0.0135445488519171
9.8	0.00471574804610019	-0.011140142215785	-0.89628078972365	-0.422095582945201	-0.896024692123082	-0.422263906506536	0.0027585929863081	-0.0146034885397359
9.9	0.00462676950695776	-0.0106675363260508	-0.951603614674284	-0.278226556681986	-0.951347957228107	-0.27843513710075	-0.000431665119064283	-0.0138356588161127
10	0.00484924331292887	-0.0120610610860597	-0.984701665148057	-0.126120095616953	-0.984544576173777	-0.126484777842122	-0.00168625236690118	-0.013894413040788
10.1	0.00246701706794916	-0.0120434965183392	-0.991732547315445	0.0292974287337116	-0.991666553559176	0.028862535016854	-0.00583887061503127	-0.0140618097313625
10.2	0.00178170398063725	-0.0109168674977689	-0.975209098755166	0.183173274126147	-0.975084414614295	0.182738861032699	-0.0095936600682256	-0.0117681675686585
10.3	0.00172241985364861	-0.0101567167993937	-0.935091666896358	0.332914045700928	-0.935107333544517	0.33236759408678	-0.0124157622390145	-0.00856787559424601
10.4	0.00211750578725113	-0.0102174685631101	-0.872011425284042	0.475015622954641	-0.872148229551829	0.474499069211555	-0.0139078168494988	-0.00467126771293515
10.5	0.00253101815714807	-0.0116182676027207	-0.786066459291306	0.60523176566379	-0.786240763345064	0.604795890923928	-0.0128591578110041	-0.00158671616388314
10.6	0.000658628183105542	-0.013432560054692	-0.682381370074483	0.719007229153804	-0.682655804513241	0.718674483527417	-0.0125100668649658	-0.000226368388390873
10.7	-0.00183165054732942	-0.0132775618904633	-0.562529658177735	0.816448620408855	-0.562832650434553	0.816136669388625	-0.0123751127123041	0.0019795396899602
10.8	-0.00347215582720748	-0.0122119952743877	-0.428476002643228	0.894178574192655	-0.428829864603354	0.893878109342302	-0.0113830589107911	0.00469105763542871
10.9	-0.00427925670277504	-0.0108828814006777	-0.283514286386908	0.949658173521175	-0.283907780089285	0.949534967857031	-0.0092918456780001	0.00710303086346867
11	-0.00457508299499434	-0.0103028577414321	-0.132907901176476	0.981002914158433	-0.133347956564913	0.980912334812342	-0.00637470111110823	0.00832384723031189
11.1	-0.0047835749048468	-0.00933212158495683	0.0209000578127426	0.990293791235211	0.0204077625559112	0.990308068481713	-0.00361894136896485	0.00904600248915581
11.2	-0.00455599544675913	-0.00898177373298979	0.174999764338826	0.974949376955071	0.174539465201185	0.975024008964785	-0.000426301985225562	0.00907051272870943
11.3	-0.00431852895555779	-0.00880269840331036	0.324503113824705	0.935433088443628	0.324041285297753	0.935571986327306	0.00289881328486952	0.00862678712858029
11.4	-0.00404464984517326	-0.00900362829507463	0.465385851224217	0.873149993794205	0.464979855111092	0.873265066979114	0.00655278911260172	0.00775712560101983
11.5	-0.00463969175532622	-0.0100652879959146	0.595154183815089	0.79113595909036	0.594834156536194	0.791441097143971	0.0100528096877786	0.00438616537631313
11.6	-0.00620410006978983	-0.00944872733123937	0.711678289800176	0.68848343612604	0.711462688838936	0.688814307441557	0.0107233828378965	0.00131601694375406
11.7	-0.00635631487358642	-0.00853576671353023	0.809756809517714	0.568915245964899	0.809553643812663	0.569224660591992	0.0113296251632928	-0.00101783088023671
11.8	-0.00649452181155094	-0.00833963109987639	0.887966446355173	0.435897290340731	0.887785644200995	0.436351664397871	0.0113914288019459	-0.0032764803618793
11.9	-0.0055628709054937	-0.00839947877043892	0.944987299682174	0.293004868565396	0.944882887453907	0.293458083615353	0.012105636702572	-0.00468923994090215
12	-0.00727021742971329	-0.0103663380102531	0.979865953147806	0.141716433733722	0.979839171855964	0.142083615941986	0.0127521331909459	-0.00820317051259989
12.1	-0.0110433434704793	-0.0105951113910627	0.988757239810478	-0.0130188155993661	0.988688585773249	-0.0126313529611585	0.0102616208251799	-0.0126172468331629
12.2	-0.0142764569131931	-0.00853422819117088	0.97412592352024	-0.16647430883374	0.974145713861094	-0.16617478376259	0.00653256097457003	-0.0145115638038472
12.3	-0.0164453950285086	-0.00535419475387807	0.93590377743722	-0.315832808127149	0.936026305137295	-0.315525488443847	0.00286253084369937	-0.0150462960925752
12.4	-0.0174079582737051	-0.00158477745744336	0.875235836312878	-0.457938690287542	0.875302499382766	-0.457567679974463	-0.00042215568181261	-0.0140037721636813
12.5	-0.0161581249866193	0.00132710703876969	0.791373952852576	-0.588282635943074	0.791719521656117	-0.587894165909565	-0.001398974218194	-0.0126893442964881
