# GHZ S RI R 50
0.2	0.000315249278318175	-0.00112652881601033	0.95337508162921	-0.306953822941622	0.953151923215646	-0.306928799089462	0.000282633238998907	-0.000987682318527429
0.3	-0.00044814914904119	-0.00119069168072275	0.894575841661927	-0.451221952303809	0.894418644096193	-0.451126568948526	-0.000559791870577515	-0.00119202973623474
0.4	-0.00121724840987199	-0.00075553304609215	0.814337807696046	-0.584883468074665	0.814349748419643	-0.584908698964071	-0.00144420580408044	-0.000753735352554099
0.5	-0.00090025155815365	0.000937626729922813	0.713483468988483	-0.705942934997756	0.71332711959091	-0.705841027881976	-0.0010833210442965	0.000948296427643369
0.6	0.000375183798001527	1.87209305856914E-05	0.59432493693859	-0.807706722577282	0.594204609634083	-0.807544122843517	6.8652414460113E-05	-1.56144004758089E-05
0.7	-0.000181121298191667	-0.000414989221082424	0.462034954260269	-0.890299983968473	0.462015830016312	-0.890186692187404	-0.000508268572312204	-0.000557410039504963
0.8	-0.000555778514583415	-0.000606804961919722	0.318021637484236	-0.952008785766926	0.317989713490079	-0.951817521959888	-0.00108836987406107	-0.000598938315292833
0.9	-0.00190107789644491	-0.000584849867112202	0.165330255150856	-0.990387305192595	0.165264586124387	-0.99029459786521	-0.0025105043258307	-0.000606532521648744
1	-0.00266543470877902	0.00305992913105345	0.00871067144250961	-1.00259692681982	0.00865862843938566	-1.00256519664313	-0.00326996731827271	0.00300416279226026
1.1	0.00179287707315788	0.00263772642775547	-0.145899031556986	-0.992524008712158	-0.145915026663559	-0.992392472773235	0.000760975694515287	0.00248822048502742
1.2	0.00242047830310572	-0.000514608067573842	-0.299324297922876	-0.958440218794554	-0.299247194362994	-0.958413863106078	0.00118945908741831	0.000451841377459992
1.3	0.00236033462370167	-0.0039079118029304	-0.445472315798829	-0.899988591422985	-0.445449048263574	-0.899981931729372	0.00192710025581787	-0.000779090109839498
1.4	0.00145807693645195	-0.00671002521128107	-0.579806374282433	-0.818968946649857	-0.579781935375828	-0.818947147855144	0.00261606638558944	-0.00178920141648516
1.5	0.00299323626114759	-0.00913131406944014	-0.699107652714176	-0.71986738771764	-0.699004889440841	-0.719781644792054	0.00582390460365045	-0.00398938277321439
1.6	-0.0015174182999878	-0.0121679580226746	-0.804730894332606	-0.602883010486413	-0.804655855499343	-0.602822380524917	0.00190355712999239	-0.00726347026412653
1.7	-0.00435936226375372	-0.00934634253928925	-0.88892711464356	-0.46956552824902	-0.889091655401689	-0.469042664360547	-0.000322300775464049	-0.0053136717041463
1.8	-0.00554506425037652	-0.00678941335308551	-0.95108610294795	-0.324427955845221	-0.95097354365378	-0.324427052413084	-0.0013043909221303	-0.00387902831592939
1.9	-0.00580627902616357	-0.00297229837948992	-0.989632035424128	-0.173241364404864	-0.989723893870014	-0.172747730290049	-0.00164268186374718	-0.00119627894667319
2	-0.000333703406508816	-0.00147243542118027	-1.00653033086677	-0.0161561034405391	-1.00654218937115	-0.0161095509072928	0.00344051603918608	-0.000747010266812676
2.1	-0.00178237861501427	-0.0062099840123643	-0.99559780497343	0.143422979295277	-0.995636093865814	0.143460891269992	0.00143082276839087	-0.005845224635114
2.2	-0.00496912353966007	-0.0053537504749254	-0.95983624228073	0.296566302128625	-0.959759654207015	0.296629146135562	-0.00145898077175589	-0.00520985084900083
2.3	-0.00675978034211385	-0.00353819118498302	-0.901739639538123	0.441651537749992	-0.901347821662469	0.442166926220146	-0.00295439799971108	-0.00423524560097717
2.4	-0.00845162420330156	-0.000418409992570557	-0.821237568256892	0.578383930455504	-0.821513950247492	0.577793860817946	-0.00451912337931664	-0.00226036051980228
2.5	-0.00464959557024647	0.00419249172110087	-0.718907315937734	0.700941141629558	-0.719130980713379	0.700428436441188	-0.0010520870373023	0.000412622278102941
2.6	-0.00202144858798973	0.000722247721094722	-0.599480634101699	0.801251998977328	-0.599376371215117	0.801066115956711	0.00053074779722719	-0.00415474841261795
2.7	-0.00322101454661829	-0.000414131603726548	-0.467138017078638	0.884093826012031	-0.467596749282433	0.883690413222853	-0.00178185817360437	-0.00584641508042639
2.8	-0.00408504426253809	-0.000167477259170354	-0.324594902820493	0.945264212922618	-0.323919649237874	0.945413614594096	-0.00392806954986836	-0.00569310995290864
2.9	-0.00355440244435829	0.000811953309167741	-0.171348146407044	0.983582924205816	-0.171381158490479	0.983495537758112	-0.00448622284110729	-0.00409169179814625
3	-0.00216856630066242	7.22163926084662E-05	-0.0150503331094688	0.994284137426043	-0.015756181001468	0.994138176697609	-0.00392923187628477	-0.00378980184628109
3.1	-0.00284529976193172	0.000259212639793305	0.135760086928563	0.984552935887401	0.136351866602215	0.984525383342206	-0.00490931965649634	-0.00264973338806069
3.2	-0.00187362075405375	0.00112112735112742	0.2881408634674	0.951152242900045	0.288084894680642	0.951092729532196	-0.00407125364113345	-0.000792540812672792
3.3	-0.000425860988146087	0.00130380743873569	0.43273196217025	0.893292797123349	0.43259437038219	0.893281071663862	-0.00267968444114228	0.00023859636353032
3.4	0.00154411959413796	0.00146140345424781	0.564928311652062	0.813144060778021	0.564768448110124	0.813264843083868	-0.000388970930022508	0.000891536609659885
3.5	0.00486074798357957	-0.00195744433202952	0.68138120664501	0.716965367805072	0.681302390206247	0.717005286406621	0.00279387214876049	-0.00193601463352888
3.6	0.00189660371586517	-0.00514963132608114	0.785920619247165	0.603229651583681	0.786153957698299	0.602777122620361	0.000285722327975308	-0.00423168734613415
3.7	0.000397538817465545	-0.00506187559165814	0.869661381360002	0.471563485064962	0.869545891581731	0.471708475893058	-0.000468879854880371	-0.00353611257827996
3.8	-0.000747416014871022	-0.00485619072561877	0.93047113548872	0.330874592306784	0.930520867725351	0.330495694560386	-0.000694785145816838	-0.00320924417029236
3.9	-0.00110378116386749	-0.00333387622472799	0.969416202179016	0.182391444670976	0.969190065309833	0.183059923040675	-0.000852448854200226	-0.00220676082222069
4	0.00268685453214986	-0.00374562440913543	0.988065453562303	0.0303678829834421	0.988028350316784	0.0304711755838914	0.00302384293991444	-0.00314159784550738
4.1	0.000644818409629737	-0.00864111391051832	0.978401877802079	-0.125917674167461	0.978220752058116	-0.125787413999521	0.00090786559562676	-0.00791383455490138
4.2	-0.00292563728599263	-0.0091304997710048	0.944446805994178	-0.275826609964703	0.944494396074036	-0.275178069146054	-0.00195202335267417	-0.00845249117038657
4.3	-0.00589908009910047	-0.00889719617398049	0.889764441793472	-0.417241434714492	0.889631768645085	-0.417128667449366	-0.0042516553840165	-0.00872385342779681
4.4	-0.00940819350025572	-0.00670274422921359	0.814386924224571	-0.550124577782422	0.814225524303867	-0.54998925107538	-0.00701917807677308	-0.0075808573548031
4.5	-0.00826149778930518	-0.00267485370628048	0.715979729120193	-0.671116214069321	0.715796458450035	-0.670940638918532	-0.00578480466446074	-0.00520130270240596
4.6	-0.00813560989227019	-0.0045962264794825	0.601052452098026	-0.76995932570721	0.601403382048224	-0.769277991381733	-0.00626683594276402	-0.00848819358744337
4.7	-0.0106547882122311	-0.00424006010264985	0.475837502257499	-0.851804320597575	0.475860044417482	-0.851454109030712	-0.00959329837247269	-0.00920640161989607
4.8	-0.0126862697477548	-0.00244404913383158	0.338047194459621	-0.91429247800667	0.338270672220488	-0.913984755765941	-0.0124009565660732	-0.00860782175124523
4.9	-0.0136489925000513	0.000212352619360961	0.191693549132952	-0.95396361317334	0.191477123772854	-0.953967415235769	-0.0143655841830776	-0.00685092705618427
5	-0.0126640183895863	0.00195055394508413	0.0422565177830367	-0.96721556128964	0.0424338246423465	-0.966978399271429	-0.0144513779349073	-0.0055080188806593
5.1	-0.0138165632181105	0.00368238050046975	-0.103771607435994	-0.962775331851972	-0.103444452871183	-0.962558698606153	-0.0165393614729751	-0.00371144449664149
5.2	-0.0130347280759728	0.0074954369513415	-0.251305114187413	-0.935579289357898	-0.250823246051503	-0.935558273331641	-0.0166446785040144	-0.000171828084417169
5.3	-0.0104567257229243	0.0109520736155557	-0.392400179258861	-0.88465809610888	-0.392069106355923	-0.884872947374606	-0.0151845498248472	0.00292034138514535
5.4	-0.00529834363592815	0.0144521539294409	-0.522446720785645	-0.812099321521932	-0.522240733936234	-0.812296992508759	-0.0118990881401061	0.00577633272192535
5.5	0.0024557022830374	0.010251890284724	-0.638409605316513	-0.724607619698342	-0.638176945933921	-0.724798404915009	-0.00711116968935439	0.00184921746847994
5.6	-0.000555105972200724	0.00729705323824792	-0.745161946700369	-0.618379683672514	-0.744976756903553	-0.618548480836887	-0.0123588265046477	0.000468513896366442
5.7	-0.000455778883936842	0.00920379409720723	-0.831448526693836	-0.494925892651751	-0.831322640742577	-0.495141272786939	-0.0136492644222838	0.0040745802003529
5.8	0.0012301131956016	0.0109609391313716	-0.896627003678216	-0.360828202620371	-0.896561034403115	-0.361106746744322	-0.0131771061204944	0.00731240402107683
5.9	0.00451170501224094	0.0139012782664895	-0.94109401640687	-0.220331791911994	-0.941107997345802	-0.220413543200372	-0.0112334438482154	0.0116610445637334
6	0.0148585277101574	0.0119662023447044	-0.967707200398278	-0.0726616151260513	-0.967590047099038	-0.0727182324539297	-0.00330072282018844	0.0115394636702595
6.1	0.0148756156308226	0.00268202007331419	-0.965468462898	0.0803385383812471	-0.965344331360295	0.0801931950622586	-0.00483331170064205	0.00612671532731057
6.2	0.012415533409967	-0.000599040180402953	-0.940227459051898	0.227221789469508	-0.940213580262079	0.227023473048191	-0.00704357769519946	0.00661881168572323
6.3	0.0101310768211645	-0.0027368111408399	-0.894475620124816	0.368541209537473	-0.894470379840299	0.368359956907022	-0.00771308252231793	0.00775917514133277
6.4	0.00818377520733525	-0.00332711730971964	-0.828476398153449	0.502812102992712	-0.828444193058747	0.502605877014105	-0.00756178060084958	0.00946236826592769
6.5	0.00770152154118892	-0.00474234351558616	-0.738257195153136	0.626862867863163	-0.738280244768883	0.626662946950611	-0.00568609218823517	0.00978206342731171
6.6	0.00594849600326804	-0.00579082515417503	-0.63215726264893	0.729491098027898	-0.632227894201638	0.729244567885937	-0.00498027481204374	0.00991092236376639
6.7	0.00513655682183696	-0.00650458664432339	-0.514061501792045	0.817897153051764	-0.514160018135159	0.817680210693016	-0.00358156460791456	0.00990361722013549
6.8	0.0043317002434031	-0.00760349285374018	-0.382479144146074	0.888366217466518	-0.382615980868483	0.888197818355371	-0.00261851698543009	0.00940026067639693
6.9	0.00349753224807334	-0.0087157000916099	-0.239657003065313	0.937208418804464	-0.239877665541507	0.937098226860307	-0.0014944200351294	0.00902097057102591
7	0.00184168003121289	-0.0110686490849434	-0.0931907482830494	0.959102633232339	-0.0933941897532391	0.959012633041043	-0.00120494246358663	0.00706917285853831
7.1	-0.00157477308656715	-0.0108461035718725	0.0519734402891633	0.964715187309872	0.0517783164883406	0.964581592675413	-0.00225031608902288	0.00763299906290626
7.2	-0.00325546138312689	-0.00995840531016439	0.200715490008069	0.947260850391441	0.200439801452719	0.947221998277222	-0.00141168685504443	0.00840926830971251
7.3	-0.00479591566744658	-0.0091660916100937	0.344902188762087	0.905492701900475	0.344670328777184	0.905514073968053	-0.000399604370191527	0.00866354759927615
7.4	-0.00559724072625819	-0.00783155166039052	0.479304931918816	0.841135050302642	0.479094889453	0.841180826695816	0.000894362574129173	0.00889672772081586
7.5	-0.00527857468087435	-0.00848645842955696	0.601288596122648	0.761927340249682	0.601120318387057	0.761991372681126	0.00297770876354404	0.00718291912851993
7.6	-0.00841228995185087	-0.00873134292004465	0.716326840055936	0.662155653351843	0.716070539991204	0.662230487608607	0.00196400868198523	0.0055577229921983
7.7	-0.01038466722764	-0.00605023369492892	0.811320969708886	0.543033670133259	0.811132277433438	0.543243643088325	0.00179815691188357	0.00592595306391115
7.8	-0.0108221240228639	-0.00268816228411588	0.886095542729637	0.411744368989382	0.88598778155508	0.411964628298784	0.00228076733290024	0.0061426593670868
7.9	-0.00935088400786811	0.00204620851479319	0.94056305868397	0.272321816861456	0.940421040367335	0.272495952535173	0.00384399781314235	0.00723161903639464
8	-0.000824691331419885	0.00334809650946579	0.977377543463646	0.122883752048868	0.977347165975845	0.123145197416449	0.00936751784558808	0.00525795392711175
8.1	-0.000265890144386503	-0.00248877647334434	0.984119475268449	-0.0332732802175665	0.984141884814263	-0.033017655372751	0.00656984059943866	-0.00171770179817077
8.2	-0.0017875524045756	-0.00302491222811126	0.967207190933702	-0.184747603847965	0.967247101113433	-0.184430046739783	0.00245070329522422	-0.00220163159263609
8.3	-0.00284870930262444	-0.00282283381690644	0.928866667646676	-0.332177488069047	0.928910117584641	-0.331889085011966	-0.00056975636147228	-0.00158757172746378
8.4	-0.00446121599771443	-0.000444987663967431	0.8691273709853	-0.474254290600374	0.869219960291575	-0.47404897517973	-0.00371226628326583	0.00124386959851219
8.5	0.00116291202727725	0.00388370156689453	0.782552885061021	-0.607230623415152	0.782601046548157	-0.607078126105958	0.000143580495454982	0.00555318091431869
8.6	0.00408080360108082	-0.00206578477994356	0.678763599189896	-0.71831987681597	0.678926515910297	-0.718078108850704	0.000712166266079093	0.00133094837177329
8.7	0.00213588191744289	-0.00392499828094052	0.561420588802432	-0.816046697822732	0.561675256888829	-0.815823481501595	-0.00176750018880279	0.00201002486559986
8.8	0.000914876348936664	-0.0041419503753113	0.428664702540814	-0.895729832571561	0.428847707053884	-0.895584982082393	-0.00257393083191963	0.00385292612934156
8.9	-0.000166883752574055	-0.00282996058216842	0.282437999873038	-0.953313891081647	0.282614642368041	-0.953138212666449	-0.00210653694107758	0.00662820233492003
9	0.00274065078020369	-0.00100279445783273	0.131513280279238	-0.981987374217273	0.131822011416775	-0.981933103883945	0.00212765826310819	0.00888819702638251
9.1	0.00467431251271701	-0.00238993602263886	-0.0192986252302813	-0.994690032211432	-0.0189877377421174	-0.99464015070024	0.00529552364958624	0.00770741150342852
9.2	0.00709056211103324	-0.00337772757008683	-0.17555630746376	-0.982337943150721	-0.175204954457811	-0.982306309112102	0.00889604626302731	0.00621275745979359
9.3	0.00912002036087943	-0.00535614696388752	-0.327826415539903	-0.943652187389774	-0.327470268886167	-0.94361771277811	0.0116442780441701	0.00317746169494639
9.4	0.0115393859417268	-0.00626898022213802	-0.470052666081966	-0.880500095458413	-0.469723085230225	-0.88058434177376	0.0140097595793135	0.000871347491178365
9.5	0.0158387991752637	-0.014738569949203	-0.599498540217474	-0.801887256285198	-0.599256306745428	-0.801931606811384	0.0166257181981145	-0.0084887011908137
9.6	0.00782115672539217	-0.0193153331950449	-0.72293557406778	-0.70018407135896	-0.722613684387419	-0.700318001773971	0.00811814720571368	-0.0123950312247846
9.7	0.00396234342401788	-0.0175545752313659	-0.824921186414242	-0.577718508747039	-0.824621909391812	-0.577950351162795	0.00408560044909459	-0.011566983451308
9.8	0.00160020930861658	-0.0155605612950774	-0.905476250171309	-0.442116561364299	-0.905213385301907	-0.442284078320247	0.000652411544600889	-0.0108198261595978
9.9	0.000867817362616684	-0.0104962505873318	-0.964878402239259	-0.297590421289546	-0.964614931660417	-0.297798993469889	-0.00167034615826724	-0.00750871754873308
10	0.0087876932876668	-0.0111654118192853	-1.00598144365741	-0.141466700259507	-1.005816107548	-0.141837871689545	0.0023038897080958	-0.00905899287022976
10.1	0.00494971680479678	-0.017093501483747	-1.01391787194036	0.0216983627304135	-1.01384680129196	0.0212543964646062	-0.00499311560203234	-0.0129318426453259
10.2	0.00124932361699556	-0.0160575579009052	-0.99765808132658	0.179659648822644	-0.997527380015895	0.17921681503265	-0.0105735657040519	-0.00935801391746432
10.3	-0.000913330770089983	-0.0139293271097755	-0.958564471386119	0.333765455907093	-0.958576598903632	0.333206561395503	-0.0138030259265603	-0.00505817646469635
10.4	-0.00188093727137918	-0.0104419652185044	-0.896472636332268	0.482295058327255	-0.896610118085969	0.481764787466205	-0.0153886777724558	0.000418530305258822
10.5	0.00280583973718889	-0.00778962465407988	-0.805182131547772	0.62061964828734	-0.805360979279922	0.620173087572351	-0.0114252616572676	0.00442969433561314
10.6	0.00466971396821704	-0.0116700056043268	-0.696818269717226	0.734896907673768	-0.697098803059437	0.734557086356324	-0.0106268064497068	0.0034116940402494
10.7	0.00365523208403589	-0.0137238947416337	-0.574393113385682	0.83505581073337	-0.574703093085688	0.834737161782792	-0.0112264134441669	0.00497597955544149
10.8	0.00224982357942954	-0.01481689799968	-0.435991544470806	0.915807291048593	-0.43635430503023	0.915500848320946	-0.0108671027362328	0.00767288144244302
10.9	0.00145775968195502	-0.0153208545854987	-0.284146603436105	0.972652225376206	-0.284549659437087	0.972528629328628	-0.00872883582906626	0.00999634962978208
11	0.000724460425784498	-0.0172129852609106	-0.12919406989912	0.999197070355604	-0.129642479028867	0.999107608670597	-0.00617465251515214	0.0104910921457065
11.1	-0.00195066583971121	-0.0173711983290136	0.0255888176136965	1.00964195606923	0.0250869215335284	1.00965864102672	-0.00475326733647767	0.0121109615010683
11.2	-0.00346314161135934	-0.017082001088071	0.184845927877588	0.993878855676008	0.184376640697732	0.993957971692113	-0.00150747506703237	0.013126732625749
11.3	-0.00472797163888468	-0.0161155034179588	0.338963557557239	0.951194714806704	0.338493764345334	0.951340329359742	0.00221224914531457	0.0135777376395281
11.4	-0.00429611357558619	-0.0141059419504025	0.481713211629554	0.883787433776417	0.481301306573257	0.883908351094586	0.00717961538478618	0.0137374960689927
11.5	-0.00184657726170782	-0.0183548782836573	0.611023763732597	0.801874541058621	0.610699797516193	0.802187277247222	0.0125701033135238	0.00713563167687412
11.6	-0.00880296477666202	-0.0202917268666626	0.733358519672421	0.695737057626223	0.7331417228004	0.696076967920678	0.00931824120105365	0.0037540021242794
11.7	-0.0125022790379428	-0.0169801610221634	0.832593807533384	0.569782275585682	0.832390586219847	0.570100237942158	0.00938223884987261	0.00347485515186784
11.8	-0.0149892040236284	-0.013183256617042	0.909600035375066	0.431658477981155	0.909422151863459	0.432123352323191	0.0095977121532156	0.00263785922972562
11.9	-0.0139496185405595	-0.00584635848457053	0.965168864245364	0.285955016456288	0.965068460508292	0.286417446621582	0.0114430455827969	0.00364848707475997
12	-0.0054144253637987	-0.00562019675727492	1.00220596789371	0.1292818422988	1.00218438671405	0.129656983682492	0.0181210211060215	-0.00191195223333585
12.1	-0.0085873709398127	-0.00987707129579556	1.00558907469415	-0.0325486939038016	1.00552679931269	-0.0321531953318003	0.0120352720162162	-0.00935683990893305
12.2	-0.0107499624060824	-0.00900485437795914	0.985399089095931	-0.188246281117186	0.985425104389882	-0.187942668314115	0.00744391000163509	-0.0107198492442158
12.3	-0.0122142464087949	-0.00763739843272764	0.94290491348096	-0.339032395025946	0.943035326822225	-0.338723152570045	0.00355706565973973	-0.0113706696000113
12.4	-0.014040950997871	-0.00451751567104859	0.878540416815774	-0.483685679646728	0.878616076054966	-0.483310522671891	-0.00041059324705824	-0.00988666205619035
12.5	-0.00981506599854889	-0.00102716791869738	0.785068348698985	-0.616781657982662	0.785428594803243	-0.616397817154957	0.00062267203986479	-0.0082194395412507
12.6	-0.00958297751640618	-0.00452397348041569	0.677188869968363	-0.725267286464585	0.677451283747949	-0.725031173787052	-0.00270198648852353	-0.0113804267713605
