# GHZ S RI R 50
0.2	-0.000101251986603458	-0.000511421133603683	0.950545846384599	-0.307640145902485	0.950323279143929	-0.307614845311734	-5.54358120752627E-05	-0.00046013421132973
0.3	-0.000465847322112127	-0.000484695823665783	0.890959865793717	-0.451504889595771	0.890803333885256	-0.451409506329794	-0.000478113776344937	-0.000676275994922453
0.4	-0.000688002220026231	-0.000283967653255973	0.80991356561555	-0.584236699745278	0.80992540736386	-0.584261855225015	-0.000845383677798984	-0.000572195319684505
0.5	-0.000671323751076885	0.000349464453553441	0.709153582381339	-0.703513063353587	0.70899811247966	-0.703411437030132	-0.000806312252294201	5.28976315406909E-05
0.6	-0.000260961768211452	0.000159688883287655	0.590740520131726	-0.804788546096312	0.590620917403624	-0.80462653308013	-0.000430051308532271	-0.000276771752196531
0.7	-0.000431900650186909	0.000232698656477547	0.458577448726676	-0.886525489714287	0.458558568901048	-0.886412730887377	-0.000633397779249309	-0.000510278318895913
0.8	-0.000367033461923163	0.00026492588127729	0.315226765699474	-0.947081667740895	0.315195226082909	-0.946891428546071	-0.000905420473410804	-0.000527265549082474
0.9	-0.000627915882088098	0.000340390892344006	0.163952982573796	-0.984539549113917	0.163887742064116	-0.984447369426626	-0.00156304089859637	-0.000616182596969066
1	-0.000727926726159981	0.00140058303589075	0.00870817129381081	-0.99730641752073	0.00865640132094333	-0.997274857181022	-0.00212306765868942	0.000720133513537601
1.1	0.000950089864163228	0.0010482402825105	-0.145717388241645	-0.986652806192425	-0.145733202186997	-0.986522024303523	-0.000745153568287043	0.000869526770246809
1.2	0.00142399750165308	-0.00084708420990521	-0.297542839869071	-0.952101733368423	-0.297466236675938	-0.95207556471699	-9.16146415033618E-05	0.00042675825865908
1.3	0.00156805652173254	-0.0033455262656591	-0.442023067569092	-0.89406961186616	-0.441999961350826	-0.894062986667746	0.00144457830607423	0.000118663367657248
1.4	0.00110626868846612	-0.00583934707184755	-0.575254756546955	-0.814140661631034	-0.575230497730914	-0.814118983121699	0.00307982698453499	-0.00100065819197023
1.5	0.00118320367142675	-0.00715510995602793	-0.694264586808553	-0.715082880890287	-0.694162532581962	-0.71499770515535	0.00524228856717147	-0.00273155323465879
1.6	-0.000833599318844335	-0.00819516434165622	-0.797510786642353	-0.598720834820461	-0.797436425476646	-0.598660629365366	0.00358741296665324	-0.00517235690337219
1.7	-0.00218196336267008	-0.00684781214364121	-0.880573604008784	-0.467573697917253	-0.880737896904204	-0.467055509833114	0.00201478856310583	-0.00508486325308792
1.8	-0.00295989699890875	-0.00566493112769816	-0.942497586944435	-0.324406713130439	-0.942385941412302	-0.324405508687239	0.000736390431230571	-0.00489783529378304
1.9	-0.00349191212709306	-0.00402970264532701	-0.981086262475127	-0.174614519056552	-0.981178761520079	-0.174125162930041	-0.000350173411679468	-0.00385679158368775
2	-0.00204254763550054	-0.00296445403452648	-0.996847702862066	-0.0195435623729521	-0.99685961175703	-0.0194974967387535	0.00107335260006618	-0.00316743800294973
2.1	-0.00275651581084368	-0.0042304241158109	-0.987370361485492	0.136548071099774	-0.987408515299614	0.136585424752618	0.000206078860442276	-0.0051797109480476
2.2	-0.00429240606252583	-0.00356964585576248	-0.953663713809523	0.288184844821468	-0.953588150953102	0.288247636682605	-0.00139235129188278	-0.00500255927779841
2.3	-0.00527556983186784	-0.00248525649096071	-0.897292787009117	0.432126331031253	-0.896907549322417	0.432640093933911	-0.00258138731972385	-0.00457062244324416
2.4	-0.00633180832712025	-0.000986267708039335	-0.818491125114149	0.56747416942964	-0.81876084994526	0.566887090040804	-0.00391704068226417	-0.00351537205630611
2.5	-0.00541956667365216	0.00145267968427021	-0.719843942791488	0.68840641327829	-0.720060891000495	0.687895689055002	-0.00287424673610989	-0.00173785435336854
2.6	-0.0043967537225069	0.001017334876547	-0.603669169709436	0.790551247380368	-0.603563724350853	0.790367507165103	-0.00153252027518076	-0.00313716778869252
2.7	-0.00447744779661231	0.00114188967821713	-0.473070304115659	0.874497632301733	-0.473522490463286	0.874092061453634	-0.00195158140414968	-0.00420969615392019
2.8	-0.00430959969094633	0.00150778623399497	-0.332602011634804	0.936748249603104	-0.331931988301458	0.936903821205291	-0.00283979579286959	-0.00469738453638686
2.9	-0.00345789535305336	0.00201446432351723	-0.181915857776129	0.976901358662373	-0.181947700588426	0.976814007433444	-0.00316279179176277	-0.00414348829728468
3	-0.00220373793056761	0.00178930600273318	-0.0268247451700453	0.991868740333853	-0.027527271798664	0.991714725181237	-0.00281711523425012	-0.00389709210193526
3.1	-0.00164160393807922	0.00174181805904575	0.125036937607416	0.983799328623278	0.125627692236857	0.983778101121545	-0.00303127930556144	-0.00349759807959299
3.2	-0.000666684721676123	0.00165694732483169	0.276924533522588	0.952282935666435	0.276869349369861	0.95222292924276	-0.00280058518787301	-0.00266362307768506
3.3	0.000468856469133276	0.00122807590111145	0.421659869826078	0.897151778016172	0.421522603325026	0.897138454071913	-0.00207235550370613	-0.00205513500426648
3.4	0.00144654227062337	0.000653151870537668	0.555402056929745	0.819957703053759	0.555240738889415	0.820076614079058	-0.000831834679852528	-0.00176425908078395
3.5	0.00299239029063601	-0.00106764633890565	0.67457004076665	0.724219961115523	0.674490778256853	0.724259110997629	0.001093692518711	-0.00287437040888011
3.6	0.00193873290608914	-0.00299274030760074	0.779004689938477	0.611581136147602	0.779242883247972	0.611131342420608	0.000403991860732777	-0.00454797429824698
3.7	0.00122842015321149	-0.00365297540317149	0.864638475580375	0.482038391163206	0.864521217857679	0.482182112157453	-0.000108132569377647	-0.00471136278509393
3.8	0.000368689697667217	-0.00424187911430481	0.928153463363479	0.342311661586778	0.928207711028468	0.341932713245402	-0.000506031964852062	-0.00488314032861016
3.9	-0.000368453398826729	-0.00427788377573088	0.969597640386063	0.193395233605651	0.96936369049483	0.194062740206019	-0.00124342127696874	-0.00471982424383765
4	0.000148285039585193	-0.00452923215363747	0.988741544179973	0.04164087880126	0.988703227372234	0.0417438560650534	0.000190691497682932	-0.00469493521902915
4.1	-0.00126715079273071	-0.00662775392748466	0.982665115778441	-0.113444669420754	0.982481800598726	-0.113316432489877	-0.000390117354487967	-0.007207361250528
4.2	-0.00368151378313052	-0.00690231196637341	0.951943205968647	-0.264933100692421	0.951982718592483	-0.264281222301708	-0.0020369424931844	-0.00811448143398361
4.3	-0.0058766922590762	-0.00681878971874227	0.899312993006073	-0.408374106048237	0.89917827453611	-0.408262409950558	-0.0037583990650073	-0.00883211700606075
4.4	-0.00858931565869801	-0.0057781644116075	0.825235192277186	-0.54285835263004	0.825071318743516	-0.542724334269405	-0.00611673446978092	-0.00871786990298152
4.5	-0.00966425411014102	-0.00344650005202818	0.730028300122353	-0.665209727643255	0.729841379683784	-0.66503564042258	-0.00682966404985889	-0.00721811848333455
4.6	-0.0106724756676417	-0.00294599408847129	0.616490626021691	-0.76927333193412	0.616835991735668	-0.768581224695996	-0.00734300908212379	-0.00829419425374936
4.7	-0.0124083046282909	-0.00157323746265318	0.490420442666955	-0.854582506550993	0.490439121831997	-0.854228608866127	-0.00936937078853023	-0.00880580672712716
4.8	-0.0137122622231013	0.000628487489836608	0.351781537870354	-0.919879520947018	0.352003853995878	-0.919566131727014	-0.0113645698987269	-0.00866375705064831
4.9	-0.0140816121770071	0.0031146259161422	0.204845688887631	-0.962529865478502	0.20462686301006	-0.96253620313611	-0.0130463827531368	-0.00780520882559336
5	-0.0132492554660346	0.00533761986934892	0.0528099961880603	-0.980677106493071	0.0529874115827881	-0.98043471381495	-0.0135878776662119	-0.00663076287488413
5.1	-0.012584172290802	0.00718779174848022	-0.0979844552344012	-0.977043556459569	-0.0976543467248306	-0.97682142783793	-0.014865329398337	-0.00556099704811606
5.2	-0.0110333938312346	0.00967316201355781	-0.248214111898848	-0.950328723541162	-0.247725704932432	-0.950304027802503	-0.0156761655034843	-0.00321457606861805
5.3	-0.00864757348729538	0.0116664777930921	-0.392377321015953	-0.900121154811088	-0.392040019237451	-0.90033699006216	-0.0154105169203242	-0.000539394660370974
5.4	-0.00529385099609825	0.0136501010679935	-0.52656016750324	-0.82782858140478	-0.526349850199205	-0.82802833847715	-0.0138498621307765	0.00233761103413763
5.5	-0.000531946330065295	0.0126454009722179	-0.646887182657351	-0.737118026327626	-0.646650534462565	-0.737311313171119	-0.0103582822491138	0.00204590579508982
5.6	3.19195048430984E-05	0.0113352541288207	-0.754154157454735	-0.628776708744571	-0.753965980774061	-0.6289474377132	-0.0118413142551781	0.000914770158489479
5.7	0.00148786861901936	0.0117412544145102	-0.842573644254356	-0.503951633116085	-0.842445454338408	-0.504169900156614	-0.0127506976057801	0.00277166007847243
5.8	0.00340534624886514	0.011907129265862	-0.909955077362111	-0.367230916049377	-0.909887823289843	-0.367513646674286	-0.0128253116103945	0.00508865230158097
5.9	0.00551011092967142	0.0122407447106473	-0.955487675227645	-0.222731429013919	-0.955501946754459	-0.222814398287092	-0.0121752202100466	0.00842673160486557
6	0.010387708250198	0.0113015981152356	-0.980138254204964	-0.0725762190350027	-0.980019664390379	-0.0726336819533126	-0.00752971642530081	0.0107753814359889
6.1	0.0116396328018161	0.00661032510637377	-0.979095120076103	0.0815570232632127	-0.978969248474859	0.0814096163586996	-0.00570873877568609	0.00847279880196994
6.2	0.0112667800669546	0.00393506517552529	-0.953925871855029	0.231992696528679	-0.953912077341011	0.231791399956433	-0.00557999695811471	0.00779094864971702
6.3	0.0103997254180475	0.00141463618047967	-0.906578121109803	0.376502249130355	-0.906573319396015	0.376318316985359	-0.00562073939061147	0.00727684868779126
6.4	0.00910080104048793	-0.000414625378596891	-0.838028148328013	0.512523918846022	-0.837996216574106	0.512314772041308	-0.00599881922912552	0.00735068519858609
6.5	0.00807554411137036	-0.00225601207786577	-0.747576222195666	0.637446741279714	-0.747600024173323	0.637243988360752	-0.00556454793215945	0.00747746392246776
6.6	0.00657160423359112	-0.00372033712314429	-0.639081634901808	0.744081573068935	-0.639154508963761	0.743831384948824	-0.00544583148038426	0.0077123293743855
6.7	0.00535555353357342	-0.00486965332653458	-0.516822707373146	0.833688445009748	-0.516924099136463	0.833468788736347	-0.004681154393055	0.00825525184704803
6.8	0.00415762307328763	-0.00603187833561644	-0.381806987607546	0.904027863932485	-0.381947007696195	0.903857970072948	-0.00363596970147759	0.00844895608354566
6.9	0.00269351883544762	-0.00706561177520317	-0.23662347456446	0.952597842955473	-0.236848135671946	0.952487578324369	-0.00230816769795501	0.00838322399449589
7	0.00101891135071418	-0.00821693508469287	-0.0860510120807259	0.976012978750903	-0.0862586775941282	0.975923316533485	-0.00120228145803508	0.00716356532507304
7.1	-0.00147062996565768	-0.0082025866771492	0.064382051369369	0.978165840732227	0.0641824666143935	0.97803265284339	-0.00125038426624315	0.00679302467394411
7.2	-0.00313471204655494	-0.00759390962179613	0.215237962718146	0.957207568858305	0.214958159232658	0.957171663512717	-0.00047776592894241	0.00687668370324731
7.3	-0.00469743907464382	-0.00689556717861935	0.361127170730396	0.912443050422888	0.360892654458274	0.912467729318675	0.000418198061552042	0.00665254407815912
7.4	-0.00576158607184647	-0.00578389658171972	0.497756069194693	0.845007179615453	0.49754398219504	0.845056609230656	0.00131286460388311	0.00631467053822829
7.5	-0.00606218692662533	-0.00534175396146204	0.621114368917943	0.759222541951814	0.6209454671039	0.759290233414965	0.00285787625942497	0.00516436630812035
7.6	-0.0074683675859098	-0.0050051560754289	0.732960578824694	0.655099105696194	0.732703591683424	0.655178837522131	0.00268596599228727	0.00319520916955013
7.7	-0.00850093890380449	-0.00333840246643065	0.826187959763759	0.533313347710528	0.826001440420369	0.533527974593248	0.00201474959564493	0.00253329213568316
7.8	-0.00868031311901555	-0.00134952279961931	0.89902224464208	0.398844776970227	0.89891765512129	0.39906834448924	0.00157467527836437	0.00239490918405127
7.9	-0.00826045334371697	0.00125321406986314	0.950155194252667	0.255696720884541	0.950015824503942	0.255874375871216	0.00166118865323295	0.00354217425657439
8	-0.00443850046824523	0.00312142746514082	0.980702135847372	0.105584480483619	0.980676388739852	0.10584677067356	0.00467606258150663	0.0040784545607763
8.1	-0.00334538649054913	0.00147626003311269	0.985293150746415	-0.0495659761917289	0.985319816412244	-0.0493102735919798	0.00526361946923334	0.000376429012835754
8.2	-0.00307346516523254	0.0015746730476686	0.96533919242391	-0.201741734026763	0.965384653657947	-0.201424431144937	0.00364771936629126	-0.00120617281650863
8.3	-0.00271380808827615	0.00180597975829713	0.922838660300015	-0.348802985385844	0.922887276972646	-0.348515383948917	0.00184164638699955	-0.00197593346033209
8.4	-0.00268532134133199	0.00251275196463505	0.858787194431644	-0.488299309038597	0.858883147752091	-0.488096096899491	-0.000656700290303544	-0.00148309162611211
8.5	-0.00035849555654133	0.00444158252551201	0.771802444741919	-0.617598714938927	0.771852778406686	-0.617447265489903	-0.000123366745384675	0.00127525951596396
8.6	0.00170810320524953	0.00225852801365286	0.665770247257345	-0.728611256453157	0.665936965256551	-0.728372563550063	0.000880083925969354	-0.000393195603284311
8.7	0.00173574195987482	0.00144447764863894	0.54541437899779	-0.823090366695919	0.545672077965673	-0.822872303943068	-0.000355242510319674	-0.000766984400920549
8.8	0.00230587745997304	0.00105484577429246	0.411481559443579	-0.898515200142796	0.411666096296357	-0.898374143211694	-0.00141140033067859	-0.000384763692857109
8.9	0.0028335765873319	0.00073770199568648	0.266263960650593	-0.952397041911958	0.266442324795622	-0.952225039485156	-0.00212546423388083	0.00090285507549548
9	0.00457641878554715	0.000445106337834544	0.114674222943206	-0.980330846996809	0.114982648289844	-0.980281921596045	-0.000844014678474279	0.00301590014918862
9.1	0.00589810747669556	-0.000960348663574558	-0.0370494140422764	-0.98727871793947	-0.0367398373353079	-0.987234781296406	0.00114956124415574	0.00363657608927297
9.2	0.00755344801297108	-0.00213585183896573	-0.190514380574006	-0.970668220589001	-0.190165613710931	-0.970642774717131	0.00416131650623534	0.00411515552677898
9.3	0.00917459998649893	-0.00397589107465397	-0.339700065707301	-0.92945559803296	-0.339346763067921	-0.929427111653219	0.00794955808049142	0.00297735139077319
9.4	0.0104093281591413	-0.00594964787825311	-0.479834266163125	-0.864675102608194	-0.47950913145609	-0.864763869834206	0.0113418879763658	0.000676885471998828
9.5	0.0118791481270791	-0.0100675829636982	-0.60665755575654	-0.781094503354932	-0.606419120834911	-0.781142706035329	0.014770207749655	-0.00545542309920094
9.6	0.00823113722977844	-0.0131859208010875	-0.722734590034434	-0.678428295593968	-0.722419648789167	-0.678565145052601	0.0109215757127245	-0.0113678290627804
9.7	0.00592385827571765	-0.0129332697488842	-0.820024747638141	-0.557279510353668	-0.819733353800713	-0.55751187032741	0.00686035754133058	-0.0134464407095956
9.8	0.00439715298097028	-0.0126015334077663	-0.896609950062303	-0.422935426150785	-0.89635357753926	-0.423103701083029	0.00268911221251217	-0.0143328341190407
9.9	0.00310014970180023	-0.010936064486669	-0.951441521104894	-0.279355837021613	-0.95118558446605	-0.279564160200784	-0.00141543789419746	-0.0128178604810494
10	0.00540343340315332	-0.0105295367091498	-0.985948157054467	-0.128189740476475	-0.985790134900442	-0.128554673697339	-0.00111161422825845	-0.0115274133408464
10.1	0.00360458558156019	-0.0128834077763854	-0.993402124937843	0.0288026299888522	-0.993335782682826	0.0283670474000327	-0.00502253156837374	-0.0135748012843368
10.2	0.00160277236882294	-0.0124246854584722	-0.976361884744689	0.182849247644344	-0.976236833134468	0.182414431429233	-0.00981856206000569	-0.0116636665475482
10.3	0.000155970619342591	-0.0115003207138092	-0.936383799652417	0.332314250134666	-0.936398932697034	0.331767223319512	-0.0136524136388103	-0.00837355101006103
10.4	-0.00107429128080986	-0.0101997051807183	-0.874386649192353	0.474552304343464	-0.874522907607128	0.474034568298914	-0.0165074102079132	-0.00355826974085489
10.5	-0.000174472251228523	-0.00830040605430434	-0.788457435649878	0.607146555683283	-0.788632303504616	0.606709345623047	-0.0152851258506892	0.00219693550275893
10.6	0.000721757830385717	-0.00913418502112873	-0.683056536793882	0.720774777709196	-0.683331698917211	0.720441646938638	-0.0127997049198121	0.00446572088582874
10.7	0.000659174352303404	-0.00980070572909751	-0.562993480120824	0.817942777411091	-0.563297075489953	0.817630498770399	-0.0106931617464875	0.00611594130563945
10.8	5.26469741346685E-05	-0.0106904567391602	-0.428788424308459	0.895853003354295	-0.429143007397673	0.895552197769933	-0.00878557400772924	0.00728716064574318
10.9	-0.000797648158734351	-0.0108452795338581	-0.283003949294485	0.951926206226983	-0.283398389449192	0.951803200364475	-0.00684842220297264	0.00867130790440514
11	-0.00124323651478266	-0.0114969162432257	-0.130883549983215	0.981640576907622	-0.131323957042818	0.981550894394975	-0.00405451805701359	0.00900252159363333
11.1	-0.0025044259648772	-0.0115353448297325	0.0214891592494874	0.990325777266606	0.0209968503473804	0.990340347773647	-0.00215425493171921	0.00910768244831355
11.2	-0.00319790941655061	-0.0114913366992039	0.175599120151294	0.97544286679188	0.175138584038988	0.975517777082705	0.000467883303160026	0.00904709049556787
11.3	-0.00388025061872387	-0.0113303751407864	0.325600443058609	0.935797545125633	0.325138414884187	0.935936969595858	0.00321200998828281	0.00859087408363485
11.4	-0.00438398463152421	-0.0107745768293129	0.46670388660172	0.872396136984825	0.466298085579209	0.872511827678848	0.00630224615533448	0.00823660347438723
11.5	-0.00364225428373864	-0.0119565463505059	0.594430215570357	0.790420795493709	0.594110467921655	0.790725575212537	0.0109398380971781	0.00476884092250718
11.6	-0.00683310127724814	-0.0131096939807241	0.711849533240127	0.689079289227311	0.71163371196301	0.689410272781656	0.0102663314073649	0.000402390331325764
11.7	-0.00903642818814051	-0.0116429949298033	0.810469646950518	0.568945661688074	0.810266478245546	0.569255343160641	0.00946005366680526	-0.00143364790878413
11.8	-0.0108595949054488	-0.010034663072082	0.888369736879345	0.435374260244274	0.888189207955224	0.435828813053267	0.00835280689628563	-0.00274839001330913
11.9	-0.0120544164088253	-0.00671985788053313	0.944415436123701	0.292864373632994	0.944311069845017	0.293317315743856	0.00715939453146183	-0.00185036193249764
12	-0.00954557038213705	-0.00474860565386536	0.980683990716038	0.142693628609612	0.98065686849398	0.143061139968578	0.0112145949586174	-0.00204758868262503
12.1	-0.0105897040328319	-0.00546971590840468	0.989726375903644	-0.0135716957331834	0.989657865704605	-0.0131838130215618	0.0105150722352164	-0.00692403699044829
12.2	-0.0116912465381315	-0.00423028057498402	0.974371926801418	-0.166967337488193	0.974391858408122	-0.166667722647146	0.00847828355023035	-0.00925770230891059
12.3	-0.0122765756886648	-0.00285653454739764	0.93620684138867	-0.315843704445253	0.936329378205039	-0.315536283602265	0.00621561584870736	-0.0111907545126859
12.4	-0.0133316604017705	-0.00112427282315617	0.87660232922684	-0.457948597812446	0.876668839688953	-0.457577088848882	0.00295190249970948	-0.0119301819385292
12.5	-0.0119463814130727	0.00160206638340438	0.792430949380554	-0.59068557087969	0.792777829159487	-0.590296656739731	0.0018889038486912	-0.0110126571969243
