# GHZ S RI R 50
0.2	-0.000291665785200454	-3.25890102951163E-05	0.94852057920353	-0.30813573200708	0.94829843494876	-0.308110232385826	-0.000326797697929205	0.000108946885629672
0.3	-0.000288670634919394	2.82537378868856E-05	0.888363105455269	-0.451712627544089	0.888207051621957	-0.45161724351248	-0.000403391541374833	3.38949714220841E-05
0.4	-1.45387546611178E-05	-1.11990592433825E-06	0.806697330732867	-0.583764153095686	0.80670910053229	-0.583789253675363	-0.00024212532484083	1.16691706060945E-05
0.5	-0.000152058272809485	-0.000289035540880683	0.706034488690004	-0.701644068271888	0.705879656787347	-0.701542665758978	-0.000335600438679142	-0.00026869693022822
0.6	-0.000340098411808185	-1.234723376056E-05	0.588261473858203	-0.802616797184376	0.588142372382912	-0.8024552208798	-0.000649545967603247	-3.22333438425752E-05
0.7	-0.000172375983369319	0.000272819342658028	0.456189778262167	-0.883774091120968	0.456171062189164	-0.883661716104049	-0.000502004049813974	0.000152737662739091
0.8	0.000155239715882188	0.000303282267342505	0.313321195107005	-0.943494244534078	0.313289910729761	-0.943304747432368	-0.000372953229890773	0.000338632392958251
0.9	0.000560917248074223	0.000383729960561151	0.163143249162482	-0.98024525921891	0.163078302850446	-0.980153476925131	-3.29285124111385E-05	0.000390733830245626
1	0.000942363326432252	-0.000467811402035038	0.00909331693684267	-0.993586619876814	0.00904172664961934	-0.993555198815285	0.000372149490503947	-0.000503686198936058
1.1	0.000365547652381656	-0.000657883873278406	-0.145386943768215	-0.982725193057908	-0.145402662969176	-0.982594923065597	-0.000602988703230763	-0.000789674724626085
1.2	0.000652420745566024	-0.00137240464329226	-0.296137281329412	-0.947823929812559	-0.296061025604414	-0.9477978742237	-0.000545654787958476	-0.000394132483200541
1.3	0.000695569267948218	-0.00295824019191771	-0.439438695889094	-0.890153602132004	-0.439415701377712	-0.890146994390608	0.000284733262772799	0.000148203164257367
1.4	0.00050196937035178	-0.00481004457374088	-0.571945148149138	-0.811179569710985	-0.571921016266071	-0.81115796114496	0.00167054560099815	6.32231119532641E-05
1.5	-0.000323748132370028	-0.00545329630209045	-0.691200536752618	-0.712223781922814	-0.691098928777731	-0.71213894275138	0.00246121714682008	-0.000337882544873042
1.6	-5.90046231095978E-05	-0.0052547851593603	-0.792778499326905	-0.595926521440338	-0.792704582068948	-0.595866600554034	0.00330786869953633	-0.000460080389379607
1.7	-0.000223447726326047	-0.00555032621767125	-0.87497548027081	-0.466299387646248	-0.875139639489112	-0.4657843271174	0.00373123387092464	-0.00154093768799953
1.8	-0.000825157949556288	-0.00565492960214563	-0.936825326077902	-0.324524261109561	-0.936714279368974	-0.324522843885221	0.00336081363320013	-0.00272017341648595
1.9	-0.00147175936430057	-0.0057452635638964	-0.975653085292955	-0.175535460016258	-0.975746015547059	-0.175048823977263	0.002651717403195	-0.00394472836908398
2	-0.00316326617654454	-0.00551353155478441	-0.990342303129897	-0.0214154251186846	-0.990354227090795	-0.0213696821933716	0.000546668240959589	-0.00476683207544348
2.1	-0.00351409470487006	-0.00399377560541885	-0.981654244126336	0.131936144738985	-0.981692298869386	0.131973117589236	-0.000366517877258802	-0.00356332255568356
2.2	-0.00383361161490309	-0.00360870364748414	-0.94950076663738	0.282536376620725	-0.949425894857433	0.282599133084583	-0.0003772084665575	-0.00337687894666869
2.3	-0.00441692897735024	-0.00302578159789146	-0.894287867964796	0.425829294592931	-0.893906988505163	0.426341941628043	-0.000647510306666928	-0.00361551651659038
2.4	-0.00497563453634871	-0.00247205611330316	-0.816366972596767	0.560292398616548	-0.816632350938826	0.559707489660827	-0.00103598641181291	-0.00420446845540311
2.5	-0.00610520449391961	-0.00188229905999099	-0.720162030152474	0.679523567871744	-0.720374286640668	0.679014427593472	-0.00248386196069273	-0.00553328853615091
2.6	-0.00662981689165771	0.000216738469872635	-0.606729639487398	0.783091619879918	-0.606623340120587	0.782909369471547	-0.004067678064896	-0.00456904007171279
2.7	-0.00586491695434677	0.00168615531130691	-0.477211338034786	0.868005750094928	-0.477659077902836	0.867598643344537	-0.00442163819157517	-0.00365405139713599
2.8	-0.00465684845062766	0.00250406874450018	-0.338039140307987	0.930933061641077	-0.337372690904784	0.931092825396384	-0.00448042074929591	-0.00292975477507238
2.9	-0.00309080915361405	0.00275849070211846	-0.189236541922191	0.972096293969674	-0.18926756634119	0.972008981366214	-0.00397256648114757	-0.00209930138813914
3	-0.00164195632349427	0.00272221788619226	-0.0355007671288016	0.990396954526014	-0.0362010657609785	0.990236962546416	-0.00336319408222357	-0.00113199404764692
3.1	0.000207141023228459	0.00215597902867061	0.117695913051142	0.983799885495896	0.118286272537546	0.983783015920264	-0.00178781198622513	-0.000619322988310227
3.2	0.00122600346583805	0.00100913699401625	0.269347727199263	0.953342300138405	0.269293062282152	0.953281938883521	-0.000966476854006805	-0.000860626308093843
3.3	0.0021190105343486	-0.000142464186766489	0.414073161363386	0.900074847901724	0.413936084400765	0.900060408842515	-0.000126284356692473	-0.00117370276600269
3.4	0.00247227146104841	-0.0015658567108473	0.548867533755234	0.825269753319685	0.548705088951841	0.825387385886749	0.000536442331189761	-0.00210527849482842
3.5	0.00236858654197362	-0.00245961956137452	0.670851400440142	0.729902176109648	0.670771747081247	0.729940862125983	0.000279271290049628	-0.00238983208413245
3.6	0.00277778715945852	-0.00343497530425283	0.775077104110339	0.617143866935578	0.775318469196047	0.616695551778856	0.00114782891253308	-0.00245225840787272
3.7	0.00255743454827029	-0.00496939654580352	0.861769947965103	0.489058961918303	0.861651489025353	0.489201923690862	0.00167599633324195	-0.00336408189123104
3.8	0.00169671333034319	-0.00622385051791972	0.927243276519101	0.349976754392027	0.927300498252945	0.349597528799174	0.00174969912719774	-0.00448493325492015
3.9	0.000762002612609015	-0.00741562934584362	0.970687557590494	0.200364925582221	0.970448561517634	0.201032507343351	0.00103379729089568	-0.00621621469445045
4	-0.00142909604933706	-0.00804210437707372	0.989358595339802	0.0479173299329473	0.989319594604139	0.0480201570344882	-0.00109482509037472	-0.00739544640108684
4.1	-0.00257867273498575	-0.00763541408746298	0.985177841064488	-0.105537371974052	0.984993175676925	-0.105410438108563	-0.00234489636628222	-0.0068312721982021
4.2	-0.00404244536734156	-0.00774466461613988	0.956862885024855	-0.257977474439425	0.956897221684994	-0.257323378918574	-0.00309008857309226	-0.00694946853483346
4.3	-0.00565341984256388	-0.00762910069356398	0.905532745521036	-0.402933570243658	0.905396710396105	-0.402822514534362	-0.00398499108955355	-0.00732135368511069
4.4	-0.00734901974655661	-0.00721918483646862	0.831781612270457	-0.538485042091135	0.831616246287667	-0.53835181080595	-0.00488120654082963	-0.00796264252502987
4.5	-0.00963515019246428	-0.00685580423923912	0.738704550045565	-0.660527063826811	0.738515372637875	-0.660354163172745	-0.0070536207702	-0.00929137903179566
4.6	-0.0118223078837815	-0.00476349143087576	0.627174227148165	-0.768391055822083	0.627515451938772	-0.767691627461362	-0.0098953001466708	-0.0086506227413208
4.7	-0.0131105262109924	-0.00280797078167697	0.500448561438533	-0.856461643518342	0.500464578058674	-0.856105220509193	-0.0120075003515058	-0.00778499153084281
4.8	-0.0141034433925366	-0.000322755696469113	0.361071090864365	-0.923637884928177	0.361292614607853	-0.923320667166955	-0.0137487954983987	-0.00650225411717473
4.9	-0.0141201129898119	0.00212982854788078	0.213995675796016	-0.967968931241692	0.213775293781173	-0.967977053727624	-0.0147620048018671	-0.00497073691753034
5	-0.0135452814577179	0.00464981461904486	0.0609964910408231	-0.990335640588229	0.0611738388426309	-0.990089375961219	-0.0152571891698224	-0.00287947311327366
5.1	-0.0116139830237975	0.00666795283270543	-0.0941789311205291	-0.987766295769743	-0.0938464621142769	-0.9875402068831	-0.0142935842368755	-0.000803819651080383
5.2	-0.0096362951873965	0.00811390309851457	-0.246527008764818	-0.960942175679424	-0.246033816002883	-0.960915087084746	-0.013209713132519	0.000349507573406951
5.3	-0.00749855283568419	0.00906036549636107	-0.392689117706801	-0.911135233277951	-0.392347400276425	-0.911351901525653	-0.0122089836440205	0.000877869619989777
5.4	-0.00543764723761818	0.00981287747205695	-0.529769245588322	-0.83948340871296	-0.529555728698948	-0.839684758253448	-0.0121166598868701	0.000905160957350287
5.5	-0.00366017025655819	0.0111585119557911	-0.654583274571955	-0.746391192339969	-0.654343654126247	-0.746586773191823	-0.0134556390314784	0.00260276994372094
5.6	0.000212570227615094	0.0118906099629666	-0.761760657890377	-0.635122030090153	-0.76157058233937	-0.635294480960773	-0.0118351310667057	0.00497722729284856
5.7	0.00307479389406074	0.0108821759667609	-0.851090315515896	-0.509290088711798	-0.850960766803506	-0.509510562516619	-0.0104380396557507	0.00571651099137406
5.8	0.00541520858807765	0.00975020586143941	-0.919901288901093	-0.370786515477421	-0.919833433938842	-0.371072316196006	-0.00935844187618187	0.00611838246790912
5.9	0.00732694605807536	0.00776376459849137	-0.966426063028909	-0.223090432612058	-0.966440671084435	-0.223174278603755	-0.00881861910763025	0.00561857459830753
6	0.00747680073532445	0.00615064908300969	-0.988435596330004	-0.070129422834094	-0.988316208235013	-0.0701877274065596	-0.0111004303038945	0.00587477455844267
6.1	0.00897610025786157	0.00554216827632079	-0.987443766262996	0.0834507722533713	-0.987316987735766	0.0833019403937334	-0.011221327942902	0.00924832145888527
6.2	0.0100669068030838	0.00359340340705812	-0.962654303219797	0.236045843786185	-0.962640760668239	0.235842585359333	-0.00984872468660278	0.0112351679312517
6.3	0.0103825623595049	0.00126517128788757	-0.914155573241371	0.382894622401171	-0.914151286928484	0.382708904925154	-0.00789374785854069	0.012316199048409
6.4	0.0101004556641229	-0.00136704920428384	-0.843092165878396	0.520114671606258	-0.843060781210462	0.519903637179294	-0.00589544039600081	0.0120279794945407
6.5	0.00886618552688215	-0.00392628436378839	-0.752462117159768	0.643937375647739	-0.752486476247803	0.643733029195315	-0.00471972291061306	0.0111961174628729
6.6	0.0075309306861499	-0.00601872675499889	-0.643570388478796	0.753831771558588	-0.64364478121945	0.753579169765236	-0.00350822497224799	0.0103626817222414
6.7	0.00557493947744892	-0.00772270692938586	-0.518074312719301	0.844674474994172	-0.518177795857855	0.844453068421536	-0.00311664029263582	0.00933612527831776
6.8	0.00372538851649991	-0.00864392077066339	-0.380323851282496	0.914569646317819	-0.380466121231473	0.914398951231461	-0.00312538342625816	0.00896268444733574
6.9	0.00188265474295322	-0.00927316836712913	-0.233903752003594	0.962117586950724	-0.234130932019527	0.962007487467536	-0.00298660552636268	0.00901749121015614
7	0.000434058934231559	-0.00926831071897118	-0.0817480716537141	0.987497086165454	-0.0819585662479685	0.987407533836439	-0.00240195114418781	0.00953680972206533
7.1	-0.000818330030904405	-0.00954510365523667	0.0735581552245933	0.987711076715269	0.0733553496325333	0.987578249421413	-0.00111190099236833	0.00951381869970801
7.2	-0.0022622562175488	-0.00955526031178499	0.225936040082176	0.963659327349662	0.225653441891641	0.963625678793337	1.3896042237649E-05	0.00928663554131972
7.3	-0.00382412318571834	-0.00934697883330446	0.372556301555163	0.916681992439662	0.372320066214846	0.916709043156861	0.00105782231038106	0.00889509256210795
7.4	-0.00523787694334834	-0.00880081011874912	0.510468144671412	0.847831090125471	0.5102546160242	0.847883026281129	0.00178716334246768	0.00824141320170993
7.5	-0.00668076654088747	-0.00775376424224278	0.636640296015067	0.75734544633867	0.63647086290599	0.757415989785363	0.00227741968908612	0.0081707813603055
7.6	-0.00681285823702793	-0.00655711589434657	0.745442488500594	0.648494892194172	0.745185292987069	0.648578483580702	0.00418882138246237	0.00784605841011872
7.7	-0.00701943107039018	-0.00570525445167763	0.83653521012482	0.525002388570168	0.836350645572037	0.525220317892186	0.00578354863716741	0.00630635974115328
7.8	-0.00684867475294447	-0.00471092788480159	0.907777557131781	0.388631280838909	0.907675486264258	0.388857096444841	0.00682672430283008	0.00400420721305996
7.9	-0.00658868765951686	-0.00388344770355152	0.956918205381058	0.242620932015676	0.956780988963172	0.242801190006539	0.00667586255657541	0.00100159969138393
8	-0.00699920903575958	-0.00281918711412674	0.981382488580323	0.0910098207986861	0.981360637258062	0.0912722561652698	0.00330356845025304	-0.00131096378460322
8.1	-0.00564393007624962	-0.000731282491843015	0.983700056881147	-0.0613453973347533	0.983729765557068	-0.0610902738870651	0.00129529824694653	1.26702835040115E-05
8.2	-0.00399123811769141	-0.000141223445255553	0.962319563736488	-0.213343127306142	0.962368850616976	-0.213026563811466	0.000303282904740962	0.000669572517816372
8.3	-0.00271600710424918	0.000264411136204763	0.917212125765522	-0.360172395510889	0.917264361431956	-0.359885778674564	-0.000415846005224672	0.00154961294859276
8.4	-0.00109296248248027	0.000233115205966114	0.849515854489702	-0.497820006666125	0.849614127172807	-0.497618733363475	-0.000321917581196748	0.0020194944263757
8.5	-0.000701791942038842	-0.000463745430222482	0.762491956999244	-0.622420412142206	0.762543541997116	-0.6222701027942	-0.00175545775962891	0.00138986025320429
8.6	0.000499707868049347	0.000285020289636617	0.656772243266702	-0.73391927884457	0.656941070276786	-0.733682833072578	-0.00280167732639044	0.00401723348247509
8.7	0.00210634547892087	-0.000251347313627614	0.534290416332867	-0.826741120412684	0.534549799109935	-0.826526689003963	-0.00162001984445476	0.00599808373657251
8.8	0.00337996606906033	-0.00115272086720055	0.399427645212736	-0.899048888198404	0.399612931467734	-0.898910566313499	0.000186053563819864	0.00710889665025747
8.9	0.00454624979854222	-0.00221721520712295	0.255544799423582	-0.949637584049229	0.255723829983466	-0.949468273771479	0.0029264855326278	0.00740357273538589
9	0.00565328378823333	-0.0038625562158805	0.105178905139327	-0.978443099589009	0.105486856512236	-0.978397200272184	0.00541021807804562	0.00618455259967975
9.1	0.00682679419278784	-0.00557125859205567	-0.0486716329157803	-0.98215764930228	-0.0483629981179432	-0.982117620227452	0.00790375461833563	0.00457848702835374
9.2	0.00741174885426582	-0.00782584542380365	-0.200119113123606	-0.961946266446468	-0.199772425942717	-0.961924908447543	0.00960269454773205	0.00171156168484821
9.3	0.00734881653878125	-0.00950752157599963	-0.346388719151682	-0.919114109505453	-0.346037781413986	-0.919089346965014	0.0101438479048933	-0.00110773915622217
9.4	0.00724579151596355	-0.0111611192807898	-0.484588611292439	-0.854671347351883	-0.4842664028	-0.854762499433355	0.00974573126877385	-0.00415989905671848
9.5	0.00633487444051051	-0.0113987291408996	-0.611893722990179	-0.768257809255026	-0.61165754320854	-0.768308570187387	0.00729759262332423	-0.00509406698332662
9.6	0.00745386046926698	-0.0124009813591902	-0.722407540429631	-0.663456562406838	-0.722097407143573	-0.663595361531795	0.00794690682148935	-0.00541904744957399
9.7	0.00689029228425496	-0.0139652811968337	-0.816053536545819	-0.543786917678113	-0.815767429560455	-0.544019354150553	0.00723824351951586	-0.0078900515934225
9.8	0.00591137828926112	-0.0148709130748884	-0.890446790608885	-0.410846839908846	-0.890194602989008	-0.411015440449487	0.00525079237370413	-0.0100363345824803
9.9	0.00488402414548887	-0.0153778095440893	-0.943360299622013	-0.267402344199076	-0.943109164621173	-0.267610703379122	0.00242681771440734	-0.0122860825788642
10	0.00268285228929453	-0.0150867893848107	-0.971906066322036	-0.11788043109547	-0.971753556385213	-0.118241102568244	-0.00363853320857216	-0.0127555110648894
10.1	0.00276965237086956	-0.0136588993297602	-0.978588643898678	0.0330359548050371	-0.978525324819544	0.0326064971654389	-0.00689777607273896	-0.00922241816177448
10.2	0.00272899715818933	-0.0137928037361028	-0.961974029638441	0.184420595836472	-0.961852557386823	0.183991315652213	-0.00864433951260856	-0.00683852795125527
10.3	0.00222638612697191	-0.0136789450277146	-0.921485263473846	0.331451371351723	-0.921502473852784	0.330912297007271	-0.0100482969934645	-0.00465047718971556
10.4	0.00192415918473188	-0.0140029065092678	-0.858261699282046	0.469733338486261	-0.858397500396353	0.469224647442657	-0.0108405939863263	-0.00319791847831053
10.5	0.000775963565319575	-0.0144006181919684	-0.775919725314527	0.595737745665022	-0.776091013638715	0.595307713878166	-0.0128469545799201	-0.00237492387459448
10.6	-2.64935512387856E-05	-0.0141168373642408	-0.674795802181077	0.709516161181385	-0.675066538738043	0.709187193505879	-0.014660741545664	0.000705542080455349
10.7	-0.000705897414575371	-0.0137203548000141	-0.556451848229403	0.80556920237044	-0.556750681653481	0.805260797940699	-0.0149479446303948	0.00445567232710088
10.8	-0.000973985149717765	-0.0135064285223756	-0.424905399013125	0.881747653541521	-0.42525405773765	0.881450285296535	-0.0136414871942652	0.00823008453300599
10.9	-0.00121328188352064	-0.0133732023902569	-0.28383755942547	0.936702648074116	-0.284225661946656	0.936579379667328	-0.0113995034495141	0.0112228911015429
11	-0.00145235100327391	-0.0134886017915062	-0.135434764789366	0.97075961056795	-0.135870104228802	0.970668204599878	-0.00856035714980987	0.0136589415434086
11.1	-0.00148540175433469	-0.0138502582769058	0.0176839074914873	0.979496807115886	0.0171969678110866	0.979509443079189	-0.00452681162123079	0.0150533656784774
11.2	-0.00196804163206359	-0.0145875698488349	0.168948376538285	0.964558679345154	0.168493016378927	0.964630545545347	-0.000413428808256945	0.0150356325430447
11.3	-0.00269179128592178	-0.01508477276803	0.315979801858884	0.926980060576309	0.315522260359985	0.927114982474486	0.00366867527598554	0.0139510325948488
11.4	-0.00381455965549619	-0.0157590420411335	0.456060236401913	0.867551551223324	0.455657416531539	0.867663243289764	0.00692519498018486	0.011683873869047
11.5	-0.00552250294340494	-0.0150254174959504	0.585996009248107	0.785453023050489	0.585678027019178	0.785753803028104	0.00825052534257068	0.010322620626853
11.6	-0.00562169780504392	-0.0148156530188881	0.699411926858892	0.684816368748153	0.69919683145252	0.685142159075479	0.0116832708589051	0.00900111716368071
11.7	-0.00669357199775201	-0.0148556097923705	0.796954038252914	0.568781281419768	0.796750772092666	0.569085908187584	0.0142907444027626	0.00560092439037761
11.8	-0.00805243109208375	-0.0145138620609798	0.875907241286601	0.438531433732219	0.87572467847441	0.43897996500851	0.0156456782631472	0.0013625373361972
11.9	-0.00900716371719949	-0.0139315456029988	0.933650281902338	0.297036985775741	0.933543584214538	0.297485026712812	0.0156078960677971	-0.00404712480387002
12	-0.0121075036579638	-0.012655683228453	0.96719705805918	0.148868685813766	0.967167290460683	0.149231357047171	0.0106161564383229	-0.00827928966604281
12.1	-0.012399767388931	-0.0101742068688333	0.979250678834825	-0.00169809986119291	0.979178308695134	-0.00131519751828544	0.00751270376979315	-0.00892339590063406
12.2	-0.013083302458816	-0.00864987263266827	0.967790555016303	-0.153791266040418	0.967806711859256	-0.153494052260094	0.00454513301246243	-0.00954752152774017
12.3	-0.0135662443548718	-0.00653995712944178	0.932124332913643	-0.302259478669314	0.932242252682225	-0.301953178047531	0.00185071551797646	-0.00936663416778926
12.4	-0.0134629834678356	-0.00468429259116288	0.873735497674172	-0.44287322432484	0.873796847239109	-0.442504482652173	3.10758687578297E-05	-0.00916368759098506
12.5	-0.0136339796885414	-0.0030726306197054	0.79560792173767	-0.5719336084392	0.795945099053745	-0.571542158884512	-0.00329570059309927	-0.00953165602862564
