# GHZ S RI R 50
0.2	-7.99252529041692E-05	-0.00063723889915396	0.950862354974237	-0.30754558530084	0.950639722390851	-0.307520319574588	-0.000104317871038045	-0.000507342809433085
0.3	-0.000491239120628066	-0.000642687170216092	0.891378542466933	-0.451459952979047	0.891221933314175	-0.451364571930062	-0.000592577758697576	-0.000663285015370153
0.4	-0.000778347831830374	-0.00042926841464474	0.810424780990402	-0.584311878328576	0.810436634174233	-0.584337042535961	-0.000997513175772816	-0.000456550710121842
0.5	-0.000697535904080436	0.000303194924046977	0.709632219339788	-0.703774105311352	0.709476652498975	-0.703672449335397	-0.000875242080580699	0.000282204618068233
0.6	-0.000190370542167194	-1.63490968553114E-05	0.591175179250953	-0.805098044629199	0.591055488676993	-0.804935969421494	-0.000482024751207095	-9.13757498090424E-05
0.7	-0.00040277729031982	-4.55477491468124E-05	0.459000192317172	-0.8869585195791	0.458981281600627	-0.886845698697807	-0.000716219655450283	-0.000248502057860852
0.8	-0.000416215438089333	-9.66596426198562E-05	0.315563646990994	-0.947653008559077	0.315532060353726	-0.94746265016827	-0.000947433189512055	-0.000170501052434994
0.9	-0.000880264176692479	-4.1896833960699E-05	0.164128528815104	-0.985202242578158	0.164063237755032	-0.985110004059386	-0.00152090793166962	-0.000160589946003022
1	-0.00107327595951947	0.00138251303297027	0.00877890275756165	-0.997931891880007	0.00872709822774581	-0.997900315116258	-0.00175538797126406	0.00126234976554488
1.1	0.0009282433827365	0.00108270188057724	-0.145720042089919	-0.987398361899852	-0.145735881672592	-0.987267484940497	-0.00015365353864984	0.000937451597995822
1.2	0.00154801570443136	-0.000925018793921531	-0.297754219147995	-0.95288566116011	-0.297677554498025	-0.952859468767539	0.000299794151310542	8.47124409399053E-05
1.3	0.00175477211312111	-0.00365537220747734	-0.442426429514565	-0.89480484998869	-0.442403303653638	-0.894798220051477	0.00136852575677452	-0.000496472312219854
1.4	0.00119335077018054	-0.0063016064069273	-0.57578874646481	-0.814782673723618	-0.575764465962964	-0.814760978704064	0.00245026340597961	-0.00141107601750988
1.5	0.00141054687403697	-0.00783732203289708	-0.694939584514618	-0.715739208697208	-0.694837431609263	-0.715653955308579	0.00436081843888925	-0.00279210925476377
1.6	-0.000916269242216247	-0.00915479712935355	-0.798468169239327	-0.599187769509223	-0.798393717921117	-0.599127515916772	0.00259733338121274	-0.00451828929727044
1.7	-0.00251149267539886	-0.00774095946366062	-0.881620016533291	-0.467774749939972	-0.88178431449252	-0.467255980893026	0.00150726063745533	-0.00398493027507659
1.8	-0.00346351946766062	-0.00639049289022277	-0.943568804728035	-0.324386262373576	-0.943457046041993	-0.324385097927318	0.000687219873024003	-0.00372145711773621
1.9	-0.00399222997790633	-0.00439727880982642	-0.982190648252178	-0.17440839706729	-0.982283050185157	-0.17391848793327	3.1573740715285E-05	-0.002798710660428
2	-0.00202305930446949	-0.00329275299868366	-0.998024437574088	-0.0189892879850712	-0.998036333726626	-0.0189431615983334	0.00164346249849493	-0.00266611242350736
2.1	-0.00280389773277958	-0.00494186344002264	-0.98829585127325	0.137419810057417	-0.988334017139089	0.137457230750671	0.000349129061458686	-0.00470177085668549
2.2	-0.00454545335896809	-0.00431764889475456	-0.954388589562225	0.289214211594637	-0.954312902598513	0.289277007127732	-0.00113219085593245	-0.00431875074104601
2.3	-0.00572047618999321	-0.00312299973898561	-0.897819203408586	0.433319732093202	-0.897433145128578	0.433833679225336	-0.00206258548044217	-0.00393378576025208
2.4	-0.00688342374097106	-0.00126601439848275	-0.818756720368363	0.568857354657066	-0.819027298578715	0.568269948917063	-0.00312774749789094	-0.00313876928650657
2.5	-0.00547828107770022	0.00152215774890585	-0.719632222325009	0.689838223485678	-0.719849958379196	0.689327327560257	-0.00199555072941927	-0.00212963729683276
2.6	-0.00415402753676498	0.000760822357862665	-0.603224621314163	0.79180161745184	-0.603119304650374	0.791617625603439	-0.00156137241962513	-0.00398822164097166
2.7	-0.0042549562130041	0.000678280798402987	-0.472388734995062	0.87569285778598	-0.472841728480622	0.875287521680965	-0.00268602555549626	-0.00470179608721112
2.8	-0.00414660046210465	0.000955855373409429	-0.331626511164813	0.93781470913805	-0.330955830718896	0.937969526800107	-0.0038272479402652	-0.00460750617644099
2.9	-0.00328715624750161	0.00142606152786868	-0.18064117471835	0.97768519738041	-0.1806731575199	0.977597843684736	-0.00405467697019373	-0.00360361478024631
3	-0.00200973763651493	0.00101769276196227	-0.0255402460993611	0.992243556452615	-0.0262432143045566	0.992090404838375	-0.00362168167178207	-0.00305404889860193
3.1	-0.00159819565858623	0.000851555979336523	0.126378110877978	0.984059957763506	0.126969092478574	0.98403794813586	-0.00355210122562128	-0.0022683743168632
3.2	-0.000731366099089395	0.000764108812522369	0.278367775800891	0.95223599773859	0.278312487086769	0.952176047501217	-0.0029201506559796	-0.00140975292686494
3.3	0.000332510150006838	0.00039666176751315	0.423062998687284	0.896754742141146	0.422925679960552	0.896741614229432	-0.00195218139199142	-0.000910404516159172
3.4	0.00140875244658511	-6.37503274841873E-05	0.556611125785238	0.81927751499927	0.556449955023993	0.819396665014715	-0.000566217232587103	-0.000832725219360854
3.5	0.00314389813268769	-0.00203096880056889	0.675690809596457	0.72349837562739	0.67561158008961	0.723537639904953	0.00108669176701165	-0.00219968153563073
3.6	0.00187340358163025	-0.0041247914052845	0.780106951609304	0.610484220787975	0.780344489559965	0.61003396973492	0.000263586973378465	-0.00346549422070013
3.7	0.000988824032614963	-0.00475135424172287	0.865435998068073	0.480669159426679	0.865318966822127	0.480813072413494	6.20677561009091E-05	-0.00349128593410964
3.8	-1.22060613884467E-06	-0.00518541049044155	0.928633215098441	0.340814699475342	0.928686857448008	0.340435691013025	-5.55608046407225E-05	-0.00376474288287228
3.9	-0.000671079015190582	-0.00489048471144077	0.969832489724972	0.191853359741212	0.969599608584866	0.192521186879972	-0.000541402744964975	-0.00391475116247394
4	0.000342620913379166	-0.00513730232743326	0.988721389887846	0.0398341698505847	0.988683264550065	0.0399372069675383	0.000645786758521273	-0.00460325135243172
4.1	-0.00101287206700498	-0.00753222934070677	0.982029752788664	-0.115206786719355	0.98184675350054	-0.115078267511927	-0.000687458906985752	-0.00692349456971777
4.2	-0.00347280759027384	-0.00792917448332322	0.950947240601482	-0.266459021252164	0.950987877199743	-0.265807575409612	-0.00242617437325035	-0.00742072637507066
4.3	-0.00573988629226222	-0.00786841411173713	0.898030780965726	-0.409679135231372	0.897896342473945	-0.409567275754284	-0.00402451490413061	-0.00789018395917953
4.4	-0.00846564725793679	-0.00666302553071081	0.82364354772755	-0.543963522157345	0.823480037988792	-0.543829303508123	-0.00602749499064985	-0.00772303570297442
4.5	-0.00908665065709564	-0.00427035169067103	0.727979569830902	-0.665813773751749	0.727793180924461	-0.665639536087707	-0.00651796793327051	-0.00690395753914388
4.6	-0.00993525539192644	-0.00423471757253472	0.614562856089393	-0.76926372600604	0.614908848743527	-0.768572995309253	-0.00786698604975571	-0.00829776131083863
4.7	-0.0118172059715909	-0.0031890553342152	0.48858694384948	-0.854246017076957	0.48860611120571	-0.853892578976488	-0.0105044041892417	-0.00842852922041388
4.8	-0.0133479937259442	-0.0011472496598321	0.350009147832755	-0.919189050619424	0.350231623771331	-0.918876386101023	-0.0127900789016368	-0.00768765952897152
4.9	-0.0139216560147681	0.0013265271513106	0.203190282427563	-0.961369736453981	0.202971776622337	-0.961375758242886	-0.0144015175475715	-0.00620812626002268
5	-0.0131963082662733	0.00345089191341561	0.0517090770782923	-0.979104856603542	0.0518864486231983	-0.978863049343518	-0.0147822299310955	-0.00456790404055791
5.1	-0.0128658968798576	0.00525467684735296	-0.0987940409933488	-0.975517733747703	-0.0984641990466181	-0.975296252280684	-0.0155190263144767	-0.00280137090760074
5.2	-0.0116087508438822	0.00793352284662235	-0.248769677201483	-0.948611959203399	-0.248282001957015	-0.948587784718518	-0.0153238683990005	-0.00038958471816845
5.3	-0.00932225707890811	0.0102853368662288	-0.392523228057131	-0.898269606372142	-0.392186681319279	-0.89848538146021	-0.0142813292684722	0.00169560761750293
5.4	-0.00566073343974053	0.0126486598567881	-0.526187991573868	-0.826039103131846	-0.52597817237027	-0.826238650673612	-0.0125265514296228	0.00356004046292705
5.5	-0.000449227928869224	0.0112875857146541	-0.646333072762914	-0.735689686477201	-0.646096875413355	-0.735882816544705	-0.0101472480916757	0.0025566864838735
5.6	-8.41528968459424E-05	0.00977248607402001	-0.753420323762987	-0.627228609373026	-0.753232570125605	-0.627399205772462	-0.0120060163296291	0.00247983635780511
5.7	0.00121988378959084	0.0102103379462652	-0.841408853137356	-0.502550477229458	-0.84128102205201	-0.502768441075175	-0.0122410336142344	0.00461059858242183
5.8	0.00308471229812353	0.0105730929591057	-0.908473741037589	-0.366173238997783	-0.908406731104676	-0.36645548899246	-0.0117016364735978	0.00655666302212234
5.9	0.00548518909485746	0.0112721295639085	-0.953933465101598	-0.222084675347725	-0.95394773589421	-0.222167500160743	-0.0106675682398134	0.00888363459700807
6	0.0111277022833116	0.00995069683720034	-0.978517658158091	-0.0719569690976269	-0.978399297979802	-0.0720143949012304	-0.00719569483780655	0.0095703944090699
6.1	0.0121991548317471	0.00460246093072906	-0.977102260764925	0.0816822544678842	-0.976976685777004	0.0815351068197552	-0.00746068842712755	0.00797271356449467
6.2	0.0114382502834483	0.00172458820066285	-0.95202477637191	0.231577988811606	-0.952011018637932	0.231377090456245	-0.00793070821750596	0.00873599003285887
6.3	0.0102305661278886	-0.00070728064992303	-0.904882797222678	0.375723321300087	-0.904877991639942	0.375539738812844	-0.00760170282179385	0.00949376790975736
6.4	0.00879925692213603	-0.00227343974716461	-0.836480388704747	0.511539043208283	-0.836448509627327	0.511330287967053	-0.00699282276855624	0.0102024556244554
6.5	0.00782205898378998	-0.00402456442414748	-0.746018749815063	0.635925555343217	-0.746042468841446	0.635723247135358	-0.00569057934984689	0.0102162998561506
6.6	0.00625139899454892	-0.00540659135635149	-0.638194246204691	0.742165553403923	-0.638266822605258	0.741915840772462	-0.00485508752830163	0.0101050997008421
6.7	0.00502322203874128	-0.00642291655715167	-0.516379509107121	0.831766074040963	-0.51648056537569	0.831546770193983	-0.00383855545665038	0.0098960794145687
6.8	0.003918485845094	-0.00742473589741187	-0.381690856866981	0.902063605074626	-0.381830498540159	0.901893938534306	-0.00308807932560422	0.00955744070311292
6.9	0.00271668736729609	-0.00840107855733515	-0.236875785526799	0.950464163336237	-0.237099901299178	0.950353950723918	-0.00222283312935211	0.00932113982426079
7	0.00122312272566354	-0.00974979311524366	-0.0871791970570523	0.973941363586814	-0.0873863266979432	0.973851604403091	-0.00163425150719478	0.00836426665277609
7.1	-0.00119873242833034	-0.00988174606896051	0.0629644516625213	0.976702367210632	0.0627653623151287	0.976569121948937	-0.00160244055639008	0.00845009207546663
7.2	-0.00282143794590515	-0.00946375454317477	0.213620806815707	0.956018479120773	0.213341483557079	0.955982253656456	-0.000693356909812034	0.00866340544117054
7.3	-0.0044254469427861	-0.00897359049548022	0.359226056105064	0.911592739990647	0.358991859400218	0.911617033750068	0.000270300018527314	0.00854488510260521
7.4	-0.00557107762544586	-0.00802086857422777	0.49555946529676	0.844723523092496	0.495347584125942	0.844772506020358	0.00123078369620494	0.00830740032053512
7.5	-0.0060409851550688	-0.00783606932011073	0.61926364470518	0.759711074499872	0.619094759373868	0.759778411274498	0.00260335132311223	0.00733748110209469
7.6	-0.00783288554665532	-0.00751636167237106	0.731364678012587	0.655607616720938	0.73110779633861	0.655686902390505	0.0027931581306844	0.00612112263547575
7.7	-0.00914600027590044	-0.00570445157379007	0.824600778898516	0.53411993568284	0.824414093735715	0.534334075194278	0.00311282436310187	0.005570390085133
7.8	-0.00948403657059715	-0.00334631766731336	0.897608160833323	0.400066964885955	0.897503271762478	0.400290171464248	0.00353163269647787	0.00483661297799171
7.9	-0.00877163344776906	-0.00016931785692278	0.949215854476309	0.257263724971793	0.949076238253894	0.257441040808437	0.00410401018445759	0.00457373963134342
8	-0.00416317865995084	0.00161182534145742	0.980086189026373	0.106901857877375	0.980060088398151	0.107163986808306	0.00593310677563885	0.00324305680991799
8.1	-0.00284619700161561	-0.000493947719071237	0.984671522159197	-0.047891650330345	0.984697743445068	-0.0476360860968853	0.00425980796393903	3.86652720697429E-05
8.2	-0.0025908874911953	-0.000721067649735241	0.965234099156308	-0.199817388382946	0.965278938365788	-0.19950015941603	0.00196813844330546	-0.00033218454795465
8.3	-0.00242720597858537	-0.000698250595139833	0.923286731304229	-0.34695366882153	0.923334785935541	-0.346666042753498	0.000129782850276651	-3.26852760713159E-05
8.4	-0.00261463728983454	0.0002029068724255	0.859550529592705	-0.486792132983007	0.859646127889798	-0.486588773684234	-0.00170738608104097	0.00126658850966527
8.5	0.000247096053929991	0.00220693956294773	0.772580372643063	-0.615952582227863	0.772630413458179	-0.615801107076006	-0.000641655685926107	0.003394170016788
8.6	0.00242669677216708	-0.000573486524220206	0.667324694772148	-0.72711806223655	0.667490882589584	-0.726879018365675	-0.000616190182206437	0.00226557961295365
8.7	0.00213768148516629	-0.001946808906854	0.54726886883093	-0.822172578368366	0.547526182109249	-0.821953922581949	-0.00147924392329504	0.0031794165643229
8.8	0.00199055844575133	-0.00261066360358199	0.41337519414278	-0.898067424525631	0.413559529848789	-0.897925956860829	-0.00139898407391542	0.00440373119187568
8.9	0.00174290621136277	-0.00258104197978388	0.268131376142996	-0.952156554000999	0.268309465133476	-0.951984168353358	-0.000414328267490954	0.00587167793551172
9	0.0033811863107378	-0.0022784462358378	0.117051743135293	-0.980539964246991	0.117360203871354	-0.980490284535139	0.00237177368594665	0.00683641624510469
9.1	0.00479223163062592	-0.00346174239209748	-0.0350579229326458	-0.988317062388739	-0.0347481347725623	-0.988272447139104	0.00498750170131635	0.0060268382090845
9.2	0.00644230440742746	-0.00454654270301556	-0.188868186992249	-0.971947086687704	-0.188519137367808	-0.971920960237092	0.00781759465981733	0.00463598504002779
9.3	0.00796919217054707	-0.00611928017424672	-0.338212824661591	-0.930987854447616	-0.337859245756686	-0.930958654744624	0.0101783935515376	0.00217138426329472
9.4	0.00959670433606764	-0.00752181211777581	-0.478446691472527	-0.866726950084752	-0.478120989797809	-0.86681509165216	0.0118967445005873	-0.00051254272823682
9.5	0.0117547058945662	-0.0120976229649941	-0.606208973127508	-0.783822849997738	-0.605969985947147	-0.783870655652078	0.0128730108575206	-0.00601689652875003
9.6	0.00811221827207927	-0.0155728686949535	-0.722992339517529	-0.680783505765743	-0.722676613913417	-0.680920114437583	0.00878139563699981	-0.00922736827814977
9.7	0.00558738611412933	-0.0155451536846903	-0.82066051165715	-0.559561575133935	-0.820368227889902	-0.559793909254717	0.00590707230164676	-0.0102870389469416
9.8	0.00373148535174519	-0.0150380975886424	-0.897780456939436	-0.425166965252009	-0.897523306704635	-0.425335188569392	0.00281981175332553	-0.0110197794743612
9.9	0.0025491404619052	-0.0126974753968665	-0.953399611564131	-0.281310760663409	-0.953142769659172	-0.281519252447904	-0.0001920962987927	-0.0102368919155047
10	0.00565264996776536	-0.0124541706534915	-0.988213370004762	-0.129080757200832	-0.988054755482243	-0.129446463050373	-0.000773427311079754	-0.0106085921764147
10.1	0.00387112728716206	-0.0151681036110464	-0.995501460751636	0.0281253768267389	-0.995434656375213	0.0276889323928574	-0.00580275016442068	-0.0114414317519018
10.2	0.00170249159461909	-0.0148444844649445	-0.978741464691819	0.182581973467118	-0.978615818086841	0.182146243240386	-0.00987609420141502	-0.00871400159293356
10.3	5.97206489271379E-05	-0.0137253757658451	-0.938844112959902	0.332733431937165	-0.938859047867149	0.33218504493254	-0.0126651861982018	-0.0054400596755382
10.4	-0.000996863404956106	-0.0119285805921197	-0.876456861076086	0.475747757020314	-0.876593479643997	0.475228785937608	-0.014396785303998	-0.0015625054325957
10.5	0.000706176969334067	-0.0100866854109175	-0.789828353559388	0.608199616761633	-0.790003524272418	0.607761646834613	-0.0133338304668063	0.00187025012232406
10.6	0.00173857763639209	-0.0115500828011832	-0.684743100742627	0.722001542044491	-0.685018703472271	0.721667617958126	-0.0129196601876136	0.00322365555715265
10.7	0.00142663760038824	-0.0125574962055899	-0.564454263489517	0.819727903362136	-0.564758501548589	0.819414843344094	-0.0127443391615717	0.00557765992680061
10.8	0.000672546440834781	-0.013386753708061	-0.429731649055894	0.897997250050766	-0.430087090736148	0.897695762084258	-0.0117489741278684	0.0082400976589296
10.9	-6.46076481953929E-05	-0.0136248679856771	-0.283417745799548	0.953974901789355	-0.283813035937621	0.953851712427028	-0.00974651976775753	0.0106997172337399
11	-0.000458021086239548	-0.014615782244098	-0.131495632911746	0.9839208623207	-0.131937053474661	0.983830832022568	-0.00694491701044022	0.0119855556059354
11.1	-0.00187822549552325	-0.014971369303017	0.0218002187818571	0.993129419130531	0.0213065171460372	0.993144155280131	-0.00440522893170428	0.0131971928274191
11.2	-0.00288190325212948	-0.0151438235390595	0.17667136754719	0.977967666699714	0.176209634488848	0.978043061646137	-0.000896455628809108	0.0136530473353546
11.3	-0.00388169674375276	-0.0149275146491908	0.327111541260249	0.937955879672975	0.326648431997308	0.938095995637822	0.0028220732743254	0.0133074508353559
11.4	-0.00432992507391592	-0.0141663455406324	0.468418379270861	0.874416290075245	0.468011581304161	0.87453251282366	0.00672654324684762	0.0124376981082563
11.5	-0.0035581876508829	-0.0157843972231456	0.597205243163641	0.792380236243621	0.596884770506602	0.792686348847627	0.0105710661863139	0.0085974459565968
11.6	-0.00713251622148718	-0.0170718501578637	0.714977551919108	0.689808048431227	0.714761682527948	0.690140312026225	0.010480141119989	0.00561140990308684
11.7	-0.00978185364364199	-0.0154885812328718	0.813472425709797	0.56903060029907	0.813269260569866	0.569341405344591	0.0112791806428413	0.00375126243000584
11.8	-0.0119222485612901	-0.0133777614584033	0.891352546937272	0.434994015139348	0.891172319799459	0.435450023510565	0.011603043510039	0.00145311064757972
11.9	-0.0124965268336764	-0.0091965506238856	0.947661302343658	0.291865775444376	0.94755751733266	0.292320204333227	0.0117657739757523	-6.01701342937794E-05
12	-0.00941316005464927	-0.00748386784958014	0.983481728657193	0.140366108307852	0.983455543375201	0.140734596154479	0.0134205769047056	-0.00357895341696202
12.1	-0.0103815031606645	-0.00863810269854186	0.99167553708529	-0.0160830465302769	0.99160786317185	-0.015694214627	0.00996894910502149	-0.00800770393086357
12.2	-0.0116697020557285	-0.00756723138430372	0.975945443354767	-0.169818176985077	0.975966187009834	-0.169517997472066	0.00649137469917231	-0.00929045662669776
12.3	-0.0124701228940285	-0.00604209845622324	0.937183731877533	-0.319177349900889	0.937307401293169	-0.318869662517181	0.00346121744838531	-0.00989912252801129
12.4	-0.0134584292085707	-0.00382358282928012	0.87651336331722	-0.4616965687279	0.876581248499041	-0.461324663669628	0.00040952042900518	-0.00942478720394844
12.5	-0.0112802887048535	-0.00104594603969447	0.791131108901765	-0.593618478500568	0.791479469081373	-0.593230382653763	-0.000485981275767367	-0.00854492863468298
12.6	-0.0104227905831336	-0.00213201631032434	0.688058829300443	-0.706700816653893	0.688314710578096	-0.706460715887239	-0.00303801830098177	-0.00957640756047882
