# GHZ S RI R 50
0.2	-0.000242715821863944	-0.000232919822019246	0.949506222405596	-0.307849834978468	0.949283874284274	-0.30782444204389	-0.00027524595047282	-9.405356188421E-05
0.3	-0.000380055822160653	-0.000156428589271347	0.889664630401388	-0.451569559209358	0.889508336392304	-0.451474182685607	-0.000491650471320199	-0.000157016446576625
0.4	-0.000291975968793886	-4.48418404505378E-05	0.808327834416446	-0.583988525661115	0.808339640894761	-0.584013653699012	-0.000517738436377335	-4.14614946908979E-05
0.5	-0.000209773835982675	0.000106936088443427	0.70757053239889	-0.702568770916424	0.707415386142452	-0.702467257394662	-0.000392010497552195	0.00011767244618338
0.6	-5.68248470740323E-05	3.09254483065898E-05	0.589527729420515	-0.803662969877942	0.589408371949853	-0.803501183225461	-0.000362222916832692	-2.01505520863026E-06
0.7	-3.13585042616941E-05	0.000123909726196318	0.457420657040897	-0.885150219543295	0.45740185507373	-0.885037651253196	-0.000357379248246059	-1.5818987575447E-05
0.8	0.000134089504406852	3.77200171900274E-05	0.314292588556418	-0.945307097639832	0.31426117360001	-0.945117225250678	-0.000395105545917126	4.74520923755732E-05
0.9	4.55267425251858E-05	6.55241731015165E-05	0.163543915499799	-0.982401027579072	0.163478822111904	-0.982309045478441	-0.000559418264230491	4.34829392517543E-05
1	4.50168398148166E-05	0.000315153160236441	0.00894297753845689	-0.995448859160034	0.00889129595019778	-0.995417370540228	-0.000551790530536037	0.000259694685774546
1.1	0.000334137660731003	0.000281940455230018	-0.145555456524758	-0.984752382141157	-0.14557122486062	-0.984621847984076	-0.000664082244965701	0.000145250447425171
1.2	0.000525834149867026	-0.000358320432223895	-0.296878224582971	-0.949999615614343	-0.296801790852862	-0.949973504213931	-0.000684269302853513	0.000621027153822547
1.3	0.000652634747552596	-0.00161867108935641	-0.44076750118489	-0.892127009831641	-0.44074444991857	-0.892120393762149	0.000244531382861787	0.00149492217199057
1.4	0.000602700678496012	-0.00334257620391477	-0.573617752597473	-0.812684564926236	-0.573593556469573	-0.812662920755117	0.00178620666315883	0.00153571715210072
1.5	0.000624975050326087	-0.00458585033442676	-0.692814690721487	-0.713721325315747	-0.692712847743492	-0.713636310010173	0.00345547076041799	0.000516746269289917
1.6	-4.77388775118532E-05	-0.00550493677549917	-0.79524063625694	-0.597282470156799	-0.795166487660785	-0.597222410636843	0.00335289513015223	-0.000729258634047759
1.7	-0.00072666434865843	-0.00554229779066204	-0.877811563930315	-0.466885432390265	-0.877975758909892	-0.466368793286412	0.00325026272764475	-0.00158250004644136
1.8	-0.0015022577248425	-0.00539152749970558	-0.939685564086607	-0.324436424099492	-0.939574216407251	-0.324435117243614	0.00268178710892887	-0.00251579093926941
1.9	-0.00215322236985715	-0.00482631223194538	-0.978432553619324	-0.175050109138184	-0.978525256157427	-0.174562081527091	0.00195334525894698	-0.00307102957426339
2	-0.00230179541826444	-0.00447398581740505	-0.993644678042618	-0.0203398439951588	-0.993656588520387	-0.0202939358761949	0.00140561183462919	-0.00375482871189073
2.1	-0.00303001937386179	-0.00444315513029991	-0.984460148410331	0.134325214994557	-0.984498247776117	0.134362380141347	0.000125528235343536	-0.00405937348657929
2.2	-0.00405684697589361	-0.00399170024851748	-0.951552209540041	0.285418940854594	-0.951476989048095	0.285481709361654	-0.000603331944851476	-0.00381752178093119
2.3	-0.0050069468464849	-0.00316367650273893	-0.895755275808057	0.429052636693613	-0.895372174265989	0.42956581015387	-0.00125614263889046	-0.00381104750525279
2.4	-0.00595195631092348	-0.00197371633736062	-0.817341839886557	0.5639768352468	-0.817609461097451	0.563390886177491	-0.00205237429946163	-0.00374614980226471
2.5	-0.0060331058806685	-0.000334002332052839	-0.71984226790305	0.683927575880917	-0.72005688241686	0.683417734750406	-0.00244325555474369	-0.00399744027451407
2.6	-0.00591752960465616	0.000699067880856919	-0.605186787571848	0.786764467358283	-0.605080916266685	0.786581484442258	-0.00334854850979869	-0.00408681962765775
2.7	-0.00557198323492561	0.00182760341472818	-0.475123897161221	0.871251726151741	-0.475573862668127	0.870845397405223	-0.00410074371943779	-0.00353001973600968
2.8	-0.00471667528651206	0.0027610299873018	-0.335278940714983	0.933835766570932	-0.334610710926148	0.933993406000993	-0.00451067913980733	-0.0027093917484878
2.9	-0.00318711386530918	0.00333176672997051	-0.185543501571319	0.974437693639052	-0.185574934885515	0.974350368198891	-0.00405016363491351	-0.00156670205717564
3	-0.00152914409543154	0.00319252881971953	-0.0312813222245274	0.991137631064871	-0.031982722113969	0.990980542431468	-0.00323093179997543	-0.000708962984303462
3.1	-3.72079044960764E-05	0.00277394577075066	0.121389715548254	0.983921677723387	0.121980346338756	0.983902621935148	-0.00203016776772976	-8.70611373964663E-05
3.2	0.00119805440175536	0.00194038000734713	0.273221631113721	0.952871428748217	0.27316669813987	0.952811243703744	-0.000992298494571013	-1.81829121865514E-07
3.3	0.00236268951569509	0.000910248220848603	0.417939401946008	0.898638591992583	0.417802222013305	0.898624717413667	0.000109075140836336	-0.000184765743021663
3.4	0.00316767765845321	-0.000364503022860016	0.552180916591551	0.82267992217994	0.552019022157462	0.822798203836781	0.00122394131660795	-0.000957466564352423
3.5	0.00390235218032281	-0.00204627266427859	0.672933991993111	0.727170337433738	0.672854518982488	0.72720927168774	0.00182063477733026	-0.00203467072196439
3.6	0.00354333408311145	-0.00374382151142891	0.777262793086596	0.614255743265064	0.777502498041162	0.613806586347224	0.00191784803301834	-0.00283732763227581
3.7	0.0029884835380487	-0.00516036530082105	0.863345314394944	0.485419304852763	0.86322747530847	0.485562676506547	0.00209717060966366	-0.00363683650111686
3.8	0.00195540296136506	-0.00633482217652382	0.927831520448627	0.346007249922923	0.927887192529156	0.345628123683436	0.00198366009939661	-0.0046728476223689
3.9	0.000963298999623756	-0.00713837186218374	0.97031312731443	0.196675729071391	0.970076782040156	0.197343414484722	0.00120059248357375	-0.00599342194862754
4	-9.97384095233531E-05	-0.00788255258282487	0.989068197771216	0.0443584324851076	0.989029582798478	0.0444613510134287	0.00022562360128344	-0.0072627291796012
4.1	-0.00176878877519288	-0.00879842447997372	0.983717539156362	-0.109746335806808	0.983533616903135	-0.109618721539663	-0.00151436071368691	-0.00804064756002917
4.2	-0.00406195051659609	-0.00897010550486013	0.9542051909483	-0.261609539644903	0.954242242654895	-0.260956659217699	-0.00308689527943948	-0.00824460759842978
4.3	-0.00631030124358085	-0.00865638757792565	0.90221958982027	-0.405771163197535	0.902084253236119	-0.40565977670753	-0.00463573141276586	-0.00842921445370894
4.4	-0.00867077733162671	-0.00750728500342358	0.82823533384674	-0.540769612284394	0.828070774465485	-0.540635972649978	-0.00621730299627817	-0.00832875654369928
4.5	-0.0101863642185479	-0.00583624960814625	0.734033858652489	-0.662695822121359	0.733845895246908	-0.662522373758725	-0.00761783876822958	-0.0083216875855456
4.6	-0.0115983616851485	-0.00426112679811941	0.621784717076967	-0.768657419322659	0.62212790349597	-0.767961742984483	-0.00964236226760675	-0.00818296018420464
4.7	-0.012771170635115	-0.00250022012021318	0.495403293548626	-0.855445059334108	0.495420635828885	-0.855089928353926	-0.011621955920572	-0.00753103471968973
4.8	-0.0136477842120062	-0.000233518021255517	0.356370659491124	-0.921687528044036	0.356592568381668	-0.921372258033835	-0.0132561542613758	-0.00648838518098271
4.9	-0.0136813250266973	0.00207864913927998	0.209393406679369	-0.965095031639783	0.209173837606402	-0.965102261919479	-0.0142956865082691	-0.00511103587334275
5	-0.0129851057771919	0.00422587131818762	0.0571116457160892	-0.985478464178639	0.0572889725732236	-0.98523410177111	-0.014677137000952	-0.00340107110738861
5.1	-0.0117895098142238	0.00601858427453524	-0.0960994571617589	-0.982549027771712	-0.0957681188519288	-0.98232488729063	-0.0144679030432171	-0.00157006710260869
5.2	-0.0102329930360518	0.00789722519250836	-0.247463921207147	-0.955678963785426	-0.246973086671811	-0.955653109420015	-0.0138398326599324	2.42433829369267E-05
5.3	-0.00816687516153151	0.00941401299590999	-0.392598690370362	-0.905630368143327	-0.392259184076939	-0.905846646406221	-0.0129310059186692	0.0011611943889398
5.4	-0.00551691903432285	0.0108505140826081	-0.528200235951561	-0.833733854176791	-0.527988298246805	-0.833934422229198	-0.012226060355251	0.00192941406711194
5.5	-0.00242794141899165	0.0109859577107168	-0.651059908548336	-0.741855326099027	-0.650821739234986	-0.742049859960649	-0.0121787188779888	0.00240916762887527
5.6	-0.000184775890052244	0.0108857148650888	-0.758221272992516	-0.631716313733286	-0.758032197056298	-0.631887979687513	-0.012179789588495	0.00390227929100456
5.7	0.00198122698931965	0.0105705599993207	-0.84694336064633	-0.506353267098618	-0.846814560445452	-0.506572665782546	-0.0114873933514147	0.00532093073521168
5.8	0.00405827558246853	0.0101716859501777	-0.914975166630746	-0.368750082860813	-0.914907689817587	-0.369034350966532	-0.0106768638658025	0.00646230130947655
5.9	0.00619602759584323	0.00951791499655574	-0.961017097493723	-0.222601724416686	-0.961031563619485	-0.222685126628355	-0.00990354608210857	0.00731530993764626
6	0.0088502552348955	0.00812638292676621	-0.984069124753584	-0.0708102622679503	-0.983950197384587	-0.0708681944337756	-0.00962122463632534	0.00781565107534552
6.1	0.0103353583771733	0.00564539854323961	-0.982773792067073	0.0826715940312733	-0.982647559568686	0.082523519816868	-0.00968442162762379	0.00925347108812893
6.2	0.0110022639762355	0.00332729625482578	-0.957908778724633	0.233958445728812	-0.957895121827278	0.233756246507631	-0.00873401349662392	0.0107847529124855
6.3	0.0110308599002044	0.000803593330335997	-0.910101650585262	0.379575133868113	-0.910097105678946	0.379390363672731	-0.00710439014743063	0.0116016921267463
6.4	0.0105119872577701	-0.0016935972600453	-0.840300349168718	0.516213637787139	-0.840268709652606	0.516003604484752	-0.00541954584205826	0.0114293150661777
6.5	0.00939982511196673	-0.00430831666351074	-0.749774968699515	0.640284222709964	-0.749799006996471	0.640080762213404	-0.0041587518444275	0.0105545952824542
6.6	0.00775253495888398	-0.00638903710908025	-0.641485854061542	0.748662102138308	-0.641559398735074	0.748410714256359	-0.00330143565965648	0.00973159908666167
6.7	0.00578718457486069	-0.00795037239301389	-0.517592747919631	0.839102544077877	-0.517695149551663	0.838881993605247	-0.00295480613164014	0.00888305492868715
6.8	0.00391099664240768	-0.00888767940845392	-0.381118385036012	0.909261047586665	-0.381259517071367	0.909090746432549	-0.00299258970170258	0.00852637847304183
6.9	0.00206327444107871	-0.00951905877727243	-0.235327772403383	0.957206159405624	-0.235553651755609	0.957095969464317	-0.00283849875680654	0.00859756713884184
7	0.000384510068398727	-0.00986193138148306	-0.0842656193451049	0.981810344108445	-0.0844746849540131	0.981720652540016	-0.00248318700253896	0.00872932813915917
7.1	-0.0014169402088243	-0.00978558860290084	0.0689450266539502	0.983205913198517	0.0687437832491183	0.983072860856309	-0.00177629727410574	0.00906352883243268
7.2	-0.00288623525331801	-0.00935610249271493	0.220671963487743	0.960563012029296	0.22039071928218	0.960528245294601	-0.000687886526249749	0.00928772145573956
7.3	-0.00431565529622826	-0.00881035453645209	0.36689244669707	0.914629386777815	0.366657052147428	0.914655259007155	0.000473837139881204	0.00923636886935772
7.4	-0.00537251462919129	-0.00798874582642219	0.504114149573923	0.84660365310504	0.503901302521868	0.846654324170375	0.00155812084380611	0.00887451876332942
7.5	-0.00618929060749365	-0.00737312931466657	0.629253809768497	0.758476940030675	0.629084587218807	0.758546113375222	0.00263657306580005	0.00836996276300094
7.6	-0.00690497018565465	-0.00661861281597135	0.73949045623451	0.651585975421272	0.739233373731863	0.651667734560597	0.00393915396540297	0.00762375281046872
7.7	-0.0074907048679255	-0.00550528354065308	0.831461065573311	0.528958754990935	0.831275576543948	0.529175069731087	0.00513461057132324	0.00635325212018269
7.8	-0.00745248459048881	-0.00410452823895305	0.903457917417283	0.393611616798633	0.903354618652802	0.393836323552123	0.00603096222462997	0.00452040056905334
7.9	-0.00692379643765346	-0.00248797226549152	0.953701519442515	0.249002579810394	0.953563244544479	0.249181585140077	0.00622855698431371	0.00237181722731367
8	-0.00518830247604746	-0.00161384361883486	0.980937240962322	0.0978710130464741	0.980913555342254	0.0981333466797149	0.00508117384967326	-2.81979229031717E-05
8.1	-0.00427811953604542	-0.00153506507387772	0.984205041311471	-0.0554721501556614	0.984233228694199	-0.0552168132331189	0.00268160944059201	-0.000836413913329214
8.2	-0.00360380061532743	-0.00136096921745881	0.963774044694736	-0.207425714033011	0.963821382038405	-0.207108801208485	0.000734579692468854	-0.000638786797492206
8.3	-0.00321289276310922	-0.000956640853944862	0.920121447769549	-0.354483549676502	0.920171867264497	-0.354196412908241	-0.000867977034827854	0.000196588656086188
8.4	-0.00260583761633314	-0.000177578131381279	0.854123149016041	-0.493238047501053	0.854220302968458	-0.493035808140421	-0.00181390735134518	0.00145377140026089
8.5	-0.00111836188346791	0.000646540627451145	0.767001447933743	-0.619819460791945	0.767052386645883	-0.619668614090597	-0.00213533670225442	0.00234937599339821
8.6	0.000552517278257271	0.000313300528818902	0.661508023702356	-0.73125048893163	0.661675776655115	-0.731012852411787	-0.0027033186852483	0.00383065365236557
8.7	0.00167901680402172	-0.000228599039624245	0.539954893972642	-0.825107997725557	0.540213496026767	-0.8248917081676	-0.00204080468620744	0.00575151020916964
8.8	0.002754486609517	-0.000874213856294496	0.405390933551415	-0.898949959651725	0.405575886903796	-0.898810276099796	-0.000508741411048037	0.00709815891841197
8.9	0.00368452541228892	-0.00149250505425979	0.260851051594319	-0.950963446292849	0.261029743420629	-0.950792808109527	0.0019206080650337	0.0078689603513461
9	0.00524575917435687	-0.00247297410289965	0.110245763645503	-0.979618696747483	0.110554021124611	-0.979571180495427	0.0048096712739368	0.00736629753830358
9.1	0.00663837989250743	-0.00409061053822627	-0.0430284901565973	-0.98512335138439	-0.0427192487896726	-0.985081398069835	0.0074939424157749	0.00591759768426312
9.2	0.00775440796376224	-0.00606669660511768	-0.195593326205062	-0.966462260582763	-0.195245520560777	-0.966438938503845	0.00974750342336991	0.00339995580761662
9.3	0.00829390083844874	-0.00797304375686448	-0.343211104146803	-0.924324070293167	-0.342858946211669	-0.924297494201307	0.0109485729278194	0.000412939642024241
9.4	0.00875775279289237	-0.00972004470038911	-0.482251383946222	-0.859893909244342	-0.481927635962249	-0.859983864271495	0.0112114438248631	-0.00270450092720825
9.5	0.00883080546648379	-0.0119136060900678	-0.609839578671397	-0.774952771606551	-0.609602148633432	-0.775002347644965	0.00980916486279624	-0.00566489059507599
9.6	0.00778100740807418	-0.0138247210821146	-0.722986133557404	-0.670734941887294	-0.7226736055879	-0.67087292676831	0.00829099373725095	-0.00698029726071086
9.7	0.00634033716926136	-0.0146656867078766	-0.81825543213251	-0.55036882664963	-0.817966716789951	-0.550601320774956	0.00666148742371853	-0.00876528647722106
9.8	0.00495167415996065	-0.0149136489292882	-0.893766972055529	-0.416819164306682	-0.893512672453129	-0.416987676519888	0.00421398006200468	-0.0102517155510337
9.9	0.00391136442345851	-0.0141267548922294	-0.947862844029489	-0.273204596804762	-0.947609268960193	-0.273413097557178	0.00138917263976063	-0.0111765602188338
10	0.0039567013922614	-0.0139042127702965	-0.979054230052096	-0.122422940976925	-0.978899185253882	-0.122785859638777	-0.00240247519739201	-0.0116976966050383
10.1	0.00323283386567314	-0.0140262620631237	-0.985958060993245	0.0311418219237224	-0.985893330314384	0.0307093003848517	-0.0064683614209392	-0.0097645172380329
10.2	0.00249899313410816	-0.0138076395195346	-0.969324148330899	0.183904992777636	-0.969200964385216	0.18347282582363	-0.00896688792221053	-0.00704538754993008
10.3	0.00178896693002455	-0.01323174336401	-0.929043384110537	0.332398536420214	-0.929059807480032	0.331855341231142	-0.0106436559759005	-0.00436786731656548
10.4	0.00143263414030022	-0.0127419777639137	-0.866015521335804	0.472815075248645	-0.866151941908795	0.472301936993968	-0.0115402782869594	-0.0020152462369875
10.5	0.00155186554927115	-0.0124247479714318	-0.781622856984356	0.601468233071129	-0.781796019847426	0.601034866249493	-0.012118280044482	-0.000481225530800326
10.6	0.00167155542052098	-0.0129892807258838	-0.678788953941635	0.715210168619927	-0.679061938533212	0.714879175122336	-0.0130530516715958	0.00185911951894927
10.7	0.00122872478644094	-0.0133433952811087	-0.55948511674152	0.811919323778329	-0.559786421843134	0.811609070304819	-0.0130582050430643	0.0048861775747447
10.8	0.000755889637648387	-0.0138225327134788	-0.426495119371813	0.888849686702469	-0.42684680463652	0.8885507530877	-0.0118922559737158	0.00797674401769271
10.9	0.000100131016869771	-0.0140631835703684	-0.283186767296626	0.944056334468134	-0.283577932686695	0.943933296054252	-0.00997242932620876	0.0105432295178893
11	-0.000448404203240263	-0.0146892175300442	-0.133430021286465	0.9763164064479	-0.133867938855791	0.976225735898044	-0.00739510596202416	0.0123918822320688
11.1	-0.00132227821682621	-0.0150558638721323	0.0198232618695835	0.985218434665014	0.0193334857068581	0.985232156756977	-0.00422430657543941	0.013743400266278
11.2	-0.00225471243551171	-0.0154662184800725	0.172584199048123	0.970077341590452	0.172126212345797	0.970150875370583	-0.000563212405641792	0.0140364199007611
11.3	-0.00323884292081539	-0.0155394237241367	0.320986551743076	0.931393598266126	0.320526760568898	0.931530866968742	0.00326574988821354	0.013388932675964
11.4	-0.00413249287744297	-0.0154709256188003	0.461484924453125	0.87023048105758	0.461080497751493	0.870344192116493	0.00675885600193694	0.0118290090443432
11.5	-0.00491166333412961	-0.0156225155881459	0.59100634196866	0.788170096271063	0.590687414812176	0.788473240132614	0.00899896404748531	0.00953992333736728
11.6	-0.00646233307149899	-0.015846727792712	0.706189306023315	0.686605726132117	0.705974023994922	0.686934305840491	0.0109971508015074	0.00774856830938812
11.7	-0.00814764702944377	-0.0151294260788746	0.804061245260766	0.56856733433925	0.803858142653013	0.568874615603048	0.0129541989148038	0.00506423019171294
11.8	-0.00977766687647818	-0.0139380350416493	0.882537549538161	0.436716978968709	0.882356135231605	0.437168708644105	0.0139836949876753	0.00169084320616383
11.9	-0.0105621043874583	-0.011743826356381	0.939703840746462	0.294503411632793	0.93959854181022	0.294954202096255	0.0140993982686823	-0.00203641006212531
12	-0.0105573889216026	-0.0104267406474912	0.974110848524628	0.144749688341682	0.974082790687161	0.145114815676355	0.0122724698470803	-0.00624271573437844
12.1	-0.0108250232947987	-0.00967490805390057	0.984333330929421	-0.00833108193672311	0.984263174467291	-0.00794569815643886	0.00924965231209744	-0.00863468004922312
12.2	-0.0117245962013802	-0.00899830132893587	0.970901028466683	-0.161082378981981	0.970919290760331	-0.16078399710717	0.00606417072917831	-0.0101621745800316
12.3	-0.0129034433994485	-0.00765749494993572	0.933756869551972	-0.30982718627303	0.933877349876932	-0.309520476250056	0.00264625932999359	-0.0107963528140469
12.4	-0.0140394809219411	-0.0055542506786337	0.874261769250325	-0.45109336039044	0.874326051430789	-0.450723487332108	-0.000470932074402128	-0.0103608090092965
12.5	-0.0136768066402274	-0.00300518602939289	0.792997413572768	-0.581037104010517	0.793339251775139	-0.580647446370167	-0.00325320167579419	-0.00973987678575076
