# GHZ S RI R 50
0.2	-0.000281413514487106	-5.98839511684563E-05	0.948979007477905	-0.30799780586632	0.948756768624352	-0.307972356953677	-0.000247725619008412	4.69260088201734E-06
0.3	-0.000339497631881462	3.79352609606241E-05	0.888980581275017	-0.451630791768219	0.888824413297098	-0.451535413851296	-0.000367332196559491	-0.000123934516202695
0.4	-0.000174920990377656	0.000102728405608088	0.807516609815867	-0.583858790222168	0.807528398292109	-0.583883904155186	-0.00034287282393336	-0.000139717400618078
0.5	-0.000191486637642943	0.000140511924315501	0.706806667118602	-0.702186980436812	0.706651674275377	-0.702085507897192	-0.000333689093497293	-0.000107843192585463
0.6	-0.000124939911085538	0.000212732726854564	0.588799657374014	-0.803185171168905	0.588680447037013	-0.803023480497831	-0.000315063210359689	-0.00016041317070035
0.7	-4.80247619956427E-05	0.000384565731067668	0.456718072711876	-0.884467927852209	0.456699323410569	-0.884355458623052	-0.00026903848221997	-0.000263249425004686
0.8	0.000186519497886632	0.000346666064945394	0.313726508209803	-0.944414450240292	0.31369517431799	-0.94422476529005	-0.000349695800385203	-0.000319233959354302
0.9	0.000251763879358513	0.00032325380153599	0.163204426185642	-0.98138479666763	0.163139417492764	-0.981292901332628	-0.000630162453349499	-0.000486245110913814
1	9.44929331251477E-05	0.000236588625535214	0.00870930872645033	-0.994426639969096	0.00865768742752461	-0.994395172117433	-0.00117058911563964	-0.000344592808645618
1.1	9.06619908328887E-06	0.000469810373707493	-0.145614247661177	-0.983506673623211	-0.145629965101232	-0.983376296148266	-0.00156446440153044	0.000300639970060235
1.2	0.000167846254705844	0.000261949389244384	-0.296606732572039	-0.948699053235373	-0.296530397016314	-0.948672986430144	-0.00128851227470689	0.00149353374258674
1.3	0.000632454528426406	-0.000511696889744607	-0.440204881327183	-0.890883565731366	-0.440181861355914	-0.890876959809192	0.000479027245759513	0.00289006108475288
1.4	0.00106822120059465	-0.00227313098097433	-0.572845973322464	-0.811522717926625	-0.572821810248585	-0.811501105051166	0.00293226927591881	0.0025536680224178
1.5	0.00107037882869898	-0.00355008574668493	-0.691694252806454	-0.712515414897232	-0.691592575243426	-0.71243054393789	0.00493737686256693	0.000969247973214169
1.6	0.000621274530911003	-0.00464588756696938	-0.793691635448601	-0.596452000803015	-0.793617632441856	-0.596392026358269	0.00487605899732031	-0.0013825816622537
1.7	-0.000132294802157013	-0.00491702876338156	-0.876120320578077	-0.466431852835752	-0.876284438375047	-0.465916165342517	0.00401822249964579	-0.00283055272665192
1.8	-0.00100176744865173	-0.00496940405343636	-0.93788422023156	-0.324308064457368	-0.937773068569842	-0.324306707660832	0.00275798769805029	-0.00388289273249327
1.9	-0.00198071558703405	-0.00466087786531343	-0.976463298077372	-0.175274152908876	-0.976556102070909	-0.17478711063612	0.00129791796311622	-0.0042489176506538
2	-0.00265148162873375	-0.00384958449942387	-0.991618678386771	-0.0212905486593546	-0.991630610659369	-0.0212447451156837	0.000536679153124602	-0.00391058988641086
2.1	-0.00301544041431898	-0.0035491313969621	-0.982883813675482	0.132938879754528	-0.982921889388688	0.132975934959356	-3.87058083497223E-05	-0.00428235608585032
2.2	-0.00391352745865634	-0.00313313563837657	-0.950258517804001	0.283739079846615	-0.950183505873349	0.283801833250817	-0.000940772595122377	-0.00430334348136298
2.3	-0.00475065258859887	-0.00239253867181692	-0.894807149434861	0.427042285445036	-0.89442543788039	0.42755510974889	-0.00190347022806307	-0.00423687270769801
2.4	-0.00575273042765755	-0.00147397146236676	-0.81692530219123	0.561628290363335	-0.817191470533171	0.561042873426354	-0.00312001211303394	-0.00386383169632838
2.5	-0.00634745212734738	0.000416877685373408	-0.720237791672383	0.681692677721516	-0.720451163638728	0.681183070690602	-0.00364807218743861	-0.00281327462525563
2.6	-0.00579800664009298	0.00190325759898936	-0.605807314428719	0.784764133220204	-0.605701256396406	0.784581555391954	-0.00298708085948786	-0.00231698761308331
2.7	-0.00503589781992529	0.00286011911699759	-0.476171045307066	0.869292928985649	-0.476619697991698	0.868886257036682	-0.00267372275084146	-0.00245406735036569
2.8	-0.00411298256603405	0.00345040485877085	-0.336828199910589	0.932119040960986	-0.336161029552388	0.932277879589766	-0.00282493304742627	-0.00260203000021561
2.9	-0.00279228602856169	0.00386453207002682	-0.187509081446654	0.973257925304078	-0.187540300268839	0.973170601356429	-0.00264605167288435	-0.00208866576292703
3	-0.00119857458905694	0.00384301576471879	-0.0330772015286993	0.990440922176515	-0.0337778610987417	0.990282649712039	-0.00195007179824328	-0.00157283105379469
3.1	0.000270744497809442	0.00335958513686105	0.1192975105409	0.983294705053851	0.119887656430435	0.983276857498641	-0.00117952833341253	-0.00146257170188341
3.2	0.00141100910549194	0.00253521267060539	0.270920970739323	0.952799024951822	0.270866209828269	0.952738761183712	-0.000704716443590995	-0.00142572452617856
3.3	0.00248702667954283	0.00145677227944357	0.415720758852189	0.899122868448951	0.415583678666413	0.899108694100894	1.25562192863597E-05	-0.00150426815366955
3.4	0.00299845527057784	0.000200940518474174	0.550266728993338	0.8235004606294	0.550104653219686	0.823618361854226	0.000787298546712763	-0.00195439679181162
3.5	0.00373080885653882	-0.00104143646488202	0.670847590231434	0.72803669252263	0.670768096588375	0.728075426043769	0.00180856421081232	-0.00257802467406862
3.6	0.0034882524015301	-0.00286559962274321	0.775239258111725	0.61598665921722	0.775480023155061	0.615538367680773	0.00194560703858839	-0.00404768285925737
3.7	0.00281097711061719	-0.00424011221583861	0.861854309603414	0.487591703005228	0.861736118590035	0.487734728415144	0.00154768649243122	-0.00490786813098717
3.8	0.00170168051891167	-0.00536933945919926	0.926797779035903	0.348411148553843	0.926854444522433	0.348032218496033	0.00096879060427281	-0.00566064659547202
3.9	0.00043122481885982	-0.0061300911375621	0.969572265665781	0.199304508718921	0.969334132298142	0.199971406458457	-0.000271266131832196	-0.00633235927368429
4	-0.000757489209993421	-0.00610971365533342	0.988997221899217	0.047729685100253	0.988958253371539	0.0478324804728694	-0.000672119140712287	-0.00615428927989838
4.1	-0.00177273540291662	-0.00692403736492033	0.984855735219007	-0.106680191384067	0.984671256804154	-0.106553064776607	-0.00099079797535377	-0.00729218049953209
4.2	-0.00375911849881605	-0.00725570952912946	0.955901179690597	-0.258982666968532	0.955936299046424	-0.258329053903636	-0.00221336519176059	-0.00815612840430543
4.3	-0.00579126911773156	-0.00728517681940255	0.904411557424775	-0.40348810850646	0.904275739793264	-0.403377010215481	-0.00372843829428502	-0.0089352369039065
4.4	-0.00835658286241241	-0.00670791526422035	0.831084350506083	-0.538817452178872	0.830919140524454	-0.538684165495509	-0.00586441278607153	-0.00930050534267973
4.5	-0.0106367206335769	-0.00482972396740081	0.737653901167974	-0.661941672205323	0.737464999451869	-0.6617684086728	-0.00780490167881866	-0.00838372223616638
4.6	-0.0118707108816592	-0.00290446109385451	0.624901335221716	-0.768807094285836	0.625243603645494	-0.768109148394527	-0.00870360675682699	-0.00803450909279976
4.7	-0.0129636969299679	-0.0010837593830992	0.498421475706383	-0.856035132405221	0.498438021423827	-0.855679233960524	-0.010159670184509	-0.00799252769689325
4.8	-0.013756795705047	0.00117429045238097	0.359346940855494	-0.922911741420195	0.359568602393403	-0.922595240431545	-0.0116502642051649	-0.00767656076812524
4.9	-0.0138128023067549	0.00340851725559581	0.212087346854237	-0.967254138636088	0.21186719757438	-0.967261872106898	-0.0129658175141462	-0.00698816002937218
5	-0.0130818614358038	0.00568804881784965	0.0585830082820111	-0.988068231718289	0.0587604883386648	-0.987822971268554	-0.013574312543095	-0.00569651149298072
5.1	-0.0118730307653304	0.00732608238641838	-0.0947964785313723	-0.984927075311729	-0.0944647354349576	-0.984701913361656	-0.0141862608571213	-0.00471620635613641
5.2	-0.0105117006488384	0.00923501280116995	-0.24655741357438	-0.958500048861918	-0.246065375671041	-0.958473340997716	-0.0149813100931531	-0.00297605632777352
5.3	-0.00865155050643384	0.0109384765184189	-0.392449631913328	-0.90867564540718	-0.392108889640919	-0.908892059238229	-0.0151122992507394	-0.000760739171545842
5.4	-0.00625353645974317	0.0128215628630004	-0.5289341949365	-0.836490969176656	-0.528721498912217	-0.836691906633647	-0.0145557434382025	0.00176882812856026
5.5	-0.00238653838457493	0.0137920922634185	-0.651652438214273	-0.744012273927252	-0.651413590785102	-0.744206968484724	-0.012263553335641	0.003417277153626
5.6	0.000269907976411398	0.0129370473939445	-0.759244859607809	-0.634466598122564	-0.759055042147255	-0.634638427779191	-0.0116906777167657	0.00296761491127403
5.7	0.00225724299368517	0.0124437296215969	-0.848837073861443	-0.508849015759711	-0.848707634075216	-0.509068907830609	-0.0119460673333842	0.0039858642465637
5.8	0.00417047475725052	0.0119082436938417	-0.91741176492309	-0.370646165406342	-0.917343840676186	-0.370931231093714	-0.0119328541407746	0.00552408984051243
5.9	0.00568530648986784	0.0112862946433729	-0.963496859098195	-0.223928597856423	-0.963511303082016	-0.224012240575238	-0.0118688297963456	0.00770234795141807
6	0.00845258770732888	0.0113550071811262	-0.987089690191912	-0.0723982434315513	-0.986970305793773	-0.072456194536507	-0.00965464844948835	0.0108593170781432
6.1	0.0112519691786825	0.00853112020158297	-0.98667443329311	0.0824283267765402	-0.986547620549882	0.082279744861347	-0.00663252443638145	0.0106711957324666
6.2	0.0122386445828	0.00548795345934496	-0.961491450760444	0.234837931219486	-0.961477743767599	0.234634975474892	-0.00518161621634019	0.00994202796516808
6.3	0.0120870014751141	0.00221920529728567	-0.913214584827807	0.381107674910184	-0.913210064504637	0.380922254858982	-0.00438078977865444	0.00890532195523444
6.4	0.0108969438233398	-0.000604162253057166	-0.843239061344369	0.518076888701174	-0.843207320715281	0.517866112792801	-0.0044357139480296	0.00806617458490661
6.5	0.00932149913833711	-0.00283394201535245	-0.752640255423979	0.643544967632276	-0.752664526261083	0.643340635603733	-0.00441363529253859	0.00778714100408803
6.6	0.007538595323489	-0.00454955559607992	-0.642716187551428	0.752347663604384	-0.642790374020162	0.75209546717614	-0.0044156310981891	0.00773954701082939
6.7	0.00579746995542432	-0.005705295646677	-0.51813520192812	0.842578688641308	-0.518238245479762	0.842357554244534	-0.00408667320865424	0.00813774491011051
6.8	0.00428686012059039	-0.00666033577062834	-0.381195250453444	0.9128267283888	-0.381337083389959	0.912656041276745	-0.00338624580754707	0.00842153351949407
6.9	0.00252742445289388	-0.00745923996789232	-0.234648661878365	0.961250705115818	-0.234875585796876	0.961140466678853	-0.00243728124406351	0.00853810798598911
7	0.00099111736202304	-0.00802539753627442	-0.0816985652290655	0.985352824378807	-0.0819085934712429	0.985263438483699	-0.00127397611336911	0.00799158517054408
7.1	-0.00113486642505204	-0.00821291564254904	0.0715703704274626	0.985535488443555	0.0713682835043002	0.985402599095988	-0.00090988198369926	0.00749469209116066
7.2	-0.00285553062403339	-0.00771993652458377	0.223607534554932	0.96258990351988	0.223325454182942	0.962555730850204	-0.000155591824493985	0.00748402208640632
7.3	-0.00444413656953645	-0.00707716812171353	0.370441288634818	0.916086107899907	0.370205327790365	0.916112707515438	0.000752632517210406	0.00722843234117542
7.4	-0.00567968894134546	-0.0061045920163129	0.508259498203726	0.84682585637124	0.508046329085534	0.846877391133364	0.00152889290189791	0.00675125666944168
7.5	-0.00624488811880629	-0.00522027129863164	0.632267395233406	0.757302362606734	0.632098212936689	0.757372134587796	0.00282010861591953	0.00608146478072139
7.6	-0.00697434689942785	-0.00492865746957317	0.742276172383103	0.65080507738194	0.742018880734222	0.650887600275842	0.00339353532556951	0.00418486450718897
7.7	-0.00807188760998426	-0.00382269653130326	0.834431809228701	0.527507594237533	0.834246613808962	0.52772481880018	0.00287864846607764	0.00290826880526096
7.8	-0.00855640075866909	-0.00222039260221543	0.906062531481506	0.391279080825627	0.905959804880734	0.391504452813463	0.00228485501692344	0.00219001010423704
7.9	-0.00891986332042515	-7.82979068101716E-05	0.955239385555871	0.246130107319706	0.955101579008813	0.246309695489433	0.00153944242657496	0.00261448935194723
8	-0.00679425045984947	0.0030323166613647	0.982295908584675	0.0957771387735654	0.982272785819194	0.0960398301569795	0.00251055466077124	0.00393922207130254
8.1	-0.00424635959736458	0.00310047907670547	0.985674332868505	-0.0587852298837415	0.985703402919698	-0.058529556914289	0.00413413069590476	0.00222437619800318
8.2	-0.00276161033454885	0.00286565625241167	0.963971571801598	-0.211263558113533	0.964020149944462	-0.210946501794769	0.00359004426548833	0.000574516928551559
8.3	-0.00173478605766671	0.00254670191761182	0.919164563506552	-0.357996748826691	0.919216056752826	-0.357709689512637	0.0024621015004003	-0.000505581022473925
8.4	-0.00130079852896501	0.00209807857655601	0.852821645390308	-0.495955242449893	0.852919438108253	-0.495753251463345	0.00052173846957636	-0.00103186819582971
8.5	-0.000800736285667931	0.00329871925110533	0.765646065739051	-0.62331030936042	0.76569760897343	-0.623159472541488	-0.000755689658232436	0.000881626968393448
8.6	0.0013971042502947	0.00278433685500915	0.658355028922441	-0.734123898979047	0.658523812597615	-0.733886984409481	0.000177175794551727	0.00107787722470503
8.7	0.00228599208436624	0.00198756365178028	0.536452704940322	-0.826776557593896	0.536712013403874	-0.826561390568363	-6.97875404425319E-05	0.00107553878425328
8.8	0.00331696766223775	0.00123701568827917	0.401957944435316	-0.899882250328183	0.402143290068043	-0.899743305130832	-0.000319962784362479	0.00130238796779386
8.9	0.00400022858934159	0.000196151469715253	0.257288297111111	-0.95180530484642	0.257467598368088	-0.951635352236373	-0.000418888861782833	0.00183349047043585
9	0.00480195137901335	-0.000530676559830171	0.105324552091266	-0.979165957123107	0.105632730066153	-0.979120002432868	0.000231625381882916	0.00319074708389725
9.1	0.00574844364496238	-0.00155043145387225	-0.0467447938905568	-0.983042288412025	-0.046435991863817	-0.983001609510791	0.00195483686916089	0.00389278366684109
9.2	0.00700562290621497	-0.00233162351930313	-0.19867876188172	-0.964158149205604	-0.19833145460546	-0.964136093961284	0.00453354652071031	0.00439477795398396
9.3	0.00869405217053905	-0.00368967954759319	-0.346177985609953	-0.92157409153529	-0.345826278843692	-0.921548892386971	0.00813471034016908	0.00343942880327971
9.4	0.00970459135560852	-0.0058775924594667	-0.485154237469307	-0.855876078825813	-0.484831584410464	-0.855967320441353	0.010928681657258	0.000750303907572094
9.5	0.0108117093443307	-0.00816607137936824	-0.610403299793655	-0.769715196451791	-0.610166962101467	-0.769765469415902	0.0134411188137843	-0.00336529937516527
9.6	0.00927800379402897	-0.0116316662150668	-0.722593027033746	-0.666608176074196	-0.722281865570895	-0.666746601584333	0.0116350263690623	-0.00907663870804845
9.7	0.00711117650908639	-0.0124781051262708	-0.817370534277519	-0.546156368973171	-0.81708342953772	-0.546389014318	0.00794985387563982	-0.0120120635043603
9.8	0.00542324384071744	-0.0128523529326738	-0.891801671676017	-0.412484666839871	-0.891548832705004	-0.412653360559708	0.00387351272978628	-0.0135789294967792
9.9	0.00338677933834096	-0.0121840211005056	-0.944134671385667	-0.269473019609472	-0.943882822410739	-0.269681201365084	-0.000777343232980312	-0.0132470343012869
10	0.00363579713100283	-0.01029281179255	-0.975198446925359	-0.121014235972597	-0.975044369054386	-0.121375827640462	-0.0027715678840057	-0.0107395373616599
10.1	0.00364419324733669	-0.0113177437309821	-0.98239278683691	0.0327383539473539	-0.982329035658785	0.0323072606129887	-0.00505123366193286	-0.0111891794596471
10.2	0.00249322183796407	-0.0114394465108723	-0.964911639071173	0.184677419106277	-0.964789671124173	0.184246890414118	-0.0087975118769491	-0.00969860393448616
10.3	0.0013321876029447	-0.0110585576635254	-0.924472838575312	0.331641946305069	-0.924489641690233	0.331101274101812	-0.0120788077432354	-0.00701627652227256
10.4	-1.3045054893033E-05	-0.0104872748770092	-0.862589022073887	0.470527978615602	-0.862724685596035	0.470016923973103	-0.0148404726850764	-0.00323923362074121
10.5	-0.000352799802697462	-0.00833703856437179	-0.779470421516593	0.600226676294856	-0.779643296394082	0.599794449800721	-0.0150379176542289	0.00230973388939083
10.6	0.00115098025723111	-0.00792519201142748	-0.675561695189153	0.713411302763953	-0.675834073527674	0.71308179846076	-0.0123569140737558	0.00573503968931644
10.7	0.00217551420302719	-0.00871818962279846	-0.556769267555117	0.808990900610388	-0.557069545627857	0.808682066596604	-0.00945097260487986	0.00737424786959052
10.8	0.00205321527223571	-0.0104102130114532	-0.424769056457643	0.885423267896774	-0.425119395616071	0.885125523929354	-0.00733340937510993	0.00792338726105222
10.9	0.000857080475619008	-0.0112770132951565	-0.282110828336772	0.941102658773637	-0.28250077078475	0.940980084408335	-0.00581792028960456	0.00879083766166282
11	6.6575913339576E-05	-0.0118384157092244	-0.131435544422375	0.972325481022951	-0.131871716699813	0.97223583725036	-0.00340814210631534	0.00947007188950647
11.1	-0.00115829279350232	-0.0122344972949704	0.0196405147778634	0.980111525750291	0.0191532771470776	0.980125136931591	-0.00136436387578039	0.00944655379645298
11.2	-0.00219371282793979	-0.0124299242103188	0.171092758544421	0.965634777392498	0.170636874830527	0.965707644390175	0.00105603923657681	0.00928676873637204
11.3	-0.00328257083577239	-0.0124809885243613	0.318939295733035	0.927513362237752	0.318481434505131	0.92764971352261	0.00360870986176271	0.00859102097407079
11.4	-0.00466963269112036	-0.0120977192751408	0.459157386790659	0.866067462842902	0.458754905581497	0.866180579972417	0.00590402949490825	0.00798458073099586
11.5	-0.00443239645923486	-0.0115300246058044	0.585950156462399	0.784067645881229	0.585632786450098	0.784368333529725	0.00984152327220747	0.00637348514301769
11.6	-0.00605727983002264	-0.0128190300097461	0.700767152935301	0.685131155498771	0.700552037054714	0.685457500344914	0.0108377469447061	0.00217351748327262
11.7	-0.00824363063621674	-0.0122139697004182	0.798941709721525	0.567980069389871	0.798738766436954	0.568285429848267	0.010392065588154	-0.000466982970069115
11.8	-0.0104319047306275	-0.0112118328605249	0.877168699367499	0.43677227509236	0.876987051915026	0.437221360768657	0.00922635148946573	-0.00261380086890514
11.9	-0.0128347410255281	-0.00871443913709278	0.933331364319382	0.295899148075092	0.933225188953504	0.296347000021121	0.00707610136949711	-0.0029698383383467
12	-0.0124584898553809	-0.0046798728748358	0.96905520618961	0.149280261395638	0.969025334906523	0.149643632726707	0.00838685949583616	-0.00164389868405267
12.1	-0.011549773755184	-0.00384056263710123	0.980990345212812	-0.00395154866864925	0.980918726187568	-0.00356779823447096	0.00928782784201861	-0.0047019661848969
12.2	-0.0116246908701739	-0.00280159926321327	0.96810768431496	-0.156018386101841	0.968124504106741	-0.155721006754406	0.00810056012129352	-0.0070282961885011
12.3	-0.0115177968221765	-0.00178425116372639	0.932186105105857	-0.303761291534474	0.932304528281971	-0.303454997362516	0.00647877251160647	-0.00910824150453344
12.4	-0.012239027779904	-0.00104417001780244	0.875113808376737	-0.444383154524325	0.875175550077761	-0.444013738412788	0.00360770997001329	-0.0107004192705709
12.5	-0.0122662234883189	0.00157104361583199	0.795844277211921	-0.576881034985312	0.796184064062709	-0.576489689949716	0.00114568889715469	-0.0099064618186648
12.6	-0.0109717330077852	0.00213339064826348	0.6953200978765	-0.692758638028108	0.695571067673152	-0.692515863031439	-0.000135892003568827	-0.0109058248003329
