# GHZ S RI R 50
0.2	-0.000197764213606416	-8.45851603131473E-05	0.949107070134503	-0.308016952984943	0.948884802287386	-0.307991505564349	-0.000157021458066726	-2.78942513451228E-05
0.3	-0.000284277069600043	-3.6150550316083E-07	0.889096520978151	-0.451677533297129	0.888940332457284	-0.451582145167369	-0.000303152771772138	-0.000179511298981196
0.4	-0.000128573502966029	5.55997788057651E-05	0.807598034594687	-0.583913140714982	0.807609824317553	-0.583938257073872	-0.000290418877629391	-0.000213247989157671
0.5	-0.000226889753017941	4.1894668456007E-05	0.706914899512152	-0.702197582250449	0.706759886552594	-0.70209611183313	-0.000364806409205396	-0.000234276911656126
0.6	-0.000239023605812383	0.000214957416615578	0.588929885175359	-0.803253631295279	0.588810648520078	-0.803091926896907	-0.000416844051422972	-0.000194739162401769
0.7	-0.000166709709234988	0.000475092421265831	0.456830938118821	-0.884553781378142	0.4568121795053	-0.884441298839125	-0.000376478315870492	-0.000227341607276581
0.8	0.000111916290019408	0.000554120711774864	0.313832919959946	-0.944502323138312	0.313801568387862	-0.944312618219555	-0.000425245516224177	-0.000184432436791134
0.9	0.000398457172215263	0.000650710219442704	0.163348502732804	-0.981459887936503	0.163283475625832	-0.981367992064871	-0.000513736018343052	-0.000243844050169841
1	0.000662582281669654	0.000267331530356244	0.00892556799805364	-0.994628535259669	0.00887392929639322	-0.994597072090815	-0.000675331888890962	-0.000371379649076068
1.1	0.00063963202920902	-1.35746977604023E-05	-0.145510585287243	-0.98378653054997	-0.145526325718253	-0.983656121025333	-0.000997097660058286	-0.000186325753635253
1.2	0.000785215037561274	-0.000974477121362671	-0.296551257415946	-0.948993635016131	-0.29647490525845	-0.94896755044524	-0.00070690926682803	0.000281433215654869
1.3	0.00074254679881144	-0.00250362878770498	-0.440189286139097	-0.891216851523813	-0.440166260499941	-0.891210239909515	0.000606704366696666	0.000931418174161796
1.4	0.000587236403758087	-0.00428636047232052	-0.57290328711297	-0.81194923576988	-0.572879119117084	-0.811927609740515	0.00251981708354111	0.000538904778796017
1.5	0.000134632362770421	-0.00505573242100603	-0.692027135671935	-0.712936171166923	-0.69192540812194	-0.712851249016632	0.00411487331336189	-0.000599077402057167
1.6	-0.000172371547801469	-0.00521786858865767	-0.794067023877522	-0.596681731538434	-0.793992985720891	-0.596621733716233	0.00417675395972634	-0.00211467249543491
1.7	-0.00055026664993344	-0.00506121027694924	-0.876525827783869	-0.466618607924547	-0.876690005947378	-0.466102684565819	0.00362150162175296	-0.00317319085304795
1.8	-0.0010733259585732	-0.00489656906864547	-0.938383099446817	-0.324432449984362	-0.938271890379419	-0.324431097532964	0.00264350269242969	-0.00400084112677853
1.9	-0.00165609310166042	-0.0046830531318832	-0.977096174315936	-0.175217576875177	-0.977188953416963	-0.174730217980446	0.00153759077075849	-0.00441467416127877
2	-0.00257647832598935	-0.00429964737646056	-0.992090605274082	-0.0209001831505583	-0.99210252462168	-0.0208543533630462	0.000559161553212349	-0.00444681429888589
2.1	-0.00312127912206808	-0.00355155228863058	-0.983194231864938	0.133265599647959	-0.983232310522956	0.133302678827931	-0.000161307836829916	-0.00440661948578273
2.2	-0.00376503861960791	-0.00300611914310948	-0.950553841583172	0.284138203470691	-0.950478780755948	0.284200959479436	-0.000841034365631953	-0.00432394243753388
2.3	-0.00435549411850807	-0.00230258445518551	-0.894998019002295	0.427561970676711	-0.894615954892892	0.428074850939584	-0.00160309941043347	-0.00428109771751404
2.4	-0.00500320767128238	-0.00165445287922252	-0.816858547029191	0.562215961814829	-0.817125098295806	0.561630520939986	-0.00250008307989451	-0.00411543073746289
2.5	-0.00573465447312716	-0.00070211985594334	-0.720003011058169	0.681966541974658	-0.720216571979284	0.681457003350418	-0.00312268081454574	-0.00389111162052965
2.6	-0.00606659458968165	0.000710396975605972	-0.60573779231294	0.785072195909891	-0.605631757540592	0.784889554958922	-0.00322409337809736	-0.00346177390881221
2.7	-0.00567836030464602	0.00200328280080423	-0.475972501730241	0.869642849316059	-0.476421390585015	0.8692362454817	-0.00322425604889696	-0.00332184793913733
2.8	-0.00475404064279376	0.00290093776545934	-0.336510132761058	0.932362312949648	-0.335842819985009	0.932520913883462	-0.00336068463027801	-0.00322353735266934
2.9	-0.00331982778407966	0.00335778213303578	-0.18723162554338	0.973279492771314	-0.187262867769031	0.973192180277082	-0.00307118210620569	-0.00271152739858139
3	-0.00185890475348407	0.00338502024807989	-0.0330889723946839	0.990620014533456	-0.0337897578929586	0.990461709320267	-0.00251178502667831	-0.00219620655115043
3.1	-0.000274798806158451	0.00308528643856585	0.119602209601931	0.983599990897079	0.120192553120247	0.983581978902902	-0.00167693062231394	-0.00195930831800869
3.2	0.000906526520163467	0.00227407195457171	0.271292372396247	0.952927209862983	0.271237579444996	0.952866950221513	-0.00120701796343816	-0.00190467585931118
3.3	0.00200817158418849	0.00125484260794061	0.416032982755776	0.899179996939908	0.415895873545857	0.899165855871844	-0.000495294050043462	-0.00190604910014922
3.4	0.00255692612043219	-6.2704442116097E-05	0.55054737182745	0.823689132065524	0.550385260164526	0.823807091554103	0.000313166043736644	-0.0023860887217904
3.5	0.00285831407764484	-0.00122636989879478	0.671610562482272	0.728212849051947	0.671531034203506	0.728251643338476	0.000949966724243497	-0.00293093717112623
3.6	0.00280629153712588	-0.00243548547011726	0.775917638666756	0.615642923859014	0.776158167950517	0.615194320615332	0.00126787771555675	-0.00383841728538777
3.7	0.00250779550869816	-0.00369744970946106	0.862352808103626	0.487162339293238	0.862234679968656	0.487305470734743	0.00120168590972733	-0.0045963006834994
3.8	0.00171570258117096	-0.00484879569669092	0.927262894489001	0.347918651823025	0.927319335904409	0.347539585719621	0.000899427956906108	-0.00534567966833086
3.9	0.000796985481047554	-0.00589691143099361	0.97009872474488	0.198573752724585	0.969861056383919	0.199241096471271	-6.87299391327476E-06	-0.00623958502071779
4	-0.000832745616264808	-0.00650629417541238	0.989010910143583	0.0464993715094149	0.988972071064038	0.04660221054183	-0.000772125182209352	-0.00661948236284539
4.1	-0.00227982541658728	-0.00676351538764735	0.984404114909535	-0.107496695049209	0.984219814150077	-0.107369454549754	-0.00144058542919634	-0.0072517830849343
4.2	-0.00410262793006743	-0.00677296080101741	0.955411404033975	-0.259645493283921	0.955447019526169	-0.258992105044506	-0.00249624616344549	-0.00784874125431503
4.3	-0.00589332947648174	-0.00659483905871949	0.903775987848524	-0.40412223850938	0.903640308401865	-0.404011061414644	-0.00379184244171439	-0.00845061681674659
4.4	-0.00793820678391964	-0.00601144647246476	0.830070001144562	-0.539345552176056	0.829905019098524	-0.539212175413661	-0.0054474430000362	-0.00879694237928625
4.5	-0.010067279397837	-0.00499671605903419	0.736485014844577	-0.66165850600861	0.736296414620143	-0.661485318998315	-0.00721141763556684	-0.00866236859226716
4.6	-0.0120135210378025	-0.00310865100612631	0.624290352039789	-0.768433051485104	0.624632554857462	-0.767735663840726	-0.00872077646993642	-0.00836530913515651
4.7	-0.0133341271716112	-0.00104515159979962	0.49782274816976	-0.855689351067493	0.497839407251721	-0.855333673961145	-0.0103586743656584	-0.00815170888470297
4.8	-0.0142181684660551	0.00148987862924733	0.358744565441419	-0.922375658634193	0.358966183478366	-0.92205946922784	-0.0119328905269747	-0.00763253200909953
4.9	-0.0141711469330008	0.00396832017645996	0.211747139076316	-0.966350691723909	0.211527201101238	-0.966358386865801	-0.0131711319703625	-0.00676008994116766
5	-0.0134381644298914	0.00643658589883302	0.0589333846841138	-0.987497881036975	0.0591106713398164	-0.987252687755975	-0.0137976146757789	-0.00534368081108685
5.1	-0.0117095691213224	0.00849298626503515	-0.0948210320389012	-0.984656218054099	-0.0944893670837552	-0.984431133813467	-0.0139834383224885	-0.0040216094030121
5.2	-0.00959668579267334	0.0101853071060212	-0.246553409031092	-0.958037525172952	-0.246061591319915	-0.958010884773909	-0.0141567322204335	-0.00248292863122274
5.3	-0.00724073738330975	0.0111868727710136	-0.392217020033483	-0.908232078329978	-0.391876441461821	-0.908448369983296	-0.0138788015220051	-0.000875612735612673
5.4	-0.00494063230298452	0.0119870527324148	-0.52856468631802	-0.836417586073985	-0.528351990632676	-0.836618412141792	-0.0134060556054221	0.000705348664080621
5.5	-0.00262789526830257	0.0126319557206706	-0.651993307005543	-0.74404395055992	-0.651754445981753	-0.744238750880262	-0.0125235075479826	0.0020614075514847
5.6	7.81796124455405E-05	0.0129939797144411	-0.759352452656219	-0.633839255125005	-0.759162792179623	-0.634011134818384	-0.0118805980777521	0.00271876564693289
5.7	0.00260888196633201	0.0125882801546434	-0.848602321451698	-0.508289482585959	-0.848473025569576	-0.508509312896442	-0.0116664995008383	0.00380148996767494
5.8	0.00491878532858609	0.0118373659719506	-0.91711225868045	-0.370250187964026	-0.917044437284218	-0.370535148225789	-0.0113234244946112	0.00517714034708192
5.9	0.00682236486680808	0.010422844523734	-0.963381526325021	-0.223445970377928	-0.963396004696066	-0.223529587596322	-0.0108804621631595	0.00670748696309387
6	0.00815125316884775	0.00914764485224052	-0.986344189172683	-0.0713826536883719	-0.986224959522479	-0.071440672300765	-0.00989354333423307	0.00865576410042006
6.1	0.00959933074997064	0.0076136328526921	-0.985455500643323	0.0826086802547945	-0.985328883783173	0.0824602425283642	-0.00802433229721752	0.00960050963760726
6.2	0.0105498405123197	0.00558244656270159	-0.960510189372345	0.234658401544905	-0.960496508167239	0.234455649348818	-0.00659233338863961	0.00971172680673074
6.3	0.0107674365047625	0.00306780861899236	-0.912349128672815	0.380850197247734	-0.912344630398662	0.380664945127479	-0.00549798420326365	0.00930383522406701
6.4	0.0102781568206473	0.000466094335475764	-0.842118661469134	0.517738787985623	-0.842087020682593	0.517528243666045	-0.00496147658644949	0.00864718959401834
6.5	0.0090820416085218	-0.00199256718053365	-0.751587517412736	0.642159812947294	-0.751611670415605	0.641955822825883	-0.00464288820703462	0.0081416651117997
6.6	0.00771112754006199	-0.00397306689059782	-0.64264352746609	0.751088460579363	-0.642717444150569	0.750836463081505	-0.00433630031299513	0.00787551976188786
6.7	0.00595855303008845	-0.00565753380058375	-0.518153997312455	0.841581731795262	-0.518256833004934	0.841360729011489	-0.00405061186188491	0.00784355463426528
6.8	0.00414285586236244	-0.00680204461413173	-0.381247960447787	0.911731208860817	-0.38138957005719	0.911560625177103	-0.00361490112386148	0.00801114079524296
6.9	0.00211275040015777	-0.00756865134765476	-0.235127717116224	0.959795263097372	-0.235354252475047	0.959684983636365	-0.00286036521685105	0.0081685961799346
7	0.000335900061749497	-0.00771409083484005	-0.0831739091424534	0.984594471828843	-0.0833836641365436	0.984504817583114	-0.00188617826897606	0.00800325804407063
7.1	-0.00138745020700166	-0.00762332709868761	0.0706535834429593	0.985377545915815	0.0704516637418123	0.985244502005772	-0.00111456584176089	0.00773775919289383
7.2	-0.00288458822737946	-0.00718715908025463	0.222709859313151	0.962353305355107	0.222427931072553	0.962318913368046	-0.000144569409368747	0.00763900780930556
7.3	-0.0043440016678202	-0.00658926454577908	0.369309396635968	0.916038611093169	0.369073519847495	0.916064951787093	0.000880244155628338	0.00730983131618044
7.4	-0.00546638714640255	-0.00571355286537414	0.507026652803622	0.847472624321159	0.506813428405951	0.847523854944225	0.00173710685742995	0.00672073388115549
7.5	-0.00634601686639672	-0.00476346283754221	0.632218547854257	0.758241987140205	0.632049201991725	0.758311698212134	0.00273567497250101	0.00608048937697957
7.6	-0.00665557071740494	-0.00379016608561831	0.742096607878568	0.650944541705753	0.741839308793854	0.651027002813865	0.00366637823562371	0.00474838256764248
7.7	-0.00685800624124897	-0.00276767096030807	0.834003775422246	0.527829684595426	0.83381850535209	0.528046773436435	0.00390559808156436	0.00343307042290117
7.8	-0.00660148408019204	-0.00176026059584505	0.905797397356549	0.391839374167777	0.905694531505503	0.392064676816859	0.00396116797630897	0.00223282983704395
7.9	-0.00638725099080776	-0.000901640007316402	0.955472771009057	0.246517315579284	0.955334861727679	0.24669691823658	0.00364382914966153	0.00140906133172386
8	-0.00605390158241901	0.000189959432179503	0.981855779759538	0.0953668466247172	0.981832765508068	0.0956294193837911	0.0032880073960882	0.00105965379144075
8.1	-0.00532690496809148	0.00136888600945028	0.984851089891492	-0.0582139736604227	0.984879999781203	-0.0579585069336008	0.00315305148554234	0.000329874503429002
8.2	-0.00423196557082578	0.00224652102814772	0.963657071535667	-0.210410843210747	0.963705379587417	-0.210093906551064	0.00231298103057869	-0.000354441474152597
8.3	-0.00310716070029796	0.00291271944733499	0.919133564537867	-0.357317479808568	0.919184862481418	-0.357030468184695	0.00127374499029343	-0.000580909686723506
8.4	-0.00175735549365683	0.00313320716968347	0.852468683597955	-0.495455811303924	0.852566369117527	-0.495253908984211	0.000163719651055641	-0.000495881673292379
8.5	-0.000907647654704042	0.0031801115793097	0.765369767261426	-0.621670434849332	0.765421077614008	-0.621519731654939	-0.000744243885171908	0.000340487835727785
8.6	0.000354467230079185	0.00336769970070319	0.65925716145362	-0.732889131814305	0.659425531450232	-0.732652037332097	-0.000645773436688143	0.0011033208668329
8.7	0.001711187049748	0.00330501060860275	0.537377840292537	-0.8260653207021	0.537636870312846	-0.825849867949222	-0.000516229641260945	0.00164745660623516
8.8	0.00343195072750932	0.00286640308421147	0.402795024857101	-0.899249752148988	0.40298018197041	-0.899110647992215	-0.000266024923678542	0.00208692095631034
8.9	0.00514754917649513	0.00179543241569168	0.258470677093578	-0.950875115688178	0.258649632574735	-0.950705012960656	0.000423022331769067	0.00261943701100467
9	0.00671205858112954	1.12341261548433E-05	0.107520140229476	-0.979274190934288	0.107828324040484	-0.979227540777663	0.00167799535021334	0.00309689748045631
9.1	0.00790751700840588	-0.00192249423873545	-0.0455619832588977	-0.983866122975941	-0.045252991108099	-0.983825029385423	0.00360066469894218	0.00303926556953321
9.2	0.00881720995655674	-0.00409685049373704	-0.197706738620583	-0.964782546122327	-0.197359308951948	-0.964760101233887	0.00586117550429956	0.00234448392135234
9.3	0.00917486478467937	-0.00619282324070822	-0.345017178074186	-0.922344537877924	-0.344665394221235	-0.92231884567473	0.00826896033064258	0.000803753083169532
9.4	0.00899378877006631	-0.00835970945549305	-0.483929496085054	-0.857513373166627	-0.48360640019277	-0.857604076607892	0.0100868153141648	-0.0017704724906004
9.5	0.00805464895531985	-0.00956167199929403	-0.610823126400091	-0.771690123005888	-0.610586307542808	-0.771740272525471	0.0108636096481452	-0.00491544373071686
9.6	0.0074483736739836	-0.0105644279082892	-0.72300643911693	-0.667564908004382	-0.722694916706198	-0.667703334062737	0.010005483424984	-0.00846751232684467
9.7	0.00664616632629944	-0.0111264471740342	-0.817697224744774	-0.547239080125566	-0.8174096951629	-0.547471722310216	0.00753996285038649	-0.0112422696697068
9.8	0.00592362141397827	-0.0116563085053118	-0.892548350785989	-0.41369255537455	-0.892295072845007	-0.413861250955173	0.00428133969024017	-0.0129636913744327
9.9	0.00494521071362129	-0.0119529612174987	-0.945689312130683	-0.270162389896655	-0.945436981107019	-0.270370867895711	0.000591085887582478	-0.0134475071301767
10	0.00373104007196416	-0.0118108710908279	-0.975940783423332	-0.12039868008346	-0.975786860328836	-0.120760625037601	-0.00268881683631941	-0.0125394720744551
10.1	0.00300152514608127	-0.011288113627192	-0.982719661017614	0.0324947687731499	-0.982655777732788	0.0320635522472835	-0.00559940826356895	-0.0116150357156402
10.2	0.00257326843587685	-0.0110251223630218	-0.965685181257742	0.184530622837893	-0.965562995539182	0.184099809391825	-0.00872689475646654	-0.00983104536182109
10.3	0.00207425297880161	-0.0108315894355027	-0.925219801489966	0.332013265973732	-0.925236672226535	0.331472139511356	-0.0114782133980099	-0.00730083373860568
10.4	0.00149191933819125	-0.0111162285359405	-0.862477651488665	0.471203031071317	-0.862613681844087	0.470691948280146	-0.0135592243223218	-0.00422141728476832
10.5	0.00047709815970228	-0.0110413969353698	-0.779138863197677	0.599343840617571	-0.779311378879529	0.598911878588139	-0.0143287667141804	-0.000549866456061015
10.6	-0.00018359158224049	-0.0107929146578304	-0.676505889018384	0.712871049312284	-0.676777984148831	0.712541165755088	-0.0136195024889208	0.00275646229353283
10.7	-0.00061605959411939	-0.0104185645059411	-0.55768511654762	0.809020166731056	-0.557985328731582	0.808710936220132	-0.0120095381567427	0.0054996455055009
10.8	-0.000904778344727365	-0.0104939115553176	-0.4254601524634	0.885546220002612	-0.425810465014768	0.885248148451526	-0.00995670939389556	0.00753443045450837
10.9	-0.00147317861979381	-0.0104284277732466	-0.28309016499185	0.940819312414677	-0.283479984131681	0.940696332184723	-0.00781220354761593	0.00913486743527249
11	-0.00191613301677747	-0.0104833566325128	-0.133474298972042	0.973310060700311	-0.133910853863332	0.973219463297148	-0.00508004198243944	0.0102230919461053
11.1	-0.00229141914986025	-0.0104185077994166	0.0190146016215315	0.981857880995435	0.0185264932274774	0.981871187823654	-0.00223191805031759	0.0105465506830187
11.2	-0.00262051853991821	-0.0106777400341008	0.170929907618481	0.96702927649595	0.17047336880647	0.967102055782898	0.000790291001571852	0.0102465994262029
11.3	-0.00309420391784836	-0.0109595067738351	0.318758338090739	0.928880641375098	0.318299815166718	0.929016876803677	0.00386711583765704	0.00932150318755582
11.4	-0.00398853858309378	-0.0113954589373229	0.459086042242314	0.868173842247385	0.458682689553734	0.868286739272875	0.00659561441426896	0.00797528326855178
11.5	-0.00507944882945512	-0.0111126824431873	0.587909130809914	0.786104371452831	0.587590959063703	0.786406033979563	0.0092757767629555	0.0060590631730807
11.6	-0.00603240644234955	-0.0109999622486459	0.702505301117567	0.685609179118417	0.702290129889033	0.685936240781251	0.0108513194850355	0.00309314056118261
11.7	-0.00706197971111904	-0.0105034361803514	0.800371369420075	0.568375251070698	0.800168295233098	0.568681150629434	0.0113457919217298	0.000355063212670557
11.8	-0.00824383015713129	-0.0100636067979494	0.8788875951992	0.437145051744452	0.878705829965998	0.437594998842142	0.0110225239771587	-0.00219332344732882
11.9	-0.00956483936610448	-0.00919417035585518	0.935844048521708	0.295483448348114	0.935738155584887	0.295932463558976	0.00987770266540171	-0.00388316515603755
12	-0.0113146442018144	-0.00782899682621909	0.970259291462349	0.147178617273215	0.970230231325792	0.147542379911491	0.00935064530708886	-0.00499619365983542
12.1	-0.0120884190319659	-0.00584225033850838	0.981416031688291	-0.00516631288664173	0.98134485572885	-0.00478230545955251	0.00883943719656335	-0.00693157752320823
12.2	-0.0126404537185348	-0.00419958114812312	0.968641881539045	-0.157342018229253	0.96865908450177	-0.157044436033488	0.00731373727931241	-0.0087845990477561
12.3	-0.0129082978470958	-0.002462861223328	0.932316743595868	-0.305526012787112	0.932435759352838	-0.305219706774191	0.00536101228717424	-0.0102773633789224
12.4	-0.0131474852484977	-0.00103456886303576	0.873958298613307	-0.446240295563653	0.87402084857974	-0.445871087823608	0.00292489637996743	-0.011260963945925
12.5	-0.0133116774348715	0.00067765989409845	0.794346650081518	-0.576638224906476	0.794686240167069	-0.576247655259473	0.000384161349334383	-0.0112870488974076
