# GHZ S RI R 50
0.2	-4.34536170006994E-05	-0.000395980962608818	0.950229697114457	-0.307727341939409	0.950007195465251	-0.30770200811848	-6.25047316982704E-05	-0.000272020048708096
0.3	-0.000309239274358777	-0.000388710527320336	0.89054479146045	-0.451546104156546	0.89038833608385	-0.451450719302904	-0.000403761184979402	-0.00042212617492499
0.4	-0.000425357331990767	-0.000265304752969674	0.80939381321877	-0.584161153465469	0.809405643328687	-0.584186300093723	-0.000639567472459049	-0.00031216053090296
0.5	-0.000427940043590954	0.00019829880396678	0.708664091698065	-0.703207600628762	0.708508722372814	-0.703106011644315	-0.000602212353512994	0.000156303842851507
0.6	-5.02320758076877E-05	4.58432587757246E-05	0.590349070403961	-0.804445091114904	0.590229546822028	-0.804283147164878	-0.000332466080064008	-5.65078121032822E-05
0.7	-0.000153202246830075	4.84956631843771E-05	0.458201755291811	-0.88608304086843	0.45818290089245	-0.885970343472469	-0.000458108875723653	-0.000195090814774744
0.8	-9.90464030324136E-05	-1.92300143441133E-05	0.314937009337765	-0.946504884423021	0.314905507579249	-0.946314764039704	-0.000630408168544129	-0.000147297372547281
0.9	-0.000386468649575208	-1.24318268689568E-05	0.163852173125554	-0.983858417175011	0.163786976457744	-0.983766301881871	-0.00104874179470506	-0.000194672442561092
1	-0.000661183391901753	0.000827004184715525	0.00879013611236225	-0.99674486093386	0.00873839248692086	-0.996713322855946	-0.00139573654776362	0.000664660550287157
1.1	0.000550553292067568	0.000823413475413049	-0.145652420903015	-0.986049283699074	-0.145668222120815	-0.98591858095485	-0.000572701225342447	0.000677490309262615
1.2	0.000983334058505248	-0.000514227432795162	-0.297300354352793	-0.951455479390388	-0.297223805107971	-0.951429325828701	-0.000283192274596422	0.000515740801190001
1.3	0.00125997671733124	-0.0024197864859931	-0.441601320624372	-0.893498092135079	-0.441578231428483	-0.893491468674866	0.000897116017892838	0.000757537448070019
1.4	0.00121511760486839	-0.00465905779811233	-0.574738479987016	-0.813736985023862	-0.574714240532255	-0.813715315568632	0.00253092454469537	0.000218045773185888
1.5	0.00155156376427874	-0.00615285344669652	-0.693806976415303	-0.714686719592861	-0.69370498839064	-0.714601590032901	0.00459302731388521	-0.00116007644255338
1.6	-6.29851988761176E-06	-0.00766489023853234	-0.796793516641295	-0.598351084171362	-0.796719222930128	-0.598290916700953	0.00356814090524786	-0.00316136463283743
1.7	-0.00143419155872197	-0.0069767976153543	-0.879755554523257	-0.467451487651166	-0.879919862198245	-0.466933750320451	0.00259032467136049	-0.00337684183306882
1.8	-0.00243953074056419	-0.00613301350065274	-0.941708443922848	-0.324489248378085	-0.941596879355842	-0.324488007307751	0.00167027271562723	-0.00361276595674609
1.9	-0.00319274886710997	-0.00473629827484161	-0.980366423859083	-0.174785197720528	-0.980459004350355	-0.174296202243476	0.000757292142603883	-0.00324878567259213
2	-0.00219873554272436	-0.00365058849239569	-0.995965623352527	-0.019827771457592	-0.995977535698038	-0.0197817499138185	0.00141709301937281	-0.00308724168452483
2.1	-0.00274931052100038	-0.00466722145970313	-0.986628275155673	0.135883876620399	-0.98666641818769	0.135921178013946	0.000381939013793227	-0.00451419353633275
2.2	-0.00428618824936532	-0.00418670405335654	-0.953140621140891	0.287413802062476	-0.953065150161481	0.287476592805477	-0.000919059752776061	-0.00429161142172307
2.3	-0.00544936795199143	-0.00312921832447986	-0.896910092403294	0.43128659801039	-0.89652543365416	0.431800223508895	-0.00187120791814094	-0.00402892995784919
2.4	-0.00664814830382953	-0.00153074724497318	-0.81820253211968	0.566504722359536	-0.818471670436263	0.565917937139452	-0.00299659775709898	-0.00344216283504372
2.5	-0.00602138287528521	0.00110843846389837	-0.719919625209341	0.687171325044767	-0.720135914882779	0.68666080466148	-0.00260812855371452	-0.00249126847542254
2.6	-0.0048365175390366	0.00128072004596464	-0.604133275514527	0.789553951021759	-0.604027704379216	0.789370408457641	-0.00221797692402132	-0.0034095060257505
2.7	-0.00451142633787309	0.00157149562660796	-0.473669326021662	0.873637590405638	-0.474120916118464	0.873231786130968	-0.00286001581740746	-0.00379381147074833
2.8	-0.00401979154137094	0.00190187152726309	-0.333384346511036	0.935979913304084	-0.332714790389899	0.936136082770385	-0.0035985679488102	-0.0037010954733528
2.9	-0.00296442846670662	0.0022634200645775	-0.182983288856423	0.976285457905169	-0.18301501636445	0.97619810548594	-0.0036361861415258	-0.00285065582395347
3	-0.00158096816778357	0.00190933584284122	-0.0280751171148485	0.991793450296275	-0.0287774200554839	0.991638555164284	-0.00310303218711029	-0.00229127159907997
3.1	-0.000879501977504544	0.0015694407965155	0.124034962454538	0.983931689857364	0.124625741683475	0.983911064294833	-0.00277492269243236	-0.00170354699243216
3.2	2.93657710888144E-05	0.00128539036107318	0.275920539204616	0.952568663178529	0.275865418545972	0.95250859903287	-0.00214532108050163	-0.00106058671856383
3.3	0.00112548548402923	0.000739477099921053	0.420694333745824	0.897704101097398	0.420557069801076	0.897690622421924	-0.00117239860324678	-0.00072916673140571
3.4	0.00207499563750989	4.21218690205497E-05	0.554643721924178	0.820844425208859	0.554482218476863	0.820963190046729	7.93260590769173E-05	-0.00086320667966491
3.5	0.00359655476679596	-0.00165883277852741	0.674275360239127	0.725087458804666	0.674196031055311	0.725126561234027	0.00154973276971711	-0.00196105225721653
3.6	0.0027829899087407	-0.00380911494409244	0.778676247669738	0.612384662436296	0.778914877336982	0.611934961470729	0.00117552825086966	-0.00332551406241445
3.7	0.00195351697934398	-0.00480830919778038	0.864487528949029	0.48300403613388	0.864370098024994	0.483147697641149	0.000989536720379343	-0.00372923811254806
3.8	0.000893671119572811	-0.00557395756166282	0.928296545783262	0.343294422280197	0.928351153692781	0.342915340097789	0.000770100169052355	-0.00431119918944656
3.9	-5.00568992983668E-05	-0.00573089663898284	0.970004392653215	0.194178522255188	0.969769847222978	0.194846238668209	-2.99324705700493E-06	-0.0048624853187157
4	0.000128220661784125	-0.00590120323438129	0.98898689462436	0.0422638385314309	0.988948503618119	0.0423668203324088	0.00040517174433422	-0.00541842197164557
4.1	-0.00116789263056459	-0.00786150294169236	0.9831268324379	-0.112607505229778	0.982943335373554	-0.11247938521419	-0.000805285573902455	-0.00733753527980287
4.2	-0.00368818949621247	-0.00826722510954094	0.952675205184389	-0.264251846955565	0.952714176250871	-0.263599589743966	-0.00259690784307498	-0.0078817697198445
4.3	-0.00608513967785112	-0.00811518789265624	0.900161158447215	-0.407898646217093	0.900026272841682	-0.407786991898679	-0.0043378802434851	-0.00827454331674201
4.4	-0.00891662855047262	-0.00687968820273473	0.826071908731785	-0.542505768836198	0.825907849023504	-0.542371807083392	-0.00646497446156759	-0.00807020239283083
4.5	-0.0101151154952389	-0.00424705609357974	0.731159149076356	-0.664778558757837	0.730971934977205	-0.664604579863127	-0.00750909211382475	-0.00696176763885347
4.6	-0.0107326737789763	-0.00323512846836705	0.617863189990949	-0.769412863709138	0.618208203864385	-0.768719732769401	-0.00855144277158817	-0.00739996548185413
4.7	-0.0119105590826647	-0.00190674981041632	0.491628394106611	-0.855085775541246	0.491646806609321	-0.854731490019194	-0.0104500466030023	-0.00730976124723807
4.8	-0.012846537999211	7.01398102175658E-06	0.35283931888418	-0.920597118276563	0.353061638773364	-0.920283230380034	-0.012138909132136	-0.0067587015135119
4.9	-0.0130760932031098	0.0020937443235656	0.20586746969158	-0.963435052828962	0.205648404869804	-0.963441577892548	-0.0134275837066102	-0.0057200189276766
5	-0.0123217907274838	0.00396697776214761	0.0536633278645901	-0.982173209250979	0.0538408309765799	-0.981930297129352	-0.0138028442336456	-0.00438028345183727
5.1	-0.0118102385854889	0.00539413309506743	-0.0978103676938163	-0.97860967773496	-0.0974798156894752	-0.978387089763934	-0.0144328857501782	-0.00304751202949224
5.2	-0.0107817909730973	0.00764673161983244	-0.24834285720753	-0.951804274116509	-0.247853730396436	-0.951779418187614	-0.0145696329669052	-0.00105244629919061
5.3	-0.00888866979464382	0.00977661125742422	-0.392787966494928	-0.9015898531787	-0.392450099603019	-0.90180594814315	-0.0139917132235439	0.000880630501744915
5.4	-0.00581125706713875	0.012080374947318	-0.52738736785278	-0.829326260671628	-0.527176662926258	-0.829526342745957	-0.0128234324489463	0.0027888825019916
5.5	-0.00101323376086692	0.0116134562336392	-0.648349127201298	-0.738156742473283	-0.648112139451557	-0.738350473059481	-0.0107483904908328	0.00271771819943569
5.6	7.97959643074943E-05	0.0101453076912062	-0.755517621196033	-0.629322738042094	-0.755329255675595	-0.629493796860069	-0.0118682682984322	0.00259397697406528
5.7	0.00135324093046475	0.0102711138201865	-0.844005062395898	-0.504291056877392	-0.843876787886463	-0.504509693677519	-0.0122092645882274	0.00440296124397161
5.8	0.00298519752842753	0.0105119620376693	-0.91150764940121	-0.367246481733038	-0.911440459473684	-0.367529667732358	-0.0119583006237691	0.00628083704223396
5.9	0.0049427512683708	0.0111432113082158	-0.957055220007575	-0.222221357883364	-0.95706958413068	-0.222304434086423	-0.0113733280073993	0.0086581723111026
6	0.00984443558770602	0.0108336359431278	-0.981122285119101	-0.0716775153032855	-0.981003641510486	-0.0717351486337473	-0.00848704519851261	0.0104591172652197
6.1	0.0120993748653727	0.00643726584419014	-0.979959913618396	0.0822608659667429	-0.979834018526854	0.0821132403205028	-0.00742584937470719	0.00971437270000214
6.2	0.012343217672333	0.00325689257288667	-0.954774700094683	0.2328813262959	-0.954761026897604	0.232679808217865	-0.00686949833948019	0.0100582131204918
6.3	0.0116688957872548	0.000152575207465224	-0.907242344439135	0.377611897403499	-0.907237681873372	0.377427766776492	-0.00607030246436774	0.0100569573347149
6.4	0.0102377986954347	-0.00223742558656154	-0.838337242509034	0.51370570899977	-0.838305462439253	0.513496347207686	-0.00553632003135301	0.00991953224200841
6.5	0.00880769163571872	-0.00440330267894465	-0.747912749627531	0.638394329093518	-0.747936676437203	0.638191408600676	-0.00475194719370171	0.00954181410421204
6.6	0.00683196969214122	-0.00598343910655488	-0.639377353701374	0.745486231811411	-0.639450497455247	0.74523577404951	-0.00436891615321362	0.00927920347856344
6.7	0.00516923927600063	-0.00692378310017849	-0.516642875525176	0.835225134391548	-0.516744608034911	0.83500530632378	-0.00379018244032365	0.00921524759813167
6.8	0.00382188474250919	-0.00773186441693483	-0.381239203008617	0.905438669111065	-0.381379562587012	0.905268741419621	-0.00324134635287665	0.0091218435061956
6.9	0.00242308585420967	-0.00850876174840566	-0.235908847569422	0.953800593904056	-0.236133846896867	0.953690442588796	-0.00250991065948933	0.00909938137884261
7	0.000953236946604744	-0.00950725649660766	-0.0851346720571276	0.977478509535919	-0.0853427252238445	0.977388941820317	-0.00182688667851258	0.00846619307685322
7.1	-0.0013816183557211	-0.0096039694099127	0.0659939677708382	0.979276635627256	0.0657939271721744	0.979143595368043	-0.00169161162002702	0.0085267918631141
7.2	-0.00302334435027533	-0.00903929980549957	0.21701387234265	0.957810529204549	0.216733731410606	0.957775044480414	-0.00080314282793844	0.00884959596999376
7.3	-0.00452812750368347	-0.00837591418949699	0.362944198554417	0.912679525514037	0.362709510240678	0.912704609723026	0.000257066598546888	0.00887166418210253
7.4	-0.00554247062987639	-0.0073503815727683	0.49969293227917	0.845008664704326	0.499480716484135	0.845058504658497	0.00135895858456064	0.00867132544334215
7.5	-0.00581708833894221	-0.00697227998070371	0.623355643160248	0.758464688403754	0.623186750813146	0.758532818645634	0.00293529872731908	0.00784623321486337
7.6	-0.00714008972111457	-0.00692219044328614	0.734609424097649	0.653693014049321	0.734352534675639	0.653773330896898	0.00349893270233463	0.00632334184168753
7.7	-0.00845378791456187	-0.00547406611835094	0.827434015979231	0.531738973316432	0.827247896207905	0.531954021402097	0.00373096063732226	0.00536611771269584
7.8	-0.00890330971644025	-0.00343435658312187	0.899972116919711	0.397079273728944	0.899867965605756	0.397303088450578	0.00395087683894317	0.00437692885845526
7.9	-0.00862238541773064	-0.000595223868158869	0.95076808475153	0.253601621985492	0.95062910232601	0.253779594649993	0.0040269738986801	0.00392221980192025
8	-0.00471166351242892	0.00161818651211453	0.98039231626077	0.10342532321465	0.98036714526589	0.103687525206334	0.00531498351560113	0.0031599636629628
8.1	-0.00291532375242063	2.26080521024393E-05	0.984723434745234	-0.0512059455395161	0.984750519210262	-0.0509504141079705	0.00433035867522355	0.000407664054624678
8.2	-0.00246542310785252	-0.000447232047481835	0.964646529202037	-0.203301928191013	0.964692510854407	-0.202984817701446	0.00226616396769054	-0.000323513908422868
8.3	-0.00232359160748348	-0.000550204872401673	0.921836185049989	-0.350322049569316	0.921885299540207	-0.350034652421796	0.000384993285171627	-0.00023760324036856
8.4	-0.00256008725344244	7.20508647536767E-05	0.857283431121286	-0.489550555259921	0.857379694178861	-0.48934766264029	-0.0015700451114059	0.000746580208484029
8.5	-0.000582001233361574	0.00217789896786439	0.770339476562333	-0.618147190745163	0.770389975189314	-0.617995932111365	-0.00138589121838835	0.00304456364405572
8.6	0.00188431431662312	0.000332590771733709	0.664369286526616	-0.729259874125457	0.664536281722923	-0.72902154260649	-0.000973267811451794	0.0027721002977857
8.7	0.00213611796477765	-0.000932437157766223	0.543698354568194	-0.823473306850316	0.543956252082899	-0.82325581149159	-0.00133733820198865	0.0036456741731842
8.8	0.00239369897007783	-0.00176044128136353	0.409663979338717	-0.898399456848196	0.409848584214352	-0.898258822536211	-0.000985097536549048	0.00461115625238646
8.9	0.00231417567614507	-0.00222172068483193	0.264726828895376	-0.951774243861467	0.264905238526375	-0.951602654503283	-2.37549682197736E-05	0.00559147459765579
9	0.00340684665127278	-0.00220997060450244	0.113396812469774	-0.979912805903256	0.113705122190334	-0.979864289723711	0.00210350007386605	0.00639962471229774
9.1	0.00450464005306255	-0.003104072332792	-0.0386351032488314	-0.986422463625275	-0.0383257041348122	-0.986379068967179	0.00436960664600527	0.00599463414552945
9.2	0.00608109852397139	-0.00373382388326791	-0.191784421108019	-0.969334372664036	-0.191435990813967	-0.969309484135936	0.0071353179169261	0.00519630073192382
9.3	0.0079872453484326	-0.00502204620555213	-0.340542402318188	-0.927934889436023	-0.340189468538455	-0.927906904672203	0.00996297003388466	0.00313036983204891
9.4	0.00981295482141397	-0.0067079865929275	-0.480418905596752	-0.863257557556794	-0.480094192722056	-0.863346633260742	0.0119920463941068	0.000238200325274499
9.5	0.0119963753357575	-0.0107013706364104	-0.607352587597027	-0.779256352081966	-0.60711448160584	-0.779304909171405	0.0132761135606741	-0.00474815677316887
9.6	0.0091312436752801	-0.0147112357786018	-0.72258888324361	-0.676314092723696	-0.722274634776481	-0.67645118580662	0.00997806258355128	-0.00872727481987299
9.7	0.00648622637062522	-0.0152317762013813	-0.81937421496207	-0.555438373303228	-0.819083554713503	-0.55567070457654	0.00687769985031122	-0.0104262164697653
9.8	0.00446005338808431	-0.0150832559752899	-0.895695597890004	-0.421340776950846	-0.895439793735906	-0.421509067972944	0.00351678289124485	-0.0115116929889827
9.9	0.00279942077868213	-0.0132288545461466	-0.950316825642192	-0.277786597760881	-0.950061531331904	-0.277994908162774	-6.92497113292857E-05	-0.0110940308674276
10	0.00498350489968162	-0.0122156373289843	-0.983996832196134	-0.126886252104564	-0.983839526398219	-0.127250578817504	-0.00142435038261446	-0.0105723158428626
10.1	0.00392099512834942	-0.0145166319544505	-0.99148164271974	0.0292390633306087	-0.991415643354976	0.0288042837773193	-0.00563379979856595	-0.0111116098420486
10.2	0.00193829824342735	-0.014443895052716	-0.974594005111915	0.183016126174918	-0.974469382591763	0.182581995559318	-0.00957023178282436	-0.00871288996145061
10.3	0.000267106551272341	-0.0135599538445667	-0.934552201249937	0.332267453257915	-0.934567620689819	0.331721394009438	-0.0124643771803477	-0.00567198854732891
10.4	-0.00113514825493493	-0.0120432326722188	-0.872322283778508	0.474030596096819	-0.872458533449142	0.473514005775382	-0.0146036047993888	-0.00198687808850883
10.5	-0.000262051184386384	-0.00966539046041607	-0.786885054647409	0.605729074261559	-0.787059479690715	0.605292762733519	-0.0142991439054372	0.00214402288378952
10.6	0.0012501849072782	-0.0100915689043927	-0.682022053160042	0.719480055282548	-0.6822967108475	0.719147439769215	-0.013326615030988	0.00454320825357608
10.7	0.00185539847187042	-0.0109334909809621	-0.562090489874551	0.816496709559061	-0.562393540611075	0.816184943271631	-0.0120229394047099	0.00692789956029793
10.8	0.00169033629258852	-0.012292676391816	-0.428202867754707	0.894121324931601	-0.428556736488778	0.893820990627515	-0.010420797122591	0.00893125347845249
10.9	0.000926683133809836	-0.0130603206907954	-0.283089671636555	0.950002486958312	-0.283483311047603	0.949879456084878	-0.00847300376111457	0.0107809262005692
11	0.000412863513513545	-0.0141974687028996	-0.13147676811976	0.980405191867842	-0.131916597423204	0.980315279047525	-0.00580572663317919	0.0118351560688413
11.1	-0.00107614064585116	-0.0148184230004044	0.0210795720152562	0.989070238491151	0.0205878857542852	0.98908460036937	-0.00341248730412292	0.0126640542930775
11.2	-0.00227451981048488	-0.0151076653326626	0.174811586060365	0.974181097970904	0.174351650090783	0.974255647579682	-0.000215778876652942	0.0129538406012461
11.3	-0.00345433214366248	-0.0150063779012478	0.324446553218914	0.934854797412156	0.323985007294241	0.934993679520298	0.00320381230230669	0.0124980810530882
11.4	-0.00434902741473797	-0.0143106657758017	0.465509270806657	0.872038346813295	0.465103726879068	0.872153571903046	0.00659226235058793	0.0116451418111185
11.5	-0.00370074800369887	-0.0151393613061246	0.593686445392456	0.789938860553828	0.593366872880798	0.790243285275527	0.0103799938028365	0.00860568726890699
11.6	-0.00670722882585135	-0.0166369668787783	0.710554998244214	0.68863860120291	0.710339251340845	0.688969044461939	0.010754457205856	0.00529799767585441
11.7	-0.0095063228920314	-0.0153603629308259	0.809115343800232	0.569023277878703	0.808912130160407	0.569332453959251	0.0112462939721642	0.00317070077762427
11.8	-0.0119102140195013	-0.0133517484118777	0.887258402655386	0.435790171545169	0.887077626132013	0.436244192525336	0.0111698346180322	0.000879438756376687
11.9	-0.0133485695163778	-0.00922567009516919	0.943587910694862	0.29321934912975	0.943483349136443	0.293671915670066	0.0104521260835319	-0.000328152695349743
12	-0.0104178835530484	-0.00610829334827164	0.979379170321067	0.143172665502619	0.979351836077565	0.143539705481677	0.0121705291550985	-0.00224039039519374
12.1	-0.00984287236799153	-0.00685731238616416	0.988776803398884	-0.0124837079951987	0.988707938743443	-0.0120962776053004	0.010486708529346	-0.00630247816096582
12.2	-0.0103577735454107	-0.00657693325225442	0.973781159496989	-0.165846291673371	0.973800770909485	-0.165546890431528	0.00790412444350563	-0.00846232568686354
12.3	-0.0111399479274278	-0.00598232119792161	0.935733024305284	-0.314708661777542	0.935855172950813	-0.314401378928377	0.00495997623198268	-0.010089873050344
12.4	-0.0127037702757657	-0.00452088019238131	0.876088135494069	-0.456526612022925	0.876154187005691	-0.456155452845715	0.00134425638196793	-0.0104333687564734
12.5	-0.0117420846451884	-0.00151517807675033	0.79271743099615	-0.588609321679513	0.79306323348654	-0.588220161098741	-0.000711245170129519	-0.00932631226974572
12.6	-0.0107508293535696	-0.00185952945899936	0.690350838915648	-0.702622967341397	0.690605284771717	-0.702382024574534	-0.0030504909528553	-0.00977560428513033
