# GHZ S RI R 50
0.2	-0.000465444179195796	-6.3759002069367E-05	0.948577535676609	-0.308058798304025	0.948355382330101	-0.308033318123046	-0.000413634227622047	-1.96548497394714E-05
0.3	-0.000511310253284262	6.83102087571279E-05	0.888491453849333	-0.451638208683296	0.888335375467366	-0.451542836426337	-0.000516238334923541	-0.000137836665495116
0.4	-0.00026909771037548	0.000142167676226779	0.806904200658295	-0.583752937826281	0.806915975648348	-0.583778040923743	-0.000421320215560513	-0.00016769862933918
0.5	-0.000302485917929726	-4.30279989325056E-05	0.706187838734145	-0.701752098186496	0.706032974862987	-0.701650681730098	-0.00043376294531349	-0.000362297463274379
0.6	-0.000514810308762253	0.000171246820079963	0.588406331030289	-0.802691862835273	0.588287200296436	-0.802530271468425	-0.000673341899162057	-0.000295065066236532
0.7	-0.000384292510427432	0.000553048579555535	0.4563516690329	-0.883917583937557	0.456332940348601	-0.883805187591874	-0.00057651104944208	-0.00023373950770163
0.8	-1.82722308390218E-05	0.000663519415698857	0.313441346332647	-0.943715544152277	0.313410045717903	-0.943526001193392	-0.000556253938545706	-0.000187283192136253
0.9	0.000412274143403795	0.000798307206854205	0.16315158154079	-0.980519356214339	0.163086620870109	-0.980427546417648	-0.000545401827389736	-0.000227285945134456
1	0.000939745812907746	8.81435771224343E-05	0.00902313372232489	-0.993754384891191	0.0089715370312971	-0.993722954821877	-0.000507968796928545	-0.000638746150842259
1.1	0.000444778514570021	-0.000332035255355026	-0.145431451129373	-0.98293451297047	-0.145447171950145	-0.982804214760704	-0.00128352864114063	-0.000510231246326714
1.2	0.000563133673823685	-0.000998818401931227	-0.29627547891869	-0.94803041760403	-0.296199203045912	-0.948004361164139	-0.000967808216535349	0.00029826245906957
1.3	0.00055936465053791	-0.00246818647563112	-0.439645473418766	-0.890292630806374	-0.439622473072495	-0.890286024495776	0.00046606515935208	0.00101332091678514
1.4	0.000258583369698318	-0.00423653822980388	-0.572152647256583	-0.811204227127862	-0.572128508588411	-0.811182619298292	0.00230415905054084	0.000578081925857517
1.5	-0.000664025498163708	-0.00483057364998116	-0.691304486260426	-0.712275514347208	-0.691202863766508	-0.712190669765458	0.00348642449879403	-0.000475401779286542
1.6	-0.000614510037131145	-0.00432839932408498	-0.792996295988934	-0.595977445027755	-0.792922358015074	-0.59591751850037	0.003877754120915	-0.00148957400909829
1.7	-0.000509215501476377	-0.00436800741638189	-0.875186171753945	-0.466247702310165	-0.87535028254796	-0.465732533867927	0.00368862321659396	-0.00280037757422621
1.8	-0.000848072435248421	-0.00450157253750147	-0.936970726840476	-0.324418987020453	-0.936859668379379	-0.324417586133523	0.00279234276779504	-0.00390721377382732
1.9	-0.00134482382319688	-0.0046984794615727	-0.975722801994969	-0.175471873121904	-0.975815700834983	-0.174985201919651	0.00170565613629921	-0.0046561163812004
2	-0.00291654997595492	-0.00470968397878573	-0.990533065343922	-0.0213852903646691	-0.990544990011963	-0.0213395382616735	0.000125604786886733	-0.00498814936585227
2.1	-0.00357627768665762	-0.00323101712264055	-0.981780476053163	0.132099914923702	-0.981818531009891	0.132136898840893	-0.000651847441424409	-0.00426926469341645
2.2	-0.00380544547284722	-0.00263260688417688	-0.949571746983842	0.282671637695138	-0.949496860216563	0.282734392639377	-0.000965511163256533	-0.00417051735434811
2.3	-0.0041638578053325	-0.00208116124989002	-0.894369099157191	0.42594602852038	-0.893988135722798	0.426458712386804	-0.00156508148073073	-0.00425513586137713
2.4	-0.00458122816707585	-0.00173391488897978	-0.816509870639991	0.56045424810302	-0.816775336167408	0.559869229534985	-0.0022943281997954	-0.00429147231066128
2.5	-0.0056697355459331	-0.00146647881953741	-0.720188957660503	0.679867443048907	-0.72040138805243	0.679358221002391	-0.00320824346676718	-0.00457125576536163
2.6	-0.00662080271637992	0.00034648039952983	-0.606628428941852	0.783312173506573	-0.606522157076944	0.783129879356211	-0.00373892775581122	-0.00372321666816642
2.7	-0.00621747281698956	0.00200674864501759	-0.477119749065026	0.86820706049797	-0.477567621555081	0.867799979495331	-0.00361807742328927	-0.00330460123681692
2.8	-0.00514633668493002	0.00313308434805463	-0.337912761531319	0.931156965058597	-0.337246168028227	0.93131662443658	-0.00357642114428225	-0.00307901473327794
2.9	-0.00354577561382157	0.00364803291898069	-0.188984463652549	0.972343415359381	-0.189015520128726	0.972256094835508	-0.00312346015578727	-0.00259429762659464
3	-0.00204514658564752	0.00378993600911761	-0.0351379304016809	0.990417096981821	-0.0358382927227846	0.990257360581215	-0.00253243554769867	-0.00204548619972201
3.1	-7.92294334301794E-05	0.003479571266312	0.117924745443332	0.983802799633151	0.118515118989068	0.983785794366469	-0.00137890607904407	-0.00187518594844309
3.2	0.00120269694718774	0.00239200307355482	0.269639631432345	0.953328150833802	0.269584945537347	0.953267801284012	-0.00089239259060085	-0.00212608465474542
3.3	0.00225521145791896	0.00113681443078831	0.414407720958538	0.899951191839976	0.414270635010251	0.899936801582164	-0.000281111943610648	-0.00233933958416602
3.4	0.00262174050750234	-0.00043300151935149	0.549145338183746	0.824954433347171	0.548982959376999	0.825072119544483	0.000336076567298455	-0.00302208059050509
3.5	0.00237726306905641	-0.00145179656852777	0.670857749756726	0.729602797035117	0.670778121850972	0.729641491270912	0.000494969957294432	-0.00341801022152248
3.6	0.0025854707022741	-0.0022187535049569	0.775147271999922	0.616920857325638	0.775388517896996	0.616472527038041	0.00106226908792884	-0.00396959677190412
3.7	0.00250524307284381	-0.00358504473469838	0.861771321098467	0.488758728155124	0.861652917502732	0.488901700017564	0.00113913030821627	-0.00485070997101875
3.8	0.00179722240713492	-0.00486568202727461	0.92710755063652	0.34968636505381	0.927164673502638	0.349307214366381	0.000855182430955515	-0.00569019238198163
3.9	0.000930813668417517	-0.00619569541832476	0.970423499943122	0.200227753845609	0.970184627443994	0.200895162269409	-2.99089550414536E-05	-0.00676460490510393
4	-0.00132549913220444	-0.00704834913327007	0.989296196526007	0.0479425100488896	0.989257195271422	0.0480453296977902	-0.00130420820019679	-0.00727138454419033
4.1	-0.00282386000204667	-0.00660492130768553	0.985094259129378	-0.105674663015467	0.984909625134831	-0.10554771082146	-0.00189425211145582	-0.00727969202932074
4.2	-0.00428476412263052	-0.00651606210074348	0.956712807402668	-0.258057084294856	0.956747216277217	-0.257403074751428	-0.00257877364856505	-0.00786030588004923
4.3	-0.00582320048224718	-0.00640879571073909	0.905408696601576	-0.402950568118462	0.905272683473276	-0.402839515279789	-0.00365207425115581	-0.00857752429212209
4.4	-0.00754405029919979	-0.00609895733181178	0.831771875453293	-0.538518174307728	0.831606512278678	-0.538384936174216	-0.00504103456447227	-0.00917902551809955
4.5	-0.00994896216793619	-0.00585033893959151	0.738569653229968	-0.660806561223079	0.738380511492821	-0.660633588665178	-0.0070380523945496	-0.00968932282968447
4.6	-0.0125130852512355	-0.00374181935078503	0.62684018779298	-0.768460800947199	0.627181572088446	-0.767761587630677	-0.00900066666721359	-0.00920243037440983
4.7	-0.0139803374824214	-0.00145994114137177	0.500162212359674	-0.856418799494079	0.500178307116642	-0.856062445326229	-0.0107099153454003	-0.00888816347297731
4.8	-0.0149680604506665	0.00130289017256767	0.360818381827763	-0.923566757176097	0.361039937222361	-0.923249636824724	-0.0123764156071973	-0.00826513962712385
4.9	-0.0149147529204722	0.00399170038932533	0.213669184699496	-0.96790682186445	0.213448829332057	-0.967914875386219	-0.0136497778725632	-0.00729111138655365
5	-0.0142567532330186	0.00675429454023579	0.0605984845515867	-0.989948309106723	0.0607758515658556	-0.989702213252393	-0.0143957255101172	-0.00568845324558624
5.1	-0.0120789902532896	0.0091523263380544	-0.0942588091188132	-0.98734628202706	-0.0939264504669999	-0.987120326684377	-0.0142871017454049	-0.0041440562782799
5.2	-0.00954990545379773	0.0106821744928145	-0.246553599470991	-0.960584801121507	-0.246060572387217	-0.960557778752737	-0.0142572256811194	-0.00274712093613157
5.3	-0.00700126020348024	0.0113114624309568	-0.392685981767663	-0.910748475412747	-0.392344419892451	-0.910965117556593	-0.0139332936985397	-0.00136332922063828
5.4	-0.00493541464148482	0.0115591512424545	-0.529649919998693	-0.838974864203053	-0.529436543889409	-0.839176150265717	-0.0136846853259484	-0.000117422747311048
5.5	-0.00364102828622732	0.0125872127177132	-0.654088435425347	-0.746036608997001	-0.653848930832154	-0.746232039692228	-0.0135930305019366	0.00168472500360653
5.6	-0.000229329066870351	0.0138087894274861	-0.761393048039239	-0.635024029682019	-0.76120301076517	-0.635196389873711	-0.0122166529545184	0.00301942279056153
5.7	0.00289411959101713	0.0131556947797388	-0.850742768496181	-0.509205025491011	-0.850613240970124	-0.509425409547798	-0.0115368535433913	0.00382328926215652
5.8	0.0055284270180766	0.0119950069169536	-0.919500751600537	-0.370756867161867	-0.919432887549787	-0.371042549325136	-0.0109806734354643	0.00488358810589451
5.9	0.00755391189501381	0.0097517610616656	-0.96595851185493	-0.223248552488838	-0.965973091770577	-0.223332366875956	-0.0104322691750102	0.0058157601603392
6	0.00752877459114371	0.0078119498043609	-0.988308072738488	-0.0704787930363825	-0.988188675961829	-0.070537048600621	-0.0104790440165249	0.00731327253682418
6.1	0.00852535506946456	0.00735716045870384	-0.987332227012216	0.0833738636652235	-0.987205453448322	0.0832250580117828	-0.00876073724518839	0.00911242114921788
6.2	0.00964725410242388	0.00573576189779179	-0.962436081619551	0.235921708579873	-0.962422528316042	0.235718500576604	-0.00712838971483946	0.00937961156396034
6.3	0.0101034803906088	0.00353513693581534	-0.913940540153826	0.382655971692808	-0.913936229422939	0.382470309232297	-0.00590298717763684	0.00910455559581985
6.4	0.00998712010381936	0.00099884197250031	-0.843049537894029	0.519815429259008	-0.843018109863908	0.519604443373965	-0.00516608604135857	0.00845959580937659
6.5	0.00895953632559365	-0.00150733755361245	-0.752347906623842	0.643893653903358	-0.752372271351393	0.643689332205535	-0.00480814305933718	0.00793644965428693
6.6	0.0079221495135745	-0.00363036587023063	-0.643325929405067	0.75348359613576	-0.643400280133434	0.753231099243176	-0.00429606227481644	0.00761113959366387
6.7	0.00617317118511706	-0.00566397614960871	-0.518052850889338	0.8442177952374	-0.518156242948454	0.843996455109887	-0.00403474270678434	0.00737940502021604
6.8	0.00416888364857711	-0.00696932723846119	-0.380475152304403	0.914191417640307	-0.380617331340315	0.91402073178443	-0.00371165687056647	0.00749623154022632
6.9	0.00191237784413661	-0.00773945225978906	-0.234032768699718	0.961911143604229	-0.234259890324675	0.961801023068284	-0.00305354191282502	0.00766927811647792
7	3.71773231094042E-05	-0.00757609172529585	-0.0817752761215787	0.98703494781034	-0.0819856674579699	0.986945423030124	-0.00206776483010192	0.00773845561776944
7.1	-0.00139154110289184	-0.00747396613254779	0.0731670970619687	0.98731717015442	0.0729644262238452	0.987184325559506	-0.000987553224319187	0.00738672881013194
7.2	-0.00283188779290044	-0.0071949619567851	0.225522842994361	0.963453304794633	0.225240341076605	0.963419564823758	3.1297022557727E-05	0.00706782067351472
7.3	-0.00432006125449171	-0.00672716170193246	0.372182827199711	0.916532382176922	0.37194665060137	0.916559356101715	0.00101335993670329	0.00654750382054721
7.4	-0.00557905161090536	-0.00599341528021047	0.510038867004489	0.847587129088787	0.509825418535262	0.847638990453247	0.00169966274170032	0.00575984049741679
7.5	-0.00687369530136476	-0.00485653505812341	0.635795998327008	0.75733811159851	0.63562661346433	0.757408506026839	0.00228751415074698	0.00522432824670176
7.6	-0.00688793413149844	-0.00343117432738891	0.744865757668996	0.648895063517518	0.744608549481679	0.648978463187886	0.00338910687558537	0.00419462061974191
7.7	-0.00671432079455185	-0.00249852941705598	0.836130587233862	0.525432856307094	0.835945916050229	0.525650652165217	0.00378245992684061	0.00280898906857228
7.8	-0.00621130931074604	-0.001774908461488	0.907449647681569	0.389086838466495	0.907347464158493	0.389312569503681	0.00391222704155147	0.00147926782276711
7.9	-0.00593777707205761	-0.00157220388776217	0.956601058486849	0.243214078726939	0.956463745317233	0.243394216445114	0.00362452687612338	0.000337381411193325
8	-0.00692288037061706	-0.000937461699036135	0.981532033327445	0.0917478664132319	0.981509985182468	0.0920103435823616	0.00226882837728896	-0.00024087793825415
8.1	-0.00646649175213205	0.00143096194911941	0.983893583530197	-0.0610352445521091	0.983923214195931	-0.0607800664120058	0.00222537337591675	0.000113978951415331
8.2	-0.00494644413086217	0.00275299522299413	0.962366672750289	-0.213029237330449	0.962415856836601	-0.21271266505013	0.00191596045093907	-0.000360178099607948
8.3	-0.0033735998303686	0.00358764634894296	0.917280511882797	-0.359724395359775	0.917332613681306	-0.359437784206414	0.00129780613584113	-0.000612590324774388
8.4	-0.0013842292864466	0.00357427276980615	0.849865478630112	-0.497319558420528	0.849963631771577	-0.497118214442437	0.00069443576492213	-0.000842208131200731
8.5	-0.000955656306570863	0.00262789393255997	0.762831457138163	-0.622325314997412	0.762883008733021	-0.622174959557404	-0.000609365284232823	-0.000888757810104641
8.6	-0.000262550235417145	0.00357251893573882	0.656981799066737	-0.733594863817977	0.657150519163179	-0.733358378682644	-0.000927489576045639	0.000432546715132353
8.7	0.00146783772481225	0.00387404944970929	0.534738440366323	-0.826410026292148	0.534997692828817	-0.826195455978972	-0.000535287996813475	0.00107503619166083
8.8	0.00356334776145601	0.00352259925282054	0.400037007325178	-0.898909116312504	0.400222229842223	-0.89877066202588	-0.000195609594941067	0.00143222900393238
8.9	0.00576142711194802	0.00234106757859685	0.256075749690832	-0.949802907627665	0.256254753577768	-0.949633460588687	0.000602159146870976	0.00188189431505979
9	0.00747382438785943	6.26278253168882E-05	0.105521835975927	-0.978413062279319	0.105829773401699	-0.978367054974289	0.00175756602727043	0.00212212648575226
9.1	0.00880788418118454	-0.00216548638642402	-0.0480196311016	-0.982342614360581	-0.0477109753594952	-0.982302371830391	0.00373927929588323	0.00204233648201823
9.2	0.00952915858245491	-0.00498039696346394	-0.199650538291497	-0.962437940202744	-0.199303727122411	-0.962416376592735	0.00584648910440302	0.00100159692621469
9.3	0.00923379878511713	-0.00742067309335464	-0.34621208377201	-0.919658332717648	-0.345860995363021	-0.919633431235157	0.00780322023190294	-0.000647407081304002
9.4	0.00826288150826521	-0.00970400433487869	-0.484573030871473	-0.85496641095734	-0.48425072594988	-0.855057533900868	0.0091580945052773	-0.00320223598873132
9.5	0.00609474964699824	-0.0097912018248868	-0.611543676594515	-0.768648062582453	-0.611307449080427	-0.768698703678682	0.00917691283937333	-0.00540916716453438
9.6	0.00656122826926619	-0.00955118495042004	-0.722425311990358	-0.664082094962622	-0.722114977225034	-0.664220813925195	0.00941646022415693	-0.00818090745140651
9.7	0.00653501261876829	-0.0102922804370192	-0.816242255799059	-0.544224982149189	-0.81595597043459	-0.544457437603074	0.00750322155028805	-0.011316596523328
9.8	0.00624048555217011	-0.0111364960698885	-0.89060134303422	-0.411140178224738	-0.890349052954261	-0.411308772226119	0.00445363421515782	-0.0133370767398212
9.9	0.00553794609084963	-0.0122068170319733	-0.943368708342649	-0.267793767806079	-0.94311746430531	-0.268002055651733	0.00091561598125271	-0.0143495506888712
10	0.00297720977731431	-0.0124779794622592	-0.972341179617954	-0.118454164216977	-0.972188401123463	-0.118814939772113	-0.00342695968810797	-0.0136347994427367
10.1	0.00241891453761348	-0.0107149445127193	-0.978995417654089	0.0328807068632165	-0.97893199855465	0.0324510840868333	-0.00598995600499434	-0.011729224068685
10.2	0.00265065420230513	-0.0104144700117641	-0.962242762818278	0.184190207315477	-0.962121141874866	0.183760864771062	-0.00859470095321164	-0.0100569338076314
10.3	0.00258045995824024	-0.0104343868767139	-0.9218841226452	0.331073106406948	-0.921901067125407	0.330533887263453	-0.0111038499292109	-0.00770892576448886
10.4	0.0024224205041539	-0.0112735177775021	-0.859086106437633	0.469427550987213	-0.859221642340713	0.468918468047609	-0.0128948854718307	-0.00496713575180174
10.5	0.000894215899432407	-0.0121476829141097	-0.776708042791451	0.59613414305861	-0.776879410182557	0.595703701274184	-0.0140272685113646	-0.0019272041693206
10.6	-0.000501846923383974	-0.0117950337641044	-0.675253494379068	0.70985232527628	-0.67552435200089	0.709523142258453	-0.0137275933045893	0.00152865138186936
10.7	-0.00149893858003306	-0.0110098369664	-0.556904549491167	0.805971041261915	-0.557203516972168	0.80566240779824	-0.0124011052350623	0.00444069673663212
10.8	-0.00182285595900477	-0.0106860098675548	-0.425292947781303	0.882311414950532	-0.425641815565773	0.882013804186948	-0.0103030507498811	0.00674577289426486
10.9	-0.00223452655294615	-0.0102858325175437	-0.283925164262925	0.937498718324054	-0.284313597400015	0.937375409084543	-0.00804082842809922	0.00845803304904675
11	-0.00262730384852818	-0.0100208678829363	-0.13512652709468	0.971111998541991	-0.135562035595129	0.97102072115263	-0.0052644957757186	0.00969076334840993
11.1	-0.00255270628870932	-0.00982102873184358	0.0176911527830973	0.979825273072561	0.0172040498019941	0.979837913904053	-0.00207485002885379	0.00993564909411025
11.2	-0.00263584092419751	-0.0102312600465109	0.169091169877293	0.965015100188971	0.168635593733571	0.965087029972704	0.000999779722412585	0.00937204349930151
11.3	-0.00298806674776291	-0.0107194729621021	0.316341698739366	0.927348293796193	0.315883970674974	0.92748338432502	0.00401885835577548	0.00820633829630541
11.4	-0.00397434838432488	-0.0116099284132488	0.456495132496778	0.867556433102365	0.45609227128961	0.867668305998475	0.00653457081709192	0.00653115024293361
11.5	-0.00592313528862782	-0.0109294455343793	0.585948188772569	0.785528774876603	0.585630170446597	0.785829537580951	0.00846099900653521	0.00503142042730977
11.6	-0.00609232221594816	-0.0101069818808659	0.699714183425308	0.685116023261177	0.699498993610268	0.685441954668908	0.0106488983569422	0.00255564592100518
11.7	-0.00651821885773643	-0.0099214871534889	0.797371500831992	0.568825343297681	0.797168223106139	0.569130126659744	0.01142450173882	-0.000450364823197821
11.8	-0.00732113089830781	-0.00998313640286065	0.876195596459201	0.438377944973989	0.876013120349897	0.438826612500513	0.0112136199279547	-0.00324548820357909
11.9	-0.00846206908569236	-0.0102524166234764	0.933649894745023	0.296971758538969	0.933543227610625	0.297419797030011	0.0101831994438004	-0.00557462788724469
12	-0.0120912045476693	-0.00958761962099348	0.967565248750469	0.149046457648931	0.967535424889077	0.149409270143637	0.00817410749577533	-0.00694285830708597
12.1	-0.0133967758522476	-0.00643767643680918	0.97952195054	-0.00195736304000512	0.979449661496888	-0.00157433531823767	0.00763535676172538	-0.00779954978305933
12.2	-0.013911495005415	-0.00418981105706831	0.96786022548366	-0.153928671989632	0.967876421645455	-0.153631432851113	0.00636482440453537	-0.00923920931982415
12.3	-0.0138850986859512	-0.00189593720233622	0.9322842774147	-0.302229799477119	0.932402190135207	-0.301923444819588	0.00479732625182757	-0.0103701768437663
12.4	-0.0133897890579076	-0.00041595248309549	0.874276728778862	-0.442914395187628	0.874338031448358	-0.442545451757917	0.00306006563175315	-0.011411359058443
12.5	-0.0138328930069397	0.000591351432846431	0.795964945728811	-0.572714851060341	0.796302549872229	-0.572323250079698	0.00038593435792562	-0.0120914912320561
