# GHZ S RI R 50
0.2	-0.000309542386549964	6.37433607585477E-06	0.948531842836669	-0.308152707150268	0.948309695352083	-0.308127204299828	-0.000337300864030711	0.000139617759777198
0.3	-0.000291687758428793	0.000103983864541198	0.888371475402213	-0.451747103309258	0.88821542053381	-0.451651712849457	-0.00039714260091912	9.1689956155346E-05
0.4	2.02633084838505E-05	0.000108343421088217	0.806686196907286	-0.583821794642761	0.806697965661607	-0.583846896475054	-0.000200944181570071	9.38737943209607E-05
0.5	-4.7039770111876E-05	-0.000196067950204732	0.705975019898805	-0.70169119629842	0.705820197071787	-0.701589782977926	-0.000226164227063015	-0.00020444093330657
0.6	-0.000247563346226324	4.57555590821387E-05	0.588209482869723	-0.802642588520224	0.588090391875068	-0.802481006983936	-0.000544267291559314	-1.18732972593014E-05
0.7	-7.31016880355309E-05	0.000341481562240813	0.456119698757541	-0.883805799689309	0.45610099144908	-0.88369342367447	-0.000391156177487026	0.000165059765995283
0.8	0.000265856989991061	0.000374718478803165	0.313221139511078	-0.943508327950689	0.313189874664592	-0.943318831184054	-0.000263172407115552	0.000335165912373692
0.9	0.00068403945662766	0.000484620215215812	0.163027143070825	-0.980212628337481	0.162962210208144	-0.980120843642757	5.93432122013513E-05	0.000404245610058778
1	0.00116654213654572	-0.000391103447505287	0.00902565017743998	-0.993529143190304	0.00897406505020926	-0.993497720489482	0.000521691972197471	-0.000485710515130278
1.1	0.00043998402326442	-0.000677580566594123	-0.145486575028162	-0.982692359558571	-0.145502280383852	-0.982562090289134	-0.000592817469552177	-0.000812726748764216
1.2	0.000515001383676974	-0.00122509198247738	-0.296257701018571	-0.94773954646293	-0.296181445039808	-0.947713502811984	-0.000714884133773822	-0.000221591289344973
1.3	0.000363060545929603	-0.00249424240204224	-0.439536548575255	-0.890022100661449	-0.439513554817406	-0.890015496803545	-2.69850327950628E-05	0.00064326585416656
1.4	0.000158422663096084	-0.00399437470340272	-0.572000976452602	-0.811036931856951	-0.571976843834697	-0.811015328242047	0.00139519909651005	0.000875960709078886
1.5	-0.000567629728774557	-0.004605542535699	-0.691294318933067	-0.71208691102323	-0.691192700418735	-0.712002091323345	0.00233757599318677	0.000444017657108923
1.6	-0.000152865292513515	-0.00432019855695274	-0.792833999825511	-0.595667789435999	-0.792760076329462	-0.595607893173556	0.00331196944628521	0.000312791033177481
1.7	-6.08123999134555E-05	-0.00475692242663857	-0.87492474742365	-0.466021310654139	-0.87508876247687	-0.46550630465601	0.00391700501876064	-0.000953040984333996
1.8	-0.000510504797197603	-0.00505451794724801	-0.936705299277237	-0.324266522401203	-0.936594274420311	-0.324265128349781	0.00362938652173139	-0.00232039226728709
1.9	-0.00102885271239648	-0.00537826912775546	-0.975504774556968	-0.175282935129265	-0.975597577813768	-0.174796371870237	0.00300361600593589	-0.00372894456090813
2	-0.00286871000913167	-0.005537002888567	-0.990074608536325	-0.0210864377701996	-0.99008651426069	-0.0210407036581526	0.00078387818981924	-0.00487990243651321
2.1	-0.00348638555216996	-0.00387925717058444	-0.981219892669631	0.132119145285662	-0.981257922879793	0.132156112157859	-0.000358723420116302	-0.00357487470399795
2.2	-0.00373564690038818	-0.00341077138708359	-0.949048370766256	0.282594497475498	-0.948973518802151	0.282657213553401	-0.000332368495798658	-0.00333090425064093
2.3	-0.00424077830603404	-0.00285014804030452	-0.893815630961819	0.425801278508269	-0.893434828101545	0.426313630291121	-0.000572010961873551	-0.00357683941449085
2.4	-0.00469816300397183	-0.00239164861962979	-0.815836213235545	0.560168119526193	-0.816101572331869	0.559583563658766	-0.000896653238540399	-0.0041967549237237
2.5	-0.00591977956677342	-0.00218479288141799	-0.719607398516779	0.679128627070883	-0.719819558432577	0.678619853633847	-0.00239539350996545	-0.00579103442422134
2.6	-0.00699073208761014	-1.01816848213261E-05	-0.606401679501256	0.782573412522603	-0.606295434921616	0.782391280656688	-0.00440099877270187	-0.00473706519771817
2.7	-0.00643985437838935	0.00188996466865573	-0.476985379962867	0.867453078858474	-0.477432823643596	0.867046185023084	-0.00490005653359685	-0.00344926001762063
2.8	-0.00512050946048957	0.00313130645900484	-0.337917346822557	0.930302231385667	-0.337251340647858	0.930461960617826	-0.00482755865417336	-0.0023679317460513
2.9	-0.00328093942435419	0.00357565210555244	-0.189298328054947	0.971367840309386	-0.189329312820769	0.971280583434332	-0.00405252470712797	-0.00139690185212583
3	-0.00166475775673129	0.0035944376784773	-0.0358852883619617	0.989774760873574	-0.0365850917045282	0.989614579754967	-0.00328030364656024	-0.000427026862487055
3.1	0.0004455667273147	0.00310025262444943	0.117313027407376	0.983367323801767	0.117903109485725	0.983350658214356	-0.00149414263381953	0.000108300017218134
3.2	0.00170258621931866	0.00182456863468702	0.268905090527093	0.952932228344774	0.268850473188423	0.952871881113833	-0.000481627361787948	-0.000271155202727673
3.3	0.00275012039092462	0.000493443460186915	0.413506252272162	0.899747006675802	0.413369254807724	0.899732523110793	0.000479322835295919	-0.000746385125966098
3.4	0.00318013890917713	-0.00119804012927264	0.548198439991732	0.825142544332009	0.548036015516533	0.825260040583879	0.00121280690149149	-0.00191246532506957
3.5	0.00283671476590019	-0.00231452486229605	0.670355559297455	0.729964758573914	0.670275913297614	0.730003400561731	0.000763074454879698	-0.00241749713109823
3.6	0.00322215948942921	-0.00314616890355642	0.774555895727945	0.617105129624059	0.774797288797169	0.616657081596473	0.00160012373745257	-0.00239424773175459
3.7	0.00311113938065529	-0.0047658631988598	0.861153165229148	0.48915077214155	0.86103470955931	0.489293617118067	0.00218711986041014	-0.00340334276631479
3.8	0.00229891309823423	-0.00617419461867575	0.926651862642399	0.350234096244015	0.926709229710773	0.349855073554876	0.00226540472359236	-0.00465176107742463
3.9	0.00140200756852855	-0.00762363780833402	0.970221693713968	0.20070483849306	0.969982503436138	0.201372056256285	0.00156706679370798	-0.00657266156397712
4	-0.00114679318734653	-0.00868171272690345	0.988807813111916	0.0481633044813752	0.988768805296793	0.0482660649841515	-0.000840906943031625	-0.00810661478281521
4.1	-0.00275060787610582	-0.00804558307757376	0.984535897296705	-0.104950160367384	0.984351296489827	-0.104823412361901	-0.00245917894129257	-0.00736365134020872
4.2	-0.00431475982954393	-0.00795781288831539	0.956430875770467	-0.257181571089672	0.956464757824515	-0.256527864887049	-0.00329779058708838	-0.00734053944632731
4.3	-0.00598669616623541	-0.00767306509661271	0.905298270325823	-0.40206791813118	0.905162234966046	-0.401957021325399	-0.00427339117789654	-0.00757380521743248
4.4	-0.00759480221209342	-0.00709062768877915	0.831644750362088	-0.537588528212262	0.83147939367042	-0.537455491067721	-0.00512112290429216	-0.00803081448197574
4.5	-0.00984410230987758	-0.00689338264574316	0.73873392442267	-0.659320283451363	0.73854473601609	-0.659147694803075	-0.00723165482253448	-0.00944592297184424
4.6	-0.0122953747049993	-0.00457535876672059	0.627741084748626	-0.767255824962977	0.628081314415364	-0.76655636598462	-0.0102278842962634	-0.00859023637667401
4.7	-0.0134710559991731	-0.00234494292000879	0.50124362172195	-0.855555063360743	0.501259221181471	-0.855198759010513	-0.0121755757550104	-0.00752599286571397
4.8	-0.0142888802492007	0.000263648606248979	0.362025809280864	-0.922892110546284	0.362246884234663	-0.922574744497744	-0.0137338617587705	-0.00620022827081256
4.9	-0.0141332199495019	0.00274310268444226	0.215179137656408	-0.967330507683724	0.214958848025128	-0.967338914679329	-0.0145997934127329	-0.00471116285111438
5	-0.013548551457236	0.00525371324597823	0.0625707639705013	-0.990157461073047	0.0627477045830068	-0.989910933754549	-0.0151108482741269	-0.00269733445661744
5.1	-0.0114338598889333	0.00745231921966669	-0.0928254982678642	-0.988093269569581	-0.0924932773059014	-0.987866673947689	-0.0140600930139244	-0.000523833478549323
5.2	-0.0091436364164404	0.00879247271667795	-0.245304502826244	-0.961472405448685	-0.244811241690385	-0.961444656931237	-0.0128030413959589	0.000534640637218022
5.3	-0.00682696654856356	0.00939707267205862	-0.391542788686527	-0.911927309861515	-0.391200678628381	-0.91214356732941	-0.0117185618049843	0.000818491280569179
5.4	-0.00489116694146825	0.00961990103343987	-0.528790129817517	-0.840665144175376	-0.528576214471144	-0.840866276690859	-0.0117415485251436	0.000458665061237901
5.5	-0.00399212247558623	0.0108061228641864	-0.654231068479039	-0.747809326575703	-0.653991010329505	-0.748004782149427	-0.0138037895426486	0.00203401758406603
5.6	-0.000222280398803096	0.0122830102450209	-0.761647404979164	-0.636275337740777	-0.761457037906329	-0.636447718293132	-0.0122663289693358	0.00502637212601465
5.7	0.0029280294618734	0.0114536618580286	-0.851111253028886	-0.510475143269765	-0.850981398815215	-0.510695624968384	-0.0106683935810964	0.00591924447501895
5.8	0.00548981643283389	0.0103195537412797	-0.920196303247391	-0.371992097717008	-0.920128108276526	-0.372278038261069	-0.00944061927075086	0.00637607129091335
5.9	0.00766689776540004	0.00809339195912008	-0.967092093574386	-0.224127662313162	-0.967106641810874	-0.224211595630287	-0.00865063527493848	0.00578289721183039
6	0.0073335816229293	0.00592855322575782	-0.989047737102337	-0.070712550112837	-0.98892823874694	-0.0707708282916522	-0.0112103047151	0.00562850860446992
6.1	0.00844591119937656	0.00598056115401978	-0.987977788956915	0.082662250010679	-0.987850826089623	0.0825134543904736	-0.0115161352230715	0.00951499403767226
6.2	0.00986571783450733	0.00436423486600769	-0.963483176905122	0.23528167270757	-0.963469433173722	0.235078299288712	-0.00979538314473928	0.0116606662816358
6.3	0.010541042584737	0.00211689356602233	-0.915186300612566	0.382354878046795	-0.915181843203808	0.382169025338514	-0.00756576940240987	0.0126961804186717
6.4	0.0106321021485616	-0.000685139845706806	-0.844099765901554	0.519845211505733	-0.844068196999879	0.519634048540552	-0.00531294058366509	0.0122030114553979
6.5	0.00949163446263652	-0.00356737566801568	-0.753510373955322	0.643485909685524	-0.753534534009889	0.643281434249665	-0.00413141639061873	0.0110679339682886
6.6	0.00820820017778401	-0.00591065701188649	-0.645089985949918	0.753767329146744	-0.645164143876143	0.753514398489045	-0.00296161154356523	0.0100396323754207
6.7	0.00605271951628746	-0.00795784066233431	-0.519525859992246	0.845114740952167	-0.519629236536593	0.844892975743502	-0.00279710829173586	0.00877311562697941
6.8	0.00381022934797338	-0.00898116966537295	-0.381570594952005	0.915297827579903	-0.381712880028532	0.91512680890268	-0.0031550991528502	0.0083771627007206
6.9	0.00159107647302704	-0.00950021830688811	-0.235059962163213	0.962948259627966	-0.235287286931452	0.962837827226088	-0.00330716522082953	0.00856504483753601
7	-0.000148563935208713	-0.00911152069898431	-0.0830328311658758	0.988868918713238	-0.0832435332420854	0.988778985245057	-0.00294247060626781	0.00942824017868962
7.1	-0.00128006154480014	-0.00902460719980328	0.0729660748709451	0.989522172417649	0.0727630056692859	0.98938896035501	-0.00151981262897399	0.00971405819129943
7.2	-0.0025899141607962	-0.00885276895773935	0.225824540595259	0.965428331951916	0.225541475345264	0.965394479420325	-0.000262165898575189	0.00963312663410213
7.3	-0.00398330600852439	-0.00849850693680849	0.372766753099819	0.918418387459485	0.372530102252745	0.918445374781058	0.00094201844552113	0.00935313665889748
7.4	-0.00519090667825444	-0.00792321955231863	0.511014271813234	0.849678934340659	0.51080031535365	0.849730863655191	0.00186533087463775	0.00870243111163532
7.5	-0.00665426160556179	-0.00689902374591197	0.638064133310728	0.759086346524389	0.637894312940981	0.759157045141826	0.00234944819979488	0.00856826532530435
7.6	-0.00652265749023965	-0.00544655417197474	0.7470882577149	0.649463215836321	0.746830603127019	0.649547057045524	0.00445293822446375	0.00841462844637206
7.7	-0.00630984976187156	-0.00468694813758321	0.838207054408601	0.525643977649018	0.838022237680661	0.525862359214872	0.00633580051365825	0.00677705600167095
7.8	-0.00576242248826494	-0.00405571307293773	0.909605917087776	0.388954728924869	0.909503755877162	0.389181001650466	0.00765728456980902	0.00420891501635948
7.9	-0.00525821638777278	-0.00390811206370795	0.958950593442232	0.242405864582676	0.95881323981069	0.242586571046584	0.00762262380019353	0.000641586532498268
8	-0.00662229331946249	-0.00408179549607258	0.982958312795606	0.0899558335951137	0.982936747032623	0.0902186873434113	0.00365292399546579	-0.00265566604003222
8.1	-0.00626247379739703	-0.00137830427971896	0.984797919765057	-0.0622778062658673	0.984827886414453	-0.0620224101582783	0.000799021697033239	-0.000794108610118469
8.2	-0.00488174483832781	-0.000208466779045394	0.963373180816293	-0.214410131806927	0.963422791997064	-0.214093204467846	-0.000372490429466435	0.000286250366190901
8.3	-0.00361281866078168	0.000741965629719055	0.918060114863421	-0.361548607611678	0.91811270147791	-0.36126166635529	-0.00110757048151182	0.00157344651592376
8.4	-0.00157649302309621	0.00111823706843361	0.849817989500056	-0.499427901693019	0.849916621683985	-0.499226532142787	-0.000688354325380648	0.00238438387108853
8.5	-0.00103570969745974	-4.09851550612075E-05	0.762418317918181	-0.623520216611167	0.762470073596983	-0.623369856856595	-0.00197161506328439	0.00136182805152944
8.6	-0.000301090397781229	0.0012388173032824	0.656893344810967	-0.735175145356438	0.657062525481556	-0.734938583610771	-0.00337829292317624	0.00440605294171324
8.7	0.00168644740258039	0.00129346268626199	0.534043235633581	-0.828166077030213	0.534303112122935	-0.82795167264847	-0.00187929820304483	0.00677999573237763
8.8	0.00359367739458679	0.000670305844204264	0.398774273311034	-0.900333836674558	0.398959888073971	-0.900195597695508	0.000371577694453077	0.00805270313939356
8.9	0.00554548331189097	-0.000475061350908136	0.254756725578292	-0.950540939184408	0.254936049102379	-0.950371695259332	0.00364120289845535	0.00827992925487114
9	0.00714000835783295	-0.00279020388579832	0.104604047769066	-0.979561911035236	0.104912360275947	-0.979516178985262	0.00643682423044105	0.00657024677149373
9.1	0.00841367713435372	-0.00500812518219022	-0.0499532663818085	-0.983312984376528	-0.0496441997328241	-0.98327328957415	0.00898113923233635	0.00462874110987834
9.2	0.00885677340064465	-0.00800174068424645	-0.201707160211526	-0.962603429425203	-0.201360101012039	-0.962582551793373	0.0105543761287391	0.00122491992037105
9.3	0.00813141275517999	-0.0102115427332479	-0.347981596683891	-0.919373746560542	-0.34763033619262	-0.919349463587393	0.010568562954783	-0.00195636374195052
9.4	0.00727193216954063	-0.012036231685195	-0.486137361957766	-0.854836431575574	-0.485814973331818	-0.854928082992597	0.00961512289972206	-0.00507731618842019
9.5	0.00507494552323916	-0.0117549905313818	-0.614070721467615	-0.768084532358773	-0.613834341751225	-0.768135791822273	0.0062148303025036	-0.00559281960058272
9.6	0.00645009460750815	-0.0113742684126579	-0.724315783056532	-0.662306564747785	-0.724005753866062	-0.662446128625177	0.00715688572007895	-0.00484583543760203
9.7	0.00657990380739382	-0.0126296601528869	-0.817491374510144	-0.542304731706116	-0.817205639584238	-0.542537849462789	0.00699937640104798	-0.00713811228146143
9.8	0.00615629835047153	-0.0135500440366436	-0.891589318997119	-0.409156804359941	-0.891337392821294	-0.409325979260452	0.00542143098526982	-0.00929779147770581
9.9	0.00570688212550046	-0.0145107709300047	-0.944333165363055	-0.265316660193964	-0.944082419124575	-0.26552567923234	0.0030712043900159	-0.0118650089646594
10	0.00282809810640802	-0.0150704398666908	-0.971928950454926	-0.115150105988612	-0.971777487638171	-0.115511087459723	-0.00349853491296824	-0.0130220808391394
10.1	0.00257272388634402	-0.0127892463319733	-0.977800293234159	0.0352121230441594	-0.977737985958723	0.0347828363972681	-0.00697942223688732	-0.00879815758294366
10.2	0.00307807417968601	-0.01265720695732	-0.960906664769246	0.186339157505202	-0.960786191598209	0.18590991982667	-0.00827036510557672	-0.00624607488967559
10.3	0.00310555240306646	-0.0126960533069262	-0.920002052949814	0.33323900753206	-0.920020451751837	0.332700406788375	-0.00927132936859367	-0.00418950373546748
10.4	0.00327787894745628	-0.0135702304334231	-0.856061456174407	0.471211024757444	-0.85619831103335	0.470703294898465	-0.00968567341977266	-0.00314063967742213
10.5	0.00180949730307416	-0.0150111765929659	-0.773421006395865	0.595974374296373	-0.773592724235045	0.595545449771028	-0.0119249297933537	-0.0031291561520097
10.6	0.000109605789239396	-0.0147833535520883	-0.672809233285189	0.709400760669159	-0.673080024944483	0.709072656897321	-0.0143971332775154	-4.07373313649273E-05
10.7	-0.00106218897525519	-0.0140018906599724	-0.554448145712125	0.805185452616136	-0.554746985859839	0.804877942694607	-0.0149783688434108	0.00400263645160819
10.8	-0.00140261657028835	-0.0133284280675919	-0.422931118563018	0.880849955982027	-0.423279606073384	0.8805535884007	-0.0136386724076008	0.0080645866191783
10.9	-0.00151496416948126	-0.0129150957047421	-0.282279314040841	0.9351329069701	-0.282666772381609	0.935010295449412	-0.0112879959188629	0.0111559593083302
11	-0.00183518968013884	-0.0129264743139422	-0.134733596479643	0.969396567760226	-0.135168340697544	0.969305521695905	-0.0085394921673943	0.013565306390581
11.1	-0.00172069718131471	-0.013050439568197	0.0186302753950135	0.978206227092904	0.018143981140653	0.978219328579579	-0.00443045438401102	0.01505175017365
11.2	-0.00204162924481483	-0.0137390311156762	0.169670799576265	0.962867117509829	0.16921622991069	0.96293933718923	-0.000279412892362185	0.0149937214061045
11.3	-0.0026245656644303	-0.0142831338789784	0.316180581367684	0.925129755075016	0.315723936239832	0.925264812308292	0.00382395429866234	0.0138312460537483
11.4	-0.0036386831239455	-0.0152660870909681	0.455802750674871	0.866024543035001	0.455400590549269	0.866136265771794	0.00708761810311151	0.0113304467850896
11.5	-0.00608900746842211	-0.0145561242540302	0.586157068187597	0.783959095713927	0.585839757057471	0.784259869495316	0.00774684641991865	0.00996601934907136
11.6	-0.00596207976581027	-0.0135152690338254	0.698983852162684	0.682736218290537	0.698769538773578	0.683061683248304	0.0113029440040372	0.00930152785147668
11.7	-0.00648801050755439	-0.0134743409431966	0.795866138664554	0.566926130028032	0.795663553256028	0.567230328274547	0.0142291115155233	0.00598947065048266
11.8	-0.0073829285380453	-0.0133002456119593	0.874522919608332	0.437054089280866	0.874341031879837	0.437501881613207	0.0158615673868309	0.00173472552918416
11.9	-0.00837595363913772	-0.0134975921291005	0.932118651053076	0.295663855659278	0.932012543680454	0.29611113072442	0.0157503594345658	-0.0041552046459689
12	-0.0118015416066069	-0.013110974095734	0.964954693057857	0.14718384354435	0.964925491439524	0.147545638693542	0.0106312757250168	-0.00893347100556493
12.1	-0.0126529210744568	-0.00992891795468158	0.976366127984533	-0.00230536398557603	0.976294210357264	-0.00192354391027782	0.00727775477372103	-0.00891843245630355
12.2	-0.0131942956287761	-0.00827924035751209	0.964954572229847	-0.153682650772657	0.964970785066582	-0.153386297237354	0.0045872100327725	-0.00952819066163074
12.3	-0.0137386519385101	-0.00616916250974968	0.929300851595754	-0.301627070586024	0.929418508880836	-0.301321702888165	0.00188794852535846	-0.00946061543775656
12.4	-0.0135285963185388	-0.00427232599546847	0.870671343387148	-0.441615369006166	0.870732585312584	-0.441247886732695	0.000156363650866572	-0.00927365676086283
12.5	-0.0141096802896734	-0.00321170716540026	0.792922677402586	-0.569095124963609	0.793258239718809	-0.568704954699324	-0.00350183358553923	-0.010162541190131
