# GHZ S RI R 50
0.2	-0.000291470153775371	-0.000140836974041751	0.948804585666482	-0.308100553201203	0.948582380568109	-0.30807507394891	-0.000328964738531394	3.40791955126903E-06
0.3	-0.00035635310417582	-8.52012029480528E-05	0.888710471362762	-0.451740919415509	0.888554354381358	-0.45164552522562	-0.000474117768708972	-7.38211161480496E-05
0.4	-0.000149799101277698	-7.35072752940726E-05	0.807087993833457	-0.583906193326956	0.807099771228904	-0.583931302635942	-0.000379629359835184	-5.1932574065521E-05
0.5	-0.000256835628901708	-0.000277842628218711	0.706360825095181	-0.701932650618782	0.706205922961457	-0.701831207742561	-0.000441919798627992	-0.000248124292465366
0.6	-0.000434984338843531	-5.70526435297779E-05	0.588523588147224	-0.802933924159473	0.588404433623273	-0.802772284029266	-0.000748660611059924	-6.47067083563413E-05
0.7	-0.000321549635655179	0.000247260876487509	0.45641003274407	-0.884172746066268	0.456391306647144	-0.884060319850588	-0.00065502916542757	0.000145354660416298
0.8	-1.61927240123606E-05	0.000320803144203919	0.313442307901558	-0.943971203177262	0.313411014818735	-0.943781611406602	-0.000544357355778385	0.000380427179161236
0.9	0.000370853243427595	0.000472613783884372	0.163120217885756	-0.980745293577087	0.163055249259561	-0.98065345922589	-0.000213437382331023	0.000507970467032444
1	0.00093693987504191	-0.000233757804954896	0.00899827305851764	-0.994020547392512	0.00894666341210375	-0.993989107494368	0.000389797716136867	-0.000251158798028136
1.1	0.00061053832348332	-0.000726346643062461	-0.145548539957635	-0.983217418595749	-0.1455642557239	-0.983087080259025	-0.000339530798017871	-0.000857334457232965
1.2	0.000882669667059826	-0.0018409592466063	-0.296453944908936	-0.948289856406879	-0.296377643497344	-0.948263799210658	-0.000314312187741064	-0.000878074910458045
1.3	0.000702530441674953	-0.00383017524991675	-0.439869671147049	-0.890524576704543	-0.439846663033789	-0.890517970625888	0.000268981141125667	-0.000737369089020781
1.4	0.000212488790725138	-0.00571895953799028	-0.572418523641215	-0.811443430743921	-0.572394374773282	-0.811421817253369	0.00134144745206145	-0.000840495601683719
1.5	-0.000673476498920064	-0.00628283868356394	-0.691748044211651	-0.712482164854468	-0.691646360020112	-0.712397299038259	0.0020787788886479	-0.00114448250987668
1.6	-0.000624460254703143	-0.0057827443820535	-0.793476649858576	-0.596000149715793	-0.793402665931431	-0.595940219315954	0.00271252097170955	-0.000916047053403282
1.7	-0.000695847242528837	-0.00574483555089208	-0.875663736903732	-0.466180469884183	-0.875827764767674	-0.465665051904115	0.00325844753901035	-0.00165917444794141
1.8	-0.00114804467736521	-0.00564135997517298	-0.937477618913743	-0.324263412137721	-0.937366512092288	-0.324262045670317	0.0030568828316344	-0.00264244496831506
1.9	-0.00155116636546068	-0.00559498699955847	-0.976297397678006	-0.175149946410604	-0.976390138736477	-0.174662986314233	0.00260560307743625	-0.00374676142645117
2	-0.00299247161093457	-0.00564174523956359	-0.990958246609392	-0.0207402770653799	-0.990970146029594	-0.0206944980655431	0.000739844896252117	-0.00486905309010083
2.1	-0.00361999331412415	-0.00418740901385909	-0.98196509163383	0.13276269564643	-0.982003133407912	0.132799714000652	-0.000462923684454574	-0.00371947900837324
2.2	-0.00394936641459875	-0.00367204442125159	-0.949614652588774	0.28338490433622	-0.949539704803241	0.283447624040095	-0.000472466664068502	-0.00339594094133651
2.3	-0.00447664867439328	-0.00303585689646488	-0.894216993912343	0.426709323437503	-0.893835566570282	0.427221815922337	-0.000672309325132958	-0.00358885499994976
2.4	-0.00491314676743611	-0.00244572914898178	-0.816055583621511	0.561210137165612	-0.816321583421544	0.560625323123853	-0.000922564164856735	-0.00416232290929041
2.5	-0.00581226774362629	-0.00217801806035303	-0.719475660779096	0.680273883209672	-0.719688443471725	0.679764952825355	-0.00215519732100966	-0.00585259392756666
2.6	-0.00675506371148785	-0.000385228744456563	-0.605998922720753	0.783565145878575	-0.605892790826818	0.783382815829054	-0.00420010018034577	-0.00519858717095333
2.7	-0.00629991998023137	0.00125616486991565	-0.476404554900778	0.868342393342727	-0.476852609655653	0.867935717961229	-0.00489039608081673	-0.00409180161368956
2.8	-0.0051008100134456	0.00230453042518816	-0.337140814105614	0.931072772864636	-0.336474338772704	0.931231908064385	-0.00496586001243595	-0.00311128343939271
2.9	-0.00340745452998559	0.00258699154706647	-0.188306566342448	0.971940115951172	-0.188337658253999	0.971852860194568	-0.00433062422876019	-0.00222993136691091
3	-0.00201508607849851	0.00245409735077522	-0.034835282864418	0.989999039156593	-0.0355353887237345	0.989839575106707	-0.00377409960122008	-0.00134179210398928
3.1	-0.000242253675447356	0.00202284936072019	0.118316220838444	0.983456383209411	0.118906409823342	0.98343912689401	-0.00226508220452998	-0.000682397426608181
3.2	0.000812314022406398	0.000970580384634034	0.269956139463549	0.952826272257707	0.269901448596817	0.952765971231418	-0.00138259319001288	-0.000824199109572094
3.3	0.00177776849524853	-8.49923407010021E-05	0.414535125869318	0.899388045307179	0.414398098220675	0.899373710307331	-0.00045950950541046	-0.00104636125727734
3.4	0.00228426712069186	-0.00149447101532855	0.549078684355213	0.82453441588547	0.548916389938401	0.824652085219907	0.00035797914113699	-0.00197566646676447
3.5	0.00211183135045976	-0.00255374148394941	0.671045913892161	0.729311932511462	0.670966306049301	0.729350650304629	1.70144210576699E-05	-0.00242567427674842
3.6	0.00245219727435107	-0.00328894998323373	0.77523029615501	0.616309798270732	0.775471225439484	0.615861481770467	0.000821055527691029	-0.00222841510360285
3.7	0.00241496822802186	-0.00472833924025949	0.861647217597577	0.48817145287867	0.861528926412309	0.488314421086724	0.00154863689436153	-0.00304281058965892
3.8	0.00172282269318474	-0.00599007209053777	0.926910855500166	0.349166498862752	0.926967797616009	0.348787464760127	0.0018036617863872	-0.00418042834008244
3.9	0.0010155946381345	-0.00727796944140463	0.970275811889822	0.199652025755047	0.97003736199269	0.200319387126961	0.00132086064476305	-0.00602845548142099
4	-0.00116658565449404	-0.00840203486049612	0.98877292138707	0.0470263460725204	0.988734034827048	0.0471291418995453	-0.000822876422056443	-0.00772851649104132
4.1	-0.00277573217012712	-0.0079886059518657	0.984141668970874	-0.106155488497847	0.983957276210192	-0.106028543069699	-0.00255823480401825	-0.00714103286517859
4.2	-0.00438694737280695	-0.00793351500985907	0.955749932677712	-0.258244046857716	0.95578459560535	-0.25759063373525	-0.00344979881764161	-0.00707953118559903
4.3	-0.00610458657909726	-0.00763322976611624	0.904425528519549	-0.402960459530868	0.904289683927903	-0.402849450793311	-0.00444713721908319	-0.00726212256939012
4.4	-0.00774731081553431	-0.00691577067961267	0.83061720373713	-0.538358669282251	0.83045208316558	-0.538225490758037	-0.00527974582017962	-0.00760007826667548
4.5	-0.00973338635372495	-0.00658214781580493	0.737378156263099	-0.659901008444704	0.737189320115738	-0.659728273434581	-0.00716257352400863	-0.00898336025280233
4.6	-0.0120283087722032	-0.00444045206703422	0.626293367418355	-0.767394756461642	0.626634172021021	-0.766696283190218	-0.0101399768421461	-0.00827750311787134
4.7	-0.013138486031348	-0.00235068789836096	0.49982203238895	-0.855383350370258	0.499838027774117	-0.855027375412308	-0.0120881641645118	-0.00725499806328239
4.8	-0.0139425839555266	9.22481819356015E-05	0.360642254610846	-0.922426618134082	0.360863478168511	-0.922109801879079	-0.0136451594715105	-0.00598849939846113
4.9	-0.0138195871482025	0.00244633904721073	0.213845861864112	-0.966518945528601	0.213625803143553	-0.966527093213162	-0.0145065908928087	-0.0045328187136858
5	-0.0132546767810938	0.00479241445865821	0.0615529594905414	-0.988909333334645	0.0617298993362674	-0.988663298601516	-0.0149994313609909	-0.00259900328277011
5.1	-0.0112747688508256	0.00690277736348225	-0.0934663653078392	-0.986767977714053	-0.0931343919953925	-0.986541924752934	-0.0139585712780474	-0.000410353855823013
5.2	-0.00903326770587884	0.00823952179600675	-0.245678657680552	-0.960053101146409	-0.245186014258103	-0.960025743138456	-0.0125696553980562	0.000629048611728686
5.3	-0.00671028777446414	0.00884149335842845	-0.391595061318989	-0.910428525523775	-0.391253558229552	-0.910644707772368	-0.0113547778894523	0.000782494355200177
5.4	-0.00466889734182245	0.00904421475455354	-0.5284277738544	-0.839177088315222	-0.528214269725765	-0.839378031242663	-0.0112830906856243	0.00021216457724945
5.5	-0.00373725572554245	0.00985890534628217	-0.653544086315801	-0.746624328353521	-0.653304404749589	-0.746819583067508	-0.0135217903654792	0.00136533174960879
5.6	-0.00038339393351418	0.0112793846209194	-0.760866981285223	-0.635218076918649	-0.760676913171965	-0.63539029531939	-0.0124227409465999	0.00447166914790567
5.7	0.00253953505735962	0.0106227094649754	-0.850102690663736	-0.509556148962645	-0.849973071345421	-0.509776368693326	-0.010938305985302	0.00556697890485778
5.8	0.00496194621827705	0.00975368687959982	-0.918985423046306	-0.371327364292416	-0.91891736919432	-0.371612920756651	-0.00975427493067907	0.0062089062201619
5.9	0.00723343859028092	0.00793592680163881	-0.965809717015862	-0.223811418104797	-0.965824247580709	-0.2238952394259	-0.00885542772079147	0.00583167635414702
6	0.0073847693691237	0.00576441140662549	-0.9878632167634	-0.0705406930564609	-0.987743867505216	-0.0705989113829657	-0.0111966058251068	0.00549075250793153
6.1	0.00847771028245752	0.00559118165465124	-0.986611575910394	0.0826276396343169	-0.986484799721301	0.0824790387367824	-0.0117798280938695	0.00933808868426882
6.2	0.00984473932641226	0.00387734185893744	-0.962135851861677	0.234872092426973	-0.962122111588397	0.234669008507701	-0.0101387901077817	0.0116063713925726
6.3	0.0103576387542848	0.00154141558660637	-0.914014899228868	0.381641915963415	-0.914010409259584	0.381456318274597	-0.00798014608718163	0.0127099191103414
6.4	0.0102880831232436	-0.00121058281276914	-0.843147510677157	0.518991994772182	-0.843115933473374	0.518781107092764	-0.00573641735279013	0.012317380970513
6.5	0.00907861433502036	-0.00405722480551644	-0.752559515216923	0.642455575486308	-0.752583607096522	0.642251383363955	-0.00451177371283279	0.0111877792439679
6.6	0.00773156996255036	-0.00630445973740435	-0.644460449828849	0.752409747706118	-0.644534396941454	0.752157154204904	-0.00330008050672047	0.0101941430999577
6.7	0.00560984532269424	-0.00826964993803666	-0.51924828472511	0.843691529519315	-0.519351405985375	0.843470014902048	-0.00306863177747197	0.00888472849721606
6.8	0.00343653732251342	-0.00923368658796264	-0.381568327808467	0.9138740367767	-0.381710330012475	0.913703166652854	-0.00341478520668687	0.00845022654454979
6.9	0.00135060986346843	-0.0097567101991249	-0.235276993481967	0.961477229267693	-0.235503939885519	0.961366822032483	-0.00354025942723534	0.00860592685964929
7	-0.000355966778179009	-0.00946069075370111	-0.0837377194829411	0.987319719734	-0.0839480308245469	0.987229744147888	-0.00324454952965423	0.009440941068681
7.1	-0.00148397605812315	-0.00936224034885485	0.0718829053554288	0.988315315467482	0.0716802319156446	0.988182072752294	-0.00182161930257951	0.00982461840386336
7.2	-0.00275860180116801	-0.00919717175769657	0.224546657987522	0.964486740950873	0.224263972748782	0.96445263563963	-0.000520221604374878	0.00978394258735655
7.3	-0.00411658659305914	-0.00884453603068656	0.371292480073483	0.917728982845867	0.371056083982546	0.917755673428441	0.000729154455532177	0.00955002146792606
7.4	-0.0052435828750617	-0.00827503244004169	0.509288638309286	0.849321418322009	0.509074872081378	0.849373005661719	0.00175706504178784	0.00893483353828259
7.5	-0.00664008864256269	-0.00739812800487694	0.63629012030445	0.759352494466228	0.636120351484266	0.759422864315693	0.00230876313520385	0.00872245130301844
7.6	-0.00662807781065263	-0.00597668828658055	0.745556477533468	0.650059672248318	0.745298898736247	0.650143069966719	0.00438962300731359	0.0086623582951854
7.7	-0.00642152195012942	-0.00513947229491702	0.836816443441041	0.526546698110928	0.836631425322324	0.526764644636534	0.00645377648444748	0.0070851323396355
7.8	-0.00581629681982237	-0.00441894864614353	0.908434621444993	0.39019900993993	0.908332153926254	0.390424982532706	0.0079789757975838	0.00447408153104841
7.9	-0.00514474214003476	-0.00418306969029683	0.958172724682032	0.243979009564908	0.958035108773977	0.244159410421795	0.00816636746615139	0.000705890386933994
8	-0.0061763746734609	-0.00468468870590826	0.98271084849208	0.0914749663976513	0.982688876229567	0.0917377578434256	0.00421591886210422	-0.003150840969141
8.1	-0.00610587669508934	-0.00225685510106166	0.984731460833289	-0.0607608095063134	0.984761031798183	-0.0605054094962983	0.000748579210503828	-0.00143275527941367
8.2	-0.00496387682656474	-0.00108239028198717	0.963670692647481	-0.212851610533099	0.963719792131637	-0.212534618943986	-0.000745573185864115	-0.000138014230960374
8.3	-0.00389007636123573	-3.05597541339212E-05	0.918770434620225	-0.360118161460551	0.918822565769665	-0.359831095623182	-0.00165083026624133	0.00142256154497006
8.4	-0.00193530241824851	0.000627039908383194	0.850836641270296	-0.498347760038762	0.850935010895347	-0.49814617804073	-0.00119255922830665	0.00259272515358619
8.5	-0.00101723693690441	-0.00046405689376194	0.763385488344068	-0.622651736112881	0.763437058365635	-0.622501278503382	-0.0021092336473571	0.00153686922142807
8.6	-0.000316023078400529	0.000510652816111138	0.658140701405024	-0.734401767143661	0.658309578904085	-0.734164896317379	-0.00369643444098725	0.00444208658407297
8.7	0.00152557069988582	0.000425047042205059	0.535463284793277	-0.827731759052246	0.535722957103632	-0.827516889839296	-0.00224552472821203	0.00692421311913209
8.8	0.00319726866768622	-0.000290790810566651	0.400213651941581	-0.900241382163605	0.400399170630423	-0.900102818087353	2.40689473301564E-05	0.008256143020927
8.9	0.00488079040975706	-0.00134858940744799	0.256104812784197	-0.950662088146106	0.256284002656239	-0.950492532525895	0.00336266735256501	0.00854539421016524
9	0.00640529820864604	-0.00350581263424831	0.10614090770952	-0.979857136477014	0.106449293669824	-0.979810914708416	0.00630610206367871	0.00675748742972964
9.1	0.00763367243599182	-0.00556154037355659	-0.0485056566041732	-0.984143987505477	-0.0481964124523635	-0.984103795116403	0.00888233359620662	0.00475225076906249
9.2	0.00822176862122448	-0.00841326381299825	-0.200542503330972	-0.963730083803564	-0.200195168363584	-0.963708704038676	0.0105716605182422	0.0012225021193502
9.3	0.00765929022059878	-0.0105552881352269	-0.347068166582384	-0.92067642343804	-0.346716618749512	-0.920651648333709	0.0105670972811205	-0.00210747113017892
9.4	0.00713344461495157	-0.0122878105152187	-0.48536929021232	-0.856322893353436	-0.485046471720229	-0.856414170049782	0.0096498639066886	-0.00526856932266413
9.5	0.00515169193627936	-0.0123981903552467	-0.613722567537682	-0.76998924050855	-0.613485806300068	-0.770040214940273	0.00604599402800777	-0.00602310629263478
9.6	0.00640136931356678	-0.0120940076325292	-0.724538399910307	-0.664136707295252	-0.724227758015311	-0.664276090964941	0.00683236499389055	-0.00493516340351472
9.7	0.00652467829747	-0.0133964313432276	-0.818067957181194	-0.544033055480184	-0.817781537538182	-0.54426618779934	0.00686299730094853	-0.00710531933021985
9.8	0.00604727168617013	-0.0143082276657576	-0.892523780428074	-0.41079821388517	-0.892271270305817	-0.410967370313286	0.00542605753177384	-0.00926204900812224
9.9	0.00570214158017287	-0.0151454791591776	-0.945752776915148	-0.266828626518513	-0.945501348517379	-0.267037750034441	0.00330713530912291	-0.0119163192376945
10	0.00306438937159035	-0.0161030205005619	-0.973814129878228	-0.116073643900758	-0.973662104100222	-0.116435248194548	-0.00326239257476292	-0.0136721388082581
10.1	0.00241516259119158	-0.0140553256677325	-0.979693237350233	0.0347234998198769	-0.979630566597906	0.0342934263480089	-0.00729951752610838	-0.00946200031340479
10.2	0.00262108440316929	-0.0139168444735993	-0.962921347831717	0.18624383421383	-0.962800424240392	0.185813795878559	-0.00877386859517311	-0.00676840494900056
10.3	0.00234934155828056	-0.0138552278773042	-0.92206750892891	0.333653735405078	-0.922085774370909	0.333113982083835	-0.00990967503343198	-0.00463531664653293
10.4	0.00230962583821619	-0.0144550175956917	-0.857965081612791	0.472266761862246	-0.85810224496437	0.471757901953386	-0.0104119687928673	-0.00350319225919577
10.5	0.000874181114969598	-0.0157271893718874	-0.774747488454459	0.59734397395424	-0.774919659103658	0.596914269129013	-0.012759758932157	-0.00361784644039747
10.6	-0.00095744602447831	-0.0153112596265595	-0.673940161272386	0.710905659238223	-0.67421154302216	0.71057698760807	-0.015668480980308	-0.000351596778190667
10.7	-0.00207298471028139	-0.0142008825274345	-0.555240460829127	0.806964199249619	-0.555539998072013	0.806656196208352	-0.0163845198966173	0.00416224906474155
10.8	-0.0022633723296202	-0.0131043754306924	-0.423243387719755	0.882807870580158	-0.423592724455808	0.882511128574349	-0.0151063892983718	0.00873433374546986
10.9	-0.00189675118750017	-0.0128646151776345	-0.282074015094109	0.936948076039617	-0.282462229493508	0.936825539901458	-0.012149946764295	0.0119125093842563
11	-0.00194846774382644	-0.0130679168839524	-0.134424066028571	0.97101940051559	-0.134859554475857	0.97092844411233	-0.00913993450293845	0.0143015554408112
11.1	-0.00171010439832859	-0.0133708146678971	0.0193051325543649	0.979922234726215	0.0188179877163418	0.979935678444094	-0.00479209288517717	0.0158063372068399
11.2	-0.00197062306477325	-0.0142466100552009	0.170753935218975	0.964378436824842	0.170298645565769	0.96445115433496	-0.0004090995870522	0.0156554779562208
11.3	-0.0025185873061862	-0.0149110428196408	0.317531750329814	0.92633127601539	0.317074493004007	0.926466966364439	0.00390084200686427	0.0143872310249951
11.4	-0.00343728147045902	-0.0160126385901602	0.457210506957625	0.866965540402134	0.456807827395918	0.867077764872949	0.00735947022272147	0.0116605335259681
11.5	-0.00601811146670366	-0.01570752242583	0.587884540043929	0.784876231331477	0.587566911843411	0.785177819119018	0.00779193611027726	0.00990230510324697
11.6	-0.00623620764089466	-0.0146400643222082	0.701009048635332	0.683115588814463	0.700794740293729	0.683441875504556	0.0111499234727271	0.00945252533322436
11.7	-0.00695529756297202	-0.0144370633995912	0.797894567868264	0.56685495779769	0.797692032918188	0.567159913529054	0.0141667258270397	0.00627357753976874
11.8	-0.00795296241976736	-0.0139413419780167	0.876512019464511	0.43662287989165	0.876330420530892	0.43707163608278	0.0159403629677523	0.00212566092209546
11.9	-0.00864338272273053	-0.0136708892704626	0.93419347339667	0.294895089141412	0.934087798743824	0.295343310063907	0.0162309902320481	-0.00373196393558261
12	-0.0115377090854909	-0.0134303545548411	0.966947182456247	0.145632103094679	0.966918608862811	0.145994596490805	0.0112375498474074	-0.0090944859907555
12.1	-0.0122576335741475	-0.0103486414495027	0.977758345639319	-0.00427627393679645	0.977687094593339	-0.00389376267748772	0.00760454530536687	-0.00909185461118689
12.2	-0.0126037875813044	-0.00902469335587226	0.965888257723165	-0.155873866062238	0.965905103346238	-0.155577161813109	0.00492063195831768	-0.00986394040116246
12.3	-0.0132649978636218	-0.00726433253903767	0.929777348385991	-0.304005836137115	0.929895809868911	-0.303700352008935	0.00201812898136631	-0.00998018926896005
12.4	-0.0132513154666947	-0.00541065072982713	0.870570806626091	-0.444219297694217	0.870633008076895	-0.443851554327076	0.000107884603110879	-0.00973619836171928
12.5	-0.0137323559671106	-0.00452405628961002	0.791959466889767	-0.571448331194436	0.792296220688706	-0.571058775561621	-0.00356347026144353	-0.0108364508161226
