# GHZ S RI R 50
0.2	-0.000140368097729053	-0.000297863637599612	0.949925170217808	-0.307787560106189	0.949702732806652	-0.307762199500567	-9.37039696349439E-05	-0.000247583162965991
0.3	-0.000371229491537216	-0.000228575694350098	0.890162971354318	-0.451561409346161	0.890006586053645	-0.451466027168093	-0.000382486129785126	-0.000422126909364221
0.4	-0.000400148409569289	-7.95505366052677E-05	0.808922783182782	-0.584077696317602	0.808934602947164	-0.584102834558115	-0.000556753335224987	-0.000370623582040703
0.5	-0.00040852495571206	0.00024550308566445	0.708205119544482	-0.702902196848596	0.708049845235533	-0.702800646330484	-0.000542841946810699	-5.41833090775293E-05
0.6	-0.000195245029820232	0.000214746978593125	0.590016085189671	-0.804093576606742	0.58989662896888	-0.80393170337794	-0.000362776018601503	-0.000225890154817297
0.7	-0.000245111931948904	0.000377813964269558	0.457891698118202	-0.88566280210148	0.457872862774092	-0.885550161408171	-0.000445362083250413	-0.000371132649147669
0.8	-7.22693809190328E-05	0.00043399632386215	0.314701050683607	-0.945970190289594	0.314669577798018	-0.945780179059653	-0.000610470867913149	-0.000366231461939004
0.9	-6.17949801684596E-05	0.000536886648255007	0.163787574964983	-0.983221186127241	0.163722416296059	-0.983129132541762	-0.000999694529882134	-0.000429374519866958
1	7.59109311041628E-05	0.000896653239490791	0.00893384538584547	-0.996223997757563	0.00888212403939409	-0.996192483813655	-0.00132504604950458	0.000209245738331613
1.1	0.000898959788469031	0.000506206404796119	-0.14554877824189	-0.985541044794787	-0.145564574950553	-0.98541041040922	-0.000796987704310181	0.000327628298791087
1.2	0.00112202618794316	-0.000932805993881524	-0.297059758593977	-0.950900161789795	-0.296983257237702	-0.950874019100761	-0.000395931872478485	0.000341096677683754
1.3	0.00102797327990489	-0.0028837687331579	-0.441197761231219	-0.893005917833094	-0.44117468735029	-0.892999295166936	0.000909802543799638	0.000578683650674757
1.4	0.000634872439948844	-0.00486790524151136	-0.574244711142791	-0.813411331375239	-0.574220489776596	-0.813389668665625	0.0026231141074519	-3.82089851180548E-05
1.5	0.000479304401901686	-0.00585493521030542	-0.693425106506326	-0.714384508565495	-0.69332317334555	-0.714299413775871	0.00455658476916321	-0.00144406480405766
1.6	-0.000634855184464568	-0.00638675546590555	-0.796182818675452	-0.597994650925746	-0.796108582270186	-0.597934519780727	0.00379677225270809	-0.00339918402426055
1.7	-0.00137269442390955	-0.00564267717675398	-0.879010505391947	-0.467306857181321	-0.879174808671031	-0.466789533640748	0.00282323563870898	-0.00391200117433802
1.8	-0.00192755242456478	-0.00501442904722261	-0.940966130879995	-0.324542530073623	-0.940854643344637	-0.324541257125239	0.00176056572160487	-0.00427322961050778
1.9	-0.00238030806824949	-0.00416273593865166	-0.979688296430819	-0.174926364263355	-0.979780943847345	-0.174437708423027	0.000748461045755483	-0.00401005564412546
2	-0.00209564351754354	-0.00364146257501836	-0.995093082313034	-0.0200351134300574	-0.99510499464805	-0.019989134682148	0.00100668249848828	-0.0038571506312551
2.1	-0.00285841791819226	-0.0039158442797023	-0.985829342664645	0.135228993255624	-0.985867472173506	0.135266240980801	9.58675055722485E-05	-0.00487613995402426
2.2	-0.0039500264119982	-0.00329069340380486	-0.952598397814068	0.286603454516597	-0.952523022987284	0.286666244704612	-0.00106040480591211	-0.0047359688195133
2.3	-0.00472503985250051	-0.00240593084512973	-0.89654558073585	0.430411463665601	-0.89616152105492	0.43092496767524	-0.00204572261834088	-0.00450117681389025
2.4	-0.00554207839619114	-0.00135514485224283	-0.817932034121113	0.565529503156411	-0.818200580191087	0.564943001202206	-0.00314635022785785	-0.00388255687222498
2.5	-0.00544518149518197	0.000165165842482226	-0.719983312295661	0.685883493515456	-0.720198918306444	0.685373193613164	-0.00290954337794615	-0.00300383950361555
2.6	-0.00536918244463848	0.000610258558418027	-0.604674066889668	0.788510244875952	-0.604568352488324	0.788326907622571	-0.00250043109213718	-0.00352726823044716
2.7	-0.00537991068392279	0.00149369643080454	-0.474340810995123	0.872791457858621	-0.474791802783329	0.87238537511622	-0.00284308856785484	-0.00384720286951546
2.8	-0.00483823096446307	0.00233918699088891	-0.334206329578541	0.935242340772987	-0.333537216424107	0.935399132946952	-0.00335208101716488	-0.00385900429172317
2.9	-0.0035936133749049	0.00294727894220228	-0.184072412128342	0.975671782677643	-0.184104022699184	0.975584427842489	-0.00327078869639132	-0.00322034652585817
3	-0.0021651012230871	0.00290174769227323	-0.0294164865607523	0.991735973536314	-0.0301185661255332	0.991580131208776	-0.00274840359441986	-0.00281005433040418
3.1	-0.000977094660853451	0.00279449238535752	0.123015978665354	0.984147973349538	0.123606831391338	0.984127964340678	-0.00234143819116626	-0.00244984190925858
3.2	0.000233190590621669	0.00232674330272755	0.274926757496244	0.952888768914224	0.274871698321146	0.952828644887603	-0.00188593316126732	-0.00202762630605823
3.3	0.00144823262109204	0.00155355094572302	0.419717737503279	0.89827008428314	0.419580475266355	0.898256448583178	-0.0010849974666301	-0.00176523062884246
3.4	0.00230011399907482	0.000511496673591747	0.553846729389031	0.821777595431444	0.553685030831326	0.821896206639869	2.55289026463485E-05	-0.00194074542963384
3.5	0.00317480708262699	-0.00105994174886946	0.674047008885256	0.7260427106725	0.673967603821503	0.726081769071385	0.0012770356219773	-0.00290115632509051
3.6	0.00262525287808677	-0.00258091160815432	0.77840655421926	0.613144379504531	0.778645592719239	0.612694745587098	0.00109030826880095	-0.00416877225516869
3.7	0.00220124593817426	-0.00359991598060102	0.864319854593774	0.483925867394008	0.864202259097483	0.484069467765739	0.000858006204172768	-0.00469142441563035
3.8	0.00142296853185888	-0.0045758124319618	0.928401553783391	0.344271365605798	0.928456522824288	0.343892164461396	0.000535771627672811	-0.0052452194621592
3.9	0.000631130716318204	-0.00527809200046973	0.970408375360702	0.194971437237843	0.970173227849279	0.195639360539209	-0.000259050000846959	-0.00573914250730708
4	-7.74423406870734E-05	-0.00600018424897359	0.989182075318097	0.04281164277459	0.989143619770992	0.0429146263923658	-4.06213279024437E-05	-0.00617451393129599
4.1	-0.0018279424722022	-0.00714830878775643	0.983470607376588	-0.111726338225125	0.983286947162681	-0.11159835656348	-0.000946117370186388	-0.00774167396585458
4.2	-0.00410587915587091	-0.00716965375853061	0.95336162953513	-0.263490511357913	0.953400013592167	-0.262837915861261	-0.00245548878301319	-0.00839971917472119
4.3	-0.00618962265771072	-0.00687440737817441	0.900985842467477	-0.407381176517772	0.900850791779434	-0.407269572253701	-0.00406735303910177	-0.00890770732896848
4.4	-0.00852055197605939	-0.00587714710687564	0.826820737094012	-0.542136122684315	0.826656509561769	-0.542002223122568	-0.0060447962306473	-0.00883331222804881
4.5	-0.0100052119616191	-0.00424048443597928	0.732147751731817	-0.66416343323137	0.731960280232732	-0.663989610632648	-0.00715551577861055	-0.00801725704557818
4.6	-0.0115868818040739	-0.00298864969658952	0.619273497794137	-0.769337121734282	0.619617994044935	-0.768643010966653	-0.00822519535724404	-0.00835406239916211
4.7	-0.0130929439793668	-0.00114420683041658	0.492914064587765	-0.855433516730419	0.492932156584444	-0.855078875172007	-0.010015493588348	-0.00840927701528187
4.8	-0.0141157660983965	0.00131792768665858	0.353979162517798	-0.92117185797809	0.354201422036428	-0.920857475709424	-0.0117268300642112	-0.00801914017859499
4.9	-0.0141736220614071	0.0038538358007539	0.207017230187404	-0.964155505918495	0.206797961730563	-0.964162253777512	-0.0130978163666881	-0.00712618154898809
5	-0.0133429756144731	0.0061936525933537	0.0548133244236713	-0.983580290169068	0.0549908277804642	-0.983336822226838	-0.0136450084429175	-0.00586164016285248
5.1	-0.0120309678009825	0.00822348385192088	-0.0974440576957192	-0.980228786060396	-0.0971130953862045	-0.980005665078184	-0.0143040987530394	-0.00462161702746159
5.2	-0.0100205178317203	0.0102479887452727	-0.248314004561683	-0.953310613168021	-0.247824166930128	-0.953285517607378	-0.0146770030641768	-0.00273261890056042
5.3	-0.00753523603826564	0.0115659397495693	-0.393011144373169	-0.903109522395573	-0.392672679803346	-0.903325804845734	-0.014328874579898	-0.0007233156274052
5.4	-0.00471101701285765	0.0126834915199048	-0.528012224740271	-0.830980412915069	-0.527801075315413	-0.831180770155364	-0.013305429314787	0.00129771238649471
5.5	-0.00156170755934486	0.0123106030756196	-0.649809950198585	-0.739419906952587	-0.649572553029215	-0.73961407845377	-0.011433404075705	0.00165292594593201
5.6	-2.91413078915916E-05	0.0121487807342853	-0.756869731081724	-0.629923101367702	-0.756681163230298	-0.630094485182537	-0.0119447503481275	0.00167633735622349
5.7	0.00208096161282868	0.0122148997948635	-0.845353583397598	-0.504723176816776	-0.845225200273033	-0.504942162185806	-0.0122074185595322	0.00320579164313778
5.8	0.0042828691456721	0.0118792318484867	-0.913001915901904	-0.367434625717061	-0.912934737051304	-0.367718257629323	-0.0120087428936746	0.00503299562940135
5.9	0.00638786970075905	0.0111777410653028	-0.958694225186926	-0.221902172277356	-0.958708669236518	-0.221985367397457	-0.0113599820913109	0.00736722319990031
6	0.0091999697794151	0.00968013654440426	-0.982174954564017	-0.0708021323128722	-0.982056247657745	-0.0708599379662954	-0.00873709108684799	0.00918146700231393
6.1	0.0100942977290619	0.0068808281638651	-0.980848553650203	0.0828596946447281	-0.980722617200116	0.0827118616313936	-0.00725518894453414	0.00874099124012896
6.2	0.0103819148014475	0.00491042600729163	-0.955718028808911	0.233712181473347	-0.955704459821768	0.233510426942608	-0.00646822787907411	0.00875433768794905
6.3	0.0102788573505721	0.0026575944785854	-0.907963518284131	0.37874934376626	-0.907958995362649	0.378565002793405	-0.00575264887013257	0.00849440531958418
6.4	0.00972451131395206	0.000472204502939294	-0.838555615915818	0.514942331243659	-0.838524009210041	0.514732761843129	-0.00538742040785215	0.00821158091317818
6.5	0.0088062240000836	-0.00187316627810994	-0.748073337605962	0.639133862984964	-0.748097373634349	0.638930829365458	-0.00485744335977216	0.0078289415661876
6.6	0.00744178829082116	-0.0037859226660997	-0.639719460095148	0.746645984066185	-0.639792812327372	0.746395281898657	-0.0046168926964273	0.00763990218035173
6.7	0.00587440700480534	-0.00541632072550273	-0.516545202530855	0.836565479936195	-0.516647224216176	0.836345489865032	-0.00419100069334387	0.00772340806045266
6.8	0.00417989013512497	-0.00664024816948642	-0.380774428366979	0.906630108279936	-0.380915073117385	0.906460149100718	-0.00362171904143517	0.00786503387519856
6.9	0.00227189550811324	-0.00749696594769784	-0.235409899976366	0.954714207858904	-0.235635153851935	0.954604131678151	-0.00271291831275582	0.00796265535717474
7	0.000396785770416522	-0.00798734685770339	-0.0846842147746383	0.978836304619885	-0.0848925981954408	0.978746737097892	-0.0017979002426966	0.00740548262861866
7.1	-0.00164537499943865	-0.0077500252091312	0.0672893554813272	0.980473461146299	0.0670888894427534	0.980340494209636	-0.00137442958981999	0.00724821964846545
7.2	-0.00315018428596778	-0.00714423026354904	0.218503676900041	0.958495546269512	0.218223204434416	0.958460396798937	-0.000434509631906289	0.00730911762002011
7.3	-0.00457778870829324	-0.00642617728799471	0.364436504221378	0.913068341517739	0.36420162955571	0.913093746057793	0.000599957573199576	0.00708884181207699
7.4	-0.00555324755927708	-0.00540270491509156	0.501313381397928	0.845361365255813	0.501100983379079	0.845411525206209	0.00157480413649439	0.00664809913521896
7.5	-0.00613186825331014	-0.00470673023886733	0.625644653306348	0.758179871633298	0.625475684056486	0.758248422797155	0.00286008537230263	0.00573663230638922
7.6	-0.00684590267183308	-0.00388645787677622	0.736390277525787	0.652502687944037	0.736133416592001	0.652583590398174	0.0033540384381851	0.0042045095534564
7.7	-0.00716249878883535	-0.00259598315420824	0.828787625541051	0.530340137543006	0.828601850687271	0.530555630419804	0.00336884037238794	0.00318243794068555
7.8	-0.00686810669163081	-0.00132256477946693	0.901084848761773	0.395461771830975	0.900981097699935	0.395685873868584	0.00338544710144268	0.00234455058465516
7.9	-0.00639359410592339	-4.48305669070855E-05	0.95165277386775	0.251512992314148	0.951514152971644	0.251691339460145	0.00344622752021978	0.0020959016598561
8	-0.0046352168390111	0.000692811444730345	0.980127279855773	0.100936430375716	0.980102773176421	0.101198555300559	0.00455063743388818	0.00160215972659949
8.1	-0.00446431644692838	0.000537610550337577	0.983944018991467	-0.0529793242886702	0.98397155403469	-0.052724020458105	0.00413321793305024	-0.0006068708006569
8.2	-0.00412110474469257	0.00127707109038999	0.963727502546797	-0.20487794696785	0.963774014431241	-0.204561101966417	0.00260377849631529	-0.00155735825062806
8.3	-0.00359086019171415	0.00207204196478961	0.920581854532201	-0.351788690033384	0.920631465978624	-0.351501573226717	0.000965879714999463	-0.00177008132666537
8.4	-0.00281987450879283	0.00294953325607672	0.855439204263448	-0.49066163296413	0.855535751134589	-0.490459139505591	-0.000795341489314929	-0.00109751038169633
8.5	-0.00105804375205051	0.00387594199177698	0.768576649040647	-0.618174425354603	0.768627250463266	-0.618023432166922	-0.00080295398836255	0.000672730491189476
8.6	0.000395386850161011	0.00319054553576304	0.663062160959453	-0.729393424058382	0.663229279007863	-0.729155460148287	-0.000412237535223094	0.000470540459748522
8.7	0.00131779712676687	0.00311844994109176	0.542187112680774	-0.823475652059269	0.542445071338195	-0.823258669738739	-0.00076620514969648	0.00083823814019658
8.8	0.00281231044012613	0.00289303298982746	0.408089115968158	-0.897966894911956	0.408273703630769	-0.89782664406634	-0.000903560463669207	0.00137812213122077
8.9	0.00438442658155398	0.00223427590746113	0.263523228823574	-0.9508150198805	0.263701570077493	-0.950643810048277	-0.000581782453260804	0.00232342720662471
9	0.00642542915860013	0.000875839006101339	0.112688050130418	-0.979407879176067	0.112996209390564	-0.979359593581254	0.000992301145359654	0.00336963820392066
9.1	0.00786647227180601	-0.00117682550178385	-0.0398919360172053	-0.985666974613959	-0.0395827015837667	-0.985624013856866	0.0030953571769879	0.00335973671505831
9.2	0.00909409898857261	-0.0033731260370005	-0.192766850190312	-0.968031668194184	-0.192418772639657	-0.968007236036808	0.0056851055991813	0.00282392456118677
9.3	0.0096758973967018	-0.00568550644322096	-0.341017230780893	-0.926481324088264	-0.340664699005318	-0.926453711279275	0.00843612102144336	0.0012164640194199
9.4	0.00979894870990761	-0.00782495038791721	-0.480586902266514	-0.862127335266435	-0.480262549858484	-0.862216558185795	0.0107344365961717	-0.00124429703442841
9.5	0.00941399155526402	-0.0103282008426804	-0.608015844738337	-0.7778236463831	-0.607777981703103	-0.777872506456924	0.0123348101395261	-0.00577218041354484
9.6	0.00735493782518764	-0.0116858557656447	-0.722425154941915	-0.674341373848691	-0.722111556550346	-0.674478685574247	0.0100644593417983	-0.0099411345406114
9.7	0.00611134615048069	-0.0116867093300287	-0.818649314305732	-0.553752954256285	-0.818359339986073	-0.553985213009512	0.0070491592064264	-0.0122725310562013
9.8	0.0052215157670184	-0.0117629826300825	-0.894759864690052	-0.419926522808998	-0.894504584850831	-0.420094795327345	0.00350278016279265	-0.0135549358046312
9.9	0.00439730630157898	-0.0112522486947565	-0.949299580148895	-0.276285901523377	-0.949044889183243	-0.276494215735511	-0.000124443761365655	-0.0131508912522146
10	0.00465495010572688	-0.011481017027978	-0.981881949754308	-0.125358907076506	-0.981725464385284	-0.125722589143808	-0.00181820413127241	-0.0124856860980289
10.1	0.00312039526677969	-0.0119744535677098	-0.989160348115942	0.0295838755863697	-0.989094683564814	0.0291500810373104	-0.00544818282323329	-0.012708433041159
10.2	0.00214506522697841	-0.0114036527428884	-0.972491529724014	0.182909863459626	-0.972367293575445	0.182476610421005	-0.00922071088853472	-0.0106997069648221
10.3	0.00147844488985792	-0.0108433702382976	-0.932445647165591	0.331859907886505	-0.932461210758029	0.331315021563357	-0.0122747553898811	-0.00777728678124379
10.4	0.000927046811812884	-0.0105853146848789	-0.869931350303764	0.473061149437841	-0.870067398910915	0.4725459328813	-0.0144375515435595	-0.00400740295455212
10.5	0.000837236473687576	-0.0102985917389937	-0.785108025421127	0.603386740536075	-0.785281612889742	0.602951539862359	-0.0141997014456374	0.000107593990046456
10.6	0.00034603004326542	-0.0108037465525428	-0.681350687957107	0.717300889121814	-0.68162443998664	0.716968678834123	-0.0131227519282262	0.00270020250263496
10.7	-0.000363021696055206	-0.0107377645033089	-0.561770990337927	0.814406272546848	-0.56207316921173	0.814094822846138	-0.0116616658338662	0.00508153923305042
10.8	-0.000948311446902703	-0.0108304715964743	-0.428284590891764	0.8919237853269	-0.428637454850567	0.891623675627503	-0.00983697187862952	0.00702506762904923
10.9	-0.00164852997765523	-0.0106662695164226	-0.283987170368116	0.947687879802022	-0.284379841890608	0.947564488364717	-0.00770630337308189	0.00864981566718299
11	-0.00209936132775916	-0.0108627931738736	-0.133152454737485	0.979227118123071	-0.13359169866473	0.979136483087137	-0.00495180180289171	0.00946702765392597
11.1	-0.00278254353562003	-0.0106531537027353	0.0199650435468371	0.988196575397732	0.0194737872974649	0.98821037963578	-0.00246765772722996	0.00982691185360633
11.2	-0.00315429286578488	-0.0106783235415728	0.1734786644846	0.973290061960932	0.173019158478668	0.973363991221179	0.000450330185522743	0.00970227675916734
11.3	-0.00354956900720501	-0.0107206757303925	0.32276692939179	0.934322136091311	0.322305676834959	0.934460211651401	0.0035125638560035	0.00906827016979279
11.4	-0.00406386321005341	-0.0107862021744715	0.463828733697383	0.872321653781694	0.463423223558626	0.872436152794138	0.00659521888945095	0.0081265759365944
11.5	-0.00455778022021079	-0.0112997241066634	0.592974440859149	0.790159821753021	0.592654733320262	0.790463942105454	0.00995911173237563	0.00532915490361852
11.6	-0.00644272964262996	-0.0113871471855946	0.70927926452515	0.688542684208253	0.709063458424508	0.688872620683213	0.0105648072665685	0.00201119750720812
11.7	-0.00766814218069399	-0.0104071243201548	0.80768396875546	0.569468001918136	0.807480572030232	0.569776648119794	0.0107006576296203	-0.00027878913594293
11.8	-0.00881136755988954	-0.00953578700391915	0.886125142839584	0.436656710421509	0.885943895782102	0.437110206055682	0.0102561771804203	-0.00229521302273915
11.9	-0.00961658642460016	-0.0079903442164304	0.942928832367871	0.293957806931769	0.942823901644762	0.294410090228393	0.00953083068575862	-0.00310109800628668
12	-0.00971442692982855	-0.00719958357578769	0.977997766617504	0.143750250675845	0.977970181775475	0.144116793459722	0.0109175097102973	-0.00455021669461853
12.1	-0.0110855520545793	-0.00659131291142698	0.987693044793069	-0.0108850982330827	0.987623636082677	-0.0104982106964901	0.0100215259583402	-0.00799063445388137
12.2	-0.0122683087479739	-0.00523556715701353	0.973355559132189	-0.164135166379497	0.973374666884349	-0.163835947307783	0.00793609624917344	-0.0102404261562021
12.3	-0.0131962951473136	-0.00357778801787717	0.935623600817918	-0.313135251424748	0.935745221242466	-0.312827976762707	0.0053410754551388	-0.0119180506987255
12.4	-0.0141237695563086	-0.00158573407512814	0.875870419583869	-0.454859944795858	0.875935889187558	-0.454489055426357	0.00217846435781898	-0.0124111647689041
12.5	-0.0136359714148613	0.000786109826353493	0.793308022022466	-0.586027713987481	0.793652495846606	-0.585638123875556	0.000270391010441557	-0.0117512969107435
