# GHZ S RI R 50
0.2	-0.000472699663591657	-2.91154293545888E-05	0.948626770996349	-0.308085278592943	0.948404605652944	-0.308059794783724	-0.000406150801469634	-1.45000967162954E-06
0.3	-0.000508705867464094	0.000149424517172486	0.888534685552256	-0.451697453372412	0.88837860011233	-0.451602069655288	-0.000495012831688249	-9.24795998507717E-05
0.4	-0.000214867143205447	0.000267231318302393	0.806912613024619	-0.583846433962172	0.806924386962182	-0.583871539448548	-0.000354206680676658	-9.71569473653382E-05
0.5	-0.000178073072728992	4.47494934241253E-05	0.706145617271459	-0.701821903854489	0.705990758487594	-0.701720473104012	-0.000300390478132712	-0.000332081231471367
0.6	-0.000415562924332164	0.000253694909303895	0.588374893545171	-0.80276283464038	0.588255769122525	-0.802601228939025	-0.000548588546535458	-0.0002883628247271
0.7	-0.000255229238592477	0.000667726729673475	0.456282418844535	-0.884000854748806	0.456263700646186	-0.88388845175349	-0.000424429542046041	-0.000232053850254348
0.8	0.000154398912976657	0.000803484743500738	0.313326603290313	-0.943774904143938	0.313295326379099	-0.94358535332401	-0.000385557369062731	-0.000197325883559041
0.9	0.000682069708572058	0.0010008403369352	0.163022457829412	-0.980512840933397	0.162957510648793	-0.980421025434194	-0.000337514237997104	-0.000199444654284318
1	0.00148359387043355	0.000152514692977667	0.008970372091184	-0.993752011922585	0.00891877724175141	-0.993720579214246	-0.000112584978901371	-0.000691380038506845
1.1	0.000846693592203077	-0.00055145158670553	-0.145560608413448	-0.982970070548272	-0.145576314006622	-0.982839763322505	-0.00100871637024582	-0.000736253782537456
1.2	0.000737425316953711	-0.00130881386742726	-0.296431620514651	-0.948003982851495	-0.296355338879471	-0.947977937912617	-0.000849035741375351	4.53530747263943E-05
1.3	0.000265275422212924	-0.00273652032016159	-0.439780821426575	-0.890227060049058	-0.439757820049382	-0.890220457223504	0.000232080766479739	0.000815672460443163
1.4	-0.000426951825661313	-0.00409145514712408	-0.57226206959894	-0.811161217025895	-0.572237927762607	-0.811139611374807	0.00178153801834129	0.000718562536578372
1.5	-0.00150377516338417	-0.00435949623895806	-0.691555375816743	-0.71223543492004	-0.691453720598822	-0.712150599162508	0.00288710620402037	-0.00013544123705461
1.6	-0.00115614596806741	-0.003319893801276	-0.793210936577319	-0.595725551536754	-0.793136977136243	-0.595665648418126	0.0035415847837764	-0.000821203783594484
1.7	-0.000531651495021089	-0.0033751021694329	-0.875285518283978	-0.465962291324985	-0.875449466245545	-0.465447097639764	0.00371573469827588	-0.00222646186491291
1.8	-0.000512164888592698	-0.00369043192269403	-0.937021143248874	-0.324141304770598	-0.936910089229353	-0.324139935189718	0.00304040602519583	-0.00349344761227623
1.9	-0.000671450898368115	-0.00422465706189072	-0.975796236851811	-0.175148396234317	-0.975888974422152	-0.174661686608161	0.00220154773876939	-0.00448163649427497
2	-0.00246361422096471	-0.00488483950368503	-0.99043535949097	-0.0208558199742047	-0.990447258480355	-0.0208100665735862	0.000467049891441705	-0.00534078368056742
2.1	-0.00345309063350543	-0.00313393178065181	-0.981462696926301	0.132458357840191	-0.981500726771279	0.132495347048063	-0.000566817332195052	-0.00442223004203837
2.2	-0.00350179658595577	-0.00246592179398004	-0.949233288140294	0.282951009662647	-0.949158396787035	0.283013721564873	-0.000765982061214739	-0.00430431978711698
2.3	-0.00370075135193034	-0.00200102909254488	-0.893963454797827	0.426199424419218	-0.893582381633224	0.426711820074834	-0.00129945473170691	-0.00444505589423085
2.4	-0.0038837968640765	-0.0018837541291378	-0.81593694184562	0.560655524323445	-0.816202600842524	0.560070848894293	-0.00187471732432403	-0.00458266393857608
2.5	-0.00512591695126462	-0.00242841993375473	-0.719503814264151	0.67968810490147	-0.719716286140059	0.679179275243705	-0.00285685446762174	-0.0054420118953101
2.6	-0.00703635714109771	-0.000604215462942402	-0.606209044929254	0.783042735137173	-0.606102854075985	0.782860509544092	-0.00409846006070249	-0.00455989861976152
2.7	-0.00709050582002005	0.00160929644829367	-0.476708100286264	0.867921959578625	-0.477155861988071	0.867515163705317	-0.0043009563827463	-0.00370542882640789
2.8	-0.00602962648775888	0.00334425172088432	-0.337509871121233	0.93074604958943	-0.33684359158079	0.930905464002693	-0.0042337280813259	-0.00299947481714298
2.9	-0.00418296533350978	0.00424284102884973	-0.188719186507788	0.971710052114846	-0.188750234205648	0.971622795222248	-0.00353406930711958	-0.00223170791202313
3	-0.00249445309225994	0.00463236616907831	-0.0352740878888197	0.989879001198047	-0.0359740485795782	0.989719241045046	-0.00276376508678787	-0.00153949223054212
3.1	-5.19165653136006E-05	0.00451646056668108	0.117914823601991	0.983410803475676	0.118504963913082	0.983393782978166	-0.00123311081939724	-0.00127722457440307
3.2	0.00159282945060213	0.00325511123826779	0.269539722969115	0.952831690607423	0.269485062571378	0.952771373964931	-0.000476222558133909	-0.00171750840396324
3.3	0.00285745625131347	0.0017743648216738	0.414108312721373	0.899478971284763	0.413971304529708	0.899464578775208	0.000278572163722691	-0.0021241499407422
3.4	0.00334618322852803	-0.00013749100603253	0.548676465646092	0.824722513095215	0.548514129953622	0.824840102617797	0.00100559566304976	-0.00308392818779426
3.5	0.00270926250397714	-0.00139451578532039	0.670710795783261	0.729569336058716	0.670631174507577	0.729608018582459	0.000862421813427125	-0.00372041419815405
3.6	0.003014418282693	-0.00182470902677712	0.774907823457486	0.616602636978905	0.775148930276498	0.616154456834849	0.00150517311730708	-0.00404456463580254
3.7	0.00321280584367923	-0.00331565926052212	0.861364598129025	0.488564301418835	0.861246243728064	0.488707204616172	0.00176000999107863	-0.00507225865118334
3.8	0.00267354096831254	-0.00484055613892508	0.926719229244201	0.34963920614625	0.926776365759638	0.349260206213039	0.00155735024263534	-0.00610298623567589
3.9	0.0019672096174754	-0.00662379708555489	0.970194942503334	0.20017072945202	0.969956133253235	0.200837981672007	0.000790957704821782	-0.00749517854837476
4	-0.000888605369663214	-0.00825535618435069	0.988787192606391	0.0475673258680085	0.988748248428897	0.0476701046382566	-0.00092844258169487	-0.00862807227878575
4.1	-0.00310412535853924	-0.00737292717513234	0.984306198907225	-0.105567167600671	0.984121710147865	-0.105440321529179	-0.00206741640370956	-0.00829918836338491
4.2	-0.00466839136756526	-0.00692743154326739	0.956089137809246	-0.257716595807116	0.956123412921977	-0.257063036435967	-0.0028460304330869	-0.00863171339459809
4.3	-0.00616190343026056	-0.00650539011624483	0.904878743638972	-0.402539392182885	0.904742801955034	-0.402428434315309	-0.00391818261661801	-0.00908699460327163
4.4	-0.00745753411928729	-0.00602310837334632	0.831149082906251	-0.538032495285882	0.830983841717219	-0.537899374492944	-0.004957811869997	-0.00949078584852497
4.5	-0.00967982097960639	-0.00652142992828522	0.738014953787931	-0.659662674588003	0.737825952277916	-0.659489999416943	-0.00671828092725529	-0.0105853439473526
4.6	-0.0130020929167913	-0.00446714961375813	0.627026452399279	-0.767347745847441	0.627366982494355	-0.76664876576542	-0.00922330735494734	-0.0101837494533071
4.7	-0.0148287863379016	-0.00183614304183784	0.500556419455198	-0.855538491241061	0.500572223273616	-0.855182326050675	-0.0111926377977994	-0.00967006081971858
4.8	-0.0159701466528718	0.00139992574988621	0.361329118565776	-0.922773483473798	0.361550305916804	-0.922456369199395	-0.0129962075686085	-0.00872992372485546
4.9	-0.0157852198135327	0.00454541609113755	0.21444251067286	-0.967050712223056	0.214222311724463	-0.967058969208283	-0.0141905946473918	-0.00743143124540009
5	-0.015039236771404	0.00764768937914394	0.0619861612943536	-0.989625537544678	0.0621631372919469	-0.989379249363201	-0.0148956768344024	-0.00562066375173362
5.1	-0.0123109534908446	0.0105564953075415	-0.0932782369199076	-0.987548957586849	-0.0929460686523447	-0.987322643960151	-0.0144268117052281	-0.00372382105212801
5.2	-0.00902450181967798	0.0119702279038832	-0.245674464158331	-0.96082629007174	-0.245181454282723	-0.960798814103545	-0.0139082851671373	-0.00241633322924984
5.3	-0.00595479049617224	0.0120296917531275	-0.391762798994245	-0.911179979714999	-0.391421004035959	-0.911396277780611	-0.0132450463528183	-0.00141055779509923
5.4	-0.00387690674025874	0.0113326148749672	-0.528774725936605	-0.839869029721543	-0.528561040703866	-0.840070112586784	-0.012960221642828	-0.000828064724154246
5.5	-0.00391377449947733	0.0120397914441326	-0.654047036828523	-0.747174625008309	-0.653807178316041	-0.747370030275145	-0.0138924792475919	0.000719289585853557
5.6	-0.000341589396164218	0.0144046536418803	-0.761408906413998	-0.635628917566634	-0.76121871353042	-0.63580126017917	-0.0123200338321969	0.00295448235683307
5.7	0.00347818307526234	0.0137382654138623	-0.850696813413804	-0.509888593608094	-0.850567109543916	-0.510108967257445	-0.0111026996024175	0.00370201667465935
5.8	0.00663533572820771	0.0121377098239106	-0.919639932301607	-0.371558224552795	-0.919571839721276	-0.371843982968636	-0.010161541697941	0.00443154077256498
5.9	0.00903605514057377	0.00881055807053976	-0.966510065151654	-0.223924909103929	-0.96652460994291	-0.224008789652267	-0.00926127358622801	0.00456474719184354
6	0.00742442882436139	0.00523138908017762	-0.988589627120517	-0.0705517265089468	-0.988470192633095	-0.070609992614038	-0.0104828445796142	0.00469260395924372
6.1	0.00662682364274763	0.00598829637640021	-0.987435445780436	0.0827534393458256	-0.987308571545689	0.0826047061806129	-0.0101648767602796	0.00739614631414595
6.2	0.00745521412172135	0.0057530867215899	-0.962969079735048	0.235255208540277	-0.962955362750303	0.23505193740929	-0.00879651713737624	0.0087017350285554
6.3	0.00845856354687113	0.00476549002274558	-0.914721486771297	0.382252604476944	-0.914717047382574	0.382066839097774	-0.00717973047479619	0.00938615082069441
6.4	0.00948918804384916	0.00262354528948607	-0.843679112226966	0.519738554237432	-0.843647584170497	0.519527475324864	-0.00553650049940504	0.00906215824232841
6.5	0.00922743105792252	-0.000251736642534875	-0.752956797111591	0.643283663974193	-0.752980986162587	0.643079307494394	-0.00458755510821529	0.00820583502953239
6.6	0.00874794938048896	-0.00289613911653918	-0.644677172337568	0.753362903230631	-0.644751300173945	0.753110123098391	-0.0037073560562264	0.00746262227053996
6.7	0.00695218614792576	-0.00568757120575192	-0.519234132974862	0.844679110739309	-0.519337459502075	0.844457464742199	-0.00355198475831198	0.00668139651625556
6.8	0.00450075198627438	-0.00732266934081208	-0.381350134614682	0.914842592680608	-0.381492352133616	0.914671665132555	-0.00358780489699339	0.00663045906445561
6.9	0.00180402805396945	-0.00807425266655333	-0.234876064528708	0.962419793174241	-0.235103267519189	0.9623094350316	-0.00319906395139788	0.00685488350754461
7	-0.000419644546809198	-0.00746941355562233	-0.0830894898803321	0.988226239688319	-0.0833000470191016	0.988136340403132	-0.00242870562190844	0.0072747924806511
7.1	-0.00154071221562755	-0.00703503982261747	0.072771786657708	0.989022219355826	0.0725688434836658	0.988889044015997	-0.0010286001551475	0.00714839898517621
7.2	-0.00279735388540245	-0.00675441361874619	0.225549696197047	0.964974766981678	0.225266780506145	0.964940884754942	0.000167712818038354	0.00676751031955392
7.3	-0.00418949075855049	-0.00629267496909065	0.37237753650317	0.918026959632073	0.372141001384121	0.918053882134762	0.00123480132805876	0.00617560372696844
7.4	-0.00540020104813799	-0.00560479383367817	0.510470331690421	0.84941287274809	0.510256467692774	0.849464704437508	0.00191958387576888	0.00528265865521766
7.5	-0.00701617969693169	-0.00428819650996421	0.637537052316141	0.759144599714007	0.637367250924078	0.759215201843009	0.00220459564183658	0.00483172153238545
7.6	-0.00651821179905058	-0.00214289806126666	0.746727060401042	0.64954120085352	0.746469438412594	0.649624946315637	0.00368617522122847	0.00430393065179677
7.7	-0.00540621517110517	-0.00129234111512473	0.837834203722685	0.525766942250792	0.837649367097293	0.525985212032448	0.00472691167871796	0.002897977246878
7.8	-0.00412581229226034	-0.00124252285708921	0.909250617201652	0.389183607446023	0.909148400347986	0.389409789844848	0.00542810944244045	0.00111333000924387
7.9	-0.00340156040768777	-0.00232921944090582	0.958713925922319	0.242771586762041	0.958576516322024	0.242952210366929	0.00546458041450608	-0.00108919399595535
8	-0.00600141674930761	-0.00391341280731902	0.982903321994908	0.090218660024151	0.982881685854385	0.0904814997231466	0.00316526865306944	-0.00330276605373641
8.1	-0.00732017629328646	-0.000549799581048258	0.984677046615001	-0.0619910152300703	0.984706936935265	-0.061735646571547	0.00164681797342778	-0.00222834383760686
8.2	-0.00636020920868376	0.00166786008187582	0.963357917601561	-0.21404229004882	0.963407409777253	-0.21372537527215	0.000925847239114563	-0.0021112910928595
8.3	-0.00496439211573741	0.00345872024595485	0.918204366419404	-0.361184977182631	0.918256839320989	-0.360898014792361	9.89103665564656E-05	-0.00167332688001161
8.4	-0.00232878259023091	0.004280851364993	0.850094917616497	-0.499210331339904	0.850193495676119	-0.499008902726686	-4.01592606514517E-05	-0.00118223749498668
8.5	-0.00163715116932616	0.00255016568588414	0.762601870603433	-0.623355702921654	0.762653591097779	-0.62320532457266	-0.00104491356354521	-0.00186004930222182
8.6	-0.00172982101952199	0.00449425557240357	0.657236223919233	-0.735023780558322	0.657405338874367	-0.734787129898027	-0.00194856104506754	0.000186869890385358
8.7	0.000645876605201374	0.00575649168563729	0.534432781555643	-0.828190568561399	0.534692650804544	-0.827976030932256	-0.00108546832881933	0.00143225888557169
8.8	0.00369873572076521	0.00593919465246051	0.399096727923752	-0.900520862286412	0.399282368776416	-0.900382539669824	-0.000173274922789542	0.0021115247926151
8.9	0.00727569404915555	0.00486656060578281	0.254911575273834	-0.950769293997123	0.255090930734352	-0.950599988754337	0.00150925172081975	0.00273280462623424
9	0.010199272676704	0.00151768081085706	0.104807413110264	-0.979736306810413	0.105115778149561	-0.979690508205488	0.00356511098535282	0.0022577840495802
9.1	0.0120708750722714	-0.00199042525513787	-0.0498460488554264	-0.983612080897198	-0.0495368950579647	-0.983572335920236	0.00598060637806192	0.00122647375380795
9.2	0.012361739265175	-0.0066039952411109	-0.20168255791492	-0.96286219211835	-0.201335412765149	-0.962841282041794	0.00771985308174553	-0.00122206492009757
9.3	0.0104812008269635	-0.0100465211483053	-0.347962278152909	-0.919599987521149	-0.347610946956971	-0.919575664459828	0.00836107189033596	-0.00356608713605836
9.4	0.00800076669478658	-0.0124265279896458	-0.4860435223969	-0.855094008291968	-0.485721056148639	-0.855185607806062	0.00864256780768882	-0.00602723360270538
9.5	0.00357851814396215	-0.0114247853597334	-0.614090579081762	-0.768570888668949	-0.61385409008861	-0.76862209932971	0.00703942376737988	-0.00738435427661928
9.6	0.004690953892209	-0.00874999056284032	-0.72452568438108	-0.662702111189599	-0.724215500594157	-0.662841687614347	0.0079583547398859	-0.00833781657527738
9.7	0.00584371001558471	-0.00906712958173309	-0.817759415731131	-0.542664725233345	-0.817473521707131	-0.54289789918403	0.00692445285168387	-0.0112975384927712
9.8	0.0064103261354039	-0.00992066926958995	-0.891938745177283	-0.409511494632969	-0.891686668973204	-0.409680704523276	0.00443601448160142	-0.0133147727475167
9.9	0.0066979167143284	-0.0117455915038526	-0.944864584433292	-0.265671190929111	-0.944613640789369	-0.265880289028112	0.00169031366951853	-0.0147430152898838
10	0.00284046599450326	-0.0134714810495653	-0.972640021953688	-0.115208852481259	-0.972488458170482	-0.115570100931387	-0.00357558328527969	-0.0151807152877989
10.1	0.00170330372585248	-0.0100509406499365	-0.978416786579839	0.0352787752670897	-0.978354459440856	0.0348492144071516	-0.00648284361437856	-0.0119580983646582
10.2	0.00289612873245104	-0.00917537000362875	-0.961559176513349	0.186516113075789	-0.961438642071527	0.186086573601161	-0.00831611258098477	-0.00990295671317967
10.3	0.00389715006428396	-0.00927124143622136	-0.920667344282118	0.333596531469349	-0.920685817462847	0.333057521429096	-0.0100065957164678	-0.00757228102581207
10.4	0.00498911187480919	-0.0110689196304578	-0.856632059522811	0.471835216402921	-0.856769167745135	0.471327108427063	-0.0107123168286374	-0.00547998212384732
10.5	0.00321816519738705	-0.0143209751396318	-0.773659256811915	0.596618119058762	-0.773831237207973	0.596189003238438	-0.011848679410697	-0.00441659108293642
10.6	-6.01066922412865E-05	-0.0147805121567372	-0.673068887357564	0.710006854312502	-0.673339926909547	0.709678606573238	-0.0130245512176403	-0.00174271155100147
10.7	-0.00268644621611102	-0.013634124022591	-0.554635882639807	0.805920358228733	-0.554935022475907	0.805612704527036	-0.0130721137378442	0.00146609439871602
10.8	-0.00389691201565326	-0.0119258431037566	-0.422930943551932	0.881702510954297	-0.423279816942515	0.881406041714217	-0.0116507556090533	0.00479676227353022
10.9	-0.00425820531366278	-0.0103581031820415	-0.282005609376705	0.935951033523644	-0.282393409526699	0.935828531069666	-0.00932850896197499	0.00729830100320074
11	-0.00460738069333417	-0.00938900083813252	-0.134427847375617	0.970111559360839	-0.134862925028388	0.970020629312896	-0.00653529316399306	0.00900376010069436
11.1	-0.00394582649187227	-0.00848476392676035	0.0191751872873558	0.978964125540261	0.0186885182236596	0.978977500949903	-0.00289360597187592	0.00968933081724697
11.2	-0.00345877729768216	-0.00865795361745743	0.170422919015951	0.963447700527165	0.169968070060572	0.963520269646028	0.000513350723347821	0.00921401451663539
11.3	-0.00325371224779538	-0.00911592263917854	0.317021601785394	0.925474347866508	0.316564771854313	0.925609807385139	0.00389761219278272	0.00808954283709038
11.4	-0.00369550014848589	-0.0104861674702875	0.456571505073177	0.866197415988372	0.456169203420092	0.86630944353189	0.00681961452075043	0.00608018034969399
11.5	-0.0065970500393075	-0.00982790579529677	0.587044625879933	0.784155080682381	0.586727273933759	0.784456258382355	0.00790390797225816	0.00452451059854811
11.6	-0.00581468372592305	-0.00766447939512017	0.699940670196029	0.682623941328967	0.699726473330599	0.682949772422953	0.0108097138911278	0.0030657861821593
11.7	-0.00481535022276417	-0.00770040426333089	0.796713533253557	0.56663430772734	0.796511066908595	0.566938819345879	0.0125739164980134	-0.000118077447374897
11.8	-0.00437326404650176	-0.0086129029172834	0.875265623452346	0.43668105739078	0.875083948061861	0.43712920148898	0.0132485200427836	-0.00344664697226916
11.9	-0.0040261289197883	-0.0111259124846571	0.933037878840496	0.295256054018529	0.932931994682734	0.295703745789929	0.0135411636680147	-0.00727128631564999
12	-0.0101723364475048	-0.0132910672267181	0.965736427084402	0.146494915860994	0.96570750158302	0.146856982843243	0.00959274133280996	-0.0110758274652333
12.1	-0.0135757932316964	-0.0100003931501653	0.976954520685308	-0.00307344456874877	0.976882859392049	-0.0026913372336873	0.00754890520212441	-0.0117822314020891
12.2	-0.0155644908710954	-0.00715449403077746	0.965508582126594	-0.154575801194879	0.965525047433396	-0.154279252307045	0.00511562230901618	-0.0128586619375488
12.3	-0.0166276740495205	-0.00362342296174678	0.929751078712332	-0.302728616901661	0.929869112534326	-0.302423118496484	0.00257980946522434	-0.013036358043998
12.4	-0.0160228068932656	-0.000725394349769488	0.870871060157401	-0.442994906572844	0.870932781504027	-0.442627193870927	0.000870541449794341	-0.0128066063949296
12.5	-0.0166198393957694	0.000173854461250543	0.792621299236239	-0.570443488790686	0.792957555831504	-0.570053539160305	-0.0017774618997918	-0.0135728618273337
