# GHZ S RI R 50
0.2	-0.000312426451454967	-0.000121722761360909	0.948970334423571	-0.307993966804219	0.948748097646734	-0.307968518349381	-0.000344657058963336	1.66236305807082E-05
0.3	-0.000370442116437745	-3.07772335380813E-05	0.888968375159422	-0.451641640576162	0.888812209570279	-0.451546260850087	-0.000481605744763704	-3.21923240127548E-05
0.4	-0.000158306460181065	2.97250368296391E-05	0.807449271146608	-0.583878783565055	0.807461057712993	-0.583903897078114	-0.000383615823863268	3.18624214205177E-05
0.5	-0.000139033114560053	-8.80844030398296E-05	0.706711527303279	-0.702055963039528	0.706556556686715	-0.701954510810671	-0.000320983583826537	-7.87999062943619E-05
0.6	-0.000219561800244274	-2.1016133975111E-06	0.588862738502762	-0.803071123626867	0.588743515499946	-0.802909456001891	-0.000524189812642718	-3.67209229976843E-05
0.7	-0.000121484768485874	0.000225252639036532	0.45677675955822	-0.884409299191602	0.456758001791536	-0.884296834302272	-0.000446735555372231	8.30750296453469E-05
0.8	0.000141704553684348	0.000220706566540106	0.313773204180248	-0.944334987343113	0.313741858963505	-0.944145316151965	-0.000387117381370083	0.000226841622838047
0.9	0.000348408777976949	0.000325510996071292	0.16333099626639	-0.981219872323671	0.163265982796067	-0.981128000025597	-0.000257790543231461	0.000298650417404545
1	0.000719682737495309	-6.90931446024427E-05	0.00909608871239571	-0.994449143942899	0.00904445382603097	-0.994417695333312	0.000119429880543466	-0.000128272332178766
1.1	0.000417326960479295	-0.000353943682133188	-0.145455233498074	-0.983734501808688	-0.145470979148628	-0.983604100848291	-0.00057999906104169	-0.000488966352535108
1.2	0.000532565086754651	-0.000992686224531316	-0.296510261223472	-0.948872234128647	-0.296433918965874	-0.948846152701668	-0.000682741269341913	-1.17012800096249E-05
1.3	0.000456259122847462	-0.00234458347459057	-0.440081460386085	-0.891089462791149	-0.44005843875683	-0.891082851329842	4.29432373611792E-05	0.00076981637577259
1.4	0.000246778251295448	-0.00394354899521603	-0.57273669718925	-0.811922448076679	-0.572712534679345	-0.811900821689032	0.00142790390315681	0.000932603276375969
1.5	-0.000221334616885292	-0.00481189012118751	-0.692077887518431	-0.712984498568939	-0.691976152552322	-0.712899570729334	0.00261421618515187	0.00028231945186182
1.6	-0.000291567592268205	-0.00488934116549046	-0.794041970299772	-0.596471792710108	-0.793967933798101	-0.596411815120524	0.00311358440904047	-0.000134930258238232
1.7	-0.000451783857264291	-0.00511575869675156	-0.876338229548628	-0.466471567495205	-0.876502347262811	-0.465955759204237	0.0035191454283874	-0.00117411519592465
1.8	-0.00100306571347369	-0.00521095824776281	-0.93817799115574	-0.324396318809975	-0.938066805156148	-0.324394962970964	0.00317084169693541	-0.0023507890593303
1.9	-0.00151242946776583	-0.00516171718454574	-0.976994485105866	-0.175198299674266	-0.977087254018166	-0.174710991504299	0.00258186041453664	-0.00341794886368251
2	-0.00267159521838585	-0.00524194070519337	-0.99181804201494	-0.0206697081043843	-0.991829947635536	-0.0206238884444464	0.00102332838949279	-0.0045301503875844
2.1	-0.00345036714997267	-0.00414987090938704	-0.982759866778527	0.133138855284368	-0.982797930774441	0.133175915145911	-0.000304485925199486	-0.00377061746831818
2.2	-0.00395627463198827	-0.00361832155120791	-0.950300547528394	0.283893041410486	-0.950225520642737	0.283955789902864	-0.000513890044778627	-0.00344878074830418
2.3	-0.00458460871665366	-0.00293499995465561	-0.894830123063369	0.427342081219557	-0.894448218990615	0.427854882681551	-0.000847467811235347	-0.00358403373046133
2.4	-0.00515335914003133	-0.0021817066230771	-0.816611052003588	0.562018822979599	-0.81687750539448	0.561433562524583	-0.00126119813074821	-0.00395027047820588
2.5	-0.00584087616104742	-0.00157770343149155	-0.719759616169587	0.681356737840906	-0.719972907233896	0.680847446189383	-0.00225331908178461	-0.00522440753571611
2.6	-0.00662620838054949	8.15180015882413E-05	-0.605987946394648	0.784576301787851	-0.605881844961927	0.784393758562524	-0.00405173485395493	-0.0046925961101399
2.7	-0.00623002570257237	0.00177298124226988	-0.476231010361717	0.869354657409087	-0.476679691179699	0.868947941007032	-0.00475116633665536	-0.00357806673622283
2.8	-0.00504809382512889	0.00298323990280989	-0.336748026458424	0.932095177127084	-0.336080878783264	0.932253962461645	-0.00483189392942569	-0.00248447264844515
2.9	-0.00323979351891254	0.00345797010508014	-0.187601169723923	0.972913743713406	-0.187632364771417	0.972826443090647	-0.0040896796033812	-0.00144450453751487
3	-0.00161958127234034	0.00334441199340743	-0.033873064544642	0.990631094365482	-0.0345737512704669	0.990472229401335	-0.0033089376849593	-0.000570317121174442
3.1	0.000241819549235873	0.00288144173619964	0.119263935663621	0.983936825211572	0.119854460920443	0.98391903217636	-0.00174152669792497	1.4850977113118E-05
3.2	0.00149270993737768	0.00175098457424282	0.271059477415826	0.953146149238159	0.271004693618197	0.953085864966986	-0.00069894264831763	-0.000203052387596487
3.3	0.00257148519727262	0.000519495595467135	0.415744915325916	0.899429566280805	0.415607796739149	0.899415373024544	0.000314257790946661	-0.000587868957534766
3.4	0.00314439701999306	-0.00104886518531009	0.550254792239246	0.82421301462493	0.550092572288993	0.824330919177324	0.00119549147439086	-0.00165167391846692
3.5	0.00309135123576792	-0.00244677937229532	0.671966339673794	0.728845988874075	0.671886748098299	0.728884797370318	0.00100758087834744	-0.00243996394728028
3.6	0.0031210028232556	-0.00347424270326984	0.776204015333516	0.615718504820382	0.77644455670209	0.615269749847366	0.00149572384712701	-0.00257642706769647
3.7	0.00285918392744279	-0.00495035764047662	0.862484834862219	0.487300367066334	0.86236667693755	0.487443518342849	0.00196484743772565	-0.00343616461375826
3.8	0.00198160115757973	-0.00620011747042381	0.927497209422183	0.348120121349229	0.927553708065086	0.347740950248523	0.00200490258018776	-0.00454476115588798
3.9	0.00113971847558882	-0.00733955010715835	0.970588962418033	0.198594016053014	0.970351230682907	0.19926170504859	0.00137282507976399	-0.00619794955767053
4	-0.000797904350986569	-0.00837121316386133	0.989090651870079	0.0459628143681956	0.989051866711912	0.0460656802282621	-0.000471679702897066	-0.00775234263301363
4.1	-0.00245093247495096	-0.00822552299752627	0.984174979576244	-0.107473261500527	0.983990721887197	-0.107346050301093	-0.00219104490652553	-0.0074706632425854
4.2	-0.00416157205431303	-0.00822624604980059	0.955443960771443	-0.259529241160116	0.955479496627662	-0.25887584796378	-0.00317984089598247	-0.0075051670399248
4.3	-0.00598116034240221	-0.00799984957714613	0.903871868386338	-0.404147268507055	0.903736173713866	-0.404036082667988	-0.00429428081073249	-0.0077837627841369
4.4	-0.00782815130869287	-0.00724677606388282	0.829902106285189	-0.539469568730809	0.829737162777456	-0.5393361692568	-0.00536296322392282	-0.00807932505749936
4.5	-0.00974421474314245	-0.00665982469182708	0.736273320890534	-0.661060864735232	0.73608477372812	-0.660887832881613	-0.00716249127073024	-0.00915242577088553
4.6	-0.0119502601129104	-0.00466393974871417	0.624831253946157	-0.768100114432419	0.625173041743143	-0.76740245090094	-0.0099764589596936	-0.00859559111795554
4.7	-0.0131385085409042	-0.00259548899615682	0.498293440634722	-0.855732123901322	0.498309965874302	-0.855376341989992	-0.0119686882522022	-0.00764478613387496
4.8	-0.0139948279911447	-0.000138856698504143	0.359068077282262	-0.922480270322264	0.359289659196675	-0.922163953278028	-0.013575565852211	-0.00641937587394106
4.9	-0.0139406675235084	0.00226111793633312	0.212172418149919	-0.966275525016018	0.211952479617025	-0.966283316226683	-0.0145268432705537	-0.00496245894589367
5	-0.0133944122666473	0.00462250950529543	0.0598982685431759	-0.98804325026929	0.0600754324002806	-0.987797741015669	-0.0150579541970143	-0.00305250576682982
5.1	-0.0116305068979096	0.00677968753846597	-0.0946964384011417	-0.985622190192935	-0.0943645043519657	-0.985396817262574	-0.0142949750885623	-0.000869246282439806
5.2	-0.00952691600108866	0.00833732531824098	-0.24669072747692	-0.958721847789965	-0.246198564274824	-0.958695169945782	-0.0131372157808713	0.000401764334803603
5.3	-0.00723625074951325	0.00920778219907905	-0.392348325633494	-0.908855567654659	-0.39200750438256	-0.909071952237945	-0.0120178059100511	0.000895535420648064
5.4	-0.00503642950411064	0.00971752695664062	-0.528773911084465	-0.837339744461073	-0.528560959676682	-0.837540683577414	-0.0117751785474597	0.000739838066122403
5.5	-0.00366613276314262	0.0103765640038857	-0.653245481311804	-0.744890934702386	-0.653006342698988	-0.745086115595902	-0.0134538807241832	0.00176110800042946
5.6	-0.000593257066864844	0.0116125983315676	-0.760405835579343	-0.633688688160452	-0.760216175879239	-0.633860843279448	-0.0126194785764021	0.00459102502194717
5.7	0.00227170090621007	0.0111255067202962	-0.849339492912333	-0.508074389917162	-0.849210253964429	-0.508294409911844	-0.011241865456278	0.00583814179497809
5.8	0.00474655339715751	0.0104044682425837	-0.917861370412934	-0.370020756862796	-0.917793649324006	-0.370305926407124	-0.0100475954439436	0.0066655933933969
5.9	0.0071602224300091	0.00885443213097564	-0.964372401782643	-0.222882877367365	-0.964386957658164	-0.222966554192061	-0.00900862274454497	0.00664635160544839
6	0.00806494278355106	0.00672288748244367	-0.986543587680459	-0.0699895458556145	-0.986424428424532	-0.0700477396236633	-0.0104566201161932	0.00643432307992607
6.1	0.00931582215288982	0.00589886680968619	-0.985116720187814	0.0831544465990478	-0.984990226571232	0.0830059793187528	-0.0107401658575037	0.00952378269117408
6.2	0.0106012372894033	0.00388233488767198	-0.960443816909916	0.235043990831263	-0.960430215365719	0.234841227598829	-0.00917068501383844	0.0113601302492846
6.3	0.0109926969369288	0.00135438013825444	-0.912295467310069	0.381399408451698	-0.912291067155945	0.381214123510815	-0.0071750811110788	0.0121819602962414
6.4	0.0107553156518209	-0.00137187859443464	-0.841604225129458	0.518401933091654	-0.841572764972934	0.518191381409155	-0.00519013440012791	0.0117813493933
6.5	0.00953785377895726	-0.00414860762200541	-0.750986751828367	0.641766704874561	-0.751010906275797	0.641562863919009	-0.00403469696438933	0.0107337013605878
6.6	0.00812540363633847	-0.00635155916834233	-0.642945931028639	0.751113152401668	-0.643019809324136	0.750861084000569	-0.0029510348924479	0.00980538363481271
6.7	0.00601662002215964	-0.00827923816081969	-0.518163017994017	0.842036697258897	-0.518265946085811	0.841815630785914	-0.00273620968410594	0.00859704122033947
6.8	0.00381836058114196	-0.00928750094747502	-0.380904849892162	0.912071536318922	-0.381046562794232	0.91190098542287	-0.00308507375896703	0.00817026023394612
6.9	0.00166128945508139	-0.00982729638328889	-0.234898407214365	0.959634872128119	-0.235124914915379	0.959524658400521	-0.00323128669156359	0.00832656026990482
7	-0.000152019624825556	-0.00962675435889083	-0.0837110543117877	0.985114465016393	-0.083920884307814	0.98502465525162	-0.00299903669300003	0.00902144145366592
7.1	-0.00147618622951657	-0.00944521586255103	0.0711644008811659	0.98623821615215	0.0709622379023165	0.986105143249353	-0.00178627751129474	0.00944880911669171
7.2	-0.00280135878928671	-0.00916864550161359	0.223438509135592	0.962699138516512	0.223156415834647	0.962664909434391	-0.000547804311465186	0.0095015484544936
7.3	-0.00417251108615991	-0.0087462283218203	0.369873307429334	0.916185616823694	0.369637360206238	0.916212078557652	0.000675020815886979	0.00931744304514719
7.4	-0.00528277788694644	-0.00812782995442969	0.507503602257147	0.847975186845394	0.507290239723385	0.848026485211168	0.00170206929684967	0.0087393645865204
7.5	-0.00661093663282214	-0.00734803350524966	0.633954159157743	0.758613679810291	0.633784651000814	0.758683677367941	0.00230841654811479	0.00839384276507472
7.6	-0.00685977063049286	-0.00604540684668222	0.743370572824933	0.649992031818636	0.743113317822195	0.650074926072837	0.00407218743746667	0.00816829741033066
7.7	-0.00691080570651647	-0.00508681706966351	0.834702041264208	0.526853557542689	0.834517021977664	0.52707088626289	0.00578297058651947	0.00672304145337367
7.8	-0.00647841030427171	-0.00412805617821153	0.906376127758887	0.390929129458975	0.906273487387104	0.391154581888608	0.00705827951257377	0.00443326501557841
7.9	-0.00582906720349031	-0.00352269639883316	0.956243501971349	0.245258616405431	0.956105789217799	0.245438494910833	0.00726932204386162	0.00124077490788706
8	-0.00619383567445849	-0.00362454945451269	0.981432274028451	0.0931905986896107	0.981409840167733	0.0934530528312249	0.00409411048238354	-0.00211784693919034
8.1	-0.00594534928377758	-0.00155560385298372	0.983722058430443	-0.0591255623096396	0.983751189763045	-0.0588704021193201	0.0010040479937445	-0.000854031086889793
8.2	-0.00467755548511189	-0.000473729419081676	0.962869573531411	-0.210961244175041	0.962918076416203	-0.210644551566861	-0.000315960221877115	0.000238506671916868
8.3	-0.00349447028580453	0.000377527664766227	0.918385386728798	-0.357962918601001	0.918436914549334	-0.357676087263679	-0.00111970905523859	0.00150393617771922
8.4	-0.00167212596214465	0.000887667328276489	0.85109725687188	-0.496128421999991	0.851195118597801	-0.495926819161064	-0.000855582866278229	0.00247974252932869
8.5	-0.000583173540397338	-2.3829453947835E-05	0.763957596439646	-0.620797781791158	0.764008853670482	-0.620647341294851	-0.00159147345835051	0.00164819093982704
8.6	0.000159324839837884	0.00055207603273187	0.659017567290379	-0.732405246139258	0.659185813483619	-0.732168251875135	-0.00306995083103389	0.00405406491836611
8.7	0.0017645351878764	0.000446444002082556	0.53691971313332	-0.825932073292124	0.53717871620506	-0.825716781417544	-0.00192004140214274	0.00639225497930274
8.8	0.00333061580253809	-0.0001559776886695	0.402098614928864	-0.898885992937604	0.402283724896874	-0.898747067326787	0.000101309777475599	0.00776136175870239
8.9	0.00493643643020889	-0.00105575074808802	0.258118529683369	-0.949853829093474	0.258297301819223	-0.949683925504416	0.00318256878991161	0.00823099948271434
9	0.00655781094398086	-0.00297393812080426	0.108236844390643	-0.97917253739579	0.108544986812182	-0.979125661968732	0.00610699500115608	0.00680641607229947
9.1	0.00785768474146085	-0.00497213192287184	-0.0460175800781626	-0.984076326185181	-0.0457084968397431	-0.984035362681707	0.00870573203171511	0.00498438319655751
9.2	0.00856679348013631	-0.00772041515285486	-0.198176175730652	-0.964336688575534	-0.197828854351042	-0.964314445323198	0.0105373191870121	0.00170644975169696
9.3	0.00813933272921579	-0.00992753159752056	-0.344984729725294	-0.921754142760676	-0.344633142836163	-0.9217285283688	0.01077083754268	-0.00156922333950591
9.4	0.00762732207134911	-0.0117083087627739	-0.483529873014582	-0.857643355757393	-0.483206766465738	-0.857733916478136	0.010043533579034	-0.00470512714843138
9.5	0.00585761059054113	-0.0122410330227856	-0.611890957244185	-0.771893048027929	-0.611653976935594	-0.771943410709619	0.0068625303517266	-0.00598312821318689
9.6	0.00647483195673748	-0.0121554583029044	-0.723451370314708	-0.666533221676351	-0.723140115168436	-0.666671930854293	0.00702846201143173	-0.00533343829344893
9.7	0.0063249990944532	-0.013179797183039	-0.817560249588308	-0.546483322179515	-0.817273006733486	-0.546715999359717	0.00668134901118019	-0.00731659571737266
9.8	0.00574649341173911	-0.013851656222205	-0.892469153550301	-0.413261194313455	-0.892216002347179	-0.413429938585653	0.00503584511594532	-0.00923173430391674
9.9	0.00537447998342248	-0.0142866953539847	-0.946124796801197	-0.269410185472477	-0.945872590089051	-0.269618924469656	0.00284612974692246	-0.0113723666945676
10	0.0034111375855695	-0.0150394407197346	-0.975094128522024	-0.118598891076482	-0.974940990591527	-0.118960709043238	-0.00292967404980871	-0.0128322479901033
10.1	0.00277216588903902	-0.0133847853218162	-0.981337594843818	0.0328014743674135	-0.981273955126591	0.0323708363095701	-0.00688431022205767	-0.00913641254537473
10.2	0.00294081354224392	-0.0131828784504103	-0.964831746910204	0.184577922131794	-0.964709754810705	0.184147446478088	-0.00847250420405218	-0.00645017550833481
10.3	0.00272658701448971	-0.0130302241822608	-0.924393290604832	0.332287444881709	-0.924410445291797	0.331746704959858	-0.00965256742598031	-0.00420702732423074
10.4	0.00277036279573791	-0.0134218658981912	-0.860819026026439	0.471475018903273	-0.860955410550308	0.470964768398383	-0.0101485550620125	-0.00275044927401756
10.5	0.00186488364873673	-0.0144545056784178	-0.777546296781192	0.597577496791529	-0.777718213129195	0.59714648740361	-0.0118851093203591	-0.00246199718278465
10.6	0.00052990423152214	-0.0143919322581127	-0.676509814632339	0.7114903326529	-0.676781313050916	0.711160520117485	-0.0141500473260659	0.000460469932101088
10.7	-0.000591559872540861	-0.0137006940681756	-0.557756860047925	0.808105520514081	-0.558056672804849	0.807796337025031	-0.0148304097021309	0.00432530785997461
10.8	-0.000545617155469888	-0.0133847121252219	-0.425484758976752	0.884535671585619	-0.425834611310152	0.884237708987895	-0.0130810981593774	0.00832777877646664
10.9	-0.000621912522254861	-0.0132814679667913	-0.283701782653197	0.939272577003001	-0.28409095519841	0.939149350821222	-0.0106634463910656	0.0111930600460829
11	-0.000959095662329531	-0.0137181482531062	-0.135437147470524	0.973240548234187	-0.135873610326059	0.973149064372119	-0.00791708756741396	0.0132568741903829
11.1	-0.00115464048279877	-0.0140798792587661	0.0184831205479871	0.982464476444858	0.0179947084684028	0.982477521483574	-0.00405583039533143	0.0146071945153857
11.2	-0.00173253417309233	-0.0148606401488549	0.170586236660266	0.967182453489096	0.170129628490502	0.967255069813411	-6.39430968534773E-05	0.0145089293306062
11.3	-0.00254385066986445	-0.0153896486785382	0.318089093264464	0.929066993088212	0.317630493266536	0.92920289903853	0.00391146849323807	0.0133799997629141
11.4	-0.00360332286490193	-0.0162128800627012	0.458304574141788	0.869313298042772	0.457900817135563	0.869425766370159	0.00719822857635137	0.0109735303316004
11.5	-0.00598535285814369	-0.0159644772844906	0.589124752151779	0.787187386616923	0.588806163144522	0.787489644697217	0.00787730793971032	0.00913804279294012
11.6	-0.0066587395041122	-0.0149867632224156	0.703052835657859	0.685241473739619	0.702837849931806	0.685568721901376	0.0107255951287661	0.00850268875010213
11.7	-0.00763702539201602	-0.0145374024322827	0.800391859322387	0.568342557191629	0.800188797602737	0.568648464019791	0.0133479324036218	0.0055741732273691
11.8	-0.00882770201038032	-0.0137843362097988	0.8791688837227	0.437489657986022	0.878986959431039	0.437939756927519	0.0148119453539908	0.00179643577313006
11.9	-0.0094544975419009	-0.0128474206643042	0.937015102219006	0.295360131189328	0.936909307933322	0.29580969106884	0.0150616647043663	-0.00316099540317129
12	-0.0120053318124015	-0.0123601562757135	0.970045216549256	0.145656603226027	0.970016715377347	0.146020246386247	0.0107011690674259	-0.00814240515800826
12.1	-0.0126294630666529	-0.00930444832817738	0.98070898304705	-0.00521738074547887	0.980637879808817	-0.00483364593628516	0.00736468364894961	-0.00820170362880076
12.2	-0.0127410610594884	-0.0077613850755938	0.96851831454401	-0.157324714414014	0.968535516149499	-0.157027170126603	0.00500784685881858	-0.00886470552761144
12.3	-0.0129845359037945	-0.00601084164995642	0.932169928307397	-0.305920998363525	0.932289073522036	-0.305614748596772	0.00255158422236192	-0.00910023478311725
12.4	-0.0127540480488204	-0.00435670114936268	0.872782108294741	-0.44674595365887	0.872844976842897	-0.446377116339031	0.00081762549245124	-0.00912414966752871
12.5	-0.0128627787751929	-0.00360366854522865	0.793313469170463	-0.574885867350706	0.793652091119089	-0.574495759453092	-0.00241694195741264	-0.0103202647086924
