# GHZ S RI R 50
0.2	-0.000268733339618214	-0.000175816248207146	0.949232103034551	-0.307942615936606	0.949009811020405	-0.307917190415307	-0.000254582148125158	-8.92987974329365E-05
0.3	-0.000389725684802011	-9.38009091852234E-05	0.889293179780365	-0.451621151975153	0.889136954470905	-0.451525771340256	-0.000442219233621875	-0.000208155624015213
0.4	-0.000273719434609745	-7.62600827051885E-06	0.807862348654429	-0.583929537230149	0.807874144593056	-0.583954657554112	-0.000458725572855887	-0.000177734840509725
0.5	-0.000295826220281133	4.49551385812256E-05	0.707139710820531	-0.702323065095308	0.706984652221786	-0.702221580226602	-0.000449838791494507	-0.000127159183258623
0.6	-0.000272149356549755	0.00011843147265784	0.589150685362345	-0.803382237125533	0.589031404098185	-0.803220506905646	-0.000496234987050279	-0.000154579158162885
0.7	-0.000225490170671946	0.000339731210189062	0.457054241424368	-0.88476321627754	0.457035465815773	-0.884650703062707	-0.000477371294815125	-0.000158586714294504
0.8	1.71319010748492E-05	0.000371847491914027	0.314004931645416	-0.944794737274193	0.313973556085369	-0.944604971360312	-0.000517074763176028	-9.53161761693963E-05
0.9	0.000172292500006885	0.000457145558376356	0.163415979303473	-0.98180147172926	0.163350928483881	-0.981709544396251	-0.000628403964034822	-0.0001210401192338
1	0.000394735292546241	0.0003221125452077	0.00893894489468291	-0.994917895374243	0.00888729082506705	-0.994886423605969	-0.000674523344056318	-0.000105325836920729
1.1	0.000529657517059279	6.81430528356922E-05	-0.145526417288082	-0.984146936908138	-0.145542168258206	-0.984016480911661	-0.000875411602092622	-9.16235174085029E-05
1.2	0.00075231883072716	-0.000853224315663983	-0.296680150103958	-0.949360142433251	-0.296603767767938	-0.949334048726712	-0.000637163203171585	0.000303851823669678
1.3	0.000808458765446522	-0.00245684614067298	-0.440408999496817	-0.891540548389941	-0.440385964521301	-0.891533935439315	0.000574125949357902	0.000863855479703857
1.4	0.000598860906895001	-0.0043441678199369	-0.573166000695055	-0.812205287975119	-0.573141822464166	-0.812183655726461	0.00225983360338343	0.00050261663692151
1.5	0.000190317251940866	-0.00526682926435056	-0.692322930404292	-0.713220434888686	-0.692221159652668	-0.713135479155013	0.00375214522146519	-0.000576076861067575
1.6	-0.000327978186868423	-0.00555050277829769	-0.794507864698197	-0.596873830441354	-0.79443378494214	-0.596813812653599	0.00367943877412936	-0.00184128312759148
1.7	-0.000793380437200681	-0.00536463359658133	-0.876986634812313	-0.466683866149688	-0.877150802714019	-0.46616768924373	0.00330804580195042	-0.00272603673100076
1.8	-0.00139327417229597	-0.00514955461741331	-0.938834244958649	-0.324409903819242	-0.938722988722154	-0.324408569698854	0.0024923117892445	-0.00353594874188408
1.9	-0.00197697057118862	-0.00475877320894265	-0.977553730864818	-0.175148826680401	-0.977646478047291	-0.174661238763428	0.00154696726841027	-0.00395121329711624
2	-0.00259207209709673	-0.00438890162687023	-0.992626964113507	-0.0206890066106254	-0.992638879573183	-0.0206431495909474	0.000750151255679725	-0.00422192739760191
2.1	-0.00321784453420991	-0.00385111981663618	-0.983613903466168	0.133627809682318	-0.983651988641057	0.133664917832257	-0.00018797302209872	-0.00425674113287718
2.2	-0.00395010431399433	-0.00330859038186579	-0.950903063629597	0.284560131970382	-0.950827949098417	0.284622893768397	-0.000835151808321701	-0.00408477460443141
2.3	-0.00462714561380584	-0.00256151903480958	-0.895286593765407	0.428061945064299	-0.894904177386392	0.4285749455478	-0.00151356773873587	-0.00405634387535399
2.4	-0.00533659336056398	-0.00172550507789113	-0.817064780161568	0.562830962628561	-0.817331700875271	0.562245320349525	-0.00232717403208885	-0.0039361395514728
2.5	-0.00577272629634946	-0.000585997548816441	-0.719973855881145	0.682657346031035	-0.72018778253637	0.682147686530255	-0.00280610176018316	-0.00394605039903932
2.6	-0.00595853810465444	0.000622866666220745	-0.605596918659732	0.785681993834233	-0.605490930614119	0.785499228050247	-0.00321447670536824	-0.00377138238738676
2.7	-0.00559916968269302	0.00180771985917411	-0.475718944811671	0.870257385586855	-0.476168234865118	0.869850844891917	-0.00350102658848695	-0.0035298951678428
2.8	-0.0047280694368591	0.00267795008956733	-0.336099358881363	0.932948218248444	-0.335431675319319	0.933106491026263	-0.00376604489822632	-0.00321031526114195
2.9	-0.00329401110112112	0.00314836556768826	-0.186633094655444	0.973755896689342	-0.186664407766629	0.973668574308463	-0.00344916652514958	-0.00249578453978787
3	-0.0018069889405223	0.0031014112868785	-0.0324461964408259	0.990869364474934	-0.0331472468972463	0.990711482980507	-0.00284104890170301	-0.0018699134200804
3.1	-0.00028174432440765	0.00276431013168693	0.120276061113956	0.98379396589556	0.120866556086473	0.983775564330129	-0.00189663786964908	-0.00148890109041072
3.2	0.000881660246720849	0.00193654255451789	0.272040445597586	0.952962138215686	0.271985596284914	0.952901903333979	-0.00126092268348819	-0.00142950472843908
3.3	0.00195401585629056	0.000922450255229266	0.41678003138558	0.899020680169208	0.416642888142211	0.899006639771826	-0.000460194830079023	-0.00148777443647261
3.4	0.00254934151826521	-0.000351547369909738	0.551195306296738	0.823350444146051	0.551033268338882	0.823468531916504	0.000413304266360642	-0.00204529841538778
3.5	0.00294697427805891	-0.00166519272111387	0.672169509234939	0.727860423139716	0.672089996779815	0.727899274287723	0.000975129575492814	-0.00274624175663893
3.6	0.00275933699005881	-0.00295789421353089	0.776482730316233	0.615120688110542	0.776722943906944	0.614671846747829	0.00118933271879868	-0.0035218661800584
3.7	0.00237778953274358	-0.00420547240922177	0.862768273236247	0.48650275799642	0.862650253173182	0.486645987695442	0.00122227204593553	-0.00422461331702562
3.8	0.00151607895138134	-0.00529102892132191	0.927516667877077	0.347200488503998	0.927572816978918	0.346821384623018	0.00100638734296812	-0.00500417623892384
3.9	0.000622934036094847	-0.00617132296069719	0.970230886758116	0.197861762575602	0.969993709542306	0.19852927113687	0.000197020014592489	-0.00597420830177047
4	-0.000729262318272397	-0.00679110292640348	0.989083843771019	0.0456724317876035	0.989045089509785	0.0457753068903874	-0.000572495486423108	-0.00663874608016849
4.1	-0.00216582666556187	-0.00722725555330911	0.984195850416213	-0.108348525071032	0.984011682690651	-0.108221137483663	-0.00153884180143987	-0.00726430347570046
4.2	-0.00401687791978625	-0.00731346337861336	0.955034607904717	-0.260407683154157	0.955070768118426	-0.259754432976191	-0.00264018924491313	-0.00773660655014967
4.3	-0.00586618446546448	-0.00717306379515966	0.90326915319305	-0.404804581710566	0.903133592169327	-0.404693311574328	-0.00391904650161571	-0.00827340910087317
4.4	-0.0079588641589968	-0.00650576024835337	0.829430804984968	-0.539976868370744	0.829265973193139	-0.539843371208407	-0.00548081732770898	-0.00858019223293545
4.5	-0.00985805048702245	-0.00543282992584427	0.735579730818044	-0.662131344415776	0.735391366042948	-0.6619580376742	-0.00710693174108206	-0.00867277558840686
4.6	-0.0117338627581721	-0.00379169139098025	0.623374646840843	-0.768613787030432	0.623717279467808	-0.767916992333214	-0.00892917529325308	-0.00856614093927021
4.7	-0.013143266310118	-0.00188483649737211	0.49691094698896	-0.855715795094231	0.496927886678434	-0.855360287999579	-0.0108349843469104	-0.00824006847207938
4.8	-0.0141571069590777	0.000579322318803857	0.3578143103274	-0.922237205340804	0.358036084917205	-0.921921347796587	-0.0125619299929371	-0.0075034500159326
4.9	-0.0142275009117524	0.00307138373132324	0.210796734559318	-0.965982571110133	0.210576915146718	-0.965990072991864	-0.0138171466191102	-0.00637274017838607
5	-0.0135531035102766	0.00551376445186405	0.0581804962364987	-0.986845551627888	0.0583578348019761	-0.98660065858285	-0.014399204322102	-0.00475795327600472
5.1	-0.0119961040276605	0.00757948571242388	-0.0954281956641657	-0.983967231702276	-0.095096588590893	-0.983742515045162	-0.0144198306079514	-0.00314669971367057
5.2	-0.0100200284964046	0.0093940218664935	-0.247049029931587	-0.95720708250804	-0.246557532142524	-0.957180801966509	-0.0142373185121081	-0.0015327667739714
5.3	-0.00770210938467744	0.010595655035837	-0.392516936323574	-0.907271163140903	-0.392176763999604	-0.907487513860511	-0.0136632651229434	-8.31900605547643E-05
5.4	-0.005226237534634	0.0116029408855884	-0.528579070137463	-0.835401893117698	-0.528366669968668	-0.835602665725838	-0.0130582801775222	0.00117899362236674
5.5	-0.00266125419898059	0.0120438645400898	-0.651819623714479	-0.743187238757216	-0.651581031347115	-0.743381994450365	-0.0125086506559431	0.00219852671115176
5.6	-8.65590153337433E-05	0.0123107918410905	-0.75907721722469	-0.632941054694062	-0.758887796786104	-0.63311289605565	-0.012062445724067	0.00323341835396456
5.7	0.00238671906801366	0.0119355823621293	-0.848089176939968	-0.507449100222637	-0.84796009664129	-0.507668796510962	-0.0115988224233657	0.00443557927494663
5.8	0.00468221866590431	0.0112824645596137	-0.916401457528544	-0.369571123736515	-0.916333803492774	-0.369855845793036	-0.011015445915188	0.00569579766217855
5.9	0.00674415468350394	0.0100636905811257	-0.962586424574786	-0.223001873937985	-0.962600911495281	-0.223085413494651	-0.0103794314884437	0.0068987624851835
6	0.00852320380642485	0.00857904587572988	-0.985557080060583	-0.0709945672321494	-0.98543796777655	-0.0710525779756346	-0.00968104679883458	0.00815518959933255
6.1	0.0098629199821295	0.00665658625159925	-0.984484914538135	0.0828012206767476	-0.984358460391259	0.0826528907437109	-0.00863546479844875	0.00923478026657596
6.2	0.0105952347217622	0.0045118436110289	-0.959550098136043	0.234595336019355	-0.959536464180027	0.234392775811841	-0.00749544010918168	0.00985362982490197
6.3	0.0106269637536553	0.00205093000832954	-0.911465511525784	0.380596491381437	-0.911461037304987	0.380411409862249	-0.00631878276817659	0.00995230527179564
6.4	0.0100685777891133	-0.000382729265953963	-0.841315555572488	0.517384680523038	-0.841283967954209	0.517174317589323	-0.00542024662114479	0.00960213012698002
6.5	0.00893066435629713	-0.00277144804736167	-0.750728429339379	0.641596414019498	-0.75075258421084	0.641392637354337	-0.00472876073927739	0.00908784602684009
6.6	0.00755996342351974	-0.00471052126823677	-0.642039697684439	0.75028682515149	-0.64211352357347	0.75003507833843	-0.00412046018034442	0.00869504676562981
6.7	0.00582997657562653	-0.00635518385595472	-0.517746532660508	0.840732794051364	-0.517849248964579	0.840511990479635	-0.00371260545034514	0.0083597949768315
6.8	0.00405815559358514	-0.00746157978080104	-0.380984083380426	0.910836661003997	-0.381125542592383	0.910666222779729	-0.00338340375912556	0.0082986382895955
6.9	0.00213493426526581	-0.00822755062844801	-0.234994327286993	0.958794815905361	-0.235220620501617	0.958684623555482	-0.00280935777970242	0.00837422793779013
7	0.000411604220501611	-0.00848995530418625	-0.0834194944984365	0.983506735751373	-0.0836289932815212	0.983417106588689	-0.00204192153511562	0.00827235616106456
7.1	-0.00131155432998315	-0.00846064725889429	0.0702011013868613	0.984501297405181	0.0699994192804314	0.984368296121122	-0.00126473451901232	0.00816729326677639
7.2	-0.00280482778794364	-0.00810714437998478	0.222116740233042	0.961568756643823	0.221835082277477	0.96153428148901	-0.000258283919862949	0.00810502885216889
7.3	-0.00429785483891934	-0.0076034501053963	0.368537382243386	0.915369254277779	0.368301710235272	0.915395459494219	0.000771967868057184	0.00780190880049597
7.4	-0.00547593284345073	-0.0067960424177223	0.506036663252348	0.847006013173808	0.505823603407611	0.847057064957668	0.00162675392804466	0.00724317597303323
7.5	-0.00644886679014712	-0.00596894187162502	0.631233052569908	0.758177983964772	0.631063772846032	0.758247524195781	0.00254045700472157	0.00665039008629474
7.6	-0.00697577035226639	-0.00499989162641599	0.741201941758877	0.650965777000848	0.740944763717292	0.651048025156106	0.00354583709929712	0.00560353098836469
7.7	-0.00733884347	-0.00387561527171144	0.833078162242756	0.528026155865453	0.832892873874687	0.528242971706913	0.00410073318580646	0.00437204637848614
7.8	-0.00717162689324685	-0.00265196144913301	0.904909324315866	0.39227650357276	0.904806353247184	0.392501581202235	0.00444551126232585	0.00301318431125328
7.9	-0.0068204091177866	-0.00146494141730941	0.954764547165276	0.247209965451194	0.954626555265726	0.24738935632434	0.00436730884753345	0.00178441041545987
8	-0.00599055433989106	-0.000378984972433442	0.981377953185825	0.0960320595036746	0.981354760003235	0.0962945062682492	0.00366265606615622	0.000746120125596404
8.1	-0.00514677199964832	0.000544869630503382	0.984397346591172	-0.0573919022601648	0.984426036221334	-0.0571365421205388	0.00278391889165697	0.000139424481928492
8.2	-0.00403108883432331	0.00123664497963347	0.963448818231689	-0.209442136638568	0.963496816374267	-0.209125287578494	0.00171602746517654	-0.000155956559782326
8.3	-0.00299406207429792	0.00176021519336089	0.919214661574812	-0.356338794691524	0.919265670967035	-0.356051815298897	0.000652447654334086	-4.63950321766617E-05
8.4	-0.00177876290389373	0.00204931452485723	0.852773976387095	-0.494626075851628	0.85287146843897	-0.494424118588356	-0.000263800995440278	0.000326770134017906
8.5	-0.000674938127375667	0.0021426114079586	0.765694610593724	-0.620846414084651	0.765745777974183	-0.620695707814542	-0.000938858537075503	0.000951497127758219
8.6	0.000609143278432688	0.00202491760420431	0.659913217502232	-0.732113971578401	0.660081322006812	-0.731876738327551	-0.00120486431024571	0.00186014120182589
8.7	0.00178449603948536	0.00173321909266629	0.538199184346433	-0.825538928718498	0.538458002833887	-0.825323218100313	-0.000975971646140041	0.00284997097746653
8.8	0.00316052797403605	0.00120799554537087	0.403659356417765	-0.898956931024414	0.403844401450547	-0.898817643993878	-0.000370990274962096	0.00359932035888023
8.9	0.00451674440949789	0.000349165956283948	0.259299224560827	-0.950708917122948	0.259478044837139	-0.950538651442368	0.000870097320787831	0.00426011859754289
9	0.00606346724233694	-0.00110337759123287	0.108541103762348	-0.979239923100971	0.10884926354131	-0.979192950632621	0.00269567830882603	0.00442149348948432
9.1	0.00734184606534819	-0.00290487142223235	-0.0446321244271598	-0.98418074748775	-0.0443230865323712	-0.984139346605242	0.00490401267640777	0.00388439164886054
9.2	0.00832056923571221	-0.00502981397596273	-0.196898368844045	-0.965230703615004	-0.196550861636322	-0.965207941305005	0.00715563098405073	0.00250674568814311
9.3	0.00869126851245234	-0.00705312017682275	-0.344270559567028	-0.922915838305802	-0.343918701461662	-0.922889817656575	0.00907075220541603	0.000445378542442535
9.4	0.00871149492892621	-0.00903112555892493	-0.483192322162815	-0.85828446635021	-0.482869030726957	-0.858374863274417	0.0102849169694633	-0.00228967420035668
9.5	0.00806461019763506	-0.0105136104426479	-0.610384836700901	-0.772817702076237	-0.610147817366483	-0.772867631725448	0.0102068963339422	-0.00527954064063193
9.6	0.00737228170931599	-0.0117143111150733	-0.722891141592299	-0.668631217409102	-0.722579295801634	-0.668769460561479	0.00918967717129451	-0.00789148248643012
9.7	0.00642621820045603	-0.0123679093767499	-0.817765652978718	-0.548324212016232	-0.817477726183883	-0.548556757945821	0.00711621766982863	-0.0103016421856902
9.8	0.00551492617981479	-0.0128050377758642	-0.892856338128927	-0.414808727619108	-0.892602715956385	-0.414977324225426	0.00420370021547466	-0.0119512230525185
9.9	0.00457508611292156	-0.0127438220278262	-0.94635928864515	-0.271258620155499	-0.946106530671503	-0.271467075305868	0.000881519482311733	-0.0126315673908491
10	0.00377851659306649	-0.0126577759808307	-0.976896471516073	-0.121107518270007	-0.976742170470562	-0.121469752472441	-0.00262417894437104	-0.0123216498177871
10.1	0.00303204888110901	-0.0123219670065181	-0.983688618107453	0.0319244645308192	-0.983624409096764	0.0314928706760396	-0.00596779915335597	-0.0109841916169232
10.2	0.00250943288833887	-0.0120948363592546	-0.96683896851893	0.184150598091488	-0.966716392351443	0.183719392611892	-0.00884999964108572	-0.00888433484671894
10.3	0.00191306566296718	-0.0117711086602874	-0.926497394540424	0.331950278597976	-0.926514015352914	0.331408493451938	-0.0112352696905795	-0.00631059403412371
10.4	0.00142449203675472	-0.0117583519391821	-0.863704682533208	0.471559391436605	-0.863840742260173	0.471047621683924	-0.0128780160367738	-0.00347696471680256
10.5	0.000875565087946354	-0.0116461154283853	-0.780069582271252	0.59981662548013	-0.780242193296864	0.599384178757704	-0.0135591252116585	-0.000593638355264259
10.6	0.000332969119518341	-0.0117006237862567	-0.677504013538976	0.713483835225135	-0.677776320517957	0.713153488137607	-0.0135430954355812	0.00224588696491112
10.7	-9.83721114297278E-05	-0.0116077709892845	-0.558565407398572	0.809923511887597	-0.558865932724471	0.809613825250015	-0.0125498383705129	0.00514949226370074
10.8	-0.000484538045377266	-0.0117562607893254	-0.426082391420298	0.886676556206982	-0.426433141711753	0.886378068307214	-0.0108500054398462	0.00764428800132978
10.9	-0.00104354794724496	-0.0117401941889602	-0.283382084555429	0.941984638573913	-0.283772386885112	0.941861530425565	-0.00874210904666051	0.00965656788007491
11	-0.00147642800195429	-0.0119822256991195	-0.133736343428216	0.974510847990948	-0.134173433907117	0.974420094719545	-0.00601872271675039	0.0110415160778173
11.1	-0.00196528166523274	-0.0120859818090454	0.0191351111884101	0.983261219130543	0.0186463055137419	0.9832745913891	-0.00298328030305529	0.0117259423520843
11.2	-0.00247550860358361	-0.0124523770356639	0.171416135527331	0.968327184990348	0.170958981928622	0.968400182844653	0.000310182252974107	0.0115864437650572
11.3	-0.00312836348423588	-0.0127144727906934	0.319492250555298	0.92999600344894	0.319033169916136	0.930132573356317	0.00366449168955755	0.0107080238080795
11.4	-0.00403712460645118	-0.0130338315048532	0.459923777663238	0.869155712809656	0.459519940014207	0.869268870282889	0.00665539629795822	0.00922087507594064
11.5	-0.00511391445640905	-0.0129344997059437	0.589115357678391	0.787079598291986	0.588796815999459	0.787381846605228	0.00907976737660354	0.0071391422672337
11.6	-0.00629365908174365	-0.0128800407252069	0.703930464454792	0.686119825730766	0.703715201368499	0.686447484141082	0.0107990522017758	0.00465931185902638
11.7	-0.00755121096666895	-0.0123007276221758	0.801798325466354	0.56858917445296	0.801595188084504	0.568895609987572	0.0118300347201997	0.0019430794577314
11.8	-0.00889622290326995	-0.0115941909721995	0.880323166017494	0.437136431921859	0.880141460071848	0.437587086250676	0.0119961282687768	-0.000905699178732135
11.9	-0.010001585047788	-0.0102965032371646	0.937388522847368	0.295256907410613	0.937282789957676	0.295706638749669	0.0113009377868804	-0.00338504936899341
12	-0.0113436159350239	-0.00898142040017458	0.971786931801781	0.146383401907994	0.971758206827327	0.146747710245701	0.0100925507421367	-0.00565768898258566
12.1	-0.0120677420723508	-0.00723291709752106	0.982647698446512	-0.00615968327648638	0.982576818923625	-0.00577512032841758	0.00853673599490314	-0.00754272507519345
12.2	-0.0126991069133518	-0.00565801330793304	0.969745885500767	-0.158574223476988	0.969763426175916	-0.158276269146912	0.00646784509478779	-0.00899252216857869
12.3	-0.0130394114247132	-0.00386078266430537	0.933200473323068	-0.307063630636193	0.933320019303264	-0.306757056813402	0.00424824167073001	-0.00997676019829396
12.4	-0.0132490303890023	-0.002219000415455	0.874425831749475	-0.448111044910594	0.874489009367367	-0.447741453077024	0.0019182680457779	-0.0104853440969581
12.5	-0.0130178496105497	-0.000479885040338814	0.794190191106266	-0.578392497197594	0.794530695376259	-0.578002090820247	-0.000504231775213812	-0.0105516113177807
