# GHZ S RI R 50
0.2	0.986591862126247	-0.156746772798394	2.56503478658778E-06	2.25280939211172E-06	6.57758352546886E-06	-4.86889340939271E-06	-0.967244793053528	0.251148498339486
0.3	0.970677922556616	-0.233892218694748	-8.71145636044641E-07	-5.45952008498533E-06	-3.46471229075511E-06	-7.95505899373479E-06	-0.928031826907824	0.371201506646766
0.4	0.949413187548014	-0.309287232958411	-7.28728283927917E-06	-9.97574359086222E-07	4.44557637451623E-06	1.55012902240617E-06	-0.873772125394668	0.48524360261079
0.5	0.922738764948848	-0.383194565171193	6.20866303000705E-06	2.11063116693662E-06	-2.41710632926225E-06	-1.91203022438469E-06	-0.805341920591777	0.592219633657421
0.6	0.889615305722933	-0.454492041741465	-1.05678268399153E-05	2.46137735625816E-06	-2.22142407564768E-06	-1.00925309372934E-06	-0.723560065125043	0.688709529047257
0.7	0.851422497543368	-0.522554445661248	2.78916073821253E-06	-1.17298564731414E-06	-2.99451278563076E-06	5.79671849936223E-06	-0.631075042014321	0.774422029828823
0.8	0.807878216170496	-0.587871731860328	1.18110121292541E-06	-8.49065602006174E-06	-6.6315587815063E-06	-3.07753561010202E-06	-0.528334988368287	0.847819140094128
0.9	0.759141300314266	-0.649648669671622	-1.14870575259956E-06	-6.82471256235078E-07	2.55153747197771E-06	6.55578117643962E-06	-0.417227440034511	0.907543297557682
1	0.705566735787223	-0.707119879785363	-2.74865639164017E-06	-3.22851337011261E-06	-4.04111394261678E-07	-7.32857006028788E-06	-0.299717499871391	0.95259916440731
1.1	0.648984340947316	-0.76049905394968	1.81199213815644E-06	-4.94917551244894E-06	2.27633179270337E-06	-5.14282249126134E-06	-0.177146828307331	0.982698054373341
1.2	0.58674004823581	-0.810373774492292	-2.50149357576152E-06	2.49535285402848E-06	9.28224235507222E-07	-9.12237230514645E-07	-0.0514623345686153	0.996716507962336
1.3	0.51901594679513	-0.855259410899807	-1.54112194432049E-06	7.20414499595934E-07	-1.35842556482513E-06	1.46580027373797E-06	0.0748775078479137	0.994872028430254
1.4	0.448041615236278	-0.893994186376388	3.93009975539032E-06	-3.24677743009329E-06	2.70803699509364E-06	1.09606660928855E-05	0.200339342254842	0.976738426317921
1.5	0.375662336047044	-0.926527582147477	-5.34844798807585E-06	1.11235688204536E-06	6.60308982216648E-06	-7.22231756178488E-06	0.322407136088893	0.943378461873872
1.6	0.301505054146404	-0.954133410575418	1.777546447458E-06	-7.7588819109635E-06	3.64155519623967E-06	1.38444805170302E-06	0.438613288109777	0.894678486382581
1.7	0.226155922550387	-0.974596339463328	-1.94733327549639E-06	-9.7038435834964E-07	-2.37799403221058E-07	-2.09226168807413E-06	0.547110914731852	0.832764345742975
1.8	0.148920123593197	-0.989228621417081	2.86346777920988E-06	5.2903411938381E-06	6.1191799686216E-09	2.0368774570347E-06	0.647345017359619	0.757295126230994
1.9	0.0711513990759998	-0.997796435113866	5.68772368076186E-06	-2.64359856465556E-06	-3.00599645127898E-06	4.19495141688384E-07	0.736676813825735	0.670305947674228
2	-0.0062624010188531	-1.00089726010047	-1.55646100112172E-06	-2.03267768922988E-06	3.23694631350427E-06	1.14982831206658E-05	0.815890607441196	0.572604575574459
2.1	-0.0861852115634311	-0.997671579885383	-7.576466259921E-06	2.48156363174673E-06	1.22361749433238E-06	5.16255103937639E-06	0.881135448959884	0.46425544850031
2.2	-0.163674392982593	-0.987801084637134	-8.82526747635412E-07	1.4012595139413E-06	3.03372694698556E-06	7.79529446818269E-06	0.931895274009643	0.349735772802084
2.3	-0.241538325824849	-0.971330332392229	2.00893132604396E-07	7.4769975713558E-06	7.44742714046245E-07	9.39713488114841E-07	0.967721906686991	0.230436850437892
2.4	-0.318001321947604	-0.94832296475012	1.60577585092204E-06	7.19163386027084E-06	1.54504448422491E-06	6.40272680565415E-06	0.989061561189221	0.106563854104131
2.5	-0.391471423499715	-0.919913571221771	4.39509012087868E-06	-2.33504706445794E-06	-1.94477009336507E-06	-7.58629767860501E-06	0.994254456426951	-0.0185496323847645
2.6	-0.462644149057627	-0.88564250877851	6.76611204674366E-06	-5.98264239348032E-06	-1.10899203631004E-05	1.08921398045035E-05	0.983717355107439	-0.14377880655747
2.7	-0.531173565068156	-0.84606384884821	-4.4198975150212E-06	9.17858422874348E-06	-2.91183251273035E-06	-9.16927432196288E-06	0.957269987134073	-0.266694716861999
2.8	-0.595574229147728	-0.801672250109522	2.46697734319262E-06	1.13677841355767E-06	-3.12976667469947E-06	1.25801520918704E-06	0.916285623550702	-0.38466135838463
2.9	-0.65591865843739	-0.752479493673076	-5.48514390407935E-06	6.04842251786953E-06	-9.2114576133603E-06	-2.46543092010387E-07	0.860409044858641	-0.496370310336258
3	-0.711746752188991	-0.698277612714388	4.66476530101464E-07	-1.47675477671125E-06	1.13446018246695E-05	1.41514361965411E-06	0.79093218289622	-0.60066412370215
3.1	-0.764078768480099	-0.641741255466373	2.45047611763089E-06	1.04948969369257E-05	4.33758343306028E-06	2.1580618609623E-06	0.708838716450651	-0.694533660022615
3.2	-0.812249316714684	-0.580477146525822	2.1325373698407E-06	6.46159888278459E-06	3.95954375014613E-06	-1.06289472212147E-05	0.616087348607313	-0.777233979391422
3.3	-0.855261765236608	-0.515379897521179	3.10372760167555E-06	4.95055298855312E-06	-2.26641234452172E-06	-9.66270316350022E-06	0.512653583179677	-0.848171928361837
3.4	-0.891863638963509	-0.44728723976173	2.11397574066372E-06	-2.6120911307456E-06	5.96206285488983E-06	1.35762926863184E-06	0.402717110913235	-0.904850420946397
3.5	-0.923577364660764	-0.37603493693735	-3.235937658415E-06	9.57264171303898E-07	-2.06115172476502E-06	3.42961758553555E-06	0.286889616653877	-0.948005281235076
3.6	-0.950690459889877	-0.302397330640384	-1.82850448298794E-06	-3.73799290856376E-06	-7.81001641111547E-06	4.13924107691566E-06	0.165093761749166	-0.977334002827967
3.7	-0.971175122465825	-0.226815706685119	7.85917509925463E-07	-8.33020802110643E-06	1.07840714453301E-05	3.64996011552316E-06	0.0401405716249372	-0.989827931278668
3.8	-0.985691522179017	-0.149138099915481	9.87121572818854E-08	1.5458432938676E-06	-6.49047351972336E-06	5.97743097202995E-06	-0.0841603806235487	-0.986641072639884
3.9	-0.99351276533299	-0.0712203669287692	-2.64767961817664E-06	-5.01440744339399E-06	-3.66793350320116E-06	8.03753113989589E-06	-0.208759545870511	-0.968472830588577
4	-0.995091986217826	0.00736988901782258	7.124529260058E-06	-4.14388657388692E-07	-1.05002165225882E-06	-1.20039740282593E-06	-0.32914193350121	-0.935293615085069
4.1	-0.99149024691723	0.0849393271097509	6.17011130805459E-07	-4.46307080771378E-07	7.32396281664366E-06	-4.78546952779233E-06	-0.445232680203685	-0.885678862044631
4.2	-0.982038796477479	0.16269945025482	3.21081327711683E-06	2.08689081571743E-06	-7.20885546366313E-07	-7.58066942331555E-07	-0.552998413253851	-0.821674750854951
4.3	-0.966635556298164	0.238756186999597	-3.18064346813696E-06	1.38378843395696E-06	-4.97925695707884E-06	2.99893371170649E-06	-0.651578367123178	-0.745868848995433
4.4	-0.945156018588574	0.314051136643009	8.13572709220622E-07	2.63739885592758E-06	1.5206716277772E-06	-8.33217642524991E-06	-0.739988653920962	-0.658315810232152
4.5	-0.916028324728447	0.387722884630518	1.81857682053644E-06	-9.47059164143969E-07	7.62573507240032E-06	-2.88634959010923E-07	-0.817315193784648	-0.560171499219962
4.6	-0.88175236372953	0.457190785408763	-7.02529360248163E-07	6.12357586183155E-06	-1.23519019934903E-05	-6.42407988435442E-06	-0.881172200631121	-0.452712045239926
4.7	-0.84363463251392	0.523441203701298	1.20836073773149E-06	2.50219455545057E-06	1.42512892378766E-06	1.85800320329029E-06	-0.931312344237813	-0.338291136421919
4.8	-0.799466705735292	0.588320047654383	-5.13111815877501E-06	1.11237097373009E-05	5.25456358806198E-06	9.65437386118242E-06	-0.9662252271196	-0.217855485072173
4.9	-0.7501453911646	0.649096686985731	1.20569823369099E-06	2.920329827402E-06	-5.05039302219796E-07	-6.8946380887214E-06	-0.985316417909691	-0.0934452556077245
5	-0.6959544458942	0.704468182546493	4.72091941948314E-06	-9.19096212435082E-07	-3.7222359157629E-06	2.42425216642071E-06	-0.987251590850954	0.0311364392650273
5.1	-0.639285940885344	0.756440654933518	4.11952520724638E-06	-1.46958399168075E-07	-2.66187082615954E-06	-9.77531148628845E-06	-0.975723280682251	0.154181566777459
5.2	-0.578016076852761	0.805064889611133	2.59280480238153E-06	-1.49462947106261E-05	1.37739312291587E-06	2.81113923465704E-06	-0.948473279611931	0.275858176962089
5.3	-0.512840539496766	0.848621455305204	-8.68310020834199E-06	-7.69914966651547E-07	-1.13105837136063E-06	1.59724355380255E-07	-0.90604621181636	0.392829719758828
5.4	-0.444282489099112	0.886922266506675	-7.16710678148919E-06	-1.10172985068637E-05	-1.36860905734804E-05	1.11663666512843E-05	-0.849348917786332	0.502945626043636
5.5	-0.372552516422573	0.918686990141262	1.89993363687355E-06	8.75797642642245E-08	-2.23804897285938E-06	1.78064002915874E-06	-0.780753966627538	0.605227696313647
5.6	-0.29962494237668	0.944032664911339	-2.39748709063141E-06	3.50683306236434E-06	-1.33638817064615E-06	1.28717362089144E-06	-0.698780770770968	0.698932549833722
5.7	-0.224885265699889	0.964746179437634	1.30284348524662E-06	1.22617443167459E-06	5.74304748309566E-06	-1.23691668178287E-07	-0.605426717505287	0.780827116400955
5.8	-0.148582346461208	0.979151973067997	2.69510082096746E-06	4.24208126745807E-06	-2.10209016388132E-06	4.22787592292334E-06	-0.502620900141198	0.849782006807838
5.9	-0.0716102359098205	0.988131780516837	-6.86040097170187E-06	-2.29372882339173E-06	-7.82796081155588E-08	6.26630873592753E-06	-0.393033366012136	0.905294751921709
6	0.00724398777656665	0.991489437783023	-1.78838176313864E-06	8.88698881530105E-08	-5.44837988185119E-06	-4.38225027287026E-06	-0.277273453909376	0.947524213842582
6.1	0.0858042374744478	0.985730786597586	3.368203431235E-08	-9.88764757477729E-06	-9.83295815559717E-07	-3.20526264452834E-06	-0.156721376570852	0.973955864553913
6.2	0.162413321200776	0.974585128298636	-1.01573585906661E-06	3.10094132660477E-06	-1.7492265321591E-06	4.19879452938536E-06	-0.033941248946508	0.98526814639188
6.3	0.238148216018807	0.95860035422276	-8.01603198671264E-07	2.81783576873858E-06	-2.92484745457169E-06	2.3851580073349E-06	0.0893184700085579	0.981832379716685
6.4	0.313460339514409	0.937532643006348	-5.94760359657958E-06	5.5220355098627E-06	-2.37241539869136E-06	-7.47220153804034E-07	0.212268080849644	0.963697245629151
6.5	0.388220604884269	0.908830714884422	1.39577141029759E-06	-5.25709810806821E-06	-1.44446687158682E-06	-2.36708466216782E-06	0.333085142232331	0.928667491699305
6.6	0.457258063378509	0.874454178838556	3.63698635398233E-06	2.100875496342E-07	1.12539346475565E-05	-2.66219303272553E-06	0.446123730156396	0.878709635419973
6.7	0.524287549415444	0.83618960059106	-7.73894024118137E-07	8.42445651997215E-07	-3.76046137218842E-06	5.20162382107456E-06	0.55203951064157	0.816180799590148
6.8	0.588640081486334	0.792694936763767	-1.7564073502212E-06	4.46453795249097E-06	1.449147411533E-06	-8.76572032545443E-07	0.649490434041575	0.740898767807145
6.9	0.649570985774039	0.744270027588463	5.88690568604271E-06	2.25594392338016E-06	-9.34203457646454E-07	2.40225047870871E-06	0.736673655502603	0.654144666300176
7	0.706898000271814	0.690563519564402	1.1544704273244E-06	-4.13181276361363E-06	-1.4359448409759E-06	2.90161866090486E-06	0.812720519070673	0.557117841936634
7.1	0.759038351537115	0.632338213452444	2.42116120219531E-07	-7.15246268249767E-07	1.93340388652705E-06	9.17005028511086E-06	0.875683070248894	0.451017695898671
7.2	0.806381119688173	0.570253394839015	1.39017008559564E-06	-2.40125454105295E-06	-9.76482248461601E-07	-8.54365713446774E-06	0.92468613168844	0.338271506784316
7.3	0.848591615389029	0.504417404947961	4.79205460924666E-06	7.2200323038766E-06	-9.69100536755524E-06	2.28842729315403E-06	0.958851336400727	0.2202014381086
7.4	0.885553653367417	0.435706964941662	5.07407109718563E-06	-6.56430419561739E-07	1.97444211395678E-06	-9.58229245354118E-06	0.977949940153127	0.0992642025023691
7.5	0.918388789874677	0.365100644450545	2.77246893684952E-06	-5.26017675382962E-06	2.14157482290109E-06	-7.22565689694025E-06	0.98396704770609	-0.0222663560432461
7.6	0.946261898154309	0.289702281370247	-2.66826836098027E-07	-5.62719922964027E-06	1.67033852035529E-05	3.99734268940515E-06	0.974693394810563	-0.146895769425393
7.7	0.966932384006677	0.212304028070622	3.5133639205096E-06	1.38145749627888E-07	3.46360915621687E-07	-2.91936557295387E-06	0.948583717472256	-0.268789918018258
7.8	0.981163158636399	0.133890069673015	-1.09587703694938E-05	-2.00308393465617E-06	-2.29313753449588E-07	3.43605377058358E-06	0.907581956335447	-0.386025823066543
7.9	0.989519726180759	0.0548918661950095	2.34219508693242E-06	2.05046785114823E-06	-6.91163504682893E-06	-4.76833570210731E-06	0.853066493287916	-0.497211485758413
8	0.992623863103565	-0.0262291676978631	2.34019807264811E-06	2.97499764530002E-06	-9.31403152664168E-06	-7.6726033912688E-06	0.784661836838485	-0.603523523947597
8.1	0.985909694103583	-0.107141827092824	3.84359418367914E-06	-3.05804429528018E-06	2.16221132302882E-06	-3.17990826282011E-06	0.700046449418046	-0.697624978000726
8.2	0.973624853535441	-0.185318591365051	-4.04271103430216E-06	1.40120847909326E-06	-6.75720637459064E-06	3.34931124037917E-07	0.606641200926056	-0.779015857249286
8.3	0.955290790104802	-0.262689623640233	9.86356848075912E-06	3.34832023481547E-07	6.20360327933616E-06	1.04746135120439E-05	0.504127246114156	-0.848409759590547
8.4	0.930885120520785	-0.338526854588638	1.27396309798797E-06	2.56137918760017E-06	3.45222300667483E-06	1.83685965464577E-06	0.39409274108883	-0.904661648404418
8.5	0.90040426620346	-0.412671252465107	-4.86741262398534E-06	4.9375415989145E-06	2.86883963222221E-06	-3.00699122422603E-06	0.277944838089116	-0.947576531543329
8.6	0.86393454570797	-0.483871486217829	-4.51506903907137E-06	2.06712471947479E-06	-3.08344920249432E-06	8.11235098278307E-06	0.155985506533494	-0.975972233027553
8.7	0.822124730200818	-0.552183384833295	-1.02878865919353E-06	1.21386032172658E-06	-6.61445527032475E-07	3.46729491480223E-06	0.0312180864648565	-0.987862230215616
8.8	0.774773425459287	-0.616971068772687	-1.60033372737822E-06	3.08013372198065E-06	-6.02716589659952E-06	1.26473486514559E-06	-0.093527257545731	-0.983914702739446
8.9	0.722242353503711	-0.67765070519896	3.1857982206439E-06	-1.82653208403798E-06	-3.17026770645702E-06	-4.6680805221778E-07	-0.216855599759799	-0.96339461391626
9	0.665154854702664	-0.733152461247123	-7.29149358416873E-06	1.32997072582514E-06	-3.98039109992963E-06	7.13643777899294E-07	-0.334468149927591	-0.928426114513559
9.1	0.604314467181016	-0.784695183998484	-3.34684236631792E-06	-1.89838968384871E-06	-9.9347185859712E-07	2.13076801710947E-06	-0.448789596823694	-0.880963348307459
9.2	0.538602022673648	-0.831117387658313	5.99739484082448E-06	-1.61012519578268E-06	1.94352152581645E-06	8.49625537940738E-06	-0.556785735095018	-0.818986185297253
9.3	0.469205945611636	-0.8718251899186	-3.45832254585013E-07	1.07008153540297E-06	1.36186515206752E-05	1.19235711095145E-05	-0.656320857494177	-0.743098008622084
9.4	0.396625237119462	-0.905859843285727	1.75185625019739E-06	-2.65499859461628E-06	4.28346884439925E-06	1.78910155799185E-06	-0.744223878745666	-0.655303568380502
9.5	0.32258966601308	-0.934936078415304	-6.49292743628792E-06	-4.96052199113503E-06	-1.90760674742151E-06	-5.74223753586681E-06	-0.822788726828897	-0.559020016145891
9.6	0.243181590214341	-0.958386718998178	-1.17457190093597E-05	-3.3763368936507E-07	-5.93229342464279E-06	-4.07490639446446E-06	-0.890117258085418	-0.449493421421853
9.7	0.162656238247097	-0.973737621599417	1.47924466926029E-06	-4.73064621506851E-07	-2.94386938037677E-06	1.6351867771924E-06	-0.940488663290389	-0.331785027178103
9.8	0.0816462078591877	-0.982378914916115	2.21290642210632E-06	1.42020882944512E-06	1.52138285581224E-05	-3.45087803053454E-06	-0.97465188635386	-0.209575152138987
9.9	0.000387470968742982	-0.984286153659516	-3.52322957516314E-06	9.01606598767174E-06	1.38286985692731E-05	5.08277010408836E-06	-0.993014330257432	-0.0843134993858545
10	-0.0805757453650135	-0.979380406402006	-3.67345084070535E-06	1.6157466076355E-06	1.94378550888882E-05	-1.81964898356406E-05	-0.995479300642012	0.0410507003455623
10.1	-0.160608217661995	-0.967025799157743	-1.49906026958096E-06	2.31418982424623E-06	-8.46819426963742E-06	-4.37459687981648E-06	-0.983841875651919	0.166592830322664
10.2	-0.238740369252974	-0.948287072769357	-2.32464603954423E-06	-1.25813241596709E-06	-1.30470371702971E-05	7.24889067194951E-06	-0.955339684550621	0.290540911712065
10.3	-0.314147897970298	-0.922763359053488	5.80657491847548E-06	3.97179083537492E-06	-6.20510592803631E-06	1.3775727095438E-06	-0.911274369987317	0.409431684132864
10.4	-0.386918935567227	-0.891233124458966	2.11878250422836E-06	1.05813504533501E-06	7.18071536801704E-07	-8.2924727330827E-06	-0.85195860146719	0.521479396058635
10.5	-0.455777857340853	-0.852435087240252	4.39680468888701E-07	-3.08660554819936E-07	-6.66614545473363E-07	-5.67157915966319E-06	-0.778479577232102	0.623938532909104
10.6	-0.51889319524524	-0.808899915519856	5.11144852558209E-06	-2.62819308178956E-06	-9.81418379707284E-06	-7.90521181166779E-06	-0.69439288569197	0.715743433752361
10.7	-0.577805974972285	-0.761488243270592	-2.82786210595204E-06	-4.99885915405138E-07	-5.26098383980498E-06	-7.19176923344431E-06	-0.600023158535982	0.797269921172163
10.8	-0.632471444225685	-0.71103074473534	-3.63615336982619E-06	-3.45118301436158E-06	-1.19964427053815E-05	9.20537473045958E-06	-0.495498835914564	0.866872326370459
10.9	-0.683157275890071	-0.657382704341139	-1.14447675969949E-05	-1.04243103608194E-05	-4.46136446775824E-06	1.10045773016949E-05	-0.382373308443368	0.921992340156787
11	-0.727947855967729	-0.602765051614891	1.01434384742401E-06	1.41187080512065E-06	8.67904486893291E-06	-5.51908254338366E-06	-0.264791774324543	0.961094745477503
11.1	-0.772135014318672	-0.546923203725561	-3.29466107308509E-07	-3.64774781839499E-06	1.0222909256929E-05	-1.02480152906313E-05	-0.14332264138468	0.988663131087861
11.2	-0.813269256276256	-0.486901567170636	-1.04182806645304E-06	-3.93168581163605E-06	2.1644713909116E-06	-6.34533472051443E-06	-0.0162161383826261	0.999809115832764
11.3	-0.850559291084759	-0.422910319441243	1.61832449516382E-06	-1.21097346533738E-05	3.57846504876376E-06	-2.84379225388146E-06	0.111531382495498	0.993658593975921
11.4	-0.882291965808653	-0.355878316099098	9.91949951119E-07	1.58108359988152E-08	-5.7010684477064E-06	6.51126775237351E-06	0.237634200683628	0.970828085672561
11.5	-0.909742560613807	-0.286976125827627	6.57828403493304E-06	-1.26951070154364E-06	8.28239299277024E-06	-3.41846990450366E-07	0.35815185893514	0.931650873829843
11.6	-0.9323397082902	-0.214430832567279	-6.65522636892466E-07	-5.350923517967E-06	1.43139634357562E-06	-3.10176440582272E-06	0.473188182489824	0.87806924996081
11.7	-0.948152090925286	-0.138981562389911	-1.2290071381264E-07	-6.07089896956054E-06	8.83453589568858E-07	-2.67285652084546E-06	0.580374905164087	0.810005400687124
11.8	-0.958022845692962	-0.061548038776368	-1.07835865794783E-06	-7.38411685819748E-07	5.18788583253947E-06	1.05826358386236E-06	0.67767006111112	0.728910967485667
11.9	-0.961496989889657	0.0177105866374489	-3.24770867907241E-06	-5.21404734104723E-06	-5.43660766441461E-06	-8.01670745508504E-06	0.762959482184534	0.63733101736424
12	-0.958068459274975	0.0978775730936085	-2.95297072055616E-06	1.66244400741203E-06	-1.68509372479615E-05	-8.72650487958498E-06	0.836113950854873	0.535755458479208
12.1	-0.948015530721306	0.176551691623202	8.22118384592486E-07	-1.57913834431687E-06	7.95635300132832E-06	1.22997154122807E-05	0.894514512235479	0.425765798634908
12.2	-0.93105506324517	0.255070907978762	-4.09709863634639E-06	5.59839878861958E-06	4.35077693524378E-07	3.3267696986167E-06	0.93966769867712	0.310406129879168
12.3	-0.908300194725637	0.332235846085125	7.91255452615771E-06	6.37482071339427E-06	4.86570559092546E-07	1.09471032374892E-05	0.970228687513155	0.189599657550598
