# GHZ S RI R 50
0.2	0.987241582974494	-0.156331840509877	2.56542705143372E-06	2.2549080888934E-06	6.5826995092272E-06	-4.8687495043691E-06	-0.967640481325577	0.250952252125504
0.3	0.971509926755525	-0.233464948430182	-8.69308209571118E-07	-5.46353103723302E-06	-3.46349283806996E-06	-7.96187482999242E-06	-0.928612391086024	0.371053874701901
0.4	0.950474641070392	-0.308973987660479	-7.2936042654258E-06	-1.00158092805276E-06	4.4490343353041E-06	1.55344451899386E-06	-0.87460201221854	0.485288689830593
0.5	0.923659625103822	-0.383272592201776	6.21506356310986E-06	2.11278802901727E-06	-2.41960112317309E-06	-1.91399293161517E-06	-0.80606187335519	0.592853843787148
0.6	0.890263852055216	-0.454216604355999	-1.05750586722133E-05	2.46224331289663E-06	-2.22283210477692E-06	-1.01008966903406E-06	-0.723878147006234	0.689236738796493
0.7	0.852388418253687	-0.522096469074305	2.79164358521811E-06	-1.17313637091511E-06	-2.99841344304989E-06	5.80039999869999E-06	-0.631403639880624	0.774928535164354
0.8	0.809189725102386	-0.587544076850493	1.18491530533602E-06	-8.49859827778035E-06	-6.63708741992431E-06	-3.08262427181325E-06	-0.528624563069294	0.848397782174889
0.9	0.760750519630988	-0.64976455541204	-1.14998583007522E-06	-6.83616654847701E-07	2.55313274523436E-06	6.56468311401923E-06	-0.417491130770866	0.908178723765073
1	0.706991606283533	-0.708012713604942	-2.75310005657823E-06	-3.23327736545519E-06	-4.05241949379435E-07	-7.33979040865219E-06	-0.300052551723437	0.953375874514052
1.1	0.649770517011044	-0.761777563149231	1.81299638265565E-06	-4.95768892698996E-06	2.2779978938552E-06	-5.15181711019684E-06	-0.177529119894127	0.983768580705817
1.2	0.586932812507365	-0.811719346913684	-2.50431932125061E-06	2.50101400999396E-06	9.29280586487343E-07	-9.14314630907138E-07	-0.0518619129482138	0.998327369050494
1.3	0.518686323099915	-0.856424370574639	-1.54322256045113E-06	7.22933012024773E-07	-1.3595973757742E-06	1.46947039578075E-06	0.0749019260868145	0.997064747231114
1.4	0.447376939491271	-0.894542411307235	3.93240297341849E-06	-3.25492956758672E-06	2.72209739079502E-06	1.09730880395186E-05	0.201008394847572	0.978854827207948
1.5	0.375427289973667	-0.926142703206115	-5.35168879964856E-06	1.11636769360827E-06	6.60359306599166E-06	-7.23154082245335E-06	0.323647463376672	0.945081456270025
1.6	0.301818486899812	-0.953680842192729	1.77711743545423E-06	-7.76310131081351E-06	3.64362956013002E-06	1.38452435031217E-06	0.440156799319765	0.895436176455048
1.7	0.226688108415597	-0.974158098382815	-1.94818979768312E-06	-9.70922443756901E-07	-2.37813653494531E-07	-2.09324056340262E-06	0.548518485657884	0.832956631164298
1.8	0.149552393315588	-0.988836510438108	2.86373742283958E-06	5.29301158382396E-06	5.77158840970194E-09	2.03771715526993E-06	0.648529857392305	0.757105924919182
1.9	0.072050579554577	-0.997512035734535	5.69179949752537E-06	-2.64150514797276E-06	-3.00758685369837E-06	4.17950164385762E-07	0.737334536736301	0.670202967509561
2	-0.005470723343077	-1.00159593286401	-1.55773607999868E-06	-2.03688502973293E-06	3.23520873445014E-06	1.15187218537363E-05	0.817440316225875	0.573557022755841
2.1	-0.0865846696298832	-0.998039476803999	-7.58516765307934E-06	2.489683027035E-06	1.22851716993914E-06	5.16877362482824E-06	0.883676567011021	0.46364841706466
2.2	-0.164009226528879	-0.987559103095889	-8.82431065302206E-07	1.4029011162719E-06	3.04067747300564E-06	7.79984214414166E-06	0.933870529861828	0.348263756407529
2.3	-0.241621853331198	-0.970997673377176	2.03510280848333E-07	7.4821616398958E-06	7.45574968443768E-07	9.40124192670085E-07	0.969114885773987	0.228602937863651
2.4	-0.31793410921171	-0.948215425746748	1.60728614674783E-06	7.19759007968132E-06	1.5464853109675E-06	6.40802688308432E-06	0.989828955345204	0.104770759793767
2.5	-0.391655575526966	-0.920198674221496	4.40117110832033E-06	-2.33770363052094E-06	-1.94658267563373E-06	-7.59658148043471E-06	0.994948055812891	-0.0199261459919098
2.6	-0.463384680501738	-0.885915218249823	6.7767151381683E-06	-5.99328280733389E-06	-1.11071852457231E-05	1.09113830683753E-05	0.984490804937358	-0.145132030451282
2.7	-0.532325253348084	-0.846021540501462	-4.42418833735281E-06	9.19776670033109E-06	-2.92131582704054E-06	-9.18523192734452E-06	0.958247763196104	-0.268188876808238
2.8	-0.597085904773388	-0.80120570524446	2.47261117898309E-06	1.13673103338278E-06	-3.13452752762389E-06	1.26314203987211E-06	0.917154024711148	-0.386644700998508
2.9	-0.658023347283513	-0.751297506986684	-5.48667541859452E-06	6.06768212584462E-06	-9.22906949481404E-06	-2.33688847556044E-07	0.860776247853683	-0.498579442313342
3	-0.713617965887118	-0.695168889574707	4.63173977765881E-07	-1.47973408992238E-06	1.13618234437338E-05	1.38718808682805E-06	0.791167475717506	-0.602720872078997
3.1	-0.76471790198701	-0.638303084640455	2.47817743791073E-06	1.04896939812706E-05	4.34371787824014E-06	2.14697525591453E-06	0.709016233546886	-0.697183899342468
3.2	-0.812292760907217	-0.576823693874521	2.14840543021036E-06	6.45346216627244E-06	3.93041975987442E-06	-1.06348983097179E-05	0.615584710473811	-0.780303806766568
3.3	-0.854712001507032	-0.511536604979388	3.11409963968313E-06	4.93757338449862E-06	-2.29021786531688E-06	-9.64754535702625E-06	0.511167187444158	-0.851331408243172
3.4	-0.890479738730875	-0.443234532948979	2.1031492329793E-06	-2.61269073808774E-06	5.95435811670155E-06	1.33946503053895E-06	0.399973298478921	-0.907155680003795
3.5	-0.920958790046487	-0.373115075874594	-3.22758150346687E-06	9.57967805649198E-07	-2.05328461709277E-06	3.4235367457371E-06	0.28533315009804	-0.948580821174898
3.6	-0.949106525066201	-0.30023624998785	-1.83057938337854E-06	-3.73286829530222E-06	-7.79899390152459E-06	4.14329344002853E-06	0.163763821811992	-0.979579712935984
3.7	-0.969680581920634	-0.224320250508889	7.72703688002962E-07	-8.32243896001637E-06	1.07779232479593E-05	3.63002981051445E-06	0.0374333134804434	-0.991809874185319
3.8	-0.98403583114049	-0.146698024746795	1.00690083766707E-07	1.54349450481247E-06	-6.4729852047504E-06	5.97777011656906E-06	-0.0875257138750763	-0.987376606689419
3.9	-0.991943129856861	-0.0688912169229502	-2.64814515589718E-06	-5.00429484432436E-06	-3.65501331395826E-06	8.02848435881772E-06	-0.211670809140414	-0.967489397799017
4	-0.99353064385976	0.010023719842353	7.11656805969018E-06	-4.20195928473189E-07	-1.0499548024518E-06	-1.19819626561932E-06	-0.330157640168974	-0.93391698260113
4.1	-0.989437839316129	0.0876794989455239	6.15597061719532E-07	-4.46414874102973E-07	7.30779393679702E-06	-4.78747723128408E-06	-0.44575711633482	-0.885032785924634
4.2	-0.979583691939207	0.165091806811379	3.20723949042059E-06	2.0797169064416E-06	-7.20390685797957E-07	-7.55934144030683E-07	-0.553441796468719	-0.821251410690131
4.3	-0.964183807272963	0.240501032849019	-3.17302275869656E-06	1.38286954753924E-06	-4.96679929735302E-06	2.9957297660958E-06	-0.651970219998015	-0.745444678596102
4.4	-0.943785683339843	0.3153000131737	8.11303108999336E-07	2.63315270397203E-06	1.5208361832735E-06	-8.31740244373856E-06	-0.740419049884026	-0.657793715251477
4.5	-0.915494865011157	0.391005913036028	1.81903768126763E-06	-9.47795963173455E-07	7.6284589612341E-06	-2.90379164019796E-07	-0.817496427961899	-0.558931488957653
4.6	-0.87956020696103	0.46096568113001	-6.90590343870487E-07	6.1248944622593E-06	-1.23643190757517E-05	-6.39995637644684E-06	-0.880207362848252	-0.451742265299693
4.7	-0.840789649593495	0.527072368261828	1.21409791555459E-06	2.4984286270466E-06	1.42921879627991E-06	1.85391427914131E-06	-0.930199320590368	-0.338066747431277
4.8	-0.796063474569318	0.591817432700185	-5.09494989985862E-06	1.11344731367421E-05	5.28169414430893E-06	9.63411581521271E-06	-0.965450232521295	-0.218029311948318
4.9	-0.74611294670473	0.652830779784325	1.21701014648818E-06	2.91343828598831E-06	-5.33267345827041E-07	-6.88806583720071E-06	-0.985110277502558	-0.0929975407487118
5	-0.689590534095044	0.707317002722744	4.70263333708464E-06	-9.39827758899464E-07	-3.69939226030586E-06	2.43565527340183E-06	-0.984754563232882	0.0322279330102896
5.1	-0.6336439221051	0.756825032327164	4.10386784466455E-06	-1.59153737225992E-07	-2.68227281157626E-06	-9.73100546585159E-06	-0.973601677376907	0.152402470190741
5.2	-0.573071217745402	0.804898323493664	2.54378138691874E-06	-1.48980105088003E-05	1.37973431382427E-06	2.79713386513607E-06	-0.947812452372202	0.27420642007495
5.3	-0.508257751351369	0.847761728004883	-8.64804710439534E-06	-7.48287892800844E-07	-1.12594214284452E-06	1.61443048831212E-07	-0.90549636123362	0.39182198654206
5.4	-0.44049714193346	0.88533175809113	-7.14388623724663E-06	-1.09599265008204E-05	-1.36127855990309E-05	1.11270602142786E-05	-0.848145630366314	0.50212952172009
5.5	-0.369491603854829	0.91726687354766	1.89388704261971E-06	8.76003117658156E-08	-2.23122241976379E-06	1.77463420772594E-06	-0.778696124928357	0.603300830173214
5.6	-0.296627986447333	0.942261070515385	-2.38653304406588E-06	3.49896786060645E-06	-1.33100574506853E-06	1.28478134323035E-06	-0.697649063609257	0.695660313034366
5.7	-0.222359975247312	0.962398445761054	1.29947902924931E-06	1.22012377123911E-06	5.72172624601801E-06	-1.29977548808501E-07	-0.605537830296306	0.777358061205487
5.8	-0.146922854910999	0.976009959321552	2.68654354599299E-06	4.22053181951999E-06	-2.08891801093476E-06	4.21052682658298E-06	-0.503754813875005	0.846490035489668
5.9	-0.0721682971895047	0.984286858417142	-6.81763412239856E-06	-2.28407421931411E-06	-8.16230707461123E-08	6.22847340648103E-06	-0.395538063372124	0.902445006225948
6	0.0040610496575801	0.990679706060579	-1.78064698648429E-06	7.99220147441097E-08	-5.40258997802958E-06	-4.38828161578773E-06	-0.280781619571618	0.947556078722722
6.1	0.0842339896804295	0.986833753253385	7.75765269967168E-08	-9.87413920455581E-06	-9.67723376691268E-07	-3.20530187562461E-06	-0.157859119694689	0.975093205320834
6.2	0.16160853980757	0.976116878863347	-1.02839512671193E-06	3.0962885377343E-06	-1.76631255711305E-06	4.19095008977221E-06	-0.0341490104343853	0.985948133557465
6.3	0.237724106483939	0.960163047674486	-8.13226580790149E-07	2.81705035198499E-06	-2.93654541230655E-06	2.37575616600366E-06	0.0891983874038583	0.981957527661453
6.4	0.312838527315144	0.93987033680639	-5.97964414905591E-06	5.51035519298346E-06	-2.37416081574773E-06	-7.57525173227664E-07	0.211687007492944	0.964337965541655
6.5	0.390672996504137	0.911687854882514	1.40517437095321E-06	-5.27439904925241E-06	-1.44752536392146E-06	-2.3766462303795E-06	0.33535294159144	0.929170452367967
6.6	0.459348292449495	0.874060502256287	3.63897989948306E-06	2.06405422042088E-07	1.12566565277416E-05	-2.67520310488423E-06	0.446796633414637	0.87566592493822
6.7	0.525206124635125	0.835384031124005	-7.72611514761722E-07	8.42240049949451E-07	-3.7534493540423E-06	5.19963770207679E-06	0.550709623459642	0.813412657545258
6.8	0.588968318158064	0.791568533851121	-1.75039269964409E-06	4.45834404490928E-06	1.44613294179917E-06	-8.76122282036854E-07	0.647290131994032	0.738643177209508
6.9	0.649023579739404	0.742936168386237	5.87157011111401E-06	2.24546823267315E-06	-9.29889618631039E-07	2.39600182328299E-06	0.733764969831153	0.652572422754607
7	0.70576602850908	0.689898200896896	1.15732839434558E-06	-4.11634841962314E-06	-1.43589344014638E-06	2.8897510241916E-06	0.810176463202063	0.556661568224454
7.1	0.758002308074906	0.631773216361012	2.42798973668096E-07	-7.14198634692171E-07	1.91948978667254E-06	9.16317462119499E-06	0.873436148088472	0.450106155532871
7.2	0.805249229385073	0.569534379373779	1.38926140187798E-06	-2.39981582693533E-06	-9.76085722520001E-07	-8.53839823531921E-06	0.922063431081848	0.337272336943031
7.3	0.847175963409559	0.503119946863572	4.80039324644864E-06	7.20770973472643E-06	-9.68104613124993E-06	2.30232413907654E-06	0.955690664428481	0.218849369180625
7.4	0.882497999902907	0.433382326569691	5.05929376341987E-06	-6.75877057692996E-07	1.9300784423929E-06	-9.56769218325317E-06	0.972473586965897	0.0975598930371154
7.5	0.912551196205529	0.3650862284808	2.73686538641556E-06	-5.23066260100836E-06	2.10464063574502E-06	-7.18014314852391E-06	0.976246433178248	-0.0195233868566837
7.6	0.941269595172971	0.291409030079538	-2.68422181314185E-07	-5.58678326205267E-06	1.65863994639009E-05	3.95835009929884E-06	0.969331423137318	-0.142213431154472
7.7	0.961775047799709	0.214997956968289	3.48555391386973E-06	1.38691659001723E-07	3.4498577085642E-07	-2.89614946727899E-06	0.944069210815647	-0.262785248557818
7.8	0.976002313591219	0.137971130527611	-1.08631754738566E-05	-2.01096981557614E-06	-2.35101390438501E-07	3.40697346237871E-06	0.904442136507716	-0.378549480948746
7.9	0.984745481166828	0.0615968268699607	2.31245577212252E-06	2.0459910470669E-06	-6.83055912932272E-06	-4.76555817506476E-06	0.852280273494993	-0.487445320385895
8	0.993280600603288	-0.0172376931783116	2.30720050306436E-06	2.98562414318523E-06	-9.21849323138313E-06	-7.72816470336393E-06	0.790845895224741	-0.594686790930769
8.1	0.988740490912285	-0.102489415601535	3.86182962716522E-06	-3.03874000405293E-06	2.18033269109503E-06	-3.16971757566956E-06	0.706616809468241	-0.694422617153434
8.2	0.975898394765398	-0.182119878583951	-4.0513291206999E-06	1.38693051506749E-06	-6.7639586885868E-06	3.09439793365005E-07	0.612337397300896	-0.77737582503655
8.3	0.957414405842229	-0.260181887124137	9.87521043098229E-06	3.64746039942724E-07	6.18024347391398E-06	1.05065838107819E-05	0.509511087463755	-0.847949231068821
8.4	0.932977704317589	-0.336523512312933	1.27157609880636E-06	2.5678795912501E-06	3.45473281211609E-06	1.84598683984201E-06	0.39872909340295	-0.904955095032573
8.5	0.902605060097888	-0.411409364767051	-4.87270152711173E-06	4.93233128008107E-06	2.87206057065886E-06	-3.00392031110697E-06	0.283152160943957	-0.947412035933791
8.6	0.865539830056719	-0.483160121234694	-4.52113355998845E-06	2.05444347364886E-06	-3.10655592895194E-06	8.10400804493798E-06	0.162204210839633	-0.977581583241957
8.7	0.823400838754836	-0.55154023665485	-1.03416381109536E-06	1.21161002300756E-06	-6.7428233056634E-07	3.46881777401661E-06	0.0372558637080632	-0.991424995165858
8.8	0.775927711169403	-0.61651638822988	-1.61618834093097E-06	3.08184213945013E-06	-6.04733023490072E-06	1.24488896684035E-06	-0.088657119244828	-0.989704423426892
8.9	0.722982028329205	-0.677768799420504	3.20657583596157E-06	-1.82627635846514E-06	-3.18437716478955E-06	-4.78196486739708E-07	-0.215551122328895	-0.970496590697283
9	0.66487992869088	-0.732741610216361	-7.32322016343321E-06	1.33940238565964E-06	-3.9977164756725E-06	7.18737511546277E-07	-0.33503328235935	-0.931437375317866
9.1	0.604346786213204	-0.784273543906717	-3.35901008098688E-06	-1.9022628034097E-06	-9.95239075808909E-07	2.13836730213827E-06	-0.44766552514828	-0.883943245162675
9.2	0.53819156036303	-0.830899524927037	6.00980630412236E-06	-1.62348204571736E-06	1.96160395325492E-06	8.51436434387189E-06	-0.555770953541642	-0.821578992394347
9.3	0.468280559237898	-0.871537718118962	-3.44150552054769E-07	1.0719663434427E-06	1.36572197747977E-05	1.19107057123442E-05	-0.654825272798239	-0.745251793654044
9.4	0.394672125839338	-0.904478795789421	1.74492124128475E-06	-2.65628251106456E-06	4.28342208221199E-06	1.7788089280282E-06	-0.742064723103411	-0.656263413242814
9.5	0.324280811027766	-0.931582499223581	-6.46546268282538E-06	-4.96253504985033E-06	-1.88995521822325E-06	-5.73202515947864E-06	-0.816296131590121	-0.561957278631556
9.6	0.245377595021836	-0.959680257993875	-1.17596996214126E-05	-3.72605812803713E-07	-5.92787250001222E-06	-4.09754674665492E-06	-0.886190992000872	-0.456473412922907
9.7	0.162408963753058	-0.975936907736348	1.48302835794937E-06	-4.7153413857987E-07	-2.95256535192265E-06	1.63354251706406E-06	-0.938851408235706	-0.339098817545493
9.8	0.079889721140508	-0.98401819539966	2.2156372195827E-06	1.42581122799879E-06	1.52488861168359E-05	-3.43911917763668E-06	-0.974877173908188	-0.21690103598089
9.9	-0.00180658319930523	-0.984858763598034	-3.54356889176932E-06	9.03352255868026E-06	1.38558908333838E-05	5.11318131106048E-06	-0.995532665241424	-0.0907304375357064
10	-0.0824862482214394	-0.98045211785832	-3.68625005228707E-06	1.62077093757747E-06	1.95069133591853E-05	-1.82561019724598E-05	-0.998476930811836	0.0369883326334006
10.1	-0.164122593122867	-0.967467382765511	-1.50057950116902E-06	2.32014588344336E-06	-8.48919810576884E-06	-4.37780944398161E-06	-0.986351472820127	0.162929917100179
10.2	-0.242050122464908	-0.947486763907855	-2.32787248732619E-06	-1.26015354177723E-06	-1.30664545321657E-05	7.25811705040343E-06	-0.958354775027469	0.286864862992012
10.3	-0.316782398478238	-0.921765460796962	5.81122089870765E-06	3.98541514175049E-06	-6.21696117692102E-06	1.37222471441128E-06	-0.91574886324944	0.406083718255508
10.4	-0.389182574513809	-0.890795487776816	2.12251537789534E-06	1.06679307050007E-06	7.41538674524581E-07	-8.3158678095739E-06	-0.858999847530428	0.520801476608093
10.5	-0.458274455742155	-0.852947107021628	4.42721350703095E-07	-3.09873330658035E-07	-6.62601051681472E-07	-5.70614821981574E-06	-0.78227048401344	0.629819247699124
10.6	-0.522415749608593	-0.809976062386013	5.13915519424452E-06	-2.64527566457181E-06	-9.87306589838361E-06	-7.94553873833288E-06	-0.692474280437897	0.719982429118861
10.7	-0.58203522318154	-0.762774279705194	-2.84383539332063E-06	-4.99476239757422E-07	-5.29764330940477E-06	-7.22514969773201E-06	-0.595888976953751	0.799154542918157
10.8	-0.63790327330181	-0.712807457511205	-3.66156801003228E-06	-3.46456792856483E-06	-1.20483036675179E-05	9.27477818470775E-06	-0.490942532077239	0.866284338453581
10.9	-0.691413880444285	-0.658271751616553	-1.15495818881324E-05	-1.04499899451623E-05	-4.45200260534283E-06	1.10868227492276E-05	-0.377807405711843	0.921163328210198
11	-0.734575183785891	-0.59949957384092	1.02380061460745E-06	1.40996671865774E-06	8.67096222206481E-06	-5.57557884590918E-06	-0.256987551543243	0.95749004858852
11.1	-0.777546399926603	-0.546199186951359	-3.37382170212477E-07	-3.65305148062688E-06	1.02189155749002E-05	-1.02854611329375E-05	-0.138135218510444	0.980998270286219
11.2	-0.820483774190265	-0.485989058695209	-1.05063619728058E-06	-3.93918515256987E-06	2.1592436259505E-06	-6.36367219931223E-06	-0.0136416911634519	0.991111304149705
11.3	-0.858566237119278	-0.420456722865657	1.60238186159361E-06	-1.21394206824571E-05	3.58187141833894E-06	-2.85592989914188E-06	0.111460466626698	0.984613764466117
11.4	-0.889496233564459	-0.351449646403891	9.93261444531517E-07	1.44964705368504E-08	-5.69972112185991E-06	6.5274091620119E-06	0.235143109656221	0.962535326791915
11.5	-0.915109528164168	-0.284405698671537	6.59020179002261E-06	-1.26467101396444E-06	8.29608326089109E-06	-3.33730878869802E-07	0.354723564382481	0.924768599819348
11.6	-0.941226984010863	-0.2116770941634	-6.66054748937646E-07	-5.37096181782486E-06	1.43781139031444E-06	-3.11272445589151E-06	0.468544541739866	0.871467227235929
11.7	-0.957562889942465	-0.13341670087291	-1.27947977200417E-07	-6.09311910352228E-06	8.84677362481369E-07	-2.68334917613016E-06	0.573971716344048	0.804678547621578
11.8	-0.966577048355714	-0.0537688889796194	-1.08289321511667E-06	-7.39141086590515E-07	5.20596043449338E-06	1.05384604430735E-06	0.669858031135869	0.725933319981293
11.9	-0.968447734276694	0.0275540527175653	-3.26459990755567E-06	-5.2186999936522E-06	-5.46350751764149E-06	-8.02300407308401E-06	0.754327142701881	0.63902104652312
12	-0.961585215190524	0.107795924022463	-2.95866429505867E-06	1.67141534967219E-06	-1.69104317156717E-05	-8.72562972750433E-06	0.835682579195727	0.542268838915575
12.1	-0.950121193609525	0.185770898614876	8.18489806497942E-07	-1.58487588679213E-06	8.0121486533781E-06	1.22970742631096E-05	0.898023499298472	0.426628380387406
12.2	-0.931623735477481	0.263089753693675	-4.0819755359168E-06	5.61322643142546E-06	4.45319534103705E-07	3.32691020270355E-06	0.942981158904114	0.308695474199
12.3	-0.908410932279084	0.33827949980178	7.92543878932737E-06	6.35940356931255E-06	5.08230769786908E-07	1.09465299549449E-05	0.973562125839679	0.186622307969172
