# GHZ S RI R 50
0.2	0.987299052862262	-0.156551340157161	2.56571219898275E-06	2.25476517597405E-06	6.58250908801799E-06	-4.86948999802937E-06	-0.967607372982341	0.250909083304956
0.3	0.971482418641876	-0.233835345333718	-8.70081838833165E-07	-5.4635046226949E-06	-3.46465814055258E-06	-7.96153132290439E-06	-0.92857455054853	0.370940952469423
0.4	0.950277597721424	-0.309441716634366	-7.29350317485181E-06	-1.000278018055E-06	4.44913615781547E-06	1.55261424179523E-06	-0.874576333801456	0.485079025544679
0.5	0.923324641868966	-0.383706224113085	6.21503525059791E-06	2.1120886671495E-06	-2.41969868102532E-06	-1.91367877785008E-06	-0.806216687307142	0.592518308353706
0.6	0.88979627682161	-0.454668412512813	-1.05747832943615E-05	2.46410371518967E-06	-2.223037935677E-06	-1.00972024203573E-06	-0.724147551376714	0.689031564692117
0.7	0.85177766193216	-0.52244898099863	2.79134885993027E-06	-1.17365111900006E-06	-2.99721414541511E-06	5.80084448347294E-06	-0.631701386765978	0.774765634009001
0.8	0.808515711548421	-0.587754647764126	1.18322219711743E-06	-8.4984817320059E-06	-6.63741393274792E-06	-3.08121422016586E-06	-0.528947332957514	0.848297458392777
0.9	0.760097590092782	-0.649834400200721	-1.15006141788184E-06	-6.83344382905869E-07	2.55432918963083E-06	6.56379888966829E-06	-0.417762110191908	0.908149356562835
1	0.706383253757072	-0.708043464259838	-2.75371074118107E-06	-3.23221944998199E-06	-4.07191925412795E-07	-7.33897270191037E-06	-0.300154819290915	0.953341374895989
1.1	0.649092850381632	-0.761721310504024	1.81057734278707E-06	-4.95701098174174E-06	2.2753745957662E-06	-5.15126481416852E-06	-0.177367669012851	0.983571702779211
1.2	0.586163832502107	-0.811527020204869	-2.50150831721811E-06	2.50077808639301E-06	9.28244567107458E-07	-9.14235454884404E-07	-0.0513830895206781	0.997690101122539
1.3	0.517735416550653	-0.856002985465656	-1.5412004558214E-06	7.2316506498626E-07	-1.35729413848999E-06	1.46882833814912E-06	0.0755105420555515	0.995854984661473
1.4	0.446286515358064	-0.893863923135754	3.92540430965513E-06	-3.25364799521997E-06	2.72625715584148E-06	1.09578890256759E-05	0.201477496903424	0.977408408066864
1.5	0.374181601665115	-0.925237070736464	-5.3447302749559E-06	1.11888392681464E-06	6.59084751669269E-06	-7.22790160625227E-06	0.323838151708253	0.943853049955021
1.6	0.300790484644359	-0.952460677833124	1.77090212568076E-06	-7.75636836421382E-06	3.64078433771637E-06	1.38105770456618E-06	0.440155812141539	0.894658326307174
1.7	0.226004616702407	-0.972903823692789	-1.94709984325874E-06	-9.69328329497249E-07	-2.38533892699872E-07	-2.09151591873251E-06	0.548468315851817	0.832537122198071
1.8	0.149166821769348	-0.98766201702341	2.86388498434076E-06	5.28903450959449E-06	6.45305526985834E-09	2.0365545917544E-06	0.648529322293057	0.756946294945873
1.9	0.0718555029161732	-0.996487366495593	5.68855758221018E-06	-2.64237092025307E-06	-3.00620885447751E-06	4.18809105210191E-07	0.737492490450909	0.67012661335852
2	-0.00553083111523632	-1.00056403806553	-1.55752432928548E-06	-2.03536327181136E-06	3.23691839846477E-06	1.15117600258214E-05	0.817465382669383	0.573353878545129
2.1	-0.0863458887294756	-0.997139767425878	-7.58194217191068E-06	2.48909431851534E-06	1.2283064360578E-06	5.16660185959835E-06	0.883692052024183	0.463699383821991
2.2	-0.163596982796654	-0.986846182417434	-8.82181218013368E-07	1.4024608708779E-06	3.03964188393882E-06	7.79750433618462E-06	0.934012359981507	0.348316165840987
2.3	-0.241069062638484	-0.970488770899423	2.02853837452981E-07	7.48046963651354E-06	7.45328070120908E-07	9.39970291708592E-07	0.969324755981457	0.228613432110355
2.4	-0.317299863370473	-0.94794837582274	1.60621952873795E-06	7.19681594342199E-06	1.54552022388711E-06	6.40735133090042E-06	0.990117728845335	0.104717109867198
2.5	-0.391045638745155	-0.920212504834081	4.40140336554134E-06	-2.33711619425176E-06	-1.94559825876065E-06	-7.5967193026849E-06	0.995323648497779	-0.0200744656878971
2.6	-0.462935168147879	-0.886129650461888	6.77790294853463E-06	-5.99374631226465E-06	-1.1109184985974E-05	1.09122867333106E-05	0.984984407275857	-0.145444709500058
2.7	-0.532069945643634	-0.846359597712291	-4.42517152689427E-06	9.2001796681349E-06	-2.92220411873581E-06	-9.18752660453096E-06	0.95878384467092	-0.26864904354231
2.8	-0.597019760734154	-0.801629954544563	2.47367382790125E-06	1.1370487783874E-06	-3.13572045555885E-06	1.26383051609814E-06	0.917755494952867	-0.387224401771423
2.9	-0.658122438611518	-0.751859529177842	-5.48919615862581E-06	6.07113475192126E-06	-9.23387877580642E-06	-2.33307147098516E-07	0.861385605745894	-0.499297803072396
3	-0.714152529797348	-0.695938719223014	4.63604320201681E-07	-1.48072133005672E-06	1.13695657408069E-05	1.3889944467592E-06	0.791669414752331	-0.603478358540317
3.1	-0.765581010192826	-0.638791394132584	2.47923928849888E-06	1.04984429121738E-05	4.34705279044573E-06	2.14911410417186E-06	0.709457684417128	-0.697860590537977
3.2	-0.813264029549593	-0.577124355592939	2.14918957553943E-06	6.45963592869492E-06	3.93583358802533E-06	-1.06437475531543E-05	0.616012401514574	-0.780914589267302
3.3	-0.855700214176863	-0.511684784825283	3.1157957271792E-06	4.94326361744438E-06	-2.28981531337598E-06	-9.65762293558716E-06	0.511632138114388	-0.851885221851821
3.4	-0.891468687952866	-0.443315030084435	2.10642108765109E-06	-2.61497224720903E-06	5.96070898048922E-06	1.34297902539131E-06	0.40055684545713	-0.907808278099579
3.5	-0.922054735275968	-0.372918976088754	-3.23153831292788E-06	9.59045972510559E-07	-2.05587893130803E-06	3.42764966945824E-06	0.285617801085733	-0.949509921925608
3.6	-0.949855896921815	-0.299840431883877	-1.83225922667041E-06	-3.73640973218568E-06	-7.8063968557322E-06	4.14710354075804E-06	0.163920997091678	-0.980295030060548
3.7	-0.970221651213187	-0.223929437371275	7.73181397818493E-07	-8.33008842916821E-06	1.07879024763904E-05	3.63305843400936E-06	0.0375508271364104	-0.992622382715514
3.8	-0.98442809826457	-0.146306275662895	1.01091014411284E-07	1.54486049182805E-06	-6.47759619341662E-06	5.98444101409332E-06	-0.0876016246144944	-0.988310633253753
3.9	-0.992250260186425	-0.0685010037430764	-2.65266507167298E-06	-5.0071628448726E-06	-3.65425168155213E-06	8.03678981721245E-06	-0.212064039598572	-0.968453291647499
4	-0.993850140920339	0.0105058713716041	7.12061245584484E-06	-4.24847013605371E-07	-1.05133010518022E-06	-1.1982722078163E-06	-0.330787675963431	-0.934625117221923
4.1	-0.989631984169136	0.0883727573266711	6.15651078112823E-07	-4.47074745525165E-07	7.30877345803749E-06	-4.79502036959494E-06	-0.446362824078956	-0.885597632599022
4.2	-0.979549309592507	0.16589302904075	3.21045382130011E-06	2.07848206775872E-06	-7.21323075780273E-07	-7.55809784425641E-07	-0.554030647700728	-0.821688530787451
4.3	-0.963871290214976	0.241298515110852	-3.17346664929032E-06	1.38602307218569E-06	-4.96684256907501E-06	3.00106627401112E-06	-0.652470118053611	-0.745765750672686
4.4	-0.943118018116879	0.315878956534795	8.13876995823169E-07	2.63324451382501E-06	1.51395924808866E-06	-8.32129791040172E-06	-0.740763389298239	-0.657997356203518
4.5	-0.914815378676065	0.390914025529596	1.81807077645865E-06	-9.48863250434936E-07	7.6269067824453E-06	-2.95509424284163E-07	-0.817538979402296	-0.559127235914013
4.6	-0.879256570545876	0.460664673471481	-6.89015577400383E-07	6.12320159409592E-06	-1.23620185384388E-05	-6.3952678926677E-06	-0.880038904544273	-0.452116737267724
4.7	-0.840657720699352	0.526617157938589	1.21329328151381E-06	2.49748832794972E-06	1.42839399206921E-06	1.85327602641908E-06	-0.929887095408712	-0.338641937442328
4.8	-0.796120889421625	0.591234418089533	-5.09754548014219E-06	1.11261949712452E-05	5.27434596565612E-06	9.63154675403371E-06	-0.965059901052952	-0.218828840138174
4.9	-0.746384730239725	0.652066463125358	1.21368174633375E-06	2.91297525700839E-06	-5.26667826438083E-07	-6.8848235756057E-06	-0.984677462713042	-0.0941650978656635
5	-0.690374291582085	0.706680448120066	4.70331844383798E-06	-9.33715766312001E-07	-3.70209873481069E-06	2.43066113663256E-06	-0.98480919906301	0.030647662189475
5.1	-0.634280479224398	0.756534579687643	4.10460680598326E-06	-1.54380789287893E-07	-2.67126589935359E-06	-9.73545039312795E-06	-0.973932770805643	0.150958798114727
5.2	-0.573675631677189	0.804573003660715	2.56356614337307E-06	-1.49002953359674E-05	1.37670568924506E-06	2.79991227863385E-06	-0.948408281922072	0.272660638816232
5.3	-0.508986310796642	0.847456527188066	-8.65341792385246E-06	-7.6000215743591E-07	-1.1269756397099E-06	1.60107585544112E-07	-0.906512605159627	0.390306140594027
5.4	-0.441401298388524	0.8851093035405	-7.13861260237767E-06	-1.09798481702936E-05	-1.36401647197727E-05	1.11228893317821E-05	-0.849540842954109	0.500853284286061
5.5	-0.37069430231102	0.917222909462524	1.89566374535447E-06	8.97339246041469E-08	-2.23534529111194E-06	1.77397608910832E-06	-0.780252991406267	0.60232378080369
5.6	-0.297949357336596	0.942607978589347	-2.39422460008658E-06	3.4994384039219E-06	-1.33433701949835E-06	1.28430041205032E-06	-0.699405162689402	0.694822216127107
5.7	-0.223714483739896	0.963020919656271	1.29928182702442E-06	1.22396628192374E-06	5.7299215804285E-06	-1.20733765136951E-07	-0.607592497959689	0.776812152179285
5.8	-0.148267093563899	0.976994750968005	2.68367334505119E-06	4.23280239581869E-06	-2.10017956907071E-06	4.21417928361549E-06	-0.506024155798516	0.84647395297408
5.9	-0.0732063360337767	0.985658560065879	-6.82982753870251E-06	-2.3007878133819E-06	-9.21875064494818E-08	6.2429523463713E-06	-0.397684759087645	0.903171978543631
6	0.00339963420609976	0.991839766715511	-1.78505677885009E-06	7.8587376951502E-08	-5.41199196075645E-06	-4.40362061161505E-06	-0.282328276034835	0.948616760750688
6.1	0.0836023992890396	0.98813352262591	8.31085882130156E-08	-9.89613268862742E-06	-9.68143397728417E-07	-3.21298018383473E-06	-0.159016165053403	0.976377543635401
6.2	0.161460057890382	0.977405034307621	-1.03040605005747E-06	3.10297057365082E-06	-1.76983473622328E-06	4.20001718935515E-06	-0.0346342968646822	0.987270127639168
6.3	0.238048962364398	0.961138962530817	-8.12595624657506E-07	2.82282061093182E-06	-2.94013453044858E-06	2.38231633593955E-06	0.0893415130705603	0.98297809021771
6.4	0.313437449880563	0.940245416430409	-5.97990660083229E-06	5.52541297903616E-06	-2.37821148925715E-06	-7.55312642207592E-07	0.212239838819983	0.964711947601334
6.5	0.390728092310098	0.911748877728121	1.39996162484726E-06	-5.27902758285959E-06	-1.45106759142302E-06	-2.37635754478396E-06	0.335406960535428	0.929012416495264
6.6	0.459558813603235	0.874534345399179	3.64177402349762E-06	2.03392106349853E-07	1.12624207376577E-05	-2.68690541688036E-06	0.44683018964281	0.875822636223666
6.7	0.525578860453214	0.835807661849558	-7.7247821317077E-07	8.43370255179542E-07	-3.75196592977795E-06	5.20584838820897E-06	0.550814461109361	0.813558947278964
6.8	0.589400916523239	0.791981716490624	-1.74910020317849E-06	4.46182998550331E-06	1.44651692983711E-06	-8.77377313570439E-07	0.647438009760047	0.738847594439598
6.9	0.649527266723773	0.743287120247686	5.87588065612936E-06	2.24531056294433E-06	-9.29833857691924E-07	2.39776446603278E-06	0.734043868054693	0.652788892054861
7	0.706209219204277	0.690108207753623	1.15613659677606E-06	-4.11916885138793E-06	-1.43540561300818E-06	2.89200959489229E-06	0.810460460051341	0.556700657604241
7.1	0.758384527203349	0.631994408965813	2.42701102884297E-07	-7.14292332224738E-07	1.92112729747651E-06	9.16355703465617E-06	0.873633631566673	0.450209138043081
7.2	0.805597443449324	0.569724647341297	1.38974012299623E-06	-2.39935110298036E-06	-9.74035918214151E-07	-8.53812612654116E-06	0.922284199280392	0.337450897649321
7.3	0.847487740964805	0.503367266497702	4.79514295477134E-06	7.21035831381789E-06	-9.6818090537037E-06	2.29561011239531E-06	0.956034139405981	0.219185570737123
7.4	0.883029874942783	0.433814661073314	5.06173238381868E-06	-6.69577525823688E-07	1.94298654565474E-06	-9.56817626043227E-06	0.973364546497366	0.0980264291537358
7.5	0.913564994151897	0.365138723833124	2.74676517782433E-06	-5.23474848829044E-06	2.1159323022418E-06	-7.18767671098066E-06	0.977763990630825	-0.0199120703534952
7.6	0.942190249650766	0.291196181184538	-2.64348874686064E-07	-5.59659285053135E-06	1.66116634996299E-05	3.97860732040912E-06	0.970666508819154	-0.143163909909903
7.7	0.962793912284999	0.214647256105554	3.49295611496713E-06	1.41247842776003E-07	3.47603536894775E-07	-2.90215112341916E-06	0.945394232507355	-0.264233405994568
7.8	0.977060705744121	0.137483018178601	-1.08887304479957E-05	-2.02095608132466E-06	-2.37268483141692E-07	3.41517320949074E-06	0.905598624814867	-0.380424567180682
7.9	0.985830787823724	0.0607755458060004	2.31814399287076E-06	2.05163908636539E-06	-6.84755177985738E-06	-4.77892924261198E-06	0.853103822127965	-0.489814795459016
8	0.993361258473636	-0.0182792541829771	2.31154459213307E-06	2.99034132419762E-06	-9.23523455669808E-06	-7.73989919793184E-06	0.790494705921307	-0.596694829797569
8.1	0.988568260948091	-0.102673570478501	3.86894619703688E-06	-3.04026515149614E-06	2.18529814292042E-06	-3.17251265708973E-06	0.706535710556701	-0.695536783182955
8.2	0.975927116647605	-0.181958689754987	-4.05862926974086E-06	1.38515450270733E-06	-6.77425187914451E-06	3.03508441695067E-07	0.612568240349135	-0.778398443671882
8.3	0.957636165655792	-0.259899473870103	9.89016361146737E-06	3.74585006895028E-07	6.17994911053996E-06	1.05286614590823E-05	0.50984766127437	-0.848990537849022
8.4	0.93337902067952	-0.336284571388477	1.27130727971287E-06	2.5730150224246E-06	3.45851418238248E-06	1.85191271604703E-06	0.399094984621522	-0.906124218188745
8.5	0.903113713732008	-0.41131587548955	-4.88456117342091E-06	4.93817957081214E-06	2.87911121937356E-06	-3.00754169902451E-06	0.283178271248515	-0.948721163406286
8.6	0.866125931778303	-0.483321947112556	-4.52875470964109E-06	2.0574388493694E-06	-3.11236643815823E-06	8.11708657834532E-06	0.162076560982185	-0.978650820710087
8.7	0.823900373141555	-0.552002505961633	-1.03537858806238E-06	1.21355713285219E-06	-6.74502399959423E-07	3.47390410894584E-06	0.0370541508925537	-0.992461559965722
8.8	0.776223936359566	-0.617174924865702	-1.61662753511317E-06	3.08617940921624E-06	-6.05377825776685E-06	1.24916066086837E-06	-0.0889783634657487	-0.990638292814243
8.9	0.723115419564378	-0.678432735016009	3.20814604677398E-06	-1.828969725332E-06	-3.18690741001207E-06	-4.77197009660985E-07	-0.215692938135117	-0.971336578152144
9	0.664998276753745	-0.733531324836261	-7.32957375385967E-06	1.33947619020902E-06	-4.00118308674279E-06	7.18767338349254E-07	-0.335203041061822	-0.932915897903016
9.1	0.604232440834045	-0.784955445692425	-3.36225023649599E-06	-1.90478976824283E-06	-9.9662057896732E-07	2.14046366096159E-06	-0.448300002786252	-0.885361977810085
9.2	0.538078309655037	-0.831381973627302	6.01694710404603E-06	-1.62367143844633E-06	1.96149478924575E-06	8.52438973083715E-06	-0.556589021565255	-0.822907824768052
9.3	0.468234267585483	-0.871879820614812	-3.44806683571179E-07	1.07309567350445E-06	1.36697393430777E-05	1.19275937734367E-05	-0.655739736634925	-0.746318928861294
9.4	0.394862269343146	-0.904889222108748	1.74742084611709E-06	-2.65891514916465E-06	4.28787701607215E-06	1.78167621063823E-06	-0.742877409598049	-0.65717525896658
9.5	0.323841517569738	-0.932425684332996	-6.47440603503683E-06	-4.96358494520445E-06	-1.89499243804068E-06	-5.73639458977895E-06	-0.817270009200296	-0.562151587402647
9.6	0.24463399910937	-0.959781413139505	-1.17586561062104E-05	-3.66968803199173E-07	-5.92920774468445E-06	-4.09429931333229E-06	-0.886003620243825	-0.456457861002562
9.7	0.161803266783055	-0.975793263799392	1.4823289747296E-06	-4.71515756948131E-07	-2.95108615767008E-06	1.63320587208969E-06	-0.938262948366384	-0.339651829799066
9.8	0.0793166662746481	-0.983739099493988	2.21426910394618E-06	1.42506742637251E-06	1.52400480178581E-05	-3.43642721052448E-06	-0.974292462136785	-0.217852730616637
9.9	-0.00240117051893138	-0.984441521206362	-3.54225959221408E-06	9.02636697769198E-06	1.38449616572828E-05	5.11141001799382E-06	-0.995110357634668	-0.0919602432072704
10	-0.083056783244537	-0.979609462984094	-3.68353561852291E-06	1.61786232061634E-06	1.94963230991546E-05	-1.82319232730674E-05	-0.998336748159843	0.0357492190722278
10.1	-0.164131105110993	-0.966414997817952	-1.50085651951435E-06	2.31727883472493E-06	-8.47942850396525E-06	-4.37973188345474E-06	-0.986178986451769	0.161742698220289
10.2	-0.241559817011111	-0.946520187004415	-2.32508043818066E-06	-1.26123451828524E-06	-1.30631256200192E-05	7.24154205256589E-06	-0.958227891089725	0.285526029806087
10.3	-0.315828222144697	-0.921063678879148	5.80361543063455E-06	3.98905878487284E-06	-6.21466843672542E-06	1.36495837394122E-06	-0.915729931146057	0.404640843080725
10.4	-0.387897037767759	-0.890542598059074	2.12009968267637E-06	1.06831563646678E-06	7.49638245902766E-07	-8.30994225435586E-06	-0.858856262292364	0.519169195630137
10.5	-0.45702803929657	-0.853315833017056	4.4272422769353E-07	-3.08926513039351E-07	-6.53730097580607E-07	-5.70139332608827E-06	-0.782511652051083	0.627268927907081
10.6	-0.521606546984058	-0.810608049366759	5.14047176573888E-06	-2.63365545330607E-06	-9.85095028797283E-06	-7.95851481970707E-06	-0.693722147615692	0.717529634607613
10.7	-0.581665940244237	-0.763261974962405	-2.84138300636121E-06	-5.04676541288451E-07	-5.28098383731758E-06	-7.23153244764517E-06	-0.597662165830359	0.797113348845555
10.8	-0.63763160648694	-0.712974823968184	-3.65382138399987E-06	-3.46970682328014E-06	-1.20599604335627E-05	9.24927612025272E-06	-0.492680301525035	0.864866985976155
10.9	-0.690754541449098	-0.658239231571483	-1.15242119901808E-05	-1.04664581210251E-05	-4.47059189447644E-06	1.10729408583242E-05	-0.379541750154463	0.919958732266322
11	-0.734160702559524	-0.600158862076251	1.02134151725318E-06	1.41203847988035E-06	8.68237682993804E-06	-5.56036022064368E-06	-0.258678164093216	0.956938067183074
11.1	-0.777518673875107	-0.54638164490007	-3.33341116653419E-07	-3.6534539436179E-06	1.02303821511293E-05	-1.02742309920486E-05	-0.138971529745291	0.980364426858462
11.2	-0.820278506208051	-0.486082497517082	-1.04646769420635E-06	-3.9392818811397E-06	2.16504998515874E-06	-6.35999488230449E-06	-0.014393208581993	0.990022682255837
11.3	-0.858283737416608	-0.42072634898323	1.61485389969304E-06	-1.21345162226864E-05	3.58396014966245E-06	-2.85137176727337E-06	0.110413250785106	0.983360322364303
11.4	-0.88927823870615	-0.352082081412702	9.93087234452906E-07	1.56155996341262E-08	-5.70618506835774E-06	6.51993664755538E-06	0.233859076026027	0.961334435143631
11.5	-0.91538112465885	-0.284858864087634	6.59055012111032E-06	-1.25884319559249E-06	8.29543623482803E-06	-3.26536327864183E-07	0.35339752896965	0.923701361181572
11.6	-0.941059923644253	-0.211859209247162	-6.60603581866858E-07	-5.36976479130168E-06	1.44034420515921E-06	-3.11025734522123E-06	0.467123605609191	0.870572474880968
11.7	-0.957069419445129	-0.133773710224392	-1.21137334617196E-07	-6.09111003751658E-06	8.873444797994E-07	-2.68141954058453E-06	0.572491213857955	0.80405604371619
11.8	-0.965798236410061	-0.054423120544749	-1.08166329660676E-06	-7.40202384349151E-07	5.20304066571352E-06	1.05974417899131E-06	0.66852011126676	0.725650903168144
11.9	-0.967474546669503	0.026379873438411	-3.25855495200688E-06	-5.22135316955812E-06	-5.45414516759317E-06	-8.02755477959746E-06	0.753547289052075	0.638798089142637
12	-0.961067083686777	0.105916764180047	-2.95808378268318E-06	1.66839253031639E-06	-1.68944926229673E-05	-8.73219045851825E-06	0.834532301215887	0.541156821650562
12.1	-0.950461972659085	0.18402795925397	8.19404212745574E-07	-1.58285630325198E-06	7.9939835368463E-06	1.22954081090687E-05	0.896158835754022	0.426151094389231
12.2	-0.932395055862149	0.261866943048744	-4.08434296469548E-06	5.60495377680368E-06	4.41729556646883E-07	3.32480554562939E-06	0.941074146089024	0.308756577809984
12.3	-0.909083717161699	0.337670793495008	7.91281090324754E-06	6.36126454686232E-06	4.97719170233908E-07	1.09376423429674E-05	0.971856423205582	0.1872236521935
