# GHZ S RI R 50
0.2	0.987105903990724	-0.156477345171745	2.56535270798029E-06	2.25485152441314E-06	6.5825293221506E-06	-4.86860396567883E-06	-0.967797744818089	0.250850061010861
0.3	0.971351605548381	-0.233579210145745	-8.69028458395596E-07	-5.46336246811256E-06	-3.46300160729182E-06	-7.96172836043446E-06	-0.928843024009933	0.370968848769889
0.4	0.950335131387199	-0.309019465180988	-7.2931504946026E-06	-1.00225962246608E-06	4.44866355740857E-06	1.55381278562289E-06	-0.874865606639609	0.485257243064031
0.5	0.923744290386972	-0.383243565497014	6.21453734750311E-06	2.11422084721339E-06	-2.41914254227466E-06	-1.91454458484161E-06	-0.806332155377137	0.592775749523841
0.6	0.890555266943742	-0.454509591362903	-1.05775194144447E-05	2.46044331129491E-06	-2.22302418065473E-06	-1.01074778445946E-06	-0.724321454481665	0.689206325576848
0.7	0.852536309362093	-0.522665237396841	2.79234424088138E-06	-1.1731078528965E-06	-2.99961241841988E-06	5.80132132436178E-06	-0.631905047516651	0.775045859211788
0.8	0.809086137045065	-0.588212208191578	1.18530742892342E-06	-8.49984992997179E-06	-6.63801072907504E-06	-3.08325577466259E-06	-0.529123854326179	0.84865683136214
0.9	0.760313216982774	-0.650263198446176	-1.14996122573285E-06	-6.83620542125563E-07	2.55301808494931E-06	6.56461945135723E-06	-0.417926490832299	0.908575809149122
1	0.706612393600062	-0.707862068428154	-2.75163797266598E-06	-3.23333423808581E-06	-4.03167854743198E-07	-7.3383366951674E-06	-0.300331396312414	0.953857748059067
1.1	0.650051487365707	-0.76143699422974	1.81554821915085E-06	-4.95620112261782E-06	2.28061077424105E-06	-5.15005402439658E-06	-0.177605465080942	0.984207289071772
1.2	0.587713391616278	-0.811538735008377	-2.50594704943442E-06	2.49924884576718E-06	9.29875275812308E-07	-9.1366000056254E-07	-0.0517426916761504	0.998499748320226
1.3	0.51986266975561	-0.856609905652906	-1.54391945003325E-06	7.21680905353662E-07	-1.36090971266347E-06	1.46841608644202E-06	0.0748900253799393	0.996846273472344
1.4	0.448768110555265	-0.895340111610247	3.93697847395835E-06	-3.2525378947257E-06	2.71293194631646E-06	1.09799247906228E-05	0.200656836693889	0.9786828383208
1.5	0.376700658400465	-0.927981669461281	-5.35777713066233E-06	1.11382741393581E-06	6.61509978442468E-06	-7.23423292837609E-06	0.323195119093007	0.945152812393595
1.6	0.302203437922481	-0.956164816339938	1.78016412236433E-06	-7.772850570578E-06	3.64815049563934E-06	1.38665814341979E-06	0.43967010448089	0.895945636841305
1.7	0.226357311426513	-0.976659844521539	-1.95090863221799E-06	-9.71552827783097E-07	-2.38733883326305E-07	-2.09578016036058E-06	0.548305061600279	0.833725104077217
1.8	0.148768496379488	-0.991182007039359	2.8699310193467E-06	5.29783434147753E-06	6.84590796973106E-09	2.04014833037999E-06	0.648599610969426	0.757990789470453
1.9	0.0708806447303087	-0.999656236706299	5.69642277345654E-06	-2.64934521734246E-06	-3.01083475576909E-06	4.20925082706197E-07	0.737904854040008	0.671044630384765
2	-0.00685298523894309	-1.00314374427489	-1.56115423820125E-06	-2.0363135219405E-06	3.25101186835627E-06	1.15221465030564E-05	0.818071880673033	0.573418069998629
2.1	-0.0874829761820819	-0.999588260750616	-7.58711782264276E-06	2.4956465574403E-06	1.23236324675101E-06	5.17039905987437E-06	0.883437258842003	0.463798726386028
2.2	-0.165168403716185	-0.989413566473882	-8.82138321489351E-07	1.40454554667942E-06	3.04823200864504E-06	7.80359850377991E-06	0.933778061811779	0.348854250550875
2.3	-0.243269254153278	-0.972749975588663	2.10788855497095E-07	7.48800217568503E-06	7.47070164867012E-07	9.40173428949083E-07	0.969354986360716	0.229309173497508
2.4	-0.32000601872521	-0.949499416928616	1.61805627911631E-06	7.20037511228303E-06	1.55615331904507E-06	6.41035126773831E-06	0.990489287310817	0.105232932061232
2.5	-0.393689638566504	-0.920746543152878	4.39800153909577E-06	-2.34545173348918E-06	-1.95960612238634E-06	-7.59460126765281E-06	0.995536663309879	-0.0201813157581061
2.6	-0.464996533228342	-0.886138766021695	6.76511211655182E-06	-6.00222165936346E-06	-1.10864374977648E-05	1.09257008596388E-05	0.984591549001433	-0.145696499466396
2.7	-0.533636607856227	-0.846180517964085	-4.40844743792545E-06	9.19786671050053E-06	-2.9321935406982E-06	-9.17510005730968E-06	0.957693593015301	-0.268810289086541
2.8	-0.598126150171372	-0.801328484324737	2.47181531663052E-06	1.13313156003051E-06	-3.13059920834483E-06	1.26549255849117E-06	0.916159749789911	-0.386826018822593
2.9	-0.658482330082075	-0.751418556483145	-5.47687976878544E-06	6.06620689514046E-06	-9.22060219705378E-06	-2.26389163462346E-07	0.859836933538036	-0.49840851142942
3	-0.713469878954976	-0.696504566925725	4.62933923298098E-07	-1.47856143658059E-06	1.13529890349104E-05	1.38701083960516E-06	0.790092428270093	-0.602643174866696
3.1	-0.765486216438063	-0.640250999748576	2.47630326010931E-06	1.04907683627781E-05	4.34355307437893E-06	2.14793230550379E-06	0.707538592338852	-0.696594045663616
3.2	-0.813553938321238	-0.578778304997528	2.14874982752836E-06	6.45609515441476E-06	3.9327156738809E-06	-1.0638682733074E-05	0.614244664698761	-0.7790942194771
3.3	-0.856325418865043	-0.513420079823064	3.11559030325652E-06	4.94084898157135E-06	-2.29081270567787E-06	-9.65362930086196E-06	0.510265391061524	-0.849625254391684
3.4	-0.892453642276188	-0.44512929788389	2.10597621376701E-06	-2.61514666522903E-06	5.96063702338479E-06	1.34211249533477E-06	0.399993901418746	-0.905425193875261
3.5	-0.923850835349743	-0.374420614214883	-3.23261857330042E-06	9.62253928846185E-07	-2.05425253259389E-06	3.43131904111536E-06	0.285021708761127	-0.948107466163809
3.6	-0.951452011431266	-0.300538856807523	-1.83655488778225E-06	-3.73369121650343E-06	-7.80032971285888E-06	4.15603624636205E-06	0.162772981307661	-0.977824697750601
3.7	-0.971697390665813	-0.224519554134683	7.65919160457948E-07	-8.32930675241637E-06	1.0789142218716E-05	3.62319746645507E-06	0.0374935121916349	-0.989631859232258
3.8	-0.985844262395647	-0.146619942070502	1.02256038027023E-07	1.54489349878185E-06	-6.47356682927338E-06	5.9897174861285E-06	-0.0866518054275529	-0.985791239954087
3.9	-0.99322423003898	-0.0685695861210751	-2.65807773568284E-06	-5.00605226705989E-06	-3.64773177645844E-06	8.04241153985414E-06	-0.210870509259641	-0.967212726060235
4	-0.99423915317864	0.00995510800189946	7.11974766985762E-06	-4.33419010188049E-07	-1.05272416998143E-06	-1.19694423457269E-06	-0.331172650373148	-0.934005081669416
4.1	-0.990258476828503	0.0872881194634431	6.15066292493161E-07	-4.47536105003913E-07	7.30231399914772E-06	-4.8006335716474E-06	-0.447339231863571	-0.883737763384354
4.2	-0.980481341144505	0.16481037564958	3.21135830790558E-06	2.07528986349412E-06	-7.21765774775844E-07	-7.55018889171461E-07	-0.554671381738737	-0.819137403643813
4.3	-0.964893901363318	0.240594263369524	-3.1718072781112E-06	1.38873160161255E-06	-4.96348974292837E-06	3.0052005701315E-06	-0.652673789345079	-0.742991041254088
4.4	-0.943449476618678	0.315927618938237	8.17633704698431E-07	2.63161085925181E-06	1.50141841529728E-06	-8.32217138535915E-06	-0.740569806896902	-0.655301891056444
4.5	-0.913449101487212	0.390007810236002	1.81382414049897E-06	-9.50669069778758E-07	7.6154991449551E-06	-3.08348409047734E-07	-0.81736779392803	-0.556948309911087
4.6	-0.878580257180099	0.458587585464883	-6.83839230395779E-07	6.11441109280974E-06	-1.23476507813258E-05	-6.37725311745117E-06	-0.880589693749101	-0.449621491954955
4.7	-0.840387086524116	0.524408089089151	1.21309237368901E-06	2.49383564828995E-06	1.42760336556247E-06	1.85029634883133E-06	-0.930341541197698	-0.335331221283074
4.8	-0.796038032681194	0.588951781249124	-5.08658750045039E-06	1.11151343943218E-05	5.27225986253423E-06	9.61773316955528E-06	-0.964861397415393	-0.214921674620169
4.9	-0.746325971098067	0.649429719169959	1.21209542896293E-06	2.90874599322571E-06	-5.26268483424396E-07	-6.87494812337938E-06	-0.983300568392167	-0.0903399231220107
5	-0.69171966943666	0.703476404991201	4.70132871710584E-06	-9.28641434850335E-07	-3.70215566329811E-06	2.42562741781464E-06	-0.983788416106058	0.0334394091738392
5.1	-0.636115272403485	0.75482088732751	4.10539801247776E-06	-1.54344747544831E-07	-2.67162335882802E-06	-9.73736390485562E-06	-0.972542216420175	0.155299566929841
5.2	-0.57515047048614	0.803361710811082	2.55808141016266E-06	-1.49011608104039E-05	1.37772685608253E-06	2.7993924607606E-06	-0.945250230150566	0.2766176019554
5.3	-0.510190149899044	0.846613667510397	-8.65453331443546E-06	-7.54579682335228E-07	-1.12695688372796E-06	1.60832770104292E-07	-0.902659039684855	0.392994039016242
5.4	-0.441922152009141	0.88464424322068	-7.15483678951775E-06	-1.09728326006177E-05	-1.36284492935142E-05	1.11435543773138E-05	-0.845987827130967	0.502397339245457
5.5	-0.370328189653949	0.916059879393505	1.89458436670415E-06	8.49675709978406E-08	-2.22940717999279E-06	1.77830533993859E-06	-0.777723559849021	0.604020281970072
5.6	-0.297937201881079	0.940955782798784	-2.38381216606315E-06	3.49840541023028E-06	-1.32979218961495E-06	1.2847821115171E-06	-0.696063826239095	0.697347670482392
5.7	-0.223821461717399	0.96153375398301	1.29929725115242E-06	1.21993848828472E-06	5.72089299297345E-06	-1.29992816157217E-07	-0.603076997693177	0.778796811737571
5.8	-0.148228700084557	0.975915145716629	2.68662406819158E-06	4.22287703167605E-06	-2.0907647900845E-06	4.21173078144939E-06	-0.50083411938864	0.847315794309768
5.9	-0.0721920616244373	0.985391692314868	-6.83041643310449E-06	-2.28742647054379E-06	-8.10087469442195E-08	6.23990515791168E-06	-0.39217414274266	0.902738695143825
6	0.00690589143383532	0.990108788350196	-1.78365846076249E-06	8.60860211557835E-08	-5.4273741172292E-06	-4.37811362346854E-06	-0.276753004782043	0.945830925855703
6.1	0.0860542243383975	0.984109457614717	4.23974551322188E-08	-9.86661330275805E-06	-9.78358540250557E-07	-3.19932753840148E-06	-0.155949530838617	0.972121712466902
6.2	0.162675360800811	0.972856694307698	-1.01678668902995E-06	3.09441785696445E-06	-1.74997655440512E-06	4.18961440489416E-06	-0.0333518760464645	0.983331419809341
6.3	0.238300140962548	0.95665235783194	-8.02770538879647E-07	2.81277536603992E-06	-2.92234841157048E-06	2.37895204065885E-06	0.0896648724247352	0.979733772365646
6.4	0.313543255352496	0.935539263931242	-5.94214397248812E-06	5.51098512734126E-06	-2.36864438354646E-06	-7.47440894691255E-07	0.212467020996666	0.961629297730247
6.5	0.388505558634773	0.90559801195275	1.3899963891786E-06	-5.24610527488443E-06	-1.44245321371147E-06	-2.36108283629491E-06	0.333495235295487	0.925446086677399
6.6	0.455625969730839	0.87070675092743	3.62364550806513E-06	2.10193288147692E-07	1.12134495028625E-05	-2.64976205196996E-06	0.44454423955882	0.874979317038367
6.7	0.52168334862673	0.833047543455243	-7.7173874396297E-07	8.38467288539523E-07	-3.75105809137043E-06	5.17804218670809E-06	0.549372711400893	0.813168375766201
6.8	0.585427372474057	0.790120627947809	-1.75575273688759E-06	4.44489380843018E-06	1.44475603070254E-06	-8.71199935822674E-07	0.646141545707449	0.738623764103216
6.9	0.645948549304257	0.742374907540318	5.85960357682831E-06	2.25802132174007E-06	-9.34997672335405E-07	2.39108408372595E-06	0.73290398096305	0.652768384728405
7	0.703243567101979	0.689261978063838	1.16129010671393E-06	-4.11614402406011E-06	-1.43880228208412E-06	2.88904341559425E-06	0.809087627997419	0.556497574696023
7.1	0.755179480996878	0.631411526133206	2.427919770955E-07	-7.12940579761694E-07	1.91161487491511E-06	9.14969211621301E-06	0.871866089458121	0.450786441600585
7.2	0.802348363024569	0.569830672457817	1.39006121234155E-06	-2.39248763015873E-06	-9.60557721916087E-07	-8.52163947965579E-06	0.920703452615721	0.338677076948622
7.3	0.844347076295244	0.504447099752719	4.76807989381218E-06	7.20442539737194E-06	-9.66463242926138E-06	2.26880497001082E-06	0.954659187957289	0.221237843618516
7.4	0.880764098721627	0.436454904144303	5.05465070011107E-06	-6.47225509263844E-07	1.97898443901966E-06	-9.54144789238498E-06	0.973239227039571	0.101476183979949
7.5	0.913873546636717	0.367379874734166	2.77494425841069E-06	-5.22927547554616E-06	2.15231463830857E-06	-7.18786209923938E-06	0.980248515167557	-0.0180983006254857
7.6	0.942388599337253	0.2923761156235	-2.4904005186811E-07	-5.60653089039892E-06	1.66277624269013E-05	4.03187192490892E-06	0.972011045797122	-0.142470869492865
7.7	0.963371659750994	0.215655659059439	3.49911293782331E-06	1.49614209367156E-07	3.54982244836295E-07	-2.9067323657278E-06	0.946736301369719	-0.263609836196399
7.8	0.978271286483588	0.137922186141204	-1.09119715755154E-05	-2.0401476253312E-06	-2.4234405975907E-07	3.42298646609273E-06	0.907041878041836	-0.380445841567353
7.9	0.987827904322802	0.0595203264958891	2.32690337729071E-06	2.05599795202834E-06	-6.87237418676041E-06	-4.78789392152641E-06	0.854247644832375	-0.491789520196726
8	0.992770757129597	-0.0224419526068495	2.32711151043616E-06	2.98194167883942E-06	-9.27800015920033E-06	-7.7031401991787E-06	0.787175158107189	-0.600138349494552
8.1	0.985562302271236	-0.10414989375368	3.84809594900769E-06	-3.04428322709108E-06	2.16877678015902E-06	-3.170667798374E-06	0.701614068563958	-0.694828969558099
8.2	0.973505268699392	-0.181920871081243	-4.04246015231073E-06	1.38775291508779E-06	-6.75086162573332E-06	3.14619077371213E-07	0.608650603875751	-0.776064545674112
8.3	0.955828407448396	-0.259168493080302	9.85469716647792E-06	3.64469135467046E-07	6.16690586684754E-06	1.04850783621415E-05	0.506771673142959	-0.845790814874523
8.4	0.932105869137532	-0.335149380512693	1.26545008898676E-06	2.56340137483454E-06	3.44436048746058E-06	1.84587304885676E-06	0.397341568345903	-0.902485879832096
8.5	0.902119080219568	-0.409661066830771	-4.88141254172146E-06	4.91671067661108E-06	2.87743457799885E-06	-2.99464362763839E-06	0.281980604128394	-0.94638323719281
8.6	0.865984359895423	-0.481066949748852	-4.52322151257743E-06	2.05002928114344E-06	-3.1145704375436E-06	8.10107570365342E-06	0.159832947944137	-0.97589803861
8.7	0.824565046029022	-0.549616694115259	-1.03381409490534E-06	1.21061965660663E-06	-6.74688243039898E-07	3.46652346062586E-06	0.0348431322477765	-0.988447684745536
8.8	0.777543768061454	-0.614709574390056	-1.61283704170102E-06	3.07711517222274E-06	-6.03707431262489E-06	1.24417717247137E-06	-0.0902645434714742	-0.98507960628188
8.9	0.725202209254661	-0.675651632436518	3.19493357188558E-06	-1.8187578585147E-06	-3.17233640339943E-06	-4.77069020024461E-07	-0.214102597453816	-0.964560988357535
9	0.668673276082297	-0.731208688573656	-7.29874373682597E-06	1.30833876159622E-06	-3.98431120208419E-06	7.01829562870525E-07	-0.330839756897841	-0.929583236809202
9.1	0.608375326204272	-0.783620300923178	-3.3433750883938E-06	-1.91154948279226E-06	-1.00165564907254E-06	2.1292962324412E-06	-0.445402091125566	-0.883534988002013
9.2	0.54273157740701	-0.830900321748699	6.00968339784331E-06	-1.59271885505519E-06	1.91846298628435E-06	8.51257728803541E-06	-0.55404069399801	-0.822230401324773
9.3	0.47313907786765	-0.872349578682639	-3.495941480552E-07	1.07046557176078E-06	1.36003852435997E-05	1.19816303005761E-05	-0.654347366669789	-0.746852502176452
9.4	0.400420934374214	-0.906590886731937	1.76257906544011E-06	-2.65294685144953E-06	4.28344570377725E-06	1.80503399830063E-06	-0.742761091943468	-0.659280013180887
9.5	0.327215726863417	-0.936961046327985	-6.49006722398752E-06	-4.99805873772832E-06	-1.89021413511976E-06	-5.76402397435363E-06	-0.822515488410853	-0.564480662637292
9.6	0.24630140871644	-0.961767597790691	-1.17825808053098E-05	-3.68567755529286E-07	-5.94098850673361E-06	-4.10306836363897E-06	-0.891972768257308	-0.454081883220109
9.7	0.164760322613648	-0.977128680333401	1.48459894925494E-06	-4.71487536740551E-07	-2.95592454073858E-06	1.6341116650987E-06	-0.943006711018736	-0.335447848633202
9.8	0.0831036454461572	-0.985710004611035	2.21670821174921E-06	1.4283627063894E-06	1.5264133782054E-05	-3.43303351123031E-06	-0.977705242394813	-0.212554163447595
9.9	0.00142047101529352	-0.987602175119872	-3.54822778706589E-06	9.03708870001633E-06	1.38614614115913E-05	5.12016061731789E-06	-0.996458526167316	-0.0864677395252191
10	-0.0802939923393475	-0.982797009357555	-3.68568374163805E-06	1.61560330033968E-06	1.9514739557703E-05	-1.82225101791029E-05	-0.999080499688614	0.0394278910692272
10.1	-0.160807193399476	-0.969741791926847	-1.50632532208429E-06	2.31781645721781E-06	-8.48312720793026E-06	-4.39836396898763E-06	-0.987859734190779	0.165643176362165
10.2	-0.238788167711578	-0.950723998060927	-2.32892732852446E-06	-1.26571279166059E-06	-1.30961254267208E-05	7.24626346668894E-06	-0.959559787946915	0.290428640098751
10.3	-0.314120715126127	-0.9253439247742	5.81858197447129E-06	3.99580412205431E-06	-6.2283588772701E-06	1.37066527351088E-06	-0.915682308474607	0.410290301944251
10.4	-0.387033500314915	-0.894082327322868	2.12604921071638E-06	1.06599507119826E-06	7.34361059719841E-07	-8.32638438700276E-06	-0.856259248327227	0.523916387162058
10.5	-0.456031499384169	-0.855613692427432	4.41876653096468E-07	-3.09832034194502E-07	-6.66480827038056E-07	-5.69803845135261E-06	-0.781058549009305	0.627372268597812
10.6	-0.519488375348748	-0.812559491978724	5.13587743964796E-06	-2.63842749013512E-06	-9.85642618945407E-06	-7.94506246031638E-06	-0.696469809443992	0.719116248045458
10.7	-0.579214057530271	-0.765575916319345	-2.84231298198835E-06	-5.02458104969442E-07	-5.28783042627667E-06	-7.22856005932259E-06	-0.601626842095448	0.801211285433925
10.8	-0.634931394749755	-0.715101831301591	-3.6582914655155E-06	-3.46711397779979E-06	-1.20543437571017E-05	9.26381607561707E-06	-0.496134198922469	0.871282432954761
10.9	-0.686382951308587	-0.660545500142077	-1.15179658117438E-05	-1.04580607421209E-05	-4.46620825582324E-06	1.10662155826249E-05	-0.381723601239044	0.926304642585483
11	-0.730463202858887	-0.605869530656317	1.02003061224847E-06	1.41690469141862E-06	8.71068187978516E-06	-5.5509886587769E-06	-0.263888786265489	0.964303489501192
11.1	-0.775958978362671	-0.550500970717934	-3.34996259824905E-07	-3.66608211283128E-06	1.02644682047664E-05	-1.03112685959661E-05	-0.142385571346235	0.992385735514311
11.2	-0.818036046439803	-0.489627254865325	-1.05383645791189E-06	-3.95021089082547E-06	2.16493131391118E-06	-6.38172127163234E-06	-0.014434600087007	1.00352421664048
11.3	-0.855770833158898	-0.424617727952572	1.60031909241078E-06	-1.2173002873748E-05	3.59002958419754E-06	-2.86551597925918E-06	0.114059777812455	0.997018476709552
11.4	-0.88742959583183	-0.356769740178076	9.96616194572553E-07	1.36076127125898E-08	-5.71273170580594E-06	6.55474604810296E-06	0.240740619224907	0.973700272427387
11.5	-0.915464086760394	-0.287809027862105	6.60797991364025E-06	-1.29201662282593E-06	8.32287079576294E-06	-3.63914649226793E-07	0.361714655835583	0.933918887681524
11.6	-0.938761522683229	-0.213638511910629	-6.86206807505723E-07	-5.3740869334032E-06	1.42801320781267E-06	-3.12114540739998E-06	0.476986680402897	0.879607471659225
11.7	-0.954255921386255	-0.136787283699586	-1.45500772322875E-07	-6.09624150737576E-06	8.77486198386641E-07	-2.68742379784852E-06	0.584234428866349	0.810861131155931
11.8	-0.963601020642398	-0.0581695581400613	-1.08524603627433E-06	-7.37100280861815E-07	5.21152930216993E-06	1.04252357783028E-06	0.681358396685991	0.72924542474195
11.9	-0.966489135936308	0.0223669151852458	-3.27853116378685E-06	-5.21954139245103E-06	-5.48551004523969E-06	-8.02347669413374E-06	0.766310057635474	0.637718246956934
12	-0.961603184948729	0.10300895519957	-2.95685076792616E-06	1.68024471324645E-06	-1.69462158342097E-05	-8.69003177509538E-06	0.840808747193925	0.535214280763315
12.1	-0.950613420346289	0.182393587109505	8.17708571064633E-07	-1.58705833370203E-06	8.03093770591063E-06	1.23003550815319E-05	0.898147642649811	0.424539829403067
12.2	-0.932441999938154	0.261065090466504	-4.08603526733462E-06	5.62889864021124E-06	4.49130455785125E-07	3.33374973094258E-06	0.943389173655561	0.309338320622669
12.3	-0.908703431525922	0.338190964287154	7.95900349721726E-06	6.36275646283223E-06	5.29456977264708E-07	1.09760721811311E-05	0.974575241186487	0.188065082455211
