# GHZ S RI R 50
0.2	0.987326850864493	-0.156608816266817	2.56574278735346E-06	2.25535869510185E-06	6.58391521184164E-06	-4.8692610494143E-06	-0.967939820287977	0.2507141189759
0.3	0.971539032599461	-0.233841584354712	-8.69099562219369E-07	-5.46458925815568E-06	-3.46359072669525E-06	-7.96356479321496E-06	-0.929071532702695	0.370777459177436
0.4	0.950457855061803	-0.309384678388464	-7.29515368492793E-06	-1.00266371648722E-06	4.44986912361755E-06	1.55432038118186E-06	-0.875242497267984	0.485045451573625
0.5	0.923782900947727	-0.383755617944332	6.21715655783138E-06	2.1145865743923E-06	-2.42024482721591E-06	-1.9151188620924E-06	-0.806883757429917	0.592736348766475
0.6	0.890345777495498	-0.455039608417769	-1.05803205095971E-05	2.46319195006295E-06	-2.22390023177847E-06	-1.01064155773112E-06	-0.724785053498862	0.689274022258519
0.7	0.852227396877149	-0.523093484533101	2.79297555736502E-06	-1.17388527005462E-06	-2.99958259019605E-06	5.80348058960332E-06	-0.632413120761839	0.775144252950667
0.8	0.808746375286964	-0.588575627833676	1.18436864292532E-06	-8.50283898452218E-06	-6.64068259109803E-06	-3.08323428861156E-06	-0.529656787212352	0.848866075954949
0.9	0.759966657082511	-0.650613601655609	-1.15052640760446E-06	-6.8364667645635E-07	2.55527761860845E-06	6.56656061404656E-06	-0.41840308558003	0.908903005788657
1	0.706165132709705	-0.70823307848981	-2.75363816516952E-06	-3.23365675576516E-06	-4.05585818138413E-07	-7.34087701120672E-06	-0.300680434911733	0.954259715448518
1.1	0.649498158440585	-0.761725672768144	1.81390861064157E-06	-4.95827411270965E-06	2.27901024891829E-06	-5.15237626443843E-06	-0.177709881022498	0.984620714459582
1.2	0.586997022178895	-0.811732031254028	-2.50461409932051E-06	2.5009467879726E-06	9.29388976932974E-07	-9.14289061524086E-07	-0.0514912466189444	0.998757625028492
1.3	0.518884150660607	-0.85661118409617	-1.54295303473229E-06	7.22868207399743E-07	-1.35933273173174E-06	1.46928063174945E-06	0.0755653524166049	0.996797640948977
1.4	0.447492141885523	-0.894996281427168	3.93127960668102E-06	-3.25511790724739E-06	2.72355157459777E-06	1.09710266495646E-05	0.201563893070102	0.978273664889076
1.5	0.375524590856948	-0.927115107598371	-5.35272126728403E-06	1.11852928496482E-06	6.60282693109645E-06	-7.23576302105762E-06	0.324039629067154	0.944690085550148
1.6	0.30137629383922	-0.955294504972733	1.77276939174513E-06	-7.76953500875582E-06	3.6470413974222E-06	1.38284998257087E-06	0.44039020492417	0.895478489925222
1.7	0.225688523223122	-0.975822033761085	-1.95068943116109E-06	-9.69803254194059E-07	-2.40038992944527E-07	-2.09468064065475E-06	0.548835153426494	0.833368547765929
1.8	0.148263830672556	-0.990354133543361	2.87191837352505E-06	5.29434712200797E-06	7.99760226692846E-09	2.03942675872086E-06	0.649005846141195	0.757712185204176
1.9	0.070627398166238	-0.998826221620531	5.69368870045041E-06	-2.65043298855492E-06	-3.00972316954778E-06	4.21814980773387E-07	0.738069212435915	0.670881899828606
2	-0.00676601501421603	-1.00268065527484	-1.56145399859854E-06	-2.03656590701523E-06	3.25187543334128E-06	1.15237580681561E-05	0.818392209476594	0.573882680783523
2.1	-0.0876704609940746	-0.999359994183338	-7.58844150902258E-06	2.49998240569716E-06	1.23516482543349E-06	5.17151837789975E-06	0.884354509939523	0.463812237458007
2.2	-0.165348255614249	-0.989135897620118	-8.81595128893529E-07	1.40515580430656E-06	3.05234217123378E-06	7.80322877333204E-06	0.934481206298232	0.348469493425001
2.3	-0.243380786034929	-0.972557846183498	2.13361722622816E-07	7.48863738516801E-06	7.47461252250889E-07	9.40007501065918E-07	0.969802685190852	0.228807896311381
2.4	-0.320119544745011	-0.949452285190232	1.61969066558729E-06	7.20122069435278E-06	1.55762692175813E-06	6.41108199278938E-06	0.99072463981072	0.104779601061531
2.5	-0.393920366259572	-0.920831510905902	4.39940686605257E-06	-2.3468582773905E-06	-1.96123727360929E-06	-7.59727121043252E-06	0.99580735120923	-0.0204560340133394
2.6	-0.465397765578361	-0.886282654504656	6.76829770924143E-06	-6.00692440159502E-06	-1.1091488860323E-05	1.09340705794319E-05	0.985038272132848	-0.145942387558466
2.7	-0.53423412821047	-0.846362087982696	-4.40989804519715E-06	9.20762982561219E-06	-2.93752386249352E-06	-9.18274667561945E-06	0.958497668084517	-0.269180976602819
2.8	-0.599007296509507	-0.80154079955219	2.47530831405394E-06	1.13309561316217E-06	-3.13354502090139E-06	1.26867681356932E-06	0.917138559155757	-0.38767090834606
2.9	-0.659847759015925	-0.751519937619803	-5.479196415214E-06	6.07871873759106E-06	-9.23301570688189E-06	-2.19169845093047E-07	0.860580491606391	-0.4996652246906
3	-0.715011506695	-0.695838896445568	4.61622071511042E-07	-1.48095421353829E-06	1.13686100131886E-05	1.37429164412789E-06	0.790517089180195	-0.603977835834036
3.1	-0.766611617754798	-0.639549853229972	2.49078983600347E-06	1.04965103231539E-05	4.34969270852946E-06	2.14455921866543E-06	0.707683009610933	-0.698022446418266
3.2	-0.814767540717715	-0.578022152020888	2.15734468634111E-06	6.45873902864285E-06	3.92428910913533E-06	-1.06510795538326E-05	0.614006149861767	-0.780493228154425
3.3	-0.85752713161352	-0.512421533558705	3.12304438489656E-06	4.94069149778476E-06	-2.30287915555303E-06	-9.65747437267498E-06	0.509618152610473	-0.850889864308427
3.4	-0.893418633892866	-0.443761739792969	2.10354134799702E-06	-2.61833676693839E-06	5.96389447892538E-06	1.3355767243946E-06	0.398793509615399	-0.906265581956032
3.5	-0.924077798284912	-0.373201216310742	-3.23167942624049E-06	9.63677454318001E-07	-2.05229104164052E-06	3.43181066111444E-06	0.284216745054418	-0.947947018411857
3.6	-0.95193310964423	-0.299738369250651	-1.83869466364616E-06	-3.73473574507218E-06	-7.80240000344321E-06	4.16065094328073E-06	0.162371208260205	-0.978308045821247
3.7	-0.9722188363822	-0.223489484177542	7.60383148752977E-07	-8.33297517278913E-06	1.07957337389364E-05	3.61701616240928E-06	0.0365197423338076	-0.990166424678002
3.8	-0.986222188330632	-0.145441928233621	1.03519781124443E-07	1.54500168245673E-06	-6.46951649648656E-06	5.9957004785313E-06	-0.0879846712616753	-0.985917396590213
3.9	-0.993481494631177	-0.0672485556360494	-2.66152976990569E-06	-5.0040513949092E-06	-3.64197874847217E-06	8.04476713913779E-06	-0.212147440182594	-0.96672263417878
4	-0.994247147867995	0.0115124360344489	7.12106431878826E-06	-4.38589784411835E-07	-1.05381715695793E-06	-1.19646757128707E-06	-0.331853708926757	-0.933396199062937
4.1	-0.989907036468269	0.0888529708639952	6.14708808489014E-07	-4.48240388482127E-07	7.29859541336295E-06	-4.80891064817582E-06	-0.447989724343106	-0.883322547033086
4.2	-0.979852499770476	0.166251441439912	3.21369003241956E-06	2.07184256106101E-06	-7.2260389031816E-07	-7.5425068415909E-07	-0.555270343265472	-0.818683373119629
4.3	-0.96409870884509	0.241759500390465	-3.16989023263642E-06	1.39175404957586E-06	-4.95963975614094E-06	3.00979964576045E-06	-0.653163313524391	-0.74247092337338
4.4	-0.942891671517081	0.316735135887187	8.19119392693135E-07	2.63052578277307E-06	1.49583703148495E-06	-8.32132170595009E-06	-0.740933470485588	-0.654782173274598
4.5	-0.913132838771194	0.391433771296196	1.81408710568785E-06	-9.52203788825504E-07	7.61882844999513E-06	-3.13091795573035E-07	-0.817656378196063	-0.556269101019604
4.6	-0.8774257873411	0.459720518240278	-6.76798311149945E-07	6.11561920988756E-06	-1.23558818272229E-05	-6.36337393048763E-06	-0.880411532469261	-0.448974555249527
4.7	-0.839279065379525	0.524983344723551	1.21511650752047E-06	2.49189876306703E-06	1.42894226707211E-06	1.84835184993972E-06	-0.929985864102606	-0.334989717868533
4.8	-0.795148619031806	0.589289128465682	-5.07574279310763E-06	1.11150136172232E-05	5.27798540069366E-06	9.60986451365632E-06	-0.96459190752476	-0.214825757762296
4.9	-0.745583571015498	0.649939007701599	1.2146182657155E-06	2.90662786078121E-06	-5.32962138932122E-07	-6.87227467202288E-06	-0.983359461491021	-0.0900730461988942
5	-0.690043334341712	0.703876295117865	4.69452947229123E-06	-9.34291682053009E-07	-3.6943757394101E-06	2.42810552994571E-06	-0.982939688361119	0.0342642831080132
5.1	-0.634898433277676	0.754057596839078	4.09897377011728E-06	-1.56054020484722E-07	-2.67211084067909E-06	-9.72103260677337E-06	-0.971525714307072	0.154813496603109
5.2	-0.574533369063858	0.802614331697832	2.55208146404403E-06	-1.48818926981118E-05	1.37639515056685E-06	2.79544654777903E-06	-0.944873024130383	0.275971547091698
5.3	-0.509823258365627	0.845934797510935	-8.64264987939226E-06	-7.54267599858592E-07	-1.12543098439847E-06	1.60519529096374E-07	-0.902427586601856	0.392465946802898
5.4	-0.441850743315459	0.883963423396171	-7.13648628291151E-06	-1.0962381609856E-05	-1.36171340133029E-05	1.11175272653262E-05	-0.845670388114045	0.501761735875527
5.5	-0.370460302882198	0.915598248601063	1.89339046620501E-06	8.79230524110785E-08	-2.23097944207724E-06	1.77377743415029E-06	-0.777485336199908	0.602866012224813
5.6	-0.298215634281923	0.94037899574539	-2.38770984816431E-06	3.49575353525625E-06	-1.33122396036947E-06	1.28330226148361E-06	-0.696491510304418	0.695924694844902
5.7	-0.224474925848003	0.960959842590432	1.29787651315835E-06	1.22126201631224E-06	5.72061764821804E-06	-1.23764563947373E-07	-0.604078263617355	0.777484149543894
5.8	-0.149256313580202	0.975402875612918	2.68118539041663E-06	4.2254666801547E-06	-2.09548912139156E-06	4.20861522908637E-06	-0.50230063751531	0.846241302942324
5.9	-0.0739417812710691	0.984919127284825	-6.82304254847195E-06	-2.29684067245894E-06	-9.07252294827753E-08	6.2363110537933E-06	-0.394208612709026	0.901912857379077
6	0.00434589917712901	0.991206813281418	-1.78411384574463E-06	8.05179905070522E-08	-5.41425156797337E-06	-4.39554063984754E-06	-0.279479723617328	0.946336056200868
6.1	0.08491627616757	0.985948116975368	6.51501478260798E-08	-9.8833625375535E-06	-9.72674766456306E-07	-3.20703915750723E-06	-0.157467551111239	0.973543571436512
6.2	0.162189448365825	0.974363648888527	-1.02279050483575E-06	3.09872919234101E-06	-1.75878953894764E-06	4.19495215378774E-06	-0.034125251498393	0.984587915794432
6.3	0.238020924072518	0.95781396195507	-8.06202859936836E-07	2.81719807224226E-06	-2.92923554773648E-06	2.3810921903717E-06	0.0891795796910065	0.980697342309903
6.4	0.313098105583217	0.936930873744842	-5.95624974925872E-06	5.51881805215765E-06	-2.37286894759631E-06	-7.50010897751892E-07	0.211859812048883	0.962822466466387
6.5	0.389627379595174	0.907451885052696	1.38942037385329E-06	-5.26207386846408E-06	-1.44853820911219E-06	-2.36649907828743E-06	0.3344815576126	0.927049399635015
6.6	0.456800775695023	0.870880590956732	3.62897219686414E-06	2.03196729727861E-07	1.12233019012247E-05	-2.67587965143928E-06	0.445499635232179	0.874783848690182
6.7	0.522276925395956	0.833076197401601	-7.70653049361725E-07	8.40216168443978E-07	-3.74386207798062E-06	5.18707633200535E-06	0.549613882120715	0.812846934232984
6.8	0.585834357415556	0.790087398087459	-1.74890217221067E-06	4.44732428093555E-06	1.44335430144833E-06	-8.73349308264636E-07	0.646108156948852	0.738326072583533
6.9	0.64606323838605	0.742254402495673	5.85777743286251E-06	2.24863509952023E-06	-9.3115652071138E-07	2.39035642878351E-06	0.732524642452615	0.652543844195705
7	0.703211324123483	0.689375660812556	1.16027095855514E-06	-4.11039404026043E-06	-1.43723955487595E-06	2.88492296221209E-06	0.808738272290968	0.556744264616016
7.1	0.755201713995468	0.63138467792978	2.43020131385985E-07	-7.12606829385301E-07	1.90706880796084E-06	9.14756876820616E-06	0.871727714538831	0.450766688553344
7.2	0.802228458454124	0.569666866942302	1.39005751569237E-06	-2.39188231106407E-06	-9.59448691428122E-07	-8.52012630942709E-06	0.920374023053425	0.3385082816136
7.3	0.844085560581255	0.504071142227035	4.76861075081441E-06	7.20219272532318E-06	-9.66243752843387E-06	2.27026664148304E-06	0.954139203784394	0.22088298686126
7.4	0.879927298758545	0.435648554027661	5.05088378242089E-06	-6.51595791210411E-07	1.96873665396641E-06	-9.53736046834036E-06	0.971905998250418	0.100820753311033
7.5	0.911974743867997	0.367572001032964	2.76776185233573E-06	-5.21730984430738E-06	2.14635461317224E-06	-7.17120831088366E-06	0.978105511921506	-0.0169813645351741
7.6	0.941252217927788	0.29316157608349	-2.4212590048978E-07	-5.59914824585184E-06	1.66002740658329E-05	4.04584764145098E-06	0.971359895284989	-0.14107476834069
7.7	0.962263912489016	0.216426743132801	3.4956434507285E-06	1.53729255455764E-07	3.58183889269833E-07	-2.90356967066218E-06	0.946268475635687	-0.262482382141463
7.8	0.976907898111889	0.13910909514496	-1.08977337013845E-05	-2.0565370315417E-06	-2.47878682728984E-07	3.4191909578739E-06	0.906659646237998	-0.378984473712471
7.9	0.986314390189651	0.0620060077508044	2.31824212503997E-06	2.0609230241079E-06	-6.85069248433771E-06	-4.80377567981181E-06	0.85454293911955	-0.489229893939907
8	0.993592462526834	-0.0183458978394298	2.31488344587425E-06	2.99684561694937E-06	-9.25006167416249E-06	-7.75788410675182E-06	0.790619863732356	-0.597747469452464
8.1	0.987697728807004	-0.102166550361945	3.8698449367268E-06	-3.04139845888218E-06	2.18570646566873E-06	-3.17356887963525E-06	0.704876076841126	-0.695535130692145
8.2	0.975275290485536	-0.180704949037536	-4.05776790061223E-06	1.38346847306738E-06	-6.7721971637385E-06	3.0133112434589E-07	0.610783257926214	-0.777389988275218
8.3	0.957451504318811	-0.2582816296551	9.88374985600595E-06	3.79940345782654E-07	6.17012258589444E-06	1.05255521405239E-05	0.508220818304939	-0.847313837639582
8.4	0.933701124446671	-0.334537201657795	1.26753163646571E-06	2.57177384774259E-06	3.45332824601118E-06	1.8535320808165E-06	0.398093760641812	-0.903954478853968
8.5	0.903798779541197	-0.409523891326418	-4.89100916455467E-06	4.92645161110202E-06	2.88309074162353E-06	-3.0005758543473E-06	0.282798997686841	-0.947363885916732
8.6	0.867369708430437	-0.481417380163146	-4.53258345980803E-06	2.05142338532722E-06	-3.12451220160536E-06	8.11429702638189E-06	0.160676217465613	-0.977567676891716
8.7	0.825730800098025	-0.550287366612219	-1.03656415208075E-06	1.21285576090378E-06	-6.77557588028595E-07	3.47384404722594E-06	0.0350733665185409	-0.990544673876365
8.8	0.778467339254339	-0.615782914004773	-1.61738946619322E-06	3.08480575200897E-06	-6.05274876600052E-06	1.24657079683663E-06	-0.0908445836969812	-0.987525086135774
8.9	0.725591618571014	-0.677237097428326	3.20432081307447E-06	-1.82644773392053E-06	-3.18292335418372E-06	-4.76862001699804E-07	-0.216286193119345	-0.967004668685374
9	0.66807359867899	-0.732459157968567	-7.31418743644963E-06	1.32778321289405E-06	-3.99276916715616E-06	7.12412987771757E-07	-0.333757006995378	-0.929584822793518
9.1	0.607714779177873	-0.784444065733976	-3.35143266295484E-06	-1.90833671747805E-06	-9.99306998269923E-07	2.13404756465655E-06	-0.447038457285485	-0.883223007844732
9.2	0.541807895892846	-0.831393842954815	6.01293608704557E-06	-1.60394623821379E-06	1.93403941290715E-06	8.51772869358963E-06	-0.555397947509841	-0.821638206250652
9.3	0.472048599946502	-0.87239034737279	-3.48148538322711E-07	1.07128640795695E-06	1.36217213207808E-05	1.19654832490182E-05	-0.655084057138462	-0.745953119102245
9.4	0.398931479633127	-0.905805551520482	1.75793600014378E-06	-2.65318898044854E-06	4.28252909281183E-06	1.79831103304222E-06	-0.742690723663484	-0.657905892094847
9.5	0.327625212428336	-0.934585682888639	-6.47345775394281E-06	-4.99652918098513E-06	-1.880683940463E-06	-5.75616641140736E-06	-0.82010904766411	-0.564411451357019
9.6	0.247660356808761	-0.961593935817155	-1.1785800683468E-05	-3.88273537908783E-07	-5.93610050921041E-06	-4.11427853639273E-06	-0.891114930909752	-0.456089901158519
9.7	0.165172949466866	-0.977638761795017	1.48613701276042E-06	-4.70436236735348E-07	-2.95964203246551E-06	1.63253080208498E-06	-0.943224888604521	-0.337221967989722
9.8	0.0828769374163094	-0.986127666723313	2.21724449109745E-06	1.43073595109588E-06	1.52764028913445E-05	-3.42542776302753E-06	-0.978424903070517	-0.214054957750297
9.9	0.00104340193826922	-0.987607244993564	-3.55698856726206E-06	9.04098037988449E-06	1.38676541003722E-05	5.1333717500831E-06	-0.997670995642967	-0.0875502010544326
10	-0.0802993283319252	-0.983137698994525	-3.69035696940646E-06	1.61606301693573E-06	1.95429790335901E-05	-1.82356706685872E-05	-1.00015338680128	0.0389376498780495
10.1	-0.161464601423483	-0.970119759827291	-1.50758124669894E-06	2.31914417229542E-06	-8.48811950374741E-06	-4.402235682968E-06	-0.988896426360814	0.164982372054293
10.2	-0.239337836196974	-0.950750636181477	-2.32939631046281E-06	-1.26765892639903E-06	-1.31068150515833E-05	7.24258861504533E-06	-0.960944121605547	0.289700156474052
10.3	-0.314417243580343	-0.925514337034529	5.81863772980934E-06	4.00491202843315E-06	-6.23440084454488E-06	1.365078281607E-06	-0.917710121565601	0.409594024609126
10.4	-0.387474924199022	-0.894627203214034	2.12740570336209E-06	1.07087585036916E-06	7.48557226104879E-07	-8.3371289497408E-06	-0.859560061131863	0.524017069253284
10.5	-0.456942799764534	-0.856197577882853	4.43339777935441E-07	-3.10380556729681E-07	-6.64222282673164E-07	-5.71449461058736E-06	-0.78352243629795	0.63040160008453
10.6	-0.520896539039774	-0.812918737125987	5.14531034041385E-06	-2.64685877726319E-06	-9.88171424733242E-06	-7.95646525102703E-06	-0.696546265993954	0.721582855213676
10.7	-0.580760933243496	-0.765487185502406	-2.846466844288E-06	-5.01196777356611E-07	-5.29984333155056E-06	-7.23465396179184E-06	-0.601149137227292	0.802583918557863
10.8	-0.636632229876559	-0.714919275754085	-3.66434015666251E-06	-3.46891094626243E-06	-1.20625496295585E-05	9.28098895370511E-06	-0.495786428451607	0.872058503499991
10.9	-0.689116943326513	-0.659860354057694	-1.15471822887648E-05	-1.04573658041169E-05	-4.45794766078949E-06	1.10870551814896E-05	-0.381136878715069	0.927473416424486
11	-0.732099921355295	-0.602792718788778	1.02235901280411E-06	1.4139594895154E-06	8.69406430713108E-06	-5.56572755307425E-06	-0.261729875007348	0.964300652178955
11.1	-0.776130789129157	-0.548886920959341	-3.35924883191635E-07	-3.66317144140061E-06	1.02532897645342E-05	-1.03067034656307E-05	-0.141557777071407	0.991178529154043
11.2	-0.818729040566603	-0.488541308568556	-1.05438007373515E-06	-3.94950502737172E-06	2.16354047627768E-06	-6.38124990021526E-06	-0.0141307691253843	1.0025051702475
11.3	-0.856816543118469	-0.423419096866058	1.59668300326537E-06	-1.21747286437182E-05	3.58949742563571E-06	-2.86692460998987E-06	0.114083039462339	0.996084520721278
11.4	-0.888191036730569	-0.354914466643095	9.96393296308987E-07	1.31704372300248E-08	-5.70856529836133E-06	6.55572910430581E-06	0.240523256530357	0.972805602579441
11.5	-0.914826509019354	-0.286978859208278	6.60661004724446E-06	-1.28801731238197E-06	8.32045826088262E-06	-3.5927371148209E-07	0.361471793578825	0.933107838658882
11.6	-0.93955804012463	-0.213639599254663	-6.84850434418477E-07	-5.37749793317E-06	1.42988377032555E-06	-3.12252717046788E-06	0.476565697991091	0.878610779979381
11.7	-0.955527889070246	-0.136141590437617	-1.46109435396463E-07	-6.09954605340317E-06	8.77730253073849E-07	-2.68896233578765E-06	0.583366330227197	0.809887770841794
11.8	-0.964849601873827	-0.057050269637052	-1.08574941448093E-06	-7.36997798379446E-07	5.21324688498775E-06	1.04134841797313E-06	0.679910316887577	0.728494171875716
11.9	-0.967409964557487	0.0239785383070135	-3.278340948403E-06	-5.21845815902248E-06	-5.48514399283814E-06	-8.0217815292373E-06	0.764096218719656	0.638182087441561
12	-0.96193001465988	0.105012417958987	-2.95893848796727E-06	1.67960466041137E-06	-1.6949627132962E-05	-8.70177421539391E-06	0.840685761128834	0.537959447545257
12.1	-0.950718604168626	0.184005865508022	8.17296959103132E-07	-1.58845065103628E-06	8.04257167782799E-06	1.23030690134976E-05	0.899433105135492	0.424814338437625
12.2	-0.932400197754748	0.262533747999107	-4.08168402030991E-06	5.63144176236575E-06	4.5150205934979E-07	3.33318716953317E-06	0.943743782935339	0.308830532916485
12.3	-0.908644102131138	0.339345276304454	7.95832502198722E-06	6.35799471209542E-06	5.32824930620523E-07	1.09721272647156E-05	0.974471890112587	0.187861562355562
