# GHZ S RI R 50
0.2	0.985273485604014	-0.157204576129115	2.56401061880916E-06	2.24826989116861E-06	6.56642861454162E-06	-4.8687930188505E-06	-0.966084924565334	0.251808496854506
0.3	0.969078067450968	-0.23430216411596	-8.75317226339644E-07	-5.45085027980911E-06	-3.46765200917298E-06	-7.94024793934455E-06	-0.926321834581566	0.371816344495623
0.4	0.947405888058127	-0.309545257739616	-7.27427367695394E-06	-9.87596217268562E-07	4.43867984779166E-06	1.54221871143984E-06	-0.871377402510054	0.48547025070613
0.5	0.920541893754142	-0.382733494377287	6.19470851681179E-06	2.10220205418132E-06	-2.4122538187813E-06	-1.90610082336331E-06	-0.802829063998347	0.591243880566428
0.6	0.88780827608717	-0.453973297601176	-1.05454682069232E-05	2.46091379074709E-06	-2.21737421780357E-06	-1.00627197256335E-06	-0.721635785151533	0.687626592963694
0.7	0.849413182669832	-0.521998661228272	2.78227155070274E-06	-1.1722188405519E-06	-2.98417144254055E-06	5.78592649088683E-06	-0.628994712541035	0.77311426080154
0.8	0.805693040768622	-0.58698461262506	1.17274074319847E-06	-8.47017710037016E-06	-6.61693628209779E-06	-3.06561699052194E-06	-0.52627169975551	0.845998686692893
0.9	0.756982913355452	-0.648279548062835	-1.1458556810397E-06	-6.80020240543578E-07	2.54766395236191E-06	6.53637260462739E-06	-0.415367173815161	0.905210113449554
1	0.703710008488832	-0.705510543602015	-2.74167065282793E-06	-3.21830822041948E-06	-4.05179923625701E-07	-7.30718897558377E-06	-0.298135579319666	0.949741740244032
1.1	0.647075152223916	-0.758649351900398	1.80531106013585E-06	-4.93416456410425E-06	2.26816556713623E-06	-5.12730729502877E-06	-0.176093274551278	0.979335641876859
1.2	0.585063062903509	-0.808131725434936	-2.49331012959282E-06	2.48701554870234E-06	9.25187142658587E-07	-9.09188845780101E-07	-0.0510717639993465	0.992976934145822
1.3	0.517733686566975	-0.852776531204482	-1.53629662688394E-06	7.1737530370926E-07	-1.35451892389806E-06	1.4603580877599E-06	0.0743112238321607	0.991020916990257
1.4	0.447239188510862	-0.891728163102813	3.92068158575956E-06	-3.23433490123336E-06	2.69224257016373E-06	1.09299249989083E-05	0.198949078026967	0.973262137832462
1.5	0.374104702819109	-0.92458371856596	-5.33426355725745E-06	1.1070692068153E-06	6.58802842558887E-06	-7.19976787820474E-06	0.320198854792394	0.940192365773244
1.6	0.300073842106125	-0.950844468697097	1.7753210470421E-06	-7.73431511479771E-06	3.62979575439348E-06	1.3817140988932E-06	0.435961170077067	0.892370430004355
1.7	0.225591080912183	-0.970953074502543	-1.94048768946497E-06	-9.68504583622523E-07	-2.35719965455125E-07	-2.08571329037679E-06	0.544345504623223	0.830869903235011
1.8	0.148962249946911	-0.985600851974239	2.8505668312868E-06	5.27559546007768E-06	4.63478142756821E-09	2.03041155332886E-06	0.644524872753372	0.755790794120557
1.9	0.0713106440490936	-0.994235228434482	5.66970610893775E-06	-2.63332781317599E-06	-2.99620599843603E-06	4.17288617650352E-07	0.734171658806942	0.668614570243502
2	-0.00584073587046547	-0.996061095826808	-1.5476672892574E-06	-2.02287200441459E-06	3.21575991431324E-06	1.14405958778032E-05	0.81145053500197	0.569751902189304
2.1	-0.0837166760673792	-0.992952343640908	-7.54571369627878E-06	2.45097140774041E-06	1.2050433006572E-06	5.14045346298827E-06	0.875292722003651	0.464300702629374
2.2	-0.160458847579845	-0.983876137666133	-8.82721880936894E-07	1.39313137858794E-06	3.00015028362754E-06	7.77164651184355E-06	0.926966006410052	0.351252353367244
2.3	-0.237766234880879	-0.967915418983499	1.79504661757729E-07	7.4487126442781E-06	7.39279508897462E-07	9.38142223733805E-07	0.963501222345858	0.232656990994904
2.4	-0.313635689382151	-0.945435559813635	1.57927884863592E-06	7.16836709604556E-06	1.52100802770563E-06	6.38233799667654E-06	0.985415848479678	0.109192232592548
2.5	-0.386574705884799	-0.917737532924974	4.38483042432902E-06	-2.31174414213528E-06	-1.91292624798173E-06	-7.56198164363633E-06	0.990765155109067	-0.0154929290983324
2.6	-0.457389724510449	-0.884163839733125	6.76027989456039E-06	-5.93524684644729E-06	-1.10841673348291E-05	1.08101548844068E-05	0.980688662298063	-0.140081194014793
2.7	-0.525557407475567	-0.845302401585373	-4.43856846323885E-06	9.1235390861003E-06	-2.86333598218829E-06	-9.14356146246398E-06	0.954548044359159	-0.262265021988941
2.8	-0.589489943287615	-0.801742358143247	2.45178355720214E-06	1.14386535166034E-06	-3.12321020277281E-06	1.23825510362709E-06	0.91441099714803	-0.379191953694592
2.9	-0.649191042595782	-0.75404886820417	-5.49826219842716E-06	5.9946379256E-06	-9.1750684102563E-06	-2.97329625035119E-07	0.859962469732376	-0.490323714258544
3	-0.706385397329049	-0.702303865634004	4.75357357530118E-07	-1.46979867285421E-06	1.13059548980165E-05	1.48890904853079E-06	0.791777871312916	-0.594621322969975
3.1	-0.760074883047133	-0.645227087806547	2.37997761490877E-06	1.0496201865425E-05	4.31783675623884E-06	2.18285681566753E-06	0.711144565392529	-0.688424997722477
3.2	-0.808248418156325	-0.584268415895088	2.08987492003303E-06	6.46865481697717E-06	4.02240081482752E-06	-1.05936662129263E-05	0.619902461546932	-0.771729428686837
3.3	-0.851621556546264	-0.52000927210389	3.070627551339E-06	4.9689335674626E-06	-2.20310998065284E-06	-9.67404556238104E-06	0.517972927013045	-0.843679178947758
3.4	-0.889387033861294	-0.45291009865625	2.13269773823361E-06	-2.60137038236915E-06	5.95956949175441E-06	1.39680777679318E-06	0.409438114878871	-0.90257479153573
3.5	-0.922947163304405	-0.380532228234676	-3.24415774338584E-06	9.45680394825702E-07	-2.07761820359743E-06	3.426080143127E-06	0.291467789644508	-0.948298716572488
3.6	-0.948817334810059	-0.306460726305602	-1.81085624501195E-06	-3.74458089326378E-06	-7.82521756102473E-06	4.10222678997842E-06	0.16956915026302	-0.975906957688786
3.7	-0.969507771582988	-0.231936906090935	8.30497807882649E-07	-8.32647787320585E-06	1.07651681842975E-05	3.70782165148476E-06	0.0460255532327486	-0.989423692692791
3.8	-0.98479775695453	-0.154867695976581	9.05207743426549E-08	1.54748580602695E-06	-6.52710411567316E-06	5.94705024952396E-06	-0.0780365757276384	-0.988020762251387
3.9	-0.993526115870902	-0.0773814117184881	-2.62546306310658E-06	-5.03216192779228E-06	-3.71097654217977E-06	8.02701129222005E-06	-0.203517054457504	-0.971518971965036
4	-0.996439183613957	0.00105869690140835	7.13021443748423E-06	-3.76518037789116E-07	-1.044118418111E-06	-1.20659335036625E-06	-0.325088710146825	-0.938419889500196
4.1	-0.99385253752199	0.0791616241171862	6.20508348960548E-07	-4.4329717748662E-07	7.36245589410354E-06	-4.74902233791374E-06	-0.441073661216209	-0.889463810892627
4.2	-0.985113612676371	0.157449711304173	3.20548033517881E-06	2.10938282636475E-06	-7.18042673229937E-07	-7.63705452784584E-07	-0.549548973435232	-0.826337514587242
4.3	-0.970100294138625	0.234144024382984	-3.19577552247727E-06	1.37025219216757E-06	-5.00737466753207E-06	2.97977741161518E-06	-0.648969167244685	-0.751076152399583
4.4	-0.948204348555028	0.309571289258377	8.03220530978146E-07	2.64677470569087E-06	1.56213318133203E-06	-8.343038256787E-06	-0.738056597510147	-0.663837054467059
4.5	-0.920507143360111	0.381231403175718	1.82541395269955E-06	-9.36788014649083E-07	7.63237117256243E-06	-2.43194805989758E-07	-0.816038477140501	-0.566616921721902
4.6	-0.888909294096761	0.452767624076557	-7.500817720931E-07	6.13439062174308E-06	-1.23363412243673E-05	-6.53312883283465E-06	-0.88156388981925	-0.459399276276027
4.7	-0.850865068875603	0.520714867648292	1.1951578346569E-06	2.52015020853666E-06	1.41730599625667E-06	1.87507804720571E-06	-0.932787689462574	-0.344713314330142
4.8	-0.806673721485951	0.586424407900825	-5.23127278513697E-06	1.11350042240862E-05	5.20901118568371E-06	9.73249930939854E-06	-0.968459228597644	-0.22417350011641
4.9	-0.757967533995555	0.64723476230368	1.18872727644902E-06	2.94431873321628E-06	-4.53339097764739E-07	-6.93286355826977E-06	-0.988432473667334	-0.100646987081459
5	-0.706371182322361	0.7050497450404	4.76693323478416E-06	-8.90025706845382E-07	-3.771706592548E-06	2.41532879862383E-06	-0.994770570606353	0.0241284514377023
5.1	-0.647381985644811	0.760183895903364	4.15583705347424E-06	-1.28047430157497E-07	-2.63698175855735E-06	-9.87280828181637E-06	-0.983647325142627	0.151283917933095
5.2	-0.584736618467329	0.809038016323736	2.67747796246541E-06	-1.50612306017075E-05	1.37717006274055E-06	2.8405985341916E-06	-0.955914806238418	0.273991586814651
5.3	-0.519001564567839	0.853060464241703	-8.75777036427181E-06	-8.06327575497817E-07	-1.14167003359331E-06	1.57295722120687E-07	-0.91396744880572	0.391988446610277
5.4	-0.449818335994508	0.891917387563622	-7.21361143971919E-06	-1.11301356815389E-05	-1.38301435636619E-05	1.12447892397534E-05	-0.857767656591441	0.503802420225148
5.5	-0.377988466734431	0.924242516264406	1.91324756760778E-06	8.947299600531E-08	-2.25499823121062E-06	1.79166914316116E-06	-0.788746966723478	0.608386488261628
5.6	-0.30418970355652	0.951025992944912	-2.42214523685727E-06	3.52676928788557E-06	-1.34870219046624E-06	1.29351302506383E-06	-0.705545505154117	0.703437587215237
5.7	-0.228029863242927	0.972471157714811	1.31109776440626E-06	1.23847636050369E-06	5.78963474675832E-06	-1.14093075016693E-07	-0.611137333204053	0.786462982336808
5.8	-0.150144268535735	0.987475787363683	2.7145509042981E-06	4.2825928429934E-06	-2.12521938596716E-06	4.26319541581174E-06	-0.507006667707524	0.856627415564476
5.9	-0.0704909216748441	0.996448223853463	-6.93100864687448E-06	-2.30976034616193E-06	-7.28353688890933E-08	6.32879880687898E-06	-0.395032255601787	0.913075611833251
6	0.00946742566174292	0.996065988441562	-1.80024064969539E-06	9.77377161217826E-08	-5.50599441414095E-06	-4.38715611060952E-06	-0.277130168572703	0.953031917792286
6.1	0.0857306124436143	0.990913580649097	1.44984753823527E-08	-9.9306533808025E-06	-9.93832181316064E-07	-3.21726012984967E-06	-0.157866645020373	0.97952291262402
6.2	0.163306546308588	0.980958057818323	-1.01753407866764E-06	3.11746820934533E-06	-1.75352509430871E-06	4.22156622611253E-06	-0.03403117773971	0.991899278451514
6.3	0.240695332516427	0.96497557296067	-8.02099418813582E-07	2.83401788342989E-06	-2.9373058962472E-06	2.40188441116392E-06	0.0910817980541934	0.988568937912282
6.4	0.317161431206743	0.941954826846105	-5.96321922676546E-06	5.55832406337082E-06	-2.38444845275515E-06	-7.45879066019164E-07	0.215563633404759	0.968491800806283
6.5	0.388668313014766	0.913397073956917	1.4068410412762E-06	-5.2730727010912E-06	-1.44644936162996E-06	-2.37679264667106E-06	0.333328933003684	0.93334355408989
6.6	0.460594503348711	0.882179559928471	3.66353675360385E-06	2.17500964959914E-07	1.13414265927403E-05	-2.66374188842138E-06	0.449435809368507	0.886559975366614
6.7	0.530106084146822	0.842777502114258	-7.80483065285949E-07	8.49775049895322E-07	-3.79237578025775E-06	5.2467843675285E-06	0.558190497775913	0.82267400531733
6.8	0.595742651922456	0.798115572384652	-1.76757233156316E-06	4.50782403400454E-06	1.46155209075662E-06	-8.86326980401857E-07	0.657198388632289	0.745818659490069
6.9	0.657807406929911	0.748327948688284	5.95383408381997E-06	2.26517173200128E-06	-9.38111252365227E-07	2.42959487652245E-06	0.745679834318048	0.657070998294125
7	0.715318343467603	0.692928450505842	1.14050510627466E-06	-4.17891652179295E-06	-1.43220116880943E-06	2.9385052826546E-06	0.821412228029264	0.557570720255176
7.1	0.767698803058709	0.634039258501494	2.39828670230732E-07	-7.21636571363423E-07	1.99821829079E-06	9.22385584225396E-06	0.884215752070162	0.450813673001987
7.2	0.815542871281382	0.57093737674644	1.38817398190584E-06	-2.42469423127019E-06	-1.02475062828877E-06	-8.59829951272935E-06	0.933604908357293	0.336780852009108
7.3	0.858218310832277	0.50419999943273	4.85859372818986E-06	7.25121454710512E-06	-9.7511234471456E-06	2.34772067536987E-06	0.968074680991956	0.217437346443378
7.4	0.896720407436557	0.434489880432567	5.11837160650379E-06	-6.8145525620217E-07	1.95679973592623E-06	-9.67797332042354E-06	0.988740898124991	0.0945929324865031
7.5	0.930356706915512	0.359286102134237	2.76299047387321E-06	-5.34635589236691E-06	2.10842227176614E-06	-7.33042244618433E-06	0.993574064709078	-0.0333047965163743
7.6	0.955171270048026	0.282339081278923	-3.28486402485404E-07	-5.6702638393009E-06	1.68818425288238E-05	3.85337012869496E-06	0.979213399021092	-0.158112974258151
7.7	0.975148280091305	0.204251196696549	3.53957609977383E-06	1.029125885297E-07	3.18718411160057E-07	-2.94353261943406E-06	0.951700183935651	-0.280023033705225
7.8	0.988918281371256	0.124124297254957	-1.10553363387695E-05	-1.89539851257598E-06	-1.92842681464034E-07	3.46191844182645E-06	0.909074667534883	-0.398468114008531
7.9	0.995693837495206	0.0417494379804494	2.38382446422493E-06	2.03072237789022E-06	-7.01706287464028E-06	-4.70252264010763E-06	0.850934077806681	-0.511749293366772
8	0.991194707536885	-0.0406762801923087	2.38427490975707E-06	2.93733812286423E-06	-9.42567292283643E-06	-7.52530356048261E-06	0.774544367899273	-0.614422479326314
8.1	0.983397537565729	-0.116508261914593	3.80412327737483E-06	-3.08945337357194E-06	2.12540008517798E-06	-3.19420987660059E-06	0.692239608787568	-0.702771509528673
8.2	0.971445565821689	-0.19404178805921	-4.0247984285972E-06	1.43403482466683E-06	-6.74456782800292E-06	3.92695366662362E-07	0.599808386162878	-0.783718225212997
8.3	0.952426473309129	-0.271241869111667	9.85307940474544E-06	2.54726183331516E-07	6.279898318821E-06	1.04105028512905E-05	0.497050588712887	-0.852526872330035
8.4	0.926952111894749	-0.346784064282824	1.29080237562534E-06	2.54920884587575E-06	3.46128379621108E-06	1.80994249998766E-06	0.386644464315838	-0.908377360004377
8.5	0.895319778079081	-0.419977927680929	-4.83238644888216E-06	4.97707363551571E-06	2.84745944115709E-06	-3.03034105380528E-06	0.268370496750431	-0.950411973818056
8.6	0.858378474602346	-0.490416775264211	-4.49280685067655E-06	2.10745627420227E-06	-3.00625815267853E-06	8.13523549251888E-06	0.146220561261169	-0.975602689317841
8.7	0.815754668710969	-0.558005032642422	-1.0155890603317E-06	1.22070861440794E-06	-6.28478925616623E-07	3.4661087819171E-06	0.0223489832923969	-0.985521246617792
8.8	0.767763507914395	-0.621614406551662	-1.5687651044884E-06	3.08368967171646E-06	-5.99656782145182E-06	1.31207031953359E-06	-0.101005525117536	-0.979841385304438
8.9	0.715476973819248	-0.680929861527587	3.15947120884094E-06	-1.83969144048229E-06	-3.15931667685438E-06	-4.43576589923856E-07	-0.221539098744158	-0.959014280642227
9	0.658760131327221	-0.736889280159751	-7.27277884438639E-06	1.36073214043705E-06	-3.97023097366105E-06	7.30457818791217E-07	-0.340183576663996	-0.927136328825564
9.1	0.596742965104861	-0.78764242608952	-3.35687526538024E-06	-1.87423925226632E-06	-9.78274755541167E-07	2.13570417149031E-06	-0.456302752228939	-0.876552045485244
9.2	0.530913741286125	-0.83309361145138	5.97779597756159E-06	-1.65208556384808E-06	2.00340241632463E-06	8.47096905166742E-06	-0.563110193701691	-0.812745478306579
9.3	0.461645983875851	-0.873237289651322	-3.37169712628462E-07	1.07133856233421E-06	1.3692370600628E-05	1.18035070580261E-05	-0.661526045952663	-0.73586497465502
9.4	0.389322269942369	-0.908180316209517	1.72947505180914E-06	-2.66886468082309E-06	4.29725774647557E-06	1.75323807277505E-06	-0.749294447099107	-0.648076341444235
9.5	0.309936291104684	-0.937425754392979	-6.54984162757051E-06	-4.86548854910672E-06	-1.98204787831978E-06	-5.70777873552472E-06	-0.828799200938628	-0.546602103348473
9.6	0.230564908728789	-0.954390535444416	-1.16689475069623E-05	-1.91936497728706E-07	-5.94117729950176E-06	-3.97443109110478E-06	-0.888983102243923	-0.435067516377931
9.7	0.152559052007873	-0.967701730024205	1.46279028618733E-06	-4.8416400289407E-07	-2.90416199676634E-06	1.65178531470381E-06	-0.935711773847789	-0.319558725620692
9.8	0.0730812873250748	-0.975469590385179	2.2073055063752E-06	1.38827131343215E-06	1.50554425338012E-05	-3.56006592295835E-06	-0.967658589796208	-0.199243362782264
9.9	-0.00761063842672724	-0.976669889395992	-3.41344831474936E-06	8.9629314800356E-06	1.37444513638245E-05	4.9173564729226E-06	-0.984257443877323	-0.0762368750487812
10	-0.0878204757172427	-0.96922278568501	-3.62432484742025E-06	1.62476391358639E-06	1.91105200725863E-05	-1.81448345571489E-05	-0.9862825562749	0.0473180961417662
10.1	-0.164821773939515	-0.956136049053733	-1.4702833850746E-06	2.30069525327547E-06	-8.41203967900371E-06	-4.28016104862823E-06	-0.97321814808973	0.171668641080885
10.2	-0.241423868649176	-0.937359203068387	-2.30862485280219E-06	-1.23137628331507E-06	-1.28710108876914E-05	7.25383252259403E-06	-0.943404796998371	0.293485186615525
10.3	-0.315267078863572	-0.911369468366327	5.7654937593285E-06	3.89432937482834E-06	-6.12864667071295E-06	1.39830508757103E-06	-0.898162827749478	0.409859120692581
10.4	-0.385941970718546	-0.879624175386399	2.09716773064704E-06	1.03323809234312E-06	6.6465976066531E-07	-8.1896405651877E-06	-0.837523865521916	0.517615267485304
10.5	-0.452944647098996	-0.841455860374546	4.32732994485456E-07	-3.04866671264579E-07	-6.66214498386668E-07	-5.58743266044317E-06	-0.768649158626413	0.61400562015845
10.6	-0.514403827998259	-0.798491203936778	5.04954110694382E-06	-2.5931384048154E-06	-9.68885969368381E-06	-7.81233517191721E-06	-0.688684902841509	0.707457763298486
10.7	-0.571831234892828	-0.75191879594337	-2.79534592334049E-06	-4.96408937771697E-07	-5.19561414512194E-06	-7.1141615532494E-06	-0.595202740487426	0.789379351202467
10.8	-0.62464000962675	-0.702303416438604	-3.59066613898766E-06	-3.41717507223871E-06	-1.18736761144059E-05	9.08589608886411E-06	-0.491459751080872	0.858366566280491
10.9	-0.672664792120041	-0.651435725323636	-1.12853928607992E-05	-1.03493233162973E-05	-4.44973707642341E-06	1.08699730286689E-05	-0.380583515032504	0.912048744142548
11	-0.72085622598848	-0.601085353751411	1.00329773726332E-06	1.40564508984384E-06	8.63857464367384E-06	-5.45591869163052E-06	-0.265811311225303	0.954095890450768
11.1	-0.765625186152689	-0.542189748367817	-3.26370123163786E-07	-3.61853890147971E-06	1.01422113536537E-05	-1.01645675904E-05	-0.142356348564004	0.981549334409842
11.2	-0.804577994275904	-0.482662647164889	-1.0289378926386E-06	-3.89562751680585E-06	2.14919569942087E-06	-6.28409185184019E-06	-0.0164417090009141	0.991238560658962
11.3	-0.840730149218497	-0.420643143067683	1.62528738184784E-06	-1.19910697014624E-05	3.54954974222078E-06	-2.8100037954331E-06	0.109418217930776	0.984722503292872
11.4	-0.873242723586909	-0.356001798195141	9.83244841623007E-07	1.79755518421526E-08	-5.66636460484086E-06	6.44113196716819E-06	0.233751691083158	0.962237583571198
11.5	-0.902270925071311	-0.285402623947531	6.51841556659885E-06	-1.25058188780711E-06	8.20565740759313E-06	-3.29712354277974E-07	0.352462040735601	0.923845095420147
11.6	-0.921574080539515	-0.213614719365964	-6.44112486910877E-07	-5.29620247179662E-06	1.42461636429766E-06	-3.06516026201188E-06	0.46623509671048	0.871713280617076
11.7	-0.936888026448857	-0.140954106539466	-9.77237491084552E-08	-6.01037421479495E-06	8.8511630685535E-07	-2.64251158917612E-06	0.572703459818502	0.805047259614761
11.8	-0.947233182471884	-0.0657163688194406	-1.06499286939573E-06	-7.36445640323924E-07	5.13489978001124E-06	1.07197087262236E-06	0.669934745265152	0.725168427486793
11.9	-0.952049345728655	0.0113773388687401	-3.19910373731759E-06	-5.1805325247221E-06	-5.35797010459112E-06	-7.96687584690465E-06	0.755170098259025	0.632426889518114
12	-0.950338107516681	0.0903180456167172	-2.92715785334089E-06	1.6332309691106E-06	-1.6634880630864E-05	-8.69529188279329E-06	0.822771946760318	0.530341102770021
12.1	-0.941286279734788	0.168861697092657	8.23865601133353E-07	-1.5568229987447E-06	7.78960086746404E-06	1.2221520279062E-05	0.879828521234742	0.427825206545945
12.2	-0.924984317432593	0.246909564847815	-4.09973052531235E-06	5.51509917880767E-06	4.06350206542819E-07	3.29849836605751E-06	0.927458924659634	0.315778317703225
12.3	-0.902495253420264	0.323526139965707	7.79254573800733E-06	6.37616558277407E-06	3.99892202702538E-07	1.08509857023366E-05	0.959815909721489	0.196586686683374
