# GHZ S RI R 50
0.2	0.987573038353424	-0.156450396948686	2.56580699418254E-06	2.25654159693158E-06	6.58671930247809E-06	-4.86881234686036E-06	-0.968270510110724	0.250488263519202
0.3	0.97187380748619	-0.233632721489409	-8.67608901918969E-07	-5.46671306595628E-06	-3.46215823183113E-06	-7.96737681578242E-06	-0.929576305668856	0.370572292727408
0.4	0.950957473160475	-0.309172178288043	-7.29841479084569E-06	-1.00590879605328E-06	4.45150359491354E-06	1.55676997422759E-06	-0.875954903705027	0.484971666136792
0.5	0.924371039435149	-0.383747444917783	6.22068015047532E-06	2.11710935978915E-06	-2.42140802776004E-06	-1.91679071461135E-06	-0.807577865830506	0.593036732410319
0.6	0.890870334665925	-0.45502287312677	-1.05860991750385E-05	2.46233090581214E-06	-2.22481252642088E-06	-1.01158691592882E-06	-0.725298214463979	0.689551115095701
0.7	0.852856629242398	-0.523111944396966	2.79486659575531E-06	-1.17380160193129E-06	-3.00282783163532E-06	5.80595611936454E-06	-0.632973177951729	0.775472716180065
0.8	0.809445181221198	-0.588721811717951	1.18740089272067E-06	-8.50805980296802E-06	-6.64418608489945E-06	-3.08700759145716E-06	-0.53021440146283	0.849314025602793
0.9	0.760652102922409	-0.650929481721831	-1.15120573870532E-06	-6.84409453519817E-07	2.55562185285543E-06	6.57192741086933E-06	-0.418934403318365	0.909468003607806
1	0.706747686335395	-0.708611366437116	-2.75510087863181E-06	-3.23670822795747E-06	-4.04403638103281E-07	-7.34661414779323E-06	-0.30120563755591	0.954975669280636
1.1	0.650124293048582	-0.762173917681676	1.81656212149183E-06	-4.96226828273129E-06	2.2821156773082E-06	-5.15644321439062E-06	-0.178174900089742	0.985552141180276
1.2	0.587597727989521	-0.812313471782395	-2.50761434842526E-06	2.50310771752434E-06	9.30499988177912E-07	-9.15076751356358E-07	-0.0518395488541168	0.999951560786882
1.3	0.519442899161804	-0.857323040450968	-1.54474971915855E-06	7.2358038692058E-07	-1.36097291889796E-06	1.47085053267288E-06	0.0755050612257923	0.998163912050266
1.4	0.447956411462192	-0.895702910701426	3.93539317507118E-06	-3.25845884117062E-06	2.72627143869544E-06	1.09824438837972E-05	0.201760078025645	0.979515702279898
1.5	0.376308227406173	-0.92775426283287	-5.35783712047838E-06	1.11867031207328E-06	6.61011035255242E-06	-7.24133057378287E-06	0.324456497873673	0.945764813498385
1.6	0.30210833084219	-0.956421231493482	1.77589306413413E-06	-7.77690268012345E-06	3.65040261106544E-06	1.38486064214055E-06	0.440917509906328	0.896218541362126
1.7	0.226110294839002	-0.97707571776719	-1.95249178501846E-06	-9.70953170333243E-07	-2.40054657469792E-07	-2.09674974953652E-06	0.549369037593651	0.833935484018638
1.8	0.148469215170347	-0.991592861020521	2.87410827794521E-06	5.29939452453765E-06	7.84176099226761E-09	2.04128321620132E-06	0.649512505299973	0.758130810764256
1.9	0.0707998067639082	-1.00002023584301	5.69946413418452E-06	-2.65129414612864E-06	-3.0125178046536E-06	4.21397152713495E-07	0.738385998209015	0.671382020421164
2	-0.00664025848131803	-1.00432005212305	-1.56322017684994E-06	-2.04010918709784E-06	3.25341316303103E-06	1.15421663135631E-05	0.81929576585181	0.57490055611634
2.1	-0.0882404417817669	-1.00101674668049	-7.59870974448487E-06	2.50656262530463E-06	1.23895652227668E-06	5.17869427661854E-06	0.885763548042738	0.463980862145361
2.2	-0.16621276272963	-0.990545741607775	-8.82001962186699E-07	1.40734465427081E-06	3.06000284849939E-06	7.81146150848054E-06	0.935636228638526	0.348229226410129
2.3	-0.244460970241673	-0.973782912725645	2.17523599337152E-07	7.49727975908976E-06	7.48826107904968E-07	9.40715809175786E-07	0.97076344792045	0.228405092449071
2.4	-0.321399517888971	-0.950474069409064	1.62540951884153E-06	7.20870692391714E-06	1.56285239035395E-06	6.41768512807536E-06	0.991535114455758	0.104328346771376
2.5	-0.395348351595188	-0.921590952119691	4.40330114043537E-06	-2.35241003470615E-06	-1.96828722112966E-06	-7.60528201143999E-06	0.996635376462059	-0.0209354534659598
2.6	-0.466877153674765	-0.886813615166021	6.77233693478459E-06	-6.01887527763885E-06	-1.10973542502003E-05	1.09549746883339E-05	0.985842842032495	-0.146538717878267
2.7	-0.535763872819757	-0.846702617283552	-4.40765724704287E-06	9.22305146497378E-06	-2.94905681514859E-06	-9.19188816658414E-06	0.959367479726753	-0.270020144985867
2.8	-0.600647887903915	-0.801678647248947	2.47958626258391E-06	1.13173436988582E-06	-3.13596358762082E-06	1.27369975094059E-06	0.917823051336903	-0.388947439032946
2.9	-0.661706812209444	-0.751235585286405	-5.47673295113673E-06	6.09329469664526E-06	-9.24368031856694E-06	-2.06340810227586E-07	0.860799611637481	-0.501220193246938
3	-0.71641583677314	-0.694702314643571	4.59170427238068E-07	-1.48280875681238E-06	1.13788014462738E-05	1.35401573379402E-06	0.790295869303164	-0.605564235664928
3.1	-0.767480327260803	-0.638684102087108	2.50930350060228E-06	1.04945691568787E-05	4.35432467638663E-06	2.13758981289557E-06	0.707020518751809	-0.699651430638645
3.2	-0.815651845872494	-0.577160158505037	2.16824682549766E-06	6.45572882319761E-06	3.90696836988863E-06	-1.0658524972029E-05	0.612897405307501	-0.781959899111637
3.3	-0.858362807156814	-0.511348835442702	3.13137527797213E-06	4.93475704581534E-06	-2.31953089165466E-06	-9.65251702067186E-06	0.508055440906306	-0.852103222254725
3.4	-0.893941826408946	-0.442352984536713	2.09769210763213E-06	-2.62057155238376E-06	5.96285286701595E-06	1.32423041801119E-06	0.396720886065671	-0.906810101135753
3.5	-0.923923426271192	-0.372194244338833	-3.22822564478167E-06	9.65896497872895E-07	-2.04749430773441E-06	3.4309825788232E-06	0.282903512632694	-0.947526067881894
3.6	-0.952271521307862	-0.299031594592351	-1.8421748820324E-06	-3.73250885432253E-06	-7.79743271870371E-06	4.16788627743595E-06	0.16126453781394	-0.978547698591981
3.7	-0.972619881652844	-0.222503636659656	7.4994676441118E-07	-8.33198763600524E-06	1.07976951480286E-05	3.60288774088282E-06	0.0349816294339587	-0.990170573185064
3.8	-0.98649732166898	-0.144293505405527	1.05264233830198E-07	1.54419864479295E-06	-6.45970881919323E-06	6.00054596248209E-06	-0.0895775790218041	-0.9853761175881
3.9	-0.993577266083924	-0.0659709901155928	-2.66460042481831E-06	-4.99927641766764E-06	-3.633165779945E-06	8.04401288190764E-06	-0.213359907669419	-0.96564907821572
4	-0.993990249350123	0.0128334894855537	7.11935317093777E-06	-4.44637715538619E-07	-1.05464976608008E-06	-1.19533633973572E-06	-0.332510504865687	-0.932439121300052
4.1	-0.989421589360559	0.0899536793108049	6.14049939888628E-07	-4.4873172370622E-07	7.29130212728056E-06	-4.81490822316321E-06	-0.448668543039341	-0.882421526184029
4.2	-0.979285497660294	0.167173828248411	3.21446667976684E-06	2.06777527848247E-06	-7.2306809249176E-07	-7.53219159274526E-07	-0.555844765352126	-0.817727914093715
4.3	-0.963556468287054	0.242514923655648	-3.16707942122204E-06	1.39411772623441E-06	-4.95445000494455E-06	3.01310760345835E-06	-0.653670018574748	-0.74148248759259
4.4	-0.942652552135312	0.317527983546134	8.20844299165127E-07	2.62905303480683E-06	1.48905533656935E-06	-8.31975547431072E-06	-0.741457567245902	-0.653773905654661
4.5	-0.912607589438355	0.393161006760707	1.81352253314131E-06	-9.54803675579689E-07	7.62107098449226E-06	-3.22736303960359E-07	-0.818265958980646	-0.554951854108245
4.6	-0.875879278229686	0.460979779188397	-6.64446285966395E-07	6.11541645156748E-06	-1.23654226223785E-05	-6.33715130636934E-06	-0.880683711730782	-0.447423797836684
4.7	-0.837692521320608	0.52576933025968	1.21924075318222E-06	2.48790842356923E-06	1.43166282329545E-06	1.84435366683701E-06	-0.930037233201158	-0.333395489180046
4.8	-0.793588547448675	0.589938212252475	-5.04935506952774E-06	1.11169109780513E-05	5.29349381247805E-06	9.59189266455026E-06	-0.964531696596377	-0.213138371543726
4.9	-0.743828815157548	0.650807662225797	1.22068555816318E-06	2.90111914394817E-06	-5.49344128632933E-07	-6.86498334011685E-06	-0.983195675004733	-0.0878855852884211
5	-0.687136519158226	0.704206094643946	4.68245106208581E-06	-9.45365272309822E-07	-3.68019576229397E-06	2.4333947891562E-06	-0.98126789447816	0.0368587037425726
5.1	-0.632597616617325	0.753201392963311	4.08886511461518E-06	-1.63201069845902E-07	-2.68354432580265E-06	-9.69283529617021E-06	-0.969464026738526	0.156122632993781
5.2	-0.572649290337773	0.801699603852633	2.52131169454745E-06	-1.48496630348303E-05	1.37763155604008E-06	2.78633459725569E-06	-0.942866006546337	0.277047417697199
5.3	-0.508016971844596	0.844901073918005	-8.61970104859796E-06	-7.39997829555472E-07	-1.12207816145014E-06	1.6165887646513E-07	-0.90007383122653	0.393305456374018
5.4	-0.440125205065284	0.882741994674998	-7.12347452424293E-06	-1.09235860185145E-05	-1.35671760774105E-05	1.10945423163111E-05	-0.842935487167785	0.502042317375176
5.5	-0.368607364551827	0.914203859987459	1.88908791513448E-06	8.7238119836204E-08	-2.22542975429974E-06	1.77029603761859E-06	-0.774736982114562	0.602311074567641
5.6	-0.296462407633091	0.938402234015319	-2.37937812422015E-06	3.49026211711311E-06	-1.32717358941568E-06	1.28169263160575E-06	-0.694038578803372	0.694886690438196
5.7	-0.223055657275084	0.958615454688406	1.2958174509891E-06	1.21694051090399E-06	5.70617717772648E-06	-1.29027964036791E-07	-0.601816764869061	0.776012305055769
5.8	-0.14822413559767	0.972666983029481	2.67734580180558E-06	4.21102762850673E-06	-2.08574311766137E-06	4.19851376799804E-06	-0.500297807943215	0.844211873772449
5.9	-0.0737851839316236	0.981860085666546	-6.80045889742984E-06	-2.28634079673463E-06	-8.80344792030114E-08	6.21490325884444E-06	-0.39290683114707	0.899250224665026
6	0.00387474634309739	0.989253855259866	-1.77948349167369E-06	7.85056159300094E-08	-5.39551930558992E-06	-4.389394343818E-06	-0.279120815346871	0.944177960699699
6.1	0.0851788009038348	0.983719792460012	6.62648313114694E-08	-9.86611022884234E-06	-9.7057908375567E-07	-3.20156449495013E-06	-0.15678326040577	0.971287634645806
6.2	0.161849896702696	0.971608390488604	-1.02020589011559E-06	3.09217040575534E-06	-1.75448351725087E-06	4.18611880304389E-06	-0.0340522573032731	0.981840534873727
6.3	0.236776442770734	0.955211983252451	-8.05044986963946E-07	2.81020756627198E-06	-2.92285704567113E-06	2.37456239610315E-06	0.0882794625122636	0.978015951804721
6.4	0.311243495157605	0.935408055434566	-5.94977245684806E-06	5.5027200915097E-06	-2.36759916937516E-06	-7.50725670804065E-07	0.210171813840784	0.961182270565329
6.5	0.389206421420529	0.906478277293848	1.38794387811586E-06	-5.25707707991504E-06	-1.44721807885509E-06	-2.36419400991368E-06	0.334113890372801	0.926098396719818
6.6	0.455884356899096	0.868671341478591	3.62131266538602E-06	2.00747759802361E-07	1.1197779697383E-05	-2.67637662809029E-06	0.444636255802297	0.872620792051228
6.7	0.520657054373195	0.831077551474236	-7.6851945160461E-07	8.38196559401007E-07	-3.73329608270981E-06	5.17442400786034E-06	0.54796208192632	0.810931950323835
6.8	0.583866027161284	0.788316670166523	-1.74393710468534E-06	4.43478395451528E-06	1.43927497801923E-06	-8.70893883157832E-07	0.644015188469998	0.736723311913867
6.9	0.643719775707196	0.740787211896096	5.83766010469142E-06	2.24248557470691E-06	-9.28601740487481E-07	2.38214406770957E-06	0.729954844337263	0.651405669459079
7	0.700785670651681	0.688416144268329	1.16285075934028E-06	-4.09455610911075E-06	-1.43692946382088E-06	2.87281736056831E-06	0.806189473341448	0.556408537541161
7.1	0.75274137370721	0.630545426902128	2.43576416955454E-07	-7.10587208800506E-07	1.88836469588059E-06	9.12951074950814E-06	0.869306063161596	0.450539783267008
7.2	0.799587230329102	0.569053856752261	1.3899903645677E-06	-2.38494441227678E-06	-9.46799144886455E-07	-8.50273724123076E-06	0.917788782366739	0.338555316881356
7.3	0.841271178359237	0.503630879628932	4.75077387263954E-06	7.19091560240699E-06	-9.64317662244685E-06	2.25553473447884E-06	0.951387204008688	0.221186647917787
7.4	0.876477250974523	0.435325781474284	5.03653298600144E-06	-6.46837431112724E-07	1.96839854029311E-06	-9.50845139633889E-06	0.968394132611068	0.101521841984245
7.5	0.907928507570246	0.368831520379481	2.7668282912896E-06	-5.18941020708223E-06	2.15211300009592E-06	-7.13629903408986E-06	0.974580810320091	-0.0139540706446405
7.6	0.938167689494021	0.295045602796555	-2.23948204530983E-07	-5.58302269232499E-06	1.65376208902325E-05	4.08537923373451E-06	0.969536444380775	-0.137785607751731
7.7	0.9592747384258	0.218435019771362	3.48605456672269E-06	1.63325476886391E-07	3.65551483320571E-07	-2.89494562465628E-06	0.944685618001897	-0.259258471069024
7.8	0.973792865118855	0.14170216844988	-1.08612984042016E-05	-2.08333745545671E-06	-2.57392166628157E-07	3.40894500549885E-06	0.905280219498358	-0.375147193972186
7.9	0.983347534010032	0.0660928305910887	2.30319429630632E-06	2.06427255621591E-06	-6.81140920386816E-06	-4.81741534133324E-06	0.854178746386416	-0.484046548158348
8	0.993505911665646	-0.0133432681079025	2.29876404227489E-06	3.00679947236256E-06	-9.20663342078497E-06	-7.79985990576771E-06	0.793518628863441	-0.59344726057898
8.1	0.988538263359855	-0.0991011685533247	3.88130314243977E-06	-3.03100290638068E-06	2.19668969661091E-06	-3.16846205927856E-06	0.707403475635671	-0.693665054407097
8.2	0.975897032498178	-0.178196786713223	-4.06168410285906E-06	1.37424222750092E-06	-6.77405191078574E-06	2.85591469923238E-07	0.612710778373407	-0.775843960354281
8.3	0.958093896451482	-0.255927664384288	9.88307507667507E-06	4.00464132943967E-07	6.14834192161026E-06	1.05384831851836E-05	0.510041544160383	-0.845905238682634
8.4	0.934510317808679	-0.332220919569159	1.26292799386992E-06	2.57371465947376E-06	3.4497495676127E-06	1.85934875001842E-06	0.399899131475502	-0.902507592230939
8.5	0.904930231115882	-0.407381558080234	-4.89565050612226E-06	4.91315993194887E-06	2.88600279295374E-06	-2.99265509645955E-06	0.285415082912952	-0.945868380276849
8.6	0.868625762678494	-0.479430620867101	-4.53523567743749E-06	2.03814272196677E-06	-3.14410728786321E-06	8.10102147817262E-06	0.16362229308994	-0.977146709866689
8.7	0.82726210165307	-0.548434132679904	-1.03978242880055E-06	1.20989381737571E-06	-6.87006186128855E-07	3.47163783305716E-06	0.0378121030850802	-0.9907970867884
8.8	0.780245357584499	-0.614266476185291	-1.62610563251687E-06	3.0816076966381E-06	-6.05815438675809E-06	1.2310105388785E-06	-0.0884763006904943	-0.98840037248233
8.9	0.727256135555609	-0.676216845753825	3.21085403052347E-06	-1.8215706762941E-06	-3.18477125409559E-06	-4.83732049249395E-07	-0.214953722440878	-0.968093081467195
9	0.669334334891372	-0.731153067220931	-7.31430218798147E-06	1.32105721046697E-06	-3.99282072212699E-06	7.08743123133649E-07	-0.332258963895618	-0.929092030464284
9.1	0.609364542262234	-0.783131617301326	-3.34516169578503E-06	-1.91258790945096E-06	-1.00220122826603E-06	2.1304348939071E-06	-0.444400290016111	-0.883613979092316
9.2	0.543541091470214	-0.830203031545057	6.01168210646299E-06	-1.58978834760553E-06	1.91424784903832E-06	8.51522679578376E-06	-0.552921404662935	-0.82271920019648
9.3	0.473856452786779	-0.871218812014557	-3.50439748359965E-07	1.06961289906321E-06	1.358239745646E-05	1.1988704329362E-05	-0.652783554270055	-0.74747836741394
9.4	0.40063351626432	-0.904115902599425	1.76292279364732E-06	-2.64535464417642E-06	4.27265382535214E-06	1.80759329788429E-06	-0.740346058122844	-0.659452984410105
9.5	0.331631636891552	-0.932126525661637	-6.44178732841756E-06	-5.02349828319155E-06	-1.8500585987865E-06	-5.75947847826203E-06	-0.816777024504422	-0.567975066578739
9.6	0.25246457353714	-0.961683318945537	-1.18002414483229E-05	-4.4747214045056E-07	-5.92386993770398E-06	-4.14953884788813E-06	-0.890476776900512	-0.461075700768175
9.7	0.169363577435199	-0.9787572967465	1.49122114011157E-06	-4.65173013599392E-07	-2.97269112040064E-06	1.62350335311583E-06	-0.944118563609045	-0.341572159361369
9.8	0.0867359581839735	-0.987781571548991	2.21710891681471E-06	1.44278148243537E-06	1.53267866952828E-05	-3.37473832640224E-06	-0.980191299644657	-0.217825172309857
9.9	0.00487239901099448	-0.989736005819299	-3.60096543939676E-06	9.05397641975294E-06	1.38887890465726E-05	5.19989028787917E-06	-1.00014062510555	-0.0906528849453551
10	-0.0765065655365763	-0.986567013826261	-3.70847036168971E-06	1.61036718823857E-06	1.96688889384316E-05	-1.82398756966029E-05	-1.00281971488005	0.0364123720167152
10.1	-0.158902453927681	-0.974321007576576	-1.51877182198535E-06	2.32333364474869E-06	-8.50631607041768E-06	-4.43931711240755E-06	-0.992134686552533	0.162711686272693
10.2	-0.237660921478249	-0.955216783462843	-2.33481061586312E-06	-1.27769065274889E-06	-1.31710141463305E-05	7.23791451087668E-06	-0.964787133151135	0.288105749374513
10.3	-0.31365690781174	-0.93019145209192	5.83240751152817E-06	4.03247232282298E-06	-6.26108179944838E-06	1.3571433972864E-06	-0.922075520818648	0.408830480765612
10.4	-0.387765430302344	-0.899271047953362	2.13457275294651E-06	1.07966102320961E-06	7.67998985887153E-07	-8.37191127797924E-06	-0.864657847864796	0.524685540949598
10.5	-0.45807898781921	-0.860322321988572	4.45799817927281E-07	-3.1174052735198E-07	-6.64519113452011E-07	-5.74437393488199E-06	-0.787192117398056	0.633780450697433
10.6	-0.522541922620361	-0.816581138063728	5.16484081409262E-06	-2.66057023299373E-06	-9.92656683950445E-06	-7.98340615763286E-06	-0.698192188600151	0.72431573580559
10.7	-0.582686554810795	-0.768685862246986	-2.85632267192006E-06	-5.01056911103798E-07	-5.32222048811501E-06	-7.25550327353572E-06	-0.602345199945762	0.804827183826695
10.8	-0.639064398798737	-0.71795932532762	-3.67742536632014E-06	-3.478393031316E-06	-1.20969691685569E-05	9.31550100105164E-06	-0.497284178879499	0.874132146608759
10.9	-0.692652743030823	-0.662069562417148	-1.15961438112739E-05	-1.04795552180134E-05	-4.46090995161496E-06	1.11281818912773E-05	-0.382140001198222	0.930344422074119
11	-0.734418496106998	-0.602791645330434	1.02559250661389E-06	1.41472060361493E-06	8.69964203295934E-06	-5.58457244813615E-06	-0.261535667055304	0.966163373848532
11.1	-0.777500054319238	-0.550195346595901	-3.35111223882399E-07	-3.66961116582407E-06	1.02748751770878E-05	-1.03205653819178E-05	-0.142540970196574	0.992962354328287
11.2	-0.820764558195458	-0.490010940898992	-1.05537952847638E-06	-3.95927111888897E-06	2.17109570203196E-06	-6.39555957959347E-06	-0.0149278315414394	1.00510769803367
11.3	-0.859300478097032	-0.424377077518227	1.60171317131263E-06	-1.22057099701017E-05	3.59889233845289E-06	-2.87396920615699E-06	0.113888652550772	0.999089594040706
11.4	-0.890409805137989	-0.354965786807676	9.98644937284897E-07	1.30916247912058E-08	-5.72074300556869E-06	6.5711561853745E-06	0.240965332588848	0.975896035446481
11.5	-0.915924021414736	-0.287864669148662	6.6229612087476E-06	-1.28682793599006E-06	8.34024507191141E-06	-3.54807371054174E-07	0.362603023174188	0.936127411227182
11.6	-0.942021849817073	-0.214946452126445	-6.85909778227075E-07	-5.39431572041538E-06	1.43493809846818E-06	-3.13193066591228E-06	0.478271651199451	0.881239346166841
11.7	-0.958497477337852	-0.136743328459253	-1.48017436985168E-07	-6.11832984730455E-06	8.79795873118373E-07	-2.69746818487491E-06	0.585431272944541	0.812098925370585
11.8	-0.967987898241597	-0.0570894555993677	-1.08928209938227E-06	-7.38688545861202E-07	5.22909555917677E-06	1.04209684301871E-06	0.68207319839722	0.730281149948533
11.9	-0.970333861055712	0.0245899612835287	-3.28805261289577E-06	-5.23318612965521E-06	-5.50134825981971E-06	-8.04439315033976E-06	0.766286631371443	0.640542152782407
12	-0.96454736166884	0.106252355662123	-2.97079085754604E-06	1.6857519139573E-06	-1.70148016623584E-05	-8.73841250043844E-06	0.845131045516697	0.541198620990054
12.1	-0.953131844561877	0.184985914661082	8.19001981414996E-07	-1.59605841554324E-06	8.0900703708529E-06	1.23461871793034E-05	0.905093787163202	0.424801991278711
12.2	-0.934939937969091	0.263571378605141	-4.088359734883E-06	5.65958476258906E-06	4.58560453792481E-07	3.34526397919297E-06	0.948426078742937	0.307107384746315
12.3	-0.911539019671199	0.34057329185949	7.99845418725512E-06	6.36764093176529E-06	5.53642165332424E-07	1.10114679785172E-05	0.978147375548726	0.185382701456406
