# GHZ S RI R 50
0.2	0.986770151160975	-0.15676566535684	2.56522383063558E-06	2.25369648327787E-06	6.57975775417254E-06	-4.86888703206113E-06	-0.967552970808545	0.250910707578796
0.3	0.970876595181834	-0.23393813906335	-8.70339186927475E-07	-5.46126273209373E-06	-3.46417010473932E-06	-7.95802347623283E-06	-0.928506296753873	0.370972335741755
0.4	0.949651696879242	-0.309376717880603	-7.28992192458202E-06	-9.99407123602071E-07	4.44699970853705E-06	1.55161362731001E-06	-0.874410529386381	0.485119219900516
0.5	0.92296423021071	-0.383384599294845	6.21117169923084E-06	2.11225335002175E-06	-2.41796186889707E-06	-1.91314349333583E-06	-0.805998195642419	0.59229061236185
0.6	0.889811128457666	-0.45467807597862	-1.05727136600334E-05	2.46093306568088E-06	-2.22223446970335E-06	-1.01000194037971E-06	-0.72423325913114	0.688814055135983
0.7	0.851644409252344	-0.522778690233557	2.79075276969216E-06	-1.17315914451564E-06	-2.99690770205737E-06	5.79920630698512E-06	-0.631816208216727	0.774672298219255
0.8	0.808099121577752	-0.588153504280015	1.18278575985558E-06	-8.49536546069973E-06	-6.63498072738739E-06	-3.08008228953858E-06	-0.529059412131044	0.848252528029456
0.9	0.759329581155812	-0.649969425062623	-1.14935189031811E-06	-6.82965793938596E-07	2.55261386721759E-06	6.5599277215046E-06	-0.417861098461238	0.908148303811091
1	0.705760126574924	-0.707400218764512	-2.75017226535109E-06	-3.23058881884769E-06	-4.04025205763473E-07	-7.3330181097787E-06	-0.300181781737176	0.953346059183038
1.1	0.649260460302298	-0.760832330995854	1.8131082015404E-06	-4.95221359623803E-06	2.27773313772451E-06	-5.1459791829317E-06	-0.177340637994718	0.983486812536238
1.2	0.587013632509196	-0.810784715365422	-2.50263478092557E-06	2.49690865082914E-06	9.28648846731124E-07	-9.1280713937084E-07	-0.0513387122739747	0.99736516083736
1.3	0.519209793768983	-0.855719979904917	-1.54161845988633E-06	7.20916627816984E-07	-1.35874375823063E-06	1.46656638141087E-06	0.0751956826441135	0.995209306774593
1.4	0.44816963421422	-0.894440208862491	3.93096542437352E-06	-3.24825949842395E-06	2.71016419325813E-06	1.09638164841265E-05	0.200615413012622	0.976918041879733
1.5	0.37585150191226	-0.92715353467341	-5.35091088482983E-06	1.11330430639456E-06	6.6056742706975E-06	-7.22627551783057E-06	0.322687705433544	0.943652840671324
1.6	0.301467995101124	-0.954979026855241	1.77745522774019E-06	-7.76442294674503E-06	3.64424749872299E-06	1.38477714573649E-06	0.438913406579639	0.895104876014788
1.7	0.225964279689762	-0.975478572421363	-1.94912795467931E-06	-9.70681633802694E-07	-2.38503327624217E-07	-2.09387546076913E-06	0.547558786390228	0.833328754757995
1.8	0.148636388585961	-0.990153157607409	2.86759344813606E-06	5.29428227603657E-06	6.71802969207179E-09	2.03871420865022E-06	0.647969471520331	0.757906234050922
1.9	0.0707909635047161	-0.998825600042766	5.69295291224251E-06	-2.64831466246802E-06	-3.00908320948479E-06	4.20938612163084E-07	0.737548213740445	0.670961787530351
2	-0.0069048208846664	-1.00205743981965	-1.55965094420609E-06	-2.03416673681794E-06	3.24820240175957E-06	1.15102454100581E-05	0.817221154917093	0.572945074112008
2.1	-0.0870212530777813	-0.998682332726538	-7.58246556552723E-06	2.48958740022715E-06	1.22860426818911E-06	5.16697641308165E-06	0.882295833307088	0.464172353679852
2.2	-0.164632933077628	-0.988774399644784	-8.82461116363497E-07	1.40337992808798E-06	3.042530483918E-06	7.80140382084621E-06	0.933009182681855	0.349563301552115
2.3	-0.242673803763421	-0.972231686480829	2.07117473337358E-07	7.48524836068532E-06	7.46334455877395E-07	9.40173246935319E-07	0.968894779097448	0.230114646998587
2.4	-0.319305792050966	-0.949089726852117	1.61451824917108E-06	7.19853637044081E-06	1.55296321845748E-06	6.40876204129385E-06	0.990326080778881	0.105992945891117
2.5	-0.392891659660057	-0.920505391592828	4.39736423333608E-06	-2.34281894475353E-06	-1.95581523989882E-06	-7.59265215823905E-06	0.995524523114832	-0.0195478920086816
2.6	-0.464164973080191	-0.886088812644119	6.76537584724904E-06	-5.99789418609695E-06	-1.10872807203318E-05	1.09182869352259E-05	0.984778181257192	-0.145186411749712
2.7	-0.532817830096982	-0.84633524537251	-4.4108172460978E-06	9.19375218625152E-06	-2.92789931306012E-06	-9.1738093710039E-06	0.957955872257125	-0.268423539844304
2.8	-0.597318259229613	-0.801707630207081	2.47085558478727E-06	1.13403440670637E-06	-3.1305960262291E-06	1.26385627496079E-06	0.916556536625386	-0.386482627556298
2.9	-0.657623106541851	-0.752209145131312	-5.47983678069734E-06	6.06186513070748E-06	-9.21906065484845E-06	-2.32113555322536E-07	0.860353817360518	-0.498182206409241
3	-0.71319754283524	-0.698033740266977	4.64581445144178E-07	-1.47835825134086E-06	1.13537134808474E-05	1.3992437482661E-06	0.790551349259258	-0.602479568697687
3.1	-0.765806910852686	-0.641508072957848	2.46673863836134E-06	1.04992812884515E-05	4.34376161455527E-06	2.15368460479456E-06	0.708062050577955	-0.696204802146464
3.2	-0.8140763408259	-0.579946033558813	2.14328303756807E-06	6.46359336342691E-06	3.94764222316597E-06	-1.06427406527892E-05	0.615035406081405	-0.778638837705506
3.3	-0.85703171599471	-0.514556671328222	3.11304463452511E-06	4.94988146408452E-06	-2.2817554603136E-06	-9.6667463223467E-06	0.511422715432224	-0.849261274038624
3.4	-0.893461234612158	-0.446286739012992	2.11218193656371E-06	-2.61684961189611E-06	5.968396199909E-06	1.35088254489382E-06	0.401542416104917	-0.905606849267238
3.5	-0.925293948901239	-0.374945286810066	-3.23821189837935E-06	9.62993345524455E-07	-2.05854860388568E-06	3.43644724276795E-06	0.285777894534877	-0.949026524579167
3.6	-0.952254863020099	-0.300748993692326	-1.83713724106196E-06	-3.73802025808025E-06	-7.80948031102094E-06	4.1575705525231E-06	0.163385315637065	-0.978091603997544
3.7	-0.97232822824329	-0.224923587494681	7.70572238359175E-07	-8.33765155110625E-06	1.07987342831827E-05	3.63197260573293E-06	0.0383950497569421	-0.990128632379831
3.8	-0.986471748524162	-0.147117782440355	1.01851735749345E-07	1.54665006074508E-06	-6.48279309444491E-06	5.99422303346918E-06	-0.0858345318025555	-0.986723407802395
3.9	-0.993909881403634	-0.0691478348186463	-2.66031494142548E-06	-5.01161199576848E-06	-3.65246307308917E-06	8.05046143551575E-06	-0.210479771098866	-0.968517147914757
4	-0.9951615002924	0.00935003834945437	7.12565437487138E-06	-4.32272255623457E-07	-1.05333172232723E-06	-1.19814379077512E-06	-0.331288412750092	-0.935126397848704
4.1	-0.991386183371888	0.0868929158821386	6.15923601088808E-07	-4.47793649194011E-07	7.31229269885074E-06	-4.80312186366432E-06	-0.447439833970337	-0.884813400879735
4.2	-0.981706722573595	0.164691129128158	3.21526253091723E-06	2.07910694905066E-06	-7.22561233256511E-07	-7.56280659598241E-07	-0.554943481877338	-0.820300861280682
4.3	-0.966015406123647	0.240790120075338	-3.17689428719902E-06	1.39088091124181E-06	-4.97146745058425E-06	3.00989085014105E-06	-0.653189712452159	-0.744150159241525
4.4	-0.944067821802582	0.316193409450885	8.19968482064394E-07	2.63489139530113E-06	1.49970877402708E-06	-8.33440895515627E-06	-0.741243446589942	-0.656311298137184
4.5	-0.914094995478717	0.389359150821128	1.81457473821304E-06	-9.51413789966524E-07	7.61921023113392E-06	-3.09657712780175E-07	-0.818076509309575	-0.557958713095115
4.6	-0.879948894762783	0.458111519892849	-6.87367879497051E-07	6.11778724875503E-06	-1.23519256828415E-05	-6.38742217251077E-06	-0.881540023035174	-0.450464119120159
4.7	-0.841901156871042	0.524114111552221	1.21183934592582E-06	2.49630438623826E-06	1.42699173141784E-06	1.85254780223552E-06	-0.931248863101863	-0.335957585376427
4.8	-0.797681311117131	0.58877213202433	-5.10285159827368E-06	1.11157893254996E-05	5.26401406824695E-06	9.62978794575116E-06	-0.965629325740659	-0.215505929038402
4.9	-0.748193196019805	0.649187799207399	1.20788171702851E-06	2.91311270382626E-06	-5.1452070251176E-07	-6.88113602054097E-06	-0.983980899654913	-0.0912739659763634
5	-0.694413649067536	0.70390937722736	4.71186839664222E-06	-9.21015854877593E-07	-3.71382251722408E-06	2.42275587378755E-06	-0.985598562445394	0.0323757444695542
5.1	-0.63802552252363	0.75622231943252	4.11418220070757E-06	-1.49872553464769E-07	-2.66584785353673E-06	-9.76089181534777E-06	-0.974269212179012	0.155387522612732
5.2	-0.57654917542019	0.804783007453781	2.57822078147711E-06	-1.49309049734817E-05	1.37796536343845E-06	2.80680141493327E-06	-0.946665096028451	0.276808379667089
5.3	-0.511333669844368	0.848121400557825	-8.67533803834087E-06	-7.62578317668243E-07	-1.12984974169581E-06	1.60430074357889E-07	-0.904153098251835	0.393283263480806
5.4	-0.442781116671596	0.886257448592829	-7.1724349279771E-06	-1.10030525547282E-05	-1.36662870846444E-05	1.11714295702934E-05	-0.847620453944924	0.503021024760279
5.5	-0.371081057883494	0.917713574228131	1.89851547687965E-06	8.46928938561154E-08	-2.23358681888116E-06	1.78250584724089E-06	-0.779242712335545	0.605223004774541
5.6	-0.298396711019936	0.942936127281798	-2.38980773715607E-06	3.50536218243973E-06	-1.33297339383954E-06	1.28722564391374E-06	-0.69714258453236	0.698873386033785
5.7	-0.223754312486284	0.963596185589542	1.30233638645753E-06	1.22314993499654E-06	5.73507998932762E-06	-1.29477142038733E-07	-0.603684635244407	0.780488474293824
5.8	-0.14754709875022	0.97798746600221	2.69508656234582E-06	4.23451568024959E-06	-2.09601325086115E-06	4.22418942050278E-06	-0.500924798665796	0.849142962827858
5.9	-0.0704576909684616	0.987139488244066	-6.85628320712612E-06	-2.28728222248911E-06	-7.40500174346689E-08	6.26120698185751E-06	-0.391385016872051	0.904531900429109
6	0.00919586681381293	0.989937250085959	-1.78753228579731E-06	9.18471475860701E-08	-5.45362859928173E-06	-4.37135919257871E-06	-0.27515915980626	0.946320929171819
6.1	0.0872066977444032	0.983110439497905	1.19643503251606E-08	-9.8740032760272E-06	-9.88956629025949E-07	-3.1986605550062E-06	-0.155020946094143	0.971811979912823
6.2	0.163147402747737	0.971663807354978	-1.00713402743819E-06	3.09700607637301E-06	-1.73684402121909E-06	4.19426232026255E-06	-0.0328450232267384	0.982758005215518
6.3	0.238361575823879	0.955636796550928	-7.94024959082547E-07	2.81273069500006E-06	-2.91307794407503E-06	2.38535472225704E-06	0.0898944178534253	0.979183013405687
6.4	0.313533932173546	0.934481674144258	-5.92022916532273E-06	5.51902412099951E-06	-2.36746388623208E-06	-7.40384982463611E-07	0.212647163587291	0.96088176063364
6.5	0.387355859108361	0.905042815115022	1.38205840761777E-06	-5.23956571601098E-06	-1.44284227603253E-06	-2.35585392825322E-06	0.332458760180797	0.925070634326413
6.6	0.455347979599878	0.871610624887352	3.62383845385797E-06	2.08277495884312E-07	1.12122974762902E-05	-2.65576477880781E-06	0.444362030602422	0.876053797686534
6.7	0.522203832795478	0.833942757590528	-7.71632897133958E-07	8.39560518345639E-07	-3.749751887742E-06	5.18406481896148E-06	0.550038166114058	0.814152361105721
6.8	0.586356353629684	0.790933947810313	-1.75428601523504E-06	4.45049449327753E-06	1.44554409881535E-06	-8.73085700645875E-07	0.647245872172826	0.739416100513898
6.9	0.647244726463916	0.743008837202502	5.86980307027654E-06	2.25680715496716E-06	-9.34521859735827E-07	2.39525649828546E-06	0.734385048656581	0.653232532460352
7	0.704584126266224	0.689529032601325	1.15603468488144E-06	-4.12337726893895E-06	-1.43592072729161E-06	2.89514435624701E-06	0.810427800248874	0.556446368378066
7.1	0.756505450382745	0.631664870540147	2.42058367165469E-07	-7.13470266682558E-07	1.92279824149848E-06	9.15071444689423E-06	0.873110626939534	0.450883675722737
7.2	0.803758711363251	0.570047572166836	1.38942114419593E-06	-2.39371406233231E-06	-9.64416172834083E-07	-8.52350904324389E-06	0.922136772321413	0.338807913288414
7.3	0.845925900326847	0.504780085633637	4.76728451815085E-06	7.20957598705543E-06	-9.66986690649558E-06	2.26589568386208E-06	0.956479509278093	0.22149459809434
7.4	0.8831274597858	0.436967716908791	5.06357409686378E-06	-6.4052779446404E-07	1.99665248486398E-06	-9.55340761926954E-06	0.976308477740527	0.101589483167897
7.5	0.917178651342669	0.366630299731486	2.78920280291865E-06	-5.24683786598592E-06	2.16568200246551E-06	-7.21322715365236E-06	0.984101249719652	-0.0202569647897321
7.6	0.94527636161998	0.290848605848967	-2.51133641204748E-07	-5.62833487134651E-06	1.66933837426279E-05	4.04425774600466E-06	0.974922318123246	-0.145691236923645
7.7	0.966170276450965	0.21349289129089	3.51474072592576E-06	1.46863945656827E-07	3.53718308249512E-07	-2.91993942426638E-06	0.948977356225349	-0.267845739027625
7.8	0.980733039577051	0.135057714519333	-1.09644184985182E-05	-2.02769207536451E-06	-2.36672245925634E-07	3.43865478940132E-06	0.908150846761636	-0.385420613979434
7.9	0.989559520711845	0.0556520199442395	2.34243291367742E-06	2.05627015609945E-06	-6.91407086510548E-06	-4.78380959885703E-06	0.853689731638644	-0.497292056796304
8	0.991934362574857	-0.0267625441442995	2.342459498854E-06	2.97595518393918E-06	-9.32172674762081E-06	-7.67404613545665E-06	0.783680062853185	-0.604306110711009
8.1	0.984006877638288	-0.106542930570744	3.84006187478484E-06	-3.05348447009945E-06	2.16063105179832E-06	-3.17567805961053E-06	0.698575756671061	-0.696467879874244
8.2	0.971966293482717	-0.183798822900112	-4.03848115248858E-06	1.39471372143205E-06	-6.74790744479353E-06	3.26948016320016E-07	0.606051643882659	-0.777079602974963
8.3	0.954062424624632	-0.260675821528576	9.84869379297784E-06	3.50133346236214E-07	6.17781891993937E-06	1.0469316256737E-05	0.504331905052665	-0.846270037055578
8.4	0.930125690603433	-0.336249499396516	1.26676619107168E-06	2.56020370724375E-06	3.44328370030126E-06	1.84127047704785E-06	0.39511976183422	-0.902621044977676
8.5	0.900022016348426	-0.4102273135146	-4.87596723413508E-06	4.91985004653445E-06	2.87414020180891E-06	-2.99647180127224E-06	0.279401014980772	-0.946256044583126
8.6	0.864104288252926	-0.481280005255516	-4.51774114517188E-06	2.05564672805192E-06	-3.10085734397196E-06	8.10134350090428E-06	0.157387988803204	-0.974774860648718
8.7	0.822803156406522	-0.549688148705134	-1.03085066172555E-06	1.21111200048557E-06	-6.68428009164053E-07	3.46423884309095E-06	0.0328826665199848	-0.986753781557714
8.8	0.775848153585087	-0.614619556339979	-1.60540924381175E-06	3.0751125878173E-06	-6.02597699383232E-06	1.25212371652139E-06	-0.0915419340110428	-0.982896184933515
8.9	0.723720485911067	-0.675307287442306	3.18594101667512E-06	-1.81792672082323E-06	-3.16572155683889E-06	-4.72785918335576E-07	-0.214050467266954	-0.962437007402047
9	0.667463811208889	-0.731093941257489	-7.2871155638067E-06	1.30421573113317E-06	-3.97796014863831E-06	6.99599165418654E-07	-0.330626803866781	-0.929210514326654
9.1	0.606941192475644	-0.783236404488462	-3.33900631417973E-06	-1.91042743977026E-06	-1.0011847225032E-06	2.12658079851987E-06	-0.445896884477983	-0.883112005208104
9.2	0.541539686353146	-0.830126129357472	6.00639511485102E-06	-1.58754960348768E-06	1.91138535857489E-06	8.50769393338342E-06	-0.554694975450712	-0.821900762397764
9.3	0.472368055212363	-0.871353183188967	-3.50351119086854E-07	1.07001845026576E-06	1.35889571295568E-05	1.1989975322171E-05	-0.655223175233383	-0.74643226675992
9.4	0.40022728339404	-0.905962143665295	1.76515753438553E-06	-2.65330276876501E-06	4.28465782295087E-06	1.80863404068303E-06	-0.743886022974913	-0.658923256885214
9.5	0.325681100697829	-0.936781781596621	-6.49931727132318E-06	-4.99345253842548E-06	-1.89779601948378E-06	-5.76505880178507E-06	-0.824441128377253	-0.562609194687693
9.6	0.245054868897747	-0.959775951915192	-1.17705373413969E-05	-3.58058519971472E-07	-5.93828133180023E-06	-4.09366018461396E-06	-0.891881203654878	-0.451437174776429
9.7	0.164681439507991	-0.974909443847455	1.48275125019468E-06	-4.71189699920772E-07	-2.95212271759265E-06	1.63269228043291E-06	-0.941970930672612	-0.333484848835984
9.8	0.0838286375798411	-0.983822568910838	2.21426542114377E-06	1.42709038314505E-06	1.52485890079438E-05	-3.42799502938696E-06	-0.976218754685166	-0.211176825394164
9.9	0.00254852578260392	-0.98630125144648	-3.54626319429424E-06	9.0278643989203E-06	1.38473639966891E-05	5.11745607512862E-06	-0.994692381413637	-0.0857853546275238
10	-0.0790397906259654	-0.981670480978337	-3.68304211607407E-06	1.61236276773087E-06	1.950533537497E-05	-1.81964141341224E-05	-0.99757983955479	0.0395320465653564
10.1	-0.159054584447033	-0.969359231173613	-1.50678309574012E-06	2.31639715165538E-06	-8.47839927591159E-06	-4.40041872052826E-06	-0.986425949114781	0.165635426334725
10.2	-0.237437533611413	-0.951058348157485	-2.32852510685838E-06	-1.26517140380734E-06	-1.30923267624866E-05	7.24599186624991E-06	-0.958028960880682	0.290230140510115
10.3	-0.313318721216231	-0.925759273335413	5.81757983511138E-06	3.98969283264466E-06	-6.22370911341149E-06	1.37377774331908E-06	-0.913769444595524	0.409788296736714
10.4	-0.386491468528514	-0.894245892161311	2.1236944003914E-06	1.06213553350656E-06	7.24793265964011E-07	-8.31369795371232E-06	-0.853605260815105	0.522211769634661
10.5	-0.455653203376135	-0.855555241586795	4.40544480579731E-07	-3.08936181092929E-07	-6.64829120173468E-07	-5.68105304854089E-06	-0.779851659195088	0.623198063030424
10.6	-0.519263343248292	-0.812121379119672	5.12351567165395E-06	-2.62598948615013E-06	-9.82050308103438E-06	-7.93135471955804E-06	-0.697485743595831	0.715174372887073
10.7	-0.578852652197974	-0.764624425670765	-2.83328814063493E-06	-5.04999064104856E-07	-5.26215899250147E-06	-7.21487344894622E-06	-0.603826218192155	0.797922017405223
10.8	-0.6339933399056	-0.71356321697179	-3.64051024936122E-06	-3.46362496280721E-06	-1.20355643020802E-05	9.21248757154348E-06	-0.499132953878192	0.868825630571367
10.9	-0.684418268220978	-0.659266838642879	-1.14570429767796E-05	-1.04603606893294E-05	-4.48404569602666E-06	1.102298640193E-05	-0.385316186536938	0.924529019098635
11	-0.729354049051566	-0.605837690168366	1.01485754232238E-06	1.41825328411002E-06	8.71691673904575E-06	-5.5199811457153E-06	-0.268139448229344	0.964451230046635
11.1	-0.775007259896412	-0.549215337815819	-3.28397836943644E-07	-3.66207021457768E-06	1.02690369168516E-05	-1.02810926327142E-05	-0.145242949997479	0.993456707675306
11.2	-0.816228197607079	-0.488338749168245	-1.04554614573107E-06	-3.94603527324258E-06	2.17248665912815E-06	-6.36841623981143E-06	-0.0167110725397018	1.00470699437443
11.3	-0.853459669819957	-0.423948262181149	1.62108328998471E-06	-1.21533709850774E-05	3.59053159479323E-06	-2.85483692185408E-06	0.112175910982316	0.998432203186114
11.4	-0.885250274708621	-0.356914377670522	9.95682737235515E-07	1.54798939273474E-08	-5.71992402446474E-06	6.53797274455903E-06	0.239315100243578	0.97530864553922
11.5	-0.91376713022808	-0.287356336095314	6.60336799333538E-06	-1.28270831662043E-06	8.31551389929967E-06	-3.53375128280194E-07	0.360667622683445	0.935630157003336
11.6	-0.935753891990388	-0.213441884886615	-6.76546527442874E-07	-5.36829970508682E-06	1.43127574815754E-06	-3.11480078245906E-06	0.476465691457458	0.881590997130629
11.7	-0.950885628165102	-0.137704450571078	-1.33201091968451E-07	-6.09062638384643E-06	8.81996164226694E-07	-2.68307042374873E-06	0.584460764393744	0.812904130083782
11.8	-0.960299276621635	-0.0601650993050329	-1.08315296156663E-06	-7.39063082966581E-07	5.20680716104777E-06	1.05314588106719E-06	0.682532272241039	0.731019624008102
11.9	-0.963340839303843	0.0188006266597127	-3.26855825132722E-06	-5.22766546745627E-06	-5.47029358323114E-06	-8.03688825422907E-06	0.769030866395032	0.638093842232784
12	-0.960317484892065	0.098932650089598	-2.95862731779258E-06	1.67616152229367E-06	-1.69325463565046E-05	-8.71088668044685E-06	0.841412940160895	0.533638636844422
12.1	-0.950616867818602	0.177871589127941	8.20717182398073E-07	-1.58602536240216E-06	8.01131973875237E-06	1.23176813736535E-05	0.898112100892638	0.423474337305447
12.2	-0.933874399599005	0.25717032772594	-4.09559906406236E-06	5.62757995975217E-06	4.45343505252139E-07	3.33648079003157E-06	0.942895805401066	0.308000249063018
12.3	-0.910878323557355	0.335386979382727	7.95886245223454E-06	6.37050324018029E-06	5.23089912736628E-07	1.09814831029054E-05	0.973078724360794	0.186671501910313
