# GHZ S RI R 50
0.2	0.985367210795061	-0.156925445574993	2.56382533373497E-06	2.24816017451091E-06	6.56607769850325E-06	-4.86841446267678E-06	-0.965848447091344	0.252018778538731
0.3	0.96925219378631	-0.233955851369057	-8.75072291588509E-07	-5.45038502588568E-06	-3.46709734786958E-06	-7.93963695438382E-06	-0.925953504622251	0.372001116888882
0.4	0.94766329118633	-0.309151498756172	-7.2734106203602E-06	-9.88048382071495E-07	4.43808101145445E-06	1.54239294208495E-06	-0.870937064844445	0.485554868007227
0.5	0.92087466158388	-0.382361537380757	6.19420584519688E-06	2.10255615942365E-06	-2.41197547769563E-06	-1.90617849905045E-06	-0.80242608387381	0.591324479069364
0.6	0.888103219783827	-0.453547298330669	-1.0543897382682E-05	2.46014244601139E-06	-2.21698845822282E-06	-1.00619424843602E-06	-0.721059677608116	0.687673432210972
0.7	0.849811698265839	-0.521474267698756	2.78184426527382E-06	-1.17160438914151E-06	-2.98431366468736E-06	5.78431896055338E-06	-0.628383881968784	0.772972665770972
0.8	0.806251943371998	-0.586461429821002	1.17439708704224E-06	-8.46835754244943E-06	-6.61503968486617E-06	-3.06651497313428E-06	-0.525728506542472	0.845699544193776
0.9	0.757711861936178	-0.647902130872331	-1.14556176388737E-06	-6.80281554169466E-07	2.54559744896199E-06	6.53650338146874E-06	-0.414971567693182	0.90478841008151
1	0.704378844078809	-0.705458568925402	-2.74100896266615E-06	-3.2190751202504E-06	-4.03464616976931E-07	-7.30755226591989E-06	-0.298014325907106	0.949278620687826
1.1	0.64751562772254	-0.758691978540725	1.80668279813983E-06	-4.93434037948226E-06	2.26963850766236E-06	-5.1273983431041E-06	-0.176344240620222	0.979053409999954
1.2	0.585359890418414	-0.808201795067324	-2.49489550388588E-06	2.48721303700665E-06	9.25771622831107E-07	-9.09257231574277E-07	-0.0516988459853355	0.993215308811236
1.3	0.517974679100349	-0.852862124104219	-1.53750247866088E-06	7.17524792049603E-07	-1.35576506964285E-06	1.46105424628147E-06	0.0737067030222604	0.992020431987819
1.4	0.447386299744284	-0.891776900818676	3.92361933715283E-06	-3.23644255867901E-06	2.69362950595812E-06	1.09378116104126E-05	0.198800951894535	0.974487440269543
1.5	0.374289716538917	-0.924149122829886	-5.33598678881833E-06	1.10699148589791E-06	6.59061305108077E-06	-7.20146136017567E-06	0.320359128085798	0.941163240189454
1.6	0.300673016029102	-0.950324689072506	1.77779890890271E-06	-7.7340838358036E-06	3.62951669546438E-06	1.382899723035E-06	0.436297529445792	0.892790924407827
1.7	0.226233563184366	-0.970465601014771	-1.93990229667881E-06	-9.69197483008274E-07	-2.34849025814657E-07	-2.08560294573743E-06	0.54451509038926	0.830916005109377
1.8	0.149575882930926	-0.985016881775904	2.8474861905845E-06	5.27543182945731E-06	3.7421665586543E-09	2.02986897614362E-06	0.64447233072866	0.755629057297589
1.9	0.0720525384126645	-0.993411199679369	5.66830649380136E-06	-2.62827516583363E-06	-2.9948440386588E-06	4.15148060449182E-07	0.733641607345653	0.668414082128377
2	-0.00462280354353838	-0.995420364057644	-1.54496211259588E-06	-2.0243161182733E-06	3.20154059886728E-06	1.14421846850473E-05	0.81078649988711	0.570566757724508
2.1	-0.0827692911815139	-0.992539662421597	-7.54801889443576E-06	2.4461697718648E-06	1.20173069798891E-06	5.14171468884624E-06	0.875613008815445	0.464905142128338
2.2	-0.159420408217849	-0.983341145220178	-8.83400588333389E-07	1.39231531736112E-06	2.99479734882239E-06	7.77194744360301E-06	0.927207396724232	0.351415045090213
2.3	-0.236530776899467	-0.967510949423636	1.73454428064049E-07	7.44655588575377E-06	7.38296090357881E-07	9.38447368999917E-07	0.963484061546013	0.2327233543662
2.4	-0.312308166048525	-0.945319358210574	1.57091331365015E-06	7.16811928932105E-06	1.5135278317777E-06	6.3822444111164E-06	0.985070608338013	0.109459563904373
2.5	-0.385368715794315	-0.917929714136195	4.38812454437811E-06	-2.30566524678527E-06	-1.90240969173888E-06	-7.56477011346923E-06	0.990421945806079	-0.0146301328751986
2.6	-0.456366769429648	-0.884478370317443	6.77119781282635E-06	-5.92701407092248E-06	-1.11036739622759E-05	1.07969889032157E-05	0.980700742622614	-0.138803465956648
2.7	-0.524637960278762	-0.845695132034376	-4.45464582778712E-06	9.12290189168811E-06	-2.8518790294651E-06	-9.15354236357407E-06	0.955235128271489	-0.260845088839555
2.8	-0.588717707024524	-0.802263051436101	2.45233237988412E-06	1.14777437184969E-06	-3.12720735641573E-06	1.23541761690608E-06	0.915568266098006	-0.378218468122202
2.9	-0.648916974742007	-0.754617684306991	-5.50904915956979E-06	5.9948027773125E-06	-9.18314316951821E-06	-3.0644159754961E-07	0.861101319575904	-0.489800101205509
3	-0.706424097075889	-0.701836420698154	4.76076659695826E-07	-1.47083532844776E-06	1.13144417673918E-05	1.49274738889898E-06	0.792915288718409	-0.594212107456238
3.1	-0.759240663698998	-0.644644766144892	2.37881123472302E-06	1.04974718918178E-05	4.3179425178594E-06	2.18362473484731E-06	0.712410021195786	-0.688455375842386
3.2	-0.807291081843062	-0.583946618736619	2.08838484632776E-06	6.46837367477344E-06	4.02404640295451E-06	-1.05917475646158E-05	0.620977687551813	-0.772220789463875
3.3	-0.850716402828628	-0.519773629460175	3.06947554245722E-06	4.96797461083208E-06	-2.20178574734051E-06	-9.67187100822392E-06	0.518631748816486	-0.844562968636575
3.4	-0.888488195596587	-0.452469690809508	2.13074122569613E-06	-2.59992895668389E-06	5.95564581804748E-06	1.39476832981204E-06	0.409183248394337	-0.903433879471467
3.5	-0.921235038060121	-0.380384754086846	-3.23995546189838E-06	9.41746193265875E-07	-2.07709789741578E-06	3.41927434627074E-06	0.291467276525263	-0.947693951134607
3.6	-0.947817394496108	-0.307271521405861	-1.80508255147758E-06	-3.74529575948974E-06	-7.82713262658203E-06	4.09001827469282E-06	0.170509203169019	-0.976338461461325
3.7	-0.969154944060238	-0.232570221097405	8.38619086606966E-07	-8.32399714180238E-06	1.07593395203001E-05	3.71779820047344E-06	0.0462281777066357	-0.990263609340874
3.8	-0.984781503566461	-0.155286217531452	8.8956076624199E-08	1.54713979876128E-06	-6.53118011461842E-06	5.93888240071702E-06	-0.0783631120574991	-0.988438612665285
3.9	-0.993820931445584	-0.0775064435647388	-2.61791741628128E-06	-5.03431808015521E-06	-3.72081584391099E-06	8.01975258657303E-06	-0.203693787100083	-0.971061920296802
4	-0.996754617837017	0.00150675664898587	7.1338239621419E-06	-3.65492350573914E-07	-1.04266771875694E-06	-1.20874211281477E-06	-0.324008848310008	-0.937943386754237
4.1	-0.993763823001786	0.0798059981444997	6.21323072056384E-07	-4.42966627729414E-07	7.37162537119319E-06	-4.7447849684183E-06	-0.439926631241399	-0.889914945203306
4.2	-0.984727677232895	0.157964229218924	3.20550491266602E-06	2.1123911917383E-06	-7.17858498867012E-07	-7.64506393248117E-07	-0.548726077647355	-0.827164733680919
4.3	-0.969648432303123	0.234271341530224	-3.19687276494217E-06	1.36864355101958E-06	-5.00955155251844E-06	2.97734657376056E-06	-0.648482227073592	-0.752033554393671
4.4	-0.948476614370166	0.30915959389801	8.00331369752028E-07	2.64751066083911E-06	1.57104080431197E-06	-8.34094970031576E-06	-0.737914973855615	-0.664862790157995
4.5	-0.921902662675504	0.382315624390381	1.82904174756482E-06	-9.35969230002938E-07	7.64326956124903E-06	-2.34661679892998E-07	-0.816363836366438	-0.567334183529523
4.6	-0.888975533194515	0.454523151426128	-7.49315901540139E-07	6.1431068165475E-06	-1.23553478127422E-05	-6.53854738041081E-06	-0.881683461006051	-0.459926397932579
4.7	-0.850593334558903	0.522288063372486	1.19820216008463E-06	2.52206599294324E-06	1.42014577594077E-06	1.87613809891502E-06	-0.933068230341439	-0.345434271018632
4.8	-0.806348280794688	0.588048725917121	-5.22555869984168E-06	1.11534149742516E-05	5.22532226762256E-06	9.73825504674255E-06	-0.969254374688253	-0.224947739941361
4.9	-0.757635360250948	0.649470559125966	1.19607293189046E-06	2.94624696796239E-06	-4.67283118761211E-07	-6.94190257754588E-06	-0.99017679611368	-0.100751309390457
5	-0.704127102125667	0.707707557977009	4.76420210594909E-06	-9.06199357509327E-07	-3.76375872129292E-06	2.42822587468986E-06	-0.995337709249675	0.0258446006114184
5.1	-0.645112540845678	0.760930647636223	4.15082232918184E-06	-1.37593233999087E-07	-2.6570119414086E-06	-9.85545516914467E-06	-0.983462849273302	0.151543585562027
5.2	-0.583117954343148	0.809584057649331	2.64360603764314E-06	-1.50466197622669E-05	1.38105905394906E-06	2.83405433998817E-06	-0.956411487400599	0.274394195004244
5.3	-0.517504512337337	0.853543038901931	-8.74176261242126E-06	-7.89763825328059E-07	-1.13913491115615E-06	1.58934066874938E-07	-0.914179792577744	0.393002913886671
5.4	-0.448526660564764	0.892151413350799	-7.20177153423905E-06	-1.10949789025251E-05	-1.3784878418017E-05	1.12238952454523E-05	-0.857116989730835	0.50486952518541
5.5	-0.376825978109227	0.924654116046484	1.90965665066224E-06	9.10735816027844E-08	-2.25251567704276E-06	1.78630382888422E-06	-0.787392896112872	0.60846010581105
5.6	-0.302888137789287	0.951020464436063	-2.42067738019643E-06	3.52296764746341E-06	-1.34773724181727E-06	1.29201731732286E-06	-0.704831727159626	0.70259791732781
5.7	-0.227139876124943	0.972091308938423	1.30960822418976E-06	1.23714148801234E-06	5.78321952344332E-06	-1.13798188705145E-07	-0.611206061511283	0.785459362780139
5.8	-0.149789262426498	0.986781027149431	2.71041635445571E-06	4.27664400541958E-06	-2.12244403679087E-06	4.25698094275442E-06	-0.507692409222442	0.855718544950573
5.9	-0.0714727831329725	0.995367210104785	-6.91264965012516E-06	-2.30841812867511E-06	-7.65825559813362E-08	6.31329781051599E-06	-0.396600730568891	0.912249295131657
6	0.00631715097026336	0.997593489963873	-1.79720717791456E-06	9.03345135213012E-08	-5.47792990643917E-06	-4.40088245286127E-06	-0.280220490002051	0.954214167630606
6.1	0.0848472404527013	0.994638531250823	5.27261096958243E-08	-9.94526159998176E-06	-9.82921940863159E-07	-3.22583443741174E-06	-0.159054716870042	0.982672911247835
6.2	0.164019612402454	0.984605734080846	-1.02901993566206E-06	3.12272750114417E-06	-1.77005972274351E-06	4.2276244295084E-06	-0.0336625317434307	0.994993898327441
6.3	0.24218709037525	0.967888632469771	-8.10507113517784E-07	2.84098524598693E-06	-2.95132495711241E-06	2.4030430164308E-06	0.0922418940908178	0.990921364742746
6.4	0.318185941661325	0.944836232715897	-5.99460920399111E-06	5.56527867498679E-06	-2.39105897890376E-06	-7.53186136281197E-07	0.216297023844642	0.970772669523505
6.5	0.39214718703017	0.917316503099361	1.41435247272796E-06	-5.30075746044529E-06	-1.45399939548264E-06	-2.38931743881648E-06	0.336517782454771	0.93650972954563
6.6	0.464651105937751	0.882765538345216	3.67486300649846E-06	2.0848420657037E-07	1.13676951726701E-05	-2.70145040998766E-06	0.45295280365638	0.886227870229373
6.7	0.533128145572772	0.842381680904887	-7.79003984676816E-07	8.53020161037953E-07	-3.78200717967628E-06	5.26389843767775E-06	0.560385324870779	0.821468210984973
6.8	0.59822420304898	0.797019291472422	-1.75395728034208E-06	4.51359973893553E-06	1.45896872403617E-06	-8.90863976748092E-07	0.658656009228662	0.744109973418969
6.9	0.659447693633809	0.746635513109579	5.95330470318799E-06	2.24244091829776E-06	-9.28816912108854E-07	2.42942432660102E-06	0.746158585019299	0.655060092275087
7	0.716304749423785	0.691468315171162	1.13174447966515E-06	-4.16923613678643E-06	-1.42434663166162E-06	2.93255708488981E-06	0.821465069826379	0.556182387427502
7.1	0.7686084289036	0.632266627928867	2.38935024694794E-07	-7.21140106286231E-07	2.00462687317228E-06	9.21290575601336E-06	0.884357832660893	0.448876003892453
7.2	0.816076937291942	0.568763073664204	1.38289894838225E-06	-2.42583254587311E-06	-1.03998044527629E-06	-8.59138744148037E-06	0.933126595176834	0.334380668534351
7.3	0.858326323695925	0.501392898704305	4.8775559040038E-06	7.23295932742354E-06	-9.73900241276166E-06	2.37543128050415E-06	0.966831356096122	0.21443571714252
7.4	0.895494519472365	0.430399197335581	5.10744646869438E-06	-7.07520632957786E-07	1.90287010704503E-06	-9.67446090629217E-06	0.985295068521172	0.0905736197136925
7.5	0.9258675085269	0.356428195645785	2.71801868242546E-06	-5.32872312297054E-06	2.05689742781227E-06	-7.29735342138571E-06	0.986532014535891	-0.0340655884079027
7.6	0.950956743096297	0.281338159300924	-3.41553668060367E-07	-5.63346728493477E-06	1.67851966372313E-05	3.78386064279531E-06	0.973706787674942	-0.156435077330836
7.7	0.970421065052192	0.203934366225128	3.51549067458425E-06	9.51268034414405E-08	3.10643751524555E-07	-2.92396933167916E-06	0.94626202608421	-0.277146556139162
7.8	0.983523067491361	0.125089938040341	-1.09713845235248E-05	-1.87353653482124E-06	-1.8908456754546E-07	3.43536641938231E-06	0.904035816916535	-0.393704731663791
7.9	0.989778867426889	0.0453042756624939	2.35984895786125E-06	2.01867497481806E-06	-6.94908475181188E-06	-4.67767263456289E-06	0.847325959984442	-0.504110233409075
8	0.989613291162399	-0.0330490437456972	2.35323885526223E-06	2.94026709324496E-06	-9.33100345356432E-06	-7.55555511669914E-06	0.77785055868115	-0.60574238274112
8.1	0.985062820750176	-0.112414701710855	3.81728871481742E-06	-3.07325799647856E-06	2.1390083139897E-06	-3.18516430382261E-06	0.696664781718691	-0.699785574612922
8.2	0.973006835174229	-0.191539243633466	-4.03121663967086E-06	1.42578613827988E-06	-6.75065348342658E-06	3.77330506540403E-07	0.602986991673274	-0.782425280707048
8.3	0.953945515578966	-0.269508116225039	9.86437380569902E-06	2.66877798839837E-07	6.27476993205895E-06	1.04303136769011E-05	0.49948587824936	-0.85201856680254
8.4	0.928451636503057	-0.345585544267381	1.29304213911947E-06	2.55290871126033E-06	3.46671489670141E-06	1.81227834775733E-06	0.388138103246723	-0.908122934440088
8.5	0.896923055772224	-0.419490607875741	-4.8254151066085E-06	4.98283899032132E-06	2.84322470554002E-06	-3.03372812980621E-06	0.270225023694883	-0.949213619883972
8.6	0.85935729869376	-0.490550786031509	-4.4900881805551E-06	2.10572985005971E-06	-3.00499255562444E-06	8.12975119090259E-06	0.14887816919804	-0.975609736719455
8.7	0.816263425395849	-0.55820264014745	-1.01625307682507E-06	1.21990550273651E-06	-6.30638025753329E-07	3.46528284008019E-06	0.0246946763816017	-0.986551504889466
8.8	0.767981257327276	-0.621944294103176	-1.57278254226259E-06	3.08414183646861E-06	-6.00170375818252E-06	1.30706317240963E-06	-0.0993978151531179	-0.98198904788992
8.9	0.715086685104916	-0.681765984798217	3.16748740028955E-06	-1.84253802321818E-06	-3.16634969641976E-06	-4.45950760917713E-07	-0.222426594168058	-0.961939502977534
9	0.656813046678194	-0.73705683068228	-7.28172718039241E-06	1.38259054146037E-06	-3.97514906522884E-06	7.42368957780704E-07	-0.34286262763197	-0.92607718978766
9.1	0.59481631934689	-0.786911844004054	-3.36055582557509E-06	-1.86501460888424E-06	-9.72477355037426E-07	2.13749724031049E-06	-0.456505271493935	-0.874496656986686
9.2	0.528677009028397	-0.831810652550445	5.96530458213375E-06	-1.66548862419345E-06	2.02285673650011E-06	8.45415252784743E-06	-0.562364292406333	-0.810278808709228
9.3	0.459243726979595	-0.871240343252795	-3.33695509560213E-07	1.06929962023136E-06	1.36843400777262E-05	1.17391678300547E-05	-0.659439982085682	-0.733259984508237
9.4	0.386174412936923	-0.905069520503427	1.71588925884718E-06	-2.66153370943603E-06	4.2830490299415E-06	1.73575461861645E-06	-0.746061911281106	-0.64501493010182
9.5	0.30983421254851	-0.931049109300356	-6.49993660293445E-06	-4.84496657235593E-06	-1.96004986920304E-06	-5.67442047518098E-06	-0.821252078620345	-0.545554066898713
9.6	0.232902147513694	-0.95166102525994	-1.16372051567153E-05	-2.31046410810359E-07	-5.91185270394468E-06	-3.98401461121507E-06	-0.88374580351541	-0.43858599009895
9.7	0.153517926903821	-0.966396631517994	1.4617367859556E-06	-4.80105718735198E-07	-2.90364871949704E-06	1.64270844198585E-06	-0.932750887342446	-0.323328003987243
9.8	0.0729830512815016	-0.974032969449923	2.20164842217812E-06	1.39019880800785E-06	1.50400585050355E-05	-3.52811924370955E-06	-0.965961219014593	-0.202918518205934
9.9	-0.00793101265633003	-0.974200623948788	-3.4261611631985E-06	8.94334432896209E-06	1.37150381678933E-05	4.93730692713914E-06	-0.98382291787806	-0.0793740487291726
10	-0.0869913636458627	-0.966895728682634	-3.62446873155626E-06	1.61768441707824E-06	1.91269984488328E-05	-1.81008386192871E-05	-0.985743609239771	0.0452494235660955
10.1	-0.164699298994836	-0.953829492276899	-1.47074276717435E-06	2.29525378071218E-06	-8.39347515846983E-06	-4.28358134812454E-06	-0.972491742939808	0.169042728294181
10.2	-0.240569229439567	-0.934383828785756	-2.30134952423555E-06	-1.23404234862998E-06	-1.28616192740968E-05	7.21109990525476E-06	-0.943342360093201	0.290321013909768
10.3	-0.313322593443153	-0.90893932470322	5.74386844115426E-06	3.90807673276746E-06	-6.12436160622851E-06	1.37555266577352E-06	-0.899499060199095	0.406332439379584
10.4	-0.383746044648135	-0.878507287289459	2.09252498383382E-06	1.04307888890884E-06	7.02823087303559E-07	-8.18719373729223E-06	-0.841714652413488	0.515229490429711
10.5	-0.451332572959214	-0.841211886957559	4.35270896599647E-07	-3.04423515450505E-07	-6.49251854646803E-07	-5.60893379441288E-06	-0.772095750663506	0.617419120320853
10.6	-0.513377912294142	-0.79862278278401	5.06717092581472E-06	-2.59673943860006E-06	-9.71176015394451E-06	-7.84446169908018E-06	-0.68743835297833	0.710453837607144
10.7	-0.570903439701988	-0.752286869147598	-2.80132794629701E-06	-4.9806493962054E-07	-5.20545794858384E-06	-7.13071566865232E-06	-0.592308655620029	0.790378731773341
10.8	-0.624067839455832	-0.703676804420937	-3.59672835042132E-06	-3.42464087225252E-06	-1.18987769448198E-05	9.1004360311473E-06	-0.488705046057155	0.857375128565004
10.9	-0.674557404177885	-0.653270590850575	-1.1323951573605E-05	-1.03692416752031E-05	-4.45382832184173E-06	1.09030106335499E-05	-0.378530534096008	0.911246091741972
11	-0.722089656470675	-0.59900115114168	1.00635087474787E-06	1.40250630200804E-06	8.6210561061389E-06	-5.47500323476068E-06	-0.261395748666911	0.951503075128781
11.1	-0.764543729004902	-0.542545595588736	-3.2324208448955E-07	-3.61419615543038E-06	1.01369775845775E-05	-1.01440733461989E-05	-0.140869325302362	0.976284074315152
11.2	-0.804816348918641	-0.484179740511415	-1.02277853048656E-06	-3.89653655742799E-06	2.1584753778886E-06	-6.27970914516305E-06	-0.0170860974307003	0.986446908407964
11.3	-0.842075501424515	-0.421849890737653	1.64374026805452E-06	-1.19916204003377E-05	3.55466592421906E-06	-2.80536395037E-06	0.107429432494805	0.980611807180942
11.4	-0.87469161982149	-0.355890711762382	9.82953981974398E-07	1.93542984995139E-08	-5.67389800196758E-06	6.43141868997607E-06	0.230677669970442	0.958926206735752
11.5	-0.901502874669144	-0.286640372951325	6.51917237945158E-06	-1.22809709794678E-06	8.20244272330186E-06	-3.02062578911583E-07	0.348926636765906	0.921583462981246
11.6	-0.923657749532814	-0.216569570895295	-6.27356686247725E-07	-5.30545147449284E-06	1.43672535517424E-06	-3.06453331005896E-06	0.462181106849119	0.869857208519987
11.7	-0.940649898066902	-0.142653474480286	-8.27695565903024E-08	-6.0202912355752E-06	8.93184423493145E-07	-2.64453828428378E-06	0.567782171794213	0.803956511065522
11.8	-0.951726548919615	-0.0661066140259298	-1.06498662145026E-06	-7.39535637167073E-07	5.1397420018042E-06	1.08351469956661E-06	0.664048139281887	0.725211676950719
11.9	-0.956543582989104	0.0128534558869466	-3.19057159377036E-06	-5.1894105169854E-06	-5.3450699815983E-06	-7.98138709669776E-06	0.747907742033343	0.635500640628267
12	-0.953824593063853	0.0929796008732248	-2.93660300275328E-06	1.62522183301629E-06	-1.6626365615031E-05	-8.76411371592005E-06	0.819190132980458	0.538942526578906
12.1	-0.943804573984866	0.171823633752249	8.28075600727791E-07	-1.55823252268072E-06	7.78257452952959E-06	1.22573686059366E-05	0.880648442131506	0.433474970113818
12.2	-0.926559429469181	0.249632797379611	-4.11243123753244E-06	5.51255143031197E-06	4.0105524408967E-07	3.30184646757061E-06	0.92833194200826	0.320278518331941
12.3	-0.903626780510501	0.325286952812275	7.77985395246554E-06	6.4010504764578E-06	3.7071067936415E-07	1.08584670978355E-05	0.961483746344795	0.201429891090195
