# GHZ S RI R 50
0.2	0.985694264818192	-0.156851743900492	2.56416286916129E-06	2.24969101360795E-06	6.5698354564027E-06	-4.86842994561567E-06	-0.966292420840333	0.251663056223992
0.3	0.969623811272291	-0.233924400947916	-8.73986666323161E-07	-5.45346538816189E-06	-3.4666554690299E-06	-7.94474379556099E-06	-0.926638780390018	0.37169432613932
0.4	0.948097251001988	-0.309251401677371	-7.27839885009889E-06	-9.90217985987587E-07	4.44093549588564E-06	1.54438682367224E-06	-0.871847394910812	0.48545604155699
0.5	0.921017753359024	-0.38268820411052	6.19864628828056E-06	2.103221989723E-06	-2.41383701180393E-06	-1.90717237358279E-06	-0.803211931714829	0.591610774145586
0.6	0.888056487609161	-0.453483905456342	-1.05488993208465E-05	2.46104272786856E-06	-2.21800362153684E-06	-1.00671914478066E-06	-0.721722136061389	0.687896526215618
0.7	0.849985000069421	-0.521240342079146	2.78363201407058E-06	-1.17196749840123E-06	-2.98677038251486E-06	5.787391109441E-06	-0.629061979828992	0.773322423477575
0.8	0.806660420225754	-0.586249258472707	1.17612616779184E-06	-8.4744374151243E-06	-6.61956837434022E-06	-3.06943920939111E-06	-0.526308673671081	0.846192328310537
0.9	0.758366694955508	-0.64791505286748	-1.1465945507145E-06	-6.80916541843728E-07	2.54782215271372E-06	6.54248630868138E-06	-0.415409124738957	0.905381667730605
1	0.705005675969844	-0.705998942102472	-2.74483633139031E-06	-3.22172940379873E-06	-4.0595672640595E-07	-7.31521999680823E-06	-0.298272870640781	0.949971544121732
1.1	0.647658599818262	-0.759521310798344	1.80524883344917E-06	-4.94013085443439E-06	2.26851754523925E-06	-5.13366451592422E-06	-0.176315473083218	0.979766998652516
1.2	0.585034860527838	-0.809007456873067	-2.49441687796835E-06	2.4911488116138E-06	9.25606142188645E-07	-9.10708202146462E-07	-0.0513316255431869	0.993820956282206
1.3	0.517195294196257	-0.853396960667828	-1.5371839042601E-06	7.19317249706353E-07	-1.35462538339679E-06	1.46286396702298E-06	0.0743840768685331	0.992261745629477
1.4	0.446427785364919	-0.891698513225357	3.92009158605489E-06	-3.23916925565407E-06	2.70245795010795E-06	1.09333876756207E-05	0.199401153516446	0.974310920258875
1.5	0.373611573937313	-0.923563342204931	-5.33338738618429E-06	1.10882225387272E-06	6.5849180723324E-06	-7.20139589502234E-06	0.320834890679558	0.940949267060657
1.6	0.300296678980413	-0.949457786029526	1.77691985663704E-06	-7.73172512856978E-06	3.6284324769348E-06	1.38231466755526E-06	0.436687665476912	0.892555568402254
1.7	0.226284194541685	-0.969567028949903	-1.93952868436459E-06	-9.69449465801968E-07	-2.34447638318266E-07	-2.08543231587747E-06	0.544907377095888	0.830749191222463
1.8	0.149956668491525	-0.984318027122864	2.8460593687454E-06	5.27695563159458E-06	3.07235959458762E-09	2.03009477603462E-06	0.644889213250322	0.755491837396451
1.9	0.0726733702796302	-0.993159606050219	5.67233615039839E-06	-2.626623448183E-06	-2.99647551350255E-06	4.13814029349025E-07	0.734088306135578	0.668486037004608
2	-0.00450536678189469	-0.995912457919368	-1.54652814806169E-06	-2.02676566349677E-06	3.20409926935525E-06	1.1455506453679E-05	0.812014139494069	0.570755210462235
2.1	-0.0833504719183412	-0.992565169769317	-7.55300889022619E-06	2.45105677342639E-06	1.204693550678E-06	5.14529601465316E-06	0.876971055541731	0.464274623017526
2.2	-0.159911706356319	-0.982974456532363	-8.83581114893455E-07	1.39351031895181E-06	2.99910472773691E-06	7.77627332350116E-06	0.928404583900658	0.350504881236071
2.3	-0.236806142840295	-0.967023726397695	1.75314545784079E-07	7.45207376764728E-06	7.39065266946619E-07	9.38976249888833E-07	0.964591893309977	0.231593933569863
2.4	-0.312342981595674	-0.94495585005843	1.57367275344306E-06	7.17446901514822E-06	1.5160910533432E-06	6.387877075705E-06	0.98608619812546	0.108212690035143
2.5	-0.385463990458935	-0.917947178185205	4.39305364832888E-06	-2.30992054442667E-06	-1.90709377337972E-06	-7.57388383452572E-06	0.991623901016375	-0.0159800312819834
2.6	-0.456881708684301	-0.884577146497648	6.77711287279052E-06	-5.94057045362024E-06	-1.11126187039023E-05	1.0820821448694E-05	0.982038019659299	-0.140653299910085
2.7	-0.525496904416971	-0.845574904794809	-4.45057133257065E-06	9.14094781968881E-06	-2.86637222145815E-06	-9.16329826815877E-06	0.956376783935425	-0.263282291926869
2.8	-0.589809963214034	-0.801779173046748	2.456950834925E-06	1.14551940203551E-06	-3.12910936337044E-06	1.24151000222574E-06	0.9162011987424	-0.381088159658347
2.9	-0.650182413070662	-0.753659468591176	-5.50324523744599E-06	6.0100976750834E-06	-9.19196630638627E-06	-2.90224491811121E-07	0.86105692930343	-0.492742697120606
3	-0.707564627870558	-0.700267174444667	4.73190341102298E-07	-1.4721740710169E-06	1.13203079479057E-05	1.47000423731418E-06	0.792444332000346	-0.596839679053859
3.1	-0.760212682688536	-0.642669684693509	2.39658829425819E-06	1.04909795986367E-05	4.32078690317315E-06	2.17560653786561E-06	0.711737233998912	-0.69095310100172
3.2	-0.807912201820423	-0.581543754069921	2.09737601405333E-06	6.46253118826949E-06	4.00626016408333E-06	-1.05935166716615E-05	0.620045456305573	-0.774574107934401
3.3	-0.850841160586348	-0.517097547559389	3.07445555797326E-06	4.96089119322591E-06	-2.21368379148929E-06	-9.66322481405454E-06	0.517417305818575	-0.846688635018139
3.4	-0.887942948187135	-0.449770882207013	2.12626921051353E-06	-2.60007353150004E-06	5.95229488960047E-06	1.38734807752752E-06	0.407815575650561	-0.90503901205698
3.5	-0.920373387938948	-0.378275038365897	-3.23808843724516E-06	9.43067769010918E-07	-2.07440713375316E-06	3.41893335057301E-06	0.290789411478553	-0.94920513152869
3.6	-0.947059156072105	-0.305004623193572	-1.80848369834983E-06	-3.74291202107293E-06	-7.82183779190867E-06	4.09707494240085E-06	0.169376283219883	-0.97842746242614
3.7	-0.967892823339846	-0.230303713865532	8.29200663819331E-07	-8.32127869695834E-06	1.07586901280709E-05	3.70447550907048E-06	0.0445470735095081	-0.992045578586132
3.8	-0.983141450756677	-0.153395376700849	9.04244824617366E-08	1.5461029804553E-06	-6.52132673312193E-06	5.94166779811622E-06	-0.0802976760848363	-0.989646062181184
3.9	-0.992159868113269	-0.076095049251729	-2.62054183592426E-06	-5.02866661929701E-06	-3.71134599008419E-06	8.01761385790397E-06	-0.205442123025722	-0.971488526034568
4	-0.995377169904738	0.00277965687144658	7.12792749837599E-06	-3.71744503268421E-07	-1.04296248561496E-06	-1.20684432463053E-06	-0.324891778729076	-0.938023595964161
4.1	-0.992373794275157	0.0811992541733993	6.20406125305229E-07	-4.42959353850315E-07	7.36109867400011E-06	-4.74520124152307E-06	-0.440272627168615	-0.890382494786514
4.2	-0.983230875428174	0.159294577245898	3.20357141188329E-06	2.10893361231697E-06	-7.1756391077283E-07	-7.6346507798645E-07	-0.549001561702517	-0.827982224947802
4.3	-0.96814074221298	0.235450616848865	-3.1940074679169E-06	1.36877060583208E-06	-5.00476360416687E-06	2.97692694492362E-06	-0.648897771772516	-0.753013620857151
4.4	-0.947162664758041	0.310233036738309	8.01171248152285E-07	2.64619753202981E-06	1.56689452510774E-06	-8.33856449338756E-06	-0.738619639254475	-0.665638334035416
4.5	-0.920600039025702	0.383596660262283	1.82745525367616E-06	-9.38014839091432E-07	7.64119173830361E-06	-2.44069683162512E-07	-0.81670767359526	-0.567392234022499
4.6	-0.887651976250636	0.455723145498864	-7.39566800760832E-07	6.1379017819199E-06	-1.2352234677924E-05	-6.51377910281466E-06	-0.88120372465809	-0.460221575846071
4.7	-0.849261855036405	0.523555866960299	1.19958383153891E-06	2.5170107494146E-06	1.42042110134999E-06	1.87173035765075E-06	-0.932336352234955	-0.346193147938416
4.8	-0.804879703180102	0.589391070381669	-5.20555691802108E-06	1.11405080116874E-05	5.22675471017959E-06	9.71694387328933E-06	-0.968514568722024	-0.226025025800817
4.9	-0.755797294772491	0.65084460849311	1.19653543882142E-06	2.93948112071422E-06	-4.72879042493397E-07	-6.92815938438496E-06	-0.989324067152683	-0.101838535683373
5	-0.701877520014013	0.708521611987521	4.7523118520466E-06	-9.05600392217551E-07	-3.75378859819248E-06	2.4235888623738E-06	-0.993766617805312	0.0239141600938978
5.1	-0.642932202877377	0.761517258688952	4.14233557526458E-06	-1.36294020615374E-07	-2.64914368701853E-06	-9.83587557515972E-06	-0.982924019882699	0.148578756405475
5.2	-0.580665888940955	0.80977525911631	2.64442840423962E-06	-1.50179776584104E-05	1.37745200731113E-06	2.829368773869E-06	-0.956731181756264	0.271579503653978
5.3	-0.515092451375154	0.853102709278393	-8.72694605583467E-06	-7.93253193695578E-07	-1.1373476167984E-06	1.58048518085191E-07	-0.914943282789919	0.390560037809672
5.4	-0.446575384004242	0.891220699393878	-7.18495914437782E-06	-1.10856201886859E-05	-1.37748005594759E-05	1.12000809109702E-05	-0.85792198084234	0.502945318066155
5.5	-0.375438123832262	0.923854033179304	1.90810119047988E-06	9.15133155815451E-08	-2.25118942273216E-06	1.78426690838062E-06	-0.787626544141077	0.606533581644005
5.6	-0.301355002320437	0.950497743751011	-2.41770426125083E-06	3.51916022278855E-06	-1.34612800626617E-06	1.29065263963994E-06	-0.705270933580725	0.700055157436554
5.7	-0.225290234251077	0.971286109736064	1.30796299976184E-06	1.23555920250235E-06	5.77589099312363E-06	-1.13719579150642E-07	-0.612182512117628	0.782936180271652
5.8	-0.147884880098276	0.985349669879412	2.70662379562972E-06	4.27127611639181E-06	-2.11996972995852E-06	4.25132368134113E-06	-0.509036978208886	0.853517572823833
5.9	-0.0699922612547487	0.993195724863592	-6.90364818443493E-06	-2.30769292945846E-06	-7.8364447986655E-08	6.3056798862134E-06	-0.398122375962914	0.910682215476431
6	0.00727880503079843	0.995064598943852	-1.7965891899651E-06	9.02861420694128E-08	-5.47600134140346E-06	-4.39941966397533E-06	-0.280737298806557	0.953434863541772
6.1	0.0849588509370555	0.991413509957394	4.10083804308329E-08	-9.93700242708931E-06	-9.85885984946633E-07	-3.22198168577092E-06	-0.158701236601704	0.980690622973615
6.2	0.162795833684265	0.981406709419941	-1.02318900149925E-06	3.11832387287192E-06	-1.76147694249428E-06	4.22213959709232E-06	-0.0339719908712934	0.991990970927758
6.3	0.239897851246336	0.965509927897518	-8.06477037504577E-07	2.8346721995984E-06	-2.94241231602155E-06	2.39934703903194E-06	0.090790084303888	0.987820442204334
6.4	0.315658913191562	0.943794516388417	-5.98047801445832E-06	5.55326186312028E-06	-2.38571611522544E-06	-7.51243551769538E-07	0.214291857678463	0.968483008372511
6.5	0.390266800278109	0.916881792478036	1.41021077365992E-06	-5.28923189958562E-06	-1.4512138161428E-06	-2.38372947130368E-06	0.334782446182039	0.933976999778698
6.6	0.462864249994729	0.882803130660527	3.66600924592005E-06	2.10033037527666E-07	1.13421690384934E-05	-2.68870260703768E-06	0.449960373213317	0.883943474631694
6.7	0.531743692403388	0.842756946412245	-7.7835257692132E-07	8.50548590634445E-07	-3.77999680779896E-06	5.24969882658297E-06	0.557051699857857	0.820213965218047
6.8	0.597063245997064	0.797492384730661	-1.75672687965883E-06	4.50393544222203E-06	1.45767584628279E-06	-8.87558857582804E-07	0.65538942411292	0.743730043759878
6.9	0.658316636886634	0.747203529498808	5.94078497495962E-06	2.24828454679868E-06	-9.31180751652231E-07	2.42429396211031E-06	0.743260822818907	0.655523250213676
7	0.715141737614087	0.692320697777782	1.13892812452435E-06	-4.16300369412849E-06	-1.42879839465148E-06	2.92692757975831E-06	0.819351307681334	0.557023307441343
7.1	0.76765145531976	0.633465161555273	2.40059059389773E-07	-7.20250089843686E-07	1.98699614456831E-06	9.21050155052883E-06	0.882492770370431	0.449813956650924
7.2	0.815410770380459	0.570096756307992	1.38661530192142E-06	-2.42179217518895E-06	-1.02326833399003E-06	-8.58819831198538E-06	0.931603477173597	0.335719099173042
7.3	0.857839533606863	0.502755299094753	4.86012148811283E-06	7.23950751470483E-06	-9.73911415389396E-06	2.35403145412646E-06	0.965831127633273	0.216118415357241
7.4	0.894986021592068	0.431938296350574	5.1065930102109E-06	-6.94512369139462E-07	1.92585582281365E-06	-9.66481368713875E-06	0.984882525748426	0.0926780310512627
7.5	0.925901646367135	0.358545207926301	2.73738324268214E-06	-5.32071121722281E-06	2.082953396864E-06	-7.29219721219764E-06	0.98772200980958	-0.0316989176203966
7.6	0.951628154108713	0.283019999007616	-3.25360886318807E-07	-5.64400624674792E-06	1.68023044423532E-05	3.84022383899419E-06	0.975815563597605	-0.155540162145295
7.7	0.971155755573288	0.205275112893034	3.52292497280063E-06	1.02866540260894E-07	3.17584221781096E-07	-2.92965661282741E-06	0.948210299458675	-0.277320095930192
7.8	0.984146410701883	0.126377761551717	-1.09918380177597E-05	-1.89335487764541E-06	-1.94450789435859E-07	3.44234564036804E-06	0.905447807590887	-0.394283410341679
7.9	0.990594241492546	0.0468492945748131	2.36190305004212E-06	2.0252503489227E-06	-6.9566269889609E-06	-4.69465502532373E-06	0.848532479127098	-0.504444040603574
8	0.991269009197025	-0.0322388194123433	2.35642538972804E-06	2.94771648350412E-06	-9.34599957968557E-06	-7.57658728115578E-06	0.779340432756272	-0.606359861322416
8.1	0.985927287473182	-0.112225851555184	3.8216736095593E-06	-3.07567647030698E-06	2.1417239137792E-06	-3.1879919670617E-06	0.697924107186041	-0.699960020688757
8.2	0.973514379339317	-0.191305961221041	-4.03406346044354E-06	1.42414985361543E-06	-6.75424921495702E-06	3.73585100625097E-07	0.604892708139148	-0.782444691534761
8.3	0.954247785090021	-0.269219277363367	9.86797681718673E-06	2.76147928602452E-07	6.26752775363955E-06	1.0440216104564E-05	0.501932883306745	-0.852348330240601
8.4	0.928660540348328	-0.345186369332389	1.29089948053555E-06	2.55524810596964E-06	3.46619033633805E-06	1.81658298352792E-06	0.390801703441821	-0.908862170136749
8.5	0.897153284281135	-0.419074343068013	-4.83251830718055E-06	4.97773775339879E-06	2.84753195882542E-06	-3.03074037999825E-06	0.273092798561224	-0.950045007475089
8.6	0.859600520579799	-0.490150694676612	-4.49474657292522E-06	2.09948063495347E-06	-3.01845770844758E-06	8.12768859261308E-06	0.152447063505995	-0.976738492733715
8.7	0.816537808815814	-0.557912281223934	-1.01882633161422E-06	1.21887530686903E-06	-6.36731993744273E-07	3.46610282272313E-06	0.0287819738991264	-0.988669790214878
8.8	0.768195802557889	-0.621830555057391	-1.57913208487963E-06	3.08394493245799E-06	-6.00856966562788E-06	1.29812491280343E-06	-0.0954086649253918	-0.98533344667751
8.9	0.71509715927213	-0.681758857601598	3.17306547866079E-06	-1.83938506140839E-06	-3.16847309058085E-06	-4.51123113766003E-07	-0.219140774729466	-0.966083506450924
9	0.656792043156094	-0.737004893796786	-7.28909066143692E-06	1.36996003101902E-06	-3.97914579099911E-06	7.35465708587428E-07	-0.339554832021824	-0.930636276665759
9.1	0.594671881815044	-0.787017367496243	-3.36053086881413E-06	-1.87527933951054E-06	-9.78730449724205E-07	2.137981252459E-06	-0.453895048540646	-0.880455094939269
9.2	0.528450126068394	-0.831865845647002	5.98074560823849E-06	-1.65499738531256E-06	2.0073316222349E-06	8.47525893744441E-06	-0.561243054132632	-0.816709142993283
9.3	0.459022801971748	-0.871239449680666	-3.36582048476749E-07	1.07119958239869E-06	1.36940563328401E-05	1.17939345980485E-05	-0.65965717761546	-0.73919053293125
9.4	0.386210909002743	-0.904758421313134	1.7241201663635E-06	-2.66505839055535E-06	4.29034291055944E-06	1.7465964391587E-06	-0.746862363504649	-0.649688575840543
9.5	0.310804021301479	-0.931554001821539	-6.50788619785064E-06	-4.86803849551001E-06	-1.95530208503835E-06	-5.69185669420599E-06	-0.821362568323093	-0.549387769100166
9.6	0.233019729958832	-0.952910438944523	-1.16653596545081E-05	-2.4719277924323E-07	-5.92097845010849E-06	-4.00167472989323E-06	-0.883023821165095	-0.442645566907069
9.7	0.15326879260594	-0.967450609357259	1.46593232964173E-06	-4.7916366322154E-07	-2.91297001529679E-06	1.64249051581978E-06	-0.932058425419689	-0.328297279591094
9.8	0.0727896422064815	-0.974977920408856	2.20536388308856E-06	1.39732693592327E-06	1.50856660419966E-05	-3.51417726534212E-06	-0.966145488513473	-0.20852419561101
9.9	-0.0078161758536623	-0.975385787977462	-3.45091053009888E-06	8.96821301186361E-06	1.37536457785579E-05	4.97419994382848E-06	-0.98553836385925	-0.0847902438998173
10	-0.0871054656880536	-0.968956315869535	-3.64017305480203E-06	1.6218981566435E-06	1.92160242500402E-05	-1.81617694701536E-05	-0.988275014595954	0.0412761922936027
10.1	-0.165553096812046	-0.95622417487326	-1.47603074681237E-06	2.30464177479084E-06	-8.42755992747418E-06	-4.29859878784766E-06	-0.974619989761462	0.165924955697218
10.2	-0.242195837081947	-0.936964001944421	-2.31091690112563E-06	-1.23670315349641E-06	-1.29033310962069E-05	7.24857496279047E-06	-0.945352943939126	0.287534666656058
10.3	-0.315760576924266	-0.911362226322702	5.76797178066723E-06	3.91337261132939E-06	-6.1427375960754E-06	1.38818114362072E-06	-0.901523133233774	0.40404726316724
10.4	-0.386601055373779	-0.880653029021917	2.09994830730794E-06	1.0423916727175E-06	6.90977825916003E-07	-8.2105643723915E-06	-0.843284594651206	0.514036245735107
10.5	-0.454707502052343	-0.843717623868541	4.3542443278075E-07	-3.05665201674471E-07	-6.60091027149334E-07	-5.61664096249781E-06	-0.771163267488279	0.616134280779684
10.6	-0.518090016264718	-0.800913024262309	5.06962015469612E-06	-2.60334743274399E-06	-9.72718145980387E-06	-7.84349128352202E-06	-0.686188301991452	0.706863652832005
10.7	-0.576584795499966	-0.753780765257521	-2.80420029971559E-06	-4.97876685169253E-07	-5.21229617899733E-06	-7.13646155085597E-06	-0.59187894046315	0.785928530349103
10.8	-0.630463241050853	-0.703931873085202	-3.6008674769213E-06	-3.42842483792547E-06	-1.19120019964429E-05	9.11098293467921E-06	-0.489079934033248	0.852722539613324
10.9	-0.680934742111701	-0.651911695894256	-1.13403582919572E-05	-1.03787047315688E-05	-4.45627996758638E-06	1.09173305022097E-05	-0.379224686607204	0.907211040208186
11	-0.727409834578855	-0.597159443108657	1.00765421894437E-06	1.40337738853905E-06	8.62663755433931E-06	-5.48241033777092E-06	-0.261015658984575	0.94767063460246
11.1	-0.770333891189833	-0.54043372484212	-3.24987362530499E-07	-3.61648112177511E-06	1.01394792323023E-05	-1.01551579881898E-05	-0.139970157891839	0.970915474199543
11.2	-0.810538484784261	-0.480935691656778	-1.02454571303269E-06	-3.89732824835317E-06	2.15677493112844E-06	-6.28241031024429E-06	-0.0172290962588551	0.979751337035646
11.3	-0.847103870586368	-0.417604123871829	1.64274997421837E-06	-1.19917316749301E-05	3.55442790186513E-06	-2.8056509075753E-06	0.105531055839443	0.973603609541392
11.4	-0.878489559642406	-0.351369940843258	9.82670240752756E-07	1.98629266225702E-08	-5.67568176457601E-06	6.42666135714851E-06	0.227199859807024	0.952617763097416
11.5	-0.905244239191174	-0.282949396087159	6.52273408219362E-06	-1.22007435792783E-06	8.20532309258242E-06	-2.91590761685899E-07	0.34501256842395	0.916386611043716
11.6	-0.927614831704989	-0.211883703812245	-6.21953090569298E-07	-5.3108476434484E-06	1.44143752032444E-06	-3.06562973856061E-06	0.457810153186767	0.865254352168653
11.7	-0.943423158903936	-0.13734799253843	-7.66667460564004E-08	-6.02693322363218E-06	8.968775975018E-07	-2.64649971330824E-06	0.562915269273518	0.800594429205912
11.8	-0.952997656686655	-0.0610164728292788	-1.06575245347862E-06	-7.41568008463727E-07	5.14580080704167E-06	1.08989501639453E-06	0.659509086204289	0.723711219694579
11.9	-0.956004300767903	0.0165190906049084	-3.19349945506532E-06	-5.20169383715023E-06	-5.35043553446063E-06	-8.00056220150006E-06	0.745960259925546	0.636170009659416
12	-0.953293367303328	0.0940845468576264	-2.94169994560849E-06	1.63082582589733E-06	-1.66682579400669E-05	-8.77078144496492E-06	0.821630705409332	0.537923083765699
12.1	-0.944992426712278	0.171369795152241	8.26992400198326E-07	-1.56167776450255E-06	7.8116252767534E-06	1.2263621392298E-05	0.883645861374473	0.428401875369235
12.2	-0.929364812288496	0.24916907668351	-4.10545668020104E-06	5.52589914793561E-06	4.07951562916209E-07	3.3041891748573E-06	0.92999804984592	0.312699114039025
12.3	-0.907636714936872	0.325373291080932	7.79775235024393E-06	6.38504191570929E-06	3.96425384164823E-07	1.08615280158045E-05	0.961042609613588	0.192524772161097
