# GHZ S RI R 50
0.2	0.985278473256775	-0.15713030341945	2.56402629956168E-06	2.24749359395141E-06	6.56461767224082E-06	-4.86922295449367E-06	-0.965652925966489	0.252107799433936
0.3	0.969059090210059	-0.234287458175187	-8.76524906685704E-07	-5.44946562386419E-06	-3.46894431412816E-06	-7.93767014887465E-06	-0.925672301985585	0.372056748725375
0.4	0.947282680909339	-0.309581115738764	-7.27232524272134E-06	-9.85093280050927E-07	4.43777483138689E-06	1.54040122992421E-06	-0.870574099127511	0.485517934608366
0.5	0.92022078965876	-0.38275291497764	6.19320169237131E-06	2.0995245005802E-06	-2.41200806296382E-06	-1.90467792028434E-06	-0.802113350454148	0.591142715201728
0.6	0.887261650039867	-0.453756890368399	-1.05393006593524E-05	2.46373340831103E-06	-2.21666096952834E-06	-1.00492413102718E-06	-0.72076452944531	0.68752143447066
0.7	0.848904202536929	-0.521470540514695	2.78024278741225E-06	-1.17231034787869E-06	-2.98068743617822E-06	5.78327355652246E-06	-0.628034795694885	0.772757220563564
0.8	0.805377944363708	-0.586270341850695	1.17041939701641E-06	-8.4652332501523E-06	-6.61348169354675E-06	-3.06249252052395E-06	-0.525355765432356	0.845393724670732
0.9	0.756986468082083	-0.647634481233246	-1.14538826344975E-06	-6.79526195437845E-07	2.54732726147455E-06	6.5328076532268E-06	-0.414575580577025	0.904383379511012
1	0.70365319484235	-0.705432185124866	-2.7419389867272E-06	-3.21624162149185E-06	-4.07715169043813E-07	-7.304622737721E-06	-0.297570918225716	0.948743312864162
1.1	0.64638076359026	-0.758644636308919	1.80144667137505E-06	-4.93287420908565E-06	2.26396034269067E-06	-5.12620422858361E-06	-0.175825223302917	0.97832090529108
1.2	0.58391524025898	-0.80789537742688	-2.49011467306698E-06	2.48736143330885E-06	9.24011116690282E-07	-9.0932502195291E-07	-0.0510897641823297	0.992198685237655
1.3	0.51622673364551	-0.852139625659476	-1.53466547965963E-06	7.18305445470927E-07	-1.35233231103407E-06	1.46064869416868E-06	0.0743927883289376	0.990673859657982
1.4	0.445480545751065	-0.890527474335441	3.91337703537743E-06	-3.23560996897062E-06	2.70179883347207E-06	1.0916569457922E-05	0.199407186880869	0.972858991365866
1.5	0.372297131962445	-0.922229200519289	-5.32468887652492E-06	1.1103619753887E-06	6.57066866212849E-06	-7.19451426332194E-06	0.320612600211491	0.939534388874709
1.6	0.299282956211931	-0.947701568299441	1.76948170688911E-06	-7.71994245442926E-06	3.62322165786837E-06	1.37791500520912E-06	0.436290514495999	0.891338203717981
1.7	0.225541467599488	-0.967731342961913	-1.93666140759764E-06	-9.66858790340221E-07	-2.35040880847594E-07	-2.08173966209499E-06	0.544258113940353	0.829633046945592
1.8	0.149411815911121	-0.982391269514707	2.84325183365786E-06	5.26643200255693E-06	3.92172647289014E-09	2.02650596624998E-06	0.644029851904446	0.754509287957076
1.9	0.072251232076458	-0.990990916244261	5.65955841496765E-06	-2.62404249021359E-06	-2.99019706888552E-06	4.14425722054014E-07	0.733017602288973	0.667372318462756
2	-0.00422858137091258	-0.993168181878634	-1.54215194178157E-06	-2.02158266328469E-06	3.1940793077588E-06	1.14254841148203E-05	0.809811900559324	0.569811308636244
2.1	-0.0822261355973273	-0.990305749927083	-7.53831686656905E-06	2.44041959303378E-06	1.19845790239481E-06	5.13496050508381E-06	0.874792686737849	0.464473072958536
2.2	-0.158530343304338	-0.981083596639092	-8.82758422931978E-07	1.3899997959839E-06	2.9873301507256E-06	7.76237867833801E-06	0.926405893432908	0.351002565845831
2.3	-0.235194298228647	-0.965409370242319	1.68670099747751E-07	7.43646938554083E-06	7.36712531734534E-07	9.376136850707E-07	0.962589567170339	0.232382551960272
2.4	-0.310550712325811	-0.943596804579975	1.56287096935425E-06	7.16032483284988E-06	1.50622111147285E-06	6.37540132764527E-06	0.984053966480932	0.10932078213261
2.5	-0.383489376456022	-0.916793952659653	4.3862703526434E-06	-2.29880962747231E-06	-1.89261051991696E-06	-7.55939698718748E-06	0.989509441625196	-0.0143601208875409
2.6	-0.454656628327127	-0.883698369537437	6.77263759460895E-06	-5.91632381574402E-06	-1.11071118256151E-05	1.07787451497625E-05	0.980160100034785	-0.138356674146006
2.7	-0.523064032432258	-0.845117984525123	-4.46094133180937E-06	9.11472034923263E-06	-2.84225257324145E-06	-9.15200188598856E-06	0.955077891572876	-0.260353388738579
2.8	-0.58726023432833	-0.80187910109984	2.45062121875747E-06	1.14942137993609E-06	-3.12723533228297E-06	1.2324684144927E-06	0.91572903977216	-0.377858016672495
2.9	-0.647707357251415	-0.754513587051189	-5.51260634198729E-06	5.98917055647355E-06	-9.18093846351776E-06	-3.1362882370203E-07	0.861365734573864	-0.48954562578216
3	-0.705821544020656	-0.701614299535834	4.76989675416586E-07	-1.47032994345953E-06	1.13119914715378E-05	1.50005098010761E-06	0.793307235488627	-0.593817411525785
3.1	-0.758529809423042	-0.643987301080865	2.37082821116414E-06	1.04956251085599E-05	4.31501554469968E-06	2.18586097222936E-06	0.713155202317592	-0.688088807857487
3.2	-0.806378139343073	-0.583254339939097	2.08204119102213E-06	6.46776464250832E-06	4.03166477382178E-06	-1.05843441627452E-05	0.621912647385344	-0.77205539664377
3.3	-0.849638969041791	-0.519164530288104	3.06346624324721E-06	4.96937373461081E-06	-2.19135864711364E-06	-9.67081577032822E-06	0.519680946065907	-0.844621806150864
3.4	-0.887302041692974	-0.451987715311744	2.13275296813125E-06	-2.59693865510546E-06	5.95237530924382E-06	1.40045273721127E-06	0.410168835712516	-0.903751513034186
3.5	-0.919824966980713	-0.38001117578481	-3.23931333350585E-06	9.37619421406671E-07	-2.07984347381443E-06	3.41515300615332E-06	0.292375433333553	-0.947872914494857
3.6	-0.946312581037197	-0.307278512604952	-1.79929159398364E-06	-3.74625577467132E-06	-7.8295693386291E-06	4.07778998030782E-06	0.171756845139127	-0.976873520298542
3.7	-0.967657175708363	-0.23285908546729	8.49219634092886E-07	-8.32000701589528E-06	1.07507356355421E-05	3.73058482049923E-06	0.0472157340939984	-0.991211062801449
3.8	-0.983368911640512	-0.155926424484386	8.69125033949461E-08	1.54662694618234E-06	-6.53623371539056E-06	5.92799633566443E-06	-0.0777441962407163	-0.989433677339952
3.9	-0.992755199549327	-0.07847713888571	-2.60966545489007E-06	-5.0355233781789E-06	-3.73015393992234E-06	8.01071775797754E-06	-0.203209698682709	-0.971710714307363
4	-0.996230011453913	0.000614479348203947	7.13178265265168E-06	-3.53707859757879E-07	-1.04030829049236E-06	-1.20999775613842E-06	-0.322798907332561	-0.938401917872091
4.1	-0.993368652562449	0.0791557149643743	6.21995910757126E-07	-4.41879972153194E-07	7.37875451917185E-06	-4.73194797932454E-06	-0.438328591529094	-0.891206740673228
4.2	-0.98439779454198	0.157330848990985	3.20220107327621E-06	2.11787643099132E-06	-7.16632885009761E-07	-7.65754494657097E-07	-0.547344543447686	-0.82908943833912
4.3	-0.969430901546655	0.233509791974413	-3.19973180770185E-06	1.36349281032038E-06	-5.01543490675685E-06	2.96941921580618E-06	-0.647457202154406	-0.754330706218054
4.4	-0.948632020204289	0.308026025887061	7.95630453977956E-07	2.64959218537042E-06	1.58678642173351E-06	-8.33995814598996E-06	-0.73726627560939	-0.667281084004872
4.5	-0.923121666339369	0.38134138350418	1.83213563229547E-06	-9.32739562679289E-07	7.64853156452806E-06	-2.18869653829279E-07	-0.815834920064954	-0.5696619614253
4.6	-0.890356108976583	0.454287541324056	-7.61200180498602E-07	6.14663991831048E-06	-1.23532105114253E-05	-6.56647091688048E-06	-0.881025862943794	-0.462545150592483
4.7	-0.851990115965534	0.522311349328967	1.19438989298121E-06	2.52624255413242E-06	1.4177145080168E-06	1.88023657617541E-06	-0.932652896860132	-0.348544620395521
4.8	-0.807845614072316	0.588255968883844	-5.25233637364976E-06	1.11525939898423E-05	5.21037942140207E-06	9.75708441336613E-06	-0.969369464448662	-0.228463363714009
4.9	-0.759332338488525	0.649954384455341	1.19144914292723E-06	2.95199540839934E-06	-4.53736638450045E-07	-6.95068091619504E-06	-0.991107394297562	-0.104424548744463
5	-0.705579357385955	0.708839663427803	4.77150467087041E-06	-8.99375778627015E-07	-3.77237646688298E-06	2.42491799174972E-06	-0.996800875393542	0.0225558457146369
5.1	-0.646143658060218	0.761908028139794	4.15551392894432E-06	-1.30228628514827E-07	-2.64202000134588E-06	-9.87081186262701E-06	-0.985459867256734	0.148001104096417
5.2	-0.584174586286608	0.810489442173505	2.67561133299615E-06	-1.50610210375605E-05	1.37745653102252E-06	2.8403374023841E-06	-0.959449668698326	0.271242618373254
5.3	-0.51865313455784	0.854455065030165	-8.75307991996615E-06	-8.07610998661892E-07	-1.14110954620477E-06	1.56992566307495E-07	-0.917838053834931	0.390724562364329
5.4	-0.449963439501253	0.893101359951744	-7.19102872337113E-06	-1.11269472351291E-05	-1.38291428455518E-05	1.12141555768124E-05	-0.860865752951708	0.503547376684146
5.5	-0.378682654363972	0.926185079037849	1.91307404198225E-06	9.56892578989358E-08	-2.26095216381375E-06	1.78445844859919E-06	-0.790692853228861	0.60755494352402
5.6	-0.304416697235923	0.95316561021201	-2.43423648506259E-06	3.52626978347661E-06	-1.35382909992083E-06	1.29222700700878E-06	-0.708453944167573	0.701651418854078
5.7	-0.228292213288494	0.974397641244388	1.31063081323788E-06	1.24295279392537E-06	5.79863885153535E-06	-1.02790470642473E-07	-0.61528622984509	0.785167878816445
5.8	-0.150645284799243	0.989040444463705	2.71059373681569E-06	4.2930878116512E-06	-2.13558109818441E-06	4.26511127794405E-06	-0.511882874086672	0.856367804069034
5.9	-0.0722902540990035	0.997210210738881	-6.92751985810891E-06	-2.32399333926953E-06	-8.55000304707954E-08	6.32968407827721E-06	-0.400514312120068	0.913837650787117
6	0.00458239336804939	0.999535038181115	-1.80154258941857E-06	8.73852295775312E-08	-5.48292425364908E-06	-4.4207392439624E-06	-0.283639584931484	0.956744922670465
6.1	0.0832557834442417	0.997505334850486	6.93165613853676E-08	-9.97417427009422E-06	-9.8045669303001E-07	-3.23686527736906E-06	-0.161309549702116	0.985756427447335
6.2	0.16286218387807	0.987845318684831	-1.03591247269853E-06	3.13091249785041E-06	-1.78052956037703E-06	4.23824865557965E-06	-0.0350586032532375	0.998005034177368
6.3	0.241494307481458	0.971376717331178	-8.15543910837006E-07	2.84905560126507E-06	-2.96259696309182E-06	2.40785269543261E-06	0.0913801209338671	0.993816526829945
6.4	0.317775165718744	0.948610286341921	-6.01856815622084E-06	5.57876038908861E-06	-2.39828172262154E-06	-7.57524460335154E-07	0.215734028902927	0.973724387626779
6.5	0.39275177931637	0.922119634654048	1.42261850818297E-06	-5.32209954187452E-06	-1.45894715583599E-06	-2.39988459667776E-06	0.336893328683317	0.93993733404398
6.6	0.466747380093718	0.887075559986391	3.69029154882351E-06	2.07391889224363E-07	1.14136353119869E-05	-2.71877741454999E-06	0.454146583562188	0.888962519975632
6.7	0.535890757903395	0.846147904658605	-7.81338274111755E-07	8.57065644840891E-07	-3.79236400148567E-06	5.28797139998063E-06	0.561908301493316	0.823956541175246
6.8	0.601515475703486	0.800210084815012	-1.75562753860066E-06	4.53268143465756E-06	1.46352462932744E-06	-8.95860698992414E-07	0.660684300936586	0.746335202080902
6.9	0.662973430983896	0.749143831809325	5.97734015827339E-06	2.24202963576655E-06	-9.28697278869834E-07	2.43925181876643E-06	0.748635274686824	0.656868224353577
7	0.719828114422659	0.693640621768614	1.1301588811733E-06	-4.18278580172474E-06	-1.42507273009436E-06	2.94282643985776E-06	0.824365493876645	0.557594173702945
7.1	0.772504221105286	0.634097897581936	2.39073704147145E-07	-7.2369135563059E-07	2.01926686817478E-06	9.24103401103332E-06	0.887667203938892	0.449608300829075
7.2	0.820273944613829	0.569988347896939	1.38504574129449E-06	-2.43574440268579E-06	-1.05294869583345E-06	-8.62001903225863E-06	0.93662709345134	0.334423526466115
7.3	0.862738027254338	0.501871629194697	4.90559502021338E-06	7.25278929981924E-06	-9.77154629372433E-06	2.39775176522445E-06	0.970513830803683	0.213675526390192
7.4	0.899921169259298	0.42983430859852	5.1260944242601E-06	-7.21075960342658E-07	1.88998149586939E-06	-9.71661933196564E-06	0.988878248512365	0.0885964831338436
7.5	0.92942345166786	0.355172684054437	2.71104402984843E-06	-5.35309741875458E-06	2.04218379158484E-06	-7.32591975027452E-06	0.98899469610934	-0.0366058482635522
7.6	0.954421810620357	0.280001292029841	-3.56479607261783E-07	-5.64919569692058E-06	1.68439255592151E-05	3.75351314663684E-06	0.976220630956484	-0.159194376098115
7.7	0.973665219447405	0.2020871213244	3.52626032294895E-06	8.60360589872259E-08	3.03775188183355E-07	-2.93354430232921E-06	0.948311049142833	-0.28065509248332
7.8	0.98628167071075	0.122883279709403	-1.1006353133528E-05	-1.84889541390182E-06	-1.80285863888578E-07	3.44523796761473E-06	0.905312014282418	-0.397560454233244
7.9	0.991648056104395	0.0431358426794903	2.36938592316658E-06	2.01713613339035E-06	-6.97416261274574E-06	-4.67059303393237E-06	0.847598627356955	-0.50749254383537
8	0.99173215075342	-0.0343245976570659	2.36139005730232E-06	2.9442993310132E-06	-9.35913593635142E-06	-7.56256446355873E-06	0.778885758417265	-0.608153898742301
8.1	0.987676794643833	-0.114621856040391	3.82550496265808E-06	-3.08781868188737E-06	2.14176448683334E-06	-3.19796006014452E-06	0.698025505526673	-0.70328721188172
8.2	0.975038970969727	-0.194536550261317	-4.04170042596749E-06	1.43774825773437E-06	-6.77186808743348E-06	3.90840196607212E-07	0.603601123458338	-0.786483486051585
8.3	0.955243317180852	-0.272920612668087	9.89615512287611E-06	2.46020029837161E-07	6.3175594760697E-06	1.04494929811053E-05	0.499296415290957	-0.856250909912419
8.4	0.929025980317888	-0.349187759750769	1.30403749373647E-06	2.55750673147761E-06	3.48259872126934E-06	1.80865643498671E-06	0.386918189071581	-0.912295685003358
8.5	0.896926453892163	-0.42323331760919	-4.82053217386478E-06	5.01269657292344E-06	2.84000545892317E-06	-3.05157515680061E-06	0.268190692777959	-0.952399573522657
8.6	0.858632540838089	-0.494482969556547	-4.49195131254838E-06	2.12503054408952E-06	-2.98363144697636E-06	8.15605935254634E-06	0.147042006028362	-0.978321356428701
8.7	0.81480280155255	-0.562112027590085	-1.01417853753935E-06	1.22556146559579E-06	-6.20456858856712E-07	3.47394019281277E-06	0.022749646579999	-0.989279843594663
8.8	0.765859033741126	-0.625764135244304	-1.56586945787169E-06	3.09541429114723E-06	-6.00940954113074E-06	1.32922285881476E-06	-0.101773713617866	-0.984906982923388
8.9	0.712306529795134	-0.685542834504138	3.16913168186712E-06	-1.85755832667322E-06	-3.17558322557619E-06	-4.36538525829953E-07	-0.225904261945649	-0.965014706758099
9	0.653027241825117	-0.740556943466737	-7.29574793716555E-06	1.4172865410382E-06	-3.98285574219878E-06	7.61275896035809E-07	-0.347687860310319	-0.927671027621417
9.1	0.590358123652346	-0.789681711462352	-3.37648762265641E-06	-1.85341150533624E-06	-9.64635495773524E-07	2.14663642658192E-06	-0.460974427195142	-0.874837307918826
9.2	0.523717420780835	-0.833786720449554	5.96716799613674E-06	-1.69767255356838E-06	2.06789902951815E-06	8.45845533153382E-06	-0.566663668435634	-0.809543313305235
9.3	0.454015687774283	-0.872377732025699	-3.28567727070791E-07	1.07208848805495E-06	1.37582073945887E-05	1.16811106469545E-05	-0.66310133187322	-0.73134620228044
9.4	0.380594465274291	-0.905445548731516	1.70168931051266E-06	-2.67129914140642E-06	4.29318536299688E-06	1.7127372484837E-06	-0.74890421179975	-0.641806821122038
9.5	0.304636213656037	-0.929928644405072	-6.51380141732922E-06	-4.80696630913094E-06	-1.98437215114691E-06	-5.65693595593986E-06	-0.82136713611494	-0.541195208004925
9.6	0.228378585120213	-0.950674640029298	-1.16231284727249E-05	-1.87255223323618E-07	-5.91915329965838E-06	-3.95680399299633E-06	-0.882166941183632	-0.435839863760697
9.7	0.148698418645003	-0.965152481183918	1.45817230743557E-06	-4.84882000388009E-07	-2.89403785625419E-06	1.65134712126899E-06	-0.930815165179376	-0.321557062377539
9.8	0.068050801263262	-0.972133617216093	2.20359701436789E-06	1.38031561302787E-06	1.50063636845064E-05	-3.57748052803186E-06	-0.963949210676747	-0.201834264104876
9.9	-0.012681078843674	-0.971481125994677	-3.39035148579589E-06	8.94226423906325E-06	1.37122881888464E-05	4.88284833536949E-06	-0.982200291549462	-0.0785336815492395
10	-0.0910845421167618	-0.963822331582307	-3.61452155615226E-06	1.62900899360694E-06	1.90398176451064E-05	-1.81498344832633E-05	-0.983884179766397	0.0467365290801868
10.1	-0.168763490535118	-0.950555367266802	-1.45904747884287E-06	2.29757846130408E-06	-8.39751803879829E-06	-4.24256096474276E-06	-0.969563754720632	0.170170546864871
10.2	-0.244348715744675	-0.930552080622992	-2.30109219082933E-06	-1.22235569441875E-06	-1.28051954536955E-05	7.24535122422462E-06	-0.939983376720923	0.290553596812076
10.3	-0.316577851399763	-0.904700073014153	5.74191552741665E-06	3.87752908412788E-06	-6.10300664751743E-06	1.39312648286868E-06	-0.896181503201022	0.405660681776814
10.4	-0.386385742867725	-0.87415163306721	2.0888953980321E-06	1.03404037218782E-06	6.77978942374018E-07	-8.1636441758312E-06	-0.838939061824379	0.514069548040399
10.5	-0.453734338656201	-0.837083119267547	4.33367891819885E-07	-3.04486684651876E-07	-6.59453662566819E-07	-5.59145233486425E-06	-0.768877741961358	0.616936305163336
10.6	-0.515920871159012	-0.794254003740532	5.04622294431773E-06	-2.59980786881511E-06	-9.69927334958867E-06	-7.79975223848308E-06	-0.682863153971242	0.708690478481812
10.7	-0.573187552736611	-0.747416517760649	-2.79282428480747E-06	-4.90944484778931E-07	-5.20169910508077E-06	-7.09650679511779E-06	-0.587578550375693	0.786966925270359
10.8	-0.625874110745016	-0.698619709382215	-3.58930248742176E-06	-3.4065567371768E-06	-1.18413989216875E-05	9.08684072535372E-06	-0.484453493094666	0.852433319148924
10.9	-0.676273659064409	-0.648097332014097	-1.1303018797782E-05	-1.03178984284871E-05	-4.42244189098845E-06	1.0874309543708E-05	-0.375407505763186	0.905936562105777
11	-0.723330670264417	-0.592735956302192	1.00579111158052E-06	1.39447717903829E-06	8.57344243545906E-06	-5.47438351212834E-06	-0.257342376948889	0.945792159833928
11.1	-0.764480433997326	-0.536594560352121	-3.27535059528173E-07	-3.59576809248774E-06	1.00702268636363E-05	-1.01103615101955E-05	-0.137542402999201	0.968051721792149
11.2	-0.804299768294331	-0.478536308927924	-1.02149188656527E-06	-3.87587438737051E-06	2.14135510281E-06	-6.25019078803016E-06	-0.0157774836015949	0.97698138582304
11.3	-0.841060817511229	-0.416358941153853	1.62902011621771E-06	-1.19324231262981E-05	3.53533779665967E-06	-2.79322921852562E-06	0.106519507544909	0.970937432180624
11.4	-0.872944495915502	-0.350563372240665	9.77815487579791E-07	1.9156690563176E-08	-5.64359545219508E-06	6.39834177410138E-06	0.227689539860105	0.949731915522281
11.5	-0.898672529447912	-0.282246047662784	6.48554591800536E-06	-1.21501417177754E-06	8.15889108388384E-06	-2.92247896533545E-07	0.34457571595531	0.91334261751773
11.6	-0.921119341735475	-0.213094947022399	-6.16711675198644E-07	-5.28222499284612E-06	1.43468558464397E-06	-3.04847574723971E-06	0.456550355545723	0.862334906762301
11.7	-0.937871778127346	-0.139375547134848	-7.3350729816346E-08	-5.99466170373608E-06	8.93345355761268E-07	-2.63188036709205E-06	0.560812471794697	0.797746598368473
11.8	-0.948380783494033	-0.0633338246946578	-1.05945759237902E-06	-7.38082827474981E-07	5.11681626045022E-06	1.08679788769411E-06	0.656282864985783	0.72081346713287
11.9	-0.95239730895866	0.0146203317723288	-3.16995667913689E-06	-5.17168823018561E-06	-5.31150246820361E-06	-7.95472514333299E-06	0.740306093884618	0.633313471973566
12	-0.949527898135168	0.0932448397787632	-2.92624948727645E-06	1.61380378136461E-06	-1.6541107112642E-05	-8.75067551386404E-06	0.813654766604131	0.538697900546581
12.1	-0.940168109651708	0.170835995532738	8.26188314239023E-07	-1.55032159598616E-06	7.73364768712756E-06	1.22117143364539E-05	0.876686837403339	0.431833410688562
12.2	-0.923615743681116	0.247834370022678	-4.09852318835797E-06	5.48039321119929E-06	3.95187403198834E-07	3.28595032452909E-06	0.923770268358307	0.317884141391198
12.3	-0.901416068062378	0.322657647683644	7.72767241612512E-06	6.3792189889422E-06	3.5115449743328E-07	1.08006865075227E-05	0.956050661715852	0.199361734270464
