# GHZ S RI R 50
0.2	0.987243669610395	-0.156416707080877	2.56550334181723E-06	2.25458982020711E-06	6.58199243854578E-06	-4.86908945809769E-06	-0.96751916642912	0.251016913659959
0.3	0.971466829762396	-0.233615303353842	-8.69844197461544E-07	-5.46296933716904E-06	-3.46408710106327E-06	-7.96081105309309E-06	-0.928430733239636	0.371069278379446
0.4	0.950328721619672	-0.309140897014211	-7.29253257383444E-06	-1.00063641807077E-06	4.44848173941654E-06	1.55271600384655E-06	-0.8743725644311	0.485197746682895
0.5	0.923505972289325	-0.383349950930048	6.21407029535579E-06	2.11261763144261E-06	-2.41918810120746E-06	-1.91376111200505E-06	-0.805981894317406	0.592597767051282
0.6	0.890091054954879	-0.454363850822556	-1.05741909840518E-05	2.46251046801876E-06	-2.22271401195047E-06	-1.00992313975378E-06	-0.723893439279015	0.689089350541543
0.7	0.85212306288798	-0.52219808308105	2.79125469585068E-06	-1.17315750872965E-06	-2.99774062916296E-06	5.79989741621187E-06	-0.631432246231273	0.774780800490036
0.8	0.808889767346851	-0.587551560332541	1.18445780845295E-06	-8.49745740563807E-06	-6.6362707496424E-06	-3.08196702921295E-06	-0.528694977687555	0.848264014598719
0.9	0.760475239905737	-0.649662016182501	-1.14981019238269E-06	-6.83498057178787E-07	2.55278881537047E-06	6.56362163576431E-06	-0.417565941079467	0.908079599816227
1	0.706789842522352	-0.707849935025578	-2.75259135819649E-06	-3.23270208183245E-06	-4.05143873227512E-07	-7.33846471728785E-06	-0.300065605336488	0.953269973773993
1.1	0.649616361736297	-0.761555274924313	1.81251445412164E-06	-4.95643990719189E-06	2.27739718415305E-06	-5.15052094717911E-06	-0.17744707652551	0.98357889792016
1.2	0.586818441769674	-0.811458850318536	-2.50329806392877E-06	2.50009713474694E-06	9.28901910434441E-07	-9.13979725318766E-07	-0.0516731912001511	0.997919683928245
1.3	0.518560481244081	-0.856123187356934	-1.54239738880885E-06	7.22608460510384E-07	-1.35884295808416E-06	1.46875213833488E-06	0.0750818114322019	0.996429522235696
1.4	0.447215762171322	-0.894269655903815	3.93019983323054E-06	-3.25356620588063E-06	2.72149090238758E-06	1.09673820816217E-05	0.201105745101273	0.978208186108306
1.5	0.375077178964719	-0.925886644734399	-5.34942723854752E-06	1.11680153812717E-06	6.59985315973567E-06	-7.22980033887205E-06	0.323603784615764	0.944618127014039
1.6	0.301524884357672	-0.953302868673236	1.77551700668729E-06	-7.76119108057231E-06	3.64281135338049E-06	1.38361980440069E-06	0.440060598729295	0.895299688887227
1.7	0.22648309612241	-0.973805390436629	-1.94802293466045E-06	-9.70544342055398E-07	-2.38032763088555E-07	-2.09290592427437E-06	0.548457737805653	0.833045218411845
1.8	0.149412561213542	-0.988524663985233	2.8643111248829E-06	5.29249124239652E-06	6.02610423057615E-09	2.03765391082187E-06	0.648570028094147	0.757353113529852
1.9	0.0719105265783549	-0.9972241224552	5.69132736454663E-06	-2.64275963481934E-06	-3.00754567351416E-06	4.18597486560896E-07	0.73754606791918	0.670431879284157
2	-0.00550471569135357	-1.0011479999659	-1.55772584573204E-06	-2.03631494973867E-06	3.23614869241511E-06	1.1516233114103E-05	0.817453582161132	0.573665016526796
2.1	-0.0863698478121016	-0.997732163859509	-7.58521219943136E-06	2.48912481060145E-06	1.22814450828002E-06	5.16877207171517E-06	0.883750502710577	0.464056985525143
2.2	-0.163742982183109	-0.987392840906558	-8.82571792772729E-07	1.40295998479035E-06	3.04049326057012E-06	7.80059032723896E-06	0.934125935640731	0.348668058158903
2.3	-0.241324807794582	-0.970944479863542	2.03170938270037E-07	7.48305621559144E-06	7.45617463821619E-07	9.40271565304901E-07	0.96948954581808	0.228952319011655
2.4	-0.31763625279157	-0.948272903666328	1.60732431021942E-06	7.19874887069402E-06	1.54653713261619E-06	6.40906192912845E-06	0.990315029668547	0.105014229742918
2.5	-0.39138910060854	-0.920362893470968	4.40201160293144E-06	-2.33803108624913E-06	-1.94677244512998E-06	-7.59798817216876E-06	0.995478334596736	-0.0198121733499351
2.6	-0.463183826850421	-0.886168229352954	6.77827958841877E-06	-5.99474068341214E-06	-1.11097427202327E-05	1.0914029711622E-05	0.985075296954337	-0.145142790376054
2.7	-0.532209561164042	-0.846353035557905	-4.42536523182782E-06	9.20064101031925E-06	-2.92237002039039E-06	-9.18796904109917E-06	0.958860722465426	-0.268302648288259
2.8	-0.59705100643064	-0.801620676891318	2.47360809234892E-06	1.13709303814537E-06	-3.1357043661669E-06	1.2637334300764E-06	0.917819231495226	-0.38687977451421
2.9	-0.658066033252951	-0.751874539850004	-5.48906924166542E-06	6.07028251407941E-06	-9.23305594782842E-06	-2.33825319496294E-07	0.861419677651681	-0.498976632190629
3	-0.714013460034726	-0.695968429677051	4.63666541732427E-07	-1.4805386643194E-06	1.13683225920895E-05	1.38969008005041E-06	0.791649160797372	-0.603193164123206
3.1	-0.765371717529809	-0.638948360648046	2.47834451605966E-06	1.04975804728123E-05	4.34649767303191E-06	2.1491769585642E-06	0.709400400340438	-0.697565161920798
3.2	-0.813115066240628	-0.577387515112253	2.14882468540346E-06	6.45926353249487E-06	3.93592021545594E-06	-1.0642882795942E-05	0.615966304237981	-0.78061973534477
3.3	-0.855672633149553	-0.511989672891484	3.11588999487869E-06	4.94310883165536E-06	-2.29005191575364E-06	-9.65742599813132E-06	0.511604608319524	-0.851640331179764
3.4	-0.891598016030553	-0.443571373828713	2.1060974155581E-06	-2.61534455849275E-06	5.96105746652512E-06	1.34215172512309E-06	0.400467478793132	-0.907648411144936
3.5	-0.922199552683892	-0.373061894875985	-3.23113959882312E-06	9.59559710821436E-07	-2.05511879470269E-06	3.42777918592824E-06	0.285421317493229	-0.949233696244152
3.6	-0.950100687888484	-0.300005873724803	-1.83272315487515E-06	-3.73626229275997E-06	-7.80605190700265E-06	4.1480783259615E-06	0.163814594203059	-0.979972211286285
3.7	-0.970608228867977	-0.224003310935557	7.72203234467133E-07	-8.33099134130829E-06	1.07894044403474E-05	3.63204604509789E-06	0.0374812132591715	-0.99228565061804
3.8	-0.984892277678088	-0.146241410991249	1.01285650613245E-07	1.54506647862731E-06	-6.47781061956471E-06	5.98604103818822E-06	-0.0876224521006639	-0.987962653451586
3.9	-0.992708160957276	-0.0682940214763833	-2.65344962155223E-06	-5.00786820628716E-06	-3.65437555613608E-06	8.03842890638295E-06	-0.212046100233414	-0.968128801220999
4	-0.994215020343613	0.0107788323829629	7.12263296752008E-06	-4.2503388080774E-07	-1.05164012777758E-06	-1.19860313104478E-06	-0.330805008407386	-0.934355105793396
4.1	-0.989964397488621	0.0886264552712919	6.15838484670513E-07	-4.47287210188545E-07	7.31103990122507E-06	-4.79735644094013E-06	-0.446476719452619	-0.88529061822436
4.2	-0.979877766803917	0.166181270098728	3.21206045590997E-06	2.07868761945653E-06	-7.21736960272117E-07	-7.55966250731706E-07	-0.554206673220984	-0.821326041550601
4.3	-0.964162792018316	0.241652009135095	-3.17412868163436E-06	1.38753082554873E-06	-4.96761049059456E-06	3.00371675707925E-06	-0.652722710033747	-0.745339177686285
4.4	-0.943339524843307	0.316293064035946	8.15209475442561E-07	2.63350553906963E-06	1.51070150196314E-06	-8.32389576763954E-06	-0.741076983747414	-0.657502354939453
4.5	-0.91495918814855	0.39144780272816	1.8180127446123E-06	-9.4988342684413E-07	7.62833670375963E-06	-2.99033402437035E-07	-0.818010424770538	-0.558564619683129
4.6	-0.879197797468087	0.461221060183028	-6.85428338763693E-07	6.12473164009232E-06	-1.23681415047083E-05	-6.38893472278829E-06	-0.880621624466142	-0.451274905987342
4.7	-0.840538140551782	0.527155686799904	1.2151495643415E-06	2.49701331303979E-06	1.42984446438595E-06	1.85256651812569E-06	-0.930422803257001	-0.337537777698505
4.8	-0.795958191237516	0.591810630293237	-5.09018437696597E-06	1.1131694556538E-05	5.28224884236435E-06	9.62919727469121E-06	-0.965481280266302	-0.217528037157465
4.9	-0.746182009598114	0.652726244550353	1.21637075911298E-06	2.91259728349362E-06	-5.3251475295548E-07	-6.88588016217471E-06	-0.985004553198856	-0.0927066260673151
5	-0.689963934053285	0.707452078013995	4.70308526221673E-06	-9.38929521343259E-07	-3.70009066829745E-06	2.43504315201347E-06	-0.984956438967269	0.0324546701454071
5.1	-0.633773093284971	0.757181684336264	4.10433509187854E-06	-1.59005037991684E-07	-2.68217901514391E-06	-9.73220694440083E-06	-0.97363707220755	0.152877488898694
5.2	-0.573109228240768	0.805245617311748	2.54532869002713E-06	-1.49009797308389E-05	1.37983549508411E-06	2.79781736549729E-06	-0.947736220163372	0.27457890642657
5.3	-0.508248488147499	0.848139121440218	-8.65123119099599E-06	-7.48798950656423E-07	-1.1263636969852E-06	1.61472427839733E-07	-0.905446986718274	0.392126367836506
5.4	-0.440427727272731	0.885717980710484	-7.14815494442645E-06	-1.09641930800089E-05	-1.36178701848416E-05	1.11333795795324E-05	-0.848143443310941	0.502430290809991
5.5	-0.369460443727607	0.917626106998405	1.89439146708017E-06	8.75372055187755E-08	-2.2317311687099E-06	1.77520474845684E-06	-0.778700158960971	0.603645492333556
5.6	-0.296622084520885	0.942695378290873	-2.38836972552509E-06	3.49977752202954E-06	-1.33186307089403E-06	1.28496472339523E-06	-0.69764003854737	0.695990423371953
5.7	-0.222372151883818	0.962903615540359	1.29981663264098E-06	1.22136984806741E-06	5.72530351458103E-06	-1.27883541582808E-07	-0.605574442687462	0.777687693073367
5.8	-0.14688296654632	0.976685205160486	2.68718471502719E-06	4.22563533405909E-06	-2.09271053043153E-06	4.2135214884276E-06	-0.503831065105567	0.846928496120046
5.9	-0.0718049193824018	0.985100075676867	-6.82667366296655E-06	-2.28836112226285E-06	-8.27694977534255E-08	6.23706453251434E-06	-0.395460566805617	0.903068196393211
6	0.00468659256167244	0.991127664486363	-1.78287740946973E-06	8.095143132713E-08	-5.41176912289844E-06	-4.39106702120813E-06	-0.280472331785567	0.948025237949939
6.1	0.0849020096308308	0.987209826892512	6.97161356505566E-08	-9.88508256930584E-06	-9.71369130375621E-07	-3.20805525805862E-06	-0.157466827961763	0.975611864130828
6.2	0.16251737253662	0.976242954439681	-1.02523465308498E-06	3.10031483598624E-06	-1.76235884168625E-06	4.19688959446908E-06	-0.033416916568949	0.986340918634341
6.3	0.238764381952547	0.959889391562004	-8.08731783460358E-07	2.81968995961149E-06	-2.93374449111641E-06	2.38185916622276E-06	0.090196191302226	0.981979799010993
6.4	0.313779921527039	0.93907285190726	-5.96826706041238E-06	5.52116805240171E-06	-2.37531647669961E-06	-7.52855698100261E-07	0.212679448867709	0.963781198179897
6.5	0.390976582625134	0.910806405219562	1.3964630044168E-06	-5.27353753937767E-06	-1.45027850647185E-06	-2.37313377829279E-06	0.335714519749297	0.928448459995335
6.6	0.459672699421368	0.873456620346089	3.63770486472471E-06	2.01572357866865E-07	1.12483911190547E-05	-2.68874732479016E-06	0.447181570621942	0.87517503745325
6.7	0.525480476447081	0.834769374915505	-7.71233877285409E-07	8.42710869025792E-07	-3.74546398913209E-06	5.2013585851382E-06	0.551027719015263	0.812850658955252
6.8	0.589164985241051	0.790984499417375	-1.74513012585213E-06	4.45744439277222E-06	1.44446351775001E-06	-8.76997052712839E-07	0.647491650279665	0.738075629768559
6.9	0.649161709642434	0.742344695251754	5.87013836219284E-06	2.23961710825736E-06	-9.27494553349297E-07	2.39542827724437E-06	0.733861492152939	0.651980009395451
7	0.705745514386153	0.68925553883912	1.1528418249502E-06	-4.11431362010783E-06	-1.43228114079432E-06	2.8888719817368E-06	0.81000835161871	0.556040177126716
7.1	0.757821073573204	0.631200113797544	2.42164887806956E-07	-7.13542476578499E-07	1.92211670356867E-06	9.15215888287422E-06	0.873083566941002	0.449697682202755
7.2	0.804934535139736	0.569062138202851	1.38734652073309E-06	-2.39715050229199E-06	-9.75927160768272E-07	-8.52822811855855E-06	0.92163625115692	0.337076064979912
7.3	0.846801998015538	0.502849204597254	4.79231435842643E-06	7.20133387782738E-06	-9.67095549548022E-06	2.29615680477226E-06	0.95534422800578	0.218943309050266
7.4	0.882343848930612	0.433328620748743	5.05656680812769E-06	-6.70879343544052E-07	1.93741481042533E-06	-9.55964854443093E-06	0.972590286147582	0.0978002021982979
7.5	0.912680600363622	0.364739095348629	2.74136206837227E-06	-5.22964417792315E-06	2.11048232824078E-06	-7.179992422484E-06	0.976686829903148	-0.0199061184147242
7.6	0.941286737010508	0.290934629810756	-2.65731490064907E-07	-5.59005907859213E-06	1.65937063217195E-05	3.96901044328184E-06	0.969582101002812	-0.142912806493517
7.7	0.961747596863635	0.214405543764115	3.4886084703668E-06	1.3945040291488E-07	3.45819218345055E-07	-2.89864556653605E-06	0.944103436254337	-0.263785408602919
7.8	0.975819361875855	0.137351060527779	-1.08732824416615E-05	-2.01153743293462E-06	-2.34919852104157E-07	3.41009737908427E-06	0.904125302685461	-0.379602806905226
7.9	0.984362161225762	0.0608862251522206	2.31494896859768E-06	2.04659518266367E-06	-6.83742706004867E-06	-4.76640417262286E-06	0.851584789867074	-0.48848244569592
8	0.992063957730687	-0.0176580280902864	2.30795251068738E-06	2.98449610101381E-06	-9.22006743746386E-06	-7.72413939298987E-06	0.789462684019868	-0.594965009089921
8.1	0.987592232332505	-0.102086943266083	3.86185285362823E-06	-3.03674932736969E-06	2.18081297843948E-06	-3.16823481100043E-06	0.705703459747498	-0.693977944170658
8.2	0.974998576177942	-0.181365325030705	-4.05144413574406E-06	1.38452965529043E-06	-6.76306912093731E-06	3.05744720187331E-07	0.611762167097123	-0.776736605189388
8.3	0.95675663874712	-0.259221288393713	9.87371556324845E-06	3.70710749439534E-07	6.17305081633823E-06	1.05089919515417E-05	0.509191994587533	-0.847188349651253
8.4	0.932557239833613	-0.335479399568752	1.26973097215626E-06	2.56848824316598E-06	3.45316403361075E-06	1.84812991609432E-06	0.39865001659275	-0.904200981071859
8.5	0.902390781107311	-0.410342391506839	-4.87582909821603E-06	4.93019400959626E-06	2.87395600673167E-06	-3.0026700160769E-06	0.283073869541558	-0.946714379669501
8.6	0.865530836621847	-0.482170877131855	-4.52152485188851E-06	2.05322035120838E-06	-3.10854359315233E-06	8.10296578209169E-06	0.16222190551257	-0.976747941427343
8.7	0.823506202723595	-0.55067014958011	-1.03412094305607E-06	1.21122385781253E-06	-6.74621151243434E-07	3.468025245574E-06	0.0374273125117931	-0.990535588489959
8.8	0.776085558907348	-0.61573095861331	-1.61572371117512E-06	3.08029936037673E-06	-6.04469003735267E-06	1.24379290964782E-06	-0.0882406597287398	-0.988749622084966
8.9	0.723217344854625	-0.677003771020053	3.20462760217148E-06	-1.82374361537688E-06	-3.18167438835145E-06	-4.78881814214777E-07	-0.214626785469601	-0.969703901976628
9	0.665171998553632	-0.732099136015404	-7.31934165734493E-06	1.33218373442744E-06	-3.99558851799143E-06	7.14805422282775E-07	-0.334036910484345	-0.931407545203561
9.1	0.604596884875769	-0.783501971433355	-3.35500217356256E-06	-1.90488339682049E-06	-9.97030105312482E-07	2.13605367810902E-06	-0.44687510697043	-0.884136220015981
9.2	0.538587348288318	-0.829979934240531	6.00992390243857E-06	-1.61457744893565E-06	1.94910849261274E-06	8.51406190678069E-06	-0.555152532598174	-0.822014018220789
9.3	0.468909548150463	-0.870552425031181	-3.45689816489214E-07	1.07134294831242E-06	1.36382065209648E-05	1.19294940054004E-05	-0.654388133043774	-0.745758960695661
9.4	0.395574686675546	-0.90371656494811	1.74895778109247E-06	-2.65429785308141E-06	4.28167523055648E-06	1.78513656602613E-06	-0.741807882099017	-0.656885169610707
9.5	0.324754250687358	-0.931012580700745	-6.46197117942363E-06	-4.96834383313941E-06	-1.88539733243525E-06	-5.73412611015363E-06	-0.816332941070318	-0.56219478773322
9.6	0.246003090574069	-0.958698816597344	-1.17549261912441E-05	-3.83390053120221E-07	-5.92183424076097E-06	-4.10151097601376E-06	-0.885776334407728	-0.456628129978899
9.7	0.163294450988177	-0.975029166549603	1.48288615578623E-06	-4.69755290188107E-07	-2.95301984120016E-06	1.62969986218357E-06	-0.938355226447864	-0.339476723113316
9.8	0.0808811737093417	-0.983255978183276	2.21306658699595E-06	1.42757905425011E-06	1.52456680878089E-05	-3.42089128737165E-06	-0.97441213425232	-0.217432731390323
9.9	-0.000794996240257518	-0.984212115326194	-3.55184698651688E-06	9.02480057787448E-06	1.38428742678568E-05	5.12604765400117E-06	-0.995129224388406	-0.0914203617938707
10	-0.0813893000788586	-0.979668706697739	-3.68621872895391E-06	1.61486642823211E-06	1.95197096130733E-05	-1.82190750783533E-05	-0.998281525503626	0.0361755353958964
10.1	-0.162647107629903	-0.966785451537497	-1.50343060494002E-06	2.31687564449521E-06	-8.47891181661806E-06	-4.38872362850478E-06	-0.986299889982584	0.162115913237193
10.2	-0.240269716532222	-0.947064865359112	-2.32519505401937E-06	-1.26354721879479E-06	-1.30744848124823E-05	7.23506722343739E-06	-0.95841413681936	0.286024915006929
10.3	-0.314756493291158	-0.921762749042654	5.80410650783574E-06	3.99448971072735E-06	-6.21855387550068E-06	1.36192890677147E-06	-0.915857584542639	0.405192017959443
10.4	-0.38713123563492	-0.891340995379711	2.12071028765906E-06	1.06994101560693E-06	7.54160357745227E-07	-8.31403955683232E-06	-0.859067737244956	0.519587654111143
10.5	-0.456536350552288	-0.853973621556276	4.43142697329889E-07	-3.0905468487574E-07	-6.52815564522844E-07	-5.70595496180228E-06	-0.783049416375927	0.627979601354919
10.6	-0.521134394966274	-0.811172948722803	5.14332317263405E-06	-2.63578323391274E-06	-9.85775104824662E-06	-7.96233609591594E-06	-0.694116422811973	0.718438324747201
10.7	-0.581161351210949	-0.763842783007694	-2.84261977301811E-06	-5.04647142198543E-07	-5.28381729315622E-06	-7.23412220177655E-06	-0.598125086593017	0.798047529160166
10.8	-0.63713178995264	-0.713717867472242	-3.65483208731113E-06	-3.47154030370749E-06	-1.20658993493847E-05	9.25142260425289E-06	-0.493450347895416	0.865886929349556
10.9	-0.690519373623553	-0.659258126548726	-1.15289997349534E-05	-1.04756498051823E-05	-4.47593450723427E-06	1.10788276276305E-05	-0.380420088898121	0.92135904461094
11	-0.734196327053367	-0.600816106000443	1.02170571270596E-06	1.41307203817576E-06	8.68860371040766E-06	-5.5621656015714E-06	-0.259606225977937	0.958588736617098
11.1	-0.777374327268238	-0.547131390014127	-3.31825451991674E-07	-3.65644741818835E-06	1.02433001133029E-05	-1.02772264400453E-05	-0.140137865608843	0.982637638511234
11.2	-0.820287631366266	-0.486918700926205	-1.04567470237497E-06	-3.9439824319228E-06	2.17043402572018E-06	-6.36571785080179E-06	-0.0151742570893181	0.993030100321672
11.3	-0.858469616415745	-0.421534841941689	1.62112902773456E-06	-1.21489151208847E-05	3.58938768734742E-06	-2.85362414235156E-06	0.110374600186325	0.986744659366249
11.4	-0.889677978764292	-0.352670567465207	9.9441440973182E-07	1.57855443703012E-08	-5.71480284640197E-06	6.52780900187507E-06	0.23454832209162	0.964767864073767
11.5	-0.915552400326632	-0.285236890942533	6.59908150491653E-06	-1.25996401195112E-06	8.30608088579406E-06	-3.26336575335696E-07	0.354570048102526	0.927013615806234
11.6	-0.941377567743386	-0.212461994492142	-6.61582489404063E-07	-5.37731141745676E-06	1.44234128089202E-06	-3.11464536569641E-06	0.468861679078125	0.873718241311774
11.7	-0.95768876875997	-0.134359096636744	-1.2215893650935E-07	-6.10015806848695E-06	8.88294654697163E-07	-2.68553258041506E-06	0.574788609165883	0.806798323705851
11.8	-0.966768582934597	-0.0549031014594834	-1.08355205069333E-06	-7.41077651371354E-07	5.21146899738684E-06	1.06003722301123E-06	0.671194663515362	0.727735765205777
11.9	-0.968839371596989	0.0261474363323861	-3.26510776628824E-06	-5.22875167188666E-06	-5.46492329106773E-06	-8.03881105535675E-06	0.756127012534325	0.640099580968783
12	-0.962765898509004	0.106370584781938	-2.96339503934944E-06	1.67187862363523E-06	-1.69271239122969E-05	-8.74636346010294E-06	0.83663484921124	0.54248852752349
12.1	-0.951970856966341	0.184780043835057	8.20506052820878E-07	-1.58659344331665E-06	8.01624205232744E-06	1.23184797121659E-05	0.898532381831648	0.427102965826581
12.2	-0.933841480006769	0.262933155433755	-4.08965767421599E-06	5.61972995968257E-06	4.44802205795958E-07	3.33175044611319E-06	0.943285813860955	0.309395393750593
12.3	-0.910428869426687	0.339037424315933	7.93483149301083E-06	6.36901280428997E-06	5.07156624676988E-07	1.09609811602239E-05	0.973909463724372	0.187670406167328
