# GHZ S RI R 50
0.2	0.985928250613005	-0.156814257129503	2.56442912999589E-06	2.24988973037941E-06	6.57043591632385E-06	-4.86895315147028E-06	-0.966253938284203	0.251762423750919
0.3	0.969873709067095	-0.23395483564503	-8.74155437806111E-07	-5.45390955124307E-06	-3.46708611694259E-06	-7.94535259557134E-06	-0.926552413738982	0.371764987536549
0.4	0.948312149546364	-0.309312552226908	-7.27876676772595E-06	-9.90284725144279E-07	4.44115786578406E-06	1.54447535917271E-06	-0.8717431029929	0.485459993046541
0.5	0.921296622404831	-0.382743349649429	6.1992456700156E-06	2.10400907834764E-06	-2.41397852899536E-06	-1.90761527444977E-06	-0.803248185333109	0.591568882100911
0.6	0.888292149745168	-0.45366963902578	-1.05505360547975E-05	2.46159511865121E-06	-2.21837112926301E-06	-1.00684493788002E-06	-0.721748359539539	0.687965115194693
0.7	0.850143319627445	-0.521420326745519	2.78396268580741E-06	-1.17213126287125E-06	-2.98709125695109E-06	5.78811922260797E-06	-0.629100009872049	0.77337973382142
0.8	0.806784928758884	-0.586403628804584	1.17638433184101E-06	-8.47546100030336E-06	-6.62033900933891E-06	-3.06990465652745E-06	-0.526386216212038	0.846286525303685
0.9	0.758477671437062	-0.648028027304442	-1.14671246188497E-06	-6.8103506770006E-07	2.54792687545165E-06	6.54336029468953E-06	-0.415488868657026	0.905534171723928
1	0.705138451093063	-0.706062282731244	-2.74495234090656E-06	-3.22226011703959E-06	-4.05560448964234E-07	-7.3160727910707E-06	-0.298312989554248	0.950151779592668
1.1	0.647860985069685	-0.759557755047507	1.80591513731347E-06	-4.94047917765473E-06	2.26925143772513E-06	-5.13398869990484E-06	-0.176304485698247	0.979923173703466
1.2	0.585276094678361	-0.80906802919615	-2.49495977071381E-06	2.49105748235659E-06	9.25805853908576E-07	-9.10673071829413E-07	-0.0513112802431293	0.993894780491453
1.3	0.517428635447869	-0.853472342712185	-1.53746181712927E-06	7.19193969657271E-07	-1.35498236472324E-06	1.4628527566677E-06	0.0743626295286708	0.992366379354175
1.4	0.446618772898852	-0.891837857246058	3.92107015732211E-06	-3.23979953697411E-06	2.70277666544277E-06	1.09359458206633E-05	0.199498627138275	0.974600940614377
1.5	0.373683620747161	-0.923737667826703	-5.33479376685462E-06	1.10998478737647E-06	6.58574234437522E-06	-7.20455882316183E-06	0.321135319794996	0.941348353297475
1.6	0.300373510621102	-0.94969464802826	1.7755993249559E-06	-7.73467872809838E-06	3.62995327666628E-06	1.38187349879173E-06	0.437149814957626	0.89295991677828
1.7	0.226299762670493	-0.969871822912973	-1.9404977927318E-06	-9.6924484663085E-07	-2.35124229938794E-07	-2.08611140667368E-06	0.545444411445082	0.831133883301554
1.8	0.149893597650889	-0.984662044258658	2.84891392242848E-06	5.27814943308441E-06	3.73242280761871E-09	2.03090837753804E-06	0.645509513130728	0.755858975217029
1.9	0.0725013739377116	-0.993488963999035	5.67355576792165E-06	-2.63001790663103E-06	-2.99751977855137E-06	4.15212609298795E-07	0.734815631403592	0.668748484237755
2	-0.0046657545490046	-0.996122395374557	-1.5477934661055E-06	-2.0267841963179E-06	3.20955191785805E-06	1.1457771526884E-05	0.812669232549612	0.570879010962958
2.1	-0.0834781700246321	-0.992838883964427	-7.55479120181681E-06	2.45489463724724E-06	1.2071393450777E-06	5.14669173021043E-06	0.877673675970369	0.464354697240946
2.2	-0.160087306503377	-0.983261531530528	-8.83264098446555E-07	1.39434011833808E-06	3.00342587747652E-06	7.77748170714813E-06	0.929075449112426	0.350445950348902
2.3	-0.237035520468781	-0.967312118989245	1.78681238452503E-07	7.45410091042976E-06	7.39692019642901E-07	9.38912524302803E-07	0.965208299325596	0.23143328341799
2.4	-0.312656105753568	-0.945221336108086	1.57749126336096E-06	7.17543949286978E-06	1.51951855017803E-06	6.3886860334719E-06	0.986640982610611	0.107921219982276
2.5	-0.385839294683155	-0.918137730189014	4.39257063618905E-06	-2.31247601428639E-06	-1.91118102117699E-06	-7.57409084757466E-06	0.99201995311337	-0.0164175726602193
2.6	-0.457290787056477	-0.884705605711862	6.77490889022325E-06	-5.94409137987779E-06	-1.11085134206742E-05	1.08266743148427E-05	0.982193574647574	-0.141110455608662
2.7	-0.525947460331988	-0.845644326268364	-4.44769566703024E-06	9.14325906737774E-06	-2.86984536090778E-06	-9.16302241821499E-06	0.956366493598259	-0.263581892045774
2.8	-0.59028975027248	-0.801790416204478	2.45770842574135E-06	1.14506361142811E-06	-3.12934381069443E-06	1.24258260777113E-06	0.916213058546408	-0.381193345198416
2.9	-0.650663482061513	-0.75363901271986	-5.5037473415045E-06	6.01328758722083E-06	-9.19506603730865E-06	-2.88308139557311E-07	0.861217261710243	-0.492763468805871
3	-0.708106421935886	-0.700248323997737	4.73118697723979E-07	-1.47308256629291E-06	1.13268083138875E-05	1.4682711247013E-06	0.792726501322692	-0.596932507603844
3.1	-0.760793572424604	-0.642581833254171	2.40209225359456E-06	1.04971291120197E-05	4.32449408290964E-06	2.17546184879396E-06	0.712019246948842	-0.69116790687059
3.2	-0.808501920695304	-0.581391870055862	2.10189346042515E-06	6.46584839453573E-06	4.00384001403423E-06	-1.0602540211867E-05	0.620235146383169	-0.774857448580745
3.3	-0.851419222642871	-0.516896781093745	3.07903131782944E-06	4.96238148806801E-06	-2.22021840046679E-06	-9.66813565217636E-06	0.517500943292699	-0.846974223094087
3.4	-0.888541534014	-0.449540718225486	2.12615153412333E-06	-2.60291860413398E-06	5.95684744866269E-06	1.38487379954562E-06	0.407833378267496	-0.905353528286475
3.5	-0.921000404312632	-0.37790540169594	-3.23930882703775E-06	9.45858611273317E-07	-2.07323744317453E-06	3.42235045055625E-06	0.290570721589536	-0.949542569160676
3.6	-0.947629610720085	-0.304550089708238	-1.81204707394378E-06	-3.74350602961259E-06	-7.82285363385708E-06	4.1046809747163E-06	0.169034483046321	-0.978618762511227
3.7	-0.968436538300202	-0.229720076529647	8.23020615674855E-07	-8.32589807639176E-06	1.07667425724029E-05	3.69773929229335E-06	0.0441214100298025	-0.99215129506341
3.8	-0.983599820395754	-0.152657211133144	9.18763655298418E-08	1.54670056014616E-06	-6.51876891126433E-06	5.95023780526065E-06	-0.0808079289226903	-0.989705811779365
3.9	-0.992474469577226	-0.0752191440546183	-2.62690841346833E-06	-5.02766865026014E-06	-3.7040574674376E-06	8.02451968857607E-06	-0.206132805478187	-0.971529761933829
4	-0.995514791009698	0.00372721825235425	7.12898748872723E-06	-3.80350707845435E-07	-1.04462650729676E-06	-1.20585131309025E-06	-0.325886733298224	-0.937862665432482
4.1	-0.992367301674116	0.0821846710679174	6.19881153648045E-07	-4.43757293857396E-07	7.35550907090263E-06	-4.75464438804621E-06	-0.441380604905981	-0.889781378579108
4.2	-0.983063623190922	0.160311248935319	3.20574649342057E-06	2.10475598908879E-06	-7.18406699369916E-07	-7.6249288237557E-07	-0.549964053692688	-0.82695971608113
4.3	-0.967798482400762	0.236461421408153	-3.19160501870778E-06	1.37197835608215E-06	-5.00006645117331E-06	2.98172700911023E-06	-0.649558797524358	-0.751690263075475
4.4	-0.946621764287808	0.311198093955071	8.03388810818877E-07	2.64439724202273E-06	1.55830774241897E-06	-8.33680435867232E-06	-0.738873779921337	-0.664184620655245
4.5	-0.919908615435297	0.384390104719151	1.82602656052975E-06	-9.38821868980345E-07	7.63767167206248E-06	-2.49060143937964E-07	-0.816630696653019	-0.566044411128208
4.6	-0.886893941131215	0.456431154243769	-7.36381731746104E-07	6.13681910113674E-06	-1.23525210245157E-05	-6.50618581808748E-06	-0.88096743869138	-0.458949495706358
4.7	-0.84834565898993	0.524160658918338	1.20077780831815E-06	2.51607753584237E-06	1.42124668334022E-06	1.87075605939369E-06	-0.931920379030558	-0.344954937714417
4.8	-0.803798086573582	0.589772776759485	-5.19817734963574E-06	1.11418764936609E-05	5.23169471450412E-06	9.71236695404051E-06	-0.967867417845624	-0.224854506043829
4.9	-0.754663028938176	0.650885590630767	1.19784425599434E-06	2.93808480045535E-06	-4.76555397501026E-07	-6.92615428474308E-06	-0.988438898730711	-0.100884277389529
5	-0.700938239769731	0.70829358522848	4.7509040921053E-06	-9.0760131230559E-07	-3.75188952821123E-06	2.42481331867095E-06	-0.99291605264223	0.0246139544971264
5.1	-0.642169216787166	0.761192082235572	4.14148976585963E-06	-1.3815483703051E-07	-2.65312215987118E-06	-9.83280807763652E-06	-0.982017445497905	0.149207039856821
5.2	-0.580064572920388	0.809419195762022	2.63772302389575E-06	-1.50170218381106E-05	1.3784564770435E-06	2.82839680837552E-06	-0.95577627658112	0.272013539386374
5.3	-0.514611093084769	0.852756493872293	-8.72665587972385E-06	-7.89399130627453E-07	-1.13719607429516E-06	1.58531772587646E-07	-0.914043542612203	0.390790122133498
5.4	-0.44615628152741	0.890880330160696	-7.19007512000467E-06	-1.10813173958949E-05	-1.37683130545967E-05	1.12062954820145E-05	-0.857157788114387	0.503011716243869
5.5	-0.375093871727653	0.923416682506567	1.90775022083563E-06	9.04830664608657E-08	-2.24977266329745E-06	1.78508626224399E-06	-0.787069570812327	0.606564120144047
5.6	-0.301235499611402	0.949995588166897	-2.41546275364516E-06	3.5190057069738E-06	-1.34515564922671E-06	1.29078535830599E-06	-0.704775260412257	0.700139223930349
5.7	-0.225416801582972	0.970855279553653	1.30777626219699E-06	1.23465408819511E-06	5.7734265157538E-06	-1.15372223877753E-07	-0.611725062463318	0.782981928957173
5.8	-0.148229438999833	0.985097998487814	2.70575494179815E-06	4.2686477623622E-06	-2.1182782004614E-06	4.24934825463727E-06	-0.508671587042958	0.853518416249253
5.9	-0.0704262486666763	0.993246053679382	-6.89926871269345E-06	-2.30674057473066E-06	-7.87367850855517E-08	6.3018150203563E-06	-0.397857205731331	0.910677470142224
6	0.00690951060982801	0.995315768639375	-1.79520868021015E-06	8.96790089537528E-08	-5.47039786575967E-06	-4.39760806670839E-06	-0.280642169207476	0.953384309809066
6.1	0.0846630782849858	0.991985777684639	4.94954104077181E-08	-9.93004189623234E-06	-9.82437784014533E-07	-3.2205810569412E-06	-0.158827512174174	0.980928901947382
6.2	0.162960626035385	0.982205543745483	-1.02639882862272E-06	3.11670157438551E-06	-1.76576100926659E-06	4.21953557121985E-06	-0.033863880773444	0.992585242628816
6.3	0.24061595725523	0.966075787454045	-8.09029293317982E-07	2.83489118425162E-06	-2.94526963860135E-06	2.39769605340489E-06	0.0913774255328324	0.988391002350949
6.4	0.316643079585693	0.943678558214328	-5.98382229869179E-06	5.55341137596278E-06	-2.38626286265026E-06	-7.52111694269446E-07	0.215198658168888	0.968525930379875
6.5	0.390816916018921	0.91609661274809	1.41040792359206E-06	-5.28866943861454E-06	-1.45093714702065E-06	-2.38360384128372E-06	0.335336919968963	0.933486723486249
6.6	0.462867187478728	0.881934371911473	3.66487395389439E-06	2.10443900782252E-07	1.13390885634467E-05	-2.68642232299522E-06	0.450146000480315	0.883406597800295
6.7	0.531362310947957	0.84200632321363	-7.78226296001229E-07	8.49995799063776E-07	-3.77965534593027E-06	5.24653566201175E-06	0.556942500254277	0.81972561962175
6.8	0.596447636297412	0.796947189147975	-1.75761765417251E-06	4.50118147398188E-06	1.45733591698112E-06	-8.8659527093855E-07	0.655066951125506	0.743380364784161
6.9	0.65759916676239	0.746848557149612	5.93734842092481E-06	2.250273822637E-06	-9.31987110962682E-07	2.42288494511124E-06	0.742811372418605	0.655300189141954
7	0.714353900265894	0.692069841723643	1.14011118667533E-06	-4.16127195732422E-06	-1.42943255042742E-06	2.92547748075663E-06	0.818742861635496	0.556903456290839
7.1	0.766740308589713	0.633345209287149	2.40183425708887E-07	-7.19871033525545E-07	1.98327243187953E-06	9.20723841669337E-06	0.881757936116648	0.449891489461178
7.2	0.814417270322817	0.570155305876419	1.3866649895255E-06	-2.42023059403864E-06	-1.02025991585594E-06	-8.58440409448371E-06	0.930800293240325	0.335974529365654
7.3	0.856811494886422	0.503006482390392	4.85586275678975E-06	7.23672006239074E-06	-9.73441310793013E-06	2.35055188502064E-06	0.964962605395506	0.216554526486519
7.4	0.894000816986477	0.43239402479128	5.10346856862756E-06	-6.932915460669E-07	1.92611637372204E-06	-9.65840447634655E-06	0.983994198436342	0.0933393260342126
7.5	0.925000461654378	0.359025661167623	2.7348840348478E-06	-5.31685967860719E-06	2.08080214681522E-06	-7.28679018285444E-06	0.986776663470488	-0.0309458561140996
7.6	0.950650553770788	0.283719782041527	-3.24742913331287E-07	-5.63705627743748E-06	1.67814297086694E-05	3.83613137554879E-06	0.974810031836121	-0.154281775486312
7.7	0.970369014534478	0.20633461015108	3.517641795436E-06	1.04845483200149E-07	3.18886024268349E-07	-2.92512274828248E-06	0.947715097670881	-0.275499342823098
7.8	0.983788229451407	0.127544661096753	-1.09768099415086E-05	-1.90360807710022E-06	-1.98128756195911E-07	3.4380914038129E-06	0.905741535918074	-0.392501089192411
7.9	0.990582856677173	0.047766425882134	2.35779909369301E-06	2.02683804257719E-06	-6.94612233674708E-06	-4.70018145195348E-06	0.849302516219854	-0.503242604397356
8	0.990956078664348	-0.0316223728045835	2.35186022378636E-06	2.94830052991056E-06	-9.33217873494842E-06	-7.5815142571116E-06	0.779770393277815	-0.605580087659624
8.1	0.985439178708162	-0.111253559626228	3.82305240860204E-06	-3.06878166733251E-06	2.14435801884316E-06	-3.18315826828012E-06	0.698291171732005	-0.69900751392327
8.2	0.973171272130064	-0.190025700496621	-4.03403748200435E-06	1.41768748610394E-06	-6.75134544820733E-06	3.63787846005546E-07	0.605400300259342	-0.781428638363813
8.3	0.954165412823896	-0.267783931687505	9.86398669690737E-06	2.90424763670744E-07	6.25003804973448E-06	1.04455517968266E-05	0.502607726942808	-0.851368731223933
8.4	0.928829999701493	-0.343742089788904	1.28669976998495E-06	2.55649049229387E-06	3.46250602513796E-06	1.82130182806722E-06	0.391664556946959	-0.908025722257585
8.5	0.89748428441117	-0.41766290215154	-4.84007465375445E-06	4.96998230736859E-06	2.85213682128578E-06	-3.02616629417859E-06	0.273973817032829	-0.94953332945964
8.6	0.860090375891731	-0.48874890283583	-4.49826443662215E-06	2.09331509378953E-06	-3.03040066184286E-06	8.12433082287782E-06	0.153140986458825	-0.976362902820247
8.7	0.817192593067884	-0.55650878741073	-1.02067976393572E-06	1.2176899248068E-06	-6.41605334815285E-07	3.46583724382181E-06	0.0293802411977588	-0.988303239388664
8.8	0.769067148597819	-0.620392442675648	-1.58385131227009E-06	3.08260126244162E-06	-6.0120289320269E-06	1.29013598302579E-06	-0.0948303895870091	-0.984949249754388
8.9	0.716328897781124	-0.680301753507897	3.17711692206119E-06	-1.83555528703556E-06	-3.16918439615702E-06	-4.55935684370615E-07	-0.218436349713272	-0.965755513419857
9	0.658499784715597	-0.735783561227882	-7.29721972871118E-06	1.36012666099606E-06	-3.98356481366887E-06	7.30087308321494E-07	-0.338919138484946	-0.930697429165017
9.1	0.596651417763307	-0.786199394997238	-3.36223875683608E-06	-1.88117578779452E-06	-9.82238704841327E-07	2.13930823251401E-06	-0.453568459489066	-0.880442341123986
9.2	0.530542001007313	-0.831496851440049	5.98836039660052E-06	-1.65199232533631E-06	2.00271714777244E-06	8.48578145687364E-06	-0.560821829447794	-0.816619639801125
9.3	0.461072520891504	-0.871291531658292	-3.37602097599415E-07	1.07191948955271E-06	1.36982068276536E-05	1.18135968218124E-05	-0.659111269869401	-0.739285612396386
9.4	0.388173429030631	-0.905240936314455	1.72744732227446E-06	-2.66610202650608E-06	4.29274483613712E-06	1.75108273556115E-06	-0.746362999388182	-0.650196829888653
9.5	0.312235380293736	-0.932544191993335	-6.51229364773806E-06	-4.87549438990599E-06	-1.95489322473273E-06	-5.69825745861817E-06	-0.821541516146387	-0.550118135456916
9.6	0.233927178462931	-0.953801233084226	-1.16732363656684E-05	-2.48981287439114E-07	-5.92443783832043E-06	-4.00521123571239E-06	-0.883521181222011	-0.442974318780967
9.7	0.153913280729891	-0.968275066033224	1.46663333635315E-06	-4.79249262865953E-07	-2.91442406240842E-06	1.64297076959812E-06	-0.93260130514393	-0.328369874082551
9.8	0.0731650633597571	-0.975764328145118	2.2059113380699E-06	1.3978169753623E-06	1.50900164280077E-05	-3.51445395296418E-06	-0.966668716992386	-0.208414503609415
9.9	-0.00776514677508259	-0.976092902119379	-3.45114577389298E-06	8.96875327675966E-06	1.37544751730851E-05	4.97454122365243E-06	-0.985946884740805	-0.0846103274697147
10	-0.0873693894565635	-0.969279042433134	-3.63949788921652E-06	1.62089739584384E-06	1.92140002793491E-05	-1.81540197909259E-05	-0.988735455859856	0.0413322963654586
10.1	-0.165715227937186	-0.956081526399986	-1.47663646679447E-06	2.30312234690712E-06	-8.4225375766741E-06	-4.30119636054314E-06	-0.975280841084497	0.166049104400804
10.2	-0.24205012324175	-0.936537473641911	-2.30918748138031E-06	-1.23813556076305E-06	-1.29049011868784E-05	7.23599254695502E-06	-0.946125007156676	0.287769404549715
10.3	-0.315218927472958	-0.910858152679455	5.7626121897486E-06	3.91901493217646E-06	-6.1431499163278E-06	1.38116207040631E-06	-0.902419394995179	0.404379386917126
10.4	-0.385701500752861	-0.88024323063701	2.09868014072752E-06	1.04525218269469E-06	7.01965854186603E-07	-8.21011908371942E-06	-0.844309179191069	0.514438224530383
10.5	-0.453496364321371	-0.843506001642626	4.36064206165157E-07	-3.05080821603543E-07	-6.51393693188172E-07	-5.61967397810349E-06	-0.772719042861389	0.616598880827797
10.6	-0.516646984545904	-0.801081870593148	5.07876814602008E-06	-2.59752241845804E-06	-9.72364646526549E-06	-7.86700593330307E-06	-0.688097358409567	0.708279054950435
10.7	-0.575192694937415	-0.754344639568231	-2.80744177363365E-06	-5.02221579379942E-07	-5.21022757375794E-06	-7.15315416741733E-06	-0.59336092648832	0.788098647214388
10.8	-0.629218959641766	-0.704863497182989	-3.60363152099787E-06	-3.43677325872405E-06	-1.19381770349287E-05	9.11528076156762E-06	-0.489765001144026	0.855247784083377
10.9	-0.679804002864953	-0.653148459346853	-1.13500101902643E-05	-1.04011265240584E-05	-4.46985094895384E-06	1.09302317166388E-05	-0.379393638291147	0.909477233318775
11	-0.726762705373269	-0.598952052224742	1.0084292366628E-06	1.40647498889102E-06	8.645193771614E-06	-5.48595169671679E-06	-0.261320941655298	0.949848214147455
11.1	-0.770344628607853	-0.542163931907201	-3.24600586306205E-07	-3.62356564026288E-06	1.01619369618166E-05	-1.01719489560197E-05	-0.140005315497086	0.973484523241033
11.2	-0.810916012281672	-0.4825477613731	-1.02657373389104E-06	-3.90484760091873E-06	2.16086575645598E-06	-6.29457823723176E-06	-0.0167499131139069	0.982424837967068
11.3	-0.847824765224212	-0.419176820589286	1.64357511926668E-06	-1.2015427452996E-05	3.56079901098576E-06	-2.81182310226251E-06	0.106520788502433	0.976184009514389
11.4	-0.879656543851897	-0.352867838329532	9.84682400106972E-07	1.9505817485882E-08	-5.68465669576995E-06	6.44206486933385E-06	0.228649068460469	0.954937804019487
11.5	-0.906965933453132	-0.283946376918777	6.53487006790674E-06	-1.22809338912098E-06	8.22164834722489E-06	-2.99167256165225E-07	0.346704473556071	0.91831639345858
11.6	-0.929398420293039	-0.212298422569595	-6.28823172495466E-07	-5.31936692865999E-06	1.44058998979032E-06	-3.07251129394951E-06	0.459670870764822	0.866901092015473
11.7	-0.945281449523668	-0.13730280024749	-8.4170530319551E-08	-6.03604510658723E-06	8.95003953408933E-07	-2.65164133621552E-06	0.564913512357957	0.801856432998019
11.8	-0.954902412652501	-0.0603992856697153	-1.06816012579824E-06	-7.41096215825806E-07	5.15404500253767E-06	1.08434281471952E-06	0.661487851522398	0.724516898348986
11.9	-0.958086432616133	0.0180341583185642	-3.20490332821879E-06	-5.20198536552176E-06	-5.36842207821262E-06	-8.00032318687651E-06	0.747401253993882	0.636386312460767
12	-0.95466599802614	0.0963138923424693	-2.94091710545388E-06	1.63636237592919E-06	-1.66917845623491E-05	-8.75011892236022E-06	0.822372713285858	0.537969978744552
12.1	-0.945461734884266	0.174386680607804	8.25288950357647E-07	-1.56305667334773E-06	7.82841367993643E-06	1.22570386144228E-05	0.883768605458021	0.429568537443224
12.2	-0.928743830911752	0.252185646087285	-4.1016256430288E-06	5.53084568262875E-06	4.10943414255039E-07	3.30464131714467E-06	0.930751378709938	0.314592219020269
12.3	-0.906156082771607	0.328045373116869	7.80554612615128E-06	6.38178828796341E-06	4.04615821104466E-07	1.08655120114543E-05	0.962685599372705	0.194412528739252
