# GHZ S RI R 50
0.2	0.98514669415645	-0.157036381807433	2.56373999913926E-06	2.24731475672167E-06	6.56405364053837E-06	-4.86864272635875E-06	-0.965640259149606	0.252161963679153
0.3	0.968969229269597	-0.23408199813738	-8.76091430075776E-07	-5.44886856018244E-06	-3.46805144460227E-06	-7.93693279022216E-06	-0.92563536615183	0.372149612004458
0.4	0.947275304463523	-0.309273670067059	-7.27115062957124E-06	-9.85713258281823E-07	4.43695923832519E-06	1.54064123343826E-06	-0.870468294763373	0.485642680501763
0.5	0.920400576847783	-0.382334245547653	6.1916053988499E-06	2.10054001071554E-06	-2.41114131574878E-06	-1.90487632343513E-06	-0.80191425126001	0.591156862209581
0.6	0.887699736745929	-0.453479443931653	-1.05395167327149E-05	2.4605463314348E-06	-2.21626277294322E-06	-1.00552196540009E-06	-0.72068689802219	0.687488304904555
0.7	0.849367556252629	-0.521388123498718	2.78048672790586E-06	-1.17162965324832E-06	-2.98203207655351E-06	5.78248423729132E-06	-0.627974031808385	0.772768588809269
0.8	0.805773414412062	-0.586297973944645	1.1722113010468E-06	-8.46461359833319E-06	-6.61253008038323E-06	-3.06379984807822E-06	-0.525298431178344	0.845412329860289
0.9	0.757251621519863	-0.647632361751893	-1.14508402777663E-06	-6.79722252403151E-07	2.54542957171451E-06	6.5326342954305E-06	-0.414543111018996	0.904409601262872
1	0.704002629197189	-0.705164593333476	-2.74004723713151E-06	-3.21684564420535E-06	-4.04475726712091E-07	-7.30347266878013E-06	-0.297577284964959	0.948786458598233
1.1	0.647093968668625	-0.758382935749369	1.80458251498308E-06	-4.9316096239181E-06	2.26721071693296E-06	-5.12463788587006E-06	-0.175933512939968	0.978403402173949
1.2	0.584943544775575	-0.807811002513949	-2.4926166667681E-06	2.48581847818331E-06	9.24928432827518E-07	-9.0874983600039E-07	-0.0513541545524724	0.992363136171392
1.3	0.517579985726089	-0.852398355996644	-1.53616736898331E-06	7.17079383427045E-07	-1.35450917467872E-06	1.45997886503393E-06	0.0738333599098643	0.990992070892467
1.4	0.447066975815761	-0.89132919923689	3.92062947083158E-06	-3.23396512693141E-06	2.69155454668846E-06	1.092946605111E-05	0.198660991376588	0.973502033835687
1.5	0.373733075850207	-0.923825815053022	-5.33247323346138E-06	1.10664307600872E-06	6.58587450558575E-06	-7.19727217473554E-06	0.319984217958688	0.940286420427215
1.6	0.300027834269441	-0.94961952048394	1.77579854488845E-06	-7.72900835805764E-06	3.62719099990441E-06	1.38158804699883E-06	0.435793658431465	0.892198417072723
1.7	0.225766717903522	-0.969596769271501	-1.93865988126648E-06	-9.68386351981187E-07	-2.3485321646337E-07	-2.08416692489344E-06	0.544013738177277	0.830480626519997
1.8	0.149249162705834	-0.984084949864965	2.84608145400845E-06	5.27176229093472E-06	3.91134731936854E-09	2.02854933330751E-06	0.644004130143667	0.755320179852266
1.9	0.071759273313379	-0.992459798660034	5.66405550829704E-06	-2.62799752258898E-06	-2.99283740962201E-06	4.15620456680944E-07	0.733358465001561	0.668071700535424
2	-0.00493166090087351	-0.994082438162511	-1.54394191863622E-06	-2.02141566255358E-06	3.20212649041914E-06	1.14278508678703E-05	0.810144500124735	0.569735054493736
2.1	-0.0824853617673973	-0.991056545829756	-7.53914392168205E-06	2.44164672422789E-06	1.19922560347829E-06	5.13557731963853E-06	0.874456291842635	0.464691874739664
2.2	-0.158822131752632	-0.982037424967638	-8.82953082846386E-07	1.39055690651584E-06	2.98900600349348E-06	7.76484388963406E-06	0.926245597440588	0.351588533765903
2.3	-0.235720501880922	-0.966361954195719	1.70498860651925E-07	7.4395145145753E-06	7.3723991067349E-07	9.37828415557413E-07	0.962712292694182	0.233048159314151
2.4	-0.311312192648689	-0.944341009057783	1.56682910598664E-06	7.1621172983779E-06	1.509785960508E-06	6.37694277413166E-06	0.98446577369893	0.109816214861635
2.5	-0.384235846878921	-0.917178190167122	4.38487925874071E-06	-2.30170752075051E-06	-1.89755756520088E-06	-7.55834185393881E-06	0.989840764012792	-0.0143001382382958
2.6	-0.455189615683863	-0.883912988375538	6.76724968077507E-06	-5.91838895549345E-06	-1.10976654544911E-05	1.07818090337297E-05	0.980129538164753	-0.138440190918246
2.7	-0.523404532111039	-0.845268528560579	-4.45473314785132E-06	9.11088228657394E-06	-2.84402998571582E-06	-9.1453423160541E-06	0.95454918952729	-0.260357689439888
2.8	-0.587355827098259	-0.801976326855068	2.44878006139549E-06	1.14828759755973E-06	-3.12464186918159E-06	1.23177285784906E-06	0.914915939947237	-0.377402692982263
2.9	-0.647301457462126	-0.754665980724198	-5.50876455425343E-06	5.98248078524368E-06	-9.17238670087935E-06	-3.15260632075175E-07	0.860698177695496	-0.488721517828316
3	-0.705077656080691	-0.702653286811076	4.77769601827933E-07	-1.46882677146714E-06	1.13021191744662E-05	1.50772046270554E-06	0.792763433666675	-0.593026815019938
3.1	-0.758405922496202	-0.64533419005103	2.3624316927911E-06	1.0495296180986E-05	4.31249589381228E-06	2.18867533129083E-06	0.712566296556111	-0.68711274860886
3.2	-0.8064750582887	-0.584622941066337	2.07804050661904E-06	6.46884386269209E-06	4.0379943626791E-06	-1.05815789036292E-05	0.621528403104277	-0.770874353545684
3.3	-0.849956778769737	-0.520614277292761	3.06092253248156E-06	4.97183872942077E-06	-2.18591528157214E-06	-9.67337889545475E-06	0.519633058134132	-0.843332066083769
3.4	-0.887988713006195	-0.453594580108645	2.1356017469454E-06	-2.5969968400518E-06	5.95475539071044E-06	1.40505906863743E-06	0.410725553248865	-0.902688241806526
3.5	-0.921388409994587	-0.381218166765882	-3.24278081748264E-06	9.39145433337828E-07	-2.08165125753292E-06	3.41926524841068E-06	0.292532873422087	-0.947866762839306
3.6	-0.947607947960868	-0.307700016671233	-1.80170409979953E-06	-3.74706261056682E-06	-7.83111622968546E-06	4.08296733123994E-06	0.171303344158792	-0.975956067735256
3.7	-0.968813987766665	-0.233180847597808	8.48268211104637E-07	-8.3240548743863E-06	1.07563935297284E-05	3.73059294400064E-06	0.0474639071391157	-0.98999103085678
3.8	-0.984489360494833	-0.156029138844457	8.7281697668039E-08	1.54777917293846E-06	-6.54001201954828E-06	5.93376059199935E-06	-0.0769647923146086	-0.988630064182985
3.9	-0.993629810531184	-0.0783694376830543	-2.61493351017079E-06	-5.03874600008427E-06	-3.72911806788426E-06	8.02028368539863E-06	-0.202533114528133	-0.971773336285334
4	-0.996823009120646	0.00058464778593244	7.13534836361053E-06	-3.60411499140906E-07	-1.04198015743434E-06	-1.20970778699993E-06	-0.323334329907861	-0.938627534132328
4.1	-0.993982804447533	0.0790707532219799	6.21849191891067E-07	-4.42549632706936E-07	7.37743577017686E-06	-4.73971285927834E-06	-0.439222947276655	-0.890553320365888
4.2	-0.984938661000098	0.157363712665001	3.20480269815213E-06	2.11548825830524E-06	-7.17475578519078E-07	-7.65284830875691E-07	-0.548100240867499	-0.827870755372555
4.3	-0.969745329938239	0.233759970247576	-3.19873984737083E-06	1.3669134962157E-06	-5.01303406112943E-06	2.97488349162045E-06	-0.647907796057475	-0.752784630074386
4.4	-0.948204325993616	0.30854271300117	7.99431783114996E-07	2.64812386819998E-06	1.57435829386026E-06	-8.34134492194505E-06	-0.737346120807762	-0.66563570364166
4.5	-0.921759563902479	0.380671163076173	1.82842495644437E-06	-9.34128795572498E-07	7.63826310462516E-06	-2.29453606120666E-07	-0.81569641146469	-0.568346391239949
4.6	-0.889848091512041	0.453027954484038	-7.57468600798719E-07	6.13952379105129E-06	-1.23412091885243E-05	-6.55285544168747E-06	-0.881273372788473	-0.461166689700005
4.7	-0.851700014036926	0.521126838261367	1.19413873092935E-06	2.5233881242919E-06	1.41701896625247E-06	1.87792417929997E-06	-0.932824164613331	-0.346739352437909
4.8	-0.807595517045922	0.587022327783248	-5.24409535747389E-06	1.11429025263228E-05	5.2078223272585E-06	9.74595977897973E-06	-0.969082721698115	-0.226367166860929
4.9	-0.759146219641643	0.648302169273312	1.18946346523685E-06	2.94882345643526E-06	-4.51783101688662E-07	-6.94272907754167E-06	-0.99004528710658	-0.1026499379477
5	-0.706764484543928	0.707011997781402	4.77151393696051E-06	-8.94354807552712E-07	-3.77412599511371E-06	2.42062332820744E-06	-0.996507515173366	0.0234098764679529
5.1	-0.647341942080676	0.761451332256886	4.15736395628407E-06	-1.29659522266098E-07	-2.64169565781737E-06	-9.87555799597112E-06	-0.985147573165928	0.150204292684048
5.2	-0.58491376316806	0.81025088384718	2.675168155554E-06	-1.50662976059191E-05	1.37816976632243E-06	2.84116526368626E-06	-0.958054105374427	0.273288788574046
5.3	-0.519197008795567	0.854311808507444	-8.7578145417639E-06	-8.05635956657968E-07	-1.14165512296346E-06	1.57385302741455E-07	-0.916141258403821	0.392058562775315
5.4	-0.450165645750835	0.893073821614723	-7.20610260590483E-06	-1.112831422752E-05	-1.38287936462736E-05	1.1234493557688E-05	-0.859474195663268	0.504382448526968
5.5	-0.378615000064078	0.925745536465772	1.91287633572478E-06	9.22834843955815E-08	-2.25735858777598E-06	1.78811937614899E-06	-0.7898279579466	0.608713059281093
5.6	-0.304630474669205	0.952682089554207	-2.42850450072402E-06	3.52564641254167E-06	-1.35132234494241E-06	1.29246877959721E-06	-0.707047878917758	0.703276897346855
5.7	-0.228600581129184	0.974145754192463	1.31046049053499E-06	1.24129587280258E-06	5.79452014472641E-06	-1.06201821009319E-07	-0.613343862078463	0.786521686940678
5.8	-0.150911632507333	0.989287202229411	2.71107983415025E-06	4.29085558553446E-06	-2.13354993708689E-06	4.26441785143256E-06	-0.509721178744399	0.85735264234552
5.9	-0.0717479118149085	0.998341045929338	-6.93350301416535E-06	-2.32284516365747E-06	-8.29707187341401E-08	6.33431655102455E-06	-0.398080720955058	0.914663040394848
6	0.00693036222317496	0.999644283626254	-1.80276413451256E-06	9.17930790737818E-08	-5.49792825011315E-06	-4.41104941340549E-06	-0.280625180270586	0.956416796048226
6.1	0.0849496209092563	0.996719669535166	4.87847149999291E-08	-9.96813299287086E-06	-9.86497984881586E-07	-3.23284447876282E-06	-0.159518913008727	0.984881301708203
6.2	0.16468175223981	0.986972462166519	-1.02985801099872E-06	3.1309311736112E-06	-1.77211767565763E-06	4.2389338627035E-06	-0.0334521057715447	0.997491628386804
6.3	0.243566654453928	0.969955486808744	-8.09435726116531E-07	2.84843711747486E-06	-2.95568905852757E-06	2.41170420737184E-06	0.0933179267192672	0.993156000340901
6.4	0.319986584987079	0.945857040660894	-5.99524430013885E-06	5.58362050889334E-06	-2.39604089754628E-06	-7.50575074309419E-07	0.217992478339245	0.971931150807174
6.5	0.392414757979251	0.917751133363196	1.41181441458226E-06	-5.30336876088221E-06	-1.4558558415535E-06	-2.38930295440142E-06	0.336778102526107	0.93686984649627
6.6	0.465141744119939	0.88452122742323	3.67945029561873E-06	2.09777821673733E-07	1.13828233109829E-05	-2.70167923237355E-06	0.453357662958492	0.887855980345706
6.7	0.534248673034419	0.84409442779993	-7.80461252144737E-07	8.54343455884043E-07	-3.78926062714881E-06	5.27222738304361E-06	0.561446562099675	0.82305426063279
6.8	0.599668928729483	0.798608019517676	-1.75797769914597E-06	4.52237644959446E-06	1.46197682084703E-06	-8.9246563926474E-07	0.660109517621852	0.745543023789979
6.9	0.661261345597718	0.748013614089398	5.96848340847036E-06	2.24787899030538E-06	-9.31070853153886E-07	2.43561901580095E-06	0.748084788780769	0.656181017781518
7	0.718208582451792	0.692423949767043	1.12962466712755E-06	-4.181761116492E-06	-1.42453279948403E-06	2.94214163677472E-06	0.82341819672572	0.556629348637948
7.1	0.770551808588525	0.633172875959157	2.38429509977494E-07	-7.22645791879597E-07	2.01954110646347E-06	9.22579484411724E-06	0.886198911895419	0.449296498213189
7.2	0.818208662939143	0.569531173996276	1.38290195294526E-06	-2.43067005446697E-06	-1.04890948783542E-06	-8.60343117125009E-06	0.935163370162576	0.334674626113388
7.3	0.860651449372637	0.50208244271573	4.88842570870433E-06	7.24198446048918E-06	-9.75306038204047E-06	2.3835512081289E-06	0.969133975966306	0.214626970580771
7.4	0.898460231799371	0.431125288581975	5.1191376984788E-06	-7.07742739139875E-07	1.90975230637999E-06	-9.69573566416078E-06	0.988512976764498	0.0905675305032274
7.5	0.929739971239584	0.355775654830081	2.72512592825715E-06	-5.35254491851877E-06	2.05982385534979E-06	-7.3287251528681E-06	0.990345058653473	-0.0363521752536806
7.6	0.95398142947773	0.279857567592032	-3.54416229546706E-07	-5.65154547479123E-06	1.68490536330165E-05	3.76155028309574E-06	0.975901823212694	-0.159429842319629
7.7	0.973293487967152	0.202179291267492	3.52679168425756E-06	8.74034535090545E-08	3.04949906802628E-07	-2.93389721431887E-06	0.947973944248576	-0.280386319813078
7.8	0.9863953772869	0.122772129611558	-1.10117812723263E-05	-1.84958331534408E-06	-1.80306003580688E-07	3.44692921328508E-06	0.905247733027228	-0.397510325287236
7.9	0.992461398373392	0.0417522657586467	2.37498018649548E-06	2.01614507533726E-06	-6.98884556972543E-06	-4.66620337512795E-06	0.847474939621688	-0.508914279363971
8	0.989598696049271	-0.03767506257183	2.37023055554754E-06	2.93084190063075E-06	-9.37750843244988E-06	-7.51463201372637E-06	0.774743303489408	-0.609795034259313
8.1	0.984145236381982	-0.11503689665734	3.80603775793037E-06	-3.08430448536717E-06	2.12802864291877E-06	-3.19080593819101E-06	0.694003347465366	-0.701251274739571
8.2	0.972377275539882	-0.193516890327765	-4.02736907072306E-06	1.43512934261211E-06	-6.74895475000046E-06	3.93217263821482E-07	0.601073585425302	-0.783441555142682
8.3	0.953445455914154	-0.271317225641689	9.86539270205761E-06	2.46543487429315E-07	6.29658222604399E-06	1.04178661625737E-05	0.497863157534061	-0.852913532472761
8.4	0.927914420410418	-0.347413708208562	1.29765259802407E-06	2.55105045295399E-06	3.47036675034661E-06	1.8065480891136E-06	0.38666639696972	-0.909118146524986
8.5	0.896160841040119	-0.421224835659132	-4.82099020382605E-06	4.99571186385008E-06	2.84044648065862E-06	-3.04140000185162E-06	0.268098564075886	-0.950343349048987
8.6	0.858542630198515	-0.492218215322444	-4.48784706819875E-06	2.11849750071384E-06	-2.9865385601624E-06	8.14289261175011E-06	0.146512396277751	-0.975832436541137
8.7	0.815216902171385	-0.559853193153463	-1.01316092459076E-06	1.22282142397476E-06	-6.2148323329844E-07	3.46753787918366E-06	0.0225730363216587	-0.986206848400143
8.8	0.766671280908761	-0.62337724618533	-1.56417060362588E-06	3.08702024985935E-06	-5.99597645850755E-06	1.32212109715818E-06	-0.101084222885546	-0.981130728936478
8.9	0.713793273378218	-0.682800460645514	3.16036212709331E-06	-1.84669118744653E-06	-3.16370515219192E-06	-4.3925758051516E-07	-0.223016771889077	-0.960969965946053
9	0.655781134536151	-0.738336917020203	-7.27764907825982E-06	1.3867054075195E-06	-3.9729308333564E-06	7.44620711442869E-07	-0.343371042960178	-0.926772876310617
9.1	0.593325797501313	-0.788183919238548	-3.36361512975699E-06	-1.86195875382811E-06	-9.70467357372079E-07	2.13921193554794E-06	-0.458187745847077	-0.874843081825901
9.2	0.527063802342053	-0.832914312202758	5.96609860321028E-06	-1.67379760278908E-06	2.03446895485405E-06	8.45570230950469E-06	-0.564270472053243	-0.810224051943254
9.3	0.457553176901199	-0.872324360633483	-3.32335834106195E-07	1.07063317346546E-06	1.3712709075608E-05	1.17275545619196E-05	-0.661606855055301	-0.732782386512878
9.4	0.3845891152554	-0.906583990149818	1.71325029105231E-06	-2.66836060293242E-06	4.29211890185309E-06	1.73011279189762E-06	-0.748579478347865	-0.644280786571269
9.5	0.306194431270012	-0.933387507825321	-6.52909413590436E-06	-4.82517860991866E-06	-1.98614452058251E-06	-5.6744572441342E-06	-0.824792530219331	-0.542846705057439
9.6	0.228293305482013	-0.951668162659009	-1.16283287503285E-05	-1.79125410712979E-07	-5.92452959186434E-06	-3.95434752387798E-06	-0.884906633874522	-0.434219325455683
9.7	0.149439297018696	-0.965320158805469	1.45755028074808E-06	-4.84882880190054E-07	-2.89271494100602E-06	1.65108434204469E-06	-0.932389897772837	-0.319387161213479
9.8	0.0692317077585502	-0.972376205921162	2.20215778402099E-06	1.37974132956095E-06	1.49979467042336E-05	-3.57378248524843E-06	-0.96474591043596	-0.199438632783458
9.9	-0.0116231417302384	-0.97205889546713	-3.38728316952409E-06	8.93327075935667E-06	1.3698507913437E-05	4.87845711030889E-06	-0.981940936120944	-0.0764061016155035
10	-0.0906930292632201	-0.963483244680363	-3.60853731409208E-06	1.62317057097981E-06	1.90152075044197E-05	-1.81001224051965E-05	-0.983634562155707	0.0478213939831337
10.1	-0.167088129300263	-0.94954310262787	-1.46088254533617E-06	2.29166248566549E-06	-8.37778628497549E-06	-4.25087436209725E-06	-0.969709094916098	0.171491018282731
10.2	-0.241898391609547	-0.929922561530668	-2.29683284354849E-06	-1.22534587187927E-06	-1.28065024569645E-05	7.215994447092E-06	-0.939841348359562	0.292195590361573
10.3	-0.31366707076512	-0.904521553151094	5.73335438294579E-06	3.88420875030073E-06	-6.10212636540465E-06	1.38335515791905E-06	-0.895328011594164	0.407467460916694
10.4	-0.383156692886606	-0.874435103560155	2.08710122633858E-06	1.03499929324447E-06	6.83432809209254E-07	-8.15902087590822E-06	-0.836590625245695	0.515014451121659
10.5	-0.450137616372279	-0.838000619465693	4.33020644689947E-07	-3.03489603209697E-07	-6.5188081194886E-07	-5.58316856725001E-06	-0.767898101553894	0.614460752151174
10.6	-0.512147456455819	-0.795813494569176	5.0481659767999E-06	-2.58680034678492E-06	-9.67493488932451E-06	-7.81521793874833E-06	-0.685314866279843	0.70745036863755
10.7	-0.569678947479537	-0.749760327379209	-2.79230022950623E-06	-4.96940662957361E-07	-5.18765013161274E-06	-7.10881283972057E-06	-0.590918844169432	0.787745139968638
10.8	-0.622607293137438	-0.70110074682051	-3.58527484870764E-06	-3.41484937321393E-06	-1.18642050544113E-05	9.07093107626869E-06	-0.487541414546829	0.85490669094288
10.9	-0.67207757491584	-0.651217944095566	-1.12817317705009E-05	-1.03468254729237E-05	-4.44891209044555E-06	1.08666750277224E-05	-0.377855229819826	0.908404230443018
11	-0.720601309081539	-0.598847955779467	1.00358010013609E-06	1.40168595254083E-06	8.61528332362659E-06	-5.45891134686608E-06	-0.261818682413479	0.949678645241929
11.1	-0.764013360039367	-0.541150180438189	-3.24429206275331E-07	-3.60890644661532E-06	1.01179315422119E-05	-1.01342595777037E-05	-0.140205905925285	0.974758193589677
11.2	-0.803643134706801	-0.482408765680358	-1.02280323222794E-06	-3.88803760877368E-06	2.15067347779808E-06	-6.26807368612167E-06	-0.0164431323236958	0.984213389717608
11.3	-0.840396483382345	-0.420417100666387	1.63686291216553E-06	-1.19653940399817E-05	3.54600701803731E-06	-2.80008019605955E-06	0.107565081482075	0.978028254143534
11.4	-0.873101530959419	-0.355198895575226	9.81006146042605E-07	1.92312050302424E-08	-5.66209065611725E-06	6.41915214268769E-06	0.230282950047849	0.956270938195673
11.5	-0.900847792242942	-0.285246381295242	6.50495929081387E-06	-1.23043864071147E-06	8.18548404507821E-06	-3.07544874770822E-07	0.347989139975972	0.91896300360047
11.6	-0.921671353231813	-0.214619892496825	-6.27946520846223E-07	-5.29049454577532E-06	1.43140596891523E-06	-3.05668262598414E-06	0.460797452843227	0.867524791511692
11.7	-0.937935721280567	-0.141373135979842	-8.2510793344036E-08	-6.00342625041812E-06	8.90694052636623E-07	-2.63712583636359E-06	0.566114769677206	0.801945804093443
11.8	-0.948671396443987	-0.0655779017845496	-1.06198367078887E-06	-7.3783920685917E-07	5.12586171109384E-06	1.08191093699845E-06	0.662370013237304	0.723516823028246
11.9	-0.953434798516365	0.012507869922423	-3.18300765727536E-06	-5.17700481836313E-06	-5.33239203067122E-06	-7.96230307457821E-06	0.746632390421178	0.633354948155295
12	-0.951414219395413	0.0917266189069687	-2.92601812638058E-06	1.62105442590372E-06	-1.65743544378482E-05	-8.72733382798354E-06	0.815708737963111	0.535319820933864
12.1	-0.942116639024894	0.170686224715035	8.26015556042994E-07	-1.55189271729441E-06	7.7455901165122E-06	1.22168638081831E-05	0.875433825473645	0.432432660545116
12.2	-0.925117393361624	0.24885282050578	-4.1043056394103E-06	5.48946038503721E-06	3.96190630001114E-07	3.29105355074512E-06	0.92353800286411	0.321031828267854
12.3	-0.901829920950017	0.324866671198521	7.74697358247314E-06	6.38860745935762E-06	3.57325664448762E-07	1.08229953498384E-05	0.957432597147574	0.203256412098792
