# GHZ S RI R 50
0.2	0.985813745070534	-0.156996982705949	2.56447046144069E-06	2.24958137548962E-06	6.5697343671921E-06	-4.86920617414821E-06	-0.966295360054796	0.251751855714395
0.3	0.969720153089378	-0.234156909970576	-8.74451310723342E-07	-5.45344048064312E-06	-3.46735180772022E-06	-7.94452374186164E-06	-0.926612055991477	0.37174848685846
0.4	0.948145175366783	-0.30949085319602	-7.27815920222462E-06	-9.89976507893756E-07	4.44081576549762E-06	1.54420492397335E-06	-0.87182767578644	0.485446264203436
0.5	0.921283448965566	-0.382930259575918	6.1991148429817E-06	2.10413177066258E-06	-2.41390128061773E-06	-1.907649010852E-06	-0.803367439558058	0.591556309960302
0.6	0.888321666993389	-0.454140681748837	-1.05511570448052E-05	2.46242631559687E-06	-2.21859574369867E-06	-1.00678183654604E-06	-0.721915373783248	0.687979304367473
0.7	0.849986464175403	-0.522077794422133	2.78394074177343E-06	-1.17261339962712E-06	-2.98638847919423E-06	5.78888680459525E-06	-0.629304544131245	0.773442206619766
0.8	0.806375985780797	-0.587117101350984	1.17459158705932E-06	-8.47566478196918E-06	-6.62095161539436E-06	-3.06849309341016E-06	-0.526605872971102	0.846413315390648
0.9	0.757749932900697	-0.648601985856087	-1.1467105061726E-06	-6.80672935930095E-07	2.54909307790133E-06	6.54185188958455E-06	-0.415687292121873	0.905725255835591
1	0.704337238487221	-0.706113791946781	-2.74429362661507E-06	-3.22110250134731E-06	-4.05865885341386E-07	-7.31378754914869E-06	-0.298451057384405	0.950375170661402
1.1	0.647480650376164	-0.759361827205545	1.80623813433024E-06	-4.93903530750855E-06	2.26949414719427E-06	-5.13242863632102E-06	-0.176357145165185	0.980133389610787
1.2	0.58520809627041	-0.80889211703365	-2.49511022309377E-06	2.49013067331171E-06	9.25858723995107E-07	-9.10331288875176E-07	-0.0512505537928726	0.994007993623501
1.3	0.517588514126763	-0.853466263147842	-1.53751359062158E-06	7.18837114204132E-07	-1.35519658282369E-06	1.46248731005924E-06	0.0744735670140021	0.992338000672953
1.4	0.446804212138106	-0.892143127573859	3.92161870920847E-06	-3.23988593933941E-06	2.70242258893265E-06	1.09371236293231E-05	0.199632437158763	0.97454578963233
1.5	0.373828950607578	-0.924459410455515	-5.33623325843982E-06	1.11129857699437E-06	6.58645615877301E-06	-7.20797617343987E-06	0.321300484396768	0.94128013441668
1.6	0.300092204920461	-0.950854845244262	1.77211454303326E-06	-7.73869925093495E-06	3.63213710595898E-06	1.38045503681911E-06	0.437260291418695	0.892919830127277
1.7	0.225553264048933	-0.970998094623228	-1.94179071567203E-06	-9.68041426650966E-07	-2.36782358938547E-07	-2.08652732837403E-06	0.545535610472546	0.831120998258059
1.8	0.148872196380756	-0.985572526992766	2.85390841263045E-06	5.27644898196555E-06	5.49464783901633E-09	2.03120172380619E-06	0.645572420142249	0.755842581769032
1.9	0.0713613006222358	-0.994074138103956	5.67101855893401E-06	-2.63519962573722E-06	-2.99707799572161E-06	4.17969385103463E-07	0.734872441572673	0.668691404895726
2	-0.00556151084321858	-0.996339136335013	-1.54909483640577E-06	-2.02491917413309E-06	3.2184130480432E-06	1.14519343912224E-05	0.812587955340775	0.570600328935104
2.1	-0.0840236668985247	-0.993247301490223	-7.55115181415506E-06	2.45896678688419E-06	1.21004250758278E-06	5.14450510455259E-06	0.877230816399562	0.464174604423669
2.2	-0.160743018453659	-0.983909816149689	-8.82183013830255E-07	1.39457281142379E-06	3.00762095809649E-06	7.77379354292198E-06	0.92850166840758	0.350465022352237
2.3	-0.237960233273791	-0.967975791083216	1.8377351390527E-07	7.45195745073386E-06	7.40139064801686E-07	9.38147930675005E-07	0.964600537064936	0.231619230873125
2.4	-0.313863623834226	-0.945640252173628	1.58261636233616E-06	7.17138960147851E-06	1.52403701990895E-06	6.3849882361736E-06	0.986077687614499	0.108160050200807
2.5	-0.38701647824663	-0.918061885218064	4.38749661559254E-06	-2.31458593410862E-06	-1.91628591668071E-06	-7.56711120269181E-06	0.991294521705102	-0.0162889868970989
2.6	-0.458114257706057	-0.884440814475048	6.76482337091977E-06	-5.94263866362145E-06	-1.10913102008879E-05	1.08232687133519E-05	0.981188025656702	-0.140776948020856
2.7	-0.526517792611546	-0.84543485892885	-4.44013329922493E-06	9.13593117121E-06	-2.87029148786474E-06	-9.1530880240853E-06	0.955248507251475	-0.262939410115343
2.8	-0.590714301280265	-0.801700658562453	2.45574666482238E-06	1.14378391388482E-06	-3.12651577881534E-06	1.24190257881653E-06	0.915173239591399	-0.380181377803517
2.9	-0.650896839250975	-0.753617725115862	-5.50033684917124E-06	6.00887843981411E-06	-9.18878361147616E-06	-2.88631754570805E-07	0.860492242470726	-0.49155202821995
3	-0.707974471029238	-0.700654479082501	4.73381054564783E-07	-1.47236134114207E-06	1.13219222261766E-05	1.47113886019721E-06	0.792174770071359	-0.595879125941923
3.1	-0.760885112268283	-0.643536792158129	2.39960683604269E-06	1.04980103217223E-05	4.32408723538356E-06	2.17657528908084E-06	0.711351267339778	-0.690043953826312
3.2	-0.808908091137621	-0.582531488266243	2.10177818676523E-06	6.46710019485569E-06	4.00529455086571E-06	-1.06040486673716E-05	0.619582771267462	-0.773536890207233
3.3	-0.852091550824236	-0.518088801839226	3.07973057467153E-06	4.96336273416743E-06	-2.22080273642976E-06	-9.67009711085443E-06	0.516972987550547	-0.845445057849281
3.4	-0.889459017960416	-0.450690093519162	2.12655479279169E-06	-2.60369925017084E-06	5.9584459625637E-06	1.38490628762652E-06	0.407573924774355	-0.903725594484385
3.5	-0.922133127559513	-0.378832160621167	-3.2399699598896E-06	9.47031486950785E-07	-2.07287544413958E-06	3.4239053124905E-06	0.290283552153639	-0.948084648630501
3.6	-0.948689138713724	-0.305299101507685	-1.81321694761815E-06	-3.74304681029411E-06	-7.82179817956327E-06	4.10713304358318E-06	0.168748219768694	-0.976705103626742
3.7	-0.969555612490765	-0.230373107469793	8.21185968541938E-07	-8.3261733603846E-06	1.0767681757412E-05	3.69539621609896E-06	0.0443553158066269	-0.990102061805889
3.8	-0.984721561660235	-0.153051953775117	9.22919166624425E-08	1.5467790171506E-06	-6.51762692557492E-06	5.95235886296065E-06	-0.080115559256776	-0.987962257527338
3.9	-0.993323131045337	-0.075333102166226	-2.62923929400451E-06	-5.02712240961317E-06	-3.70116588535949E-06	8.02687591344703E-06	-0.205379827543532	-0.970493960030351
4	-0.995886949177673	0.00346604229640484	7.12880399620966E-06	-3.84596457382083E-07	-1.04535056587219E-06	-1.20523676705304E-06	-0.326031686679694	-0.937211036283653
4.1	-0.992726908716689	0.0815893847626552	6.19503139724137E-07	-4.44085930118218E-07	7.35135015485388E-06	-4.75862178682889E-06	-0.441975030150537	-0.888397379099403
4.2	-0.983503745830642	0.159626510977643	3.20601504721447E-06	2.10223440682006E-06	-7.18637906578345E-07	-7.61839871914854E-07	-0.55030082521499	-0.825052389435025
4.3	-0.968264194684749	0.235816384827161	-3.18967020836213E-06	1.37290284030483E-06	-4.99664874872043E-06	2.98283692717654E-06	-0.649422087010793	-0.749601364687437
4.4	-0.946867983865823	0.31075336681376	8.03909996999479E-07	2.64277892687721E-06	1.55459679744363E-06	-8.33313695330744E-06	-0.738209167831546	-0.662320854522726
4.5	-0.919487224962577	0.383571792326777	1.82456148573571E-06	-9.38125869682981E-07	7.63163493383873E-06	-2.49052869114564E-07	-0.815928560336283	-0.564835857385227
4.6	-0.886638109839553	0.454936069913142	-7.39064080127271E-07	6.13323367601126E-06	-1.23427921185156E-05	-6.50895117763766E-06	-0.880701979784588	-0.457794356878643
4.7	-0.848347965230225	0.522363282109075	1.19907383221345E-06	2.5161831399605E-06	1.4198586952409E-06	1.8711346902603E-06	-0.931717032000914	-0.343589605981568
4.8	-0.804067218726398	0.587740416712567	-5.2039104347136E-06	1.11374536701779E-05	5.22543925340975E-06	9.71412201407361E-06	-0.967499774371403	-0.223360476943708
4.9	-0.755217169717792	0.64862241588781	1.19567224410453E-06	2.93850407880147E-06	-4.71754549173089E-07	-6.92553769323333E-06	-0.987789705809412	-0.0995128791230801
5	-0.702198469252127	0.705802060392356	4.75258179905418E-06	-9.03331434935285E-07	-3.7548066895631E-06	2.42174030324758E-06	-0.992552845509942	0.025767871239144
5.1	-0.644035772551675	0.759168232200499	4.14339697571413E-06	-1.35415361761805E-07	-2.64763634839384E-06	-9.83890817712629E-06	-0.981388855293719	0.150919427325953
5.2	-0.582222919031384	0.807872542622131	2.64795767561663E-06	-1.5022653154891E-05	1.37742875973194E-06	2.83057743075989E-06	-0.954510311507233	0.273437097977105
5.3	-0.516887456064935	0.851737096433206	-8.73141847872086E-06	-7.94686251800732E-07	-1.13796098894721E-06	1.57998504485292E-07	-0.912640972370989	0.391556369200191
5.4	-0.4482291596057	0.890357921033864	-7.19036197467095E-06	-1.10920861681474E-05	-1.37826601387379E-05	1.12082330617412E-05	-0.856170567753669	0.503130444763704
5.5	-0.376801266252658	0.922775879463206	1.90872801975651E-06	9.10511933633145E-08	-2.25144198728771E-06	1.78541038465846E-06	-0.787082283989769	0.606783323898772
5.6	-0.303375772387563	0.949229329915799	-2.41837958042893E-06	3.51919787163778E-06	-1.3464201673546E-06	1.29060884645278E-06	-0.704790300556688	0.701138759210404
5.7	-0.22796428513848	0.970546137902656	1.30758391629235E-06	1.23615827722981E-06	5.77637094939174E-06	-1.11494527562844E-07	-0.611362753153664	0.784074938918435
5.8	-0.15095569655481	0.985545505062728	2.70376004476708E-06	4.27339468160953E-06	-2.1230644532712E-06	4.25004991460302E-06	-0.508155182416574	0.854409090574399
5.9	-0.0728313576986671	0.994778252083353	-6.90281583980433E-06	-2.31540527557487E-06	-8.49471861320402E-08	6.30703251441136E-06	-0.397385174996507	0.911281088649714
6	0.00577465051179356	0.997284279233911	-1.79690090200096E-06	8.86158298261467E-08	-5.47257568478626E-06	-4.40510192847305E-06	-0.280591089608445	0.953569188632265
6.1	0.0841171569271829	0.993770933459372	5.94825301110216E-08	-9.93715307275641E-06	-9.79918725294797E-07	-3.22388804469355E-06	-0.159578636295693	0.981606760372942
6.2	0.163118486036092	0.983881717011979	-1.03104760623646E-06	3.1193373866351E-06	-1.77250844725444E-06	4.22269238171917E-06	-0.0344383616651072	0.99408084233165
6.3	0.241382480558427	0.967261445277063	-8.1223866063374E-07	2.83880366245033E-06	-2.95154498679214E-06	2.39946170219019E-06	0.0914793505726055	0.990202539421545
6.4	0.317809805815052	0.943999389864288	-5.9924351606627E-06	5.56139209883014E-06	-2.3896941865293E-06	-7.53196165674424E-07	0.215954411362726	0.969957445074359
6.5	0.39127919516318	0.915216385988974	1.41099944156249E-06	-5.29217828719893E-06	-1.45202112663247E-06	-2.38505848076201E-06	0.335743298820752	0.934476522814356
6.6	0.462432320172317	0.881322730525174	3.66738731443374E-06	2.11826501996803E-07	1.13479888520925E-05	-2.68449797945313E-06	0.450803097593973	0.884866236361769
6.7	0.530667491841342	0.841704494006675	-7.79135504531809E-07	8.50382026497511E-07	-3.78446879555483E-06	5.24928369272891E-06	0.557993694943798	0.820942497259665
6.8	0.595671836585248	0.796991380789877	-1.76095875849049E-06	4.50420163026573E-06	1.45892036337365E-06	-8.8672710217034E-07	0.656220074061992	0.744318018027029
6.9	0.657040239633057	0.747220272117498	5.94238147841087E-06	2.25558344843006E-06	-9.34168058964628E-07	2.42493194428114E-06	0.743980706329393	0.655958366166703
7	0.714182190599226	0.692334064377067	1.1418436175149E-06	-4.16687445481346E-06	-1.43150346190382E-06	2.92938846207637E-06	0.819719622628637	0.557303600159477
7.1	0.766501675628609	0.633435001296788	2.40232945874344E-07	-7.20611070233228E-07	1.98741975846751E-06	9.21545625993074E-06	0.882621546557973	0.450304924702917
7.2	0.814099672327189	0.570304835790572	1.38712415919372E-06	-2.42231501838991E-06	-1.02296790740123E-06	-8.59043944350196E-06	0.931613489314353	0.336244971324653
7.3	0.856471575797363	0.503325430059218	4.85981868503066E-06	7.23945646118115E-06	-9.73893848948246E-06	2.35372542981365E-06	0.965566716638348	0.216747209800912
7.4	0.893848991227992	0.433069328527407	5.1052580477066E-06	-6.92853253532415E-07	1.92802361723612E-06	-9.66136658619851E-06	0.984544142979429	0.0937628102534111
7.5	0.925522190732346	0.359546399346943	2.73818125119503E-06	-5.32072470112736E-06	2.08394193520451E-06	-7.29241186787964E-06	0.987626858740951	-0.0308658098762622
7.6	0.951118105994809	0.283985839455823	-3.2502561285924E-07	-5.63977482084636E-06	1.67896298447685E-05	3.837612205796E-06	0.975194289099761	-0.154126106098597
7.7	0.971119171076972	0.206673326964367	3.51923096091252E-06	1.06458636969176E-07	3.20335201848577E-07	-2.92634118719179E-06	0.94845819525838	-0.275021679797054
7.8	0.98502360429955	0.12764880763902	-1.09862174287067E-05	-1.91369108209593E-06	-2.00894098330974E-07	3.44133553353106E-06	0.907103381457124	-0.392381030274987
7.9	0.992268653168846	0.0471256046435953	2.3611995359728E-06	2.03149040801442E-06	-6.95667612057156E-06	-4.71159369858118E-06	0.850966918736018	-0.504331716046321
8	0.991753865049505	-0.0332661400936778	2.35773853853079E-06	2.95128888575665E-06	-9.35252151872076E-06	-7.58681974158757E-06	0.779863798560416	-0.607875386743246
8.1	0.985593497221043	-0.112243096906646	3.82516564988445E-06	-3.07409911780609E-06	2.14470125798475E-06	-3.18762484924011E-06	0.697284402272364	-0.700687291068287
8.2	0.973500067903746	-0.190644210045043	-4.03751624226269E-06	1.42106670788517E-06	-6.7581233949172E-06	3.67375024892481E-07	0.603948116625635	-0.782713452028972
8.3	0.954730865913441	-0.268339498510152	9.87404375155241E-06	2.85094989104349E-07	6.26225797300974E-06	1.04524649471717E-05	0.500783392415623	-0.852276840617893
8.4	0.929561730516562	-0.344432709068422	1.28907444814903E-06	2.55798298418629E-06	3.46633331413602E-06	1.82107515506883E-06	0.389788766179402	-0.908592029876422
8.5	0.898178420787333	-0.418478373287032	-4.84488224549834E-06	4.97742129932682E-06	2.85494528543762E-06	-3.03067192257504E-06	0.271875471536061	-0.950525630671113
8.6	0.860851801054087	-0.489606046556138	-4.50351856845183E-06	2.10049058159372E-06	-3.02813652166456E-06	8.13970796842717E-06	0.149850415241017	-0.977120689437454
8.7	0.817978939844782	-0.557502787234144	-1.02045278438017E-06	1.22075549047364E-06	-6.3782012131156E-07	3.47150937100892E-06	0.0253195210356062	-0.988053865284086
8.8	0.769821723505137	-0.621472704754108	-1.5802743478138E-06	3.0886824580986E-06	-6.01635735548231E-06	1.30188124594765E-06	-0.0991045797301809	-0.983373062981357
8.9	0.717107660172928	-0.681341469278118	3.1752882102997E-06	-1.84269423704188E-06	-3.17178311172109E-06	-4.50053515629481E-07	-0.222011967022795	-0.962900706033741
9	0.659573367080727	-0.736942803858018	-7.29711186296266E-06	1.37182227369645E-06	-3.98352518208723E-06	7.36468558372136E-07	-0.341676660632822	-0.928002384987215
9.1	0.597770608020503	-0.78766305504243	-3.3664925310252E-06	-1.87604141368506E-06	-9.78904663858688E-07	2.14164935058981E-06	-0.456436405631952	-0.877198322948843
9.2	0.531598663102657	-0.833263897607704	5.98598620179086E-06	-1.662137350441E-06	2.01707083384254E-06	8.48298397410902E-06	-0.562961774107774	-0.813049366430627
9.3	0.461900493483893	-0.873329767423257	-3.36001521103246E-07	1.07241866003029E-06	1.3715773816261E-05	1.17931114386855E-05	-0.660705859510235	-0.735993725818301
9.4	0.388805798836129	-0.907540005957116	1.72480444263308E-06	-2.66861343391076E-06	4.29562625355545E-06	1.74660990497476E-06	-0.74768134534001	-0.647759469037451
9.5	0.31179271559451	-0.935327330736738	-6.52798990950366E-06	-4.86893154096894E-06	-1.96723653398058E-06	-5.70078067670762E-06	-0.824641546934037	-0.548326844318722
9.6	0.232798247580382	-0.955531696029968	-1.16783998240139E-05	-2.18921190558251E-07	-5.93707898517436E-06	-3.99145705129878E-06	-0.887372134807429	-0.439306771212657
9.7	0.152904277657225	-0.969556319510744	1.46518733843999E-06	-4.83036895542762E-07	-2.90973810663694E-06	1.65040874092079E-06	-0.93579414820803	-0.323372614092193
9.8	0.0720935857638276	-0.976878673916327	2.20849335518839E-06	1.39124043801553E-06	1.50729428637982E-05	-3.55273687123174E-06	-0.968725445630951	-0.202578131338562
9.9	-0.00912077287475801	-0.977029701292222	-3.42305610590423E-06	8.96824226581354E-06	1.37528296878407E-05	4.93181266588222E-06	-0.986296705877378	-0.0786886292459224
10	-0.0890567936660385	-0.969412105254619	-3.6289000719893E-06	1.62545909883699E-06	1.91376279893422E-05	-1.81592532658995E-05	-0.988185469308263	0.0460015040718847
10.1	-0.166809671546587	-0.955503462203359	-1.47105971655168E-06	2.30068894483789E-06	-8.41228047723064E-06	-4.28283393100912E-06	-0.974990603699741	0.17034238959448
10.2	-0.242605688212406	-0.935724787334946	-2.30676298937927E-06	-1.23417442602774E-06	-1.28786814832313E-05	7.23647362531976E-06	-0.945593176971188	0.292133732487147
10.3	-0.315350559588951	-0.90992908306758	5.75873187937887E-06	3.90990807257461E-06	-6.13474712979482E-06	1.38422575426121E-06	-0.901386918880272	0.408657941234267
10.4	-0.385598028410909	-0.879087280764732	2.09784507958267E-06	1.04239957451918E-06	6.9372343139239E-07	-8.20370127459851E-06	-0.842677662372374	0.518046531912483
10.5	-0.452803266888126	-0.841701087069283	4.35347220710618E-07	-3.05292484119718E-07	-6.56994621312282E-07	-5.6140363576851E-06	-0.772187368292106	0.61895058556158
10.6	-0.514787014562214	-0.799276570881328	5.07273811397244E-06	-2.60193329662017E-06	-9.72712136137595E-06	-7.85099772171667E-06	-0.688735213067436	0.711965247336908
10.7	-0.572628423629518	-0.753025689642379	-2.80702684106968E-06	-4.97806269519799E-07	-5.21877876609918E-06	-7.14237302180788E-06	-0.593621153235637	0.792898452985339
10.8	-0.626207685900176	-0.703953784892338	-3.60816014160252E-06	-3.42818894398561E-06	-1.19147381791977E-05	9.13282048037499E-06	-0.489095540988231	0.860610595222282
10.9	-0.676188106633871	-0.652749887258524	-1.13556379327139E-05	-1.03698294671249E-05	-4.44583472709966E-06	1.09259682797545E-05	-0.377765816931475	0.914089789786863
11	-0.723298606758641	-0.599760345706745	1.00913105075208E-06	1.40483056510233E-06	8.63571534062999E-06	-5.49064741949968E-06	-0.261050211848844	0.953936887435397
11.1	-0.767252169973995	-0.542905413897341	-3.30177926944968E-07	-3.62360814044931E-06	1.01479239052716E-05	-1.01889646657304E-05	-0.139549167924533	0.979407721674016
11.2	-0.807616497199039	-0.483638906891637	-1.03444541377518E-06	-3.90330197265673E-06	2.14865544657148E-06	-6.29965278844868E-06	-0.0147281716934598	0.989009413036803
11.3	-0.844661585360876	-0.420867307235962	1.6157108576611E-06	-1.2020520836975E-05	3.55461090611404E-06	-2.82042621815706E-06	0.110359236875272	0.982455762318564
11.4	-0.87705808526963	-0.3549489120987	9.84970290859704E-07	1.68045936766762E-08	-5.66830675255901E-06	6.4592188490497E-06	0.233947056159071	0.960044593897146
11.5	-0.90490336591257	-0.285353981718515	6.52977261058562E-06	-1.25252686134476E-06	8.21991105858915E-06	-3.30000612433413E-07	0.352306164187678	0.921887104255504
11.6	-0.92656981315818	-0.21365966021494	-6.48623237191451E-07	-5.31083902343056E-06	1.42708411320551E-06	-3.07454433625958E-06	0.465490395250933	0.869549621898549
11.7	-0.942614008084592	-0.139179843234374	-1.05724577962835E-07	-6.02577987757537E-06	8.83996966620383E-07	-2.65048125810721E-06	0.570984754009454	0.803082386352962
11.8	-0.952837230675595	-0.0623060250877873	-1.0683953691466E-06	-7.36039113429946E-07	5.14696012231014E-06	1.06509582119832E-06	0.667079749020291	0.723889587866104
11.9	-0.956866246573543	0.0168105180017258	-3.21178994666556E-06	-5.18060711788569E-06	-5.3779638962635E-06	-7.96621648555261E-06	0.751180909471513	0.633722290012447
12	-0.953305293299845	0.0965966942936012	-2.92966670364432E-06	1.63820243657921E-06	-1.66658656313093E-05	-8.69178031280346E-06	0.821877687405627	0.534870680693061
12.1	-0.942745435035662	0.175544634824801	8.2134666787143E-07	-1.56006799053489E-06	7.82305414745493E-06	1.22166875146233E-05	0.88107466173072	0.43004645804791
12.2	-0.924817763047237	0.253186913514173	-4.0901850856046E-06	5.5218668123644E-06	4.11949663890724E-07	3.29768024305904E-06	0.928643709731607	0.317614648319742
12.3	-0.901288837243958	0.328671769644336	7.79630558080858E-06	6.36945929615784E-06	4.07998533138229E-07	1.08492441538048E-05	0.961903158545485	0.198639733433496
