# GHZ S RI R 50
0.2	0.985305538281063	-0.156939956551695	2.56382155218638E-06	2.24795754561959E-06	6.5656010183742E-06	-4.86850823412538E-06	-0.965768971534855	0.252038033578186
0.3	0.969168806699125	-0.233993447913986	-8.7553451352521E-07	-5.45011488602828E-06	-3.46769384146968E-06	-7.93904517861588E-06	-0.925844550116749	0.372029451158944
0.4	0.947527585594103	-0.30924700513533	-7.27325276071988E-06	-9.86784614902172E-07	4.43814225215266E-06	1.54158002339764E-06	-0.870777957499969	0.485586240003381
0.5	0.920507700628102	-0.382449007522219	6.19360775500828E-06	2.10068641593012E-06	-2.41200496688338E-06	-1.90525637200341E-06	-0.802167133886395	0.591296735733385
0.6	0.88767596182006	-0.453371890113329	-1.05410373319898E-05	2.46103170058624E-06	-2.21660039105887E-06	-1.00564379408742E-06	-0.720824405119597	0.687560734096251
0.7	0.849474244722298	-0.52116332794804	2.78109979427279E-06	-1.17167317002675E-06	-2.98298652120114E-06	5.78340370198741E-06	-0.628119670331832	0.772833035557808
0.8	0.806031472452795	-0.586085534150146	1.17322490484133E-06	-8.46679193220134E-06	-6.61405451811857E-06	-3.06516901887473E-06	-0.525428449377701	0.845484012585613
0.9	0.757664242898299	-0.647582439616639	-1.14549031450698E-06	-6.80047536438844E-07	2.54605995714656E-06	6.53530101957862E-06	-0.414670933930793	0.904476494044688
1	0.70434123418666	-0.705479916793684	-2.74179046332075E-06	-3.21815295948068E-06	-4.05507694970706E-07	-7.30710059872013E-06	-0.29774240112181	0.948883067740009
1.1	0.647071899705067	-0.758847626762052	1.80398523787319E-06	-4.9344413343588E-06	2.266773243724E-06	-5.12769493787305E-06	-0.176124163403823	0.9785855347925
1.2	0.584604406517171	-0.808222184157661	-2.492667950753E-06	2.48791406572974E-06	9.24953078262781E-07	-9.09521558651758E-07	-0.0515328478889971	0.992722744050994
1.3	0.516970127156017	-0.852610402460633	-1.53629065602406E-06	7.18149682709594E-07	-1.35416983596526E-06	1.46119817192667E-06	0.0738537991272827	0.991502990566709
1.4	0.446319936025327	-0.891123638455193	3.91904504915789E-06	-3.23638762781621E-06	2.69791052026933E-06	1.09286288949525E-05	0.198899111810053	0.97389513826441
1.5	0.37318774865497	-0.923066471833033	-5.33064779745936E-06	1.10828107606117E-06	6.58150585470968E-06	-7.19773800734842E-06	0.32035326464959	0.940518620758502
1.6	0.299904070532489	-0.948646907709134	1.77468871419394E-06	-7.72612687810483E-06	3.62586890228628E-06	1.38085589526805E-06	0.436192790349509	0.892115246640639
1.7	0.225984391731533	-0.968619476793183	-1.93780002937873E-06	-9.68313235528643E-07	-2.34459680303538E-07	-2.08343025546659E-06	0.544305615504999	0.830222971950363
1.8	0.149704430864619	-0.983211596608696	2.84359707724858E-06	5.27078548486335E-06	3.32691375271114E-09	2.0278597863835E-06	0.64415666405643	0.75495943243202
1.9	0.0724432101708263	-0.991773568892487	5.66389529661944E-06	-2.62440258224554E-06	-2.99225510559443E-06	4.1397934181068E-07	0.733254798391575	0.667796752586034
2	-0.00428259509263207	-0.993916087365323	-1.54318116517174E-06	-2.02274449197811E-06	3.19653452671504E-06	1.1432297269613E-05	0.810333379442446	0.569944586390124
2.1	-0.0822960426169188	-0.990796041579503	-7.54069481779951E-06	2.44115385846426E-06	1.19881237162579E-06	5.1365783401718E-06	0.875034523311419	0.464404159867064
2.2	-0.158557631182201	-0.981571037321381	-8.83186291573613E-07	1.39039161870941E-06	2.98763392460744E-06	7.76529342861016E-06	0.926641073111105	0.351015121442588
2.3	-0.235281015327675	-0.965913249153896	1.682022127802E-07	7.43938458192197E-06	7.36932838893557E-07	9.38032591586035E-07	0.962890003273551	0.232368955208483
2.4	-0.310726046290055	-0.944085123636233	1.56341662301354E-06	7.16333341216191E-06	1.50675476242848E-06	6.37808180006039E-06	0.984392385124058	0.109228574274195
2.5	-0.383734805477739	-0.917241080798042	4.38777695228336E-06	-2.29991083625561E-06	-1.89373719318313E-06	-7.56210882013831E-06	0.989805620223762	-0.0145992364585491
2.6	-0.45497109814741	-0.884075312750546	6.77405949367239E-06	-5.91849686943276E-06	-1.11093598510238E-05	1.07826081336593E-05	0.980282535187225	-0.138683974963654
2.7	-0.523406895245709	-0.845369147314627	-4.46088432693114E-06	9.11597723569574E-06	-2.84310623145488E-06	-9.15282833862988E-06	0.954914210439499	-0.26067348951074
2.8	-0.587561600164295	-0.801961433637045	2.45049586031583E-06	1.14948483802007E-06	-3.1271857389759E-06	1.23230112950968E-06	0.915348333671469	-0.377939266376493
2.9	-0.64784127041933	-0.754411484343676	-5.5125676801263E-06	5.98813871917674E-06	-9.18002681568361E-06	-3.14354631777639E-07	0.861037767235276	-0.489386014966486
3	-0.705687319805988	-0.701609167027495	4.77110700713198E-07	-1.47002505627882E-06	1.1309939459375E-05	1.50133673174961E-06	0.793176641454588	-0.593654716057078
3.1	-0.75852595190438	-0.643985699897438	2.37017628242998E-06	1.04951563364904E-05	4.31466637363273E-06	2.18595249482933E-06	0.713095739901671	-0.68806809859037
3.2	-0.806276277970473	-0.583152066887681	2.08250108567855E-06	6.46676720578398E-06	4.03002697167756E-06	-1.05835257809428E-05	0.621840070121659	-0.772165673836222
3.3	-0.849445571038067	-0.519093015163152	3.06363497197493E-06	4.96785661120875E-06	-2.19246391828877E-06	-9.66847028259063E-06	0.519543989291343	-0.844796103028829
3.4	-0.887086927935185	-0.452051456570686	2.13215336588684E-06	-2.59660260975136E-06	5.95134548601191E-06	1.39974293428452E-06	0.410091647049325	-0.903923413683249
3.5	-0.919963668657807	-0.380185549185585	-3.23964044209211E-06	9.38391145171136E-07	-2.07951098187787E-06	3.41608960632358E-06	0.292296155140509	-0.948463947608592
3.6	-0.9465283181623	-0.307070596893241	-1.80102783113155E-06	-3.74532727514674E-06	-7.82747860808033E-06	4.0814121561038E-06	0.171169338237155	-0.977282528897247
3.7	-0.967766932496757	-0.232564461151232	8.46132962877149E-07	-8.31971527245771E-06	1.07513161813738E-05	3.72640629387986E-06	0.0467060660489481	-0.991328161590987
3.8	-0.983433910527106	-0.155589880320438	8.74067529917264E-08	1.54665244796491E-06	-6.53457520976884E-06	5.93027603875888E-06	-0.0781095580191314	-0.989492727471767
3.9	-0.992750019667408	-0.0781140302789651	-2.61219172110858E-06	-5.03505817929724E-06	-3.7271764590492E-06	8.0133921600083E-06	-0.203551416946122	-0.971857154936539
4	-0.996165030197643	0.00094217859476369	7.13110953332435E-06	-3.58357905758339E-07	-1.04103655614517E-06	-1.20924137288088E-06	-0.32341748924493	-0.938497580546757
4.1	-0.993258489272177	0.0795079089099371	6.21531212693862E-07	-4.42112599155439E-07	7.37354850372079E-06	-4.73487083527559E-06	-0.438995414832806	-0.890946245159966
4.2	-0.984183123197497	0.157674343807417	3.20169642926688E-06	2.11506156813886E-06	-7.16677229723193E-07	-7.64974539472144E-07	-0.547911973120782	-0.828556464677726
4.3	-0.969155920968133	0.233836003064687	-3.19714982513072E-06	1.36399274612666E-06	-5.01103553798337E-06	2.96968139857023E-06	-0.647840411387868	-0.753605129783609
4.4	-0.948257918654814	0.308457306052943	7.96257917044217E-07	2.64778994766329E-06	1.58252565684687E-06	-8.33594056814016E-06	-0.737449256564775	-0.66645502167602
4.5	-0.922436737615432	0.381595632296535	1.83033216113742E-06	-9.3308609302707E-07	7.64301730277712E-06	-2.22908161235031E-07	-0.815759750734287	-0.568841704511541
4.6	-0.889918951935212	0.454528011035626	-7.58557349902614E-07	6.14340645420953E-06	-1.23485217569605E-05	-6.55828582538266E-06	-0.880907200797666	-0.461854312652623
4.7	-0.851379672694634	0.522791545977468	1.19547314579211E-06	2.52467095014248E-06	1.41833951879753E-06	1.87875444454624E-06	-0.93251846610206	-0.347815267366327
4.8	-0.806926971296844	0.588731149174065	-5.24078909776734E-06	1.11529149999534E-05	5.21679942905339E-06	9.74894696965611E-06	-0.969097686969728	-0.227654788312493
4.9	-0.75813602648875	0.650169362411385	1.19346049310244E-06	2.94910722318517E-06	-4.59894887611026E-07	-6.94605684514045E-06	-0.990491104756543	-0.103656659450335
5	-0.704709171878858	0.708622019431678	4.76839948688292E-06	-9.01516153301015E-07	-3.76897605501609E-06	2.42567304298711E-06	-0.996184738908738	0.0227433390464481
5.1	-0.645359202014151	0.762049700451567	4.15418238807301E-06	-1.33388408930932E-07	-2.64883440493309E-06	-9.86585359217722E-06	-0.985120209274097	0.148448674233944
5.2	-0.583141610230521	0.810511805347154	2.66156188869908E-06	-1.50565751663401E-05	1.37926518188475E-06	2.83789271290795E-06	-0.958815251335883	0.271714815720893
5.3	-0.517580375508101	0.854219942378008	-8.74937702579846E-06	-7.99789042647056E-07	-1.14040456382401E-06	1.57880828526603E-07	-0.91707660932926	0.390986556120625
5.4	-0.44893339837339	0.892659935364151	-7.19878797497154E-06	-1.11144193871111E-05	-1.38112840765247E-05	1.12227147511924E-05	-0.86013452191042	0.503669460686702
5.5	-0.377756228750232	0.925504004885152	1.91167644336337E-06	9.28117655003659E-08	-2.25652257135709E-06	1.78633399091867E-06	-0.789963128602542	0.607696848006655
5.6	-0.30366718868423	0.952435081067912	-2.42645925281171E-06	3.52454127041823E-06	-1.35034961237523E-06	1.29217752577814E-06	-0.707542981665887	0.701710484802209
5.7	-0.227651965007065	0.973620485863831	1.30992748672122E-06	1.23975604684253E-06	5.78983433991728E-06	-1.08528847373264E-07	-0.614354328620194	0.785010123225512
5.8	-0.150195783128831	0.988276241547302	2.70945542422389E-06	4.2841830875563E-06	-2.12897334094079E-06	4.25987037584856E-06	-0.511061215087252	0.856060877506067
5.9	-0.0719558978080489	0.996752709895684	-6.91832752143357E-06	-2.31838362602231E-06	-8.33026943751163E-08	6.32061711686848E-06	-0.399834599500091	0.913626397040989
6	0.00530008858175385	0.999079241729205	-1.7994635764385E-06	8.8134129393494E-08	-5.47880226882841E-06	-4.41315844434348E-06	-0.28266177846499	0.956525477491808
6.1	0.0836629285738299	0.997083879236574	6.97909247859808E-08	-9.96070349972396E-06	-9.78948595560359E-07	-3.23255079107089E-06	-0.160572059408736	0.985367873259909
6.2	0.163535930208273	0.987744828505473	-1.03669365747357E-06	3.12795980163547E-06	-1.7812936666478E-06	4.23406021623849E-06	-0.0342217253609517	0.997801671780722
6.3	0.242560048267335	0.971054044666118	-8.16397808236404E-07	2.847609088514E-06	-2.96243208959391E-06	2.40569506619758E-06	0.092508287170074	0.993410193728607
6.4	0.319019622054049	0.947574744226314	-6.01506629605611E-06	5.57550432587048E-06	-2.39688360887375E-06	-7.570852315518E-07	0.217048637283194	0.972646360063048
6.5	0.393034644714971	0.920017215677577	1.42081754894603E-06	-5.31307001631409E-06	-1.45625594572157E-06	-2.3960386034935E-06	0.337271242882707	0.937744004176046
6.6	0.466137603582831	0.885459255720768	3.68372192438575E-06	2.10301185066227E-07	1.13962921023145E-05	-2.70396453857793E-06	0.453522966455321	0.8872692026644
6.7	0.535060636999236	0.84466276081836	-7.80947868825254E-07	8.54937437664667E-07	-3.79158305813171E-06	5.27585620094063E-06	0.561005501525777	0.822486071727951
6.8	0.60039237388781	0.798845194206443	-1.75767264048293E-06	4.52424543699125E-06	1.46229154783617E-06	-8.93055435067825E-07	0.659471263809825	0.7450822556341
6.9	0.661676524831826	0.747983947460392	5.96789064758608E-06	2.24565984562165E-06	-9.30162380958261E-07	2.4353811505989E-06	0.747282130452309	0.655896776183447
7	0.718390089867768	0.692565702007747	1.13153266104588E-06	-4.17918430477432E-06	-1.42558586564836E-06	2.9399631824879E-06	0.822891029790856	0.556661568880815
7.1	0.770854888880133	0.63326767342358	2.38879073313898E-07	-7.22853998943066E-07	2.01605462029819E-06	9.23085966073746E-06	0.885873268014311	0.448979874097804
7.2	0.818543284034714	0.569393680377791	1.38346997782677E-06	-2.43251266424302E-06	-1.05089987876506E-06	-8.60906585515674E-06	0.934730352513208	0.334129527274689
7.3	0.86087759612747	0.501495372084693	4.89865623399982E-06	7.24210866808618E-06	-9.75727014919996E-06	2.39452828940746E-06	0.968457539340616	0.21371360315406
7.4	0.897944905121972	0.429876499464746	5.11711635730505E-06	-7.19200798800726E-07	1.88777815327979E-06	-9.69921978858013E-06	0.986765024629208	0.0892599927787545
7.5	0.927778984273258	0.355309440083179	2.7074641989483E-06	-5.34503393511932E-06	2.03973389303569E-06	-7.3150095164637E-06	0.98728600601608	-0.0358842335327899
7.6	0.952275423486259	0.280245180275258	-3.58045147722788E-07	-5.63569305676781E-06	1.68057184346515E-05	3.7374626768335E-06	0.973837174640157	-0.157925165544
7.7	0.97153241600462	0.203000239532745	3.51576583528804E-06	8.64825733280362E-08	3.03456726468416E-07	-2.92476755846337E-06	0.946356683563922	-0.278326098625679
7.8	0.984633664054746	0.124117027555983	-1.09743538028086E-05	-1.85109503159324E-06	-1.82088054904508E-07	3.43548816173963E-06	0.90424465469655	-0.394948063801012
7.9	0.990792955307223	0.0440998155843729	2.36339088335714E-06	2.01429076852242E-06	-6.95721657096586E-06	-4.66482700183052E-06	0.847342423283944	-0.505495741379813
8	0.990166116406804	-0.0342990988174219	2.35679990425382E-06	2.93582814219705E-06	-9.33907253036162E-06	-7.53930542466735E-06	0.777595500298852	-0.606600250802054
8.1	0.985616875369918	-0.113617856226384	3.81453788057279E-06	-3.07695152638107E-06	2.13609296293592E-06	-3.18728577239569E-06	0.697073197886504	-0.700534299391403
8.2	0.973478261222213	-0.192881856606211	-4.03187170883817E-06	1.42973023354706E-06	-6.75339592045474E-06	3.83026620492356E-07	0.603696661595955	-0.783546084549192
8.3	0.954242074457745	-0.271031117399282	9.8721782288193E-06	2.58353553462773E-07	6.28881393962673E-06	1.04327635910285E-05	0.500195621890388	-0.853565536318089
8.4	0.928482324273432	-0.347276587527458	1.29711451276373E-06	2.55410298373407E-06	3.4721936282312E-06	1.8103710435623E-06	0.388503609269492	-0.910059345168389
8.5	0.89663808249052	-0.421300611043288	-4.82293331502225E-06	4.99490256240165E-06	2.84161900209232E-06	-3.04093400250689E-06	0.270036294347409	-0.950899895815753
8.6	0.858669089417958	-0.492442760899338	-4.49014154090491E-06	2.11387176781771E-06	-2.99506964949816E-06	8.13995035991653E-06	0.148979653037492	-0.976998250281907
8.7	0.815126354781539	-0.560017533336951	-1.01535378974429E-06	1.22198580817287E-06	-6.26630191434086E-07	3.46831831896994E-06	0.0250252894801998	-0.988258026393776
8.8	0.766482109134583	-0.623538455573289	-1.57084535532984E-06	3.08824418797347E-06	-6.00515846817314E-06	1.3143332538182E-06	-0.0992093997536816	-0.984223558930321
8.9	0.713402482141673	-0.683136767430507	3.16979329646126E-06	-1.84751417135978E-06	-3.17061636154627E-06	-4.43782980778515E-07	-0.22287079496568	-0.964639098870188
9	0.654936321556737	-0.738415751599441	-7.29421982211798E-06	1.39358278691977E-06	-3.98198305705612E-06	7.48345747372921E-07	-0.344290775249279	-0.928550032802802
9.1	0.592575007446638	-0.788150455666233	-3.37133736868643E-06	-1.86235118389862E-06	-9.70330811018145E-07	2.1439343609258E-06	-0.458363204481183	-0.876211055200652
9.2	0.526144832524062	-0.832861710044601	5.97151215252828E-06	-1.68423221724731E-06	2.04882005300766E-06	8.4638428548021E-06	-0.564280856334374	-0.811206502661437
9.3	0.45645276267742	-0.872126016689423	-3.30838515408782E-07	1.07168653570057E-06	1.37378118763825E-05	1.17121230461165E-05	-0.661147726392935	-0.733452372763954
9.4	0.383099045360686	-0.905832983739978	1.70797573662756E-06	-2.66956399799243E-06	4.29240863914128E-06	1.72222277944241E-06	-0.747532965837851	-0.644374714607863
9.5	0.306275453942481	-0.931681289119061	-6.51755152271166E-06	-4.81963184134218E-06	-1.98139001612868E-06	-5.66625190744903E-06	-0.82150047958255	-0.54362354438823
9.6	0.228815271109454	-0.951801892482465	-1.16269942599611E-05	-1.90657556138647E-07	-5.92001263056495E-06	-3.95983881938609E-06	-0.882131908116436	-0.437198831581722
9.7	0.149080777107228	-0.965870248843357	1.45832485618776E-06	-4.84044754951395E-07	-2.89471842033715E-06	1.64963189033746E-06	-0.930569226953456	-0.323045398559886
9.8	0.0683606311507163	-0.972724048806687	2.20220921677642E-06	1.38162355048648E-06	1.50061217458018E-05	-3.56616895337728E-06	-0.963880368536438	-0.203466538931403
9.9	-0.0125331426986258	-0.972013001317953	-3.39595446703191E-06	8.9370697648905E-06	1.37045568126026E-05	4.89153494186155E-06	-0.982342793889579	-0.0802170663137856
10	-0.0913395140402606	-0.963840058202404	-3.61355645730171E-06	1.6245290430586E-06	1.90436345311561E-05	-1.8119669611787E-05	-0.984410172083126	0.0450371989826114
10.1	-0.168531146721326	-0.94992632307981	-1.46126654495185E-06	2.29399430933884E-06	-8.38593810759827E-06	-4.25140694512264E-06	-0.970302091262748	0.16877053143938
10.2	-0.243545603025817	-0.929856247498136	-2.29790687560722E-06	-1.22554947742275E-06	-1.28107322470332E-05	7.22049006716547E-06	-0.940814780537113	0.289321669485318
10.3	-0.315268949666162	-0.904196704981605	5.73356935260789E-06	3.88728112230592E-06	-6.10428562565659E-06	1.38159988380405E-06	-0.897146333850181	0.404669007364136
10.4	-0.384615193709058	-0.874059103109894	2.08730501739919E-06	1.03791556977977E-06	6.9269962485619E-07	-8.16345803712728E-06	-0.839717040431898	0.51341463307595
10.5	-0.451652498756399	-0.837889768797888	4.34066835419229E-07	-3.03674122669774E-07	-6.48323107922641E-07	-5.5938864132669E-06	-0.769718822710687	0.615802062871823
10.6	-0.513852145385352	-0.795788703805525	5.05782138722314E-06	-2.58965717719955E-06	-9.68924970314376E-06	-7.83202583394893E-06	-0.684627248158086	0.708155039561447
10.7	-0.571502876513419	-0.749789167566938	-2.79702331891005E-06	-4.98015862924604E-07	-5.1959210582331E-06	-7.12136276489906E-06	-0.589142118607243	0.787345909099236
10.8	-0.62479826797491	-0.701401983252986	-3.5918324168858E-06	-3.42044690178905E-06	-1.18839735226996E-05	9.08782779145961E-06	-0.485547371787349	0.853248000471943
10.9	-0.675370637020062	-0.65116872518092	-1.13127688918837E-05	-1.03570796024089E-05	-4.44804684697811E-06	1.08917330667776E-05	-0.375989598484686	0.906506829933284
11	-0.723211879296597	-0.597127478754813	1.00629708647489E-06	1.40038505192247E-06	8.60850832322536E-06	-5.47539532521603E-06	-0.258444370324642	0.946580726830782
11.1	-0.765989860467996	-0.540441387219778	-3.25940096435267E-07	-3.60782203058134E-06	1.01108130775295E-05	-1.0136090261552E-05	-0.137963044657084	0.969370282320743
11.2	-0.806256607876054	-0.481737957672026	-1.02304652551153E-06	-3.88766443265465E-06	2.1499986696244E-06	-6.26778416857331E-06	-0.0158377109888723	0.978066956318527
11.3	-0.843278003745493	-0.419208789534434	1.63731951972354E-06	-1.19642141098086E-05	3.5458239041437E-06	-2.79964370686794E-06	0.106512610550462	0.971828906215268
11.4	-0.875587952114038	-0.353321284372652	9.80516730250272E-07	1.95233719338883E-08	-5.66127381317074E-06	6.41424736319897E-06	0.227729146181761	0.950602417630423
11.5	-0.902545776676565	-0.284291749439865	6.50436204815895E-06	-1.22022580349726E-06	8.18287258154128E-06	-2.95159332318553E-07	0.344692978707481	0.914189620418055
11.6	-0.924855708713707	-0.213798761568352	-6.20981103975824E-07	-5.29479720083548E-06	1.43659280879669E-06	-3.05666834634661E-06	0.45672643795675	0.863201319963965
11.7	-0.941422840584793	-0.139488117364351	-7.68052563281474E-08	-6.00817875747639E-06	8.93921875376646E-07	-2.6383226097946E-06	0.561076715497535	0.798616282951231
11.8	-0.95181907995703	-0.0628237428077703	-1.06222149631344E-06	-7.39002716480059E-07	5.12858151435418E-06	1.085879470783E-06	0.656680648462891	0.721762698599669
11.9	-0.955713149939286	0.0159147900319536	-3.18156203358E-06	-5.17981950553661E-06	-5.33028658033076E-06	-7.9668266095625E-06	0.741072857021434	0.634188541511361
12	-0.952244625684067	0.0949480496179421	-2.92823770556841E-06	1.62017175683276E-06	-1.65770342543749E-05	-8.74043860327711E-06	0.814068630390998	0.538619546684534
12.1	-0.942368287997659	0.173237929708993	8.25851560893683E-07	-1.55220460900386E-06	7.74848800587415E-06	1.22169581432215E-05	0.876252452107913	0.433142164143714
12.2	-0.924917821998899	0.250488466190832	-4.10184689484095E-06	5.48699418644317E-06	3.96227794924052E-07	3.28936976784154E-06	0.924505914646297	0.320147313119856
12.3	-0.901864860269405	0.325300511947734	7.73912964901587E-06	6.38702686696714E-06	3.53009919719517E-07	1.08155230069283E-05	0.958216840906083	0.201463780264997
