# GHZ S RI R 50
0.2	0.985337619325335	-0.157000252250144	2.56378392303173E-06	2.24870031052506E-06	6.56732227670469E-06	-4.86804385694864E-06	-0.966121933940685	0.251739593836398
0.3	0.969222394982601	-0.234016571086798	-8.74294874910462E-07	-5.45141999493765E-06	-3.46632177748763E-06	-7.94151461579902E-06	-0.926403496682978	0.371730252576263
0.4	0.947689500221714	-0.309230753135056	-7.27524505044242E-06	-9.89565662876695E-07	4.43903951115746E-06	1.54357755594263E-06	-0.871558516202779	0.485402014620198
0.5	0.920863093363131	-0.382553901038649	6.19594493921262E-06	2.10338727994043E-06	-2.41261475936054E-06	-1.90682031502936E-06	-0.802986758806946	0.591381011530465
0.6	0.888073164185034	-0.453689088754853	-1.05468409967263E-05	2.45958785474746E-06	-2.21743728238474E-06	-1.00669648598909E-06	-0.721639993152603	0.687672562200648
0.7	0.849818369632239	-0.521671874315224	2.78291504919668E-06	-1.17169123239225E-06	-2.98596572142138E-06	5.78594283517989E-06	-0.629037526546225	0.773093127100325
0.8	0.806235503817833	-0.586731755493496	1.17542167179896E-06	-8.47154223601424E-06	-6.61738225465893E-06	-3.06814367995833E-06	-0.526367436713702	0.845950766035865
0.9	0.757617567118521	-0.648219259393187	-1.14601031913359E-06	-6.80572848475682E-07	2.54651337865342E-06	6.53916618931307E-06	-0.415560645243904	0.905149852504272
1	0.704224681215151	-0.705701328329189	-2.74207144087203E-06	-3.22030806160495E-06	-4.03636566235643E-07	-7.31036438578454E-06	-0.298523534236369	0.949751484612963
1.1	0.647412047837209	-0.758930973680304	1.80730990041843E-06	-4.93641367757191E-06	2.27045157923315E-06	-5.12956201470243E-06	-0.176703447101518	0.979606585997192
1.2	0.585246312165691	-0.808451301459623	-2.49562026545286E-06	2.48846037077E-06	9.26041998928146E-07	-9.0971466874041E-07	-0.051826645439922	0.993778909197317
1.3	0.517816457717748	-0.853114181579091	-1.5378074606417E-06	7.18045611401454E-07	-1.35586655560854E-06	1.46175595910292E-06	0.0738248102968848	0.992411412562806
1.4	0.447179983983897	-0.891941633516517	3.92353824412469E-06	-3.23773783571241E-06	2.69629263465319E-06	1.09388930318743E-05	0.198952083248628	0.974660243799805
1.5	0.374266377397355	-0.92434855541927	-5.33675099509323E-06	1.10776085551074E-06	6.59091663943015E-06	-7.20338002119574E-06	0.320501688049735	0.941288088803877
1.6	0.300552210862413	-0.950725821771811	1.77725239443911E-06	-7.73632874265652E-06	3.63064179084986E-06	1.38278603201892E-06	0.436380179349207	0.892900619608189
1.7	0.22604582970603	-0.970875969031487	-1.94060504757013E-06	-9.6919185471906E-07	-2.35223750240409E-07	-2.08617058029875E-06	0.544618021663916	0.831067358495737
1.8	0.149384332475695	-0.985450677985867	2.84899977174904E-06	5.27669586705415E-06	3.99100936616541E-09	2.03048859234566E-06	0.644591453020361	0.755778034144412
1.9	0.0719062744482573	-0.993928668195942	5.67045914010776E-06	-2.62947260275608E-06	-2.99600955888664E-06	4.15397958046454E-07	0.733768453324713	0.668653317584315
2	-0.00489233382251917	-0.996184494125715	-1.54630922969976E-06	-2.02533428468975E-06	3.20562181262247E-06	1.14489240070727E-05	0.811284531496675	0.570768513551464
2.1	-0.0832467660008878	-0.993260802961189	-7.55095464803895E-06	2.44962898271877E-06	1.20386113974709E-06	5.14385421573884E-06	0.875980697409409	0.464734848551757
2.2	-0.16001248084364	-0.984069938284792	-8.83472864787773E-07	1.39324433735033E-06	2.99835066952927E-06	7.77503420288237E-06	0.927456464345563	0.351240042328118
2.3	-0.237285002345748	-0.968207797340916	1.75753738834135E-07	7.45053177360196E-06	7.38973324176005E-07	9.3873623522577E-07	0.963713637065972	0.232531786101962
2.4	-0.313209711597717	-0.945914040322812	1.57434955420068E-06	7.17167940023177E-06	1.51665327606131E-06	6.38537360765706E-06	0.985315381028665	0.10923236697019
2.5	-0.386351452987828	-0.918374026545768	4.38960804288754E-06	-2.30896189243294E-06	-1.90690274697806E-06	-7.56825912926301E-06	0.990701533377826	-0.0149767551869309
2.6	-0.457382003840003	-0.884824598583414	6.77202660491012E-06	-5.93375231303078E-06	-1.11044912413343E-05	1.08086446957838E-05	0.980942887133317	-0.13927558946455
2.7	-0.525715730440515	-0.845960518473243	-4.45185280520233E-06	9.13056200599068E-06	-2.85876162325499E-06	-9.15699436824298E-06	0.955392882194712	-0.261478589009556
2.8	-0.589892231179372	-0.802412994256363	2.45442473645451E-06	1.14687187412111E-06	-3.12817657385877E-06	1.23807617765462E-06	0.915567284113312	-0.378923925169824
2.9	-0.650156430806264	-0.754523389792733	-5.50792145603031E-06	6.00234006874154E-06	-9.18876538803045E-06	-2.99932759302413E-07	0.861000872391203	-0.490514641187737
3	-0.707403455469903	-0.701587274147809	4.75118369048623E-07	-1.47193520620601E-06	1.13211478574757E-05	1.48432136271173E-06	0.792746046493894	-0.595011482796418
3.1	-0.760282218203881	-0.644488250937492	2.38853377450713E-06	1.05010335392283E-05	4.32196192288825E-06	2.18127724958143E-06	0.712034612843648	-0.689331024914446
3.2	-0.808367556675415	-0.583633092920928	2.09532958652886E-06	6.46961437004648E-06	4.01630431146813E-06	-1.06005991797594E-05	0.620371307108739	-0.773058789092249
3.3	-0.851733430983196	-0.519299007020589	3.07554907548382E-06	4.96683027282533E-06	-2.2121760028367E-06	-9.67337104146205E-06	0.517798321504108	-0.845270802877158
3.4	-0.889332746848346	-0.451870775138471	2.12875343724355E-06	-2.60251633299026E-06	5.95827742982018E-06	1.3894462393248E-06	0.408233506701794	-0.903849616918164
3.5	-0.922009786045238	-0.37989641968886	-3.24033564987546E-06	9.44735292456998E-07	-2.07503500611307E-06	3.42219146620482E-06	0.29072883821108	-0.948098766975726
3.6	-0.948615925155654	-0.306567676090601	-1.80973398691645E-06	-3.74448707391795E-06	-7.82509562113492E-06	4.09983774654881E-06	0.169425143220902	-0.976746202029222
3.7	-0.969747302474069	-0.231759952089897	8.29386131122876E-07	-8.32590779560347E-06	1.07647615447203E-05	3.70617108322522E-06	0.0450624070250211	-0.990369602869374
3.8	-0.985194287007621	-0.154451507041097	9.06479577529505E-08	1.5470506379065E-06	-6.52472156533807E-06	5.94605369303525E-06	-0.0794752411798535	-0.988341316348475
3.9	-0.99404815066521	-0.0766766249753952	-2.62324732783607E-06	-5.03128824402812E-06	-3.71200662266006E-06	8.02344621432211E-06	-0.204720263341381	-0.970882212485228
4	-0.996793658470177	0.00221756060725381	7.13239236347624E-06	-3.73848109158815E-07	-1.04394590559427E-06	-1.207343767989E-06	-0.32516753661621	-0.937752371060544
4.1	-0.99378576213276	0.0803763549027481	6.20631635687521E-07	-4.43487163322586E-07	7.36397425722197E-06	-4.75113539193783E-06	-0.441136693635922	-0.889378741053968
4.2	-0.984776109165122	0.158477256316483	3.20615111005047E-06	2.10859322326986E-06	-7.18270965642451E-07	-7.63538161041839E-07	-0.549768603222411	-0.826384463086058
4.3	-0.969755190773508	0.234797534712126	-3.19466831903597E-06	1.37050187876825E-06	-5.00548036304584E-06	2.97994849039252E-06	-0.64931741871205	-0.751116448372554
4.4	-0.948615030326692	0.309889610070823	8.01844132743373E-07	2.64654354313452E-06	1.56555278449784E-06	-8.34045949141056E-06	-0.738560661625124	-0.663892066968139
4.5	-0.921601097587236	0.383209933311179	1.82811835214807E-06	-9.37424954554058E-07	7.64248250669392E-06	-2.41029204583725E-07	-0.816827628841156	-0.566317484528636
4.6	-0.888539098896486	0.455148876048841	-7.44399453376177E-07	6.14268178907216E-06	-1.23584188951755E-05	-6.52783216708125E-06	-0.882005127568058	-0.458928095624724
4.7	-0.850062349554289	0.522849285268674	1.20012327869977E-06	2.52080174915379E-06	1.42151473878085E-06	1.87476625924559E-06	-0.933264994177778	-0.344390949237589
4.8	-0.805673534798523	0.58850076723048	-5.21452761638197E-06	1.11563571984058E-05	5.23335185393894E-06	9.73189395365468E-06	-0.969280305888235	-0.223843184538548
4.9	-0.756753031493521	0.649775696100551	1.19860007314439E-06	2.94401020987689E-06	-4.74066981274847E-07	-6.93898556044407E-06	-0.989894582426837	-0.099559164558516
5	-0.703205197514604	0.707505480100254	4.76071632023172E-06	-9.09185513367084E-07	-3.75973914844132E-06	2.42957288501729E-06	-0.994638991777167	0.0266866740046234
5.1	-0.644478342585777	0.760707096807026	4.14903642233557E-06	-1.40277742156272E-07	-2.66243424673063E-06	-9.84967616425263E-06	-0.982857617790464	0.152238651766652
5.2	-0.582440103262412	0.809326639694899	2.63187637374401E-06	-1.50419131465698E-05	1.38244855703728E-06	2.83184710258419E-06	-0.955600195896349	0.274997090603603
5.3	-0.516825105998257	0.853159955802648	-8.73834486449604E-06	-7.83562172003773E-07	-1.13851446171823E-06	1.59624009510391E-07	-0.913242049696587	0.393334281798727
5.4	-0.447865633676421	0.891681344589073	-7.20628188799739E-06	-1.10861097586866E-05	-1.3772377083434E-05	1.12286415449809E-05	-0.856216934792092	0.504926080804278
5.5	-0.376118972192217	0.924011290243004	1.90916876406423E-06	8.93053662214758E-08	-2.25021372879572E-06	1.78782335469132E-06	-0.786658944348101	0.608405390991264
5.6	-0.302312126282629	0.95021363723554	-2.41560020800523E-06	3.52331338473442E-06	-1.34559648972756E-06	1.2926154842037E-06	-0.704039793612118	0.702574134678949
5.7	-0.226622638564737	0.971199387234697	1.3098204029647E-06	1.23482474912792E-06	5.77849199611749E-06	-1.19581395334548E-07	-0.610259554951123	0.785293188428334
5.8	-0.149356540628163	0.985753710409574	2.71177345011694E-06	4.2695492243753E-06	-2.11607957576742E-06	4.25462590734901E-06	-0.506663767684456	0.855264478303728
5.9	-0.0712010559465728	0.994294419573308	-6.90559648745209E-06	-2.30039335076715E-06	-7.18271578664174E-08	6.30535706343015E-06	-0.395654730112963	0.911466206126184
6	0.00680741882825849	0.996457920588611	-1.79509329205034E-06	9.14893497041973E-08	-5.474759738799E-06	-4.39202679516604E-06	-0.279284122609216	0.953165724197519
6.1	0.0850624824916244	0.992944139651738	4.57487430144771E-08	-9.92963818488789E-06	-9.83610458490777E-07	-3.22007359737758E-06	-0.158466193034014	0.981079527795757
6.2	0.163726204255074	0.982831345999148	-1.02624355952464E-06	3.11765817859454E-06	-1.76564939295635E-06	4.22088187605786E-06	-0.0336569025253924	0.993268683630683
6.3	0.241493983011466	0.966299693773426	-8.09131795208657E-07	2.83632221649232E-06	-2.94643329242898E-06	2.39913198666113E-06	0.0917539591547433	0.989371667070687
6.4	0.317452764404547	0.943544374267771	-5.98660144200759E-06	5.5570473098106E-06	-2.38765261263446E-06	-7.52300835227552E-07	0.215678154845626	0.969549110854609
6.5	0.391402762583809	0.91572274652496	1.41175778059104E-06	-5.29267121359575E-06	-1.45193540386635E-06	-2.38551155253709E-06	0.335858601119122	0.935083263401771
6.6	0.463379362759183	0.881426012837096	3.66911012146031E-06	2.09481707889502E-07	1.13511010634967E-05	-2.69319431095826E-06	0.451812705361462	0.885095582385424
6.7	0.531778423117511	0.841334874189779	-7.78418378695964E-07	8.51508729779779E-07	-3.77973432284305E-06	5.25509229301671E-06	0.559189920357876	0.820622152588126
6.8	0.596789196392102	0.796187760033784	-1.75455876123607E-06	4.50726598917461E-06	1.45778084274761E-06	-8.88957838710523E-07	0.657374868367296	0.743471585360577
6.9	0.657979774562099	0.746056428573724	5.94519207901968E-06	2.24447138115331E-06	-9.29630671657253E-07	2.42610346062841E-06	0.744833520747174	0.654679756756979
7	0.714911762851741	0.691034257359505	1.13426324187945E-06	-4.16546485588864E-06	-1.42568491833169E-06	2.92940723008732E-06	0.820211639463829	0.555957347878069
7.1	0.767152770257807	0.631944628171004	2.39148413833591E-07	-7.20503412907381E-07	1.99832422812412E-06	9.20745312911851E-06	0.883026670072944	0.448799744434259
7.2	0.814587217109286	0.568606596749515	1.38307505705155E-06	-2.42318006091739E-06	-1.03464215791794E-06	-8.58511204352862E-06	0.931782499130898	0.334504659445979
7.3	0.856777360562589	0.501397953962725	4.86945041474964E-06	7.22888982803388E-06	-9.73138699452658E-06	2.36831641015891E-06	0.965429830775889	0.214759678665343
7.4	0.893811920783099	0.430719937234535	5.10152897333549E-06	-7.03240466233873E-07	1.90692149780645E-06	-9.66109618044804E-06	0.983792436757451	0.0913650463414331
7.5	0.924492431014799	0.357203047759274	2.72153495325433E-06	-5.31926782556796E-06	2.06361275850463E-06	-7.28647297972687E-06	0.985594327773329	-0.0327823932862219
7.6	0.949776498683616	0.282141823135684	-3.3402963864725E-07	-5.62861071873444E-06	1.67645868837414E-05	3.80176727142925E-06	0.973055992333784	-0.155180984401324
7.7	0.969434443262891	0.204936463143999	3.51216338841338E-06	1.00470818642597E-07	3.14879123742124E-07	-2.92084428563581E-06	0.946018078334263	-0.275707746127252
7.8	0.982831917427659	0.126166591827786	-1.09617114268107E-05	-1.89136403615373E-06	-1.94900118988367E-07	3.43302342531284E-06	0.904266368211264	-0.392398631373157
7.9	0.989491402352201	0.0463318465426455	2.3561938830429E-06	2.02239529540062E-06	-6.94044395694967E-06	-4.68877441964376E-06	0.847980187454693	-0.503199657864595
8	0.989540387230164	-0.0327121645473646	2.35098854305949E-06	2.94308439906808E-06	-9.32591273410771E-06	-7.56586176592557E-06	0.77827240454367	-0.605705916412775
8.1	0.984389860804453	-0.112056621632658	3.81766711069669E-06	-3.06920044979261E-06	2.1402347570511E-06	-3.18221900682514E-06	0.696475329329169	-0.699389355869591
8.2	0.972272317691177	-0.19091088436549	-4.02968722943586E-06	1.42114494121781E-06	-6.74627496745285E-06	3.70963848239092E-07	0.602925914065373	-0.781745243990578
8.3	0.953255695318589	-0.268687842910421	9.85640065221308E-06	2.77325203299855E-07	6.25861491477458E-06	1.04289657943764E-05	0.499608319402564	-0.851239903512065
8.4	0.927867307006453	-0.344589622006056	1.2887150255821E-06	2.55237121899719E-06	3.46147465917906E-06	1.8151186120419E-06	0.388524896862952	-0.907298391990374
8.5	0.896469475984938	-0.418342167760925	-4.83011374206184E-06	4.97128397513753E-06	2.84615407054859E-06	-3.02684878874798E-06	0.270897310187647	-0.948677503489835
8.6	0.859148472274372	-0.489233590359636	-4.49186559153879E-06	2.09754016406429E-06	-3.01725270740074E-06	8.12173874159554E-06	0.149467582741949	-0.975253727314994
8.7	0.816359241358575	-0.556849517369926	-1.01797963884276E-06	1.21805224129283E-06	-6.3599553709059E-07	3.46358900120877E-06	0.0252935830673887	-0.986284509412621
8.8	0.768364167200278	-0.620643240680281	-1.57733174452707E-06	3.08177806677939E-06	-6.00357149170416E-06	1.29816117521981E-06	-0.0988367647610705	-0.981804048365588
8.9	0.715718158112455	-0.680521587975366	3.16998086360285E-06	-1.83869258118014E-06	-3.16598422053385E-06	-4.49933278061405E-07	-0.221849564163549	-0.961647177438639
9	0.657878319775953	-0.735904836550061	-7.28331154336784E-06	1.37270298668985E-06	-3.9759972381269E-06	7.36971749526961E-07	-0.341845999367282	-0.926018923516593
9.1	0.59618148252229	-0.786138814416115	-3.35890515487035E-06	-1.86998139323976E-06	-9.75582724378614E-07	2.13673342910287E-06	-0.455653361832997	-0.874841544124892
9.2	0.530218418660599	-0.831385113974103	5.96938481369464E-06	-1.6584267243185E-06	2.01273779334796E-06	8.45950466477808E-06	-0.56153811658388	-0.810868159837737
9.3	0.460851323237833	-0.87115136624711	-3.35232569885519E-07	1.06930644226312E-06	1.36746578216232E-05	1.17619347571753E-05	-0.658751700145547	-0.734189676424278
9.4	0.387893512575825	-0.905153384115413	1.72066344312931E-06	-2.6603395259797E-06	4.28263630749176E-06	1.74292471073449E-06	-0.745506194274416	-0.646275670524306
9.5	0.311684618979782	-0.931838236685291	-6.49982248487494E-06	-4.85994568659452E-06	-1.95373815175473E-06	-5.68354245901678E-06	-0.821438022371111	-0.547376721705528
9.6	0.234240780283021	-0.952599262100495	-1.16489634756366E-05	-2.4322882677681E-07	-5.91385742147256E-06	-3.99418911453267E-06	-0.884461415079762	-0.439892531085554
9.7	0.154856642371188	-0.967346770476643	1.46361021552753E-06	-4.7898617025454E-07	-2.90810829745659E-06	1.64112515715028E-06	-0.933525923682538	-0.324470666193614
9.8	0.0743802049207586	-0.975191966697205	2.20230213924542E-06	1.39413196507091E-06	1.50594140362161E-05	-3.51452012230255E-06	-0.966870009766369	-0.20399707738171
9.9	-0.00651530187077012	-0.975741242621267	-3.44033292119302E-06	8.95018810390941E-06	1.37258902721848E-05	4.9586607910654E-06	-0.984845264067478	-0.0803998142395874
10	-0.0859010635845774	-0.968861191832294	-3.63066773535516E-06	1.61592367157754E-06	1.91696740948233E-05	-1.81034579445818E-05	-0.987004133739864	0.0441173831291547
10.1	-0.163904847562796	-0.955993957538021	-1.47527895986107E-06	2.29693387685984E-06	-8.40078887796313E-06	-4.29861874805216E-06	-0.97419932481413	0.168101223090872
10.2	-0.240227270145122	-0.936773704319912	-2.30390529689903E-06	-1.23806690465927E-06	-1.28885394612538E-05	7.21105135813445E-06	-0.945336715620376	0.289744452720318
10.3	-0.313534460487099	-0.911262911546413	5.75049624184147E-06	3.91849046644382E-06	-6.13532286719202E-06	1.37349427387773E-06	-0.901661877194827	0.406209216853326
10.4	-0.384334763281215	-0.880480986461288	2.09542862749904E-06	1.04587393420982E-06	7.08202413597616E-07	-8.20029720455645E-06	-0.843806046971699	0.51565360411557
10.5	-0.451937534729601	-0.84290155359461	4.35984604543838E-07	-3.04719014686168E-07	-6.4841141210774E-07	-5.6171021251624E-06	-0.77381348405103	0.61795405198285
10.6	-0.513906285010677	-0.800184266162504	5.07559308449434E-06	-2.59757690832193E-06	-9.7209310363954E-06	-7.86059464397671E-06	-0.689456951854321	0.711239544922507
10.7	-0.571482965777909	-0.753825735279374	-2.80543672794633E-06	-5.0043170649831E-07	-5.20957956329473E-06	-7.14483962274739E-06	-0.594338955594896	0.791687904146164
10.8	-0.624873517971256	-0.705145244656181	-3.60158114289919E-06	-3.43169036605428E-06	-1.19220671978033E-05	9.11156918367625E-06	-0.490382560011601	0.859178991546864
10.9	-0.67540893628442	-0.654412660286711	-1.13393959469354E-05	-1.03866495067895E-05	-4.46225265058534E-06	1.09187483001532E-05	-0.379662824576722	0.913182686485862
11	-0.722753067546089	-0.600428093053021	1.00723209916863E-06	1.4051868489859E-06	8.63718441394224E-06	-5.4793114876239E-06	-0.262569940047633	0.953366486072426
11.1	-0.765760510508534	-0.543928694980517	-3.23280769544527E-07	-3.62127240200094E-06	1.0158331438082E-05	-1.0162133143406E-05	-0.141661001082905	0.978735434607212
11.2	-0.806192716458086	-0.485281204309207	-1.02526815899153E-06	-3.90382072806773E-06	2.16171805882792E-06	-6.29197638034568E-06	-0.0172133509763567	0.988995517242868
11.3	-0.84354328201495	-0.422772417786004	1.64300660365407E-06	-1.20144256935786E-05	3.56038584639111E-06	-2.81170063742869E-06	0.107888819036428	0.983056274986576
11.4	-0.876206018716402	-0.356709978259352	9.84793557242966E-07	1.89873500623884E-08	-5.68183386789737E-06	6.44572932928595E-06	0.231641467540149	0.961153030512131
11.5	-0.903418937070359	-0.287331401479326	6.53141752657506E-06	-1.23505038291707E-06	8.21870527725946E-06	-3.08315017831062E-07	0.350252750234657	0.923485660809894
11.6	-0.925591908263144	-0.216680821754599	-6.33572030348832E-07	-5.31437778455475E-06	1.43636624272932E-06	-3.07141491263733E-06	0.463812930416633	0.871486758943749
11.7	-0.942469623897994	-0.14247611705885	-8.90642925197968E-08	-6.03027622746126E-06	8.91974096964234E-07	-2.6498749416521E-06	0.569709155025212	0.805238591083806
11.8	-0.953459104779593	-0.0656106178045023	-1.0674645946028E-06	-7.39580312729167E-07	5.14906184481892E-06	1.07977961522669E-06	0.666159206621372	0.726117293283982
11.9	-0.958144708478612	0.0136954430773602	-3.20115074799115E-06	-5.19433356956558E-06	-5.36204067556487E-06	-7.98849632076153E-06	0.750257670548562	0.636068278330911
12	-0.954988337010721	0.0940174033270156	-2.93944193139897E-06	1.63155414377385E-06	-1.66647372488635E-05	-8.7579704939892E-06	0.82172857042996	0.53866628089022
12.1	-0.944532869185803	0.172936808532604	8.274116380109E-07	-1.56152137961968E-06	7.80880256054756E-06	1.22659851632582E-05	0.882805798178538	0.43300455990942
12.2	-0.927031232590584	0.250540263200899	-4.11234830578261E-06	5.52617583470339E-06	4.05632266976325E-07	3.30658651212801E-06	0.930642787448068	0.319422779976327
12.3	-0.904142320773119	0.326057271822194	7.80189981956879E-06	6.40112701821689E-06	3.86371913986356E-07	1.08763548814458E-05	0.963663449202543	0.199839756946903
