# GHZ S RI R 50
0.2	0.986033207868195	-0.156752404417003	2.5644112359932E-06	2.2507732268705E-06	6.57249690830397E-06	-4.86846373359778E-06	-0.966559968592953	0.251509089399305
0.3	0.970033843692319	-0.233849347631594	-8.72930957768973E-07	-5.45551629478419E-06	-3.4658553699392E-06	-7.94827447342152E-06	-0.927037746923918	0.37152888101133
0.4	0.948601073503606	-0.309211786925245	-7.28138981573064E-06	-9.92823026676714E-07	4.44248165491008E-06	1.54640058952061E-06	-0.872424565891142	0.485357174721599
0.5	0.92161625165156	-0.382813021595016	6.20193219111691E-06	2.10575125058673E-06	-2.41489393733933E-06	-1.90880967583118E-06	-0.803871314006225	0.591771602307315
0.6	0.888582422609097	-0.45370309430104	-1.05550437630093E-05	2.46064428800078E-06	-2.21904452074921E-06	-1.00763214676021E-06	-0.722295300937119	0.688104926286025
0.7	0.850520408179798	-0.521515112253374	2.78554222243124E-06	-1.17208358127416E-06	-2.98977123206308E-06	5.7902237171804E-06	-0.629720572022993	0.773612215592471
0.8	0.807188627467573	-0.586620158944232	1.17866011578509E-06	-8.47992682254971E-06	-6.62341502540129E-06	-3.07287293549505E-06	-0.5270041072474	0.846651149804724
0.9	0.758827729348659	-0.648374324775551	-1.14731255795722E-06	-6.81615808124363E-07	2.54853276087167E-06	6.54771509143855E-06	-0.416078114061668	0.906019335644268
1	0.705394268603379	-0.706412268232204	-2.74629589843211E-06	-3.22463832150132E-06	-4.04919589817081E-07	-7.32075742071849E-06	-0.298876426983466	0.950783561018014
1.1	0.64815822011375	-0.759957044997434	1.80782724889384E-06	-4.9438660517472E-06	2.27152485868145E-06	-5.13746097778481E-06	-0.176787291296254	0.980734822803029
1.2	0.58554719052654	-0.809555701333199	-2.49718332946339E-06	2.49301203323978E-06	9.2663022150922E-07	-9.1138687998338E-07	-0.0516350088897369	0.994910514717753
1.3	0.517648967168375	-0.854050043829916	-1.53877737936492E-06	7.19929652691809E-07	-1.356088567772E-06	1.46423538404761E-06	0.0743331440145208	0.993462838373247
1.4	0.446746873379831	-0.892391021989031	3.92373494352183E-06	-3.24286990918585E-06	2.70634712615087E-06	1.09442116773822E-05	0.199683828608906	0.975556503405695
1.5	0.374039399240577	-0.924278339522652	-5.33860849837406E-06	1.11097118528411E-06	6.59024960476567E-06	-7.20999045377814E-06	0.321495283264218	0.942161791370378
1.6	0.30060582520701	-0.950584972746572	1.7764496756815E-06	-7.74078432201645E-06	3.63285582658774E-06	1.38269707873762E-06	0.437559665302008	0.893524101450384
1.7	0.226297588214943	-0.970791492001478	-1.94207691410018E-06	-9.69711292349914E-07	-2.35577257274965E-07	-2.08763926274468E-06	0.545872080113058	0.831583236989384
1.8	0.149744729603706	-0.985526614454261	2.85167137248091E-06	5.28133412699989E-06	4.04441873641461E-09	2.03230022504707E-06	0.645927028248151	0.756194490670955
1.9	0.0723636536022525	-0.994298197760424	5.67737810279968E-06	-2.63188621852589E-06	-2.9995528717613E-06	4.15536975860861E-07	0.73512625574577	0.669150788500483
2	-0.00484273449754828	-0.997235058853134	-1.54964103139793E-06	-2.02890690146442E-06	3.21389524043816E-06	1.14701626735439E-05	0.813480495233254	0.571516063955562
2.1	-0.0840531155099518	-0.993915257987524	-7.56089896465355E-06	2.46075380088346E-06	1.21068462315212E-06	5.15106845335887E-06	0.878654879699196	0.464325451845169
2.2	-0.160809769327186	-0.984252403973856	-8.83364708701419E-07	1.39591802747223E-06	3.00952767080203E-06	7.78263456745343E-06	0.929842645267241	0.350202371275279
2.3	-0.237938520794879	-0.968253090768549	1.82275082197714E-07	7.46024426400077E-06	7.40743715482969E-07	9.3935491868427E-07	0.965848509494794	0.231092425107548
2.4	-0.313762428539604	-0.946055486339422	1.58227326812117E-06	7.1809001111814E-06	1.52387577755384E-06	6.39349317023803E-06	0.987183311309307	0.107538415149507
2.5	-0.387099231062488	-0.918781754109234	4.39529513279514E-06	-2.31699028590453E-06	-1.91707710213426E-06	-7.57992855463064E-06	0.992556685090442	-0.0168567450853271
2.6	-0.458625560540049	-0.885190474092145	6.77763016277146E-06	-5.95357851166249E-06	-1.11123356322222E-05	1.08432251925232E-05	0.982677556229039	-0.141634420979415
2.7	-0.527366130343095	-0.845990330387545	-4.44566905032306E-06	9.15519880751223E-06	-2.87897481180322E-06	-9.16991088222751E-06	0.956837765223947	-0.264272134073194
2.8	-0.591838240909494	-0.801970702646677	2.46104399648078E-06	1.14413562094063E-06	-3.13135002552062E-06	1.24638532378056E-06	0.916523139395064	-0.382101082823054
2.9	-0.652382191391395	-0.753463607445826	-5.50294933617016E-06	6.02486682709119E-06	-9.20439049460929E-06	-2.79108715855911E-07	0.861293513524582	-0.4937950978153
3	-0.709470057666334	-0.699537929297701	4.71506475187799E-07	-1.47480624493437E-06	1.13371703532277E-05	1.45426445381171E-06	0.792609903921568	-0.598064221142727
3.1	-0.761934414484208	-0.642041807354722	2.41714481093778E-06	1.04998514520902E-05	4.32974986454202E-06	2.17102754341932E-06	0.711584222931996	-0.692447398959364
3.2	-0.809678259738248	-0.580748422813547	2.11187034117066E-06	6.46589992779079E-06	3.99091382997152E-06	-1.06130046823253E-05	0.61941012702638	-0.77611166398202
3.3	-0.85255759571759	-0.516052499226493	3.08742861398321E-06	4.95917481152467E-06	-2.23547715547497E-06	-9.66759876666498E-06	0.516255148327271	-0.848081275835958
3.4	-0.889467418342474	-0.448440758745737	2.12208154872055E-06	-2.60603781721197E-06	5.95867756673634E-06	1.37572419570904E-06	0.40618203481314	-0.905983042360004
3.5	-0.921590974213183	-0.377028754659775	-3.23805277431932E-06	9.49133799336611E-07	-2.06951523278325E-06	3.42420648683189E-06	0.289344557257971	-0.949652846079769
3.6	-0.948525361385374	-0.303641074119813	-1.81717166622759E-06	-3.74220075207397E-06	-7.81972978360308E-06	4.11547079337395E-06	0.167659094140477	-0.979043435892531
3.7	-0.969263776944497	-0.228521928288621	8.11345959685129E-07	-8.32789040589091E-06	1.07730375698738E-05	3.68290463876341E-06	0.0424372173225352	-0.992236838115719
3.8	-0.984253648042082	-0.151271007573101	9.40320956791824E-08	1.54650396705463E-06	-6.51017224460454E-06	5.95907775907882E-06	-0.0825172346674875	-0.989359651557044
3.9	-0.992895648472157	-0.0736737923032287	-2.63328384265531E-06	-5.0238570877875E-06	-3.69328901445521E-06	8.02875957374006E-06	-0.207639914178126	-0.97082739834836
4	-0.99556978951078	0.00531656315632743	7.12852569704879E-06	-3.9067997675735E-07	-1.04638592357171E-06	-1.20435350081308E-06	-0.32723736083586	-0.937155920136974
4.1	-0.992178260693617	0.0836351461172056	6.1902879111615E-07	-4.44622035079276E-07	7.34619879045473E-06	-4.76503256647574E-06	-0.442820961622055	-0.888790717536896
4.2	-0.982711732438972	0.161634896229735	3.20749227738056E-06	2.09897569384639E-06	-7.19237011009956E-07	-7.61067611104298E-07	-0.551232387873763	-0.825658449712193
4.3	-0.967382649120593	0.237645000367533	-3.18788610526476E-06	1.37552976776774E-06	-4.99310667330961E-06	2.98680820627029E-06	-0.650581939574928	-0.750181497422299
4.4	-0.946341993619739	0.312429684879431	8.05951348175779E-07	2.64227941289424E-06	1.54833207744559E-06	-8.33466838318549E-06	-0.739670589228088	-0.662592348832879
4.5	-0.919227756760167	0.38617465601021	1.8246444042863E-06	-9.41379368900113E-07	7.6370966051747E-06	-2.5986447200853E-07	-0.817273940315402	-0.564286006941628
4.6	-0.885588217362935	0.457816458086279	-7.253710056367E-07	6.13613290422101E-06	-1.23599594329225E-05	-6.4824027708815E-06	-0.881305706160074	-0.457114169208796
4.7	-0.846905821815011	0.525258902386625	1.20484032296312E-06	2.5127824039875E-06	1.42403522721747E-06	1.86734209396063E-06	-0.932053915160797	-0.343092030136035
4.8	-0.8022323042591	0.590692552800979	-5.17339787507893E-06	1.11463880832425E-05	5.24822236738855E-06	9.69695356266525E-06	-0.967820338226401	-0.222920049639013
4.9	-0.752869093712764	0.651768593029064	1.20373622075955E-06	2.9332704227458E-06	-4.92097399264478E-07	-6.92018574604543E-06	-0.988153193452735	-0.0986551184784801
5	-0.698550206759942	0.70855722981144	4.74187735648344E-06	-9.17228411950119E-07	-3.74082347598319E-06	2.42992292068403E-06	-0.991597317664036	0.026856955030376
5.1	-0.64029549966005	0.760822069154382	4.13486544495849E-06	-1.45309960890476E-07	-2.66652896485087E-06	-9.81294399890774E-06	-0.980538723620325	0.150705729151721
5.2	-0.578391218110307	0.808996663991338	2.60796299298328E-06	-1.49975617400396E-05	1.38107107046913E-06	2.82154056477643E-06	-0.954168295879673	0.273349521768334
5.3	-0.512982747136306	0.852177018132792	-8.7121659598528E-06	-7.74567540421417E-07	-1.13490613010539E-06	1.59994146454199E-07	-0.912128469913058	0.391828785987122
5.4	-0.444600384580039	0.890112498590913	-7.18925828438029E-06	-1.10516809249604E-05	-1.37288327536594E-05	1.12009265202272E-05	-0.855028687659696	0.503550824468192
5.5	-0.37349729023511	0.922415042892121	1.90494003771448E-06	8.84473692929137E-08	-2.24457640527961E-06	1.78461097107005E-06	-0.785025638436033	0.606540795601146
5.6	-0.299854855549057	0.948576882952688	-2.40676004128619E-06	3.51633768551729E-06	-1.34119702400639E-06	1.29041614825934E-06	-0.70289158166215	0.699833062028581
5.7	-0.22436619711472	0.969232544814823	1.30678836803366E-06	1.23058445199383E-06	5.76200599668443E-06	-1.22469293554682E-07	-0.609931883675522	0.782349173714339
5.8	-0.147548623752713	0.983301206933946	2.70433603299778E-06	4.25606193384667E-06	-2.10884659753619E-06	4.24209359049635E-06	-0.507067107127677	0.852475492738463
5.9	-0.0703823500359574	0.991461347766563	-6.88225041621712E-06	-2.29688873205002E-06	-7.51090612250787E-08	6.28516997039127E-06	-0.396756710482513	0.909247545640089
6	0.00676838081921179	0.994424124830979	-1.79163154758946E-06	8.86815695361239E-08	-5.45737259507372E-06	-4.39123413925511E-06	-0.280075579345093	0.952327587961831
6.1	0.0850696237984029	0.990976677647737	5.09097331073787E-08	-9.91590429228121E-06	-9.80558253637172E-07	-3.21614514537819E-06	-0.158074971242862	0.979834771978526
6.2	0.163308468783289	0.980940749424728	-1.02542847804257E-06	3.11251277611369E-06	-1.76395640124139E-06	4.21382003393169E-06	-0.0332965898262281	0.991286354786445
6.3	0.240719213451045	0.964638022656926	-8.08463806828041E-07	2.83140554869145E-06	-2.94210168718232E-06	2.39443139541791E-06	0.0916245094551642	0.986959186971965
6.4	0.316477058235922	0.942440106462731	-5.97895495230872E-06	5.54709876049236E-06	-2.38384360702756E-06	-7.517720535943E-07	0.21510618742333	0.967328932318159
6.5	0.39121343956096	0.91455988830619	1.40591186549913E-06	-5.2850080146417E-06	-1.45117319157227E-06	-2.38065720200506E-06	0.335790774719905	0.932110429283182
6.6	0.462399781189546	0.879676054257356	3.65843359346494E-06	2.07633431025739E-07	1.13169467905317E-05	-2.68912556353829E-06	0.449786669627704	0.881310933254635
6.7	0.530272020174046	0.839955256285111	-7.763167531471E-07	8.48507399172007E-07	-3.76998979749568E-06	5.23699030507565E-06	0.555921864075066	0.817827387161612
6.8	0.594973835386173	0.795090855251361	-1.75285174681858E-06	4.49143715383812E-06	1.45391137202283E-06	-8.8488176950338E-07	0.653593005451567	0.741701939352663
6.9	0.655777563001626	0.745267683980854	5.92236651247271E-06	2.2448528234436E-06	-9.29740547167545E-07	2.41677067991351E-06	0.740900412438275	0.653977253724747
7	0.712422913301113	0.690828209184358	1.1405486002462E-06	-4.15070024467203E-06	-1.42827307177611E-06	2.91757737345876E-06	0.816744564409957	0.556079842944797
7.1	0.764655891861186	0.63222307438221	2.40125984438836E-07	-7.18436909597284E-07	1.97482378094618E-06	9.1915564178392E-06	0.879640150901842	0.449203407761413
7.2	0.812136120282163	0.569240211526183	1.38481273744899E-06	-2.41538104321505E-06	-1.01591049464172E-06	-8.56891420993922E-06	0.928456035789124	0.335548019079327
7.3	0.854320806323623	0.502248161725816	4.84598070901534E-06	7.22264249432631E-06	-9.71530309934368E-06	2.34550948866704E-06	0.962341957480169	0.216369237990222
7.4	0.890979866907998	0.431813065843999	5.08989697258053E-06	-6.93022898427341E-07	1.91814683093698E-06	-9.63370123919819E-06	0.980682344466443	0.0936092524724722
7.5	0.921574801171169	0.359534084211028	2.72832982246838E-06	-5.2959273561835E-06	2.07784655793818E-06	-7.25914705814839E-06	0.98338751358906	-0.02899825289972
7.6	0.947663416508995	0.284735815259029	-3.16364375164749E-07	-5.61929583672408E-06	1.67223109437672E-05	3.8455820644984E-06	0.972307856144471	-0.151813481989109
7.7	0.967467043626141	0.207788622087825	3.50606968253566E-06	1.10364673371261E-07	3.22724817869547E-07	-2.91511395114632E-06	0.945673158164559	-0.272494742765353
7.8	0.981059450841687	0.129528674257352	-1.09383289684931E-05	-1.92164752201311E-06	-2.05023699359555E-07	3.42690874086619E-06	0.904379465628545	-0.389020098732318
7.9	0.988283042577255	0.0505435005401474	2.34546127650987E-06	2.02818810700564E-06	-6.91348091361307E-06	-4.70762339704336E-06	0.848995278023297	-0.49930980487159
8	0.990267022719469	-0.0285700472069602	2.33951205414235E-06	2.95252499394672E-06	-9.29659566866565E-06	-7.60307812470664E-06	0.78119399753798	-0.602555777699962
8.1	0.984988883578012	-0.109170760410646	3.82714905093311E-06	-3.05841763137048E-06	2.14983065260647E-06	-3.17636310617427E-06	0.699273561712516	-0.697170858918046
8.2	0.972716442557341	-0.187967240784474	-4.03373279436537E-06	1.40894271914741E-06	-6.74700701329646E-06	3.50649832396239E-07	0.606263956398219	-0.779647695428307
8.3	0.953927297378584	-0.265688049561575	9.85678188431234E-06	3.08031198714325E-07	6.22695227517461E-06	1.04497577358332E-05	0.503608199515278	-0.849694561933909
8.4	0.928875303976465	-0.341645174814842	1.2816709112625E-06	2.55692921519449E-06	3.45726087388483E-06	1.82578553945472E-06	0.392844312684234	-0.906416246168121
8.5	0.897817703192411	-0.41568423213152	-4.8445197360714E-06	4.95645279129747E-06	2.85493357782978E-06	-3.01810106667404E-06	0.275725746276749	-0.948160217003888
8.6	0.860599876999165	-0.486819384351486	-4.50024289794594E-06	2.08207749050108E-06	-3.04665053776109E-06	8.11277150319687E-06	0.15496227953202	-0.975694343477904
8.7	0.817983522210497	-0.554632800673814	-1.02319576048269E-06	1.21509649657578E-06	-6.49295420671587E-07	3.46357594405581E-06	0.0310888596512362	-0.988046404162731
8.8	0.770138783804592	-0.61868905158594	-1.59092412583616E-06	3.07956672376529E-06	-6.0158120785282E-06	1.27701557517996E-06	-0.093346859363868	-0.985094603031058
8.9	0.717517427916749	-0.678861577859967	3.18230375696569E-06	-1.83094346451062E-06	-3.17025220477192E-06	-4.61897253082091E-07	-0.217540904559261	-0.965992462352062
9	0.659783044114697	-0.734273320274386	-7.2998981126348E-06	1.35176158894161E-06	-3.98501238129993E-06	7.25518961860751E-07	-0.337802439611354	-0.930205684306334
9.1	0.59832696391723	-0.784963121903496	-3.35943304472762E-06	-1.88589516206304E-06	-9.85249559535256E-07	2.13782889434473E-06	-0.451990128516434	-0.880475816001904
9.2	0.532321405896841	-0.830595146907395	5.99018000574279E-06	-1.64334448952431E-06	1.99049247771059E-06	8.48787967955031E-06	-0.559212451138264	-0.817001671227492
9.3	0.462861109427367	-0.870659886485465	-3.39161026784895E-07	1.07120124162193E-06	1.36776661318159E-05	1.1832072113292E-05	-0.657511717101074	-0.740095982252614
9.4	0.389861138476353	-0.904538649434295	1.73128141472043E-06	-2.66194322551309E-06	4.28782567340134E-06	1.7577118780423E-06	-0.744761034588111	-0.651311811488931
9.5	0.314995094084421	-0.931898511161527	-6.49776667085792E-06	-4.89357558173557E-06	-1.93846595754159E-06	-5.7032724955025E-06	-0.819921352594875	-0.552583588809082
9.6	0.236576231674956	-0.954531526673974	-1.1684826321374E-05	-2.7866671350381E-07	-5.92054256221409E-06	-4.02433699680617E-06	-0.883604097504152	-0.445820987120201
9.7	0.156020088311035	-0.969410909778392	1.46941855674048E-06	-4.76767728667647E-07	-2.9214017485864E-06	1.63887959120519E-06	-0.933461990257659	-0.330742876263599
9.8	0.0749318741824732	-0.977081276609755	2.20601742326997E-06	1.4038846417959E-06	1.51161216455818E-05	-3.48965783395009E-06	-0.96799753990929	-0.210431180935823
9.9	-0.0061400895701426	-0.977538267162077	-3.47325682905823E-06	8.9749440969478E-06	1.37645789653851E-05	5.00799657541407E-06	-0.987617464835834	-0.0862529825196012
10	-0.0859092176446561	-0.971179974143213	-3.64807416485113E-06	1.61731892767514E-06	1.92755556598469E-05	-1.81504924453184E-05	-0.990560970391952	0.039899051231839
10.1	-0.164787119557142	-0.958034134208286	-1.4827588503727E-06	2.30408717592837E-06	-8.4279269597314E-06	-4.32193245593874E-06	-0.977583399435259	0.164784252361085
10.2	-0.241288674033677	-0.938504742421175	-2.31076816670503E-06	-1.24444041968423E-06	-1.2939718362141E-05	7.22437920989884E-06	-0.948866240510097	0.286921579130768
10.3	-0.314666123376595	-0.913006962657753	5.76654571848176E-06	3.93797613173751E-06	-6.15808544817997E-06	1.3720488283364E-06	-0.90562069006497	0.404064576601421
10.4	-0.385525446324805	-0.882537990696531	2.1021307704927E-06	1.0520903944292E-06	7.19850852775187E-07	-8.23023850235862E-06	-0.848071639592926	0.515144054092404
10.5	-0.453613099982007	-0.845739834109266	4.37864450404367E-07	-3.05581545285703E-07	-6.46985457049231E-07	-5.63904211028296E-06	-0.775756422452904	0.618940340123265
10.6	-0.516968307987853	-0.803391778263964	5.09609865892635E-06	-2.60255090656815E-06	-9.74914126652906E-06	-7.89726274359152E-06	-0.69019150522139	0.710750792140394
10.7	-0.575789945126645	-0.756789959847098	-2.81592063365182E-06	-5.04773909355356E-07	-5.22373962199482E-06	-7.17707728898595E-06	-0.594969295793993	0.790719303469445
10.8	-0.630323639894922	-0.707468479405095	-3.61469669940062E-06	-3.44804831524331E-06	-1.19769856208409E-05	9.14292923139672E-06	-0.491003851840779	0.858040586030053
10.9	-0.681751884467683	-0.655378667418243	-1.13904496716068E-05	-1.04288865597827E-05	-4.47908549651156E-06	1.09667056378996E-05	-0.380046079451005	0.912539102537687
11	-0.728255053136383	-0.600356007837497	1.01136209494986E-06	1.40927762759054E-06	8.66272976184091E-06	-5.50233767145193E-06	-0.261418153551285	0.952282859070091
11.1	-0.771966262444439	-0.544239110294787	-3.25126195530957E-07	-3.6334550885232E-06	1.01905845118797E-05	-1.01986180352421E-05	-0.140466789266855	0.976174849404186
11.2	-0.813212811868258	-0.484491947603693	-1.03034663035579E-06	-3.91661509458247E-06	2.16644591983959E-06	-6.31416816515139E-06	-0.0167227163612428	0.98554272508266
11.3	-0.850581245817439	-0.420677719302313	1.64283330074936E-06	-1.20534496932738E-05	3.5704653199613E-06	-2.82226306251733E-06	0.107203979734172	0.979328013345025
11.4	-0.882499333846992	-0.353734552207717	9.87595814219478E-07	1.88692223802642E-08	-5.6968561462368E-06	6.46504201159023E-06	0.229913824086862	0.957917122399044
11.5	-0.909667344052541	-0.284963522011041	6.55421467067075E-06	-1.23561039647601E-06	8.24670098041139E-06	-3.0480202615471E-07	0.348476942671294	0.921028741368454
11.6	-0.932957719663912	-0.212934042230095	-6.36388714438967E-07	-5.33615822723546E-06	1.44213464044572E-06	-3.08407638942214E-06	0.46181814221085	0.869189216777735
11.7	-0.949105305046548	-0.137101103034816	-9.28121522243142E-08	-6.05473535926245E-06	8.94111541632064E-07	-2.66114577928836E-06	0.567297443981685	0.803672176123038
11.8	-0.9587714074541	-0.059363278775403	-1.07241921826709E-06	-7.41516383070821E-07	5.17060445853046E-06	1.07920475275515E-06	0.663853907327795	0.725870617841113
11.9	-0.961852532057044	0.0200184182276577	-3.22115500915293E-06	-5.21067947102306E-06	-5.39456171395743E-06	-8.01302694764141E-06	0.749402177919865	0.637740182102864
12	-0.957610483171685	0.0991754340792173	-2.94737991406433E-06	1.64539706632269E-06	-1.67539371193982E-05	-8.75265192284567E-06	0.825486230814347	0.539777132115384
12.1	-0.947652625683985	0.177525602598048	8.2471266662356E-07	-1.56909093443875E-06	7.87392684579876E-06	1.22774404792176E-05	0.887221448651814	0.430142799045865
12.2	-0.93026566744864	0.255327105696298	-4.10226175802025E-06	5.55336833483503E-06	4.18239163472932E-07	3.31273524433685E-06	0.934155275281082	0.314651263868386
12.3	-0.907322042550863	0.331044679439528	7.83877698104905E-06	6.38519283861617E-06	4.2556213777622E-07	1.08948210214907E-05	0.966223389477485	0.193944076291199
