# GHZ S RI R 50
0.2	0.985245294540947	-0.157057400673475	2.56377743648202E-06	2.24817672706265E-06	6.5660922215607E-06	-4.86829385428385E-06	-0.965947843912178	0.251847985233982
0.3	0.969092991974193	-0.234102094307495	-8.75008964701694E-07	-5.45053683097304E-06	-3.46706063977839E-06	-7.93989248046056E-06	-0.926148994737502	0.371815354640555
0.4	0.947506766422395	-0.309332787516029	-7.27415818074907E-06	-9.8814348442813E-07	4.43853797490603E-06	1.5425474228121E-06	-0.871255523688849	0.485414113427875
0.5	0.920605715231464	-0.382672698550805	6.19529130947986E-06	2.10176534656354E-06	-2.41258064316652E-06	-1.9059991819579E-06	-0.802710487017556	0.59136325863247
0.6	0.887695327314341	-0.453747592494584	-1.05436206347505E-05	2.46166345780566E-06	-2.21714753865702E-06	-1.0058851438169E-06	-0.721280562847301	0.687638622578518
0.7	0.849406454832844	-0.521623947408041	2.78179749558201E-06	-1.17199462449396E-06	-2.98369683751915E-06	5.78490013302672E-06	-0.628641936381134	0.772952805987082
0.8	0.805840732989128	-0.586607293573514	1.1732151970391E-06	-8.46907115741663E-06	-6.61591605095092E-06	-3.06572861750425E-06	-0.525983381887811	0.845707596033681
0.9	0.757276237960626	-0.648090937350408	-1.14580571834371E-06	-6.80122791573191E-07	2.5471241646089E-06	6.53663595136213E-06	-0.415216864933475	0.904810753584105
1	0.703807153858997	-0.705692787775465	-2.74223725726717E-06	-3.21859486638641E-06	-4.05660239010245E-07	-7.30817765225989E-06	-0.298260866437917	0.949335707479046
1.1	0.6467885752279	-0.758868614078439	1.80484495506693E-06	-4.93536905392002E-06	2.26775369681446E-06	-5.12862250019842E-06	-0.176529900535659	0.979182157419447
1.2	0.584472708720939	-0.808268831221869	-2.49355137161331E-06	2.48860826669417E-06	9.25280373681297E-07	-9.09774825733019E-07	-0.0516965018145646	0.993434614875411
1.3	0.516909177753679	-0.852779298083891	-1.53670877762395E-06	7.18644255038019E-07	-1.3544060590979E-06	1.46192137483673E-06	0.0741085353166904	0.992152457729921
1.4	0.446113457951652	-0.891392146297112	3.91870530753954E-06	-3.23863435606633E-06	2.70272095064761E-06	1.09301073252605E-05	0.199399569969392	0.974208645824998
1.5	0.373198117545915	-0.923293844772722	-5.33114619064454E-06	1.11025476377033E-06	6.58016089713417E-06	-7.2011274137939E-06	0.320805963165394	0.94064785030597
1.6	0.299839981415887	-0.94941593733887	1.7722857766554E-06	-7.72912035896404E-06	3.62748196018534E-06	1.37989268988214E-06	0.436509889392972	0.892104602906922
1.7	0.225531876765092	-0.969469151755416	-1.93883854340501E-06	-9.6767677184166E-07	-2.35523465904708E-07	-2.08393823811312E-06	0.544460226423072	0.830224854033644
1.8	0.149044338371404	-0.98390081166352	2.84672548710882E-06	5.27035791851064E-06	4.32853474450286E-09	2.0282336877376E-06	0.644165645000191	0.754946926811702
1.9	0.0718504799144851	-0.992176605238438	5.66326570561512E-06	-2.62594404052482E-06	-2.99218161724567E-06	4.14781733393384E-07	0.732929247483269	0.667893480969143
2	-0.00442814595754358	-0.99452164786958	-1.54364099300947E-06	-2.0238851001678E-06	3.19655828419051E-06	1.14380353042911E-05	0.81019985815896	0.570764093805926
2.1	-0.0827286728907843	-0.991784156205634	-7.54501778035358E-06	2.44538714250437E-06	1.20137886792176E-06	5.1396809103046E-06	0.875443328053364	0.464776527527013
2.2	-0.159250943020409	-0.982588012161738	-8.83019848884857E-07	1.39151361125925E-06	2.99268825812343E-06	7.7679915270499E-06	0.92682878793107	0.351131872634834
2.3	-0.23623277199206	-0.9668996126993	1.71575094051739E-07	7.44257239620478E-06	7.37671993552826E-07	9.38117143490416E-07	0.962888995620665	0.232497649209576
2.4	-0.311952625924779	-0.944898121243301	1.56696705634769E-06	7.16560771560965E-06	1.50996260652185E-06	6.38006010496272E-06	0.984289066123808	0.109481739822327
2.5	-0.385063163878379	-0.917688996163858	4.38869479889609E-06	-2.30257358748671E-06	-1.89747007584651E-06	-7.56449809450104E-06	0.989758697112054	-0.0141798704944039
2.6	-0.456138998571199	-0.884357039131805	6.77551833192477E-06	-5.92328705466355E-06	-1.11114355373024E-05	1.07909725468051E-05	0.980406632106647	-0.138114046589945
2.7	-0.524497746705426	-0.845700247230262	-4.4610576400572E-06	9.1241711051025E-06	-2.84829704797356E-06	-9.15856926971277E-06	0.955480445430781	-0.260226803024254
2.8	-0.588767693243897	-0.802409747067212	2.45335950949933E-06	1.14912415380617E-06	-3.1293017598063E-06	1.23519406992549E-06	0.916077987695326	-0.378039751613408
2.9	-0.649390522996908	-0.754746051098542	-5.51302017414795E-06	5.99847820407119E-06	-9.18920981510526E-06	-3.07137408659571E-07	0.861488229680758	-0.489981343084767
3	-0.706981327326269	-0.70130431917153	4.75732658871027E-07	-1.47173320808853E-06	1.13205014285702E-05	1.48905103152311E-06	0.79314556158393	-0.594468260724315
3.1	-0.759381566360341	-0.644197785944295	2.38218149531813E-06	1.04976536302561E-05	4.31897109528852E-06	2.18250932806783E-06	0.712532790236485	-0.688866268516141
3.2	-0.807479442179963	-0.583577495977335	2.08972081255059E-06	6.46797073729454E-06	4.0218883931488E-06	-1.05926156240676E-05	0.620875940726918	-0.772714448219928
3.3	-0.850947916187974	-0.519323240801823	3.07039846763123E-06	4.96679075135636E-06	-2.20391990446564E-06	-9.67047577634194E-06	0.518230921910222	-0.845082460154561
3.4	-0.888587591191362	-0.451761942696419	2.12891391126027E-06	-2.59942937277208E-06	5.95336411654481E-06	1.39218444153269E-06	0.408257304279249	-0.903648054854286
3.5	-0.920695157464955	-0.379942274564859	-3.23751997854671E-06	9.39579247699057E-07	-2.07670566507546E-06	3.41542887349479E-06	0.291033050716833	-0.946939211743787
3.6	-0.947673240033021	-0.307309903303738	-1.80254076278834E-06	-3.74549874047909E-06	-7.82773850387162E-06	4.08463595483195E-06	0.170563179033466	-0.976304599755912
3.7	-0.969186412242831	-0.232488653510374	8.41284994735708E-07	-8.32179741986653E-06	1.07555917569841E-05	3.72063917144798E-06	0.0458666262550007	-0.990357736264653
3.8	-0.984850259747329	-0.155147335311328	8.83631984890677E-08	1.54657831621575E-06	-6.53081904060933E-06	5.93424503505933E-06	-0.0789459527503276	-0.988233723239246
3.9	-0.99395204009152	-0.0772775062406383	-2.61378566949721E-06	-5.03380363427235E-06	-3.72411206750451E-06	8.01416524816529E-06	-0.204060986030796	-0.9703603390138
4	-0.99679432328957	0.00194346162585181	7.13402042410779E-06	-3.60655777482196E-07	-1.04184117989249E-06	-1.20943995969915E-06	-0.323604790620944	-0.937362570242179
4.1	-0.993576114771562	0.080211723821905	6.21514999348271E-07	-4.4274541681526E-07	7.37370733521418E-06	-4.74214178499575E-06	-0.439463707900956	-0.889856703314472
4.2	-0.984414033837332	0.158193113703273	3.20475851375991E-06	2.11323608279081E-06	-7.17606606851926E-07	-7.64683582170723E-07	-0.548341436811517	-0.827374856765594
4.3	-0.969367103532705	0.234183648395853	-3.19677488039092E-06	1.36730814594288E-06	-5.00968288617304E-06	2.9751065829018E-06	-0.648204536514237	-0.75242636249561
4.4	-0.948723942455788	0.30875379399985	7.98261086318535E-07	2.64775129992379E-06	1.57701762947129E-06	-8.33867254917482E-06	-0.737794204442285	-0.665430789888246
4.5	-0.92263439973413	0.382788832324036	1.83103620048076E-06	-9.35471208737268E-07	7.64918490009686E-06	-2.29809377155343E-07	-0.8164880705006	-0.567807405197428
4.6	-0.888968862545955	0.455000277598289	-7.49189981609854E-07	6.14630194750807E-06	-1.23621901827328E-05	-6.54086031984847E-06	-0.881643229074375	-0.460433563260683
4.7	-0.850654581733476	0.522460828156321	1.19872124632555E-06	2.52263996168964E-06	1.42067229115824E-06	1.87652291762694E-06	-0.933148036568447	-0.346202897444984
4.8	-0.806656915512953	0.588200329731819	-5.22615171573771E-06	1.11574268218739E-05	5.22789138015957E-06	9.7408320194764E-06	-0.969726918488456	-0.225872895250595
4.9	-0.758112277668118	0.650070249540019	1.19812301354666E-06	2.94710095653092E-06	-4.70958362094045E-07	-6.94508160368831E-06	-0.991297879938121	-0.101283733526046
5	-0.703561029493977	0.708456564408114	4.76140877908076E-06	-9.11226414001394E-07	-3.75962396708529E-06	2.4315600554129E-06	-0.995680837558226	0.0262154431769586
5.1	-0.644859708988455	0.760694070755092	4.14743314462687E-06	-1.38837258535696E-07	-2.65808816343627E-06	-9.84664745328151E-06	-0.983668912370392	0.150903735500052
5.2	-0.583316616885296	0.809444992724864	2.63979495012804E-06	-1.50359893585717E-05	1.38040801683034E-06	2.83181666843099E-06	-0.957187171704999	0.273872137684233
5.3	-0.517828467360997	0.853510272361345	-8.73346333383657E-06	-7.90061834126665E-07	-1.13808456738824E-06	1.58649452219503E-07	-0.914946556763509	0.392814027999619
5.4	-0.449047855431189	0.8921349265762	-7.18460023751118E-06	-1.10884305617955E-05	-1.3778607387824E-05	1.12000069981227E-05	-0.857616418398644	0.504695050288375
5.5	-0.37745132954954	0.924902778359525	1.90901849907497E-06	9.43275477497346E-08	-2.25501256687107E-06	1.78198779567193E-06	-0.787805957694704	0.607809191286802
5.6	-0.30351622977713	0.951192332439274	-2.42574788612122E-06	3.52136076065589E-06	-1.34976328976741E-06	1.29088037062423E-06	-0.705826564226835	0.701700304045985
5.7	-0.228001723504696	0.972273415103523	1.30875280684896E-06	1.23897964036595E-06	5.78539694051037E-06	-1.07663521924651E-07	-0.612715354780651	0.784743914972256
5.8	-0.150902827088048	0.986977268635512	2.70664062463367E-06	4.28072415996461E-06	-2.12755916491032E-06	4.25592666695197E-06	-0.509565833261355	0.855301591221528
5.9	-0.0732910985237211	0.995537745471326	-6.90807891463375E-06	-2.31756024223533E-06	-8.53333554342927E-08	6.31194434467307E-06	-0.398974018227649	0.912112064656372
6	0.00362920460927041	0.999512218760249	-1.79844331572231E-06	8.469879954996E-08	-5.4669095929816E-06	-4.42053329137843E-06	-0.283265819971224	0.955573341497071
6.1	0.0837684879990569	0.997481421319445	7.67203006711439E-08	-9.96906542574782E-06	-9.77545476287417E-07	-3.23595534738E-06	-0.160687923380527	0.985103865720806
6.2	0.163793564835561	0.987160452474306	-1.03630862704917E-06	3.12977280150171E-06	-1.78095600003412E-06	4.23662167690222E-06	-0.0343346063905356	0.9972882888023
6.3	0.242244101577061	0.97003846297713	-8.15108030986265E-07	2.84805417322905E-06	-2.96139801161933E-06	2.40711639778358E-06	0.0919644549824429	0.992845804692364
6.4	0.318018606348055	0.947296174910112	-6.01628962881442E-06	5.5771863415454E-06	-2.39751707268755E-06	-7.57156128844085E-07	0.215869972542377	0.972980301099692
6.5	0.393809977398945	0.920417744996894	1.41654614263154E-06	-5.32287738002287E-06	-1.46137398257143E-06	-2.39792202777698E-06	0.337971226215991	0.939280745995662
6.6	0.46665841511804	0.88403780840963	3.68467248618631E-06	2.01602720192991E-07	1.13912880883899E-05	-2.7312869542743E-06	0.454670370277785	0.887037346556826
6.7	0.534789806924868	0.843257811749097	-7.78591626162228E-07	8.56011423657517E-07	-3.7777491993079E-06	5.28029695027186E-06	0.561636561160518	0.821891607379549
6.8	0.599825255220184	0.797528385165522	-1.74659285998893E-06	4.52210483149866E-06	1.45872395986022E-06	-8.94828004292877E-07	0.659767235555392	0.744221919231692
6.9	0.660791259447238	0.746796293017256	5.95939910028075E-06	2.23057368373405E-06	-9.23977410315433E-07	2.43193991565846E-06	0.746953085073663	0.654940125649583
7	0.717540572565183	0.691671617271613	1.1279929405668E-06	-4.16845948109442E-06	-1.42145593161123E-06	2.93250776442348E-06	0.822313458667849	0.556282061244261
7.1	0.769959504913035	0.632116141735855	2.38649513425043E-07	-7.21758949561946E-07	2.01158711785964E-06	9.21771197198574E-06	0.885424197689161	0.448411011346697
7.2	0.817331937796669	0.568213742159421	1.38130323873308E-06	-2.42941955191925E-06	-1.05057779874852E-06	-8.5973659180992E-06	0.933951339761382	0.333428922968525
7.3	0.859418155795227	0.500299364131833	4.89403852749022E-06	7.23064878984599E-06	-9.74307885527387E-06	2.39411695326419E-06	0.967295851299248	0.21290614658621
7.4	0.895825988914785	0.42844030929424	5.1066764462221E-06	-7.22512208219145E-07	1.87528735156098E-06	-9.68240868143208E-06	0.984513731017759	0.0883061278080199
7.5	0.924547127007833	0.355305715800317	2.69957823939929E-06	-5.32353039555999E-06	2.03526466779614E-06	-7.28632614302939E-06	0.984114278698622	-0.0344497853297235
7.6	0.950170420523407	0.28088692658892	-3.4581613033905E-07	-5.62424498210081E-06	1.67618128423885E-05	3.76354828604999E-06	0.972530548894897	-0.15623605184446
7.7	0.969421084613411	0.203461094000804	3.51047250395706E-06	9.23673060695021E-08	3.08013412209974E-07	-2.91996819116497E-06	0.944987932137253	-0.276995108287558
7.8	0.982044850384048	0.125050696049655	-1.0952712179324E-05	-1.86789519643601E-06	-1.88009505222197E-07	3.42943336484361E-06	0.902626917593325	-0.392967430201099
7.9	0.987793707304722	0.046776332200375	2.3520711261663E-06	2.01756191896371E-06	-6.92789858063069E-06	-4.67710104019541E-06	0.846380269298706	-0.501765585985796
8	0.990294447338969	-0.029767868810921	2.34350469896501E-06	2.94977455507181E-06	-9.30715850097419E-06	-7.59179356905343E-06	0.780496582442069	-0.603478339072501
8.1	0.987244969827718	-0.111411663377064	3.83296788129312E-06	-3.07462648372299E-06	2.1504113184999E-06	-3.18983346916051E-06	0.699263209403008	-0.700790482015228
8.2	0.974823647952607	-0.19159680489376	-4.04328766970092E-06	1.4278348680399E-06	-6.76988330850051E-06	3.75089846644628E-07	0.604322504580312	-0.784271259005395
8.3	0.955457080749334	-0.270108842946119	9.89245740515124E-06	2.64664514882978E-07	6.29572425049346E-06	1.04580336991409E-05	0.499919191706078	-0.85412816290431
8.4	0.929708098137949	-0.346564888023907	1.29985868137061E-06	2.55851317013486E-06	3.47875018217811E-06	1.81309622352908E-06	0.387621196980783	-0.910098438064403
8.5	0.898024428911014	-0.420966514841362	-4.82381609533915E-06	5.00083277956567E-06	2.84208995381319E-06	-3.04449688330532E-06	0.269666177963178	-0.950438745953146
8.6	0.859908458785599	-0.492467717355059	-4.49374698284438E-06	2.11475244787639E-06	-2.99847659573903E-06	8.14547000084542E-06	0.148361675943824	-0.977340773019794
8.7	0.816365299726368	-0.560310516026561	-1.01642927794618E-06	1.22333553099774E-06	-6.27233488235289E-07	3.47209896411227E-06	0.0236219723394586	-0.988560187827054
8.8	0.76764274223318	-0.624316803539918	-1.57167508165835E-06	3.09291010499958E-06	-6.01249659154325E-06	1.31843817170853E-06	-0.101262387653275	-0.984250868402761
8.9	0.713987935558178	-0.684544917972182	3.17270527752154E-06	-1.85457286634585E-06	-3.1764225170624E-06	-4.40514259250589E-07	-0.226036889585459	-0.964070603352156
9	0.654412825076721	-0.739320400624159	-7.29136984683639E-06	1.41499748720173E-06	-3.98046331450357E-06	7.60034193281435E-07	-0.347348747411312	-0.925253379034424
9.1	0.592110097205033	-0.788464604561224	-3.36981883915458E-06	-1.8535791504778E-06	-9.6506193044522E-07	2.14258286185888E-06	-0.459418577998422	-0.872853005816882
9.2	0.525540092214737	-0.832737053360267	5.95912974018425E-06	-1.68718725542904E-06	2.05361460746824E-06	8.44663080063621E-06	-0.564666103893919	-0.808072872494257
9.3	0.455885182099744	-0.871414267490029	-3.2976420079134E-07	1.06956285211285E-06	1.37132537007077E-05	1.16827237916712E-05	-0.660801484377352	-0.730601459091615
9.4	0.382261191850616	-0.904214828869524	1.70364464546784E-06	-2.6619821524977E-06	4.28035920762007E-06	1.71807667034244E-06	-0.746407795675206	-0.641717216424156
9.5	0.307937934338917	-0.928071687605043	-6.48303390421671E-06	-4.82440899091416E-06	-1.95826923123459E-06	-5.65479262662812E-06	-0.818734100565645	-0.543414185479185
9.6	0.232231742826348	-0.950753685299907	-1.16255244660752E-05	-2.31179279355723E-07	-5.90579760342482E-06	-3.98020342541647E-06	-0.882454704280191	-0.438776149757717
9.7	0.151970965410644	-0.966011046211762	1.46062973177003E-06	-4.80817112174428E-07	-2.90099224918237E-06	1.64374998021038E-06	-0.932336160647432	-0.32340581458266
9.8	0.0708721531243976	-0.973308036644033	2.20144374766958E-06	1.38725986766367E-06	1.50267763830272E-05	-3.53948114873425E-06	-0.96583256453476	-0.202852246802542
9.9	-0.0100397721711446	-0.972713286565275	-3.41688915795405E-06	8.93957471402486E-06	1.37090154337242E-05	4.9233140908169E-06	-0.983974930346065	-0.0790018846352144
10	-0.0883655487587083	-0.965517316983796	-3.62177024781572E-06	1.62080687438968E-06	1.91032372148697E-05	-1.81144451936496E-05	-0.985454205801941	0.046081769449953
10.1	-0.166496582761645	-0.952379489809902	-1.46669223155906E-06	2.29506608094873E-06	-8.3914598228919E-06	-4.26971009019575E-06	-0.971882134292642	0.169402605965414
10.2	-0.241980787163393	-0.932490001721835	-2.29966721732901E-06	-1.23116085339728E-06	-1.28427929752017E-05	7.21183728137057E-06	-0.942902407815266	0.290244212925666
10.3	-0.314221155041614	-0.907204783444461	5.73902760365736E-06	3.90431612474941E-06	-6.11889210025748E-06	1.37468169265885E-06	-0.899658948425141	0.405902151681304
10.4	-0.384605086377691	-0.877226984082051	2.09167109180506E-06	1.04423756678034E-06	7.0771383660135E-07	-8.1859015734702E-06	-0.843305319596232	0.515330339055959
10.5	-0.452520306055485	-0.840010347608675	4.35849537121412E-07	-3.05015453214382E-07	-6.51866409433983E-07	-5.61733585206136E-06	-0.772831011929295	0.620589777213819
10.6	-0.514790576545002	-0.797226413013668	5.06694048913944E-06	-2.60773373971717E-06	-9.73358769882294E-06	-7.83421905553595E-06	-0.685326664415865	0.712792242852711
10.7	-0.572197806845617	-0.750632000910534	-2.80231204162443E-06	-4.92681114852722E-07	-5.21922254482845E-06	-7.12076908834631E-06	-0.589413099578687	0.791092269659824
10.8	-0.625336196674337	-0.702257788642437	-3.6014304292962E-06	-3.41767110235801E-06	-1.18802299368008E-05	9.11773115614919E-06	-0.486186642663565	0.856792322621583
10.9	-0.676919915098181	-0.651617026493356	-1.13473644270432E-05	-1.03443489751481E-05	-4.42969657394907E-06	1.09132465023422E-05	-0.376357365505219	0.910756464997139
11	-0.72338491619482	-0.594807290323688	1.00865275431895E-06	1.39657196985391E-06	8.58677348513182E-06	-5.49058568935973E-06	-0.2578090597094	0.94969322425757
11.1	-0.764035621293454	-0.539890220062286	-3.26376611423366E-07	-3.605064721131E-06	1.01013473494868E-05	-1.01304221451515E-05	-0.13902737191359	0.972824795946856
11.2	-0.804690173771649	-0.482249995167307	-1.02354512980637E-06	-3.88878821764586E-06	2.15034186891316E-06	-6.26978139126989E-06	-0.0163698204061275	0.98303717344214
11.3	-0.842235608911549	-0.419861472231865	1.63241587567855E-06	-1.19735312015935E-05	3.54691996550473E-06	-2.80342720641559E-06	0.107404194659282	0.977285497109365
11.4	-0.874494140267103	-0.353280639477012	9.80987559079911E-07	1.85843310301589E-08	-5.65768148524782E-06	6.42267765873341E-06	0.229907813280024	0.955719506789027
11.5	-0.899595110337454	-0.285201272957129	6.50536747784685E-06	-1.22193017166837E-06	8.18441660211171E-06	-2.97059493493723E-07	0.347660677191805	0.9186962037448
11.6	-0.923205034153954	-0.216391491698623	-6.23732015671318E-07	-5.29958665436246E-06	1.43671433944737E-06	-3.06016540995752E-06	0.460333030748553	0.866988549007213
11.7	-0.940822440382343	-0.142055058539704	-8.14666697118138E-08	-6.01347418238964E-06	8.92701613379138E-07	-2.64135709020762E-06	0.565126388958376	0.801382288579853
11.8	-0.952025804057356	-0.0651801783505246	-1.06347328049799E-06	-7.38590052343065E-07	5.13260424603295E-06	1.08236805196717E-06	0.660479176209586	0.723190043690648
11.9	-0.956723810456589	0.0140768619551149	-3.18248014245666E-06	-5.18071006276168E-06	-5.33178774904088E-06	-7.96817360709603E-06	0.74306857370352	0.635067083715193
12	-0.9532970292351	0.0945976556514372	-2.93528143189369E-06	1.61953986738556E-06	-1.65956978065243E-05	-8.77536687027212E-06	0.816632633330894	0.541965489217558
12.1	-0.943027959679494	0.172915476933731	8.27764575356651E-07	-1.55664353470541E-06	7.77247049671684E-06	1.22486853793602E-05	0.880013678011219	0.434303347433975
12.2	-0.925693875103701	0.250268144464955	-4.10776431994241E-06	5.50330388691271E-06	3.99601437523265E-07	3.29705250218907E-06	0.926967035896226	0.320526374288773
12.3	-0.902928592192654	0.325273883553361	7.76138023292275E-06	6.39726113358555E-06	3.60600440496671E-07	1.08408208955483E-05	0.959877263999733	0.202268908364249
