# GHZ S RI R 50
0.2	0.985096378873538	-0.157096532900546	2.5636122994881E-06	2.24774279285123E-06	6.56499186035853E-06	-4.86812672206702E-06	-0.965876475289442	0.251915984231734
0.3	0.968916424466637	-0.234105735707788	-8.75199454154576E-07	-5.44953171498758E-06	-3.46695598135846E-06	-7.93829033948657E-06	-0.926020991515207	0.371900991511028
0.4	0.947271010338249	-0.309256553761946	-7.27204535660508E-06	-9.87509389642651E-07	4.43729279447467E-06	1.54188161816977E-06	-0.870986595027144	0.485467868716684
0.5	0.920504457605039	-0.382325157564657	6.19241384908609E-06	2.10246392106882E-06	-2.41119645271588E-06	-1.90585555250575E-06	-0.802464095103729	0.591084384330753
0.6	0.887893864378072	-0.453577951482479	-1.05431008356534E-05	2.45852373588357E-06	-2.21662463184237E-06	-1.00637369970396E-06	-0.721317257238372	0.687459310983256
0.7	0.849550435710524	-0.521603734955106	2.78167960637681E-06	-1.17137595282898E-06	-2.98435693058134E-06	5.7837132991613E-06	-0.628666660840231	0.772872175319865
0.8	0.805893631296087	-0.586579422291519	1.17434423419523E-06	-8.46730476476683E-06	-6.61419411663435E-06	-3.06620972504936E-06	-0.525995787002922	0.845662087166986
0.9	0.757261255484754	-0.647878637597768	-1.14530901129524E-06	-6.80154255951191E-07	2.54496187314828E-06	6.53515574774316E-06	-0.415194763298471	0.904804508047732
1	0.704055620794764	-0.705155780271185	-2.73978721472503E-06	-3.21844585575319E-06	-4.02440646631408E-07	-7.30540501456972E-06	-0.298117998036877	0.949307679376392
1.1	0.647471294572029	-0.758317338608825	1.80711900328943E-06	-4.93241617822848E-06	2.26996808902888E-06	-5.12531889085828E-06	-0.176291894702232	0.97897710604426
1.2	0.585562322041331	-0.807852988475546	-2.49450372763209E-06	2.4855591563793E-06	9.25622777832552E-07	-9.08649137196946E-07	-0.0514914411944862	0.992834791884628
1.3	0.518382742618157	-0.852627093744957	-1.53697845736814E-06	7.16541014059663E-07	-1.35563002771868E-06	1.45975180972563E-06	0.0737633866418347	0.991195038525204
1.4	0.447985867609646	-0.891800335101779	3.92398135133067E-06	-3.23280827699588E-06	2.6860282283654E-06	1.09350457846978E-05	0.198421554745238	0.973615474324704
1.5	0.374791136295257	-0.924764784413564	-5.33663267337511E-06	1.10397145117971E-06	6.5947170127133E-06	-7.19775152765686E-06	0.319659234036876	0.940553645964283
1.6	0.300793314432121	-0.951036242361916	1.78090627786988E-06	-7.735139939452E-06	3.62981931623189E-06	1.384477251028E-06	0.435493729203459	0.892746157892055
1.7	0.226260653929116	-0.971228507011991	-1.9403179038944E-06	-9.69984369662907E-07	-2.34429022231802E-07	-2.08635486902216E-06	0.543921438155522	0.831230225215115
1.8	0.14954665074221	-0.985903742105284	2.84795127229574E-06	5.27837789729413E-06	3.4086809099312E-09	2.03082222425468E-06	0.644148421216847	0.756150565943884
1.9	0.0718185739640411	-0.994490499792758	5.67182479979097E-06	-2.63037811066951E-06	-2.99676959151914E-06	4.15623992304167E-07	0.733796619011053	0.668932699590762
2	-0.00522437935266242	-0.996235284938656	-1.54617379343795E-06	-2.02411860864603E-06	3.2071337778781E-06	1.14434206884684E-05	0.810892196239857	0.570265102717557
2.1	-0.0830672650836521	-0.993312052188583	-7.54968879979905E-06	2.44570317787341E-06	1.20132825916055E-06	5.14279609353908E-06	0.87504718316335	0.465105756638935
2.2	-0.159895330514564	-0.984304055966758	-8.83963999463064E-07	1.39298489774011E-06	2.99582091324556E-06	7.776247495568E-06	0.926964339613159	0.352026690624746
2.3	-0.237254098903286	-0.968384031561092	1.74772731823313E-07	7.45135278246912E-06	7.38926442919858E-07	9.38935873220177E-07	0.963642372076801	0.233393761629577
2.4	-0.313163560952673	-0.945951990872959	1.57515982869416E-06	7.1718970108904E-06	1.51738075750914E-06	6.38555570309535E-06	0.98565582923342	0.109910969611883
2.5	-0.386154150640132	-0.918300379553457	4.38822360149914E-06	-2.30960971671996E-06	-1.90840594000148E-06	-7.56638143660777E-06	0.991116132588571	-0.0147092933630805
2.6	-0.456995578648696	-0.884761925512133	6.76776812331321E-06	-5.93337102285898E-06	-1.1097206487106E-05	1.08076056383237E-05	0.981264262705149	-0.139284887922517
2.7	-0.525174142989062	-0.845965702849372	-4.44715054079711E-06	9.12574848752558E-06	-2.85887244907033E-06	-9.1506406086013E-06	0.955386246066942	-0.261596073771438
2.8	-0.589134285001591	-0.802504456675444	2.45253202740647E-06	1.1459001763036E-06	-3.12568549166195E-06	1.23719587852338E-06	0.915388871931529	-0.378846880393583
2.9	-0.648946815016481	-0.754952482962228	-5.50416199433609E-06	5.99478202618704E-06	-9.17953096854475E-06	-3.02273636699209E-07	0.860837532148636	-0.490288994872644
3	-0.706402363523548	-0.703127219552569	4.76243133677802E-07	-1.47032602295443E-06	1.13109662806839E-05	1.49463603950104E-06	0.792467122495876	-0.594717900827373
3.1	-0.760020102154964	-0.645982502040013	2.37658300813683E-06	1.05012064990582E-05	4.31859779164389E-06	2.18546661718308E-06	0.711772640490191	-0.688576528110635
3.2	-0.808294121368662	-0.585110629204973	2.08782790909998E-06	6.47224869082792E-06	4.02880933209275E-06	-1.05962085346977E-05	0.620516872112284	-0.771978644614979
3.3	-0.8518665779063	-0.520846844979796	3.0702896620473E-06	4.97270902583703E-06	-2.20049123427175E-06	-9.67992754257012E-06	0.518559986424387	-0.844116598751999
3.4	-0.889854177939278	-0.453601528248477	2.13441445513165E-06	-2.60244967765616E-06	5.9627093426948E-06	1.39874602777721E-06	0.409800269315647	-0.903236470048472
3.5	-0.92333626506801	-0.380977840695001	-3.24529031524774E-06	9.45475912783582E-07	-2.07877192407103E-06	3.42680895957476E-06	0.291541255885633	-0.948694767312574
3.6	-0.949248253874112	-0.30707875783403	-1.81017006603675E-06	-3.74701246638831E-06	-7.83042708798656E-06	4.10093736936669E-06	0.169924807315932	-0.976336963247318
3.7	-0.970188222116417	-0.232502674602996	8.33984521900568E-07	-8.33137799443526E-06	1.0770564405705E-05	3.71397338684353E-06	0.0462657455704127	-0.990058954745149
3.8	-0.98565567307212	-0.155277140511634	9.0074578350846E-08	1.54855285866391E-06	-6.53342770890557E-06	5.94889907513835E-06	-0.0779882203579709	-0.988656548138915
3.9	-0.99450360024495	-0.077590205213616	-2.62524563154475E-06	-5.03673673149023E-06	-3.71682795860763E-06	8.03109550893398E-06	-0.203553069057698	-0.972006704891733
4	-0.997435661387748	0.00110607807123291	7.13708983607211E-06	-3.73018326239215E-07	-1.04444358490822E-06	-1.20828647681373E-06	-0.324936258269885	-0.938872289664518
4.1	-0.994753609572551	0.0793753904355943	6.21403434287235E-07	-4.4362132379671E-07	7.37290441239656E-06	-4.75225435638593E-06	-0.440977557698733	-0.890202801217736
4.2	-0.985931118566663	0.157788061958991	3.20951728623897E-06	2.11230711722631E-06	-7.18929995873801E-07	-7.64738403752089E-07	-0.549735356603144	-0.827216994455421
4.3	-0.970798636388649	0.234571479765504	-3.19946827980423E-06	1.37278315894682E-06	-5.01295216204373E-06	2.98479482275566E-06	-0.649498619654368	-0.751932544187727
4.4	-0.948836459276081	0.309961020976318	8.05336957878387E-07	2.64921077806552E-06	1.55982190421713E-06	-8.35266765623735E-06	-0.738914008270877	-0.664548194417483
4.5	-0.921349584052405	0.38186304935286	1.82693012902678E-06	-9.38751978179289E-07	7.64059964166332E-06	-2.47385687521355E-07	-0.817246460298829	-0.567046249931996
4.6	-0.889393862657213	0.453657263836268	-7.45290777224875E-07	6.14107035865217E-06	-1.23542999383465E-05	-6.52841210193143E-06	-0.882877492317409	-0.459371989789831
4.7	-0.851228110893751	0.521582613177731	1.19849133205245E-06	2.5208495529487E-06	1.42017629892553E-06	1.87508487387469E-06	-0.934061572557386	-0.344355677945707
4.8	-0.807014615738338	0.587409622101896	-5.22414099916532E-06	1.11479248710268E-05	5.2221313998525E-06	9.73429232311554E-06	-0.969700263639146	-0.223554061896334
4.9	-0.758291652049369	0.64851155056889	1.19302190354728E-06	2.94551296206266E-06	-4.61445629080125E-07	-6.9382872095966E-06	-0.989779468535793	-0.0997028062094637
5	-0.706125616332676	0.706806995169611	4.76889400431893E-06	-8.98702446878751E-07	-3.77037532953504E-06	2.42343608210825E-06	-0.995867958675489	0.0259330178815664
5.1	-0.646607885466054	0.761557587517541	4.15651932802753E-06	-1.35223139474527E-07	-2.65453532684478E-06	-9.87041681188273E-06	-0.983963822004853	0.153162451517447
5.2	-0.583838142164087	0.810248399108194	2.65152265161424E-06	-1.5065567941736E-05	1.38203178904528E-06	2.83817898420256E-06	-0.955885126737477	0.27589729701563
5.3	-0.517872407726245	0.854178980917331	-8.75624132882489E-06	-7.90849738592242E-07	-1.14101502547864E-06	1.59225656341221E-07	-0.913457121916303	0.393977624839245
5.4	-0.448440025436205	0.892849487696875	-7.22612145698943E-06	-1.11108472487298E-05	-1.38025660705911E-05	1.12587202731779E-05	-0.856671649074642	0.505669760589539
5.5	-0.376379303949056	0.925010301867948	1.91191010638059E-06	8.73045374745783E-08	-2.25133825990546E-06	1.79280130897312E-06	-0.78715146916716	0.609854062529358
5.6	-0.302305969743211	0.951450947496157	-2.41701179259226E-06	3.52804719988117E-06	-1.34662004764308E-06	1.29451485722638E-06	-0.703749471641136	0.704459516691403
5.7	-0.226045508504496	0.972518500263553	1.3121816059296E-06	1.23626500548459E-06	5.78714062692121E-06	-1.2159647293709E-07	-0.609206859470626	0.78710624791302
5.8	-0.148078176683994	0.98714346422974	2.71977143217811E-06	4.27695217648997E-06	-2.11814755691353E-06	4.26465349105265E-06	-0.504956992915164	0.856879978923843
5.9	-0.0684732828086359	0.995562978515875	-6.93125579510973E-06	-2.2964239415178E-06	-6.1767547403627E-08	6.32547627389911E-06	-0.392950826579714	0.912796602003429
6	0.0108985662340809	0.995012669087069	-1.79861296006259E-06	1.00249036030025E-07	-5.50776335064626E-06	-4.37560468260306E-06	-0.275513603203914	0.952411635935624
6.1	0.0873522990783937	0.989895669449164	-1.85313593674084E-09	-9.92666462238672E-06	-9.98726185996331E-07	-3.21432431211548E-06	-0.156172575380725	0.978906430309935
6.2	0.164762000222834	0.979489810956993	-1.01057288002127E-06	3.11720510468387E-06	-1.74382242964978E-06	4.2219585732892E-06	-0.0324195441354516	0.9908254351651
6.3	0.241688880619204	0.9632781558838	-7.95870168680471E-07	2.83204039424104E-06	-2.92926784973532E-06	2.40438975874684E-06	0.0922948934225559	0.987130341178503
6.4	0.317532495105167	0.940462001914065	-5.94768841763985E-06	5.55832563193887E-06	-2.38209473147314E-06	-7.41741939773762E-07	0.216107522770217	0.967109530033447
6.5	0.389305413066804	0.912713539120534	1.40014781086839E-06	-5.2709025936511E-06	-1.44800915911395E-06	-2.37356232856942E-06	0.334027409243459	0.93272873781454
6.6	0.461715987410036	0.880894558903675	3.66100289655629E-06	2.10941620228483E-07	1.13277650837594E-05	-2.68139460929572E-06	0.450588385946138	0.885315313244093
6.7	0.53100268153729	0.841106244492792	-7.77972317199967E-07	8.50253596241561E-07	-3.77807112615563E-06	5.24780580123517E-06	0.559038486832141	0.820991739587057
6.8	0.596398730135481	0.79616719681625	-1.75620189895446E-06	4.50462587449975E-06	1.45767641983708E-06	-8.87865047341334E-07	0.657685761052474	0.743839190872142
6.9	0.658097139886062	0.74616010861781	5.94734666776629E-06	2.24878325937774E-06	-9.31397890132541E-07	2.42697563970464E-06	0.745640895389747	0.654901124794435
7	0.715211597432207	0.690795967175619	1.13109560681076E-06	-4.17027941305175E-06	-1.42401193633375E-06	2.93342172696214E-06	0.820843799713241	0.555613106044447
7.1	0.767364188270022	0.631887564377205	2.3851786649809E-07	-7.20263665697652E-07	2.00354464719356E-06	9.20090776921774E-06	0.88343647001192	0.448958478659729
7.2	0.814897763692121	0.568796402844212	1.38284402597722E-06	-2.42081490526296E-06	-1.03084783559596E-06	-8.57879954184939E-06	0.932494338678536	0.335035335910888
7.3	0.857312145879532	0.502113081928854	4.85461959300875E-06	7.23219537433579E-06	-9.72904106937127E-06	2.3510146497018E-06	0.966715936510925	0.215852514317579
7.4	0.895528753916102	0.432290291649183	5.10805819961485E-06	-6.85051369339891E-07	1.94387303633665E-06	-9.66156829114697E-06	0.987059314313928	0.0929442185705143
7.5	0.928342350545532	0.357288534754434	2.75057784600056E-06	-5.3361684024589E-06	2.09552040276559E-06	-7.31468176482941E-06	0.990991986264706	-0.0344089376883236
7.6	0.953039515089474	0.280876166225395	-3.30355504778777E-07	-5.65695041402548E-06	1.68444472227578E-05	3.83659149215763E-06	0.97682187870635	-0.158564051587192
7.7	0.972660287513777	0.202900363455078	3.53188618738692E-06	9.98245042564533E-08	3.15638361505344E-07	-2.93732615460626E-06	0.948869622035143	-0.280287442797647
7.8	0.98584895946453	0.12323092868533	-1.10270398895561E-05	-1.87976751557988E-06	-1.89038571372976E-07	3.45267801912438E-06	0.905724639351284	-0.397857393974239
7.9	0.992157142599071	0.0418028699724943	2.3767758444244E-06	2.02269474954799E-06	-6.99568735091782E-06	-4.6831970087774E-06	0.847606100172583	-0.509736628204545
8	0.988356347441762	-0.0388132342329677	2.37357032596375E-06	2.93055897247372E-06	-9.38771771483535E-06	-7.51147712740351E-06	0.77300323211649	-0.610972551293294
8.1	0.981832954261201	-0.115026684102572	3.79913184917563E-06	-3.08035445976203E-06	2.12378457040427E-06	-3.18624708421453E-06	0.691717236408006	-0.700370676406217
8.2	0.970071237362072	-0.192824099047204	-4.01814860071426E-06	1.42977776585159E-06	-6.7325876562276E-06	3.89181303722776E-07	0.599341490622662	-0.781598247140094
8.3	0.951138213855653	-0.270015535865959	9.83536167307322E-06	2.57319242922711E-07	6.26543452895663E-06	1.0393809385978E-05	0.496740671546878	-0.850405735529163
8.4	0.925784787805761	-0.345421352274069	1.28803326333933E-06	2.54512256075854E-06	3.45495685429165E-06	1.80759742362928E-06	0.386502317756072	-0.906171325456796
8.5	0.894414472876542	-0.418501363975883	-4.82254721410311E-06	4.96700592629545E-06	2.84166107325843E-06	-3.02421059897336E-06	0.268708930946174	-0.947853503493167
8.6	0.857624854004251	-0.488921533079833	-4.48340994039143E-06	2.10070147117676E-06	-3.00284991501504E-06	8.11529916966774E-06	0.147277477458461	-0.973301163588783
8.7	0.815162913903861	-0.556422371342205	-1.01418068288681E-06	1.21725335008762E-06	-6.29531550269184E-07	3.45789867160554E-06	0.0237963091148836	-0.983540540616436
8.8	0.767355717723378	-0.620022326501192	-1.56816495256004E-06	3.07540344014358E-06	-5.98451757254987E-06	1.30358137299068E-06	-0.0992064281789836	-0.978253072395775
8.9	0.71511867299714	-0.679458011180531	3.15506260181064E-06	-1.83248797147929E-06	-3.15240613612979E-06	-4.46136898887091E-07	-0.219739418945082	-0.957978275524676
9	0.658083727302344	-0.735226710307009	-7.2577654085266E-06	1.35267662676066E-06	-3.96202647418984E-06	7.26087439121161E-07	-0.33858440049729	-0.92572208188873
9.1	0.59623551994459	-0.785509474968049	-3.34531468704489E-06	-1.87301394084365E-06	-9.78090696464708E-07	2.12860344449314E-06	-0.453831384999631	-0.875387841793655
9.2	0.530676989232582	-0.830633678166154	5.96424636315253E-06	-1.6375616171258E-06	1.98374279687455E-06	8.45120249763951E-06	-0.560446482460388	-0.812130773110413
9.3	0.461811523664086	-0.870516023509428	-3.38414946953513E-07	1.06787814722809E-06	1.3633287018872E-05	1.17998913663366E-05	-0.658759037327779	-0.735684648527873
9.4	0.389752974010219	-0.905317115726832	1.73058774679927E-06	-2.65866941236609E-06	4.28294299232732E-06	1.75760840092286E-06	-0.746576401437868	-0.648121452176206
9.5	0.311334018237103	-0.933634552823725	-6.5159481151426E-06	-4.87017830465015E-06	-1.95934555981836E-06	-5.69652602391988E-06	-0.825176624655152	-0.547267099232433
9.6	0.233481893463744	-0.951526352603235	-1.1646690007512E-05	-2.35656918832385E-07	-5.91520237004561E-06	-3.98953745891426E-06	-0.885997473169588	-0.437328276750116
9.7	0.15578685852634	-0.965758702843872	1.46295743957155E-06	-4.78305239002587E-07	-2.90701009031219E-06	1.63939964155457E-06	-0.933682622838795	-0.322215819430892
9.8	0.0764594278549278	-0.974138664539856	2.20083979489484E-06	1.39511106220295E-06	1.5057471081625E-05	-3.50426140090473E-06	-0.96630114830537	-0.20206381111247
9.9	-0.00402496592646537	-0.975751513154206	-3.44440075482398E-06	8.94727790603888E-06	1.37215874780082E-05	4.96494076991327E-06	-0.983562007232811	-0.0791033790289979
10	-0.0837549409200177	-0.969014917545188	-3.63069865734187E-06	1.61216217463459E-06	1.91781444628976E-05	-1.80799817271516E-05	-0.985987281041182	0.0445695086438952
10.1	-0.16099468334575	-0.95689917275848	-1.47829315380012E-06	2.29684352176436E-06	-8.40149722657606E-06	-4.30901878355557E-06	-0.973358164531412	0.168794886720787
10.2	-0.237906785967196	-0.938718225775665	-2.30606789798589E-06	-1.23922768418358E-06	-1.29006310699855E-05	7.21782424786352E-06	-0.944101908062028	0.290679536364669
10.3	-0.312104506467268	-0.913340043844443	5.75822335868641E-06	3.91443892483933E-06	-6.13742167165224E-06	1.38109271606184E-06	-0.899375224112446	0.407197988473676
10.4	-0.383379666004735	-0.882171475699281	2.09623874858181E-06	1.04042351532177E-06	6.89342922167377E-07	-8.19589647478267E-06	-0.839507210089996	0.515184000430822
10.5	-0.451169178845394	-0.84419700838619	4.3421855934065E-07	-3.0430030154675E-07	-6.53414048019817E-07	-5.59846807169335E-06	-0.771032145098302	0.612931851246726
10.6	-0.513198513386785	-0.801138650187435	5.06062383894296E-06	-2.58798959100593E-06	-9.68840100364362E-06	-7.83912546983892E-06	-0.690318242604261	0.706496623829883
10.7	-0.570894382846633	-0.75438748260206	-2.79679932456517E-06	-5.01730371638059E-07	-5.18744345353207E-06	-7.12920221520436E-06	-0.597086072534537	0.788169347920235
10.8	-0.623862999078124	-0.704842738425924	-3.58638455359542E-06	-3.42716722153656E-06	-1.1901425683186E-05	9.06842845332112E-06	-0.493936588495931	0.857311403932576
10.9	-0.672585684085757	-0.654246329533631	-1.1277613592556E-05	-1.038695802069E-05	-4.47888536351751E-06	1.08743716401015E-05	-0.383603552252883	0.911962769266426
11	-0.721033892766421	-0.602737473392413	1.00189170026616E-06	1.40844586086423E-06	8.65464773342275E-06	-5.44667633659134E-06	-0.268188963386001	0.954600189997334
11.1	-0.765033495926476	-0.544205767248873	-3.17824644207172E-07	-3.62165850860242E-06	1.01733364814427E-05	-1.0146571678246E-05	-0.145123977656324	0.982139872064162
11.2	-0.804284823085099	-0.48513666228815	-1.01954624822307E-06	-3.90275478658666E-06	2.16859255534488E-06	-6.28528441352775E-06	-0.0193093716655722	0.992671318982433
11.3	-0.840885372477258	-0.423169571810212	1.65967157725894E-06	-1.20041642280118E-05	3.56221455851085E-06	-2.80461071723688E-06	0.106856707906564	0.986908984955401
11.4	-0.873704614512455	-0.35819170427099	9.84723273202402E-07	2.04676168577954E-08	-5.69128711042218E-06	6.43691106497954E-06	0.231693815347778	0.964998021861906
11.5	-0.902157256859063	-0.287696546477332	6.5318429289556E-06	-1.23390483384936E-06	8.2190148051401E-06	-3.06835085742061E-07	0.351034502663323	0.927066350404667
11.6	-0.922079383784164	-0.216695583364039	-6.2989829694415E-07	-5.30944675171627E-06	1.43669391079387E-06	-3.067533051653E-06	0.465511308809396	0.875160765803237
11.7	-0.938155192740107	-0.14405223257952	-8.158897994341E-08	-6.02581604794334E-06	8.94553389447314E-07	-2.64677119893459E-06	0.572686148476778	0.808567649826113
11.8	-0.949150988816095	-0.0687126211749706	-1.06613166154352E-06	-7.4118180183044E-07	5.14660814657238E-06	1.08785632280435E-06	0.67058251017255	0.728556801455678
11.9	-0.954335236865537	0.00861245692014793	-3.19592974981309E-06	-5.204593761813E-06	-5.35444245616366E-06	-8.00498268319685E-06	0.756572007012331	0.635916767622349
12	-0.95356037320237	0.0880458730895562	-2.94175226451234E-06	1.63116948807985E-06	-1.66700280521501E-05	-8.76997149459099E-06	0.82462240808904	0.534368233973314
12.1	-0.945127645028246	0.166811013821783	8.30370440447062E-07	-1.56192763874569E-06	7.7996837367253E-06	1.22888045071177E-05	0.883289242204511	0.430384725210059
12.2	-0.929453413138779	0.245666570751091	-4.12391878305551E-06	5.53327954179713E-06	4.03954599581517E-07	3.31293475995179E-06	0.930692548771768	0.317176256613938
12.3	-0.90725338712379	0.323165592545179	7.81793724743724E-06	6.41003030725679E-06	3.90607846621287E-07	1.08956776103048E-05	0.962747389705984	0.197642426252036
