# GHZ S RI R 50
0.2	0.985732507472422	-0.156836093520138	2.56422954676953E-06	2.24936198856409E-06	6.56909831441444E-06	-4.86875282446748E-06	-0.966114389128575	0.251817989564455
0.3	0.96964716467532	-0.233953801088107	-8.74603669217258E-07	-5.45285004785478E-06	-3.4673518139113E-06	-7.94356673456052E-06	-0.926347947937016	0.37183401752587
0.4	0.948023943629986	-0.309299516434947	-7.27709215624375E-06	-9.88879511569176E-07	4.44028542408439E-06	1.5433813268968E-06	-0.871413798204405	0.485503387727984
0.5	0.920898141527497	-0.382570992829592	6.19683107924798E-06	2.10275232997464E-06	-2.41310712218635E-06	-1.90667864017852E-06	-0.802841931963193	0.591374892859603
0.6	0.88801925161978	-0.453360290805761	-1.05472869789389E-05	2.46034510332556E-06	-2.21762056152099E-06	-1.00662258789623E-06	-0.721510394182455	0.687740696268198
0.7	0.849935777603493	-0.521074403212002	2.78313795139033E-06	-1.17173181655084E-06	-2.98627851504884E-06	5.78631811961282E-06	-0.628827494430833	0.773169783419208
0.8	0.806647495927449	-0.586001749447954	1.17617391340584E-06	-8.47269741063989E-06	-6.61813720119861E-06	-3.06904490088836E-06	-0.526082067212506	0.846012394787048
0.9	0.758471019298689	-0.647589867046163	-1.14631220864013E-06	-6.80862165986307E-07	2.54682737321119E-06	6.54134519272579E-06	-0.415180899302442	0.905186337438161
1	0.705283392622665	-0.705766235230194	-2.74412661053288E-06	-3.22138026847817E-06	-4.05344701999347E-07	-7.31399525315514E-06	-0.297988381253102	0.949722966335179
1.1	0.647891543111297	-0.759378252886179	1.80493279754871E-06	-4.93886325230945E-06	2.26809217386094E-06	-5.13233693730496E-06	-0.175990878824292	0.979366337029985
1.2	0.585266864191826	-0.80886974395057	-2.49363022097841E-06	2.49001642057861E-06	9.25313283987458E-07	-9.10293271622499E-07	-0.0510521639904734	0.993153463225389
1.3	0.517417794664404	-0.853231490563659	-1.53661311156022E-06	7.18638860594632E-07	-1.35430433608094E-06	1.46187318101783E-06	0.0743588432397811	0.991421857476839
1.4	0.446743974720784	-0.891605726641802	3.92004358528765E-06	-3.23673928499377E-06	2.69765395605771E-06	1.09309594498457E-05	0.199104991283035	0.973714670226077
1.5	0.373607306334672	-0.923709971629835	-5.33326775963905E-06	1.10755167013883E-06	6.58607619417705E-06	-7.19942485522644E-06	0.320469051868287	0.940651454830357
1.6	0.300204026603342	-0.949249814121458	1.77806513199347E-06	-7.73125610266408E-06	3.62812794443194E-06	1.38283826901586E-06	0.436416405574245	0.892659320958508
1.7	0.226383918063047	-0.969330909455685	-1.93953552063302E-06	-9.69838015752861E-07	-2.34135755740356E-07	-2.08564252448732E-06	0.544849838060501	0.831044392651819
1.8	0.15014420816107	-0.984202481011129	2.8461795841984E-06	5.27859853637029E-06	2.84488693536348E-09	2.03060406254507E-06	0.645087453075845	0.755922351362681
1.9	0.072728826813587	-0.993230363814518	5.6742685021419E-06	-2.62873268486012E-06	-2.99766796599093E-06	4.14517053066935E-07	0.734770038475318	0.668807032983054
2	-0.00475727941292937	-0.995633642657617	-1.54734653308726E-06	-2.02577640786609E-06	3.20935472331343E-06	1.1452631477099E-05	0.812487121181089	0.570280315447017
2.1	-0.0831654365229383	-0.992104394536127	-7.55179300331614E-06	2.45017723434105E-06	1.20417801352272E-06	5.14444070867731E-06	0.876989523154443	0.464325089073758
2.2	-0.159566409656012	-0.982648050252471	-8.83781782354222E-07	1.39350077980349E-06	2.9984626372024E-06	7.77705909653253E-06	0.928759235882511	0.350752288934804
2.3	-0.236365872906378	-0.966790773139894	1.75076515938138E-07	7.45341087798789E-06	7.39163310490476E-07	9.39170641814892E-07	0.965236284136647	0.231752254124068
2.4	-0.311813153719048	-0.944853125545341	1.57468712033134E-06	7.17600233154554E-06	1.51702104836461E-06	6.38923191776946E-06	0.986962516177503	0.108100008357261
2.5	-0.384926628671735	-0.918057917772836	4.39342255437292E-06	-2.31120043707412E-06	-1.90891478849879E-06	-7.57492174036746E-06	0.992483699938835	-0.0164931212757945
2.6	-0.456493221944912	-0.884797823018154	6.77609442160266E-06	-5.94337150517393E-06	-1.11106158770782E-05	1.08255438831298E-05	0.982713698282029	-0.141501243768448
2.7	-0.525226442950473	-0.845770091845748	-4.44761374036492E-06	9.14160009680964E-06	-2.86882657654447E-06	-9.16182972966209E-06	0.956605437055655	-0.264203584045534
2.8	-0.589512978431808	-0.801896469752336	2.45671627801791E-06	1.14503057584911E-06	-3.12846804086757E-06	1.24171502801693E-06	0.916218355066527	-0.381713642351597
2.9	-0.64962565971374	-0.753926540709254	-5.50259122730473E-06	6.00822249816931E-06	-9.18988021306051E-06	-2.91043850025793E-07	0.861158194278613	-0.493128964461752
3	-0.707371658112796	-0.701289699435445	4.74053593884711E-07	-1.47194980617171E-06	1.13198322507958E-05	1.47657120020941E-06	0.792645794743325	-0.597167176898462
3.1	-0.760698516629741	-0.643264307177715	2.39275305109957E-06	1.04971283744449E-05	4.32181802794609E-06	2.17869678952284E-06	0.712079751221521	-0.691166159766804
3.2	-0.808357562069022	-0.581856892222871	2.09582183797749E-06	6.46719269043525E-06	4.01314013578203E-06	-1.05979615832246E-05	0.620591534779524	-0.774789501740484
3.3	-0.8512395810091	-0.51738242463629	3.07417110237316E-06	4.96622839970969E-06	-2.21029228927552E-06	-9.67164614329918E-06	0.518233192130696	-0.846977581313182
3.4	-0.888509193235154	-0.450265138523675	2.13058086065022E-06	-2.6020710372594E-06	5.95901591630445E-06	1.39278820702154E-06	0.409110115367648	-0.905811329142677
3.5	-0.921705560673731	-0.378284114429439	-3.24346663172275E-06	9.4588096472614E-07	-2.07685345433906E-06	3.42570165108456E-06	0.291267157739097	-0.95114144516584
3.6	-0.947816215129469	-0.304298295656266	-1.81239401023951E-06	-3.74557470653973E-06	-7.82722161590011E-06	4.10555991055384E-06	0.169166505085187	-0.979525627684357
3.7	-0.968314642772921	-0.229658126915655	8.26872106003286E-07	-8.33007127047639E-06	1.07710619900304E-05	3.70414633912256E-06	0.0446025224821236	-0.993049557175969
3.8	-0.983426613165735	-0.152784148556336	9.13695925211332E-08	1.54793876899096E-06	-6.52606741430133E-06	5.95243185697244E-06	-0.080272674987462	-0.99094135711463
3.9	-0.992377230598165	-0.0755473453334378	-2.62888685611169E-06	-5.03225532931163E-06	-3.70783437029664E-06	8.03132454905718E-06	-0.205908868183913	-0.973102454355679
4	-0.99576521401787	0.00333485301935938	7.1324866844821E-06	-3.80883809824581E-07	-1.04520038099104E-06	-1.20639569482777E-06	-0.326109252103746	-0.939179317023036
4.1	-0.99277400796762	0.0821132621524411	6.2033038137245E-07	-4.43903812830502E-07	7.3607441903266E-06	-4.75608098162043E-06	-0.441436548704693	-0.891037407054739
4.2	-0.983410482318286	0.160491766419066	3.20798265657521E-06	2.1066325306782E-06	-7.18881935384587E-07	-7.63133270719952E-07	-0.550165767135787	-0.828317836223473
4.3	-0.967945240082261	0.236874418538616	-3.194207842523E-06	1.37374704250301E-06	-5.00400108148371E-06	2.98523816791837E-06	-0.649985155311415	-0.753016458289817
4.4	-0.946170493963365	0.311652782860214	8.06168546441077E-07	2.6457759028756E-06	1.55269305282909E-06	-8.34449461330067E-06	-0.73950544812294	-0.665265044403879
4.5	-0.919335789380209	0.3836482284484	1.82448230264568E-06	-9.40121072448556E-07	7.63454690737325E-06	-2.55890205533364E-07	-0.817082172220753	-0.566937317047063
4.6	-0.887406349194184	0.455868160926055	-7.35103656355695E-07	6.13436394494343E-06	-1.23483728521398E-05	-6.50150806616045E-06	-0.881481768991671	-0.459840375763732
4.7	-0.848965992174658	0.5240302909268	1.200226185362E-06	2.51510269213427E-06	1.42062474446518E-06	1.8700460205066E-06	-0.932385856206202	-0.345726302916955
4.8	-0.804366085894019	0.589858014967854	-5.19904723708418E-06	1.11349274890011E-05	5.22622793039486E-06	9.70926846479079E-06	-0.968155096686776	-0.2255757036783
4.9	-0.755209176396202	0.650793713185558	1.19449564525523E-06	2.93763424709662E-06	-4.69905332633153E-07	-6.92292410375944E-06	-0.988379612657237	-0.102002260648067
5	-0.702565675699537	0.708576297205674	4.75525320231661E-06	-9.0048629352064E-07	-3.75808025008758E-06	2.42023151885299E-06	-0.993957321845395	0.0226818344520224
5.1	-0.642956885696453	0.762805542601875	4.14632099698021E-06	-1.35357658129349E-07	-2.6491380449359E-06	-9.84593750787835E-06	-0.983488256562871	0.148489696851951
5.2	-0.580017196130176	0.810833830761206	2.64869102565408E-06	-1.50326277590473E-05	1.37851454664976E-06	2.83233270718899E-06	-0.956944224146623	0.271486559505337
5.3	-0.514285331048984	0.853885925980606	-8.7391565411129E-06	-7.93464851398239E-07	-1.13891227228588E-06	1.58384292897905E-07	-0.915349153083167	0.390359224107142
5.4	-0.4457116380248	0.891836165081038	-7.20687800765371E-06	-1.1098746977536E-05	-1.37891760187094E-05	1.12312620242732E-05	-0.858631628644419	0.5030506444722
5.5	-0.374804665916537	0.924317041107382	1.90977822240747E-06	8.82851562743236E-08	-2.24989444630509E-06	1.78958159666026E-06	-0.788182007114324	0.607261365341649
5.6	-0.300709538743029	0.951349879317298	-2.41515023626038E-06	3.52240056108209E-06	-1.34532308527362E-06	1.29226499441994E-06	-0.705340863916599	0.700862281256729
5.7	-0.224353085501014	0.972239592041035	1.30942283362263E-06	1.23542279487028E-06	5.77892730087215E-06	-1.17317100835854E-07	-0.612073446617204	0.783739632793198
5.8	-0.146678856535623	0.986446439799591	2.71112146555883E-06	4.27414367507319E-06	-2.12009089227915E-06	4.25633340284956E-06	-0.508801080974963	0.854522734782337
5.9	-0.0679255535693426	0.994500664729516	-6.91902742301561E-06	-2.30649260897107E-06	-7.33075916825161E-08	6.31805029459385E-06	-0.397281237671364	0.912198754679796
6	0.0102754259636476	0.994616068068348	-1.79900448349699E-06	9.58313726692112E-08	-5.49744012198643E-06	-4.38950967690708E-06	-0.278536993518191	0.954062287688691
6.1	0.0865836814388925	0.990508866768599	1.60532324220833E-08	-9.93610932674245E-06	-9.93877305801505E-07	-3.2191832369028E-06	-0.15707658226089	0.980548710643311
6.2	0.164392852353264	0.980782504151102	-1.01593626554999E-06	3.11999911955745E-06	-1.75158018859053E-06	4.22525742700741E-06	-0.0322328621983749	0.99181281456016
6.3	0.241863337273222	0.964672781139561	-7.99095408234908E-07	2.83543981914714E-06	-2.93518158621861E-06	2.40560178885889E-06	0.0929421345944019	0.987232719642361
6.4	0.317962083643992	0.941759962817896	-5.95613854028464E-06	5.56386542893134E-06	-2.38485120638686E-06	-7.43153055128085E-07	0.216844292081105	0.966543972367157
6.5	0.39020002065123	0.913875210098931	1.3979191649072E-06	-5.27502923462466E-06	-1.45031471694655E-06	-2.37419592370025E-06	0.334916192615871	0.930695334919944
6.6	0.462572494381657	0.881681504412951	3.65927083547205E-06	2.09555514687557E-07	1.13212382261508E-05	-2.68403878985417E-06	0.449507497390592	0.882481000666787
6.7	0.531843328778802	0.841736028665636	-7.77450903774466E-07	8.49481287663193E-07	-3.77567164595432E-06	5.24316046054179E-06	0.556837877884561	0.818972225892357
6.8	0.597153287084073	0.796566219412037	-1.75637339456961E-06	4.49994327214894E-06	1.45672154975822E-06	-8.86514336115948E-07	0.655139258793829	0.742710848245075
6.9	0.658536644644044	0.746331821628278	5.94000025119782E-06	2.2501844108906E-06	-9.31955908529269E-07	2.4239693005349E-06	0.743244100666145	0.654626236967587
7	0.715160269066776	0.691198870351764	1.13469728268813E-06	-4.16582990762995E-06	-1.42605798841925E-06	2.92961698792449E-06	0.819092045229284	0.555681678380477
7.1	0.767391927033427	0.632668531326635	2.3906571493353E-07	-7.19767651476423E-07	1.99455832549784E-06	9.19907129713734E-06	0.881751294567431	0.448998279890498
7.2	0.81512508215092	0.569561564826918	1.38413238075184E-06	-2.41909789618318E-06	-1.02446985598191E-06	-8.57690677914853E-06	0.930917235411894	0.335398522350841
7.3	0.857564457932642	0.502638843320322	4.85027993037316E-06	7.23267001786454E-06	-9.72782370066075E-06	2.3461482158444E-06	0.965403909635109	0.216417595866033
7.4	0.895415642127127	0.432559399178988	5.10576467106325E-06	-6.8462954714954E-07	1.94320675283708E-06	-9.65715905925043E-06	0.985805671164391	0.093635250258439
7.5	0.927791282074416	0.357958906410631	2.74909338020647E-06	-5.33092407566216E-06	2.09497581674082E-06	-7.30779521681668E-06	0.990099821324169	-0.0331462318249188
7.6	0.952568757977386	0.281713236337162	-3.29987229357185E-07	-5.65328973923504E-06	1.68334157951718E-05	3.83456117373889E-06	0.97649522086382	-0.157621679239953
7.7	0.972065430051005	0.204053737374424	3.52862612862689E-06	9.9882932085012E-08	3.15472518429775E-07	-2.93460498732645E-06	0.948687258581428	-0.279352961821353
7.8	0.985339039819944	0.124824662200199	-1.10150942535158E-05	-1.88165351321479E-06	-1.90038372669659E-07	3.44907582236682E-06	0.905798229888039	-0.396804319885335
7.9	0.991977894846125	0.0439039753216116	2.37254271246401E-06	2.02280286641667E-06	-6.98437793883793E-06	-4.68479886328767E-06	0.848073086565557	-0.508255409380394
8	0.989295813962284	-0.0367649655583114	2.3685223915893E-06	2.93339656272066E-06	-9.3739274574221E-06	-7.5237515540288E-06	0.774773851901975	-0.609305356371646
8.1	0.982629127249447	-0.113633774695421	3.80364258477486E-06	-3.07451989381196E-06	2.12851345659208E-06	-3.18293430401121E-06	0.694333506889767	-0.698951464890077
8.2	0.970864328541245	-0.191423825550587	-4.02219014055672E-06	1.42293371491688E-06	-6.73568851207762E-06	3.77001859712864E-07	0.603038592617361	-0.780685646706635
8.3	0.952125611285945	-0.268740568489419	9.84390151294702E-06	2.76047241803773E-07	6.25164098997364E-06	1.04151253140166E-05	0.501210707398672	-0.850477764284014
8.4	0.926939636723495	-0.344422313307145	1.28592784870855E-06	2.55059867641235E-06	3.45696602043553E-06	1.81536152992031E-06	0.39104564338084	-0.907340310076853
8.5	0.895628689196066	-0.417963268887948	-4.83354137035038E-06	4.9670673400987E-06	2.84824972796517E-06	-3.02435518523719E-06	0.273118325901345	-0.949189410379851
8.6	0.858571558148248	-0.488801723104391	-4.4909231413276E-06	2.09617606599868E-06	-3.01775331469791E-06	8.11888464753606E-06	0.152657760629023	-0.975153705669344
8.7	0.815772062243758	-0.556508314212407	-1.017599156189E-06	1.21688512868692E-06	-6.36535002349609E-07	3.46091978198552E-06	0.0297693002806336	-0.986932703103904
8.8	0.767631246284669	-0.620184299316629	-1.57719513940682E-06	3.07725653332863E-06	-5.99721058138796E-06	1.29326697910259E-06	-0.09356366538806	-0.983556074672595
8.9	0.71512967154493	-0.679627123591518	3.16642825733454E-06	-1.83002994894555E-06	-3.15887318169415E-06	-4.53956112048143E-07	-0.215537560678313	-0.964722579424796
9	0.657944991485343	-0.735417898089939	-7.28113047290106E-06	1.3423065456441E-06	-3.97475730530738E-06	7.20391174384036E-07	-0.335448703914835	-0.932558452243591
9.1	0.595826541530684	-0.785890135421181	-3.35407550027686E-06	-1.88512297273496E-06	-9.8503980414768E-07	2.13452825081246E-06	-0.451653160256908	-0.882998466312393
9.2	0.529949442760451	-0.831050656065392	5.98816116923495E-06	-1.6385647523275E-06	1.98389454153379E-06	8.48479725277832E-06	-0.559756794489325	-0.819596859266281
9.3	0.460806636201487	-0.870945560332036	-3.39700731994571E-07	1.07163502214026E-06	1.36806439054128E-05	1.18428119125367E-05	-0.659126120798454	-0.742181488264187
9.4	0.388579105044333	-0.905556530554355	1.73385925856645E-06	-2.66739162585627E-06	4.29633904234221E-06	1.75992493326371E-06	-0.74730286724902	-0.652927466349597
9.5	0.310680261891977	-0.93449607736072	-6.53141404017409E-06	-4.87660280172714E-06	-1.96613598565359E-06	-5.70690352646773E-06	-0.824121134527454	-0.550553796344677
9.6	0.231452171256071	-0.95328963184985	-1.16660535164728E-05	-2.29967173223544E-07	-5.92705673402221E-06	-3.9930407621737E-06	-0.883268034635514	-0.441757485887291
9.7	0.15249348361812	-0.966966001624703	1.46464855924126E-06	-4.79600736691596E-07	-2.9100545282977E-06	1.6428736147676E-06	-0.931066430857443	-0.328284044955064
9.8	0.0724821866251526	-0.974424261406694	2.20382583406083E-06	1.39597196725992E-06	1.50735359305335E-05	-3.51330933577074E-06	-0.964963041964723	-0.209215780760575
9.9	-0.00811267153227203	-0.975067419094234	-3.44676491282598E-06	8.96052745900431E-06	1.37418225063963E-05	4.96812896951621E-06	-0.984442780497826	-0.0860218680019058
10	-0.087891666284254	-0.967819823943482	-3.63553591543629E-06	1.61836902345945E-06	1.91947646263201E-05	-1.8129476052486E-05	-0.987838498146774	0.0398661278365577
10.1	-0.1651793612466	-0.954606999993174	-1.47647375612303E-06	2.30114432175771E-06	-8.415677722325E-06	-4.30130543017364E-06	-0.974125443342506	0.164970697314303
10.2	-0.241222843654737	-0.935643273170454	-2.30821626530728E-06	-1.23749787691167E-06	-1.28989167708588E-05	7.23330416296167E-06	-0.944593564579414	0.286592132410406
10.3	-0.314318517298613	-0.91028102650613	5.76143339396779E-06	3.913894121292E-06	-6.13904438970265E-06	1.38354643728719E-06	-0.900352492477265	0.403078874368632
10.4	-0.384538318229533	-0.87999863591655	2.09712361305236E-06	1.04145797587794E-06	6.91579263910938E-07	-8.20012590783099E-06	-0.840896885615315	0.512335432993631
10.5	-0.452388647883857	-0.844137165767005	4.34718279492631E-07	-3.04191979364038E-07	-6.49877029147858E-07	-5.60259532746734E-06	-0.769867536093371	0.611101767942299
10.6	-0.516131814824507	-0.802142397180592	5.0707923054041E-06	-2.58374013993082E-06	-9.68893127893034E-06	-7.86328348294643E-06	-0.688070913037205	0.702610422107183
10.7	-0.575325707568586	-0.755371752044201	-2.80185844679389E-06	-5.06721256842981E-07	-5.18805925754534E-06	-7.15124472391009E-06	-0.594726737104092	0.783211685518002
10.8	-0.629577993322284	-0.705238322664119	-3.59182220164739E-06	-3.43884207364117E-06	-1.1938771599105E-05	9.079122857772E-06	-0.491619019286354	0.851160658363129
10.9	-0.679017417292052	-0.653482399813848	-1.13069832475557E-05	-1.04181577983851E-05	-4.49353553007855E-06	1.09037933787437E-05	-0.38181374669677	0.905804698020272
11	-0.727175428773203	-0.601527406552514	1.00513216107269E-06	1.41086103504413E-06	8.66999797863269E-06	-5.46500890738934E-06	-0.264570906607749	0.948168496723849
11.1	-0.772262579843229	-0.542814599718761	-3.21274081169581E-07	-3.62682342224305E-06	1.01802477494381E-05	-1.01701249412838E-05	-0.141259128663335	0.972269967933217
11.2	-0.812141519704191	-0.482348251889582	-1.02316918554974E-06	-3.90583252211282E-06	2.1664360023027E-06	-6.29281750873009E-06	-0.0178367047635887	0.980392959192072
11.3	-0.848460344768824	-0.418988691983823	1.65787663797776E-06	-1.2011105220601E-05	3.56353189024637E-06	-2.80694716301403E-06	0.104919098454004	0.973983084626301
11.4	-0.880299018211524	-0.35338732256549	9.84829692643829E-07	2.10109277762345E-08	-5.69550265692481E-06	6.43455421629344E-06	0.226646442200818	0.953091213915385
11.5	-0.908995768028492	-0.283502149136776	6.53834011608281E-06	-1.22399093014794E-06	8.22513850970059E-06	-2.93508827564143E-07	0.344631232867005	0.916917868067465
11.6	-0.929810888259346	-0.21080323892619	-6.23306048584173E-07	-5.31868596240073E-06	1.44333087920116E-06	-3.07029980432423E-06	0.457698355530305	0.866063143877866
11.7	-0.944701636161817	-0.13645657075916	-7.5364499153976E-08	-6.03617051680324E-06	8.98872856107929E-07	-2.65033675064977E-06	0.563294720693179	0.801610620369541
11.8	-0.953751833490275	-0.0604280860061553	-1.06750547223098E-06	-7.43233449902228E-07	5.1549666988168E-06	1.09335126376991E-06	0.660786443262235	0.72486420660581
11.9	-0.956535972991693	0.0164587412989437	-3.20315520586316E-06	-5.21318499856877E-06	-5.36635348030755E-06	-8.01807711719357E-06	0.748968225079435	0.636216007415642
12	-0.954747434349461	0.0932667398638982	-2.94262237587878E-06	1.63761585846395E-06	-1.6702889967935E-05	-8.75425740147748E-06	0.822745395512274	0.534491516878535
12.1	-0.947283575630287	0.171218655978923	8.26791518249789E-07	-1.56298504250574E-06	7.8217943906528E-06	1.22674973311861E-05	0.882723287620447	0.427205790135935
12.2	-0.93187875464194	0.250095341889532	-4.10793425387468E-06	5.53334900150131E-06	4.09571417168427E-07	3.30762322483822E-06	0.92987961322011	0.312500113136038
12.3	-0.909537405408387	0.327491761910095	7.81210745804492E-06	6.38587370550318E-06	4.05990625883695E-07	1.08737332864627E-05	0.96163977086082	0.192242590303119
