# GHZ S RI R 50
0.2	0.985372970387448	-0.156916762003421	2.56376566387289E-06	2.2486924903611E-06	6.56729470557834E-06	-4.86800503618282E-06	-0.966079239188199	0.251819446719522
0.3	0.96927807765659	-0.2339096810161	-8.74277956912065E-07	-5.4513134970233E-06	-3.46625430635364E-06	-7.94135940831974E-06	-0.926315088630861	0.371830469025743
0.4	0.947743469366337	-0.309099208010568	-7.27478159653291E-06	-9.89491041146122E-07	4.43875820078815E-06	1.54347195802567E-06	-0.871391922691271	0.485494281303799
0.5	0.920949394254689	-0.382321867212585	6.19504523948305E-06	2.10374801563249E-06	-2.41215955947312E-06	-1.90683842562149E-06	-0.802805549988044	0.591348343614243
0.6	0.88827397645629	-0.453463946493468	-1.05467984786467E-05	2.45812734696171E-06	-2.21722957057092E-06	-1.00695105475246E-06	-0.721539880137768	0.687663039931955
0.7	0.850056827645387	-0.521468980593973	2.78298200764746E-06	-1.171325495031E-06	-2.98658209633741E-06	5.78543011290368E-06	-0.628923305482121	0.773104473187728
0.8	0.806508494921305	-0.586529346023953	1.17648235269156E-06	-8.47111756324364E-06	-6.61677175314365E-06	-3.06890311322462E-06	-0.526243287355364	0.845961734633158
0.9	0.757943755565801	-0.647998265191792	-1.1458605635025E-06	-6.80721298363785E-07	2.54541082616783E-06	6.53929631024783E-06	-0.415425696646175	0.905163548261223
1	0.704671732444199	-0.705499074940181	-2.74138347072649E-06	-3.2207494801612E-06	-4.02226112513768E-07	-7.31025168100389E-06	-0.298355214215838	0.949753380150833
1.1	0.647928722558835	-0.758814393662448	1.8083300398339E-06	-4.935963822142E-06	2.27150628085165E-06	-5.12901150049368E-06	-0.176524449933196	0.979551826977303
1.2	0.585837955211511	-0.808425458241805	-2.49626867098541E-06	2.48773527896554E-06	9.26278833172222E-07	-9.09445816117248E-07	-0.0517050332134366	0.993619970170597
1.3	0.518488776516438	-0.853202270225346	-1.53815853790132E-06	7.17412043659176E-07	-1.35652891329482E-06	1.46122179141138E-06	0.0737090427828407	0.992197724787558
1.4	0.447969191730306	-0.892239734621126	3.92627513043111E-06	-3.23618743419256E-06	2.69057111733189E-06	1.09428675235214E-05	0.198607556402531	0.974635567817065
1.5	0.374872649892454	-0.925017040007492	-5.33974865962832E-06	1.10557206946895E-06	6.5975654234883E-06	-7.20334291015294E-06	0.320128028443253	0.941446119762791
1.6	0.300859392575918	-0.95134595788442	1.78089160864612E-06	-7.73967516246417E-06	3.63201886808399E-06	1.38477569050756E-06	0.436079953311548	0.893299527371198
1.7	0.226243954441023	-0.971462287080373	-1.94141084261728E-06	-9.70194945768047E-07	-2.34833719855605E-07	-2.08735319651607E-06	0.54451266076735	0.831572882013972
1.8	0.14947530317199	-0.986024703518673	2.84991467101847E-06	5.28018840502956E-06	3.70409818616348E-09	2.0316769301656E-06	0.644701033811162	0.756344715048572
1.9	0.0718136586417075	-0.994514911471421	5.67393223736772E-06	-2.63170597196535E-06	-2.99793262477099E-06	4.15940641389288E-07	0.734245285733623	0.669151787366535
2	-0.00525774683106204	-0.99645492858253	-1.54753750832126E-06	-2.02529554760286E-06	3.21101279388514E-06	1.14508768845208E-05	0.811750285670589	0.570668149858831
2.1	-0.083347320673018	-0.993310318531571	-7.55183626605102E-06	2.45036754701513E-06	1.20430180918941E-06	5.14447999921317E-06	0.876062892577457	0.464888837019194
2.2	-0.160036806022653	-0.984164459427914	-8.83686668516346E-07	1.39365950685805E-06	2.99939285936123E-06	7.77715032075428E-06	0.927749970859389	0.351574313681064
2.3	-0.237304489350236	-0.968298808801397	1.76649193352119E-07	7.45315955834409E-06	7.39340862215171E-07	9.38987180533072E-07	0.964248547855069	0.232829349937255
2.4	-0.313222734357239	-0.945981875559033	1.57677055443189E-06	7.17392020957823E-06	1.51885121636943E-06	6.38733924398589E-06	0.986071616711286	0.109327023282542
2.5	-0.386334480464124	-0.918440944774358	4.38985460415705E-06	-2.31125696562456E-06	-1.91032171888447E-06	-7.5694856245828E-06	0.991462876491897	-0.0152468878669754
2.6	-0.457371941623287	-0.884885134644601	6.77009449988473E-06	-5.93762858790878E-06	-1.1100821217299E-05	1.08151328031183E-05	0.981518291053824	-0.139834522236747
2.7	-0.525694363024801	-0.845964343141021	-4.44722541986914E-06	9.1316385446637E-06	-2.86263794440823E-06	-9.15473519237464E-06	0.955564222325986	-0.262148774454716
2.8	-0.589757853320486	-0.802333199626684	2.45410759716004E-06	1.14572134166014E-06	-3.12686742578218E-06	1.23877084184159E-06	0.915444713352637	-0.379402689834794
2.9	-0.649701702662518	-0.754508307022681	-5.50437452795223E-06	6.00031728639223E-06	-9.18442525118063E-06	-2.98384453868116E-07	0.86079859726549	-0.490791839989178
3	-0.706960840372677	-0.702201078526196	4.75331063029697E-07	-1.47112496262238E-06	1.13155491561399E-05	1.48694737774386E-06	0.792468424960053	-0.595180046045922
3.1	-0.760340004888367	-0.645031173525265	2.38430503032244E-06	1.05003191255515E-05	4.32050285738607E-06	2.18253742170762E-06	0.711738775149554	-0.689241726574491
3.2	-0.808485398107568	-0.584055660297268	2.09258446182851E-06	6.47026560076704E-06	4.02055439118566E-06	-1.05985855917385E-05	0.620260491052932	-0.772767162554086
3.3	-0.85189678985496	-0.519715422442633	3.07342561530981E-06	4.96907246008887E-06	-2.20753054242144E-06	-9.67580712944516E-06	0.517982296356348	-0.84489327848835
3.4	-0.889663517434967	-0.452423585943202	2.1315057352568E-06	-2.60262121422612E-06	5.96065639321666E-06	1.39385752978599E-06	0.408903534630354	-0.903706802101072
3.5	-0.922964725998036	-0.380138067321539	-3.24362392341146E-06	9.458002974252E-07	-2.07705556634291E-06	3.42575718621629E-06	0.29102987140971	-0.948821594721491
3.6	-0.949253941226416	-0.306194788050523	-1.81166155482889E-06	-3.74594044755748E-06	-7.8280485070441E-06	4.10403005942195E-06	0.169236221915881	-0.976874022229406
3.7	-0.970141910868562	-0.231358348547245	8.28997548551196E-07	-8.33055513076698E-06	1.07710369208802E-05	3.70711225513341E-06	0.0452219512126242	-0.990349338962357
3.8	-0.985469846618878	-0.154018792673439	9.09795373913636E-08	1.54818562484724E-06	-6.52855835249479E-06	5.95158962119449E-06	-0.0791252048300794	-0.988570235609277
3.9	-0.994200403893414	-0.0762504591664204	-2.62791207480702E-06	-5.03419080369245E-06	-3.71114983733326E-06	8.03196325026756E-06	-0.204566988573923	-0.971517033582696
4	-0.996951251111732	0.00258498402174001	7.13557231495082E-06	-3.79173799691292E-07	-1.0453217208962E-06	-1.20717466732714E-06	-0.325642921928501	-0.938259344579028
4.1	-0.993946195110378	0.0808999023338021	6.20608140055883E-07	-4.44045863177108E-07	7.36400912328089E-06	-4.7575597466674E-06	-0.441647971043479	-0.889474732934339
4.2	-0.984778660571997	0.159169278022007	3.20887935343964E-06	2.1071708142157E-06	-7.19086082907101E-07	-7.63333146399281E-07	-0.550248814735965	-0.826257038374023
4.3	-0.969454063762136	0.235643326464939	-3.19461714090423E-06	1.37388042323592E-06	-5.00465167010475E-06	2.98554984027598E-06	-0.649734625256112	-0.750810439460427
4.4	-0.947650288283862	0.31075502674718	8.05674932139917E-07	2.64579531327796E-06	1.55406432600457E-06	-8.34384832318991E-06	-0.738875478562481	-0.663371808297378
4.5	-0.920167636143429	0.382955263286153	1.82501383674704E-06	-9.39198797870019E-07	7.63486564607029E-06	-2.51941256769608E-07	-0.816864864259321	-0.565759810709208
4.6	-0.887904120477199	0.45456981789702	-7.39205109348109E-07	6.13619334980174E-06	-1.23489223079799E-05	-6.51163727512267E-06	-0.882051229608641	-0.458354298475518
4.7	-0.849639236245041	0.522365670001936	1.19980616492641E-06	2.51733792673982E-06	1.42066053057371E-06	1.87196229789993E-06	-0.933134447076939	-0.343670290587264
4.8	-0.805306827214159	0.5880366748329	-5.20641664049928E-06	1.11427785469307E-05	5.22792781584894E-06	9.7187794765548E-06	-0.968797630793236	-0.223080034321933
4.9	-0.756445633066731	0.649019559042506	1.19559736037283E-06	2.94047883027995E-06	-4.70246174450031E-07	-6.92959010235179E-06	-0.988887260044919	-0.0992084960638602
5	-0.703939579615558	0.706779966459515	4.75930648660144E-06	-9.02992460143209E-07	-3.76068050177828E-06	2.42378270106506E-06	-0.994349462217784	0.0261616438317457
5.1	-0.644945460221195	0.761051848639425	4.14923872744726E-06	-1.37722964257048E-07	-2.6564343002134E-06	-9.85159297294684E-06	-0.982847678140525	0.152556579020663
5.2	-0.582410979306578	0.80967870731339	2.63957754319074E-06	-1.50419551974031E-05	1.38116703008099E-06	2.83278703438987E-06	-0.955181193511102	0.275276967108403
5.3	-0.516630358013356	0.853406732245344	-8.74143503617975E-06	-7.86969437134373E-07	-1.13901007961762E-06	1.59280968838706E-07	-0.912863274551248	0.393368436819155
5.4	-0.447542879309388	0.891868290103413	-7.21304681430447E-06	-1.10922066608201E-05	-1.37795469299749E-05	1.12385603631488E-05	-0.856086907523608	0.504977290151188
5.5	-0.375844770480122	0.924021002163784	1.90928792059268E-06	8.76166452058861E-08	-2.24867782051754E-06	1.78985347850763E-06	-0.786585653135946	0.608831099839585
5.6	-0.302092949364956	0.950430494995123	-2.41356824637956E-06	3.52251619648202E-06	-1.34465675236072E-06	1.29245475832626E-06	-0.703613266503089	0.703111548022318
5.7	-0.226260417306554	0.971536749097617	1.30953217946952E-06	1.23466193528688E-06	5.77746552783364E-06	-1.19305665524694E-07	-0.609673891571034	0.785727667728036
5.8	-0.148806241935796	0.986299521320087	2.71161886897501E-06	4.27143821929542E-06	-2.11767369321552E-06	4.25541919369171E-06	-0.506029313460592	0.855725255075532
5.9	-0.0699331508796335	0.995169056040584	-6.91498619291334E-06	-2.30297457360481E-06	-7.14738173255347E-08	6.31378605554972E-06	-0.394680526850096	0.912223301953926
6	0.00916348468371546	0.996093884250687	-1.79743845275032E-06	9.52903892113426E-08	-5.49146705848849E-06	-4.38702358648558E-06	-0.277355162150725	0.953250154861912
6.1	0.0865486394615362	0.991815888374491	2.35769453299474E-08	-9.93091000076889E-06	-9.90918140527266E-07	-3.21825607026333E-06	-0.157039572133961	0.9804551019611
6.2	0.164974522081556	0.981634354510959	-1.01882570204596E-06	3.11903317336028E-06	-1.75549047546392E-06	4.22360042359193E-06	-0.0323484930277088	0.992522439314206
6.3	0.2426946439971	0.964883567064211	-8.01639595778734E-07	2.83579746060267E-06	-2.93813264612223E-06	2.40410320957429E-06	0.0931209517908544	0.98832352521347
6.4	0.31866065612829	0.941397063466517	-5.96212869119494E-06	5.56252507977225E-06	-2.38540216110321E-06	-7.44951799478142E-07	0.217118610559115	0.967663507859095
6.5	0.390690946963372	0.912833293641415	1.40066110553573E-06	-5.27692665669848E-06	-1.45004717904416E-06	-2.37587468689078E-06	0.335355824439582	0.932289022449948
6.6	0.462142418167558	0.880177768424541	3.66004462903814E-06	2.10105660507906E-07	1.13240913670295E-05	-2.68306768124006E-06	0.450659485522819	0.8839362989082
6.7	0.530779503102204	0.840459116415781	-7.77478762647129E-07	8.49458675938554E-07	-3.77584170588758E-06	5.24305271274667E-06	0.558238598344151	0.819875355182034
6.8	0.595797437733247	0.795597424896275	-1.75586777941316E-06	4.49928744150379E-06	1.45643919381947E-06	-8.8643860508797E-07	0.656434551288284	0.743052108645471
6.9	0.657148841938914	0.745720379844095	5.93852650271735E-06	2.24884186087726E-06	-9.31404045277448E-07	2.42336948276131E-06	0.744107053079401	0.654513257747954
7	0.71406565144851	0.690629171112532	1.13391238211502E-06	-4.16441979717994E-06	-1.42527808173361E-06	2.92868158544598E-06	0.819383661836717	0.55560185206367
7.1	0.766133902831942	0.631868905964511	2.38813993749608E-07	-7.19592456123289E-07	1.99614010217133E-06	9.19560926929948E-06	0.881903268435642	0.448977931776932
7.2	0.813602985777138	0.568885190680447	1.38249391100231E-06	-2.41862959268511E-06	-1.02768208587491E-06	-8.57271459263947E-06	0.930820209798073	0.335227498609395
7.3	0.855903709242631	0.502177385271958	4.85168859946222E-06	7.2250824085945E-06	-9.72020691794799E-06	2.35068943745255E-06	0.964853634521215	0.21612998163417
7.4	0.893641025882029	0.432269937760033	5.09980206027443E-06	-6.88410087934859E-07	1.93265721460096E-06	-9.64873466341174E-06	0.984538341648735	0.0934038476441115
7.5	0.925851800506482	0.357998688805761	2.74028294271929E-06	-5.32274408859922E-06	2.08605344367495E-06	-7.29544305189101E-06	0.988066220597562	-0.0326001643549976
7.6	0.950679258078666	0.282111274685191	-3.29460118547417E-07	-5.64009745941351E-06	1.67943403417241E-05	3.8249016778559E-06	0.974409296808832	-0.156053104205786
7.7	0.97031746434333	0.204743227756065	3.51963639226519E-06	1.01793127720677E-07	3.16473090826802E-07	-2.92698615827464E-06	0.946993737504665	-0.276916188578094
7.8	0.983837955357491	0.125653480403581	-1.09871158546062E-05	-1.89009175347077E-06	-1.93614921255565E-07	3.44078053399543E-06	0.904830865377673	-0.393999177399441
7.9	0.990673065448433	0.0448364822119181	2.365092683775E-06	2.02262070074113E-06	-6.96435868422847E-06	-4.6866200342686E-06	0.84785722610481	-0.505651574676586
8	0.988304473677522	-0.0356322787094645	2.36175034957263E-06	2.93380048594374E-06	-9.35311054984036E-06	-7.52961995150171E-06	0.774916425592242	-0.607734894131873
8.1	0.981979932121662	-0.112595739939732	3.80395716189886E-06	-3.06970072285047E-06	2.12986930353458E-06	-3.17940480040852E-06	0.69356181231821	-0.698178039029462
8.2	0.970430939308084	-0.190355215159659	-4.02040916632495E-06	1.42068072471835E-06	-6.73198669759257E-06	3.74371592689573E-07	0.601426779469522	-0.779739968994058
8.3	0.951956395337725	-0.267660291409032	9.83717751101693E-06	2.76860063952774E-07	6.24632989145825E-06	1.0408676271811E-05	0.499117793254754	-0.84907787013095
8.4	0.927002193173048	-0.343382239283422	1.28460745643476E-06	2.54849439927413E-06	3.45382534591557E-06	1.81407000828141E-06	0.388950265914742	-0.905388336310671
8.5	0.895837270652421	-0.416929739829028	-4.8313062981734E-06	4.9613361006023E-06	2.846966340662E-06	-3.02089830321204E-06	0.271342086269824	-0.947468248870296
8.6	0.858982314642455	-0.487666820721812	-4.48925334300642E-06	2.09393730646585E-06	-3.01842176269118E-06	8.11404953725601E-06	0.149949038143468	-0.973601903074279
8.7	0.81649207887807	-0.555317962708465	-1.01715575759139E-06	1.2162734879603E-06	-6.36346522829687E-07	3.45925454890506E-06	0.0263584008124325	-0.984454688452192
8.8	0.768690797305358	-0.619034205088526	-1.57583713501481E-06	3.0756909219644E-06	-5.99353497823961E-06	1.29337172868206E-06	-0.0969936472434673	-0.979843108864983
8.9	0.716450423155262	-0.678628111839081	3.16339081378012E-06	-1.83001725918841E-06	-3.15678352107691E-06	-4.52325592808654E-07	-0.218377845730207	-0.959949288445373
9	0.659429916924556	-0.734420487611531	-7.27081999064598E-06	1.34661298064547E-06	-3.96913903017868E-06	7.22757688993563E-07	-0.337542571231077	-0.927123424302126
9.1	0.597696595677989	-0.785042074077985	-3.3489570430509E-06	-1.87909222556385E-06	-9.81615621139385E-07	2.13111748337E-06	-0.452835454415251	-0.876998175446282
9.2	0.531975876603923	-0.830520341533269	5.97332102513683E-06	-1.63709242443344E-06	1.98260842042458E-06	8.46390568679797E-06	-0.559654078740754	-0.813643139346139
9.3	0.462843202023564	-0.870695314323434	-3.3898601378239E-07	1.06889237957181E-06	1.36446464323451E-05	1.18147892767371E-05	-0.658044660943019	-0.737163441550967
9.4	0.390392223713348	-0.905526364487821	1.73172004378883E-06	-2.65994178013406E-06	4.28507546023885E-06	1.75888553000563E-06	-0.745903117216458	-0.64942064498005
9.5	0.312405046050215	-0.934015640907735	-6.5150659261041E-06	-4.87688911427089E-06	-1.95600910084718E-06	-5.70026646646475E-06	-0.82415143624017	-0.549020621516314
9.6	0.233719155462619	-0.952898373549785	-1.16570302443919E-05	-2.39498222771525E-07	-5.91924770226236E-06	-3.9949485706158E-06	-0.885752338506241	-0.439356609639708
9.7	0.154973243902051	-0.966958396392975	1.46382108586902E-06	-4.78726492881682E-07	-2.90866712971793E-06	1.64066275406057E-06	-0.93381653797414	-0.324084164143224
9.8	0.0749183963142766	-0.974804211323773	2.20171793658466E-06	1.39504476642396E-06	1.50608442255721E-05	-3.50825142170978E-06	-0.966819480600141	-0.203824407429789
9.9	-0.0059422482768992	-0.975624465461393	-3.44286701997155E-06	8.94783066156804E-06	1.37223812228752E-05	4.96258979103577E-06	-0.984559148779436	-0.0804818703819185
10	-0.0857574198863939	-0.968208286690984	-3.62940842646593E-06	1.61262051583546E-06	1.91690600116861E-05	-1.80800115786919E-05	-0.987013800359191	0.0437927824575572
10.1	-0.162857733077294	-0.954981459690699	-1.47726848262865E-06	2.29475460938888E-06	-8.39396444066557E-06	-4.30620001565649E-06	-0.97417689273389	0.168181747503902
10.2	-0.238698795476966	-0.936121611373587	-2.30279111850844E-06	-1.2400888692851E-06	-1.28947842148704E-05	7.1996085504549E-06	-0.944939297146928	0.289992675567723
10.3	-0.31173626407358	-0.910978077542387	5.7489037077658E-06	3.92182257924659E-06	-6.13653739006837E-06	1.3703863982779E-06	-0.900630926226127	0.406506884884627
10.4	-0.382295733917297	-0.880654277939604	2.09488006832787E-06	1.04525342494387E-06	7.06883965938635E-07	-8.19770211188442E-06	-0.841444553565314	0.51523684611275
10.5	-0.449941418593939	-0.84375792123311	4.35385911162357E-07	-3.03968720845868E-07	-6.44416889002111E-07	-5.60771273292928E-06	-0.772159543806254	0.614391845612004
10.6	-0.512372558007608	-0.801567980561949	5.07392214360894E-06	-2.58595250826382E-06	-9.69614925189524E-06	-7.86758748472924E-06	-0.690504844881376	0.707853338432667
10.7	-0.570583875931075	-0.755431286660598	-2.80298103287936E-06	-5.05439212274601E-07	-5.19332665376601E-06	-7.15078341135574E-06	-0.596560257654947	0.789426970362791
10.8	-0.624274999963197	-0.706345048816634	-3.59441049295909E-06	-3.43742421830888E-06	-1.19357680717232E-05	9.0875025042973E-06	-0.492899036464272	0.858115560083336
10.9	-0.673918298042926	-0.65566925870219	-1.13106337999792E-05	-1.04112593152597E-05	-4.48760171631927E-06	1.09045879351369E-05	-0.382280997886784	0.912517072017821
11	-0.722308315032567	-0.603807022646759	1.00462154660822E-06	1.41066180644593E-06	8.66865031765722E-06	-5.46205947993192E-06	-0.266310469402712	0.954335668103007
11.1	-0.766987052043755	-0.545825261456835	-3.19466602371756E-07	-3.62919873375068E-06	1.01920316486331E-05	-1.01706683299497E-05	-0.143710753511	0.981138338987375
11.2	-0.807093882774544	-0.48635374874574	-1.02361399228719E-06	-3.91073841090221E-06	2.17030982868774E-06	-6.29995348515848E-06	-0.0183161849407131	0.991309780940431
11.3	-0.844124972955429	-0.423752172038143	1.65569698881233E-06	-1.20296706073431E-05	3.56776190514089E-06	-2.81251635510068E-06	0.107283046791477	0.985324172316191
11.4	-0.877003032059517	-0.358171302948298	9.86490449012012E-07	1.98977096729051E-08	-5.6974640582387E-06	6.45188490254475E-06	0.231545322571411	0.963436417797096
11.5	-0.905613730334819	-0.287777868590018	6.54375661507911E-06	-1.23840201119411E-06	8.23441951177055E-06	-3.10143487684053E-07	0.350604522635485	0.925656476190416
11.6	-0.926455877437468	-0.215915437120229	-6.35150217655583E-07	-5.31994467974351E-06	1.43737878444479E-06	-3.0749381062382E-06	0.46465196355147	0.873707982013934
11.7	-0.942509515086137	-0.142073858388087	-8.83171133272728E-08	-6.03650117824728E-06	8.93261685973093E-07	-2.65248082534639E-06	0.571227839201072	0.807327980232498
11.8	-0.953122256615656	-0.065745771037619	-1.0686171257637E-06	-7.40813820056194E-07	5.15530617652223E-06	1.08256912260459E-06	0.668557530972973	0.727862669902702
11.9	-0.957831592434968	0.0127177790720433	-3.20701880092E-06	-5.20409941130239E-06	-5.37188481873602E-06	-8.00352466587802E-06	0.753921475644348	0.636409140232877
12	-0.955815404146276	0.0923480658236386	-2.94119214653259E-06	1.63642405296664E-06	-1.66929177452561E-05	-8.75121770809668E-06	0.823472409110246	0.535809897104272
12.1	-0.946485902284285	0.171736570844174	8.277506585651E-07	-1.56297369086557E-06	7.81781498610756E-06	1.22743131868415E-05	0.882358139998168	0.431720717830957
12.2	-0.929588395726772	0.250525878483136	-4.11606083468868E-06	5.53398202331737E-06	4.06938909874075E-07	3.31055750212426E-06	0.930280160008309	0.31918370971657
12.3	-0.906346207943844	0.327477725500654	7.81641843854023E-06	6.40371843317129E-06	3.94630388163767E-07	1.08899473862081E-05	0.963609091279621	0.199962652720614
