# GHZ S RI R 50
0.2	0.98551244272146	-0.156778221673101	2.56384403862526E-06	2.24915815617701E-06	6.5684254696107E-06	-4.86795281012124E-06	-0.96610265507771	0.251766298922545
0.3	0.969446420043986	-0.233791592774672	-8.74162018383806E-07	-5.45224321330009E-06	-3.46644269077843E-06	-7.94281773280644E-06	-0.926354534679536	0.371803995258262
0.4	0.947893349879672	-0.309077066265048	-7.27627729358833E-06	-9.89266095770932E-07	4.4397251425672E-06	1.54352052418761E-06	-0.871408635288192	0.485518509145389
0.5	0.920767822587197	-0.382312814382269	6.1955767772336E-06	2.10264140844368E-06	-2.41256914415577E-06	-1.90643206549678E-06	-0.802692456039396	0.591368101317529
0.6	0.888020916494549	-0.453006187893772	-1.05458890862967E-05	2.45804278058875E-06	-2.21705584637704E-06	-1.00684151947125E-06	-0.721428654813035	0.687604522984931
0.7	0.850043896672126	-0.520776911404562	2.78300583517568E-06	-1.17110438790143E-06	-2.98692716800317E-06	5.78509712718511E-06	-0.628763371502476	0.773044593964011
0.8	0.806796988816583	-0.585767978711234	1.17745438828381E-06	-8.47151727302067E-06	-6.61685575527909E-06	-3.06979550811158E-06	-0.526015051447119	0.845846282750335
0.9	0.758626341085751	-0.647413037352365	-1.14606225495581E-06	-6.80985357650281E-07	2.54539112242774E-06	6.54104562633506E-06	-0.415163802458828	0.904967029070788
1	0.705446966538934	-0.705621147265849	-2.74320783249519E-06	-3.22165462353524E-06	-4.03791295488995E-07	-7.31341050702561E-06	-0.29808108589501	0.949494673323312
1.1	0.64805018955584	-0.759296591318445	1.80611132765752E-06	-4.9383670965583E-06	2.26931228310198E-06	-5.13172601972566E-06	-0.176251891669863	0.979217000179282
1.2	0.585449778620335	-0.808819876160084	-2.49464414140625E-06	2.48960027782666E-06	9.25685596223668E-07	-9.1013720958784E-07	-0.0514705080493303	0.993227648585411
1.3	0.517688534896736	-0.853250612478914	-1.5372698192118E-06	7.1829321911402E-07	-1.35517191875508E-06	1.46178756475712E-06	0.0738604756097904	0.991728351156227
1.4	0.447125279142596	-0.891699501506545	3.92274206862521E-06	-3.23607709708463E-06	2.69374211814143E-06	1.09357098478422E-05	0.19858224946713	0.974117930542316
1.5	0.374036568321499	-0.923938300780832	-5.33547966826504E-06	1.10534762879387E-06	6.59159958609337E-06	-7.19854191496718E-06	0.319998419028094	0.940986228868112
1.6	0.300514356278146	-0.949458488878652	1.78182136841929E-06	-7.73211089866658E-06	3.62828926011458E-06	1.3847167893723E-06	0.435958885642262	0.892892335893005
1.7	0.226679072288367	-0.969475305136262	-1.93930455334338E-06	-9.70731056045521E-07	-2.33288995345239E-07	-2.08592537459162E-06	0.544435088389835	0.83117830490132
1.8	0.150426253380828	-0.984309662066992	2.84402055539891E-06	5.27974232554037E-06	2.01759880453311E-09	2.03059915872107E-06	0.644669108870723	0.755988993169556
1.9	0.073006614146114	-0.993330024640489	5.67508082081135E-06	-2.62634118294141E-06	-2.99770586529405E-06	4.13295426623993E-07	0.734358142763853	0.668877428864471
2	-0.00456928894846821	-0.99569723381969	-1.54653580327928E-06	-2.02593985440599E-06	3.2055583210749E-06	1.1451940119145E-05	0.81210773141517	0.570210549025832
2.1	-0.0828702394421917	-0.99206582736797	-7.55078301646087E-06	2.44604476919993E-06	1.20149383428102E-06	5.14354074912673E-06	0.876360314500346	0.464365537521536
2.2	-0.159211517960556	-0.982691340530336	-8.84357256308521E-07	1.39275619622E-06	2.99371021687835E-06	7.77715595266771E-06	0.92819605257602	0.350999705418638
2.3	-0.236025889325926	-0.966894845901236	1.71064369029264E-07	7.45248163795268E-06	7.38559341582968E-07	9.39437254792202E-07	0.964771426524748	0.232086389374638
2.4	-0.311491131451667	-0.944992672269146	1.57068797477445E-06	7.17602097448858E-06	1.51344723527435E-06	6.38930971380814E-06	0.986568456285195	0.108493511130405
2.5	-0.384608345486904	-0.918229809093916	4.39415901483571E-06	-2.30851805145978E-06	-1.90453962889227E-06	-7.57505539579961E-06	0.992128912560188	-0.0160512097335243
2.6	-0.456174756081567	-0.88499396985552	6.77865612290793E-06	-5.93869399044297E-06	-1.11154401955028E-05	1.08177354060195E-05	0.982404108465234	-0.140989064952972
2.7	-0.52488670250874	-0.845979427627344	-4.45233795446574E-06	9.1370653712505E-06	-2.8626427330971E-06	-9.16177611904411E-06	0.95628529422617	-0.263645430349355
2.8	-0.589127279543147	-0.802109880171936	2.45526961777461E-06	1.1464640525172E-06	-3.12852875651047E-06	1.23918669198957E-06	0.915908144813552	-0.381002559935764
2.9	-0.649150623759139	-0.754154668267681	-5.50577573724206E-06	6.00249752128889E-06	-9.18732201623729E-06	-2.97980303457033E-07	0.861031345289533	-0.492295970425963
3	-0.706838940529697	-0.701677738011558	4.75132448795742E-07	-1.47125407102827E-06	1.13162213570003E-05	1.48533298746657E-06	0.79276860438696	-0.596389571031968
3.1	-0.760282898879621	-0.643642550028681	2.38516980262376E-06	1.04976856353616E-05	4.31983836980473E-06	2.18148333151414E-06	0.712385010932618	-0.690544685589044
3.2	-0.807886890871793	-0.582229136237961	2.09190860142648E-06	6.46750017380837E-06	4.01855168821907E-06	-1.059428343097E-05	0.620990576248326	-0.774379939122858
3.3	-0.850762366994684	-0.517854131970297	3.07116904749763E-06	4.96698248473509E-06	-2.20505293308816E-06	-9.67120757806787E-06	0.518662867901625	-0.846759645374552
3.4	-0.888112425492186	-0.450869814032492	2.13163134301771E-06	-2.60069661611635E-06	5.95761363677263E-06	1.39560643659118E-06	0.409578977632444	-0.905771416103564
3.5	-0.921583508031692	-0.378920436924997	-3.24389424302572E-06	9.44792130485232E-07	-2.0780996735486E-06	3.42509265594492E-06	0.291614233011875	-0.951432461243779
3.6	-0.947708671907667	-0.304769599617563	-1.8111730968599E-06	-3.74548841210154E-06	-7.82712244173182E-06	4.1029619370505E-06	0.169267753546479	-0.979675708441926
3.7	-0.968218877275618	-0.230191302434249	8.29966137132302E-07	-8.32852018686708E-06	1.07680390030403E-05	3.70775737473668E-06	0.0448160107858567	-0.99313919013516
3.8	-0.98342431602847	-0.153368924767591	9.06516324078111E-08	1.54788558171081E-06	-6.52840513139633E-06	5.94906244332686E-06	-0.0799778490602959	-0.991108636436341
3.9	-0.992470431009188	-0.0761640830907319	-2.62658700323237E-06	-5.03352717910362E-06	-3.71159171414939E-06	8.02969695537827E-06	-0.20561426897961	-0.973396590868211
4	-0.995973469665908	0.00268297610312557	7.13231463103839E-06	-3.77665586208768E-07	-1.04460889137904E-06	-1.2068066083482E-06	-0.325939160168134	-0.939512198591423
4.1	-0.993089917516287	0.0814825585205373	6.20523853050268E-07	-4.43540377714578E-07	7.36276636361727E-06	-4.75180481452982E-06	-0.44127765885588	-0.891350753097949
4.2	-0.983815503038214	0.159875455856032	3.20648324806396E-06	2.1082799375944E-06	-7.18379080992448E-07	-7.63475969574906E-07	-0.550057806378388	-0.828651330452304
4.3	-0.968467813747884	0.236304402330564	-3.19483514175877E-06	1.37160525056313E-06	-5.00551462743157E-06	2.98181818982573E-06	-0.649925234013908	-0.753361170114927
4.4	-0.946785241211332	0.311217711012471	8.04443819940795E-07	2.64636764276814E-06	1.55822644020451E-06	-8.34366270482777E-06	-0.739499185378442	-0.665627656474448
4.5	-0.919997796446364	0.383250212952235	1.82520721188996E-06	-9.38996029286094E-07	7.63519308939767E-06	-2.50951167789505E-07	-0.817127355586853	-0.567357598556252
4.6	-0.888276887437074	0.455796456895759	-7.39555146845826E-07	6.13617906826905E-06	-1.23486096847848E-05	-6.51236422128396E-06	-0.8817183280044	-0.460298858600243
4.7	-0.849661209633661	0.524305194538152	1.19999309908681E-06	2.5171617386999E-06	1.42078464161182E-06	1.87178493666122E-06	-0.932785038018382	-0.34609326875809
4.8	-0.804825530049921	0.590263236532498	-5.20389954285595E-06	1.11420483223402E-05	5.22875143313964E-06	9.71657677719002E-06	-0.968639442546911	-0.225822817483137
4.9	-0.755499620653738	0.651171311913677	1.1953768151371E-06	2.93950101477707E-06	-4.70457692989316E-07	-6.92740703644145E-06	-0.988861221454965	-0.102179292205956
5	-0.702991172143567	0.708956064380841	4.75892162503376E-06	-9.01372556777598E-07	-3.76091295287894E-06	2.42226259272808E-06	-0.994657834516324	0.0224569495734
5.1	-0.643193662585501	0.763485829963502	4.14963462037315E-06	-1.36977121742223E-07	-2.65487156803138E-06	-9.85295858092524E-06	-0.984269472081524	0.14871178736551
5.2	-0.579993794382644	0.811443239063443	2.64286223268843E-06	-1.5043190218805E-05	1.38076787112147E-06	2.83339126889773E-06	-0.957484274941303	0.271882435877948
5.3	-0.514146874721377	0.854366748171392	-8.74386047158671E-06	-7.88999572775961E-07	-1.139379944231E-06	1.59093934655414E-07	-0.91573533998235	0.390789995750472
5.4	-0.445504360179899	0.892210828045454	-7.21751616291947E-06	-1.10982005217595E-05	-1.37869104308532E-05	1.12453971171877E-05	-0.858924913947107	0.503532618389529
5.5	-0.374574062789255	0.924587396639441	1.91009269682351E-06	8.65167526572085E-08	-2.24850086835845E-06	1.7918951985488E-06	-0.788336159679102	0.607854591275935
5.6	-0.300425325809549	0.951618010633867	-2.41183697547194E-06	3.52394343738121E-06	-1.34404290264843E-06	1.29321871249883E-06	-0.705255558692742	0.701467845022286
5.7	-0.223965654060887	0.972440413162886	1.31016668245852E-06	1.23404531211757E-06	5.77753103661203E-06	-1.22145687131721E-07	-0.611815767676796	0.784271938372385
5.8	-0.14623662872966	0.986541132226088	2.71377320031366E-06	4.27024484815734E-06	-2.11566756692485E-06	4.25657190302619E-06	-0.508402793166412	0.854958117237586
5.9	-0.0674469419795326	0.994540316033855	-6.91747051763673E-06	-2.30000021868569E-06	-6.83630806186129E-08	6.31504912894607E-06	-0.396767064876917	0.912543085139358
6	0.0107898544442034	0.994417797744655	-1.79768375868288E-06	9.71634973390587E-08	-5.49704418689318E-06	-4.38219532572841E-06	-0.277881484126519	0.954145602571885
6.1	0.0867538710751316	0.990402549692249	1.44250124629901E-08	-9.92721954247929E-06	-9.93510697255186E-07	-3.21614077767816E-06	-0.156691270630872	0.980506664728253
6.2	0.164650729533492	0.980932901661322	-1.01633227087019E-06	3.11809765540766E-06	-1.75192347471025E-06	4.22257183181621E-06	-0.0318699427858389	0.991901481701604
6.3	0.242304595860213	0.964806451882121	-8.00096432673601E-07	2.83455926634758E-06	-2.93558951126226E-06	2.40393344893383E-06	0.0934090270921753	0.98729344355252
6.4	0.31848236477232	0.94162045647128	-5.95705394335074E-06	5.56098686873223E-06	-2.38422320966569E-06	-7.43833216237705E-07	0.217377046029252	0.966351277533172
6.5	0.390273440410092	0.913441675083938	1.40000831685837E-06	-5.27197057188334E-06	-1.44845171169636E-06	-2.37388737443543E-06	0.335006211477985	0.930193748284952
6.6	0.462570267511708	0.881551354475894	3.65848778263325E-06	2.12075393133461E-07	1.13211435464458E-05	-2.67566287778652E-06	0.449485508140068	0.882304882447634
6.7	0.53194723197991	0.841488493684984	-7.77844039260773E-07	8.49064121612776E-07	-3.77813574399706E-06	5.24109342968326E-06	0.5569194631017	0.81871027678472
6.8	0.597209121520379	0.796187496312962	-1.75783211952605E-06	4.49949700233273E-06	1.45703529113067E-06	-8.86076656404367E-07	0.65517776967225	0.742332220968036
6.9	0.658539842425691	0.745882203720928	5.94058136307219E-06	2.25133529661861E-06	-9.32427609911797E-07	2.42420455926868E-06	0.743240556742385	0.654167654187688
7	0.715079674447815	0.690659201062549	1.13372477832762E-06	-4.16716869673251E-06	-1.42552480407826E-06	2.93074617069309E-06	0.818975409925851	0.555071223020519
7.1	0.767227996252703	0.632150113639932	2.38705721974428E-07	-7.19869938694035E-07	1.99905005155822E-06	9.19788911368044E-06	0.881472497315266	0.448416857688296
7.2	0.814937882532707	0.569021010815329	1.38264927345194E-06	-2.41973699012561E-06	-1.0293412038122E-06	-8.57575736717769E-06	0.930565064450208	0.33480014925109
7.3	0.857302825256389	0.502039027563935	4.855189599296E-06	7.22791442542305E-06	-9.72465411171602E-06	2.35333456090814E-06	0.964886708500719	0.215772980161289
7.4	0.895028779832442	0.431934303131968	5.10337171122753E-06	-6.89313223954301E-07	1.9332483743929E-06	-9.65575083900445E-06	0.985050075480782	0.0930424018766015
7.5	0.927258448581162	0.357179972201282	2.74064783629817E-06	-5.33152417627551E-06	2.08432963740259E-06	-7.30644672301249E-06	0.989021293309069	-0.0337857459592427
7.6	0.951523421840728	0.281089512538074	-3.3742490366029E-07	-5.64455604621139E-06	1.68141590769519E-05	3.8053665236997E-06	0.974800066448684	-0.157637883555865
7.7	0.970930933885161	0.203824604552606	3.52170192974546E-06	9.66412092377016E-08	3.12314799510522E-07	-2.92904687048508E-06	0.947186849006891	-0.278609670485504
7.8	0.984365940786246	0.124734655427163	-1.09943257489986E-05	-1.87226367220892E-06	-1.87885919058618E-07	3.44236703833431E-06	0.90471736849807	-0.395837111127513
7.9	0.991194069253741	0.0436421208815802	2.36952744939871E-06	2.01800523063941E-06	-6.97481123572987E-06	-4.6728779618114E-06	0.847236006669826	-0.507496729188204
8	0.988025065491328	-0.0373216181024159	2.36624556785972E-06	2.92530842622547E-06	-9.36132982151077E-06	-7.50011065495933E-06	0.773443574448054	-0.608506382932674
8.1	0.981221601670799	-0.113614614110407	3.79413435267288E-06	-3.06899842560476E-06	2.12268940356081E-06	-3.17659553004911E-06	0.693376131366417	-0.69753009606093
8.2	0.969673754946838	-0.191194405024923	-4.01414163785698E-06	1.42034957103112E-06	-6.72232688250557E-06	3.76646934793905E-07	0.602564498085167	-0.779265572472621
8.3	0.95106351435636	-0.268421985058568	9.82618508395172E-06	2.76510200077909E-07	6.23939209627641E-06	1.03970183362513E-05	0.501046552448619	-0.849159212655737
8.4	0.925943753499448	-0.344017894961249	1.28303204665363E-06	2.54671592142427E-06	3.45065987388644E-06	1.81334350792037E-06	0.39114504312328	-0.906160186280802
8.5	0.894657294219267	-0.417401721118171	-4.82920370317919E-06	4.95786255121349E-06	2.84574021979157E-06	-3.01879584777617E-06	0.273300165653534	-0.948191845157038
8.6	0.857711780944613	-0.488041062349544	-4.48595556536018E-06	2.09132846663792E-06	-3.01751802512607E-06	8.10675644468087E-06	0.153006107337361	-0.974079831496688
8.7	0.815036798954055	-0.55555354132897	-1.01703907907893E-06	1.21460931191176E-06	-6.37938101014003E-07	3.45591346014226E-06	0.030418776216194	-0.985934978059303
8.8	0.767082603670514	-0.619017293643	-1.57791065027532E-06	3.07207460864238E-06	-5.99090074390561E-06	1.28646074559945E-06	-0.0926628766046975	-0.982720224179625
8.9	0.714890541514702	-0.67828663931414	3.1648422439444E-06	-1.82467443630998E-06	-3.15489541695131E-06	-4.56772527117672E-07	-0.214383780834257	-0.964092139605616
9	0.658106709175784	-0.734187616175955	-7.27762544001262E-06	1.33269011467502E-06	-3.97282917273386E-06	7.15150253552636E-07	-0.334295927458554	-0.932423304058223
9.1	0.596139859157655	-0.784856021715806	-3.35119555101625E-06	-1.88678043060743E-06	-9.86189365278624E-07	2.13285478497336E-06	-0.450740862388354	-0.882758553736492
9.2	0.530407583294436	-0.830232520616787	5.98566986337624E-06	-1.63480818125987E-06	1.97875646280894E-06	8.48110585918847E-06	-0.558647053228219	-0.819373057140121
9.3	0.461337715468351	-0.870399117367589	-3.39938920552385E-07	1.07088079520852E-06	1.36679775805817E-05	1.18415327125891E-05	-0.657949596291341	-0.742233694939757
9.4	0.389141470929849	-0.905337041594511	1.73410600069184E-06	-2.66559769507633E-06	4.29383412763924E-06	1.76076698192422E-06	-0.746299265627775	-0.653311584566537
9.5	0.310740655200545	-0.934701716001279	-6.52993824467098E-06	-4.87443193931057E-06	-1.96613717775728E-06	-5.70495965230722E-06	-0.823618062443187	-0.550805232953582
9.6	0.231231557081284	-0.953010572418912	-1.16564363485178E-05	-2.27826818942786E-07	-5.922818554146E-06	-3.98874512751825E-06	-0.882396752822372	-0.441774051319991
9.7	0.152468444184571	-0.966518021775682	1.46330827224358E-06	-4.78993797311292E-07	-2.90746306690881E-06	1.64101290759627E-06	-0.93004040790306	-0.328639951976417
9.8	0.0725746442099192	-0.97396647406119	2.20136771020194E-06	1.39524084550078E-06	1.50602164301187E-05	-3.50595430466512E-06	-0.964018102322652	-0.209867923069091
9.9	-0.00799015957296288	-0.974613226829867	-3.44665213372599E-06	8.95043891534726E-06	1.37264671774664E-05	4.96826905287145E-06	-0.983628953108011	-0.0869086020237039
10	-0.0878068045297992	-0.967163569309297	-3.63239389218356E-06	1.6146058676338E-06	1.91833782962898E-05	-1.80990076814707E-05	-0.98726600062495	0.0388158719966496
10.1	-0.164785578000415	-0.953815203743855	-1.47666529475628E-06	2.29763325247021E-06	-8.40366364401925E-06	-4.30315156299193E-06	-0.973695638042425	0.163881820360789
10.2	-0.240615125940276	-0.934912334102702	-2.30486709953628E-06	-1.23825222400336E-06	-1.28923414984351E-05	7.21506814140767E-06	-0.944314436892588	0.285400746154211
10.3	-0.3135289445354	-0.909622024396769	5.75227347158697E-06	3.91585740190078E-06	-6.13468347631939E-06	1.37629233999535E-06	-0.900286545423646	0.401845136723098
10.4	-0.383507265696095	-0.87945720562173	2.09421848725549E-06	1.04282835880582E-06	6.99814409113343E-07	-8.19240410816403E-06	-0.84097942504474	0.511125800751312
10.5	-0.451089373475849	-0.843887501413536	4.3481251667386E-07	-3.03341120009266E-07	-6.41442252742102E-07	-5.59917963316832E-06	-0.770349125910894	0.609739437900695
10.6	-0.51465809762144	-0.802326848552676	5.07415496507318E-06	-2.57507727806166E-06	-9.67456244554754E-06	-7.87772897641843E-06	-0.688930430462379	0.701838812041905
10.7	-0.573821091735614	-0.756027541738072	-2.80165345712058E-06	-5.10642681643372E-07	-5.17917993085044E-06	-7.1595884711145E-06	-0.595229518094385	0.782716574726881
10.8	-0.628209204691126	-0.706417989359697	-3.58919812704939E-06	-3.44490780996126E-06	-1.1955605223449E-05	9.06844483142834E-06	-0.492020102134881	0.850770770823315
10.9	-0.677792830604512	-0.655080409484575	-1.13000545517507E-05	-1.04376339828209E-05	-4.5093910101029E-06	1.0903980774356E-05	-0.382272240813396	0.905259267136548
11	-0.726559861529906	-0.603779987905293	1.00434644978278E-06	1.41346546067968E-06	8.68511886975913E-06	-5.45949638762958E-06	-0.265343463511716	0.947844923206047
11.1	-0.772298812554848	-0.544780370822837	-3.18653642423835E-07	-3.63054534980533E-06	1.01981753134875E-05	-1.01716182845621E-05	-0.141818982948364	0.972089604191297
11.2	-0.812343399964131	-0.484169712146159	-1.02098538413266E-06	-3.90968301805373E-06	2.1729508732394E-06	-6.29610325832866E-06	-0.0184616039116267	0.980128261726929
11.3	-0.848849190297131	-0.420791269376297	1.66864214032585E-06	-1.20184195654359E-05	3.56833129759079E-06	-2.80612497340047E-06	0.10416428698119	0.973736213398417
11.4	-0.881021274891476	-0.355219506577132	9.85582247286347E-07	2.18239769807767E-08	-5.7051580755899E-06	6.43497510028433E-06	0.225765327276607	0.952969285228537
11.5	-0.910281138070441	-0.284964555837252	6.54435983876169E-06	-1.22103352428173E-06	8.23195909460366E-06	-2.88781853303999E-07	0.343649517119274	0.916970880257881
11.6	-0.931051413456907	-0.21184666214515	-6.20541864587251E-07	-5.32244043435993E-06	1.44607381542743E-06	-3.07139557005081E-06	0.45668218219464	0.866312001428148
11.7	-0.946054657679912	-0.137342872403897	-7.17266242703414E-08	-6.04012946089485E-06	9.01074299288957E-07	-2.65150580931462E-06	0.562284237918218	0.802047475486573
11.8	-0.955250971420624	-0.0610109995025531	-1.06780853887406E-06	-7.44319652823845E-07	5.1578082987627E-06	1.09692850638405E-06	0.659825651732122	0.725535720468699
11.9	-0.95826336848354	0.0163229752912615	-3.20335759992421E-06	-5.21776520818512E-06	-5.36695287469524E-06	-8.02528160142503E-06	0.748065029710254	0.636971736926771
12	-0.956022843489029	0.0933763506224871	-2.94402204502065E-06	1.63714934302284E-06	-1.67050018209967E-05	-8.76224470689592E-06	0.821817161697176	0.535303643742459
12.1	-0.948180218211234	0.171708288991187	8.28019976767639E-07	-1.56252551836041E-06	7.81351404120225E-06	1.22744184859865E-05	0.881851117023778	0.428999353605511
12.2	-0.932268468380224	0.250422958431808	-4.11476136876763E-06	5.53084521005625E-06	4.06346536704563E-07	3.30902602617682E-06	0.930015511945913	0.314645019062955
12.3	-0.909686110523086	0.327494128204414	7.80935193429383E-06	6.39753836165428E-06	3.94589686843516E-07	1.08798235595445E-05	0.962642206210961	0.19408390958343
