# GHZ S RI R 50
0.2	0.985736198829837	-0.156834696022572	2.5641601863091E-06	2.2496322487425E-06	6.56969640992263E-06	-4.86845342407815E-06	-0.966291741434752	0.251754399756555
0.3	0.969697866289085	-0.233873735975513	-8.73733607831863E-07	-5.45325380407861E-06	-3.46618793470226E-06	-7.94452149039607E-06	-0.926612910760465	0.371773376068324
0.4	0.948247509393305	-0.309115107297457	-7.2778604013846E-06	-9.91234904420614E-07	4.44046869359574E-06	1.54495655503348E-06	-0.871840460327906	0.485502281209232
0.5	0.921518384489774	-0.382576794200386	6.19897660202751E-06	2.10503782483028E-06	-2.4136974302077E-06	-1.9080284744229E-06	-0.803316438998568	0.591712301514917
0.6	0.888628596047813	-0.453790816319735	-1.05512522919218E-05	2.46075493329294E-06	-2.2183836982983E-06	-1.00709288004248E-06	-0.721750172351926	0.688075396870964
0.7	0.850389541008454	-0.521766578090271	2.78408371387823E-06	-1.17206218805278E-06	-2.98738703585345E-06	5.78817220475641E-06	-0.629114256057102	0.773472753250954
0.8	0.806845920072715	-0.586883316923488	1.17636529810422E-06	-8.47525186735598E-06	-6.62017316326768E-06	-3.06983705800485E-06	-0.5264224025709	0.846377453095916
0.9	0.758234387895025	-0.648469267742357	-1.14654867218492E-06	-6.80944212920831E-07	2.54754212475559E-06	6.54245230969031E-06	-0.41556985939126	0.905630364476346
1	0.704778153130012	-0.706019314444081	-2.74345196476961E-06	-3.22198354578757E-06	-4.03783000005197E-07	-7.31411952400318E-06	-0.298495533305035	0.950284246871581
1.1	0.647983894973596	-0.759291938636712	1.80843455225022E-06	-4.93912876815568E-06	2.27183942732156E-06	-5.13237418365364E-06	-0.176628683344878	0.980203553454965
1.2	0.585792674334351	-0.808915723824114	-2.49730298860159E-06	2.48996977731749E-06	9.26665938941604E-07	-9.10266003328151E-07	-0.0517457674155989	0.994456766524239
1.3	0.518325903155696	-0.853655178885833	-1.5389589848318E-06	7.18534217220744E-07	-1.35690355111618E-06	1.46279713076275E-06	0.0739630190594215	0.993225735040081
1.4	0.447630383557029	-0.892499952294176	3.92641395698521E-06	-3.24025972912771E-06	2.69856590732422E-06	1.09470534248388E-05	0.19926154966718	0.975514735916943
1.5	0.374869502624257	-0.924831946097797	-5.34039246232539E-06	1.10849439547416E-06	6.59543727590822E-06	-7.20826272766414E-06	0.321055054906635	0.942073314192702
1.6	0.301176622449338	-0.951539677597228	1.77845598389367E-06	-7.74184120263182E-06	3.63323300548069E-06	1.38374089224572E-06	0.437107082959575	0.893403388215193
1.7	0.226436936818867	-0.971828574782534	-1.94205284063189E-06	-9.69736666528947E-07	-2.35543974636573E-07	-2.08763308142623E-06	0.545359285973008	0.831381042807467
1.8	0.14957394420295	-0.986430927555684	2.85156846000249E-06	5.27997003270977E-06	4.23236385910383E-09	2.03187687082431E-06	0.645316087169166	0.75594553038983
1.9	0.0719711248033404	-0.994882548682992	5.67411560067769E-06	-2.63154847695318E-06	-2.99799522405792E-06	4.15841832675878E-07	0.734363058051338	0.668794128570956
2	-0.00491181719480513	-0.997368243432296	-1.54799220044312E-06	-2.02745509092132E-06	3.209254962416E-06	1.14610227282184E-05	0.812159017372945	0.57124871711009
2.1	-0.0838400137316512	-0.99442955393118	-7.55780250707879E-06	2.45670633881272E-06	1.20817303513058E-06	5.14878958882272E-06	0.877280780116054	0.464623185362421
2.2	-0.160866582831509	-0.984913197606811	-8.83178092094621E-07	1.39508701916734E-06	3.00671595517623E-06	7.77937843681251E-06	0.928519424839363	0.350737363292079
2.3	-0.23825044448791	-0.968780553718164	1.81819913796175E-07	7.45564630404903E-06	7.40243201699018E-07	9.38808933294776E-07	0.964552959763875	0.231875644538143
2.4	-0.314239389144276	-0.946246191196166	1.5812117650984E-06	7.17481120782574E-06	1.5228340154496E-06	6.3880676504305E-06	0.985961421898908	0.10851090321082
2.5	-0.387406564612373	-0.918458297321082	4.39007019272046E-06	-2.31415369931479E-06	-1.91467236883996E-06	-7.5708874186179E-06	0.991241193473412	-0.0157398256755219
2.6	-0.458400355426636	-0.884693861843406	6.76969382917592E-06	-5.94283970099246E-06	-1.10996630101392E-05	1.08240531121342E-05	0.981305437513646	-0.140110213485549
2.7	-0.526688381643204	-0.845640210385433	-4.44474058989949E-06	9.13897451306219E-06	-2.86909877532039E-06	-9.15816424946352E-06	0.955657629058703	-0.262351700384335
2.8	-0.590836930289089	-0.801908240664848	2.45662167474915E-06	1.14450601467953E-06	-3.12791378548312E-06	1.24207687827785E-06	0.915660278805925	-0.37995272898689
2.9	-0.651130237205262	-0.753725792979533	-5.50146672638044E-06	6.01104523157364E-06	-9.19146930902712E-06	-2.88005241512941E-07	0.860761242964948	-0.491609659321737
3	-0.708005514860558	-0.700215783631389	4.72787940994631E-07	-1.47258053290766E-06	1.13227217604136E-05	1.46653998309954E-06	0.792212520526134	-0.595981448820287
3.1	-0.760359455649462	-0.643296223179495	2.4024194205817E-06	1.04931312198271E-05	4.32320292816885E-06	2.17420306968609E-06	0.711248005478028	-0.690187574493782
3.2	-0.808359075123382	-0.58253459046632	2.10266590120811E-06	6.46350731715145E-06	4.00039531265396E-06	-1.06002994784947E-05	0.619378413533105	-0.773692434078661
3.3	-0.851604962372473	-0.518135926535988	3.08000704809855E-06	4.95961193455431E-06	-2.22330922087704E-06	-9.66422099536021E-06	0.516611955190222	-0.845639729737253
3.4	-0.888927405955798	-0.450583466211836	2.1234334580061E-06	-2.60272014882625E-06	5.95434309758985E-06	1.38059346191398E-06	0.406833368649073	-0.903731246974923
3.5	-0.92107076273479	-0.37896682223371	-3.23602241265865E-06	9.45723961429824E-07	-2.07047301100381E-06	3.41959935106933E-06	0.289926323520365	-0.947256957224337
3.6	-0.947997151017235	-0.306034610867642	-1.81077817431755E-06	-3.74111761342964E-06	-7.81787029184939E-06	4.10182267767275E-06	0.168973711886625	-0.976404240184675
3.7	-0.969222504872704	-0.231131213938267	8.22649074709526E-07	-8.32101830317934E-06	1.07603975155964E-05	3.69571881325997E-06	0.0443714971770026	-0.989954344026286
3.8	-0.984607383754734	-0.153799704620756	9.16167760591433E-08	1.54573975632119E-06	-6.51544530816473E-06	5.94564489657457E-06	-0.0801549530240166	-0.98759304104817
3.9	-0.993381078225879	-0.0760393152125083	-2.62318295167576E-06	-5.02585326723279E-06	-3.70536200822631E-06	8.01819592048804E-06	-0.205087963228149	-0.969801228217982
4	-0.995964148225353	0.00279776556290139	7.12774087656413E-06	-3.75969400939905E-07	-1.04368243552347E-06	-1.20623208554119E-06	-0.325062197145117	-0.936781660167004
4.1	-0.992891477581713	0.0807409579399142	6.20043405494241E-07	-4.43422227827086E-07	7.35718843188422E-06	-4.75071079518359E-06	-0.440976509340222	-0.888541921367991
4.2	-0.983930119741712	0.158693816342908	3.20466719472649E-06	2.10624226439739E-06	-7.18025690893604E-07	-7.62819396790207E-07	-0.549493659344265	-0.825619000428445
4.3	-0.969008409487117	0.23491118429582	-3.19234010136375E-06	1.37048956919961E-06	-5.00161531543898E-06	2.97941556213475E-06	-0.649007444548519	-0.750441333023174
4.4	-0.948119161548591	0.310030701679838	8.01840609955418E-07	2.64511824084673E-06	1.56354364483451E-06	-8.33657435819161E-06	-0.738291778896218	-0.663272843293627
4.5	-0.92097335107168	0.383986470229128	1.82761462225234E-06	-9.3824170626265E-07	7.64208919624004E-06	-2.44578917918898E-07	-0.816634358662093	-0.565536111251421
4.6	-0.887234817332428	0.455596524145183	-7.38215629407714E-07	6.14057812994784E-06	-1.23589713992502E-05	-6.51308845945921E-06	-0.881577743141774	-0.458039321120217
4.7	-0.848798454506936	0.52293977843111	1.20142802091211E-06	2.51790861004348E-06	1.4220964454836E-06	1.87215576037935E-06	-0.932693196895312	-0.343550564072203
4.8	-0.804487259745908	0.588502417429235	-5.20092699260914E-06	1.11519087421718E-05	5.23744025739596E-06	9.7197226110108E-06	-0.968650485492208	-0.223014956079552
4.9	-0.755480875670984	0.649912742075179	1.20074757576874E-06	2.94020258330096E-06	-4.81138010120501E-07	-6.93254407797012E-06	-0.989222575230378	-0.098485665669809
5	-0.701203118021438	0.707261439872371	4.75192330824333E-06	-9.13643458009117E-07	-3.7506661565051E-06	2.43033883662725E-06	-0.993004728466883	0.027951958474624
5.1	-0.642974454669342	0.759591895210767	4.14133186736403E-06	-1.42310297156761E-07	-2.66297732583679E-06	-9.83009987584536E-06	-0.981041495834773	0.152486693798189
5.2	-0.581373914610226	0.808213551971329	2.62135599454817E-06	-1.50162297215214E-05	1.38109493235696E-06	2.82628179701745E-06	-0.954036868546995	0.275024973574041
5.3	-0.515905690936213	0.852071703432902	-8.72182284678084E-06	-7.79855600062356E-07	-1.13629570763029E-06	1.59606173552802E-07	-0.911631988135132	0.393256948682903
5.4	-0.447034059782288	0.89058037120282	-7.19027352817188E-06	-1.10645495933706E-05	-1.37458804419933E-05	1.12041404102367E-05	-0.854465897328085	0.504571514243095
5.5	-0.375199520873765	0.922885050941702	1.90627635178333E-06	9.00630846017834E-08	-2.24768818854235E-06	1.78410357099714E-06	-0.784957767304137	0.607569414922817
5.6	-0.301437767123762	0.94875729904961	-2.41226019475588E-06	3.51859157923711E-06	-1.3437492423861E-06	1.29089228242387E-06	-0.702602790190296	0.701486526588763
5.7	-0.225953365992501	0.969540935202931	1.30792405333322E-06	1.23272631297541E-06	5.76942683032346E-06	-1.20119741959718E-07	-0.608978722337074	0.783997062599573
5.8	-0.148912883185772	0.983854218296176	2.70748464902572E-06	4.2615988043812E-06	-2.11176958959363E-06	4.247315111686E-06	-0.505560098967637	0.853655008536085
5.9	-0.0713156889094287	0.992140210397249	-6.89021568320412E-06	-2.29623143038199E-06	-7.24606048889786E-08	6.2915674728558E-06	-0.395012347900495	0.909447764587977
6	0.00619355820245155	0.994976678985616	-1.79203432504694E-06	8.95203272094537E-08	-5.46072462285571E-06	-4.38983236666412E-06	-0.279335472690865	0.951454993785182
6.1	0.0847992234341833	0.991241446748921	4.96287390525663E-08	-9.91710603381806E-06	-9.81093907638156E-07	-3.21640549621497E-06	-0.158418565682225	0.979288163499282
6.2	0.162799641408091	0.980900528293844	-1.02567760856378E-06	3.11206675385732E-06	-1.76425405314959E-06	4.21317306687599E-06	-0.0342610591162264	0.99125223282255
6.3	0.239855156867726	0.964816951963034	-8.1008202336923E-07	2.83058130406893E-06	-2.94320304870244E-06	2.39236735180566E-06	0.0903628341334884	0.987727708858311
6.4	0.315523585715023	0.943132224187839	-5.98697333055583E-06	5.54155387855776E-06	-2.38358205056569E-06	-7.54748367349131E-07	0.213839460935574	0.968969335574797
6.5	0.39070311739203	0.915871652254194	1.41545330468681E-06	-5.2897068807933E-06	-1.44954095018866E-06	-2.38582795250552E-06	0.33516417083456	0.935199205609754
6.6	0.462500751217536	0.880771148271278	3.66534430372219E-06	2.10705477824042E-07	1.13407567371182E-05	-2.68605357014065E-06	0.45095917761762	0.884455768203126
6.7	0.530528571933782	0.840936312842948	-7.78061686437752E-07	8.50014535614658E-07	-3.77872578642401E-06	5.24653220473503E-06	0.557944304465063	0.820283262611426
6.8	0.595468559265359	0.796055427053554	-1.75581680244358E-06	4.50049303976083E-06	1.45668312323863E-06	-8.86787825103816E-07	0.656045425057072	0.743459183974847
6.9	0.656590582675423	0.746200567935244	5.93456228408452E-06	2.2466725991523E-06	-9.30509162031599E-07	2.42175312923553E-06	0.743424565775992	0.6550390478812
7	0.713664785156669	0.691546193425851	1.14020099485599E-06	-4.15780190964474E-06	-1.42901209656175E-06	2.9228919046887E-06	0.819077530867381	0.556842690945787
7.1	0.766060952467226	0.632530329923282	2.40276978109308E-07	-7.1972188692612E-07	1.98133066659837E-06	9.2062364198563E-06	0.882206175274472	0.44968731589166
7.2	0.81354852024841	0.569337635582171	1.38614866990424E-06	-2.42030342424471E-06	-1.02167932361829E-06	-8.58363151556491E-06	0.931060811352347	0.335494704147211
7.3	0.855819639618258	0.502239681980729	4.85852020579017E-06	7.2330986180233E-06	-9.73156861930523E-06	2.35485891366255E-06	0.964827670355313	0.215831580688325
7.4	0.892696990827628	0.431596423682595	5.09935184387131E-06	-6.97636240250856E-07	1.91569691531487E-06	-9.65366870035149E-06	0.982981638084142	0.0925229257246307
7.5	0.923221251978695	0.359013458924845	2.7283168970008E-06	-5.30701064838862E-06	2.07508197735689E-06	-7.27291979568086E-06	0.985004438019682	-0.030344922744349
7.6	0.949443658665441	0.28410922529756	-3.20028565074886E-07	-5.62825590417791E-06	1.67516582253166E-05	3.84246199136727E-06	0.973800125929605	-0.153062281054118
7.7	0.969283661914712	0.206655585542061	3.51257741400886E-06	1.07626877783011E-07	3.20871084657573E-07	-2.92071844521326E-06	0.946837152456692	-0.274115661277773
7.8	0.982623157541576	0.127981767336777	-1.09587138948301E-05	-1.91147668576108E-06	-2.01182416641722E-07	3.43281100925968E-06	0.904998709544194	-0.390739577349762
7.9	0.989370298355532	0.0488285108000726	2.35129293843967E-06	2.02739694901264E-06	-6.92886195734548E-06	-4.70369579544938E-06	0.849121328839719	-0.500930470400567
8	0.991357938620836	-0.0298555302252306	2.345892680861E-06	2.95361193347948E-06	-9.31720846033485E-06	-7.60211957367162E-06	0.781408966897387	-0.604201278002657
8.1	0.986573993972645	-0.11087995347456	3.82851406881643E-06	-3.07000427443704E-06	2.14815666799684E-06	-3.18534233758103E-06	0.698872995154956	-0.699651311926873
8.2	0.974073547747096	-0.190296437048848	-4.03625122793148E-06	1.4203929766427E-06	-6.75590469935819E-06	3.66913112410755E-07	0.604603582390209	-0.782207201076817
8.3	0.954840799703206	-0.268300199158052	9.86746476950588E-06	2.82516824944466E-07	6.2605677971865E-06	1.04439142611788E-05	0.500947371308177	-0.851741957313832
8.4	0.929357607256802	-0.344305191311001	1.28927060014643E-06	2.55519380461978E-06	3.46433534143973E-06	1.81781681855209E-06	0.389621341576295	-0.907703843582191
8.5	0.897974805253601	-0.418242411122163	-4.83356564773773E-06	4.97161367573819E-06	2.84821970957525E-06	-3.02708023195783E-06	0.272312176148492	-0.948978233931311
8.6	0.860532022843389	-0.489268837420169	-4.4960148011602E-06	2.09485280445475E-06	-3.02571407339658E-06	8.12348463054307E-06	0.150856407975973	-0.976143073670484
8.7	0.817743051981953	-0.556987172073007	-1.01987709734881E-06	1.2182128279713E-06	-6.39484409606827E-07	3.46597069897424E-06	0.0263384564544773	-0.987448096768208
8.8	0.769731476867472	-0.621002613975674	-1.5812276330182E-06	3.08394364246853E-06	-6.010923073272E-06	1.29524659292073E-06	-0.098180740289078	-0.983150376958564
8.9	0.716837709522615	-0.681177375678198	3.17464839535524E-06	-1.84023416293331E-06	-3.17001675163031E-06	-4.51395128958189E-07	-0.221924500365981	-0.962898943996934
9	0.65861197093292	-0.736343413186658	-7.28691733479666E-06	1.37636681547052E-06	-3.97797056223121E-06	7.38964792328789E-07	-0.341798206780789	-0.926141239085075
9.1	0.597029597271006	-0.786567081495087	-3.35890093776337E-06	-1.87102723240925E-06	-9.76219912771133E-07	2.13678172370241E-06	-0.454971697545427	-0.875493084952784
9.2	0.530934953600507	-0.831860003530249	5.97179579440807E-06	-1.65610872643574E-06	2.00936010194806E-06	8.46276456030631E-06	-0.561175546594523	-0.81179479367704
9.3	0.461432790700892	-0.87152179473747	-3.35915926145854E-07	1.0694494504334E-06	1.36724225786775E-05	1.17729475422757E-05	-0.658625798784197	-0.735072948355988
9.4	0.388311132287498	-0.905034206339577	1.72244353072545E-06	-2.65914892143526E-06	4.28141377208978E-06	1.74580099986717E-06	-0.745275621807124	-0.646869930959678
9.5	0.313578842850053	-0.931122953836755	-6.49036678967902E-06	-4.8746260070643E-06	-1.941832451385E-06	-5.68858886050302E-06	-0.820551391159769	-0.549007890555857
9.6	0.236570796946733	-0.953501881619206	-1.16696873549539E-05	-2.67911185420291E-07	-5.91632422051021E-06	-4.01377395117953E-06	-0.885275438938208	-0.442168191225243
9.7	0.156675709797911	-0.968805930896296	1.46765617033023E-06	-4.77980746247845E-07	-2.91713850077122E-06	1.64070885338619E-06	-0.935180290803144	-0.325987232996104
9.8	0.0759371797191918	-0.976885787839667	2.20629018792053E-06	1.4000355198888E-06	1.51009762219469E-05	-3.50682597804683E-06	-0.968819748029426	-0.20485220766987
9.9	-0.00504434690524162	-0.977686737782582	-3.45772507489474E-06	8.97216871984238E-06	1.37598757664315E-05	4.98444749032152E-06	-0.986899938747438	-0.0806382556867087
10	-0.0845529633673812	-0.971671525913042	-3.6427691107828E-06	1.62007323481378E-06	1.92362892548341E-05	-1.81560591518988E-05	-0.988838599852005	0.0443504892365951
10.1	-0.163651468746114	-0.959252110807781	-1.47908871917159E-06	2.30441923048099E-06	-8.42782831845804E-06	-4.30919412709037E-06	-0.976086391121688	0.168570471269987
10.2	-0.240862044669373	-0.93994810047679	-2.31155263179775E-06	-1.24014621492337E-06	-1.29216540964071E-05	7.24114989801213E-06	-0.947228278643943	0.290704688649634
10.3	-0.314975429648068	-0.914138599350914	5.77059886743836E-06	3.92361656469774E-06	-6.15111658946141E-06	1.38358872828597E-06	-0.903428327671066	0.407658661584088
10.4	-0.386469175346498	-0.882818904253242	2.10256659045916E-06	1.04627437617192E-06	7.00280616093776E-07	-8.22414178775911E-06	-0.845557660965243	0.517815224146015
10.5	-0.454455461450203	-0.844367186458731	4.3662899260974E-07	-3.06514124107464E-07	-6.6194824475852E-07	-5.63219567296615E-06	-0.774304380961251	0.62134525289611
10.6	-0.516512558291648	-0.801012715420541	5.07849741738414E-06	-2.61600210347072E-06	-9.76043885369312E-06	-7.8500233326174E-06	-0.68851557780292	0.713731541104176
10.7	-0.574045626694235	-0.754131238495658	-2.81027688624153E-06	-4.93988071597548E-07	-5.23425729730741E-06	-7.14079889907754E-06	-0.593120697680055	0.793458386923562
10.8	-0.627411223006424	-0.705053963476641	-3.61320573699299E-06	-3.42681533913467E-06	-1.19130252562304E-05	9.14850005992523E-06	-0.489244690289485	0.860625473033637
10.9	-0.678259930908439	-0.653584283857825	-1.13762098280906E-05	-1.03662383421054E-05	-4.43778622034387E-06	1.09398179443201E-05	-0.378245673862255	0.914719804493618
11	-0.724372530473098	-0.598154366221842	1.01030065867658E-06	1.40204127491093E-06	8.619630952848E-06	-5.49848939521033E-06	-0.260546317598076	0.95390156605087
11.1	-0.766453332911239	-0.542522150297026	-3.27950591229644E-07	-3.61969109423124E-06	1.01416968420658E-05	-1.01722803449417E-05	-0.140597939446723	0.978939117700592
11.2	-0.807022029288684	-0.483992990510993	-1.03004904719479E-06	-3.90280635327869E-06	2.15423296256225E-06	-6.29495467815794E-06	-0.0162599754996768	0.989539245993879
11.3	-0.844289902691024	-0.421148446962641	1.62729118596322E-06	-1.20175656670904E-05	3.55696512409573E-06	-2.81662483006697E-06	0.109035146607576	0.983683021796818
11.4	-0.87640594792384	-0.354642045103039	9.84648991072205E-07	1.76959459220476E-08	-5.67242529333174E-06	6.45205254836459E-06	0.232962551680826	0.961691150630044
11.5	-0.902633702958148	-0.286029597764236	6.529778881743E-06	-1.23958626309337E-06	8.2175356744537E-06	-3.14166483010021E-07	0.351768868835512	0.923874379916122
11.6	-0.925457368131615	-0.215874188231355	-6.38555746201198E-07	-5.31568271256791E-06	1.43412103667194E-06	-3.0737837537031E-06	0.465425752749345	0.871572709470698
11.7	-0.942431755157504	-0.141451803948179	-9.56448103691762E-08	-6.032087692749E-06	8.89377074139924E-07	-2.65168267142236E-06	0.571311272883735	0.805056450941026
11.8	-0.953307636456508	-0.064523220889844	-1.06851332904242E-06	-7.38566005389395E-07	5.151379301752E-06	1.07434217529681E-06	0.667618266606663	0.725702425596437
11.9	-0.957777160944378	0.0147593025003408	-3.20567938242457E-06	-5.19290647378906E-06	-5.36908889444029E-06	-7.98597036479227E-06	0.751452579850573	0.635970155356871
12	-0.954348746696133	0.0950478185210682	-2.94148310543541E-06	1.63490189971464E-06	-1.66866821049714E-05	-8.75725310944629E-06	0.82443954295649	0.53914209156664
12.1	-0.94390391760858	0.173439732427301	8.26158897673884E-07	-1.56464906844006E-06	7.83627048700745E-06	1.22697343920319E-05	0.886062348471019	0.431161522479178
12.2	-0.926689699274429	0.250777869784503	-4.10605950352734E-06	5.53873981437368E-06	4.12026990646738E-07	3.30888387181267E-06	0.932776661444825	0.316349129020811
12.3	-0.904280406178454	0.326210670830732	7.81955275737926E-06	6.39070860490407E-06	4.07389612032815E-07	1.08832041464171E-05	0.964530826343324	0.196374225612958
