# GHZ S RI R 50
0.2	0.986817889670209	-0.156642791223148	2.56520890187368E-06	2.25324491318838E-06	6.57869215225094E-06	-4.8690807742341E-06	-0.967267791361593	0.251168650836901
0.3	0.970951751513331	-0.233817860778306	-8.70891013941789E-07	-5.46039631201968E-06	-3.46466894712941E-06	-7.95649041469307E-06	-0.92805916160928	0.371203247611984
0.4	0.949730689891993	-0.309254534069029	-7.28865873262655E-06	-9.98379240158437E-07	4.44633753804486E-06	1.5508085150761E-06	-0.873857260377042	0.485234328113375
0.5	0.923057345397345	-0.383287684599822	6.21045272766398E-06	2.11118934865717E-06	-2.41781098637662E-06	-1.9125591416904E-06	-0.805480851440997	0.592354211459196
0.6	0.889801456374635	-0.454570812104727	-1.05695624789221E-05	2.46249280968082E-06	-2.2218863728702E-06	-1.00929205082518E-06	-0.723548374798942	0.688854391465011
0.7	0.851630362520526	-0.522573612732314	2.78963009821485E-06	-1.1731952746876E-06	-2.99499978651067E-06	5.79771422348295E-06	-0.631069532310216	0.77450998526755
0.8	0.808143051185076	-0.587908838238476	1.18154847394964E-06	-8.49246204140498E-06	-6.63292054872719E-06	-3.07835012287437E-06	-0.528357656579863	0.847904002383013
0.9	0.759453933741931	-0.649790209239571	-1.14902769123479E-06	-6.82687650289165E-07	2.55217110187589E-06	6.55772272029041E-06	-0.41728162408051	0.907636833411774
1	0.705775686187785	-0.7074365627226	-2.74981503028725E-06	-3.22950024534402E-06	-4.04673681328515E-07	-7.3311439071924E-06	-0.299840775298342	0.952725464032045
1.1	0.649021850100338	-0.7608518770537	1.81214526835151E-06	-4.95122744309922E-06	2.27663868471384E-06	-5.14499663642316E-06	-0.177344687544717	0.982933264745287
1.2	0.586613928802816	-0.810708059398749	-2.50223116249476E-06	2.49683984402968E-06	9.28499993757185E-07	-9.12782904552127E-07	-0.0517144497523624	0.997178671751182
1.3	0.518732708537249	-0.855511174692507	-1.54171992209085E-06	7.21221676871759E-07	-1.35871921987113E-06	1.46694324161212E-06	0.0748029187281369	0.995654035062641
1.4	0.447594175684905	-0.894046185561158	3.93020481115736E-06	-3.25001579093306E-06	2.71439972042852E-06	1.09639841340923E-05	0.200663055941762	0.977562854703815
1.5	0.375331265886719	-0.926135559101572	-5.34861541085775E-06	1.11503435964868E-06	6.60052635092603E-06	-7.22638234846826E-06	0.323038816953206	0.944025044975687
1.6	0.301503824553465	-0.953757692760155	1.77499137979167E-06	-7.75951833963846E-06	3.6420358630997E-06	1.38325229627003E-06	0.439396425736846	0.894892120442409
1.7	0.226236164465065	-0.974265916447594	-1.94748087207742E-06	-9.69885825107877E-07	-2.38281930030449E-07	-2.09211894068111E-06	0.547771718185767	0.83271128356285
1.8	0.149032087025448	-0.988910350268265	2.86412378455646E-06	5.28936303343165E-06	6.47162401331138E-09	2.03669085377407E-06	0.64785030725047	0.757073831705168
1.9	0.0713780179164507	-0.997434226501815	5.68676157227504E-06	-2.64305972730401E-06	-3.00547501484106E-06	4.1938176160787E-07	0.736852371442578	0.670062235184825
2	-0.00582103630298294	-1.00084565474436	-1.55625564802727E-06	-2.03358853545708E-06	3.2344834920285E-06	1.1501876705356E-05	0.816164131917772	0.572963092292513
2.1	-0.0861194374669357	-0.997740538699635	-7.57848751310118E-06	2.48392917297305E-06	1.22507361060611E-06	5.16402319673174E-06	0.88197166985638	0.464135500869337
2.2	-0.163634168234876	-0.987727237575336	-8.82279116263764E-07	1.40158666929811E-06	3.03579936948453E-06	7.79527310035123E-06	0.932480084906304	0.349213285001476
2.3	-0.241444931931671	-0.97127668997393	2.01713162220123E-07	7.47692310543421E-06	7.44840733964346E-07	9.39625084159483E-07	0.967987956006093	0.229795006242994
2.4	-0.317912375461937	-0.948372866190734	1.60531293715437E-06	7.19171787461248E-06	1.54463205533991E-06	6.4028089670926E-06	0.98898940079689	0.106007508505062
2.5	-0.391505851117672	-0.920061702219381	4.39625379990701E-06	-2.33452909833017E-06	-1.94354721588759E-06	-7.58788578354159E-06	0.99406740244654	-0.0187959568041545
2.6	-0.462839985859975	-0.885782774120985	6.76967098874135E-06	-5.98276078635596E-06	-1.109602649826E-05	1.08926639813666E-05	0.983565059330422	-0.143788500359631
2.7	-0.531499053767513	-0.846154136649447	-4.42446414409584E-06	9.18236018054289E-06	-2.91114248476901E-06	-9.1748274497306E-06	0.95739201458208	-0.266534559564198
2.8	-0.596071293340349	-0.80171251163956	2.4686179399425E-06	1.13786640436995E-06	-3.13214778965538E-06	1.25856873613145E-06	0.916649019219719	-0.384638000834453
2.9	-0.656784999220505	-0.752338177296439	-5.48961884320511E-06	6.05462565742227E-06	-9.2200585118922E-06	-2.45811146915415E-07	0.860824491937469	-0.496509538642812
3	-0.712663251511975	-0.697245731408187	4.65857589549859E-07	-1.47843465915487E-06	1.13559720426453E-05	1.40840702448905E-06	0.791471619585986	-0.600903191893845
3.1	-0.76435671725884	-0.6406064597158	2.46098113785095E-06	1.04980512960694E-05	4.34168594170011E-06	2.15532662684351E-06	0.709425136949183	-0.695204477539896
3.2	-0.812344196325053	-0.579364478598761	2.13952587766383E-06	6.46141647825724E-06	3.95026163086413E-06	-1.0635993000662E-05	0.616352937173477	-0.77825309156193
3.3	-0.855208828351201	-0.51423191494401	3.10940362187089E-06	4.94733337289483E-06	-2.27730470015971E-06	-9.66064935499991E-06	0.512425805464762	-0.849352275980528
3.4	-0.89157936636108	-0.445988178161641	2.10985832525024E-06	-2.61357354921525E-06	5.96118149920462E-06	1.34971509212734E-06	0.401772499471603	-0.905773422964272
3.5	-0.922620757698573	-0.375091816095579	-3.232445630912E-06	9.57942264035923E-07	-2.05755633313451E-06	3.42741206488244E-06	0.286245829490599	-0.94791245123617
3.6	-0.950193441682326	-0.302035711580228	-1.82909388613408E-06	-3.73648219426786E-06	-7.80676855464809E-06	4.14038841929806E-06	0.164824986885854	-0.977947046819612
3.7	-0.970926670159868	-0.226303640756788	7.81003893751365E-07	-8.32830274221866E-06	1.07830877280503E-05	3.64285706850925E-06	0.0392433724625704	-0.990478571269284
3.8	-0.985495997858855	-0.148527213577276	9.95506849947575E-08	1.54504735894263E-06	-6.48394417081839E-06	5.97829090522378E-06	-0.0854315435819658	-0.986813598904437
3.9	-0.99338172341648	-0.0704938018735954	-2.64788404063384E-06	-5.01056380168188E-06	-3.66299659664068E-06	8.03412650329891E-06	-0.209925887372271	-0.967925605984396
4	-0.99487261289959	0.00834109000533426	7.12245339046406E-06	-4.16095884342569E-07	-1.0500382770619E-06	-1.19979699759975E-06	-0.329571535611821	-0.934595512831052
4.1	-0.991018908004963	0.0859135412660132	6.16564247291745E-07	-4.46462453376749E-07	7.31891913352258E-06	-4.78749611560799E-06	-0.445590544316352	-0.88524204667623
4.2	-0.981426040832988	0.163514825316285	3.21001384701162E-06	2.08418385666369E-06	-7.20844720360372E-07	-7.57296972366394E-07	-0.553336018934093	-0.821216480132957
4.3	-0.966073644104735	0.239298118927801	-3.17786950593374E-06	1.38350406282579E-06	-4.97471130050728E-06	2.99785070481547E-06	-0.651825478676731	-0.745330729274601
4.4	-0.94517252040956	0.314376154237902	8.11954822955016E-07	2.63602148377194E-06	1.52312520481695E-06	-8.32613526657347E-06	-0.740115137519644	-0.657801855131758
4.5	-0.916593376762675	0.389204396084274	1.82015880301672E-06	-9.46626159456892E-07	7.63036656783236E-06	-2.84658407799465E-07	-0.817428463226861	-0.55955397524309
4.6	-0.881309284185066	0.459084524575124	-7.00875523518498E-07	6.12877552757527E-06	-1.23642064048045E-05	-6.42478712290357E-06	-0.8809372232233	-0.452156881670426
4.7	-0.842749996838608	0.525210791797021	1.21125589601484E-06	2.50332588125423E-06	1.42771142332532E-06	1.85844146826325E-06	-0.931081094384373	-0.337999035819867
4.8	-0.798281196703152	0.589945622609108	-5.12216661965452E-06	1.11393765474325E-05	5.27063529452738E-06	9.6563292327765E-06	-0.966206990672463	-0.21768398658497
4.9	-0.748746138788152	0.650818596674887	1.21222813566268E-06	2.92058941829127E-06	-5.18431183602863E-07	-6.89965070603205E-06	-0.985712236768277	-0.0929326435388836
5	-0.693328199402723	0.705941350889982	4.71741187724249E-06	-9.31548772128522E-07	-3.71491416033672E-06	2.43369473296081E-06	-0.986664061255878	0.03243729002229
5.1	-0.636988148636069	0.756480931216683	4.11554859701399E-06	-1.54486847269891E-07	-2.67765579246652E-06	-9.76157382870094E-06	-0.974867097835696	0.154233575187907
5.2	-0.576292615097922	0.804914891905771	2.56575757196074E-06	-1.49361040094889E-05	1.38067737234198E-06	2.80616023698177E-06	-0.948170745376454	0.275887867493678
5.3	-0.511348608764384	0.848359571501889	-8.67267053569552E-06	-7.5653965557521E-07	-1.12932988520088E-06	1.611215058402E-07	-0.905692126613103	0.393113074734839
5.4	-0.443077735145909	0.886481815806046	-7.16350552334194E-06	-1.09930843875487E-05	-1.36542571309214E-05	1.11580599690833E-05	-0.848633107331123	0.503179358304605
5.5	-0.371535978698152	0.918338726928465	1.89797510033586E-06	8.76209460247133E-08	-2.2358719624872E-06	1.77865560331454E-06	-0.779802659024079	0.604862167319814
5.6	-0.298678265609944	0.943396745809172	-2.39395016377781E-06	3.50575982134138E-06	-1.33478030293263E-06	1.28702830960316E-06	-0.698301582765549	0.698110380851087
5.7	-0.224305201329126	0.963892271396066	1.30234949305724E-06	1.22396481538598E-06	5.73694376458338E-06	-1.27640419522666E-07	-0.605402711173393	0.779961024293923
5.8	-0.148482562952675	0.978065511809619	2.6935135972113E-06	4.23351846796641E-06	-2.09597542510023E-06	4.22244012321951E-06	-0.502956695764801	0.848916202485207
5.9	-0.07260515304787	0.986832533426177	-6.84180923140487E-06	-2.28777607422474E-06	-7.82846697700869E-08	6.24939660538622E-06	-0.394001916916703	0.904361523568429
6	0.00479708349219667	0.991995706036457	-1.78417397079367E-06	8.38776923588573E-08	-5.42314669738275E-06	-4.38589452283179E-06	-0.279286014781619	0.947810007905847
6.1	0.0845576546313069	0.987662506607952	6.45356611576171E-08	-9.8825818239908E-06	-9.72795252219727E-07	-3.20672455558385E-06	-0.157800198143116	0.975363096221811
6.2	0.162080241477625	0.976792109769027	-1.02586826425251E-06	3.09960940418628E-06	-1.76316256194709E-06	4.19584026025856E-06	-0.0342974818678086	0.986860478571327
6.3	0.238457875144426	0.960616877449765	-8.10614797791005E-07	2.81980593324625E-06	-2.93581895640446E-06	2.38059294077162E-06	0.0894459034606984	0.98328609925731
6.4	0.313838945787184	0.939584903149948	-5.97426324039695E-06	5.51994565873428E-06	-2.37589976482464E-06	-7.54638168634082E-07	0.212421308644167	0.965274548343298
6.5	0.390327875757908	0.911098999595	1.40424513955721E-06	-5.27415514015903E-06	-1.44776304535074E-06	-2.37621798135208E-06	0.33498989291161	0.930459665494251
6.6	0.459379152718287	0.874570311545479	3.64404444852395E-06	2.07027605027165E-07	1.12726269773739E-05	-2.67790754108604E-06	0.447922512632681	0.878277720239766
6.7	0.525649270858754	0.835853313144094	-7.73700728032076E-07	8.44029843923483E-07	-3.75834614077507E-06	5.21032502081582E-06	0.552931659891346	0.81538025477102
6.8	0.589633262091872	0.792084390078887	-1.75162116359387E-06	4.46796855721877E-06	1.44853918803697E-06	-8.78559869566401E-07	0.64992756929847	0.739951658884032
6.9	0.650081924723756	0.743438811685506	5.88684333405283E-06	2.24709220289838E-06	-9.30584392029054E-07	2.4022428539448E-06	0.736584978850805	0.653154914018588
7	0.707109737526301	0.689954054184898	1.15279240445682E-06	-4.12743799889741E-06	-1.43408659257813E-06	2.89861038245758E-06	0.812531817495175	0.55655627657978
7.1	0.759252077521321	0.631570622574818	2.42071324176059E-07	-7.1535924932525E-07	1.93459631658219E-06	9.17097406056387E-06	0.875608191149168	0.450071580447431
7.2	0.80641952461195	0.569261542141708	1.38845839589846E-06	-2.40342915327496E-06	-9.84759048879045E-07	-8.54590660292932E-06	0.92425185692544	0.336995746929408
7.3	0.848384995970228	0.503005057484681	4.807659297747E-06	7.21289704466542E-06	-9.68953190093277E-06	2.30808891290699E-06	0.95786156371753	0.218470304038305
7.4	0.884391139200661	0.433534958318808	5.06816243662206E-06	-6.74737712505745E-07	1.93766350901098E-06	-9.5830158906884E-06	0.975308125884704	0.0970263612074559
7.5	0.915286196552378	0.363985207127872	2.74290563517073E-06	-5.2489241057874E-06	2.10761972382929E-06	-7.20433913251897E-06	0.979187059033217	-0.0220276939443524
7.6	0.94342732526958	0.289806751252357	-2.75274637511566E-07	-5.60102500131423E-06	1.6633919296587E-05	3.95037978676374E-06	0.970999207931286	-0.144871988526783
7.7	0.964045203471074	0.213088682488539	3.49547184527882E-06	1.35277242390021E-07	3.42792485462224E-07	-2.90464095737252E-06	0.945551733180339	-0.26563612250688
7.8	0.978336435957826	0.135428480152155	-1.08998899815247E-05	-2.0013482366765E-06	-2.30853837667274E-07	3.41791001585418E-06	0.905604581060892	-0.381994171666456
7.9	0.986759947801112	0.0577722545042632	2.32503611510581E-06	2.04649693497765E-06	-6.86442570637441E-06	-4.76301418703943E-06	0.852455890760155	-0.492074131192752
8	0.992696442227607	-0.0216197310308003	2.32022462038178E-06	2.98061326525998E-06	-9.25564618890636E-06	-7.70369132648136E-06	0.788067293639452	-0.598810181480325
8.1	0.987563547713574	-0.10495438528298	3.85557878365091E-06	-3.04732852413721E-06	2.17366253497767E-06	-3.17468446820751E-06	0.703604812068563	-0.696603622164473
8.2	0.974950280645712	-0.184111568422726	-4.04916623156929E-06	1.39432702485759E-06	-6.76395417142734E-06	3.21625095080134E-07	0.609148559121261	-0.779016070011382
8.3	0.956433825802297	-0.26192011391614	9.87414495228733E-06	3.48335729986912E-07	6.19659266024013E-06	1.04945762131411E-05	0.505993654677939	-0.848889323676752
8.4	0.931911136625621	-0.338045678258766	1.27423337855027E-06	2.56532140882848E-06	3.45565596107373E-06	1.84102994525437E-06	0.395253290666198	-0.905280422319265
8.5	0.901408807310829	-0.412573539626968	-4.86882866334937E-06	4.93935735516089E-06	2.8696705233718E-06	-3.00809336452964E-06	0.279240865372073	-0.947725897044022
8.6	0.864533756617336	-0.484059069679557	-4.51795588779627E-06	2.06385512180944E-06	-3.09105374025966E-06	8.11182340815755E-06	0.157512356677658	-0.976946585847329
8.7	0.822483809001139	-0.552344822939378	-1.0309868388055E-06	1.21368614350649E-06	-6.65880610464271E-07	3.46935846379321E-06	0.0322947767153354	-0.989478657195133
8.8	0.77506170535038	-0.617170829840633	-1.60670169974284E-06	3.08311967639577E-06	-6.03842209953079E-06	1.2593485068029E-06	-0.0932298660511821	-0.986202661028009
8.9	0.722346586587524	-0.678153401727502	3.19654128119171E-06	-1.8300739903425E-06	-3.17954581978875E-06	-4.70177043887762E-07	-0.218493048383613	-0.965956742063368
9	0.664628195023855	-0.733350518439946	-7.31052256870454E-06	1.34619734709416E-06	-3.9907998921817E-06	7.22465677704066E-07	-0.337338654710888	-0.928159347670259
9.1	0.604023709358882	-0.784750130518446	-3.35703089621706E-06	-1.89476495421143E-06	-9.90768658764847E-07	2.13679720277111E-06	-0.450252453684806	-0.879784317844195
9.2	0.538096356754857	-0.831252447224273	5.99902120593109E-06	-1.62754048118729E-06	1.96786225737726E-06	8.49945054307173E-06	-0.557461510451105	-0.817200279114858
9.3	0.468406847975575	-0.871863005821251	-3.42920867479907E-07	1.07083029824431E-06	1.36482514934966E-05	1.18852956473934E-05	-0.655878922439696	-0.741189486009432
9.4	0.395127688974583	-0.905293699464378	1.74272011025288E-06	-2.65538718343786E-06	4.28153928111708E-06	1.77589671861315E-06	-0.74285875114132	-0.65326036681183
9.5	0.322887931243193	-0.932700443870343	-6.47481335444545E-06	-4.94819432418042E-06	-1.90165511627918E-06	-5.72714287959837E-06	-0.818901084050457	-0.558555033701108
9.6	0.244362896151839	-0.958560917428828	-1.17406852850668E-05	-3.4857315184492E-07	-5.92606965917318E-06	-4.07886404744918E-06	-0.8879746258806	-0.451586385165282
9.7	0.162630739184191	-0.974620159821868	1.47954138451696E-06	-4.72786528608991E-07	-2.94461856872293E-06	1.63472174263034E-06	-0.939703571263117	-0.333817936237726
9.8	0.0807525269377852	-0.983057141222519	2.21313481249791E-06	1.42017726733826E-06	1.52146452904633E-05	-3.45197534582087E-06	-0.974598014600666	-0.211420097312872
9.9	-0.000854742090085647	-0.984324188937019	-3.52363104314554E-06	9.01666983427662E-06	1.38296298524618E-05	5.0833623661462E-06	-0.993680015974662	-0.0857384536359503
10	-0.0815212628230045	-0.979511169060525	-3.6745933300013E-06	1.61761639912934E-06	1.94408919488221E-05	-1.82107073215691E-05	-0.9960868635059	0.0403293002968992
10.1	-0.162340537938138	-0.966865707995511	-1.49749180226192E-06	2.31449210911684E-06	-8.46870384919628E-06	-4.36909879832118E-06	-0.984397873663029	0.165663128717133
10.2	-0.240296399703204	-0.947357686899276	-2.3232369639277E-06	-1.2577096642007E-06	-1.30407469046829E-05	7.24346508647035E-06	-0.956344638723977	0.289435131016588
10.3	-0.31520155311871	-0.921632514796297	5.80066283677449E-06	3.9759909378647E-06	-6.20422582557339E-06	1.37107972711932E-06	-0.913226901010566	0.408305039064677
10.4	-0.387686603120457	-0.890270351277603	2.11793477910582E-06	1.062974146195E-06	7.34981877546031E-07	-8.29596005009916E-06	-0.855735226426172	0.521469006596618
10.5	-0.456420696274804	-0.851564177500114	4.41334465438356E-07	-3.08867822022648E-07	-6.60199959718349E-07	-5.68809723616466E-06	-0.781546981027829	0.627971517770668
10.6	-0.51939125987227	-0.808215185668324	5.12582398075599E-06	-2.63563695402273E-06	-9.84189011683312E-06	-7.92739790013166E-06	-0.694148278951724	0.719968665590625
10.7	-0.578122024433826	-0.761142313930156	-2.83553751751602E-06	-4.99355509197428E-07	-5.279315488099E-06	-7.20706191706278E-06	-0.597975059702393	0.800512077695501
10.8	-0.633023977861931	-0.711451666843066	-3.64864742005403E-06	-3.45632443444591E-06	-1.20176517673387E-05	9.24017249768104E-06	-0.492753648475044	0.868717883660424
10.9	-0.685274112714097	-0.657940577431753	-1.14973429125482E-05	-1.04308991255524E-05	-4.45214062533516E-06	1.10441606354871E-05	-0.379352351195423	0.923408225520494
11	-0.729472242949171	-0.601003425199252	1.01922073760343E-06	1.40963382471411E-06	8.66746338124156E-06	-5.54863785413488E-06	-0.260167200320337	0.960658538996256
11.1	-0.772499515858249	-0.546807221985291	-3.33595189489644E-07	-3.64803863525989E-06	1.02133211856278E-05	-1.0261270175045E-05	-0.140496761198146	0.98629672088855
11.2	-0.814621380129184	-0.487321864209065	-1.04594546547821E-06	-3.93383427571603E-06	2.16078723122238E-06	-6.35204506786463E-06	-0.0145354738555404	0.997340293554514
11.3	-0.852657178911646	-0.423003541839743	1.60824602242199E-06	-1.21224990490684E-05	3.5790609561444E-06	-2.84984764036995E-06	0.112413379733311	0.991161861348712
11.4	-0.88444627862508	-0.355016307645956	9.92479647871567E-07	1.47613020774641E-08	-5.69707298674186E-06	6.5207130782067E-06	0.237777022047856	0.968421170429668
11.5	-0.910716565180867	-0.286914650104899	6.58087554488618E-06	-1.26970971868533E-06	8.28560038546344E-06	-3.41613254535822E-07	0.357856240575463	0.929505252305571
11.6	-0.935268362184509	-0.214908933572711	-6.67689686981109E-07	-5.3583483639017E-06	1.43271338348289E-06	-3.10648424725815E-06	0.472347861495273	0.875846685893686
11.7	-0.951975106707268	-0.138170569353994	-1.28153539752753E-07	-6.0789966364402E-06	8.82407381430817E-07	-2.67720729482482E-06	0.578678459301821	0.808007895426305
11.8	-0.962021243489152	-0.0593689241641722	-1.08028346822859E-06	-7.37776979715376E-07	5.19407113006855E-06	1.05286359748515E-06	0.6749636545637	0.727523122894041
11.9	-0.96535668068835	0.0216850385052724	-3.25493814912312E-06	-5.20976505623774E-06	-5.44773664717986E-06	-8.0095172785561E-06	0.758613866552898	0.637796673374522
12	-0.959869449479211	0.103002416120537	-2.95357506959135E-06	1.66423493391734E-06	-1.68611800858966E-05	-8.72383746734228E-06	0.834707877421374	0.539923637562013
12.1	-0.94807848982925	0.181801093656437	8.20440819603176E-07	-1.58059510866654E-06	7.97359320447955E-06	1.22936342476144E-05	0.895534245737102	0.42828798275616
12.2	-0.92954321851761	0.259355930547519	-4.09053968151287E-06	5.59998503248501E-06	4.37902444807542E-07	3.3251353256512E-06	0.941159164393309	0.312148309320542
12.3	-0.906207257309706	0.334907583710274	7.91044254234754E-06	6.37110742278875E-06	4.88068018561983E-07	1.09427465005831E-05	0.972369842687146	0.190906600102115
