# GHZ S RI R 50
0.2	0.985279158969011	-0.157093958858283	2.56392254244978E-06	2.24794597298839E-06	6.56562505504947E-06	-4.8687507184916E-06	-0.965866266519416	0.251967556750521
0.3	0.969107253401699	-0.234179252225092	-8.75586695224358E-07	-5.4501929447145E-06	-3.46780374979447E-06	-7.93914333979853E-06	-0.925995498918893	0.371942684668371
0.4	0.947456332410563	-0.309422486444675	-7.27345339885471E-06	-9.87057882009542E-07	4.43823347572877E-06	1.54177692015602E-06	-0.871006989017663	0.48550505602719
0.5	0.920560860384492	-0.382677702006466	6.19442834532458E-06	2.10124548955861E-06	-2.41228033607797E-06	-1.90563312477066E-06	-0.802481101590526	0.591305471024839
0.6	0.887690537055393	-0.453825429451602	-1.05426628754878E-05	2.46218119724261E-06	-2.2170477241684E-06	-1.0056615953479E-06	-0.721112412731964	0.687631272970689
0.7	0.849333276774318	-0.521720437881439	2.78136460404274E-06	-1.17216246223094E-06	-2.98274841743133E-06	5.78457950790295E-06	-0.628439363398088	0.772940519525873
0.8	0.805710328631975	-0.586666373353301	1.17206624874648E-06	-8.46789677534154E-06	-6.61524421555827E-06	-3.06449902872552E-06	-0.525763954762738	0.845671430264649
0.9	0.757116269941378	-0.648061016318754	-1.14563488125845E-06	-6.79863522202425E-07	2.54725631448271E-06	6.53500655710329E-06	-0.414972593737525	0.904749629568762
1	0.703715734404439	-0.70556850554035	-2.74172094675457E-06	-3.2176193111708E-06	-4.05971107470387E-07	-7.30629247893987E-06	-0.297961987241365	0.949212882196047
1.1	0.64677019710019	-0.758717102043984	1.8041906966089E-06	-4.93393722734141E-06	2.26695667661738E-06	-5.12714376603817E-06	-0.176197906896152	0.978923612667341
1.2	0.58452814361797	-0.808108839393354	-2.49271746865588E-06	2.48758809977278E-06	9.24970421724123E-07	-9.09401360259789E-07	-0.0514088050307068	0.992954998849247
1.3	0.517030937123156	-0.85261535930816	-1.53620038797785E-06	7.18105781615259E-07	-1.35409102296072E-06	1.46111046098018E-06	0.0741564722209077	0.991521583541662
1.4	0.446334290830812	-0.891314365732885	3.91841055298216E-06	-3.23679053917638E-06	2.69932373028993E-06	1.09277492171006E-05	0.199243083307741	0.973725103356343
1.5	0.37326776819837	-0.923442232024282	-5.33074916523533E-06	1.10952542305405E-06	6.58034871281576E-06	-7.19965179627296E-06	0.320617664432189	0.940320963999799
1.6	0.299768761259723	-0.949466757321298	1.77202102054415E-06	-7.72850862078117E-06	3.62720324208454E-06	1.37972312815082E-06	0.436346332735099	0.891976998974676
1.7	0.225478288502953	-0.969492154229177	-1.9387413698189E-06	-9.67485161891966E-07	-2.35627860280726E-07	-2.08375841274068E-06	0.544384254406222	0.830178600295158
1.8	0.148992719773357	-0.983951836636337	2.84713467599721E-06	5.26990002905378E-06	4.52397234215542E-09	2.02816270188552E-06	0.644184821704578	0.75496028066893
1.9	0.0716854444809343	-0.992281973327151	5.66269113872662E-06	-2.62754720700294E-06	-2.99214231706097E-06	4.15604906088343E-07	0.733180232142726	0.667838405447586
2	-0.00476370108472192	-0.994339181165199	-1.54403413631937E-06	-2.02244337563423E-06	3.20075173344087E-06	1.14324648192866E-05	0.810256618050624	0.570178824758743
2.1	-0.0827663779913512	-0.991490024786222	-7.54146922504348E-06	2.44511781924618E-06	1.20139792978173E-06	5.13731268936787E-06	0.87505312090814	0.464534069101987
2.2	-0.159232936843418	-0.98235238057819	-8.82616893658463E-07	1.39114103138655E-06	2.99238767527025E-06	7.76523575377307E-06	0.926529589484798	0.351113944880619
2.3	-0.236192700022514	-0.96663428772627	1.72599147747255E-07	7.44024462231832E-06	7.37579508208651E-07	9.37720102208989E-07	0.962702311927841	0.23254222366016
2.4	-0.311862361583891	-0.944573209236012	1.56813708077654E-06	7.16260775290522E-06	1.51096241527837E-06	6.37736110598816E-06	0.984214971875142	0.109456559496686
2.5	-0.384862219638243	-0.91731826214917	4.38562021056393E-06	-2.30265841291013E-06	-1.89873769559684E-06	-7.55982702830529E-06	0.989600860551337	-0.0144042879519399
2.6	-0.455830698442108	-0.883986663321039	6.76905108177925E-06	-5.92094443939574E-06	-1.11005312752141E-05	1.07863635025673E-05	0.980022510219406	-0.138399054462266
2.7	-0.524090772522614	-0.84532835552069	-4.4556687891228E-06	9.11665429296468E-06	-2.84712769668864E-06	-9.1499136067624E-06	0.954765071641208	-0.260356897044443
2.8	-0.588201003607674	-0.802030372916591	2.45090418202267E-06	1.14816307853138E-06	-3.12634055746955E-06	1.23379676122114E-06	0.915260505895846	-0.377740674213242
2.9	-0.648498249408727	-0.754489502229947	-5.50929463830986E-06	5.99087940226922E-06	-9.17996545924912E-06	-3.09537303015227E-07	0.860881003092362	-0.489332897346044
3	-0.706063472949411	-0.701679141144323	4.76379405552484E-07	-1.47022352362193E-06	1.13104040368478E-05	1.49576227412731E-06	0.792772210316822	-0.593707570502454
3.1	-0.75883490652046	-0.64455962158702	2.3740403225792E-06	1.04945959896425E-05	4.31557936264407E-06	2.18445342326113E-06	0.712354260660232	-0.687934153369976
3.2	-0.806905928830804	-0.583926627999721	2.08480792692833E-06	6.46700113972882E-06	4.02726957343207E-06	-1.05862342073724E-05	0.62097859734222	-0.771687324773134
3.3	-0.85033645681603	-0.519800716090802	3.06592550263128E-06	4.9676947833923E-06	-2.19623412799195E-06	-9.66946950890346E-06	0.518688491983064	-0.844011239185165
3.4	-0.88807797880313	-0.45251803504036	2.13123368687725E-06	-2.59770061128224E-06	5.95240119970262E-06	1.39736007017882E-06	0.409263088494985	-0.902824656867528
3.5	-0.920707605288895	-0.380553268589695	-3.23904778793162E-06	9.38983344260647E-07	-2.07851847066169E-06	3.41613229270044E-06	0.291756915421335	-0.946941039329704
3.6	-0.947349803508732	-0.307592728359401	-1.80152082988141E-06	-3.74526520858118E-06	-7.82731290752163E-06	4.08245453476731E-06	0.170996097573084	-0.97577466032661
3.7	-0.96871129743811	-0.232957892850564	8.44580707766433E-07	-8.32018404511417E-06	1.07524231149725E-05	3.72449774766215E-06	0.0467420144898801	-0.989817709035875
3.8	-0.984364632320469	-0.155755985838157	8.77323355704445E-08	1.54658787215884E-06	-6.53312239428376E-06	5.93148612145812E-06	-0.0778188509392618	-0.98806316520487
3.9	-0.993463314367046	-0.0780393548301127	-2.61283645927348E-06	-5.03444697144796E-06	-3.72580892254172E-06	8.01360615400818E-06	-0.203070164312416	-0.970727655929315
4	-0.99644609952698	0.000959052507838822	7.13190739894121E-06	-3.59616226497522E-07	-1.04136800476089E-06	-1.20920962907601E-06	-0.32321033174702	-0.937757672996437
4.1	-0.993462906442724	0.0792122378834298	6.21472919009854E-07	-4.42361770314091E-07	7.37301533609846E-06	-4.73776205399158E-06	-0.439093087471709	-0.889963305741477
4.2	-0.984450825725306	0.157270682165336	3.20283507887105E-06	2.11420569359792E-06	-7.17034046803063E-07	-7.64819297418236E-07	-0.547887131555751	-0.827395245770291
4.3	-0.96944893827433	0.233423912713985	-3.19694117503998E-06	1.36540938532055E-06	-5.01037709196376E-06	2.97198886648626E-06	-0.647631555012308	-0.752447737924405
4.4	-0.94849415619338	0.308136498643521	7.97301335586698E-07	2.64750757731499E-06	1.57928519102526E-06	-8.33664971077676E-06	-0.737079216567074	-0.665497645860256
4.5	-0.922193863446689	0.381355154150335	1.82993002053725E-06	-9.33756838673087E-07	7.64273312014087E-06	-2.25804928891495E-07	-0.81559649225025	-0.568168275974134
4.6	-0.889334945090285	0.453524080940993	-7.56197597963459E-07	6.14174839949868E-06	-1.23469281785965E-05	-6.55196935837946E-06	-0.880975349025203	-0.46100812040596
4.7	-0.851162715270046	0.521219327165345	1.19505083303333E-06	2.52338183518251E-06	1.41777052075019E-06	1.87776296109871E-06	-0.932549701566218	-0.346783436258064
4.8	-0.807181214134178	0.586983246395817	-5.24026846372867E-06	1.11467872705766E-05	5.21266891940563E-06	9.74528803187407E-06	-0.969036107126099	-0.226507054206056
4.9	-0.758723390489967	0.648545496146739	1.19235499585427E-06	2.94822502227449E-06	-4.58201899676773E-07	-6.94346625798154E-06	-0.990357326729395	-0.102363830622244
5	-0.70523993831529	0.706939126685795	4.76579740921403E-06	-9.00243315607633E-07	-3.76719021688964E-06	2.42368094427342E-06	-0.995691381995685	0.0243373861530116
5.1	-0.646442869498555	0.760164337224739	4.1516632147522E-06	-1.31570206504198E-07	-2.64307083805807E-06	-9.86084503233073E-06	-0.984126797763606	0.149869855244046
5.2	-0.584660154743493	0.809020059878475	2.66742991174353E-06	-1.50473860133146E-05	1.37717166332376E-06	2.83706833941561E-06	-0.957504030492336	0.272827404220349
5.3	-0.519193922721735	0.853194521645492	-8.74436718909276E-06	-8.04134930835973E-07	-1.13989430327015E-06	1.57177335168942E-07	-0.915583046981408	0.391641041834418
5.4	-0.45037743407441	0.892022057945955	-7.18637182777645E-06	-1.11139936842278E-05	-1.3812507358928E-05	1.12060637124395E-05	-0.85876015344861	0.503717138097472
5.5	-0.378816723544706	0.924833906240845	1.91116100926398E-06	9.48795289817922E-08	-2.25798478124437E-06	1.78348257640148E-06	-0.789266090698216	0.607473137807622
5.6	-0.304951714209027	0.951486837388045	-2.43011043225181E-06	3.52239157604276E-06	-1.35172049734316E-06	1.29093431194014E-06	-0.707045390066411	0.701860841707382
5.7	-0.229270719404998	0.972872447222884	1.30892684694021E-06	1.24121849104371E-06	5.79083370090432E-06	-1.02927817262416E-07	-0.61369744456791	0.785136259217595
5.8	-0.15195097605024	0.987912048775014	2.70601713915737E-06	4.28798101930821E-06	-2.1336976041237E-06	4.25895036345704E-06	-0.510364209395435	0.8559079042221
5.9	-0.0736704682970987	0.996871161277451	-6.91851895626513E-06	-2.32577759374875E-06	-8.93520621275683E-08	6.32273017161759E-06	-0.399358006890379	0.913015105195931
6	0.00416396147535138	0.999806613538546	-1.80076138632154E-06	8.63661475685437E-08	-5.47800013120453E-06	-4.42168496645823E-06	-0.282915201446911	0.955803138370377
6.1	0.0833718571688185	0.997370320592385	7.31777869782677E-08	-9.96961869417026E-06	-9.78748265012543E-07	-3.23577831029289E-06	-0.161104650037733	0.984938688683717
6.2	0.163235191645655	0.987426156926444	-1.03678011551186E-06	3.12969182764191E-06	-1.78160241308097E-06	4.23645780813013E-06	-0.0349745320187511	0.997527280844648
6.3	0.241938625682554	0.970537669455529	-8.15861768884609E-07	2.84824423292996E-06	-2.9623343166758E-06	2.40676126686339E-06	0.0915680645105129	0.993424952971282
6.4	0.318205793287538	0.947338615659137	-6.01538035348796E-06	5.57696133307157E-06	-2.39731931133854E-06	-7.56948034728204E-07	0.216027943838682	0.973200425694303
6.5	0.392683874605249	0.919818091511043	1.41951582619749E-06	-5.31588263025132E-06	-1.45775077639532E-06	-2.39655047489236E-06	0.336889060575987	0.938917519226996
6.6	0.465450169745264	0.884884368549953	3.6842656836153E-06	2.08399073293645E-07	1.13962196217377E-05	-2.71024408029212E-06	0.453638205753576	0.888201659996114
6.7	0.534088288210538	0.844371173029572	-7.80624113194383E-07	8.55188504667311E-07	-3.78961441921989E-06	5.27704311302785E-06	0.561273335564898	0.823288212457413
6.8	0.599403419136452	0.798851167715867	-1.75652595834947E-06	4.52400838900819E-06	1.4619190045559E-06	-8.93234531806759E-07	0.659811557447614	0.745740506576025
6.9	0.660797310638345	0.748261752011051	5.9660514459645E-06	2.24493095813461E-06	-9.29860669981761E-07	2.4346306822468E-06	0.74753038481414	0.656447507739335
7	0.717826512638108	0.692938021974376	1.13315557429381E-06	-4.17724653975081E-06	-1.42651724481496E-06	2.93829858163722E-06	0.823084749717624	0.557356991318549
7.1	0.770332593967306	0.633475492203126	2.39271047868131E-07	-7.2266799512085E-07	2.01069226794069E-06	9.23134969168407E-06	0.886200979268298	0.449645351671848
7.2	0.817936830789921	0.569659338974915	1.38479049859379E-06	-2.43140011385877E-06	-1.04555849413856E-06	-8.60873671447821E-06	0.935051291050633	0.33472173560855
7.3	0.860270335963919	0.501918895236501	4.89208192238632E-06	7.24480389564799E-06	-9.75755585318247E-06	2.38636863539772E-06	0.968747786410035	0.21430079549807
7.4	0.897373625496011	0.430481065703367	5.11667657140495E-06	-7.13784387951705E-07	1.89729640359301E-06	-9.69505023416574E-06	0.986975447805351	0.0899219773697961
7.5	0.92745438860364	0.356368589141791	2.71657798255125E-06	-5.3392081549852E-06	2.05250656050102E-06	-7.31002848350459E-06	0.987797466715117	-0.0347433431286491
7.6	0.952638911867322	0.281169788282031	-3.46519043413985E-07	-5.64168063160767E-06	1.68134624423273E-05	3.77629649962665E-06	0.975082941949585	-0.157288318592222
7.7	0.97208239469797	0.203545764690306	3.52104130111655E-06	9.26456120350823E-08	3.08940915990453E-07	-2.92875917316282E-06	0.947541356056132	-0.278295548294338
7.8	0.985095295826162	0.124543810014965	-1.09899207969784E-05	-1.86977184628544E-06	-1.87275754053588E-07	3.44092650686338E-06	0.905177099835895	-0.395070028875476
7.9	0.991191622527376	0.0447808985102604	2.36427236301745E-06	2.02112265022232E-06	-6.96169623413261E-06	-4.68286019595388E-06	0.848327420979471	-0.505498212515779
8	0.991342432541703	-0.0334223810206468	2.35788573709792E-06	2.94652546557233E-06	-9.34973707527864E-06	-7.57188359695005E-06	0.779179223026415	-0.60733304566835
8.1	0.986956532062965	-0.113406496151099	3.82614311480085E-06	-3.08252832227086E-06	2.1434718011088E-06	-3.19415355713208E-06	0.697650636985241	-0.702178536142377
8.2	0.974690975403698	-0.192903631283711	-4.04093383329472E-06	1.43251221197157E-06	-6.76838374142151E-06	3.8323255359632E-07	0.60334126172093	-0.785077097621142
8.3	0.955415352602146	-0.271172489852331	9.89099552265425E-06	2.56988758455773E-07	6.30273142585412E-06	1.04514157871122E-05	0.499239208845035	-0.854745965785314
8.4	0.92967359827316	-0.347538308396265	1.30020279872139E-06	2.55768375256051E-06	3.47847393525798E-06	1.81190021869145E-06	0.387256478038769	-0.910774166209885
8.5	0.897859664166191	-0.421748523677486	-4.82737035097794E-06	5.00332912143652E-06	2.84419569532997E-06	-3.04602788843066E-06	0.268871030427348	-0.951563712264933
8.6	0.859877452172517	-0.493076400850936	-4.49563814655165E-06	2.1189985853677E-06	-2.99562081413305E-06	8.15307515360994E-06	0.147118817934636	-0.977813751625941
8.7	0.816341317971099	-0.560895041610942	-1.01576360158354E-06	1.22460042406338E-06	-6.24567023796148E-07	3.47381484322774E-06	0.0224564971679937	-0.988506435066196
8.8	0.767595792150138	-0.624743593419832	-1.56882056021838E-06	3.09406452741411E-06	-6.01087325279071E-06	1.32365444809847E-06	-0.102122252976553	-0.983626235006254
8.9	0.714177831601738	-0.684626025726927	3.16926427577406E-06	-1.85460050409547E-06	-3.17407789521104E-06	-4.38638298189483E-07	-0.225760306805999	-0.963112146573122
9	0.655285414138033	-0.739732767877245	-7.29063384613941E-06	1.40784231202712E-06	-3.98004999774874E-06	7.56131571909575E-07	-0.346551148511756	-0.926154997457255
9.1	0.592879060153645	-0.789275569106957	-3.37118014498361E-06	-1.8567126276471E-06	-9.66904214096123E-07	2.14356437740288E-06	-0.459903569858436	-0.873809786426466
9.2	0.526352068270051	-0.833818669775337	5.96564449483885E-06	-1.68688535275663E-06	2.05284922821112E-06	8.455752330666E-06	-0.565454138503722	-0.808919229091064
9.3	0.456608702452772	-0.872840460217818	-3.30321356877817E-07	1.07099596011214E-06	1.37308942043257E-05	1.17000821178188E-05	-0.662034753909611	-0.731344434723599
9.4	0.383192301511141	-0.906193636485274	1.70707230278828E-06	-2.6673766438776E-06	4.28902658886865E-06	1.72152283041034E-06	-0.748074246022586	-0.642606272506998
9.5	0.306987618760024	-0.931450858717649	-6.51102716862562E-06	-4.8237909190928E-06	-1.97566299599992E-06	-5.6660791813464E-06	-0.822290079349921	-0.543006084745174
9.6	0.230070480170099	-0.952068963730908	-1.16335687698213E-05	-1.98846219894644E-07	-5.92067618420323E-06	-3.96623638704105E-06	-0.88448257627725	-0.436280932939851
9.7	0.150358312831954	-0.966477632028978	1.45952932323416E-06	-4.84028549675712E-07	-2.89728622987549E-06	1.65010989273012E-06	-0.933153823680303	-0.320926454319354
9.8	0.0696126336451893	-0.973574369493263	2.20373554173915E-06	1.38264697110665E-06	1.5016800762183E-05	-3.5683667179107E-06	-0.96594814027331	-0.200486610839964
9.9	-0.0113213208969645	-0.973061581847563	-3.39726289783517E-06	8.94253496894881E-06	1.37129136992502E-05	4.89335713871251E-06	-0.983408533154146	-0.0769376094867735
10	-0.0900973067698147	-0.965201536106103	-3.61525574137344E-06	1.62532160728503E-06	1.9052526859938E-05	-1.81283696084928E-05	-0.984793765877279	0.0476634896429496
10.1	-0.167545425789366	-0.951591965733358	-1.46244232073817E-06	2.29518447985137E-06	-8.39043011881842E-06	-4.25504943714014E-06	-0.971020411355213	0.171126024905758
10.2	-0.242844780336285	-0.931684333083715	-2.29978846933631E-06	-1.22671293439921E-06	-1.28219835641946E-05	7.22591689328319E-06	-0.941544390247198	0.291945429894718
10.3	-0.314967110465343	-0.906100002154473	5.74027969825243E-06	3.89031488991569E-06	-6.11043005713752E-06	1.38415277237587E-06	-0.897599772054893	0.407460677042587
10.4	-0.384931774705936	-0.875731763305999	2.09049609888015E-06	1.03813224684986E-06	6.89281184007072E-07	-8.17416663703988E-06	-0.839986839361946	0.516057678921994
10.5	-0.452244723658763	-0.838482989894761	4.34188875885771E-07	-3.04668839375897E-07	-6.57011221190955E-07	-5.60005167964988E-06	-0.770133415490421	0.618479087374628
10.6	-0.514069213914598	-0.795855724770964	5.05479118843743E-06	-2.60167025843463E-06	-9.71062813079227E-06	-7.81526614007857E-06	-0.684866274448243	0.711001615636957
10.7	-0.571304404373397	-0.749448504728279	-2.79728522113755E-06	-4.92176966148931E-07	-5.20904509655683E-06	-7.10884612801466E-06	-0.589518992376446	0.7902219335128
10.8	-0.624176847902401	-0.700875781253247	-3.59571327205095E-06	-3.41184213488673E-06	-1.18601682726793E-05	9.10344733190079E-06	-0.485986603929719	0.856510629773105
10.9	-0.674572858404997	-0.650458004548709	-1.13200224054474E-05	-1.03282335231133E-05	-4.42536251001763E-06	1.08892905668695E-05	-0.375977185900786	0.909916331408769
11	-0.721618726486137	-0.595786854192708	1.00656127092263E-06	1.39707096430118E-06	8.58902109564074E-06	-5.47806475859968E-06	-0.258736317995527	0.949495793543045
11.1	-0.763449754373331	-0.539724621280686	-3.27827732466472E-07	-3.6039267216328E-06	1.00942179947697E-05	-1.01319357703892E-05	-0.138783545081596	0.973486885415616
11.2	-0.803503504917175	-0.481650055063488	-1.02522596139566E-06	-3.88455126510944E-06	2.14416370316778E-06	-6.26550582487179E-06	-0.0156167822664391	0.983224662633958
11.3	-0.8405647992802	-0.419524607827173	1.62422952779533E-06	-1.19603412543596E-05	3.54129103608709E-06	-2.80199659335361E-06	0.10825159628616	0.97709927375288
11.4	-0.87288284797052	-0.353693685892425	9.80064059046145E-07	1.81938429933191E-08	-5.64987344978019E-06	6.41873551587193E-06	0.230774285408277	0.955238547221869
11.5	-0.899178854382418	-0.284923561241136	6.49798095220849E-06	-1.22904885743914E-06	8.17669003200724E-06	-3.07129544334375E-07	0.348312792048438	0.91788321102911
11.6	-0.92141723090882	-0.215330864663419	-6.28503086463354E-07	-5.2890452375325E-06	1.430621806352E-06	-3.05608892120931E-06	0.460825050150517	0.866208082962918
11.7	-0.93833240520479	-0.141610249242781	-8.53643589161244E-08	-6.00138308417502E-06	8.89131212347656E-07	-2.63667318125945E-06	0.565635120642504	0.80054858348169
11.8	-0.949269275088466	-0.0653166595732767	-1.06171470809997E-06	-7.36746435808486E-07	5.12313706815316E-06	1.07825547722828E-06	0.661119932882606	0.72222412773437
11.9	-0.953884183044252	0.0133752483376215	-3.17986405800739E-06	-5.17060043388877E-06	-5.32704656861803E-06	-7.95240441844582E-06	0.744214715832409	0.633279858634121
12	-0.950944722252551	0.0931921185049121	-2.92655040522787E-06	1.61856681834026E-06	-1.65643380108462E-05	-8.7374631891652E-06	0.815453751807439	0.537947567108507
12.1	-0.940869350464727	0.171603670236438	8.2563202592279E-07	-1.55224150959246E-06	7.74964425066223E-06	1.22155374945219E-05	0.876905638430606	0.432814675559142
12.2	-0.923584067669802	0.248950133981976	-4.10053143041495E-06	5.48871949875008E-06	3.9726406042817E-07	3.28953440520661E-06	0.924355015685044	0.320360609100637
12.3	-0.900674068609655	0.324049309067862	7.74297481967124E-06	6.3852727294505E-06	3.57171247080524E-07	1.08173823625626E-05	0.957658666224229	0.202441182406615
