# GHZ S RI R 50
0.2	0.988124750212456	-0.156259716207235	2.56639706435991E-06	2.25796070575356E-06	6.59034318250532E-06	-4.86947611678942E-06	-0.968502903283067	0.250388620817928
0.3	0.972493102225109	-0.233548593923964	-8.6719351418264E-07	-5.46967102818233E-06	-3.46268689514469E-06	-7.97203482698471E-06	-0.929896588794245	0.370507130333781
0.4	0.951576955663932	-0.309262999714187	-7.30292219888315E-06	-1.00691732852629E-06	4.45420366624926E-06	1.55797440809147E-06	-0.876362071390371	0.485008139066896
0.5	0.924665873587691	-0.384007682071295	6.22464442202155E-06	2.11720673950694E-06	-2.42314818696419E-06	-1.9174579033291E-06	-0.807943260596602	0.593300277891099
0.6	0.890918820839118	-0.454883604576912	-1.05897373305165E-05	2.46441579258306E-06	-2.2257468646447E-06	-1.0117137311261E-06	-0.725491513621137	0.689829489418997
0.7	0.853114345364277	-0.522691369630591	2.7960633788878E-06	-1.17426132526835E-06	-3.00417297665755E-06	5.80837126398851E-06	-0.633114557725909	0.775769194644558
0.8	0.810012896430017	-0.588243273575157	1.18845962006349E-06	-8.51269042464263E-06	-6.6476995661849E-06	-3.08902417757535E-06	-0.530268586473129	0.849652276787077
0.9	0.761613598762091	-0.65067989057103	-1.15208592187792E-06	-6.84931701160397E-07	2.55757917295374E-06	6.57694785060386E-06	-0.418877356068343	0.909822077915746
1	0.707737986677282	-0.709132326822571	-2.75896479127812E-06	-3.23894497378417E-06	-4.07383623937933E-07	-7.35374487703204E-06	-0.301022335642734	0.955334654842629
1.1	0.650403615512539	-0.763067966664292	1.81417718036007E-06	-4.96763544862796E-06	2.27995244891219E-06	-5.16232531452669E-06	-0.177818746067897	0.985846044882673
1.2	0.587263959490626	-0.813137521868188	-2.50642133426045E-06	2.50682124395923E-06	9.30070767918656E-07	-9.1644782398354E-07	-0.0513634501240362	1.00010351471333
1.3	0.518550395958685	-0.857741446787998	-1.54416612439218E-06	7.25294140745022E-07	-1.3595796406591E-06	1.47245735653597E-06	0.0760526995643966	0.998153930417833
1.4	0.44688522361038	-0.895376338199768	3.93139556311136E-06	-3.2610443416472E-06	2.73526906184686E-06	1.09769466082952E-05	0.202298508600412	0.979388436765272
1.5	0.375369034084107	-0.926678366682613	-5.35407169939358E-06	1.12101714408467E-06	6.60218065883291E-06	-7.24079245980364E-06	0.325068242688719	0.945675047185121
1.6	0.301772486058031	-0.954698789817477	1.77414660985138E-06	-7.77195259053031E-06	3.64812059397127E-06	1.38368050301633E-06	0.441638817419636	0.896004768902061
1.7	0.226509429223221	-0.975347946133605	-1.95137944975282E-06	-9.71040145919745E-07	-2.39398145892196E-07	-2.09589240009225E-06	0.550109907736134	0.833656701397092
1.8	0.14933285449169	-0.990197452536759	2.87126665190206E-06	5.29980557215981E-06	6.92832477065615E-09	2.04095035429378E-06	0.650281036958429	0.757820131093711
1.9	0.0718910084423863	-0.999207727735261	5.70225979205702E-06	-2.6487450378213E-06	-3.01345132781034E-06	4.19822233386495E-07	0.739206412208925	0.67115313087913
2	-0.00612450600323991	-1.00420786554379	-1.56407755245233E-06	-2.04191380018916E-06	3.25401363766564E-06	1.15514689635443E-05	0.820640410306141	0.574715774942064
2.1	-0.0884045340064863	-1.00037512414439	-7.60162622232567E-06	2.50996271189448E-06	1.24104882964347E-06	5.18081772755982E-06	0.887330031320595	0.463131842975452
2.2	-0.166169202036248	-0.989408537016806	-8.81978553704324E-07	1.40795619551944E-06	3.06255531657922E-06	7.81320530242302E-06	0.937062013608513	0.346982315984084
2.3	-0.243994607616989	-0.972534479235166	2.18274977718845E-07	7.49975405413645E-06	7.49160406830796E-07	9.40960921348223E-07	0.972013137600011	0.226855661274824
2.4	-0.320509587781145	-0.949499352247244	1.62596722114711E-06	7.21227869021561E-06	1.56340541871766E-06	6.42086874516999E-06	0.992544274237717	0.102625767044778
2.5	-0.394484092731914	-0.921263056434063	4.40721659008349E-06	-2.35440974292805E-06	-1.96989661535238E-06	-7.61201061182125E-06	0.997684217578369	-0.0226533551164099
2.6	-0.466572834245279	-0.88667355260711	6.77767134921372E-06	-6.02815399622625E-06	-1.11056864851654E-05	1.0971402831278E-05	0.986917688854947	-0.14866774808793
2.7	-0.535886213101401	-0.846316072854986	-4.40540839388768E-06	9.23602456685968E-06	-2.95900857607824E-06	-9.19934246248222E-06	0.960154887156086	-0.272480262516544
2.8	-0.60099782258248	-0.80087703725585	2.48286819332713E-06	1.13022940504E-06	-3.13740315337224E-06	1.27794598976364E-06	0.918218853565516	-0.391552123363085
2.9	-0.662197086227436	-0.750028632417901	-5.47295157872595E-06	6.10428399703422E-06	-9.25030558753394E-06	-1.95021632374887E-07	0.860775838811527	-0.503703565126183
3	-0.717070482671029	-0.692828133437578	4.56933362163377E-07	-1.48388524678758E-06	1.1383630408539E-05	1.33633654790601E-06	0.790194363233078	-0.607632888650476
3.1	-0.767832474007638	-0.636012169643971	2.52437273547742E-06	1.04879074371509E-05	4.35633454544311E-06	2.13046107869076E-06	0.707096018523023	-0.70181217499433
3.2	-0.81534123320405	-0.574030963419484	2.17552475027675E-06	6.4491410876235E-06	3.89063439176398E-06	-1.06575390529624E-05	0.612849481733421	-0.784261301477661
3.3	-0.857331562967813	-0.508098029092539	3.13442433290523E-06	4.92715226839641E-06	-2.32861222014999E-06	-9.64197129926105E-06	0.50774069374331	-0.854422268396312
3.4	-0.892177274219342	-0.439331316293932	2.0934310989294E-06	-2.61959567961493E-06	5.95784112667101E-06	1.31805353641483E-06	0.396210585943245	-0.908874740082713
3.5	-0.921901036522505	-0.369840426665492	-3.22554294892585E-06	9.66421825837185E-07	-2.04472868324122E-06	3.42929206201598E-06	0.282822346450865	-0.949610574420521
3.6	-0.950296547048398	-0.29671646004199	-1.84383849982859E-06	-3.72947059983505E-06	-7.79086791594929E-06	4.17120907282301E-06	0.16075622407391	-0.981273203015964
3.7	-0.970207581311915	-0.22035589631676	7.42962134667832E-07	-8.32679422216196E-06	1.07930062369939E-05	3.59201245399933E-06	0.0337460373768097	-0.992748232232977
3.8	-0.983806958533145	-0.142689563579752	1.06251653384097E-07	1.54280444399215E-06	-6.44999699614382E-06	5.99992090328676E-06	-0.0913051482898903	-0.987375510211557
3.9	-0.991085436928299	-0.0650055417226224	-2.66512343673765E-06	-4.9928422890114E-06	-3.62472953342913E-06	8.03853672966572E-06	-0.21508897097274	-0.966666162063616
4	-0.992115523608706	0.0137231093225521	7.1109367322071E-06	-4.48149823308813E-07	-1.05411548326628E-06	-1.19336957664978E-06	-0.333166344243325	-0.932824035769826
4.1	-0.987617438206847	0.0911592241872425	6.13116985379255E-07	-4.48308305692609E-07	7.28036492406929E-06	-4.8105576178138E-06	-0.448588714121782	-0.883385439146769
4.2	-0.977384737988296	0.168372230106981	3.210353944659E-06	2.06517031536453E-06	-7.22140389821995E-07	-7.5226625596206E-07	-0.555743273189332	-0.819141081302757
4.3	-0.961684645052306	0.243542509843187	-3.1639023322494E-06	1.3917341039574E-06	-4.94969673277903E-06	3.00844847579843E-06	-0.653729731158978	-0.743059039452685
4.4	-0.941122259803134	0.318333980797232	8.19212400862577E-07	2.62753506604042E-06	1.49134792469899E-06	-8.31331171932352E-06	-0.741771899267618	-0.655108933126555
4.5	-0.91167251168716	0.394252075994778	1.81296475884357E-06	-9.54686678276026E-07	7.61900844267463E-06	-3.23231287483613E-07	-0.818083529933714	-0.555593543277892
4.6	-0.875017814388971	0.46270723045566	-6.61486456262119E-07	6.11246967283145E-06	-1.23615945166943E-05	-6.32852880985511E-06	-0.87958775449259	-0.448527103272049
4.7	-0.836470477540752	0.527916692924205	1.21961133148198E-06	2.48559972635772E-06	1.43157367265458E-06	1.84238522884118E-06	-0.928783654165805	-0.335202485409926
4.8	-0.791867329568463	0.5921894632149	-5.03893213623564E-06	1.11099507207052E-05	5.29407155694612E-06	9.58066175592174E-06	-0.963394554458841	-0.215438888962326
4.9	-0.741580785384896	0.652907291789482	1.22095401103446E-06	2.89710534361558E-06	-5.52651562209486E-07	-6.85682620905821E-06	-0.982174939859371	-0.0903840229362664
5	-0.684483662979282	0.705818675481216	4.67486143810876E-06	-9.44747362053944E-07	-3.67391348665774E-06	2.43023329601298E-06	-0.97988350969431	0.0335268028960698
5.1	-0.629749912584107	0.754439705443822	4.08330800943475E-06	-1.61630780662452E-07	-2.67667033968182E-06	-9.68041815717298E-06	-0.969360890790973	0.151672299885624
5.2	-0.569558140893995	0.802303613997127	2.52571083895906E-06	-1.48311643280143E-05	1.37465569709209E-06	2.78377695546751E-06	-0.944095751779479	0.272871874504759
5.3	-0.505087790156641	0.844728647065655	-8.61107409367109E-06	-7.44633292324711E-07	-1.12111486868434E-06	1.60810957276002E-07	-0.90207254638699	0.389891216144126
5.4	-0.437854042469296	0.881975503199965	-7.11195146940072E-06	-1.09213759274365E-05	-1.35658862802063E-05	1.10788270168769E-05	-0.845027070294954	0.499650524822545
5.5	-0.367213889409802	0.913736360553226	1.88851130671631E-06	8.76309033994318E-08	-2.22516545322448E-06	1.7692807662126E-06	-0.77591401329714	0.600176994808343
5.6	-0.294822892783997	0.938453252192879	-2.37747662383769E-06	3.48828498372553E-06	-1.32618499703918E-06	1.2810156935375E-06	-0.695441471276906	0.692008913326231
5.7	-0.221013054019501	0.958364226502625	1.29476977620887E-06	1.21572377238353E-06	5.70103974479969E-06	-1.2945687921439E-07	-0.603940661594911	0.773318889159975
5.8	-0.146147880640299	0.971697997818493	2.67443173739613E-06	4.20618846506435E-06	-2.08326724918161E-06	4.19381977671859E-06	-0.502865353375853	0.842166126645047
5.9	-0.0722812231605453	0.979991764918015	-6.79051944434984E-06	-2.28525725667396E-06	-8.97687661905625E-08	6.20641674669667E-06	-0.395575018176612	0.89820588947227
6	0.00418716735353922	0.987012516706949	-1.77770356904139E-06	7.74323014018188E-08	-5.3875405959378E-06	-4.3879062344616E-06	-0.28065742568958	0.944189085236526
6.1	0.0843153468609128	0.981702835529712	6.98609926394945E-08	-9.8537764979366E-06	-9.68174397419054E-07	-3.19793210836123E-06	-0.157260011304365	0.970504995736311
6.2	0.160127619938746	0.970361572763317	-1.02110829456614E-06	3.08685440761705E-06	-1.75515874919857E-06	4.17863287142464E-06	-0.0347516776644776	0.98038188747615
6.3	0.234760789810997	0.954967647254908	-8.07469208649952E-07	2.8055589706399E-06	-2.92198929176122E-06	2.36786445175653E-06	0.0870556032973244	0.976515338156028
6.4	0.309465844754532	0.936103826127494	-5.95292717734018E-06	5.48961509739505E-06	-2.3645866251506E-06	-7.53552420055284E-07	0.208847100429209	0.960092368189157
6.5	0.388131342468536	0.907717632741088	1.3930370887061E-06	-5.25245744084356E-06	-1.44372126034342E-06	-2.36444179990172E-06	0.333096349818858	0.924476544399323
6.6	0.455327884552449	0.870106915136516	3.61852358959672E-06	2.05527278500143E-07	1.11936340065808E-05	-2.65930633957056E-06	0.442434212566705	0.870903575455749
6.7	0.52055550192494	0.832507790349274	-7.69497015829757E-07	8.36654626884622E-07	-3.73975393352387E-06	5.16647221518208E-06	0.545295715740527	0.810098241705784
6.8	0.584007140735463	0.789617337060751	-1.75070292554931E-06	4.43126601923399E-06	1.44041999767244E-06	-8.68457511338651E-07	0.641425603398933	0.73673612906115
6.9	0.643872133219505	0.74193263397348	5.83379793089962E-06	2.25208174282278E-06	-9.32517244598014E-07	2.38054568560633E-06	0.727836295554066	0.652174100553338
7	0.700740668675321	0.689740909760318	1.17083847521378E-06	-4.09390207318505E-06	-1.44276039678501E-06	2.8712112755943E-06	0.8049265005161	0.557414071567191
7.1	0.752964147861686	0.632228238138185	2.4488463806993E-07	-7.10701583175494E-07	1.87511326911444E-06	9.13899912105474E-06	0.868347868001899	0.451464896347903
7.2	0.800203555996894	0.570715394928119	1.39461292993385E-06	-2.38503577399128E-06	-9.35464629583273E-07	-8.51150404166608E-06	0.917179350655913	0.339679472876804
7.3	0.842117467012827	0.505068493286676	4.74696243844703E-06	7.20390036681088E-06	-9.65565324048423E-06	2.24625353258528E-06	0.951247473624166	0.222385770622937
7.4	0.877267996215125	0.436553406800737	5.04189764109854E-06	-6.42669919650967E-07	1.97927514480063E-06	-9.51555367180276E-06	0.968632589921998	0.102754378977355
7.5	0.908745703804922	0.370249044863329	2.77485656245621E-06	-5.19143655446181E-06	2.16158920601469E-06	-7.1408085848885E-06	0.97555469352389	-0.0126341442904809
7.6	0.9392032312746	0.296350760634548	-2.20200160956637E-07	-5.58960133301458E-06	1.65537007203759E-05	4.10194033698185E-06	0.971047940446602	-0.137107698692404
7.7	0.960384698225053	0.219714812772963	3.48954168536381E-06	1.65572216688827E-07	3.67653671051327E-07	-2.89770434813877E-06	0.946394010192645	-0.259039551176758
7.8	0.975050025904514	0.142944065317222	-1.08712356061966E-05	-2.09101770852783E-06	-2.59400953425425E-07	3.41226721593196E-06	0.90702982376329	-0.375355358934227
7.9	0.98481303086836	0.0673240158022872	2.30427666002334E-06	2.06733690009436E-06	-6.81525931931374E-06	-4.82529092872248E-06	0.855834055978108	-0.48431131097451
8	0.995600559923078	-0.0128187684017948	2.30043017719998E-06	3.01075334559892E-06	-9.21451445702142E-06	-7.81104016797416E-06	0.795451266621757	-0.593822291895459
8.1	0.989986585706265	-0.099244217575322	3.88407013156814E-06	-3.03138673321744E-06	2.19866895130761E-06	-3.16939244827717E-06	0.709673466988944	-0.693758064370549
8.2	0.97690686998509	-0.178470634269957	-4.06398549638047E-06	1.3719200265483E-06	-6.77651575611325E-06	2.81046711811102E-07	0.615717537367781	-0.776173955311837
8.3	0.958762470292147	-0.256256885359902	9.88711022256751E-06	4.1034281453925E-07	6.14075424783133E-06	1.05492389893911E-05	0.51355103880454	-0.846860055411384
8.4	0.93490874905873	-0.33251158398274	1.26113760290137E-06	2.57666790683998E-06	3.45010458445568E-06	1.86405629517369E-06	0.403417712139093	-0.904181356404674
8.5	0.905174292912534	-0.407675827457831	-4.90274323575503E-06	4.91091341467236E-06	2.89027578492153E-06	-2.99137819652467E-06	0.288737725507496	-0.947520004830525
8.6	0.868653490669585	-0.479739757768485	-4.5398522691449E-06	2.03297945273183E-06	-3.1561880671797E-06	8.10025919910934E-06	0.167845770989778	-0.978917778819981
8.7	0.827086958605792	-0.54869603966025	-1.0425497563423E-06	1.20897161065603E-06	-6.93357030168636E-07	3.47287823709715E-06	0.0427224544585121	-0.993804114534164
8.8	0.779918683244681	-0.614443795066408	-1.63400300544801E-06	3.08208146150497E-06	-6.06768062157675E-06	1.2207011049794E-06	-0.0837281277128886	-0.993025737823708
8.9	0.726870582887847	-0.676294264367477	3.22030146544716E-06	-1.81850017417223E-06	-3.18959241465934E-06	-4.90936038730298E-07	-0.211341178267798	-0.973979482510453
9	0.66908110118269	-0.731283229092488	-7.3345930798785E-06	1.30987533279191E-06	-4.00387296466233E-06	7.02608997770303E-07	-0.329517384269154	-0.935213962731858
9.1	0.608975156055728	-0.783556982531193	-3.35310885826692E-06	-1.92399116081094E-06	-1.00876004123163E-06	2.13582980978036E-06	-0.442592011874653	-0.890449677617293
9.2	0.542964921689317	-0.830757753637432	6.03463508790414E-06	-1.59063884516394E-06	1.91423599246323E-06	8.54746451699762E-06	-0.552491945182764	-0.829488583387867
9.3	0.473071636697218	-0.871836878201496	-3.51791806227177E-07	1.07335609755473E-06	1.3629130340918E-05	1.20325175885764E-05	-0.653381807420933	-0.753412047893449
9.4	0.399880172246898	-0.904544218165438	1.76719472447624E-06	-2.65423834707327E-06	4.286553711205E-06	1.81130024038716E-06	-0.741370118034749	-0.663903840593995
9.5	0.331411465776951	-0.933246353199643	-6.4608432368922E-06	-5.03311056256872E-06	-1.85771828840488E-06	-5.77330335782863E-06	-0.816524366973277	-0.570926756899147
9.6	0.251175240399696	-0.963420911790098	-1.18254718126545E-05	-4.42702607471107E-07	-5.93843779436154E-06	-4.15546428450443E-06	-0.888463623547922	-0.464757268184242
9.7	0.167381744703737	-0.980107002924464	1.49405232347001E-06	-4.66451903573563E-07	-2.97816660617069E-06	1.62742707201433E-06	-0.942043956134241	-0.346755834147306
9.8	0.0845447132482015	-0.988697294143025	2.22192495761979E-06	1.44569615955038E-06	1.53591520041797E-05	-3.38298163392864E-06	-0.979159670896591	-0.224016930514963
9.9	0.0027144355798535	-0.990456983360783	-3.61027998932966E-06	9.07844756940503E-06	1.39263148414204E-05	5.2133082620735E-06	-1.00099339399356	-0.0969637870681904
10	-0.078939435068744	-0.987630662383171	-3.71937741999955E-06	1.61915749611682E-06	1.97178170152156E-05	-1.83188966344315E-05	-1.00476477541906	0.0319856433340402
10.1	-0.162009978280019	-0.975224176861657	-1.51890889456903E-06	2.33298810616366E-06	-8.53957586849481E-06	-4.43652420920943E-06	-0.993282544316349	0.159250473796311
10.2	-0.241298433896006	-0.955742488937662	-2.34309740511044E-06	-1.27544444609299E-06	-1.31854752324732E-05	7.28418836412682E-06	-0.965670960931014	0.284679233507107
10.3	-0.317600771743259	-0.93010298169468	5.85127723266049E-06	4.02591578356372E-06	-6.26840842970897E-06	1.37363819423759E-06	-0.923135443407343	0.405608298966938
10.4	-0.391370088203564	-0.89873947960353	2.13883441296345E-06	1.07641968732491E-06	7.51895396697364E-07	-8.38164679324562E-06	-0.865629936368879	0.522549595883773
10.5	-0.461540936835924	-0.860563096542083	4.45488879160041E-07	-3.12364610502341E-07	-6.71927080066213E-07	-5.74461731699924E-06	-0.785741471809623	0.632050012212795
10.6	-0.527213355681898	-0.817034106924042	5.16606819165857E-06	-2.66179939155118E-06	-9.9301219805268E-06	-7.98477232375753E-06	-0.695839212841287	0.720341815527153
10.7	-0.588255460424879	-0.768659633362896	-2.85868719893298E-06	-5.02197091933611E-07	-5.32506875927451E-06	-7.26313440767081E-06	-0.600204606986088	0.799772055992798
10.8	-0.645271382254456	-0.71703246401918	-3.68178357305833E-06	-3.4826257301695E-06	-1.21116343971746E-05	9.32648898314903E-06	-0.495225212938024	0.868319113275703
10.9	-0.698978203170624	-0.659887688149596	-1.16150854028762E-05	-1.0489731756904E-05	-4.46320170365667E-06	1.114451537286E-05	-0.380677655700222	0.92429429846841
11	-0.739965559765087	-0.600286981074869	1.02787021923067E-06	1.41522167370232E-06	8.70336391267083E-06	-5.59785875832133E-06	-0.258784988571198	0.96017375696639
11.1	-0.783722293782531	-0.547433919841231	-3.39394969755616E-07	-3.67040276316097E-06	1.02664130747795E-05	-1.03355589152512E-05	-0.139189470216187	0.984133115877077
11.2	-0.827117194542704	-0.486015562076631	-1.05880148605668E-06	-3.95717626344324E-06	2.16448709841526E-06	-6.39581371879743E-06	-0.0135935008887561	0.994023411573317
11.3	-0.864998751173691	-0.419222153439579	1.59560950085291E-06	-1.21959934260942E-05	3.59472601610641E-06	-2.87293429277233E-06	0.1120367910216	0.987097755530676
11.4	-0.894845085805243	-0.349514285819813	9.97415070711276E-07	1.35245110300731E-08	-5.7166854263409E-06	6.56053059081546E-06	0.236222975006435	0.964862062032415
11.5	-0.920587023046585	-0.283288613867623	6.62149624720631E-06	-1.27659667764005E-06	8.33656855171388E-06	-3.4255908368216E-07	0.35684939314667	0.926898971854368
11.6	-0.947222728528613	-0.209026104325422	-6.78671066102556E-07	-5.39663953306172E-06	1.43961021180297E-06	-3.13076022422644E-06	0.471310579618991	0.872935509593339
11.7	-0.962458174103006	-0.129702298751519	-1.40807325366484E-07	-6.1215689861607E-06	8.83447795989995E-07	-2.69777112690674E-06	0.577199698642684	0.805749767480738
11.8	-0.970167312285576	-0.0497980067746105	-1.08936751182944E-06	-7.40295737256464E-07	5.2319450786981E-06	1.04796149295106E-06	0.673686808780707	0.726850318956347
11.9	-0.970204078399357	0.0310034696588953	-3.2909558232243E-06	-5.23928880667793E-06	-5.50629647260154E-06	-8.05383113781215E-06	0.760393131026804	0.640548724993069
12	-0.963346576209244	0.109704823892407	-2.97059728677994E-06	1.69039040820988E-06	-1.70359312911462E-05	-8.72326661812318E-06	0.844871550254914	0.540432767927328
12.1	-0.953027256660636	0.187022477652903	8.15929128133661E-07	-1.59657898726228E-06	8.10628356593721E-06	1.23263187571666E-05	0.906000725217374	0.420411248139815
12.2	-0.935616873518782	0.264890824428698	-4.07315908529707E-06	5.65991210022596E-06	4.63989043271536E-07	3.34030435512947E-06	0.948844006020366	0.300182471514331
12.3	-0.913069818518502	0.34133692158444	7.99498586169225E-06	6.34108679486912E-06	5.726485425089E-07	1.09897239479331E-05	0.977057693269921	0.176787574801822
