# GHZ S RI R 50
0.2	0.985255450182857	-0.157195021593799	2.56397437602224E-06	2.2478789405974E-06	6.56549425015799E-06	-4.86890611786749E-06	-0.965892815777446	0.251926869460209
0.3	0.969045693035378	-0.234317151460805	-8.75756863814992E-07	-5.45009292081095E-06	-3.46802312705415E-06	-7.93892460779768E-06	-0.926037403762136	0.371889804164838
0.4	0.947328157727399	-0.309565283204972	-7.27310150593498E-06	-9.86746195275224E-07	4.43805222645192E-06	1.5415367350201E-06	-0.871038647168593	0.485435206247164
0.5	0.920442026305938	-0.382732914288441	6.19384099289366E-06	2.10154239385925E-06	-2.41197350071784E-06	-1.9056721395962E-06	-0.802578084029661	0.59112236037155
0.6	0.887633537483846	-0.45395742775301	-1.05432521558581E-05	2.46160418696057E-06	-2.21707372050388E-06	-1.00584521912679E-06	-0.72135060886527	0.687527872790693
0.7	0.849210827159981	-0.521889975676369	2.78151214642033E-06	-1.17215729130707E-06	-2.98299974144317E-06	5.78477489921411E-06	-0.62869914987555	0.772918474944025
0.8	0.805523958042393	-0.586801912549449	1.17214389784063E-06	-8.46809255647533E-06	-6.61538457580239E-06	-3.064611114069E-06	-0.526024337363789	0.84572225635432
0.9	0.756891267893213	-0.648085871874962	-1.14560025034329E-06	-6.79860811152955E-07	2.54712146250654E-06	6.5348830116023E-06	-0.415187135510813	0.904874806794753
1	0.703597598248246	-0.705431435037506	-2.74129821489471E-06	-3.21756586154596E-06	-4.05444664167507E-07	-7.30577586642723E-06	-0.298045868557775	0.949363524808768
1.1	0.64682299403012	-0.758542637243686	1.80445575157227E-06	-4.93318007383421E-06	2.26718582862795E-06	-5.12631897463619E-06	-0.176104302567484	0.978969079369423
1.2	0.584719912010978	-0.807956913821891	-2.49241414874225E-06	2.48669481311994E-06	9.24856246857462E-07	-9.09073170949223E-07	-0.0511621415424095	0.992697993184585
1.3	0.517304654642503	-0.852507871958979	-1.53577665754882E-06	7.17521177053592E-07	-1.35388852677008E-06	1.46028679821632E-06	0.0742958088081655	0.99089811485891
1.4	0.446695499474777	-0.89134412389282	3.91831503513234E-06	-3.23466226951829E-06	2.69516752186678E-06	1.09255157394486E-05	0.199112258489776	0.973118946696372
1.5	0.373499925325654	-0.923833500784964	-5.33109947264656E-06	1.10831308180415E-06	6.58212840479457E-06	-7.19825796788696E-06	0.320333605332368	0.93996745809393
1.6	0.29977880688158	-0.949888151202232	1.772998863956E-06	-7.72987043324098E-06	3.62779753501142E-06	1.38028891146427E-06	0.436050097213286	0.892055972503825
1.7	0.225461779556413	-0.969967744066874	-1.93935354712556E-06	-9.67827823259701E-07	-2.35672083568064E-07	-2.08443595794298E-06	0.544267962012601	0.83052703199371
1.8	0.14895540048871	-0.984548790778042	2.8486628236934E-06	5.27229192223283E-06	4.59638456275866E-09	2.02912105073396E-06	0.644301927355495	0.755468122993832
1.9	0.0714870842401866	-0.993051624077047	5.66573220893349E-06	-2.63055946239998E-06	-2.99397553633752E-06	4.16569131552241E-07	0.733704078007715	0.668314774283041
2	-0.00524950260846617	-0.99491368604495	-1.54557907839811E-06	-2.02232406897077E-06	3.20765443880398E-06	1.14346152215434E-05	0.810757206043008	0.57000297788354
2.1	-0.0830469727773135	-0.992018624321224	-7.54335862651654E-06	2.44693359985248E-06	1.20249681767998E-06	5.13866678641879E-06	0.875112597986313	0.464648337896594
2.2	-0.159619100060038	-0.982993994814075	-8.82816969646499E-07	1.39201095210161E-06	2.99531685589658E-06	7.76866351556317E-06	0.926796278894457	0.351425554227007
2.3	-0.236727893178137	-0.967221254986014	1.75180895261759E-07	7.44455576506213E-06	7.38325206087295E-07	9.38024811001698E-07	0.963219373950344	0.232824162783524
2.4	-0.312486795038782	-0.945020990633229	1.57292947316865E-06	7.16586360197838E-06	1.51529522218294E-06	6.38019764770993E-06	0.984995992537317	0.109508229700488
2.5	-0.385465860017891	-0.917618173047066	4.3857159114491E-06	-2.30677897286437E-06	-1.90500450848463E-06	-7.56149838792846E-06	0.990399108017068	-0.0148085867349135
2.6	-0.456389983754639	-0.884226733046637	6.76592278280326E-06	-5.92785810012977E-06	-1.109453163985E-05	1.07979642191707E-05	0.980626466706285	-0.139148011165411
2.7	-0.524646221341383	-0.845523052076464	-4.4486722975679E-06	9.1208318360111E-06	-2.85464097189908E-06	-9.14824935443083E-06	0.954975639776816	-0.261268770200151
2.8	-0.588710030314418	-0.802152962753185	2.45167652782391E-06	1.14645000162815E-06	-3.12545246155936E-06	1.23595469969213E-06	0.915207587983233	-0.37850058365919
2.9	-0.648751710037281	-0.754642221139683	-5.50558450862114E-06	5.99329561014499E-06	-9.17930489289571E-06	-3.04584490901872E-07	0.8607885485434	-0.4899531682552
3	-0.706336070139871	-0.702486488244726	4.76283900825965E-07	-1.47034350619553E-06	1.13111476449276E-05	1.4949086821402E-06	0.79257371007398	-0.594331174792203
3.1	-0.759705298193914	-0.645307545760985	2.37586249614599E-06	1.04995635686928E-05	4.31782223558833E-06	2.18524548629063E-06	0.712021304924636	-0.688311706587933
3.2	-0.807906674136496	-0.584477300913807	2.08675440537115E-06	6.47090930172172E-06	4.02881010999394E-06	-1.0593347239796E-05	0.620725179455375	-0.77181954863472
3.3	-0.851386406692286	-0.520241271438868	3.06855875636472E-06	4.97143989329986E-06	-2.19840715520049E-06	-9.67693621640191E-06	0.518658921895188	-0.843975093568732
3.4	-0.889232434274671	-0.452998531221854	2.13374664698073E-06	-2.60062791075434E-06	5.95919813356387E-06	1.39911654038075E-06	0.409709727910296	-0.902949834930366
3.5	-0.92238657152625	-0.380627754664426	-3.24343692955609E-06	9.42768649267995E-07	-2.07932140401843E-06	3.42295768559809E-06	0.291753364781951	-0.947955243143205
3.6	-0.948514254201009	-0.307046733406902	-1.80673679064988E-06	-3.74679615931052E-06	-7.83020416272326E-06	4.09363353945564E-06	0.170432850777299	-0.976050627855202
3.7	-0.969526239931655	-0.23244656690475	8.3845812872289E-07	-8.32745853173525E-06	1.07639732553274E-05	3.71866929761185E-06	0.0465397563118319	-0.989906199090892
3.8	-0.984985438351708	-0.155253968300383	8.91997759177207E-08	1.54783819202827E-06	-6.53339883909265E-06	5.94246446255808E-06	-0.0778530746361818	-0.988404673525679
3.9	-0.993879365234061	-0.0775900021788527	-2.62103263818615E-06	-5.03551963754552E-06	-3.71933452913443E-06	8.02473942278877E-06	-0.203362938037774	-0.971521956480076
4	-0.996816374502177	0.0012116137753653	7.13430462712634E-06	-3.69249733914599E-07	-1.04339666624528E-06	-1.2083117296731E-06	-0.324334956216489	-0.938402380738551
4.1	-0.99397249871538	0.0794939659589482	6.21220444996459E-07	-4.43179560375347E-07	7.37056369048438E-06	-4.74728448204904E-06	-0.440301638462754	-0.889991612925633
4.2	-0.985001591383354	0.157744880936149	3.20643725416715E-06	2.11195796043725E-06	-7.18133703754713E-07	-7.64450377701224E-07	-0.548990423076979	-0.827093599819047
4.3	-0.969852531782504	0.23421131791387	-3.19738587560161E-06	1.36977140539041E-06	-5.0101556995513E-06	2.979333168602E-06	-0.648597669107906	-0.751918522637967
4.4	-0.948229272088803	0.309203324085738	8.01896203864484E-07	2.64765347850706E-06	1.56698308898091E-06	-8.34355485323501E-06	-0.737857153494394	-0.66474401124698
4.5	-0.921237816645865	0.381381738661187	1.8274812344794E-06	-9.36122141687235E-07	7.63826409899393E-06	-2.37661890924048E-07	-0.81607663876515	-0.567433710994895
4.6	-0.88909892108469	0.453192692359928	-7.51466111070496E-07	6.13858538925004E-06	-1.23440736850585E-05	-6.53943470070457E-06	-0.881510517553211	-0.460179834070456
4.7	-0.851041935233039	0.520946798003239	1.19545750370515E-06	2.52148634841934E-06	1.41778183789184E-06	1.87612931378255E-06	-0.9328379600516	-0.345688214792262
4.8	-0.807031613940795	0.5866540711716	-5.23531826717162E-06	1.11401252716764E-05	5.2105280636216E-06	9.73815519864178E-06	-0.968844061500665	-0.225289231222928
4.9	-0.758547193992888	0.647815815496228	1.19003442003269E-06	2.94636542863826E-06	-4.54653413275176E-07	-6.93801220041309E-06	-0.989462491542874	-0.101548258841333
5	-0.706143260620304	0.706094048384559	4.76732095822221E-06	-8.94447054712026E-07	-3.77050486955081E-06	2.41924789503312E-06	-0.995484100662573	0.024214109126156
5.1	-0.647081604186699	0.760383581359094	4.15444730052961E-06	-1.29503344392904E-07	-2.63968628892556E-06	-9.86866623406013E-06	-0.984038125811758	0.150707466566181
5.2	-0.584814116682672	0.809223856632662	2.6744178987198E-06	-1.5057087766348E-05	1.37717944627433E-06	2.83953570706453E-06	-0.956811601758524	0.273500157564181
5.3	-0.519187984880443	0.853339510099225	-8.75340516725862E-06	-8.06105351763935E-07	-1.14110632147225E-06	1.57194388423862E-07	-0.914898557216919	0.391895964585314
5.4	-0.450157865397732	0.89219199166832	-7.20201320001199E-06	-1.11255737692881E-05	-1.38257222777261E-05	1.12286340348075E-05	-0.858407386653606	0.503869591902189
5.5	-0.378477691031212	0.924768599752342	1.91260744479752E-06	9.23032378254939E-08	-2.25707365231388E-06	1.78783096532988E-06	-0.789130615258521	0.608082750055801
5.6	-0.304634181123696	0.951535113202401	-2.42760691337477E-06	3.52515062435866E-06	-1.35089449064622E-06	1.29233634817063E-06	-0.706404095124443	0.702792372566567
5.7	-0.228695961018834	0.97298495058747	1.3102507710052E-06	1.2406993610885E-06	5.79269749600494E-06	-1.07095995844376E-07	-0.612542138683139	0.785957365722667
5.8	-0.15104754249117	0.988082168803964	2.71073178628214E-06	4.28848717359833E-06	-2.13181445342742E-06	4.26298749806401E-06	-0.508819833221691	0.856494034816245
5.9	-0.0719062873119786	0.997091967973976	-6.93007502326651E-06	-2.32033759741172E-06	-8.18084207265876E-08	6.33082542162749E-06	-0.397237234695229	0.91337055607284
6	0.00709723250814509	0.998166318878865	-1.8017862003467E-06	9.25700716723785E-08	-5.49709165291907E-06	-4.40624436873948E-06	-0.279942119560215	0.954669330834891
6.1	0.0848491001611108	0.994345595502707	3.99205314409852E-08	-9.95646833297467E-06	-9.88195555619982E-07	-3.22817586644244E-06	-0.159348273073755	0.982509441253132
6.2	0.16367588917258	0.984261958301187	-1.02559672418652E-06	3.12577917989122E-06	-1.76563475542983E-06	4.23223810850787E-06	-0.0341973349457627	0.994916327355664
6.3	0.241770706635162	0.967643003193791	-8.06783969373709E-07	2.84252300862311E-06	-2.94852648425755E-06	2.4074130977736E-06	0.091751830286078	0.991021520643786
6.4	0.318080630484937	0.944303757762008	-5.98404890102663E-06	5.57298192370097E-06	-2.39151015065633E-06	-7.49205576453516E-07	0.216213051732662	0.970610323458496
6.5	0.390787180775348	0.916305387094064	1.40936520715807E-06	-5.29447655597899E-06	-1.45344369986485E-06	-2.38526658269777E-06	0.335242293434632	0.935887711819654
6.6	0.463244446945814	0.883354161607332	3.67380077838401E-06	2.10610408164861E-07	1.13663939423298E-05	-2.69401860890011E-06	0.451776178996389	0.887236447637161
6.7	0.532330038224134	0.843348173873648	-7.79947395906325E-07	8.52858552335615E-07	-3.78737021059633E-06	5.26361607995969E-06	0.559970498689807	0.822759168215741
6.8	0.597784185771467	0.798235727665742	-1.75938687978953E-06	4.51611669886457E-06	1.46103143721835E-06	-8.90407260233109E-07	0.658701068834856	0.745518950253098
6.9	0.65949200070363	0.748004119824869	5.95999777066256E-06	2.25183369912043E-06	-9.32670569022284E-07	2.43214176282626E-06	0.746754185600891	0.65644668491946
7	0.716671068997137	0.692599524066193	1.13433492240858E-06	-4.17732324835429E-06	-1.42740247434573E-06	2.93818992993224E-06	0.822255868338625	0.557123184880876
7.1	0.769038272294095	0.633439024628351	2.39216837147676E-07	-7.21866620243481E-07	2.00620744920408E-06	9.22244700657709E-06	0.885130761483775	0.449973700695019
7.2	0.816691440749048	0.570005857635522	1.38552480639042E-06	-2.42689643243731E-06	-1.03541133571212E-06	-8.59888578237162E-06	0.934208676102796	0.33557548467865
7.3	0.859158742284564	0.502845273188199	4.87184943352108E-06	7.24512891588973E-06	-9.74984543347311E-06	2.36443235941051E-06	0.968324963788683	0.215814492708909
7.4	0.897060275559533	0.432353093754109	5.11653221346193E-06	-6.95350638368302E-07	1.93053254266801E-06	-9.68330485991321E-06	0.987994557788093	0.0922439728783726
7.5	0.929020682333402	0.357507236766692	2.74164412539061E-06	-5.34293236161011E-06	2.08273888749784E-06	-7.32087355762923E-06	0.990915644528009	-0.0343939856788648
7.6	0.953944754908876	0.28138514137802	-3.36670750875985E-07	-5.65779901515206E-06	1.6852294899799E-05	3.81882068592297E-06	0.977267563701105	-0.158202629006904
7.7	0.973607600262893	0.203473836089932	3.53198198388244E-06	9.78172265743389E-08	3.13971561019005E-07	-2.93753810139024E-06	0.949598495570952	-0.279809022451935
7.8	0.986886230328401	0.123908399785727	-1.10278974692409E-05	-1.88178848082509E-06	-1.89629031415083E-07	3.45301254535225E-06	0.906889264798836	-0.397413059469794
7.9	0.993191297990452	0.0427983342190164	2.37541628583823E-06	2.02590684847234E-06	-6.9930399922869E-06	-4.69222544016066E-06	0.849171008672218	-0.509226194151096
8	0.99066543039853	-0.0372252343134185	2.3712513815234E-06	2.94152678385648E-06	-9.3879620407901E-06	-7.5472156966909E-06	0.776211635720605	-0.610996154561236
8.1	0.984644107849548	-0.114786522772972	3.81532562496777E-06	-3.0850696229687E-06	2.13479402401555E-06	-3.19353778728357E-06	0.694532328246338	-0.702305770349742
8.2	0.972655677216214	-0.193165116398157	-4.03308912981956E-06	1.43220157163581E-06	-6.75633913650889E-06	3.86238087808033E-07	0.601312426068732	-0.784166956999517
8.3	0.953611897047978	-0.270815293468029	9.87172472795246E-06	2.58558066252898E-07	6.28830014209609E-06	1.04324280639516E-05	0.497988576866872	-0.853355877118227
8.4	0.928102918421278	-0.346731342304284	1.29474246146736E-06	2.55381589101131E-06	3.46932701775156E-06	1.81193642875422E-06	0.386887887886305	-0.909299188670409
8.5	0.896473770491199	-0.420416352777261	-4.83119251945724E-06	4.98964192541907E-06	2.84662065938314E-06	-3.03786205017263E-06	0.268538977073492	-0.950695752053239
8.6	0.859103692139499	-0.4913471055511	-4.49422433245873E-06	2.11288959798753E-06	-3.00135625174991E-06	8.14373709634279E-06	0.146668747049281	-0.976336491938742
8.7	0.8160580566254	-0.559108744663465	-1.01554291782605E-06	1.22247068676925E-06	-6.26466042319783E-07	3.469461155936E-06	0.0224932561875562	-0.986612281386395
8.8	0.767696335200648	-0.622880626443702	-1.56832540094246E-06	3.08804854339021E-06	-6.00205771065409E-06	1.31757288522078E-06	-0.101354588372831	-0.981311253950996
8.9	0.714857319477622	-0.682489102099301	3.16317838475042E-06	-1.84597182668891E-06	-3.16524807636247E-06	-4.41270708085482E-07	-0.22321486627583	-0.960732878695791
9	0.657038731353977	-0.738058034989468	-7.27932007598773E-06	1.38126470916662E-06	-3.97383358124099E-06	7.41649545299695E-07	-0.342933420819814	-0.926632248969085
9.1	0.594796443227344	-0.78810696778296	-3.36196293953776E-06	-1.86632624109305E-06	-9.73207790162264E-07	2.13841805274941E-06	-0.457737838089725	-0.87524269514144
9.2	0.52869626634691	-0.832994662938694	5.97104584787974E-06	-1.66539277677725E-06	2.02242096139801E-06	8.46220000352211E-06	-0.563959414240464	-0.811001367123432
9.3	0.459308624624436	-0.872514987012336	-3.34389447171704E-07	1.07074454534642E-06	1.37012846924699E-05	1.17586235137116E-05	-0.661510218043509	-0.733808338768388
9.4	0.386594860342423	-0.906733629237388	1.71991386694482E-06	-2.66685625094649E-06	4.29177573243953E-06	1.74007624919467E-06	-0.748471767465317	-0.645599422236294
9.5	0.308628224170929	-0.934003889837394	-6.52734913781752E-06	-4.84647720282012E-06	-1.9762010988549E-06	-5.68676813309202E-06	-0.825366557950367	-0.544871401493759
9.6	0.230657737745397	-0.952597596611852	-1.16467100781941E-05	-2.01640439124905E-07	-5.92651074214912E-06	-3.9720389947819E-06	-0.886285251772595	-0.435816266755195
9.7	0.151966309095152	-0.966532184382169	1.46092744405352E-06	-4.82986994677011E-07	-2.90070203255213E-06	1.64849020946572E-06	-0.933973597990856	-0.320572085276929
9.8	0.0719281984852761	-0.974059650450923	2.20380985496438E-06	1.38642935945437E-06	1.50331079655986E-05	-3.5529442280264E-06	-0.966393775325893	-0.20031712543837
9.9	-0.00884925983965481	-0.974469197219289	-3.41031341265765E-06	8.94705429068492E-06	1.37201940171645E-05	4.91307661078761E-06	-0.983507329417478	-0.0771407410339081
10	-0.0882598768165125	-0.966772611527246	-3.61973632081076E-06	1.62151263445645E-06	1.90889533397583E-05	-1.81143872771434E-05	-0.985338323355505	0.046884463872376
10.1	-0.165286363472045	-0.953531519450111	-1.46795834985851E-06	2.29600958484162E-06	-8.39513379485525E-06	-4.27374678603119E-06	-0.97199215680004	0.170766839807097
10.2	-0.241100373893242	-0.934360024918304	-2.30261800540765E-06	-1.23090917027177E-06	-1.28505522044692E-05	7.22665063324886E-06	-0.942429627976998	0.292047361733464
10.3	-0.313986950434107	-0.908812034990283	5.74867591864645E-06	3.89719752581931E-06	-6.12015414800669E-06	1.38544113525028E-06	-0.897896884397594	0.407952811345035
10.4	-0.384328517879439	-0.878041388512109	2.09272579201763E-06	1.03739120934246E-06	6.8397616301097E-07	-8.18049496923679E-06	-0.83880012635118	0.515971595149827
10.5	-0.451615809244671	-0.840620573297469	4.33670269029993E-07	-3.04314056064029E-07	-6.5631178934293E-07	-5.59340889312583E-06	-0.769703754741256	0.61517235832508
10.6	-0.513561294159031	-0.797814271577024	5.05394820922463E-06	-2.59216180490759E-06	-9.69082327709347E-06	-7.82203580681833E-06	-0.687577831901493	0.70821898736606
10.7	-0.571060617817673	-0.751242769182068	-2.79535750150615E-06	-4.9706303085357E-07	-5.19423560178265E-06	-7.11565156939743E-06	-0.593487827913647	0.789008333867052
10.8	-0.623937663854896	-0.70201899184774	-3.58905973782586E-06	-3.41773295199307E-06	-1.18745806282992E-05	9.0808472261212E-06	-0.489988973582978	0.856950687460128
10.9	-0.673070994460816	-0.651478916727124	-1.12899014984254E-05	-1.03516662939366E-05	-4.4502254933512E-06	1.08738397917674E-05	-0.379652639405036	0.910797779164885
11	-0.720928619030236	-0.599075405555171	1.00359935221444E-06	1.40275740199183E-06	8.62161859499162E-06	-5.45866653938999E-06	-0.263621405395882	0.952062101639638
11.1	-0.764255448074584	-0.541433449522621	-3.23783509834151E-07	-3.61221214421637E-06	1.01295901325119E-05	-1.01406840439555E-05	-0.141645275072428	0.97799046091657
11.2	-0.803718326768731	-0.482683514794692	-1.02369345430179E-06	-3.89182356509759E-06	2.15291271127164E-06	-6.27408055573137E-06	-0.0169530432472677	0.98782766081193
11.3	-0.840384016250173	-0.420716202889657	1.63613914502849E-06	-1.19776636372597E-05	3.54899574224208E-06	-2.80357481323301E-06	0.108062301918336	0.981650759443075
11.4	-0.872928582054713	-0.355568687615163	9.82016550504229E-07	1.89393353466874E-08	-5.66584851727904E-06	6.42752191774006E-06	0.23167404341209	0.95957859645334
11.5	-0.900698872663378	-0.285751689824874	6.51158259447091E-06	-1.23544830077412E-06	8.19451028188286E-06	-3.12454548122361E-07	0.349972354583824	0.921753354735652
11.6	-0.921338690638598	-0.215107317319472	-6.32347070631566E-07	-5.29501324659533E-06	1.43054932426999E-06	-3.06058568916909E-06	0.463316658192148	0.86991899840137
11.7	-0.93748116593998	-0.142041229044053	-8.67163516402415E-08	-6.00849684994739E-06	8.89638360151976E-07	-2.63999166332256E-06	0.56918384232044	0.803766875385085
11.8	-0.948195293122994	-0.066401767090187	-1.06330348075816E-06	-7.37817365885954E-07	5.13075375661092E-06	1.07975122397696E-06	0.665795659638591	0.724595944630557
11.9	-0.952931024401961	0.0114100541049523	-3.1877087331396E-06	-5.18145647677065E-06	-5.34007197085883E-06	-7.96902950880695E-06	0.750379586979223	0.63365223598524
12	-0.951178558517989	0.0906355675438384	-2.92950706896833E-06	1.62489866783035E-06	-1.66030689093415E-05	-8.73187278121409E-06	0.81926893143054	0.534425445009602
12.1	-0.941957812673251	0.169272814619218	8.26287662920147E-07	-1.55502946253505E-06	7.76692546644947E-06	1.22315590810602E-05	0.878497886685933	0.430728767744013
12.2	-0.925423610982977	0.247386468866591	-4.10568352806498E-06	5.50361542794402E-06	4.00433586894841E-07	3.29646692779435E-06	0.925969279730845	0.318544420143515
12.3	-0.902692409709158	0.323693282098919	7.77011771716685E-06	6.38788674321443E-06	3.74415097795124E-07	1.08412029309601E-05	0.958830227365789	0.200142223762042
