# GHZ S RI R 50
0.2	0.986216273344168	-0.15665325932994	2.56464052582073E-06	2.25099604187592E-06	6.57313510517063E-06	-4.86888810964136E-06	-0.966565289599485	0.251640134469834
0.3	0.970260568542325	-0.233755058941847	-8.73046538310619E-07	-5.45604047175739E-06	-3.46623656131727E-06	-7.94902572601338E-06	-0.926997474847144	0.371699648037797
0.4	0.948870309384599	-0.309126334620752	-7.28216420295733E-06	-9.92859551440582E-07	4.44296287909079E-06	1.54652172065589E-06	-0.872345941876157	0.485554988870327
0.5	0.921946086844886	-0.382785149021699	6.20294893877872E-06	2.10575531436065E-06	-2.41534354155721E-06	-1.90897153453046E-06	-0.803754231194395	0.59204318324253
0.6	0.888877750730894	-0.453737669250356	-1.05557489258631E-05	2.46205771590217E-06	-2.21936392464903E-06	-1.00747677315621E-06	-0.722031347702439	0.688377249840439
0.7	0.850806103934749	-0.521569401734482	2.78558521079059E-06	-1.17245171560244E-06	-2.98933350105829E-06	5.79089238655836E-06	-0.629396495395837	0.773822210053585
0.8	0.807463266626817	-0.586714090529086	1.17777849015014E-06	-8.4804849591766E-06	-6.62408980643404E-06	-3.07229278582987E-06	-0.526645578759163	0.846814808404158
0.9	0.759065594228974	-0.648512203433917	-1.1474417866069E-06	-6.81506905967773E-07	2.54942192592612E-06	6.54768244347563E-06	-0.415703037490995	0.906133470110127
1	0.705573667913737	-0.706558547876483	-2.74675056756572E-06	-3.22443554655733E-06	-4.05758527198416E-07	-7.32095446599985E-06	-0.298526867649509	0.950853806308961
1.1	0.648335812972869	-0.760109104318447	1.8075829894722E-06	-4.94433703188016E-06	2.27129778891749E-06	-5.13797959617931E-06	-0.17651087953676	0.98079907149912
1.2	0.58571709920029	-0.809745688041398	-2.49752305172383E-06	2.49347571253868E-06	9.26756624352301E-07	-9.11556732877285E-07	-0.0514955657587119	0.995051471221189
1.3	0.5178354040609	-0.854281968583382	-1.53925149648714E-06	7.20121514759869E-07	-1.35651964953023E-06	1.46465393221416E-06	0.0743764465776752	0.993791667163033
1.4	0.446938707680447	-0.892667066602261	3.92518194829751E-06	-3.24414130608565E-06	2.70749583917339E-06	1.09483201640504E-05	0.199808955488372	0.975996735014366
1.5	0.374264021055044	-0.924542895911451	-5.34022384922093E-06	1.11164324509693E-06	6.59189156514485E-06	-7.21265997610831E-06	0.321796269673069	0.942495052853989
1.6	0.300772103193202	-0.950955615649244	1.77581863553838E-06	-7.7427221455874E-06	3.63383775026956E-06	1.38252172283323E-06	0.437953762180667	0.893574147444356
1.7	0.226297888863148	-0.971136740768718	-1.94246463349739E-06	-9.69430250889094E-07	-2.36009669452887E-07	-2.0878060410161E-06	0.546213733511636	0.831416724961282
1.8	0.149611450797856	-0.985764255953532	2.85289215220026E-06	5.28058352218769E-06	4.52884104620036E-09	2.03227201659191E-06	0.646168359098354	0.755888107845518
1.9	0.0721707180232313	-0.994376946794849	5.67607050809577E-06	-2.63286731761203E-06	-2.99908639031242E-06	4.16175867675103E-07	0.735212124897424	0.668793433481365
2	-0.00500074443826549	-0.997246974760119	-1.54991990157023E-06	-2.02842370131732E-06	3.21593834064823E-06	1.14685497008004E-05	0.813550444986828	0.57127919836534
2.1	-0.084312473169258	-0.993838426231727	-7.5588406888591E-06	2.46323386030955E-06	1.21244392164572E-06	5.14984165629523E-06	0.878764858935406	0.46390537041409
2.2	-0.161062983963296	-0.984016346975267	-8.82537887948009E-07	1.39584273246164E-06	3.01170818082454E-06	7.77905232336304E-06	0.92975481388508	0.349707550682161
2.3	-0.238146348416443	-0.967901544717363	1.84987071424492E-07	7.45710619853831E-06	7.40789815561657E-07	9.38691637014088E-07	0.965582911943133	0.230635985539929
2.4	-0.313923021465232	-0.945600466257547	1.58393675248513E-06	7.17678780934824E-06	1.52529959481646E-06	6.38979251312168E-06	0.986757310369223	0.107168369329136
2.5	-0.387177722497776	-0.918207770737999	4.39199893732567E-06	-2.3169739122776E-06	-1.91827195712362E-06	-7.57488109627328E-06	0.991988976788089	-0.0171095141160171
2.6	-0.458569174541888	-0.884531497560754	6.77151862281625E-06	-5.95093496312741E-06	-1.11020698510909E-05	1.08381309830516E-05	0.981940785905448	-0.141711292644758
2.7	-0.527158711357432	-0.845277944826027	-4.44103366507542E-06	9.14870745412258E-06	-2.87795240983515E-06	-9.16244790634289E-06	0.95602238602287	-0.264099720846113
2.8	-0.591475956648606	-0.801229363307477	2.45907355148653E-06	1.14303024048506E-06	-3.12867196903446E-06	1.24554882500038E-06	0.915703238746879	-0.381703920993812
2.9	-0.651877305041879	-0.752679289768186	-5.49801304548276E-06	6.01977168200299E-06	-9.19639867897165E-06	-2.78630847965264E-07	0.860524769960943	-0.493193028835529
3	-0.708677091949306	-0.698648530880731	4.70962350148978E-07	-1.47342920374511E-06	1.13264460393189E-05	1.45215242247304E-06	0.79196694398611	-0.597301742105667
3.1	-0.760840411216613	-0.641364205699589	2.41467147810587E-06	1.04885619580551E-05	4.3251304795226E-06	2.16864973712468E-06	0.711051560980073	-0.691615564617807
3.2	-0.808472358331038	-0.580272857148764	2.10923814038205E-06	6.45872696194727E-06	3.98686299421176E-06	-1.06009295238257E-05	0.61898403270657	-0.775201669598981
3.3	-0.851274968552051	-0.515746385516157	3.08335773107405E-06	4.95353726294394E-06	-2.23203407701811E-06	-9.65630022346058E-06	0.51592746975377	-0.84708482337805
3.4	-0.888114419006518	-0.448283690679887	2.11974476470067E-06	-2.60233589685841E-06	5.95075673293908E-06	1.37487681405038E-06	0.405950787291883	-0.904836872053538
3.5	-0.920121565824999	-0.377172313897003	-3.23415770477385E-06	9.46395023206509E-07	-2.0683055313441E-06	3.41869166232265E-06	0.289494835240076	-0.948290975241479
3.6	-0.947285617052414	-0.304066445665135	-1.81311658524242E-06	-3.7390925376467E-06	-7.81341005281118E-06	4.10664781199629E-06	0.168103472538808	-0.977912757474538
3.7	-0.968180909207524	-0.229015612249198	8.15262068995505E-07	-8.31870755892967E-06	1.07596516611545E-05	3.68521368045514E-06	0.0429942967435779	-0.99115671189109
3.8	-0.983265991955572	-0.15183265047632	9.29073330865136E-08	1.54499317788648E-06	-6.50751439063247E-06	5.9486830979012E-06	-0.0817608319129094	-0.988306109171656
3.9	-0.991973274464881	-0.0743019758006686	-2.62678922980603E-06	-5.02112917355891E-06	-3.6961022269682E-06	8.01815094459946E-06	-0.20663719584698	-0.969870630093442
4	-0.994660067572845	0.00458611588452725	7.12289501293667E-06	-3.84383934177921E-07	-1.0445028386174E-06	-1.20422318951939E-06	-0.32604830739205	-0.936450217127748
4.1	-0.991335636550591	0.0827281848924505	6.18865253575723E-07	-4.43725172843498E-07	7.34383325937249E-06	-4.75482945020278E-06	-0.441615543936357	-0.888256440156156
4.2	-0.981989621555072	0.160575926393621	3.20273609650881E-06	2.10000194574282E-06	-7.17908143495059E-07	-7.61038804720786E-07	-0.5499515257139	-0.825274334893112
4.3	-0.966832480889891	0.236453742721452	-3.18639517495954E-06	1.3710791947226E-06	-4.99160950604232E-06	2.97908650295615E-06	-0.649243984086476	-0.749994100698172
4.4	-0.946062563109689	0.311193094274927	8.02190880568618E-07	2.64104993176113E-06	1.55682793450915E-06	-8.3259951832545E-06	-0.738328215177254	-0.662654908536913
4.5	-0.91908230978497	0.385171835414648	1.82478111987761E-06	-9.38743031292658E-07	7.63335683654939E-06	-2.50778922849414E-07	-0.816043464877715	-0.564577125581215
4.6	-0.885374307151359	0.456749596392235	-7.31294062770549E-07	6.13244360032339E-06	-1.23473959996222E-05	-6.49192119935782E-06	-0.880187048941343	-0.457588644846934
4.7	-0.846829906642618	0.524149945582411	1.20190245949198E-06	2.51295550305399E-06	1.42164063039989E-06	1.86798749383045E-06	-0.931113512264525	-0.343733554303982
4.8	-0.802293249520376	0.589603097016473	-5.1817848508941E-06	1.11382138486819E-05	5.23784495730694E-06	9.69860773190197E-06	-0.967087623760275	-0.223664408372178
4.9	-0.753036025587628	0.650767566019017	1.20116671295049E-06	2.93339125489719E-06	-4.86674963534943E-07	-6.91867666143696E-06	-0.98763835694672	-0.0993839288377081
5	-0.698644652802306	0.707473959386493	4.74023037415009E-06	-9.1347997249459E-07	-3.74071388380116E-06	2.42614303182291E-06	-0.991005655956303	0.0261682440658865
5.1	-0.640787535448842	0.759558469034351	4.13294846967552E-06	-1.4129957377187E-07	-2.6558573687158E-06	-9.81060582198761E-06	-0.980131532334415	0.149703707141174
5.2	-0.579207883834601	0.807919258831842	2.62215583730213E-06	-1.49885848114985E-05	1.37761244706342E-06	2.82176010183667E-06	-0.954061244255544	0.272344421545577
5.3	-0.513973206874453	0.851309188267824	-8.70763929063614E-06	-7.83643516110616E-07	-1.13459807034625E-06	1.58701329687828E-07	-0.912208393955095	0.390876770609567
5.4	-0.445696414568219	0.889444701448849	-7.17275493918839E-06	-1.10557998720228E-05	-1.37367182060879E-05	1.11794703996441E-05	-0.855268318447732	0.502617236448345
5.5	-0.374605243849762	0.921912535194245	1.90445596544812E-06	9.09862685424247E-08	-2.24654027391335E-06	1.78125709375076E-06	-0.785509662018534	0.605621594563256
5.6	-0.301063676724959	0.948137937124338	-2.4106611645705E-06	3.51310105901202E-06	-1.34257840418302E-06	1.28868590489204E-06	-0.703619186115426	0.699082263748862
5.7	-0.225735201671163	0.968975846472207	1.30516062527399E-06	1.2319817018844E-06	5.76142247411328E-06	-1.15606372642571E-07	-0.610834671944688	0.781773802105231
5.8	-0.149056959319877	0.98327788345702	2.69862210665942E-06	4.2588578614718E-06	-2.1138705125346E-06	4.23885689845086E-06	-0.508141223419005	0.852074523809144
5.9	-0.0720907644510911	0.991770352054935	-6.87754764657755E-06	-2.30661355498559E-06	-8.43755070028335E-08	6.28386165762894E-06	-0.398080734124123	0.909054639814745
6	0.00503616500947835	0.995482878883427	-1.79209023482733E-06	8.51000669761327E-08	-5.44941547817254E-06	-4.40287389225812E-06	-0.28167720224411	0.952701414343357
6.1	0.0838259075000336	0.992457694275683	7.0917306248985E-08	-9.92293054634212E-06	-9.74785773594382E-07	-3.22043218956795E-06	-0.159477004466193	0.980763337852431
6.2	0.162429252339822	0.982649093692581	-1.03281200165509E-06	3.11386071329957E-06	-1.77436409800971E-06	4.21488929812977E-06	-0.0344460036236941	0.992614940517029
6.3	0.240179635114436	0.966447011600435	-8.1507344862086E-07	2.83390052351197E-06	-2.95092316824982E-06	2.39219210302865E-06	0.0908018263666036	0.988562609030495
6.4	0.316191371468547	0.944331689615509	-5.998846876242E-06	5.54573564509954E-06	-2.38649570944752E-06	-7.57277216634764E-07	0.214590643996538	0.969154575904834
6.5	0.391459406720642	0.916331913189985	1.41538580003561E-06	-5.292890114092E-06	-1.45073727487728E-06	-2.38692507467791E-06	0.335912822351672	0.933965993550505
6.6	0.462559641488557	0.881012553648402	3.66352204391849E-06	2.11724442000449E-07	1.13361385617064E-05	-2.68129996847672E-06	0.450002496588257	0.882774284720311
6.7	0.53036395941521	0.841333508643631	-7.78214528216553E-07	8.4884819480054E-07	-3.78034177646191E-06	5.24013295907543E-06	0.556187029613067	0.819303618140076
6.8	0.595172212403152	0.796520128646119	-1.75933270339473E-06	4.4957356502809E-06	1.45665070232483E-06	-8.84699770817933E-07	0.654044203514306	0.743176098492041
6.9	0.656124909102704	0.746728493732422	5.92805026641252E-06	2.25271641888738E-06	-9.32966974364823E-07	2.41907855469058E-06	0.741540875824273	0.655415238088526
7	0.713020743713728	0.692309679929112	1.14611770552976E-06	-4.15537743822181E-06	-1.43305892793898E-06	2.92026375690713E-06	0.817684237367489	0.557494770760233
7.1	0.765482630483441	0.633580693765522	2.41043335645961E-07	-7.19516121611031E-07	1.97184435661976E-06	9.20888108769768E-06	0.880863895385656	0.450358449426792
7.2	0.813143443351627	0.570473303191676	1.38816557407591E-06	-2.41926775539358E-06	-1.01474700954316E-06	-8.58478015134105E-06	0.929829504482546	0.336419683863875
7.3	0.855484061415808	0.503294441151515	4.85475198533829E-06	7.23558534148543E-06	-9.7327475566591E-06	2.34980676287153E-06	0.963760022496242	0.216902902898367
7.4	0.89215397898473	0.432614897669364	5.09768635049499E-06	-6.96263063536438E-07	1.91714184181422E-06	-9.64980218049534E-06	0.981900127292919	0.0938253207527852
7.5	0.922649214321135	0.36041314803858	2.7290199148707E-06	-5.3023743325384E-06	2.07710553830987E-06	-7.26733144106414E-06	0.984386753865932	-0.0285468862638292
7.6	0.948965406603254	0.285537056664566	-3.18362661454606E-07	-5.62432998184197E-06	1.6738748187754E-05	3.84400596166268E-06	0.973493004662017	-0.151410811023621
7.7	0.968845793799892	0.208445798905371	3.50879233789576E-06	1.09431078161968E-07	3.22125825557822E-07	-2.91744477686205E-06	0.946881289515376	-0.272174387771638
7.8	0.982550830596077	0.130056247328958	-1.0946503059621E-05	-1.92100433244175E-06	-2.04538367483767E-07	3.42939642401502E-06	0.905707599375556	-0.388809008728632
7.9	0.989926756765987	0.0510145867634858	2.34739361344099E-06	2.02987317218963E-06	-6.91918104540419E-06	-4.71153965912308E-06	0.850522954062381	-0.499249343757828
8	0.992516081100094	-0.0283027243029054	2.34269296680099E-06	2.95714521367286E-06	-9.30964820690736E-06	-7.61530251004122E-06	0.78319118164964	-0.603156012614099
8.1	0.987296444399893	-0.109737199299187	3.83248282951859E-06	-3.06605692943333E-06	2.15204152540955E-06	-3.1833143489901E-06	0.700708138204445	-0.69867115238297
8.2	0.974833599650818	-0.188935846385125	-4.03983753258129E-06	1.41500280694255E-06	-6.758958994492E-06	3.57142186941325E-07	0.607127529105948	-0.781387753095969
8.3	0.955898308795839	-0.266989462894951	9.8751130255932E-06	2.97662762713436E-07	6.24990524640931E-06	1.04619241811841E-05	0.504003149337773	-0.851563464959524
8.4	0.930660669353455	-0.343268057799635	1.28742547610049E-06	2.5597355103074E-06	3.46589159550728E-06	1.82433473903415E-06	0.392784836614041	-0.90829293716169
8.5	0.89934248985178	-0.417622974515204	-4.84479010183628E-06	4.97119520970782E-06	2.85495109577661E-06	-3.02693946387453E-06	0.275387097086123	-0.949993384030649
8.6	0.861742987916357	-0.488957940944436	-4.50433771376984E-06	2.09157693425082E-06	-3.04009221245636E-06	8.12961875649905E-06	0.154162456031666	-0.977592412624228
8.7	0.818767283478339	-0.556856801602276	-1.02302791835214E-06	1.21849673877777E-06	-6.45259018195483E-07	3.46995893202774E-06	0.0297949425788598	-0.989750960830848
8.8	0.770581044433368	-0.620945703769756	-1.58867319546516E-06	3.08684436472454E-06	-6.02327336476737E-06	1.28828507455449E-06	-0.0950533782775766	-0.986491903659403
8.9	0.717595729659971	-0.681131962245387	3.18422431248855E-06	-1.83948029710764E-06	-3.17617623591587E-06	-4.57079910638048E-07	-0.219696269801963	-0.966935978334142
9	0.659493877329307	-0.736401370963324	-7.30666299230678E-06	1.36923906711595E-06	-3.98873198957144E-06	7.35043477224646E-07	-0.340054085401489	-0.930290557499085
9.1	0.597814925855585	-0.787068501558116	-3.3671764187316E-06	-1.88048549092347E-06	-9.81578132611759E-07	2.1422820143577E-06	-0.454065615203121	-0.880163479543731
9.2	0.531436532460729	-0.832686842782725	5.9914273239075E-06	-1.65906635561218E-06	2.01247797081835E-06	8.49045432158873E-06	-0.561217720877379	-0.816238037589217
9.3	0.461559364115059	-0.872628485260445	-3.36688291499189E-07	1.07269739000572E-06	1.37155233197064E-05	1.1805038542489E-05	-0.659341263243631	-0.738938099713935
9.4	0.388132177177307	-0.906167414984279	1.72504527619486E-06	-2.66703578448912E-06	4.29342982738206E-06	1.74738461384993E-06	-0.746298315825017	-0.649784796167244
9.5	0.313415668196549	-0.933087142165334	-6.50956074153291E-06	-4.88116639851281E-06	-1.95085671379792E-06	-5.70059079230858E-06	-0.82113311677777	-0.551157811153313
9.6	0.234766679786281	-0.955920367143704	-1.16926999494579E-05	-2.52240105618174E-07	-5.93337157501222E-06	-4.01335277299105E-06	-0.885198818753069	-0.444177440572803
9.7	0.153752505454585	-0.970527529297103	1.46893936494799E-06	-4.8081269290973E-07	-2.91866191189141E-06	1.64727603711175E-06	-0.934910733015674	-0.328465004135092
9.8	0.0723616973916626	-0.977750179521128	2.21051955518294E-06	1.39823423042049E-06	1.51109539595477E-05	-3.53220888966369E-06	-0.969009578519578	-0.20768787882087
9.9	-0.00890620583981801	-0.977663309090041	-3.44786113477117E-06	8.98521846761746E-06	1.37794289431121E-05	4.9690342367624E-06	-0.988054118158155	-0.0831984705810643
10	-0.0886983575591054	-0.970854979030648	-3.64260067987625E-06	1.62774502220467E-06	1.9218353955324E-05	-1.82037083902256E-05	-0.990308220122265	0.0430164798467675
10.1	-0.167643421645019	-0.957090795392821	-1.47521207233685E-06	2.30713136802063E-06	-8.43584785099505E-06	-4.29494056311256E-06	-0.976810176634546	0.167794535747119
10.2	-0.243882190007121	-0.93694644369901	-2.31240180128003E-06	-1.23707179465392E-06	-1.29095939055378E-05	7.25452582323656E-06	-0.947585467542178	0.289797737977723
10.3	-0.316876870144256	-0.911042844188236	5.77174651912962E-06	3.91946183933448E-06	-6.14908477792934E-06	1.38691109144595E-06	-0.903909313144949	0.406708728058433
10.4	-0.387380508404073	-0.88030097592357	2.10305781849575E-06	1.04604230578411E-06	6.98886983539933E-07	-8.22544701310155E-06	-0.846105323460591	0.517624003258013
10.5	-0.455058532532519	-0.8432405936209	4.36778639389593E-07	-3.06583348112497E-07	-6.61839982946003E-07	-5.63394506065866E-06	-0.773189602679826	0.621537941327334
10.6	-0.517944221141242	-0.800808567897416	5.08442989596197E-06	-2.61540389970197E-06	-9.7645177598568E-06	-7.8624441817218E-06	-0.68688987371615	0.712806280210276
10.7	-0.576353491042463	-0.754231508549501	-2.81469867361445E-06	-4.95828113550233E-07	-5.24021103134263E-06	-7.15441509241148E-06	-0.591217709831904	0.792101664329589
10.8	-0.630583512726303	-0.705009572507284	-3.62097128412689E-06	-3.43305083107183E-06	-1.19352639845361E-05	9.16869474520481E-06	-0.487022482287382	0.858626870152072
10.9	-0.681887573798995	-0.652900099013015	-1.1407108443695E-05	-1.03787145518549E-05	-4.43855677703585E-06	1.09653665462015E-05	-0.375991039347168	0.912335019756178
11	-0.727772515378956	-0.597596391611212	1.01349351813865E-06	1.40346493477184E-06	8.62910860174064E-06	-5.51687257279542E-06	-0.257564019893438	0.950982475433927
11.1	-0.771035097874315	-0.541938031878167	-3.3335260854601E-07	-3.62520276603184E-06	1.0144708361971E-05	-1.02026321785614E-05	-0.137426074763959	0.974323490996666
11.2	-0.812157084564603	-0.482345130570439	-1.0372828125133E-06	-3.90612020501896E-06	2.14733923425763E-06	-6.30611194207727E-06	-0.014172306905695	0.983419104106816
11.3	-0.849286856831283	-0.418533939899604	1.61237396644527E-06	-1.20302861690524E-05	3.5562455390638E-06	-2.82392397360677E-06	0.109300151629705	0.976903413554893
11.4	-0.880857103158778	-0.351594947308833	9.85219375574703E-07	1.67543826297389E-08	-5.66937780249218E-06	6.46115951966838E-06	0.231503809067837	0.95518798973259
11.5	-0.907562534396459	-0.283237668312188	6.53516800335195E-06	-1.2441921480183E-06	8.22497751830585E-06	-3.1880941173087E-07	0.349480713709931	0.918054610075797
11.6	-0.930932153956109	-0.21150987498764	-6.44016314567585E-07	-5.32115908040153E-06	1.43301429351031E-06	-3.07855661263343E-06	0.46214595498145	0.86607021972377
11.7	-0.946999637499773	-0.135769017658216	-1.02559356449165E-07	-6.0376418139529E-06	8.87211794302621E-07	-2.65517806219775E-06	0.566907675167231	0.800527796584405
11.8	-0.956563287998011	-0.058150492281301	-1.07028980983348E-06	-7.37683636622457E-07	5.15662095962222E-06	1.0682513030412E-06	0.662656446244278	0.722828743770296
11.9	-0.959508456340123	0.0212832647945084	-3.21694430831302E-06	-5.18974401904712E-06	-5.38664498417557E-06	-7.98029753690543E-06	0.747225039249984	0.635245552234228
12	-0.954801525693301	0.10037544348991	-2.93655483933117E-06	1.64247248910888E-06	-1.67070092290155E-05	-8.71093183749112E-06	0.823063785453362	0.538233602861501
12.1	-0.944395866863689	0.178435881921017	8.20904469705454E-07	-1.56447542433336E-06	7.85638352099221E-06	1.22314368278195E-05	0.884509979107483	0.429095469866935
12.2	-0.926633633089915	0.255655532617549	-4.08644354064418E-06	5.53571195630355E-06	4.17880668678822E-07	3.30127624106411E-06	0.93127537477146	0.314386222790706
12.3	-0.903549104419421	0.330657277741818	7.81207305087022E-06	6.36427983368264E-06	4.23433655679143E-07	1.08583046676543E-05	0.963526455178898	0.194408300367082
