# GHZ S RI R 50
0.2	0.986122163665877	-0.156844168084547	2.56467703614963E-06	2.25079529671055E-06	6.57268324652899E-06	-4.8690753318997E-06	-0.966556780801573	0.251519743784407
0.3	0.970085791156922	-0.234029684208556	-8.73501787261839E-07	-5.45578006364205E-06	-3.46682627443045E-06	-7.94845147360699E-06	-0.927020747114875	0.37153282309506
0.4	0.948568122793847	-0.309465812457453	-7.28184904456805E-06	-9.91819580184861E-07	4.44289704538336E-06	1.54582926313383E-06	-0.872390424155507	0.485342765039598
0.5	0.9214624611309	-0.383079074384496	6.20240568628224E-06	2.10480382832596E-06	-2.41525275984665E-06	-1.90846466995248E-06	-0.803873712961003	0.591730957555451
0.6	0.888319664346442	-0.453920795736248	-1.05545351801853E-05	2.46277772102737E-06	-2.2192461863615E-06	-1.00718208514999E-06	-0.722278294697286	0.688116365675599
0.7	0.850208000184468	-0.52164319570495	2.78520190156925E-06	-1.17262346766255E-06	-2.98846172672924E-06	5.79064677759008E-06	-0.629661443625762	0.773612806913123
0.8	0.806878905228897	-0.586668280736045	1.17680760926158E-06	-8.47977753697543E-06	-6.62375452244248E-06	-3.07132471378158E-06	-0.526909499519327	0.846638938221445
0.9	0.758573594679346	-0.648383368335958	-1.14741888208586E-06	-6.81322818802302E-07	2.54992387647069E-06	6.54684460579941E-06	-0.41592560660519	0.905987341447197
1	0.705151128450939	-0.706512629998481	-2.74719861081528E-06	-3.22361398454097E-06	-4.07236744109549E-07	-7.32029198652773E-06	-0.298626070141319	0.950696769472112
1.1	0.647759427199431	-0.760054526179915	1.80533388966629E-06	-4.94376542927815E-06	2.26886289582561E-06	-5.13752862013638E-06	-0.176400978506361	0.980510051162211
1.2	0.58501583287451	-0.809560314182148	-2.49491788607001E-06	2.49331702781654E-06	9.25796633081882E-07	-9.11505440689126E-07	-0.0511221059403728	0.994413293655482
1.3	0.516968061950645	-0.853870946600324	-1.53737952695156E-06	7.20297280269836E-07	-1.35440470011184E-06	1.46401703984138E-06	0.0748517115075624	0.99262438633801
1.4	0.446008120226574	-0.89196619041822	3.91891461280962E-06	-3.24212625711201E-06	2.70948966189648E-06	1.09338768037933E-05	0.200039390084037	0.974537222355634
1.5	0.373277519337255	-0.923629361864978	-5.33358259425078E-06	1.11220697627524E-06	6.58165359170779E-06	-7.20651714681443E-06	0.321636621580361	0.941209781116284
1.6	0.300041801211199	-0.94966903972544	1.77300031678808E-06	-7.73493751573361E-06	3.63025383297832E-06	1.38063099931106E-06	0.437572952154137	0.892753931888882
1.7	0.226006101372562	-0.96984115730809	-1.94084730964131E-06	-9.68758053601737E-07	-2.35703580244527E-07	-2.08613879248448E-06	0.545808191138926	0.830953811356274
1.8	0.149676330523504	-0.984641021565145	2.85028042086097E-06	5.27805393672259E-06	4.15530545210875E-09	2.03109891998575E-06	0.64582115829549	0.755683809062662
1.9	0.0724344612963063	-0.993557560944258	5.67463646273823E-06	-2.63080080277429E-06	-2.99813059605583E-06	4.1542217876079E-07	0.735033571704535	0.668719344745206
2	-0.00479487784893043	-0.996588732990744	-1.54906743207337E-06	-2.02792399372483E-06	3.21310603852342E-06	1.14649117655612E-05	0.813347139127824	0.571087358646073
2.1	-0.0839800225456198	-0.993229048578837	-7.55767585003474E-06	2.4598897030297E-06	1.21029113338495E-06	5.14888291752649E-06	0.878531101869752	0.463986395646192
2.2	-0.160627853083437	-0.983519409052901	-8.82994077660853E-07	1.39534391665117E-06	3.00831193428218E-06	7.77940401936079E-06	0.929739411693767	0.349851667748163
2.3	-0.237585553079263	-0.967527768034495	1.81925902434803E-07	7.45722683143608E-06	7.40408777063772E-07	9.39001466670587E-07	0.965728652450254	0.230739081552421
2.4	-0.313225116360573	-0.945431545192581	1.58111339519958E-06	7.17837602225803E-06	1.52280059571692E-06	6.39125508388702E-06	0.987059191888579	0.107209316912003
2.5	-0.38648152807678	-0.918364266934697	4.39428817839024E-06	-2.31594546646872E-06	-1.91585175918498E-06	-7.57800177828937E-06	0.992501572905613	-0.0171555543112034
2.6	-0.458064105024547	-0.884897708048644	6.77622435875215E-06	-5.9523922433488E-06	-1.11100263509395E-05	1.08410596607158E-05	0.982718987187626	-0.142028505275291
2.7	-0.526858578365905	-0.845741940463186	-4.44390201143712E-06	9.15373537051003E-06	-2.87924029404789E-06	-9.16776050910304E-06	0.956874995982979	-0.264767714706399
2.8	-0.591357211521038	-0.801736089190887	2.46065086686348E-06	1.14348011770265E-06	-3.13042301558241E-06	1.24658929977459E-06	0.916518771370152	-0.382669520684339
2.9	-0.651903996977229	-0.753277762997535	-5.50012065316112E-06	6.023977740729E-06	-9.20154901619478E-06	-2.77341383483464E-07	0.861166926594915	-0.494372673146893
3	-0.709122649883053	-0.699420818987481	4.71159461096854E-07	-1.4742472517074E-06	1.13326485441377E-05	1.45249132638359E-06	0.792368273430908	-0.598475626097326
3.1	-0.761611728913139	-0.64177706589706	2.41560858269996E-06	1.04947417384277E-05	4.32753968231257E-06	2.17009570401869E-06	0.711382979017707	-0.692652289907565
3.2	-0.809269004965827	-0.58044889320902	2.10947349764826E-06	6.46316632457473E-06	3.99118328570016E-06	-1.06069503982086E-05	0.619318137699238	-0.776169398369131
3.3	-0.852030117493044	-0.515760448733344	3.08422582575367E-06	4.95801353244013E-06	-2.23096823587225E-06	-9.66397155278968E-06	0.516317573575233	-0.848029914932539
3.4	-0.888801106666564	-0.4482472635575	2.12255633765116E-06	-2.60395066052648E-06	5.95564938131981E-06	1.37817382194135E-06	0.406458891712228	-0.905895719184682
3.5	-0.920890958313617	-0.376940150975996	-3.23756316279772E-06	9.47187459621723E-07	-2.07064692100336E-06	3.42211305764782E-06	0.289761968883919	-0.949682870035139
3.6	-0.947683552646751	-0.303642544268496	-1.81445623062728E-06	-3.74192818316234E-06	-7.81933800633639E-06	4.10968708562306E-06	0.168194683456431	-0.979143696918028
3.7	-0.968328194414618	-0.228716980060622	8.1612349963021E-07	-8.32463086050635E-06	1.0767225031129E-05	3.68820970405429E-06	0.0430210636772775	-0.992495792725495
3.8	-0.983296594662003	-0.151693987668711	9.30326998807006E-08	1.54605912980014E-06	-6.51178460055153E-06	5.95305858810484E-06	-0.081956666872202	-0.989717224661029
3.9	-0.992037900616707	-0.0743299096253582	-2.62927326192015E-06	-5.0238667187537E-06	-3.6971165841955E-06	8.02382034354854E-06	-0.207077011927996	-0.971195110542876
4	-0.994948266458297	0.00457101615236587	7.12620470677294E-06	-3.85680136969315E-07	-1.04518538750903E-06	-1.20462949670559E-06	-0.326467950989464	-0.937520580834834
4.1	-0.991670892256322	0.0829406205548105	6.19209999560051E-07	-4.44019754078388E-07	7.34795005893057E-06	-4.75802212618721E-06	-0.44185258960692	-0.889486519582844
4.2	-0.982270858064551	0.160942266377018	3.20539734655618E-06	2.10129705788527E-06	-7.18533191286074E-07	-7.61551642645189E-07	-0.550309867202729	-0.82668531229305
4.3	-0.966991483417729	0.236936675373334	-3.18899540039791E-06	1.37313345952431E-06	-4.99547695930863E-06	2.98307150758527E-06	-0.649811712370686	-0.75145620374115
4.4	-0.945965143820249	0.311626503430981	8.0440995941675E-07	2.64299219339684E-06	1.55353779504687E-06	-8.33442565805084E-06	-0.739115448826691	-0.663951474104318
4.5	-0.919039860800527	0.385116271111021	1.82493448874073E-06	-9.40351009588066E-07	7.63643419657047E-06	-2.55943314015887E-07	-0.816738446927705	-0.565596296595823
4.6	-0.885701567467344	0.456757272697368	-7.29001505410407E-07	6.13384806282437E-06	-1.23522091661904E-05	-6.48821805996647E-06	-0.880706808206815	-0.458585279556629
4.7	-0.84724820503534	0.524204579842312	1.20215032376046E-06	2.51271152324204E-06	1.42180342173624E-06	1.86774377052328E-06	-0.931516270842698	-0.344791788692438
4.8	-0.802802027836862	0.589717093140751	-5.18352485347502E-06	1.11353765991372E-05	5.2348706626735E-06	9.69833916535599E-06	-0.967445243789894	-0.224814324568526
4.9	-0.75358139420175	0.650885440885017	1.19919986352733E-06	2.93365257605044E-06	-4.82408665872805E-07	-6.9178723630553E-06	-0.987945880916335	-0.100703151151806
5	-0.699457117451102	0.707845495290454	4.74221409122816E-06	-9.09480700140313E-07	-3.74379912206445E-06	2.42340779438628E-06	-0.991680620540495	0.0245661700928478
5.1	-0.641088708136019	0.760303232238181	4.13476757157958E-06	-1.3861777488268E-07	-2.65046016218202E-06	-9.8164627409087E-06	-0.981023716714422	0.1483468827444
5.2	-0.579176422673643	0.808455266440865	2.6337697990096E-06	-1.49945421923521E-05	1.37639378971241E-06	2.82416228640214E-06	-0.955116363576804	0.271023535469583
5.3	-0.513880455660189	0.851659027793508	-8.71382133429154E-06	-7.90004432197923E-07	-1.13557604574335E-06	1.58073191549603E-07	-0.913523415410875	0.38973446461515
5.4	-0.445673534512878	0.889697349683746	-7.17490092824316E-06	-1.10706055481896E-05	-1.37561907840417E-05	1.11844746904728E-05	-0.856706136897502	0.501861384320004
5.5	-0.374784165287373	0.922286525184285	1.90619114137812E-06	9.15442864040596E-08	-2.24905721445792E-06	1.78234201887953E-06	-0.786686617563725	0.605169145007778
5.6	-0.301054122060996	0.948834963663564	-2.4147426150261E-06	3.51541961819283E-06	-1.34452960375846E-06	1.2893155221852E-06	-0.704710837935063	0.6985387174153
5.7	-0.225388991711633	0.969655808815125	1.3061480771931E-06	1.23411291814789E-06	5.76847987383748E-06	-1.12947624678178E-07	-0.612000069161553	0.781365878110012
5.8	-0.148424995115369	0.983826742370915	2.70094910744947E-06	4.26633260423085E-06	-2.11875094180166E-06	4.24435905651974E-06	-0.509272144662044	0.851964070639414
5.9	-0.0710673670204361	0.992014228108032	-6.89091114961176E-06	-2.31113986728667E-06	-8.45760973598986E-08	6.29608333715224E-06	-0.398865097901279	0.909339660356185
6	0.00618497078534152	0.994719059835207	-1.79520771631264E-06	8.73355030534694E-08	-5.46431276018775E-06	-4.40444290671219E-06	-0.281636194473999	0.952791458811227
6.1	0.0842772696925128	0.991187550452768	5.42002615984096E-08	-9.9326648149014E-06	-9.81177966227027E-07	-3.22190349857466E-06	-0.159262018335486	0.980219931742911
6.2	0.162314119317936	0.981201924367686	-1.02666174769194E-06	3.1164217776314E-06	-1.76609592287079E-06	4.21911810772425E-06	-0.03438447536513	0.991555815114042
6.3	0.239603350115761	0.965208608889211	-8.09035343945851E-07	2.83395834171575E-06	-2.94458805819481E-06	2.39670627580338E-06	0.0905076162755631	0.987338090810729
6.4	0.315545921352376	0.943394546675255	-5.98374056356594E-06	5.55136352932455E-06	-2.38570499545421E-06	-7.52400332542037E-07	0.214177042306825	0.96796334575275
6.5	0.390492339088181	0.915862639465806	1.40806762034629E-06	-5.28888130993312E-06	-1.45184007054041E-06	-2.38281647763409E-06	0.335029174821547	0.932833381666942
6.6	0.46229584894861	0.881308073851436	3.66240084301341E-06	2.08876672354068E-07	1.13301431252694E-05	-2.6889448134234E-06	0.449321328433079	0.882287772021907
6.7	0.530639472607154	0.841518276208472	-7.77488428086238E-07	8.49374288305694E-07	-3.77595086398628E-06	5.24258879886016E-06	0.555784407844912	0.81888690790406
6.8	0.595666034401447	0.796563445578727	-1.75632293078581E-06	4.49693425741072E-06	1.4560628712696E-06	-8.85680790424881E-07	0.653789306795298	0.742829630711481
6.9	0.656738794220499	0.746598924444388	5.92992002884075E-06	2.24978329382039E-06	-9.31771568786727E-07	2.41984890944749E-06	0.741502158597805	0.655100671113301
7	0.713534601669727	0.692010277210828	1.14312833298866E-06	-4.15635429858673E-06	-1.43097947704064E-06	2.92140765819339E-06	0.817719030122569	0.556996054199395
7.1	0.765966584742467	0.633323326239474	2.40687539629118E-07	-7.19295291253011E-07	1.97424947231662E-06	9.2042739471168E-06	0.880836466696067	0.449937312396249
7.2	0.813631634252321	0.570164168933282	1.38785438781469E-06	-2.41789177137758E-06	-1.01297948969578E-06	-8.58078113747693E-06	0.929874599774491	0.336119037881615
7.3	0.855945366708935	0.503023114717171	4.84744533881433E-06	7.23612201473137E-06	-9.730414982392E-06	2.34171777002371E-06	0.964022491356235	0.2168143137536
7.4	0.89282225289333	0.432536380440589	5.09914882651545E-06	-6.88432119593177E-07	1.93221041341424E-06	-9.64756741858744E-06	0.98285720792259	0.0939183400270144
7.5	0.923852285208771	0.359958670960967	2.74151390596521E-06	-5.30594498043002E-06	2.09174942983188E-06	-7.27486791674373E-06	0.986221333359411	-0.0294331000449374
7.6	0.950116948450074	0.2846843775161	-3.13183811453937E-07	-5.63721000974637E-06	1.67720638347698E-05	3.87010770687067E-06	0.975191177614515	-0.153252811282894
7.7	0.969962031132381	0.207226033436839	3.51863759694929E-06	1.1119577627897E-07	3.24244650107722E-07	-2.925534856662E-06	0.948216888396259	-0.274902166754503
7.8	0.983389695633588	0.12861680227828	-1.09784329259871E-05	-1.9232352744501E-06	-2.04099282876926E-07	3.43928089326007E-06	0.906243244952927	-0.391938967278218
7.9	0.990467881904242	0.0493761708500122	2.35510045421167E-06	2.03283007577902E-06	-6.9407485319688E-06	-4.71707395669417E-06	0.850224732484798	-0.502380310133799
8	0.992139765058742	-0.0300703661899712	2.34960156872894E-06	2.9580483561099E-06	-9.3317802785144E-06	-7.61341207118033E-06	0.781777381263318	-0.60545531585742
8.1	0.986634082620688	-0.110644575792369	3.83344256836166E-06	-3.06950392899014E-06	2.15195740916562E-06	-3.18611439850852E-06	0.699822760662353	-0.699709357350949
8.2	0.974219229238816	-0.189633167424335	-4.04172387611376E-06	1.41593422779516E-06	-6.7622349781284E-06	3.57719834445999E-07	0.606723053170576	-0.782262045049623
8.3	0.95519933901958	-0.267525281274824	9.87865994432461E-06	2.99133676541824E-07	6.25073232796876E-06	1.04665878721451E-05	0.503833034990139	-0.852361475075643
8.4	0.929917477161203	-0.34361901473239	1.28705454942707E-06	2.56090932620145E-06	3.46641166525694E-06	1.82593512930531E-06	0.392762552512496	-0.90910097344741
8.5	0.898643139776669	-0.417802731408942	-4.84819354703537E-06	4.97260551474648E-06	2.8569770969784E-06	-3.02781808335816E-06	0.275213184144173	-0.9506896522508
8.6	0.861191171295499	-0.48914648420748	-4.50531575274363E-06	2.09261076742055E-06	-3.04004110214458E-06	8.13210545573503E-06	0.15433321518566	-0.977931649329651
8.7	0.81822827778813	-0.557177504601694	-1.02282679765846E-06	1.21879919343787E-06	-6.44540421703282E-07	3.470323426976E-06	0.0303254673052182	-0.990218905891647
8.8	0.769926693977571	-0.621378551466106	-1.58728072596631E-06	3.08688549740415E-06	-6.02176484249276E-06	1.29024295304031E-06	-0.0943591344950189	-0.987142407515675
8.9	0.716798673097201	-0.681521006053686	3.18177261461656E-06	-1.83904751488606E-06	-3.17426151647582E-06	-4.56053564018296E-07	-0.218691180481272	-0.967783602215586
9	0.658644206375736	-0.736817150701787	-7.30305249561684E-06	1.3648575555096E-06	-3.98675491892691E-06	7.32658877699595E-07	-0.33896581435934	-0.931989270209442
9.1	0.596738311474664	-0.787208380651345	-3.36466673357646E-06	-1.88244000984273E-06	-9.82890615719375E-07	2.14084851032811E-06	-0.453383970952174	-0.882205163814654
9.2	0.530498089293563	-0.83243201658392	5.99334004271157E-06	-1.65240348127858E-06	2.0030324540065E-06	8.49278732158323E-06	-0.560968398607897	-0.818552430359706
9.3	0.46091927298526	-0.872084418034928	-3.38061757905676E-07	1.07269675489504E-06	1.37067720643765E-05	1.18253394753706E-05	-0.659528104111878	-0.741064659430716
9.4	0.388008491933439	-0.905577234766759	1.72901393137468E-06	-2.66683702450945E-06	4.29422505535061E-06	1.75312882925826E-06	-0.746639393925267	-0.651577275509342
9.5	0.313088119171146	-0.932863971898001	-6.51060924891566E-06	-4.88582108613985E-06	-1.94955893413013E-06	-5.70387709955571E-06	-0.821293207309572	-0.552028034878054
9.6	0.234626594586281	-0.955052091459719	-1.16876215625542E-05	-2.6084056145766E-07	-5.92790169270642E-06	-4.01609192464211E-06	-0.88387030724839	-0.44525285867305
9.7	0.154199941317815	-0.969669035596934	1.46898774143986E-06	-4.78744039490411E-07	-2.91964490788014E-06	1.64289828870709E-06	-0.933328348532314	-0.330601409820132
9.8	0.0732536940115144	-0.977127283559448	2.2080431443454E-06	1.40142862517394E-06	1.51141617709897E-05	-3.50844421362952E-06	-0.96777765806915	-0.210545440302441
9.9	-0.00764288612374796	-0.977471303160795	-3.4632392210468E-06	8.98136463739381E-06	1.37740396608057E-05	4.99255430242483E-06	-0.987489145052545	-0.0864311921573218
10	-0.0873216315068978	-0.971094839175794	-3.64719145183773E-06	1.62282695395672E-06	1.92579106220642E-05	-1.81830263915507E-05	-0.990398685198601	0.0400102439083525
10.1	-0.16613274845795	-0.958007357660603	-1.47962104269978E-06	2.3073341473427E-06	-8.43803626223843E-06	-4.31003981564463E-06	-0.976966584216606	0.165011794706939
10.2	-0.242761186182072	-0.938488295976585	-2.31364611728405E-06	-1.24047997906599E-06	-1.29295982988037E-05	7.25010423892467E-06	-0.947911572114758	0.28702820624137
10.3	-0.316264267866748	-0.912824874637302	5.77474419489034E-06	3.92615565791682E-06	-6.15535093989325E-06	1.38475518229507E-06	-0.904343664422544	0.404061127704714
10.4	-0.387097845612452	-0.882138473693947	2.10364634723389E-06	1.04689722503743E-06	7.0091979152382E-07	-8.22847585160022E-06	-0.846241379567661	0.514982553931972
10.5	-0.455202432822534	-0.845353604068594	4.36736523818731E-07	-3.0616292288368E-07	-6.58120073718512E-07	-5.63142780161977E-06	-0.773276483898998	0.617935155815799
10.6	-0.518834455473833	-0.80266729291673	5.0839817136903E-06	-2.60718092857132E-06	-9.74764023264961E-06	-7.86886141812359E-06	-0.687861994309982	0.708665965484466
10.7	-0.577709709232463	-0.755548609906704	-2.8117594281539E-06	-5.00112245295636E-07	-5.22442822313384E-06	-7.15770025094679E-06	-0.593124982233248	0.788073946895439
10.8	-0.632071179078904	-0.705527847527056	-3.61167672666476E-06	-3.43756243408464E-06	-1.19443219739589E-05	9.13887689154521E-06	-0.489618214939314	0.855105272169018
10.9	-0.682849255824886	-0.652890061298045	-1.13768377873007E-05	-1.03971114836614E-05	-4.45983574463283E-06	1.09484703859396E-05	-0.378900161740105	0.909497838795109
11	-0.728801496378733	-0.59793746533868	1.010562222988E-06	1.40559239322446E-06	8.64069419572843E-06	-5.49884613657513E-06	-0.260178415313915	0.949250509309332
11.1	-0.772143316215631	-0.541572823888937	-3.27876909020692E-07	-3.62454674688416E-06	1.01566037882463E-05	-1.01843689610065E-05	-0.139052068095571	0.972289619675
11.2	-0.812812803175084	-0.481779908241268	-1.03045093286996E-06	-3.9054063195064E-06	2.15605805681714E-06	-6.29888838295589E-06	-0.0160027862062136	0.980871762266655
11.3	-0.849616455036559	-0.418038081791497	1.63279498715012E-06	-1.20201636122934E-05	3.55912259762851E-06	-2.81589684950444E-06	0.106933715914788	0.974392490707823
11.4	-0.880922493709442	-0.351449782503068	9.84709568573911E-07	1.87269293998045E-08	-5.67962721879507E-06	6.4466395711031E-06	0.228700582120966	0.953113816835875
11.5	-0.907878906184339	-0.283132716921808	6.53561905384751E-06	-1.23058404872409E-06	8.22302340414628E-06	-3.02076679145048E-07	0.346650195856028	0.91657036656416
11.6	-0.930719448160602	-0.211356646938623	-6.3176332145122E-07	-5.32140745751699E-06	1.43969038015313E-06	-3.07459251763589E-06	0.459417731115525	0.865073170304059
11.7	-0.946363017044961	-0.136031693592499	-8.77464816984221E-08	-6.0383053543628E-06	8.93789651781084E-07	-2.65318142831479E-06	0.564367599016892	0.800160065890888
11.8	-0.95554404179621	-0.0590457585917318	-1.06888790073672E-06	-7.40725026410531E-07	5.15617707903901E-06	1.08181131858045E-06	0.660730879802765	0.723200938666812
11.9	-0.958082668449046	0.0191135025039474	-3.20781697335719E-06	-5.20269247940135E-06	-5.37305631175911E-06	-8.00125893224775E-06	0.746998825771338	0.635936774248466
12	-0.954480699895744	0.0968249448912545	-2.94231568805311E-06	1.63917160934952E-06	-1.6709234673332E-05	-8.748045198573E-06	0.823637321407245	0.537482203715328
12.1	-0.945635894054813	0.17433501197745	8.24242635156213E-07	-1.56491207331112E-06	7.84594028721385E-06	1.22570937662868E-05	0.885267769766747	0.427330029342765
12.2	-0.929360770356738	0.252098530253603	-4.09674425778913E-06	5.53805235546037E-06	4.15057287934756E-07	3.30553375315854E-06	0.931519148773272	0.31156570779724
12.3	-0.90714163686415	0.328134130077673	7.81564277807387E-06	6.37384070964331E-06	4.18245671916218E-07	1.08680111004162E-05	0.962724608623557	0.191170390224161
