# GHZ S RI R 50
0.2	0.985262556746519	-0.156939930652349	2.56378891304214E-06	2.24790473752072E-06	6.56546075586967E-06	-4.86845850711006E-06	-0.965761629462995	0.252030174209065
0.3	0.969116250395114	-0.233986182265901	-8.7562803683616E-07	-5.45000930907701E-06	-3.46779456572989E-06	-7.93884806299384E-06	-0.92583207846626	0.372037927524186
0.4	0.947456664491816	-0.309244738986395	-7.27308870660959E-06	-9.86399222487458E-07	4.43808820248525E-06	1.54131741826927E-06	-0.870731437971629	0.485609624123893
0.5	0.920366035493225	-0.38240564145008	6.19310938000124E-06	2.10019054312729E-06	-2.4118623342915E-06	-1.90495833029678E-06	-0.80207020058935	0.591270396549794
0.6	0.887559784951018	-0.453235046631282	-1.05400943583768E-05	2.46080149684501E-06	-2.21640072316532E-06	-1.00555562299025E-06	-0.720760029369848	0.687518089870473
0.7	0.849403372781613	-0.520987969072043	2.7808667946552E-06	-1.17157974386116E-06	-2.98273006068406E-06	5.78292700859953E-06	-0.628025675217202	0.772796019356932
0.8	0.806012781667491	-0.585883778313759	1.1731184193722E-06	-8.46605743055146E-06	-6.61348191514774E-06	-3.06489927325207E-06	-0.525300800561054	0.845420206495907
0.9	0.757724194267034	-0.647384093943159	-1.14540094091515E-06	-6.79994190081513E-07	2.54586224074192E-06	6.5347899285943E-06	-0.414520063909168	0.904376065650533
1	0.704458264933077	-0.705386774899112	-2.74176850735283E-06	-3.21785756495744E-06	-4.0578697853538E-07	-7.30667058903528E-06	-0.297564250053938	0.948741765573319
1.1	0.647098694881101	-0.758820784482588	1.80326247442445E-06	-4.93410804324184E-06	2.26598028724271E-06	-5.12739071781225E-06	-0.175922097874574	0.978377661705001
1.2	0.584573691671742	-0.808185786081714	-2.49188312497546E-06	2.48774181935269E-06	9.24663531854181E-07	-9.09460271232414E-07	-0.0513272784129033	0.992406267537195
1.3	0.516906308839135	-0.852528221624929	-1.53579252187898E-06	7.18036293783642E-07	-1.35367790045183E-06	1.46085439763803E-06	0.0739615084239661	0.99103308790728
1.4	0.44631052245023	-0.890980180011849	3.91801663217808E-06	-3.23496023559241E-06	2.6960486666746E-06	1.09252061502147E-05	0.198788450281218	0.973373062376791
1.5	0.373157531106131	-0.92294764501594	-5.32930488494344E-06	1.10695859889772E-06	6.58094143711667E-06	-7.19440927678972E-06	0.320064894010733	0.94006563635651
1.6	0.29987406158755	-0.948347633438793	1.77615817565491E-06	-7.72360029577271E-06	3.62454507611418E-06	1.38139803079805E-06	0.435830797195759	0.891838638161288
1.7	0.226096513615064	-0.968285018426143	-1.9370968092528E-06	-9.68677366045629E-07	-2.33793622600491E-07	-2.08305107099773E-06	0.543975653358587	0.830054574976202
1.8	0.149923671690291	-0.982927744747946	2.84151050149617E-06	5.27089775548813E-06	2.686569924007E-09	2.02755883144322E-06	0.643877478833751	0.75487223477216
1.9	0.0726855019747833	-0.991618859434383	5.66433324187486E-06	-2.62276414979283E-06	-2.99222619142158E-06	4.13159159774846E-07	0.733101975898702	0.667757530628681
2	-0.00421592413000702	-0.993763933354384	-1.54276369581241E-06	-2.02264750307729E-06	3.19489242819167E-06	1.14311560447624E-05	0.810199037238462	0.56971664303918
2.1	-0.0821723363420766	-0.990503143752879	-7.5398374069871E-06	2.43880778557788E-06	1.19730433686378E-06	5.13587906753779E-06	0.874746983193859	0.464343719845313
2.2	-0.158358613932387	-0.981250963018623	-8.8346946352479E-07	1.39000186516969E-06	2.98520056816714E-06	7.7652708238581E-06	0.926486807531896	0.351072693052263
2.3	-0.234986011916832	-0.965577848693479	1.66335514524188E-07	7.43901809107873E-06	7.36658167220508E-07	9.38165082450333E-07	0.962866754392084	0.232437331015294
2.4	-0.310303705737498	-0.943794410520697	1.56181654799139E-06	7.16357577364586E-06	1.50532845565539E-06	6.3783228624462E-06	0.984491003161996	0.109266533021424
2.5	-0.383245288808113	-0.917092169888325	4.38831637584317E-06	-2.29920283425555E-06	-1.89245469589853E-06	-7.56267182040907E-06	0.990016947363713	-0.0146431279842757
2.6	-0.454520805122068	-0.884006738651624	6.77475060491405E-06	-5.91833369112944E-06	-1.11105623773066E-05	1.0782389952182E-05	0.980575329952579	-0.138903869219331
2.7	-0.522976297246304	-0.845308058115498	-4.46034988387772E-06	9.11557858823124E-06	-2.84321502127621E-06	-9.15220816048193E-06	0.955108310762254	-0.261073531444033
2.8	-0.587092513135383	-0.801877486501001	2.45007035398523E-06	1.14912044084168E-06	-3.1264939445006E-06	1.23222766620037E-06	0.915387838222042	-0.378392387302534
2.9	-0.647248703144906	-0.754376285668662	-5.51031601106194E-06	5.98598377814706E-06	-9.17652620022405E-06	-3.14012218422632E-07	0.86092227818773	-0.489805119279277
3	-0.705153575988541	-0.701832387237538	4.77122942544394E-07	-1.46918385390168E-06	1.13038483567852E-05	1.50254872234765E-06	0.792938225122857	-0.593930446185459
3.1	-0.758178527483132	-0.644091296968432	2.36570923500051E-06	1.04906772654024E-05	4.31183493281522E-06	2.18621659464313E-06	0.712885777840933	-0.688122767952152
3.2	-0.80587657727711	-0.583198881092887	2.07864137035234E-06	6.46470688529721E-06	4.03290128177312E-06	-1.05768229007606E-05	0.621789922934921	-0.772083380275468
3.3	-0.848987196053067	-0.519159442880977	3.05965826839875E-06	4.96774492480063E-06	-2.18613414192361E-06	-9.66610443696325E-06	0.519710001975381	-0.844663123649353
3.4	-0.8866050423776	-0.452241176501619	2.13353496728821E-06	-2.59466311535784E-06	5.94928584939816E-06	1.40355524456886E-06	0.410554931142217	-0.903884073286071
3.5	-0.91970449170859	-0.380369221281187	-3.24031897100048E-06	9.36928355767495E-07	-2.08127615476022E-06	3.41535483537858E-06	0.292741957375522	-0.948839514316884
3.6	-0.946090188204464	-0.307088774099363	-1.7992776610718E-06	-3.74555343442845E-06	-7.8280792090867E-06	4.07771206060866E-06	0.171491362298511	-0.977517119393186
3.7	-0.967193316383251	-0.232734184621681	8.50434055155679E-07	-8.31832260457369E-06	1.07481248639705E-05	3.73166525215591E-06	0.0471875156021334	-0.99161200016994
3.8	-0.982844783753803	-0.1559450716987	8.65195808968053E-08	1.54665932170346E-06	-6.5377853129091E-06	5.92637269621231E-06	-0.0775642201283385	-0.989917543304981
3.9	-0.992244204795866	-0.0786674970954585	-2.6095860091507E-06	-5.03658715549119E-06	-3.73154205021614E-06	8.01163181817649E-06	-0.203022461520859	-0.972408101679267
4	-0.995893778794468	0.000287016897207587	7.13078086454979E-06	-3.54406720601995E-07	-1.04029425109156E-06	-1.20972515137655E-06	-0.322875860164887	-0.939041337962869
4.1	-0.993133628457619	0.0789378216010625	6.21854134976858E-07	-4.41688399866351E-07	7.3770231140199E-06	-4.72982679621812E-06	-0.438297579335472	-0.891695832294196
4.2	-0.984125222886108	0.157174563011178	3.20084028385961E-06	2.11763468223289E-06	-7.16286621062552E-07	-7.65603994592772E-07	-0.547304281197196	-0.829575535086543
4.3	-0.969104288274945	0.23342565869701	-3.19897167467516E-06	1.3627263948835E-06	-5.01434083458774E-06	2.96797868857225E-06	-0.647445633224826	-0.754796106794216
4.4	-0.948053221278894	0.308067911133913	7.96046466651381E-07	2.64889368435268E-06	1.58466457442035E-06	-8.33864581586103E-06	-0.737326883660407	-0.667625286659796
4.5	-0.922228675896893	0.380769383814739	1.83010134160111E-06	-9.33022165137296E-07	7.64213906665748E-06	-2.23060820078523E-07	-0.815681280913169	-0.569875921129234
4.6	-0.890178662899993	0.453709803068213	-7.59656440242673E-07	6.14116576734489E-06	-1.2342907586249E-05	-6.55879625010781E-06	-0.880854247918559	-0.462901807335699
4.7	-0.851826771987359	0.522119993013111	1.1938961950479E-06	2.52400865848867E-06	1.41692498693798E-06	1.87847770880838E-06	-0.932492450214112	-0.3488756689246
4.8	-0.807493488647515	0.588225127814599	-5.24521193472961E-06	1.11440071802519E-05	5.20801879031464E-06	9.74735533799654E-06	-0.969097008450173	-0.228734701946083
4.9	-0.758745853486401	0.649728477105137	1.19011416498303E-06	2.94873937276124E-06	-4.53192912408258E-07	-6.94300009178155E-06	-0.990440931978782	-0.104863407452506
5	-0.705687421257166	0.708382299710309	4.76906132281764E-06	-8.95397412172473E-07	-3.77166495087732E-06	2.42066505774032E-06	-0.996523732434946	0.0211871584513964
5.1	-0.646023840456453	0.762338728416902	4.15494573029663E-06	-1.29209934848389E-07	-2.63926369817375E-06	-9.87002348303846E-06	-0.98577254834319	0.147237020161266
5.2	-0.583483835989901	0.810743949604344	2.67672875000576E-06	-1.50569847943116E-05	1.376780902527E-06	2.83979843627573E-06	-0.959529417851585	0.270604989967625
5.3	-0.51783035163671	0.85435376144075	-8.75190650878925E-06	-8.08137491848086E-07	-1.14097543197374E-06	1.56890509034588E-07	-0.917966907019567	0.39000293603365
5.4	-0.449177541474595	0.892759403716927	-7.19527233721229E-06	-1.1125728487893E-05	-1.38269019406568E-05	1.12196496920306E-05	-0.861145082932523	0.5029846262916
5.5	-0.378081536156605	0.925680599503476	1.91239187867342E-06	9.3486056483212E-08	-2.25799984663109E-06	1.7862783131324E-06	-0.790805235250389	0.607320914074531
5.6	-0.30382416710899	0.952873383143499	-2.42904175845255E-06	3.52427879844067E-06	-1.35143082497168E-06	1.29183622531846E-06	-0.708230352751943	0.701333407247384
5.7	-0.227508056165417	0.974072812944469	1.30983617334637E-06	1.24110745015581E-06	5.79266633530666E-06	-1.05228414457775E-07	-0.615035346515107	0.784707915380283
5.8	-0.14977862019024	0.988659434809007	2.70926384352703E-06	4.28891825326066E-06	-2.13287416855985E-06	4.26201645649625E-06	-0.511694351385186	0.855945136497356
5.9	-0.071138758460501	0.996981614362263	-6.92680072276994E-06	-2.32288745344413E-06	-8.47778359550282E-08	6.32879837476916E-06	-0.400199436785687	0.913813981739533
6	0.00644037691950723	0.998429739521895	-1.80180759781358E-06	8.99630368015552E-08	-5.49038782800276E-06	-4.41390611084853E-06	-0.282309825614216	0.956487355211554
6.1	0.0841219951784256	0.995889176123966	5.58624942551974E-08	-9.9662892245153E-06	-9.84020625918214E-07	-3.23295908945656E-06	-0.160255050935362	0.984726808505686
6.2	0.163408322273677	0.986482643944354	-1.03181344065273E-06	3.12917917163382E-06	-1.77464437646259E-06	4.23628617445662E-06	-0.0341898311822555	0.996835503740744
6.3	0.24197958082118	0.9700722860574	-8.121115021894E-07	2.84669125521632E-06	-2.95722777491517E-06	2.40788675472922E-06	0.0921692851020584	0.992432820514583
6.4	0.318368258556508	0.946912532564566	-6.00362277961076E-06	5.57568830137666E-06	-2.39519802106371E-06	-7.5400917452461E-07	0.216593195884709	0.971785104169813
6.5	0.391907530247526	0.919633192106716	1.41788037528614E-06	-5.30620883653568E-06	-1.45476391630292E-06	-2.39253836229095E-06	0.336229586732541	0.936880462139565
6.6	0.465397824388673	0.885981398574939	3.68120958680496E-06	2.11703974785264E-07	1.13899231941514E-05	-2.69741701319937E-06	0.452516417412477	0.887265008713887
6.7	0.534836205744647	0.845247851628728	-7.81133633633979E-07	8.54386837211902E-07	-3.79297902651943E-06	5.27290972443476E-06	0.560356512691767	0.82270431676477
6.8	0.600424557233501	0.799407394305107	-1.75978042425904E-06	4.52347756028007E-06	1.4627185338219E-06	-8.92388484205455E-07	0.65906606352467	0.745440126399514
6.9	0.661922288200026	0.748499830280532	5.96866764742537E-06	2.24925526298781E-06	-9.31633900763204E-07	2.43569156203381E-06	0.747199245324072	0.656340965727263
7	0.718697489556881	0.692966330602661	1.13240116267214E-06	-4.18113939435441E-06	-1.42650425242137E-06	2.94129094210684E-06	0.823008051466136	0.556925123687951
7.1	0.771234381141659	0.633746560921902	2.39008384931539E-07	-7.2287505985754E-07	2.01480642300994E-06	9.23190174921271E-06	0.886028930249695	0.449330847109415
7.2	0.819061680913078	0.569884858847833	1.38474441540069E-06	-2.43189762612762E-06	-1.04659224640482E-06	-8.60988964640967E-06	0.935095596567768	0.334592461665975
7.3	0.861520289404193	0.502059853367814	4.8922505207824E-06	7.24763925058451E-06	-9.76067899858227E-06	2.38542073213179E-06	0.969151890666916	0.214340018512327
7.4	0.898946092007893	0.43065502216959	5.12135223331471E-06	-7.10963758192109E-07	1.90530875364615E-06	-9.70174600941533E-06	0.98823733192004	0.090023596091792
7.5	0.929544498784688	0.355652262210739	2.72210230281517E-06	-5.35149375835521E-06	2.056326324025E-06	-7.32666879613518E-06	0.989784869058845	-0.0362172449833419
7.6	0.953949263242987	0.279978807001197	-3.54598994304161E-07	-5.65033461593021E-06	1.68456633658716E-05	3.75998687260011E-06	0.975927801754399	-0.159317452934053
7.7	0.97313951870521	0.202324525648165	3.52582569954876E-06	8.69685688347014E-08	3.04523850735749E-07	-2.93312066701028E-06	0.94797701517981	-0.28047498477727
7.8	0.986035925833957	0.12312700005796	-1.1005921616389E-05	-1.84778855853156E-06	-1.79961133039267E-07	3.44506647371885E-06	0.905074641822156	-0.397448790168968
7.9	0.992043025061154	0.0426937223452425	2.37217730614407E-06	2.01535506393667E-06	-6.98109020674635E-06	-4.66495530549488E-06	0.847388956609407	-0.508146484027891
8	0.990461858151434	-0.0362662731808585	2.36647646269355E-06	2.93366026656581E-06	-9.36773482756118E-06	-7.52596572746038E-06	0.776283105806507	-0.608744259586073
8.1	0.985385395919374	-0.114757870914751	3.81014414055772E-06	-3.08334105422314E-06	2.13132248465855E-06	-3.19104063110689E-06	0.696009076116593	-0.701231398763174
8.2	0.973325790212087	-0.193793133718413	-4.03020624833638E-06	1.43412454627915E-06	-6.75281574147712E-06	3.90434623412766E-07	0.603179936424343	-0.783981904552194
8.3	0.95405949480649	-0.271856706132396	9.87131807200119E-06	2.50262090810941E-07	6.29665288194636E-06	1.04264949912268E-05	0.499983923720619	-0.853952558749967
8.4	0.928247791776077	-0.34802197716353	1.29830232579342E-06	2.55301397716569E-06	3.47264958985894E-06	1.8082159275081E-06	0.388510546943468	-0.910508964825115
8.5	0.896354104217005	-0.421926718965459	-4.82140782405181E-06	4.99751708098698E-06	2.84067908091088E-06	-3.04248603787161E-06	0.269923961401609	-0.951407782345787
8.6	0.858450442385027	-0.493023266740689	-4.48874164649865E-06	2.11694134298632E-06	-2.98956123217584E-06	8.14205332442873E-06	0.14905477098449	-0.977166079363914
8.7	0.81487048638777	-0.560646600775563	-1.01424545280114E-06	1.22243034967196E-06	-6.24004536822829E-07	3.46796672769929E-06	0.0254354043998646	-0.988419683407813
8.8	0.766096544414224	-0.62417457249895	-1.56772902498649E-06	3.08767995074985E-06	-6.00088142411569E-06	1.3179773591205E-06	-0.0985157415950329	-0.984420774080825
8.9	0.712901867988637	-0.683640622334485	3.16536172421343E-06	-1.84690489503879E-06	-3.16724876916129E-06	-4.41809177156136E-07	-0.221622091922409	-0.964948056361573
9	0.654468031731785	-0.738956130988872	-7.28651754345571E-06	1.38860969386065E-06	-3.97777255673278E-06	7.45645107764426E-07	-0.342709437215267	-0.929927824579947
9.1	0.591851657822158	-0.788580635306346	-3.36746253123482E-06	-1.86356896186098E-06	-9.71260964000383E-07	2.14163356089594E-06	-0.45737775649117	-0.878117997703979
9.2	0.525437201812794	-0.833058174867058	5.9715520865447E-06	-1.67764334857346E-06	2.0395766311088E-06	8.46355303416697E-06	-0.56391499738209	-0.813404831469969
9.3	0.455866845575045	-0.872175381685916	-3.31954591914629E-07	1.07162922624733E-06	1.37298610026056E-05	1.17282580709025E-05	-0.661484197232034	-0.735464317123907
9.4	0.38285891581768	-0.905919964955264	1.71133980699014E-06	-2.67018381826724E-06	4.29421296023689E-06	1.72687735853268E-06	-0.748313723076294	-0.646011794965639
9.5	0.3055664954383	-0.932308268089218	-6.52471703102556E-06	-4.82291080902254E-06	-1.98441005671941E-06	-5.67124504082752E-06	-0.822673614148949	-0.544187514251379
9.6	0.227881869548219	-0.95157255242188	-1.16277316389597E-05	-1.87277207696168E-07	-5.92151482125383E-06	-3.95834417721086E-06	-0.882083045306509	-0.437190383482035
9.7	0.148641536174976	-0.965364753555467	1.45830500653004E-06	-4.83887585064138E-07	-2.89474308706054E-06	1.64928927338097E-06	-0.930021013338391	-0.323540870993295
9.8	0.0683275790047701	-0.972252453879474	2.20205668841582E-06	1.38231998715668E-06	1.50084328000225E-05	-3.56262626036298E-06	-0.963316746294875	-0.204332264132814
9.9	-0.0123014237531434	-0.971781648980589	-3.39900642238433E-06	8.93872829380253E-06	1.37071749098249E-05	4.89612789116147E-06	-0.981973353097414	-0.0812723469126716
10	-0.0911277171102453	-0.963732890348648	-3.61514681475803E-06	1.62450932107537E-06	1.9053632418794E-05	-1.81230455977359E-05	-0.984279474524067	0.0441374025825759
10.1	-0.168090689287947	-0.950077653279855	-1.46210147747974E-06	2.29540752502955E-06	-8.39108219341822E-06	-4.25380144433526E-06	-0.9699560024044	0.16810826986373
10.2	-0.243293891300108	-0.930370319013679	-2.29989533943052E-06	-1.22534616938332E-06	-1.28158005252105E-05	7.23057473814361E-06	-0.940224040080935	0.288682349666258
10.3	-0.315320282923095	-0.904799266894292	5.73953506234729E-06	3.88402974373382E-06	-6.10582461585875E-06	1.38754243970293E-06	-0.89619074382863	0.404046153291838
10.4	-0.384813537625444	-0.874633772463067	2.08850453864407E-06	1.03501857962795E-06	6.81681147988058E-07	-8.1636318192497E-06	-0.837977703637018	0.512517847675486
10.5	-0.452043863286889	-0.838500516691654	4.3319531925939E-07	-3.03742163973132E-07	-6.53361060739556E-07	-5.58607798583132E-06	-0.767695081789133	0.613237224242657
10.6	-0.514716465502416	-0.796408971730414	5.04985382093526E-06	-2.58807764588059E-06	-9.67899614875855E-06	-7.81746405103407E-06	-0.683586707683753	0.704903665692082
10.7	-0.572667829317948	-0.750013533208529	-2.79306195869985E-06	-4.97445853104293E-07	-5.1882716349141E-06	-7.1115800524988E-06	-0.589065262165128	0.783942893729705
10.8	-0.625959235322093	-0.701022591467019	-3.58571588270968E-06	-3.41697204315167E-06	-1.18707368876324E-05	9.07124403036087E-06	-0.486122666279199	0.850148395255013
10.9	-0.675884182980502	-0.650434216408844	-1.1289732875458E-05	-1.03510966168099E-05	-4.44986034349373E-06	1.08735671320345E-05	-0.376957059177865	0.903722678976918
11	-0.7237490078769	-0.597020721110472	1.00430001676303E-06	1.40041246308352E-06	8.60800198156277E-06	-5.46358987608031E-06	-0.259678695914415	0.944587047791368
11.1	-0.76679760465445	-0.539612274750981	-3.2445963004437E-07	-3.60504505158776E-06	1.01061484160049E-05	-1.01245608599388E-05	-0.138520252745721	0.967362079977949
11.2	-0.806548825511655	-0.480567474171203	-1.02018881215763E-06	-3.88362215381904E-06	2.15022397248798E-06	-6.2596274186361E-06	-0.01659734806513	0.975634316431824
11.3	-0.843059574394775	-0.41800737078219	1.64334487310413E-06	-1.19477682240553E-05	3.54318033535877E-06	-2.79364784045328E-06	0.105227129260551	0.969377108984153
11.4	-0.875001196545389	-0.35248370739433	9.7931577946186E-07	2.0441834209903E-08	-5.66061039130213E-06	6.40107490657968E-06	0.226011898437474	0.948442024209135
11.5	-0.902232193010782	-0.283459334081539	6.49847519467666E-06	-1.21310336384736E-06	8.17435832432697E-06	-2.87529028305456E-07	0.342820674399336	0.91241702800002
11.6	-0.923819182568472	-0.212797601532644	-6.14306133072422E-07	-5.28909622799109E-06	1.43827787680936E-06	-3.05136850335424E-06	0.454797297494376	0.861811273823388
11.7	-0.9398154973848	-0.139008636195581	-6.83417469174013E-08	-6.00205884671485E-06	8.9667693983321E-07	-2.63434076778768E-06	0.559204512531683	0.797705342813388
11.8	-0.949809270952533	-0.0630969923923237	-1.06027970752114E-06	-7.40144980812219E-07	5.123132048176E-06	1.0932007474315E-06	0.655220982389721	0.721398794693591
11.9	-0.95344156132001	0.0144102044344621	-3.17298608938585E-06	-5.18358080457991E-06	-5.31700409976362E-06	-7.97327834413841E-06	0.740791416974659	0.633949308960488
12	-0.950965832291421	0.0920941952061661	-2.92914439173494E-06	1.61711683353289E-06	-1.65655102299357E-05	-8.75406301062302E-06	0.814044311588308	0.536880954138515
12.1	-0.942450992638721	0.169871752397051	8.27297074969765E-07	-1.551030904302E-06	7.73421601455856E-06	1.22225295694056E-05	0.875779767300985	0.431100305874408
12.2	-0.926250721838443	0.247532167658676	-4.10557460578713E-06	5.48374282280364E-06	3.93837971539418E-07	3.28947634258631E-06	0.923595377962637	0.317741140887306
12.3	-0.903868778754084	0.323182654172852	7.73517619828839E-06	6.3882688476091E-06	3.49185657254153E-07	1.08132107909843E-05	0.95655001998306	0.19900665279353
