# GHZ S RI R 50
0.2	0.985701321124822	-0.156807359791629	2.56420150926702E-06	2.24936810471422E-06	6.5690984436975E-06	-4.86868403403149E-06	-0.966141531001449	0.251833791066599
0.3	0.969634437015775	-0.233885247595357	-8.74518127025926E-07	-5.45288411277373E-06	-3.46723517606174E-06	-7.94365204590935E-06	-0.926382126161313	0.37187946967264
0.4	0.94807695128522	-0.309210151220718	-7.27740257694824E-06	-9.89092361536025E-07	4.44045318879084E-06	1.54355424117595E-06	-0.871467725335402	0.485596708322545
0.5	0.920992025502684	-0.382570559884552	6.19751058117003E-06	2.10241289337094E-06	-2.41346145942907E-06	-1.90663529730356E-06	-0.802814043508092	0.591609157289577
0.6	0.888070778083415	-0.453368186453889	-1.05469278169899E-05	2.4614316020994E-06	-2.21770540760986E-06	-1.00637965986408E-06	-0.721331352027738	0.687907360559105
0.7	0.849997169305319	-0.521106169097865	2.78295306448476E-06	-1.17197674850268E-06	-2.98563396401532E-06	5.78646790072889E-06	-0.628610141204738	0.773274010619082
0.8	0.80669196783229	-0.586085633554872	1.17518952944611E-06	-8.47253359314136E-06	-6.61824868601297E-06	-3.06820117005557E-06	-0.525838029842118	0.846057149234289
0.9	0.758449316843705	-0.647734381670068	-1.14634914973837E-06	-6.80682941424845E-07	2.54756178488058E-06	6.54072159062931E-06	-0.414948282057885	0.905162358951581
1	0.70513951253857	-0.705889559503112	-2.74437171902413E-06	-3.22082326288936E-06	-4.06266088679795E-07	-7.31348463742069E-06	-0.297841734407977	0.949664934065228
1.1	0.647733477088834	-0.759453014571872	1.80448480376999E-06	-4.93897919728574E-06	2.26762328144676E-06	-5.13249179891106E-06	-0.175968817855005	0.979378299696744
1.2	0.585097162441676	-0.808934216364514	-2.49374317130699E-06	2.49051148854391E-06	9.25356246606177E-07	-9.10475308744555E-07	-0.0511371991350738	0.993382165238182
1.3	0.517278068066162	-0.853314281774295	-1.53691633090829E-06	7.19013369605878E-07	-1.35446863247446E-06	1.46241489032723E-06	0.0743536343297455	0.991878337244733
1.4	0.446581730306003	-0.891660369534178	3.92019810606427E-06	-3.23812452051996E-06	2.70027048097065E-06	1.09325974887024E-05	0.199254891180548	0.974081926701341
1.5	0.373632238626281	-0.923588763324665	-5.33311634804728E-06	1.10812710538634E-06	6.58525305430743E-06	-7.20010201105024E-06	0.320679869686031	0.940771844384097
1.6	0.300305724642206	-0.949291383582353	1.77738493294672E-06	-7.73044245981384E-06	3.62777933742823E-06	1.38245370806457E-06	0.436580427955527	0.892415057387426
1.7	0.22636129762673	-0.969358032704325	-1.9391009038561E-06	-9.69459492303887E-07	-2.34214175767606E-07	-2.08509026035918E-06	0.54483280246639	0.83057707284222
1.8	0.150051964790546	-0.984105537201054	2.8452031182119E-06	5.276228162184E-06	2.93357197322115E-09	2.02974055685385E-06	0.644835061755833	0.755313939989488
1.9	0.0727177648592524	-0.992949476515488	5.67122670248057E-06	-2.62638822756285E-06	-2.99592880468783E-06	4.13861991953067E-07	0.734118849892461	0.668243692947167
2	-0.00453254697416222	-0.9955039739055	-1.54609349110125E-06	-2.02573734950209E-06	3.20399072664287E-06	1.14502986302971E-05	0.811844325338267	0.570291115096491
2.1	-0.0831834324413378	-0.992059934365246	-7.54993726462525E-06	2.44929969702462E-06	1.20369944513714E-06	5.14316119746572E-06	0.876647852879707	0.464092600199919
2.2	-0.159638997624655	-0.982467506023582	-8.83380231108717E-07	1.39288610926694E-06	2.99717525144859E-06	7.77358109527241E-06	0.928182836135258	0.350420188456779
2.3	-0.236422681751451	-0.966521754179111	1.74554291960933E-07	7.44926662955988E-06	7.38697823999494E-07	9.38689299314038E-07	0.964430187667764	0.231527055039362
2.4	-0.3118404578477	-0.944502753076574	1.57244792750842E-06	7.17180837455288E-06	1.51495573455024E-06	6.38551794397794E-06	0.985957615108473	0.10812843963303
2.5	-0.38488661934747	-0.91759761067637	4.39143979320403E-06	-2.30851805440797E-06	-1.90554599720983E-06	-7.57089645661496E-06	0.991459811557821	-0.0160834015977523
2.6	-0.456291414304952	-0.884285702197489	6.77455801557571E-06	-5.93721000026844E-06	-1.11085304427053E-05	1.08148155745051E-05	0.98181687072859	-0.140757595914282
2.7	-0.524865737420839	-0.845295896460548	-4.44935554151773E-06	9.13525156787181E-06	-2.86351604522938E-06	-9.1585974702686E-06	0.956026067236922	-0.263297672361361
2.8	-0.589076098969907	-0.801509874653781	2.45514704331817E-06	1.14535501081536E-06	-3.12742296147815E-06	1.24002163981691E-06	0.91582170728043	-0.380911791975848
2.9	-0.649278153099228	-0.753506766957452	-5.50144328924163E-06	6.0040178312426E-06	-9.18543689010048E-06	-2.93153730750022E-07	0.860754659292832	-0.49240255159188
3	-0.70675647267295	-0.700411863045018	4.73661054030827E-07	-1.47098728620498E-06	1.13123199025964E-05	1.47500629689365E-06	0.792252977438068	-0.596385904315475
3.1	-0.759517409002044	-0.642698607616517	2.38990563657444E-06	1.04864967879444E-05	4.31731936663518E-06	2.17663706602719E-06	0.7117264179335	-0.690399284849523
3.2	-0.807126071786925	-0.581600873600129	2.0927385084008E-06	6.46031166374548E-06	4.00998046206451E-06	-1.05857960918481E-05	0.620246482307836	-0.774021878437978
3.3	-0.850012190647345	-0.517279341104653	3.069974940128E-06	4.96056257166044E-06	-2.20666341520974E-06	-9.66023327337555E-06	0.517842660913022	-0.846191369619022
3.4	-0.887189198054488	-0.450151122341589	2.12749760146881E-06	-2.59796523410233E-06	5.9498366493103E-06	1.39104554354295E-06	0.408502928588339	-0.904761900818715
3.5	-0.919887487762916	-0.378594597215676	-3.23809283129271E-06	9.41653074063527E-07	-2.07554457422183E-06	3.41770042755382E-06	0.291280032006464	-0.949303326924637
3.6	-0.94642964765499	-0.3052584842278	-1.8062020336832E-06	-3.74255561249449E-06	-7.82123816562258E-06	4.09220637239484E-06	0.169845390570259	-0.978302893871359
3.7	-0.967270303322265	-0.230702277648762	8.33876798628925E-07	-8.31898192923909E-06	1.07541841921348E-05	3.70994787604521E-06	0.0452150991434194	-0.992020813476987
3.8	-0.98259599027462	-0.153898881616015	8.95014427144716E-08	1.54602566257371E-06	-6.52429262706796E-06	5.93730390356745E-06	-0.0795638934885214	-0.989819480417751
3.9	-0.991724488947275	-0.0766947337416133	-2.61794614245956E-06	-5.02990230989285E-06	-3.71534018369527E-06	8.01558684384472E-06	-0.204786793605359	-0.971849224308444
4	-0.99513629929695	0.0021513248229855	7.12733137058793E-06	-3.68060240521826E-07	-1.04223060925221E-06	-1.20724430672712E-06	-0.324337133899924	-0.938352081768676
4.1	-0.99222893011595	0.0806705748918175	6.2064367533755E-07	-4.42585906127466E-07	7.36362122633186E-06	-4.74078614814189E-06	-0.439639360320866	-0.890804831029801
4.2	-0.983108954811115	0.158825916451224	3.20252183099041E-06	2.11072055760642E-06	-7.17171738955765E-07	-7.63873370248736E-07	-0.54843111549132	-0.82852747135446
4.3	-0.968002679024867	0.235028339189382	-3.19485002133622E-06	1.36739624673348E-06	-5.00646581705433E-06	2.97482924744726E-06	-0.648422261653397	-0.753631383083863
4.4	-0.946896373140775	0.30977390553371	8.00444508593529E-07	2.64645581868851E-06	1.56923877513121E-06	-8.33823831591318E-06	-0.738234485921687	-0.666261771518727
4.5	-0.920473438740637	0.382737396726987	1.82723012813366E-06	-9.37080460715134E-07	7.63894604420277E-06	-2.41285365321512E-07	-0.816320249328335	-0.568066065571092
4.6	-0.887950565564281	0.455059325081069	-7.42959464612317E-07	6.13643484164866E-06	-1.23464018746947E-05	-6.51975270811486E-06	-0.880927505735208	-0.460967824285634
4.7	-0.849611991437593	0.523098750715813	1.19803864400955E-06	2.51748202087548E-06	1.41922669212418E-06	1.87238355949433E-06	-0.932145589843707	-0.346962264988801
4.8	-0.805235400393661	0.589041786692467	-5.21211037183169E-06	1.11366605805305E-05	5.22047361122669E-06	9.71959766974584E-06	-0.968374482001286	-0.226823847213921
4.9	-0.756200063787014	0.650458283336277	1.19418823025439E-06	2.9403686510792E-06	-4.67393354433649E-07	-6.92839584698323E-06	-0.989200672307698	-0.102812705069515
5	-0.702687117880438	0.708361777266457	4.75512850695009E-06	-9.01558245208486E-07	-3.75760169071849E-06	2.42110584139193E-06	-0.994178873549023	0.022738492268927
5.1	-0.643460742832405	0.761790518127093	4.14464564502798E-06	-1.33839053221435E-07	-2.64456460415263E-06	-9.84278013854248E-06	-0.983514124162536	0.147833559554643
5.2	-0.581013439331001	0.810016531494595	2.65445284763848E-06	-1.5024653948825E-05	1.37658599544181E-06	2.83169851389679E-06	-0.957348579705278	0.270918899958254
5.3	-0.515413751041738	0.853336112431728	-8.73236089649555E-06	-7.981431369865E-07	-1.13818397337444E-06	1.57585318782204E-07	-0.915716052491735	0.390024337201392
5.4	-0.446888722267781	0.891485380598053	-7.1875070496871E-06	-1.10959889507663E-05	-1.37882868303933E-05	1.12049818144596E-05	-0.858808863501061	0.502677999824157
5.5	-0.375829590777182	0.924195420881244	1.90901244274266E-06	9.16392277220983E-08	-2.25234586115892E-06	1.78502593236749E-06	-0.788413744496498	0.60657367417378
5.6	-0.301662080777432	0.951077413363735	-2.41978072110389E-06	3.51995858128558E-06	-1.34708687861289E-06	1.29080991927685E-06	-0.70592736807074	0.700170521211867
5.7	-0.225437137202816	0.971961683231828	1.30828647991046E-06	1.23673477556833E-06	5.77927725912539E-06	-1.11755254553139E-07	-0.612831331395022	0.783168192782194
5.8	-0.147887669663184	0.986132145156656	2.70719820606758E-06	4.27563760173414E-06	-2.12319797871838E-06	4.25390421295269E-06	-0.509663402151116	0.853973031359223
5.9	-0.0696754815295803	0.994087398568448	-6.91132715868279E-06	-2.31174307581036E-06	-7.96753159576055E-08	6.31308594776337E-06	-0.398531976688775	0.911478103995834
6	0.0078271775485086	0.995499129425366	-1.7984556290956E-06	9.12117846919369E-08	-5.48384920348566E-06	-4.40156316048161E-06	-0.280682623927695	0.954140742282219
6.1	0.0851740018899871	0.991951240401764	3.82766023068844E-08	-9.94452026340737E-06	-9.8752652340118E-07	-3.22414147527921E-06	-0.158674304630327	0.981390876376928
6.2	0.163173944986238	0.982153688196169	-1.02323325295061E-06	3.1211924815048E-06	-1.76185079409688E-06	4.22612129966291E-06	-0.0337037064263583	0.9928008058105
6.3	0.240547346838176	0.966254320861468	-8.06128568810592E-07	2.83726477314705E-06	-2.94395626879918E-06	2.40234244153493E-06	0.0913712593957037	0.988560662382196
6.4	0.316528935488672	0.944202262927503	-5.98111219807309E-06	5.55942380684486E-06	-2.38745357979045E-06	-7.50478458084997E-07	0.215145521201637	0.968835368782548
6.5	0.390577902130311	0.917119386519182	1.41018009544581E-06	-5.29005078006082E-06	-1.45152626056548E-06	-2.38400680013267E-06	0.335087717230547	0.934010197942309
6.6	0.463430128444034	0.883518995173539	3.66813908393993E-06	2.10894964321758E-07	1.13494300908211E-05	-2.68801396765704E-06	0.450392686618893	0.884424300922712
6.7	0.532589035795036	0.843332959979446	-7.7899550154282E-07	8.51137166682092E-07	-3.78319380257982E-06	5.25339994726295E-06	0.557723169409824	0.820603148907158
6.8	0.598031386476488	0.797946683946586	-1.75820062696333E-06	4.50784008791979E-06	1.45892575041165E-06	-8.88338863675717E-07	0.656197612697716	0.744035029795408
6.9	0.659422052732298	0.747516413787388	5.94752921160623E-06	2.25001941796549E-06	-9.31903650127069E-07	2.42704777577064E-06	0.7442670213233	0.655688555383969
7	0.716249034537567	0.692432135943044	1.1374875521833E-06	-4.16846329474019E-06	-1.42849653133001E-06	2.93117795846084E-06	0.820374532161891	0.556877863067833
7.1	0.76877824619847	0.633548205135513	2.39768382504853E-07	-7.20940725339429E-07	1.99446522217718E-06	9.21604199509182E-06	0.88346721968946	0.44962699261512
7.2	0.816609830663614	0.570088979903592	1.38633465216986E-06	-2.4242530152879E-06	-1.02851273963822E-06	-8.59380367721062E-06	0.932637581656774	0.335446994375116
7.3	0.859091297496116	0.502687960506082	4.86663702697622E-06	7.242934729447E-06	-9.74540386640319E-06	2.35968854903769E-06	0.966940372791577	0.215790633518583
7.4	0.896476339003177	0.431880936871158	5.11184529539502E-06	-6.95826739875882E-07	1.92675181436626E-06	-9.67512807269793E-06	0.986356330287118	0.092272764140578
7.5	0.927725171106794	0.35788819613166	2.7390228513408E-06	-5.33201379981733E-06	2.08218844712456E-06	-7.30665232342309E-06	0.989391985402552	-0.0330841032180665
7.6	0.953055182015908	0.282034505314326	-3.32883452838372E-07	-5.65160723424636E-06	1.68309487927673E-05	3.82465206169901E-06	0.976738159056016	-0.157189830471865
7.7	0.97248758441265	0.204166399318082	3.52769224107559E-06	9.80329862533012E-08	3.13869093777494E-07	-2.9339483185201E-06	0.948855476730469	-0.279072731135534
7.8	0.985447767933318	0.125054114030461	-1.10087697869708E-05	-1.87735261444164E-06	-1.88940211318954E-07	3.44698209649271E-06	0.905800658706224	-0.39619602357782
7.9	0.991836426421679	0.0450147688574334	2.36900620724974E-06	2.02253404910777E-06	-6.97481834024625E-06	-4.68517476638658E-06	0.848425881913979	-0.506679872855945
8	0.991443484852014	-0.0344750422061352	2.36449944582231E-06	2.9420704663132E-06	-9.36730290243468E-06	-7.5535056934775E-06	0.777978257643383	-0.608157725118266
8.1	0.98583526638599	-0.113692945193165	3.81527226982189E-06	-3.08167284529817E-06	2.13554404463441E-06	-3.19098605795741E-06	0.696921283805441	-0.700741214082734
8.2	0.973561016672348	-0.192624718052198	-4.03172171207247E-06	1.42990281582546E-06	-6.75324474519172E-06	3.83355054437965E-07	0.604232440151456	-0.783162208272722
8.3	0.95431584245374	-0.270548104214688	9.86872671578001E-06	2.62893001368046E-07	6.2818030487404E-06	1.04321912970902E-05	0.501380220220567	-0.853089295846735
8.4	0.928668574675067	-0.346575333170614	1.29414534553667E-06	2.55393493577596E-06	3.46875741659526E-06	1.81254328736897E-06	0.390278564053152	-0.909690312310998
8.5	0.897018091301502	-0.420467226430442	-4.82821864140795E-06	4.98578128948956E-06	2.84487613689444E-06	-3.03551905625621E-06	0.272254599675642	-0.950905670880368
8.6	0.859364593990601	-0.491556851680108	-4.49264982503701E-06	2.10695160975979E-06	-3.00668188623267E-06	8.13441471561646E-06	0.151565089669443	-0.977207055603402
8.7	0.816097650138576	-0.559311821967225	-1.01694740847223E-06	1.22046592920838E-06	-6.31366998118233E-07	3.4671231340227E-06	0.0280207529103522	-0.988937570276144
8.8	0.767535152321807	-0.623111307645091	-1.57414940627002E-06	3.08554586351169E-06	-6.00516748782887E-06	1.30676465589215E-06	-0.096009286548183	-0.985410411240582
8.9	0.714344842112084	-0.682811144384388	3.16899023206746E-06	-1.84210480189581E-06	-3.16714640954887E-06	-4.47058861127118E-07	-0.219306763754922	-0.966097125620307
9	0.656080760434179	-0.738100448300034	-7.28597093906899E-06	1.3740116584716E-06	-3.97745034282024E-06	7.37681384655604E-07	-0.339698915269504	-0.931325440616643
9.1	0.593719123095161	-0.788048694749089	-3.3619952627988E-06	-1.87260271485753E-06	-9.77028994232249E-07	2.13874298823932E-06	-0.454522161619777	-0.880987738574287
9.2	0.527405483159403	-0.83278532842431	5.97990418473691E-06	-1.66036569847075E-06	2.01490520181776E-06	8.47436055243452E-06	-0.562030937708057	-0.817075827561461
9.3	0.457901251685128	-0.87209322004947	-3.35572407435123E-07	1.0718032048659E-06	1.37094063156159E-05	1.1782850271621E-05	-0.660624377641943	-0.739286946626388
9.4	0.385135689752441	-0.905713858274725	1.72180046270664E-06	-2.66840613670235E-06	4.29451140390356E-06	1.7423593290853E-06	-0.74796218504936	-0.649563750017327
9.5	0.30889541638341	-0.932799913067018	-6.52126417539486E-06	-4.8565486251148E-06	-1.96827935576027E-06	-5.69039777371707E-06	-0.82275842239283	-0.548295137427045
9.6	0.230788967747478	-0.953159611826041	-1.16606690224163E-05	-2.22276494656337E-07	-5.92684017250034E-06	-3.98729470667678E-06	-0.883265954051352	-0.441006466021138
9.7	0.151268808262467	-0.967272381138317	1.46410237384249E-06	-4.81523679356165E-07	-2.90807509578297E-06	1.64672975576519E-06	-0.931731023817365	-0.326948722064846
9.8	0.070917887914063	-0.974544705445811	2.2061690250908E-06	1.3925451946744E-06	1.50687909866557E-05	-3.53747736348632E-06	-0.965551071130074	-0.207379478773519
9.9	-0.00966333709659887	-0.974736161865992	-3.43266232978806E-06	8.96665803500418E-06	1.37507157464578E-05	4.94647950770547E-06	-0.984763299481697	-0.0837915643828169
10	-0.0889624337191805	-0.967784356963463	-3.63383701680828E-06	1.62596732994589E-06	1.91674113910393E-05	-1.81732977062686E-05	-0.987409731089894	0.0422748847633063
10.1	-0.166932104022553	-0.954710359502412	-1.47112858496909E-06	2.3045001588675E-06	-8.42541516995502E-06	-4.28178216808151E-06	-0.973351352130983	0.166962268579694
10.2	-0.243231926490211	-0.935325078690324	-2.31029420211568E-06	-1.2319388640054E-06	-1.28787570066712E-05	7.26007285361029E-06	-0.943693837290302	0.288373400801233
10.3	-0.316439820650033	-0.909643874260705	5.76725347772147E-06	3.90016636596084E-06	-6.13358328350915E-06	1.39586168213914E-06	-0.899486682190534	0.404634974772608
10.4	-0.386874194418165	-0.878991717842699	2.09870925002567E-06	1.0375968392698E-06	6.76910667606492E-07	-8.20031472728246E-06	-0.840689186272825	0.514137479575186
10.5	-0.454731158597297	-0.842361857354965	4.34277049755969E-07	-3.05608332698655E-07	-6.65353821056259E-07	-5.60562126193977E-06	-0.76870697009221	0.615026225679905
10.6	-0.518085909867776	-0.799740248313522	5.06010206362716E-06	-2.60303845566813E-06	-9.71809470132658E-06	-7.82469193097354E-06	-0.684375420738988	0.705600709260287
10.7	-0.576603325804298	-0.752623990393497	-2.80076792120905E-06	-4.95407302496719E-07	-5.20991003016333E-06	-7.12356012448084E-06	-0.590315242099998	0.78454614716624
10.8	-0.630342367726544	-0.702733215221241	-3.59864569428331E-06	-3.42172364948322E-06	-1.18909901038501E-05	9.10752383742545E-06	-0.4875070612158	0.851275729252207
10.9	-0.680319321296135	-0.650846744142053	-1.13300385662761E-05	-1.0360739713122E-05	-4.44609347201728E-06	1.09051325327922E-05	-0.377873474030356	0.905430602828922
11	-0.72713860780508	-0.596863381033434	1.00746112247636E-06	1.40214199258724E-06	8.61927571339122E-06	-5.48168314111851E-06	-0.260055036439968	0.946138407408184
11.1	-0.770369546203343	-0.539564307494855	-3.27917261416114E-07	-3.61309501710883E-06	1.01217850639881E-05	-1.01554542985968E-05	-0.138627554293123	0.969103708765199
11.2	-0.810238823966444	-0.479898392549523	-1.02644662076806E-06	-3.89187086829126E-06	2.14917941877364E-06	-6.27666182833553E-06	-0.0162074139866961	0.977398300612663
11.3	-0.846505542184536	-0.416654434985761	1.63356489248138E-06	-1.19767959237074E-05	3.54807678955886E-06	-2.80400893597341E-06	0.106002866710964	0.971032339464546
11.4	-0.877814419635161	-0.350726435735185	9.81435133907274E-07	1.94467937944427E-08	-5.66594522811418E-06	6.4207904436099E-06	0.227156857730891	0.950061859960892
11.5	-0.904900893664041	-0.282042625701038	6.51367129378304E-06	-1.22220613572411E-06	8.19462723851894E-06	-2.9586796154732E-07	0.34454965134536	0.913940079057128
11.6	-0.926673163383281	-0.210793662722085	-6.22874516524127E-07	-5.30253043948198E-06	1.43816022115227E-06	-3.06146261403106E-06	0.456988488764976	0.863011188710782
11.7	-0.942149254265767	-0.136562905336623	-7.73689917293051E-08	-6.0179965371945E-06	8.95191033873947E-07	-2.64270146212495E-06	0.561808128525228	0.798638004449672
11.8	-0.951519737433736	-0.0605796238654275	-1.06430321341297E-06	-7.4054672616827E-07	5.1387831260954E-06	1.08836487954265E-06	0.658311274754878	0.72212289345221
11.9	-0.954384571188606	0.0164629115873289	-3.19023892605479E-06	-5.19518186295902E-06	-5.34489924217373E-06	-7.99050118035911E-06	0.745066162510999	0.634671548165805
12	-0.952040343118967	0.0935048739514423	-2.93657940022546E-06	1.62928923686688E-06	-1.66453423783648E-05	-8.75151700142222E-06	0.820050180694475	0.535865061438816
12.1	-0.944117736316358	0.170717605375209	8.2578581302263E-07	-1.55898939121473E-06	7.7972956875911E-06	1.2244062851725E-05	0.88155656823073	0.427281628630609
12.2	-0.928686658113693	0.248665008031925	-4.10041457283286E-06	5.51656691012559E-06	4.06600778300356E-07	3.29924032828307E-06	0.928077548380559	0.312152146231719
12.3	-0.906871619424145	0.325050167502244	7.78462683867358E-06	6.37709171868729E-06	3.9349526646215E-07	1.08452405214604E-05	0.959332765308345	0.192341456200972
