# GHZ S RI R 50
0.2	0.984967405797239	-0.157215582925679	2.56361603952568E-06	2.24719082581974E-06	6.56370048154507E-06	-4.86841505686528E-06	-0.965731925124956	0.251979206413683
0.3	0.968726586566444	-0.234271470676	-8.7600461593129E-07	-5.44862627461415E-06	-3.46782450761459E-06	-7.93659863902031E-06	-0.925818122494054	0.371941844750363
0.4	0.946987365926182	-0.309452647957104	-7.27087996318999E-06	-9.85805151860848E-07	4.43677776528919E-06	1.54066455966913E-06	-0.870731352769001	0.485448011341281
0.5	0.920097005190154	-0.382488618427415	6.19134256912946E-06	2.10069221735418E-06	-2.41100096670748E-06	-1.90490234936447E-06	-0.802224688956743	0.59096824308778
0.6	0.887408047489143	-0.453659377893742	-1.05398659293735E-05	2.46010792034434E-06	-2.21626495663043E-06	-1.00564797990479E-06	-0.721103937483107	0.687332197185505
0.7	0.849022079862133	-0.521593015568955	2.78062150660346E-06	-1.17164059190345E-06	-2.98224000879439E-06	5.78268864592559E-06	-0.628439388250831	0.772702128491428
0.8	0.80536079800226	-0.586477028482094	1.17217825841143E-06	-8.46490734436415E-06	-6.61277791027734E-06	-3.06384603730224E-06	-0.525772433666217	0.845430791912157
0.9	0.75677377271432	-0.647724344042208	-1.14509398510635E-06	-6.7969813217814E-07	2.54554908980994E-06	6.53256653809543E-06	-0.414986540956687	0.904508832964617
1	0.703551800641147	-0.705075672419246	-2.73984330583583E-06	-3.2166914528286E-06	-4.04356317230223E-07	-7.30304652604354E-06	-0.297928081743659	0.948941900463294
1.1	0.646787770351835	-0.758195218126648	1.80456423158941E-06	-4.9310880040373E-06	2.26715468334756E-06	-5.12408375078907E-06	-0.176118195487576	0.978536347298272
1.2	0.584749284115261	-0.807591942609126	-2.49211688059809E-06	2.48534019556894E-06	9.24743033856428E-07	-9.08575043935585E-07	-0.0513145236194394	0.992322281030998
1.3	0.517446406408391	-0.852173509578295	-1.53558338428405E-06	7.1687153555959E-07	-1.35396560064833E-06	1.45949431403754E-06	0.0739981114304936	0.990607198194787
1.4	0.446960773804978	-0.891114905321482	3.91887375735502E-06	-3.23250857149918E-06	2.69033258440523E-06	1.09245636760534E-05	0.198682065605501	0.972904181673826
1.5	0.373705611760132	-0.923729563252388	-5.33083695064055E-06	1.10590560464825E-06	6.58427070732301E-06	-7.19448569407846E-06	0.319765869421602	0.939791751289195
1.6	0.299990505910114	-0.949654284766003	1.77610966643816E-06	-7.72776050393885E-06	3.626565110136E-06	1.38165479950955E-06	0.43544605614172	0.89201912800594
1.7	0.225775044748122	-0.969748299980102	-1.93856425948462E-06	-9.68560815708631E-07	-2.34661194463019E-07	-2.08418117866995E-06	0.543705879462567	0.830556153023749
1.8	0.149313330767446	-0.984405062758323	2.84578898109498E-06	5.27279063084221E-06	3.65928880172763E-09	2.02880917111107E-06	0.643792826755709	0.755542103641526
1.9	0.0717967997222848	-0.992991001345154	5.66591189818459E-06	-2.62796682653991E-06	-2.99369221974645E-06	4.1534384345464E-07	0.733277356551621	0.668353716918009
2	-0.00501290647241665	-0.99474917737128	-1.54426147091589E-06	-2.02220939969484E-06	3.20214112895279E-06	1.14318431505294E-05	0.810112941914544	0.569903932334462
2.1	-0.0826682884973929	-0.991877310533392	-7.54286157978697E-06	2.44158398009571E-06	1.19897691229526E-06	5.13803918380844E-06	0.874340181206515	0.464962889957147
2.2	-0.159256030117556	-0.98292271628784	-8.83545571100102E-07	1.39131622132404E-06	2.99030634594909E-06	7.76953177436078E-06	0.926241472350565	0.351944468992387
2.3	-0.236367941862314	-0.967152499236398	1.71142885239116E-07	7.4441488677682E-06	7.3776814745814E-07	9.38360908795768E-07	0.962851759148512	0.233407828654394
2.4	-0.31207735455128	-0.944960413598661	1.56920865966611E-06	7.16620247816791E-06	1.51197505413746E-06	6.38055738629626E-06	0.984780416696942	0.110100922923237
2.5	-0.385008097231992	-0.917615684329416	4.3866134015958E-06	-2.30435122980197E-06	-1.90095921848754E-06	-7.56197257301285E-06	0.990276827399231	-0.0142054218377374
2.6	-0.455902273502948	-0.884281974889154	6.76866752733569E-06	-5.92411979474926E-06	-1.10995859261238E-05	1.07917864678334E-05	0.980647065548954	-0.138544593685078
2.7	-0.524118385290028	-0.845644112146902	-4.45300587653853E-06	9.11790669365758E-06	-2.84976852509992E-06	-9.14904827260438E-06	0.955079568451497	-0.260719209544939
2.8	-0.588126057357616	-0.802360159043376	2.45077848568417E-06	1.14763768913512E-06	-3.12575904316014E-06	1.23413124550413E-06	0.915373422867398	-0.377987319694374
2.9	-0.648103156438804	-0.755031119392323	-5.50839868927574E-06	5.98889707896277E-06	-9.1776097102039E-06	-3.10228375591788E-07	0.861012183436918	-0.489481081881588
3	-0.705899483283837	-0.70314699705355	4.77357185713178E-07	-1.46988512868077E-06	1.13092526204449E-05	1.50331312701068E-06	0.792832039187209	-0.593896813636853
3.1	-0.759446950577382	-0.645854736348861	2.3685219800348E-06	1.05017089193002E-05	4.31646224647556E-06	2.18840295222676E-06	0.712393329810975	-0.687864619234569
3.2	-0.807667399125995	-0.585029619580552	2.0824875248007E-06	6.47302534977489E-06	4.03656655142694E-06	-1.05916534734896E-05	0.62125492162505	-0.771465729220805
3.3	-0.851229792836928	-0.520854657887863	3.06587680355263E-06	4.97465004183608E-06	-2.19233193582454E-06	-9.68062091533459E-06	0.519348585393458	-0.843805878811786
3.4	-0.889258497615627	-0.453664755886746	2.13617278290766E-06	-2.60049193372846E-06	5.96092207612639E-06	1.40318829561932E-06	0.410489118559234	-0.9031289100912
3.5	-0.922633073342257	-0.381064665095649	-3.24507301606551E-06	9.42447710611686E-07	-2.08100851360481E-06	3.4239881869831E-06	0.292148391507044	-0.948442983595568
3.6	-0.948576140478191	-0.307398356402227	-1.80603841877691E-06	-3.74808626766615E-06	-7.83299116640407E-06	4.09223966976641E-06	0.170767302900888	-0.976298912585613
3.7	-0.969608289132892	-0.232920534762331	8.41894207980847E-07	-8.32934618738292E-06	1.07653964523092E-05	3.72381037890411E-06	0.046979004419036	-0.990264713290989
3.8	-0.98517585832199	-0.155802803631297	8.85983541769621E-08	1.54838511522227E-06	-6.53797588209628E-06	5.94176185186152E-06	-0.077457510690458	-0.98892026521071
3.9	-0.994216017089883	-0.0781951175309121	-2.61977564955885E-06	-5.03837403765532E-06	-3.72405229196884E-06	8.02590419741831E-06	-0.203094215647562	-0.972133379816806
4	-0.997372316539794	0.000607017793862598	7.13694784121218E-06	-3.65192157168168E-07	-1.04304308399902E-06	-1.20933452430669E-06	-0.324130682651728	-0.938962479404903
4.1	-0.994706433752297	0.0789949126360569	6.2188416077695E-07	-4.4300150918005E-07	7.3780833455729E-06	-4.74487946222553E-06	-0.440053234921978	-0.890714013035744
4.2	-0.985883374509595	0.157389131899706	3.20758917777708E-06	2.11560184971148E-06	-7.18208800784657E-07	-7.65491653767356E-07	-0.548933406431581	-0.828002395208652
4.3	-0.97080523181223	0.234052381304642	-3.20094232899438E-06	1.36950430892751E-06	-5.01612265853187E-06	2.97967228779661E-06	-0.648829584024871	-0.752884931621226
4.4	-0.949101740424117	0.30918059136403	8.02013520339991E-07	2.65017553033248E-06	1.57023582809591E-06	-8.3505868729941E-06	-0.73836725503817	-0.665626164547465
4.5	-0.922272629011375	0.381256939867264	1.82897001304964E-06	-9.36281356239686E-07	7.64352548122027E-06	-2.35825840544006E-07	-0.816805452615743	-0.568202331252174
4.6	-0.890337113045221	0.453474491815669	-7.53965058807383E-07	6.14351129879929E-06	-1.23524491001527E-05	-6.5486821110873E-06	-0.882455328358012	-0.460714775141935
4.7	-0.852170776631393	0.521528987991131	1.19598932427924E-06	2.52398297378554E-06	1.41864776011426E-06	1.87809845381452E-06	-0.933848256593006	-0.345969154152481
4.8	-0.808031142213405	0.587436731303149	-5.242174772987E-06	1.1149494154202E-05	5.21359508399702E-06	9.74811063611409E-06	-0.969848911407025	-0.225383575703651
4.9	-0.759488928799805	0.648707595175506	1.19061195234643E-06	2.94969929661342E-06	-4.53569783604054E-07	-6.94533589586481E-06	-0.990493024389555	-0.101589148436788
5	-0.7071550010962	0.70741483091092	4.77411222568598E-06	-8.95487273197233E-07	-3.77595728001855E-06	2.4224939563144E-06	-0.996898571805436	0.0244467401174845
5.1	-0.647505430358166	0.762034201746243	4.15993379809642E-06	-1.31364332622918E-07	-2.64721630040048E-06	-9.88075139153518E-06	-0.985216305469677	0.151566437139184
5.2	-0.58483503377049	0.810788648395557	2.66885223834889E-06	-1.50763660985286E-05	1.38044463548667E-06	2.84208228975518E-06	-0.957667703056983	0.274554416175431
5.3	-0.518925450371704	0.854818802880247	-8.76354309962092E-06	-8.0038102870038E-07	-1.14223010188967E-06	1.58226166634507E-07	-0.915513847560983	0.393107930747191
5.4	-0.449630524297706	0.893564946783345	-7.22022842918998E-06	-1.11290060904467E-05	-1.38276792230298E-05	1.12534673636775E-05	-0.858755053484175	0.505251710561003
5.5	-0.377763078845543	0.926051600922782	1.91388817267289E-06	9.01599992265167E-08	-2.25640334980256E-06	1.79152503294608E-06	-0.789082100737138	0.609614633540755
5.6	-0.303582087752653	0.95278680681044	-2.42527915424192E-06	3.5298600956221E-06	-1.35031663888633E-06	1.2945569570932E-06	-0.705917846897823	0.704270089853754
5.7	-0.227239439454044	0.97402138646846	1.31264334160617E-06	1.23981830548597E-06	5.79619421956926E-06	-1.14497865902128E-07	-0.611646803228739	0.787315779290559
5.8	-0.149192696688554	0.988766483947402	2.71912960701298E-06	4.28688839497097E-06	-2.12644950167172E-06	4.26896395703554E-06	-0.507487018046014	0.85763633900561
5.9	-0.0696373825303967	0.997155782477789	-6.93860950420135E-06	-2.30711713676504E-06	-6.86449056374489E-08	6.33437055711194E-06	-0.395404580268932	0.914085050785797
6	0.00921961659323286	0.997095996217282	-1.80111100094269E-06	9.73751667837111E-08	-5.50759277028503E-06	-4.39047276794821E-06	-0.277913204253106	0.954425874476276
6.1	0.0861905652584844	0.992839351584348	1.58790656697612E-08	-9.94699566413363E-06	-9.95028326965694E-07	-3.22269100204435E-06	-0.157801408315647	0.981637309346981
6.2	0.164358609746569	0.982664342995273	-1.01764714625263E-06	3.12351261628718E-06	-1.75434038357332E-06	4.22995385992121E-06	-0.0331957655503707	0.993724433816439
6.3	0.241932205436612	0.966288356717804	-8.00921875227952E-07	2.83906270472112E-06	-2.93978267069255E-06	2.40808144424895E-06	0.0922170394553886	0.989849957803396
6.4	0.317962320811569	0.943239681311316	-5.96826554192268E-06	5.56977389780522E-06	-2.38826321956005E-06	-7.45487685311875E-07	0.216304921718714	0.969577451315603
6.5	0.390293794589569	0.915858689922827	1.40619974041522E-06	-5.28764435021188E-06	-1.45204280887625E-06	-2.38169246297735E-06	0.334832572868833	0.93537740877329
6.6	0.463351985023405	0.88346240840825	3.67195699043925E-06	2.09866238938994E-07	1.13601099043827E-05	-2.69460868909503E-06	0.45186279407528	0.887287182712705
6.7	0.53283571845104	0.84332436886981	-7.79457107064713E-07	8.53027905127403E-07	-3.78452711619986E-06	5.26423851521791E-06	0.560417598666081	0.822684641232049
6.8	0.598446495584464	0.798029703524108	-1.75672682604662E-06	4.51710152458137E-06	1.46049594916772E-06	-8.91253382593907E-07	0.659282309733932	0.74525150776302
6.9	0.660206344298423	0.747608559006543	5.96269205542582E-06	2.24740932326043E-06	-9.3086714443905E-07	2.43325222549381E-06	0.747365370416833	0.655959309761828
7	0.717290351146951	0.692054908900244	1.1294308830013E-06	-4.17851278703397E-06	-1.42393318719286E-06	2.93976026440298E-06	0.822688186627541	0.556452111446347
7.1	0.769623199220396	0.632893438630237	2.3845201443103E-07	-7.21875923029525E-07	2.0144359180352E-06	9.21771346329803E-06	0.885477604842766	0.44935785970808
7.2	0.81728196888636	0.569427290632678	1.3833488408345E-06	-2.42729332660731E-06	-1.04155944177184E-06	-8.59585371015054E-06	0.934564266686186	0.33496147211927
7.3	0.859788847847443	0.502260303573507	4.87504257447633E-06	7.24159916619971E-06	-9.74731319683518E-06	2.36928023063875E-06	0.968763872677236	0.215208018467681
7.4	0.897901203062106	0.431697023133312	5.11784229991917E-06	-6.97227090017172E-07	1.92795633200657E-06	-9.68684239013919E-06	0.988733939971198	0.0914591681320025
7.5	0.929898649484954	0.356323190917798	2.73945899466988E-06	-5.34945990271209E-06	2.07840413933536E-06	-7.328445059693E-06	0.991515210951612	-0.0359398014821644
7.6	0.95443003692999	0.280057304361981	-3.42965405511439E-07	-5.66020548075533E-06	1.68646866162512E-05	3.80243311418586E-06	0.977291129292428	-0.159773908516115
7.7	0.973878781040839	0.201988047224664	3.53377941753773E-06	9.30830591451289E-08	3.10143829462445E-07	-2.93934785174859E-06	0.949210065023981	-0.281499724756325
7.8	0.986830367020688	0.122244517680852	-1.10335344400739E-05	-1.86287175762153E-06	-1.836210799017E-07	3.45407766196798E-06	0.905908098056419	-0.399062218221882
7.9	0.992663886115241	0.0409186826990314	2.37918221480327E-06	2.02012635735341E-06	-7.00133923372877E-06	-4.67556894580351E-06	0.847477450323617	-0.510657848197275
8	0.989190736702918	-0.0388555646664325	2.3745833852439E-06	2.93216980221226E-06	-9.39196958448246E-06	-7.51580446151418E-06	0.773746137306231	-0.611356263163743
8.1	0.983166017163704	-0.115773389118983	3.80394437149512E-06	-3.08603525700269E-06	2.12606121040975E-06	-3.19161299867913E-06	0.692609951477208	-0.701830849058014
8.2	0.971130779653014	-0.194037118340233	-4.02384932128234E-06	1.43517020594326E-06	-6.7436304840487E-06	3.94839357227495E-07	0.599674076891182	-0.783457570288568
8.3	0.951876302721491	-0.271498305959246	9.85272290411284E-06	2.47146272488078E-07	6.28754009436442E-06	1.04050975380705E-05	0.496541735764504	-0.852398861555699
8.4	0.926175452910854	-0.347084746707446	1.2941318792032E-06	2.54779930866344E-06	3.46386734108071E-06	1.80572915655367E-06	0.38564710142459	-0.908143313833946
8.5	0.894497762651524	-0.420317604543069	-4.81929767807944E-06	4.98383407426087E-06	2.83954852021651E-06	-3.03426455449574E-06	0.267390581192573	-0.949249599772141
8.6	0.857260402613394	-0.49087707579589	-4.48423817859948E-06	2.11147186218506E-06	-2.99066657335448E-06	8.12972052153288E-06	0.145981729109305	-0.974506121497546
8.7	0.814370717653034	-0.558341947204713	-1.01300487754616E-06	1.22037811149349E-06	-6.23849424142066E-07	3.46264921292073E-06	0.022336686544862	-0.984690784519199
8.8	0.76622444348018	-0.621862782315092	-1.56455968789971E-06	3.08173010617847E-06	-5.98915118315837E-06	1.31564137105589E-06	-0.100946603773137	-0.979451295537031
8.9	0.713668346932366	-0.681309459177673	3.1568125715198E-06	-1.84116536763629E-06	-3.15828905257176E-06	-4.41131110028414E-07	-0.222219317960915	-0.959251218772355
9	0.65602278690551	-0.736927966995807	-7.26730651219467E-06	1.37451251700008E-06	-3.96726793985989E-06	7.37985322065881E-07	-0.341989323198464	-0.925820092677224
9.1	0.593835718201842	-0.786818090391762	-3.35547731125138E-06	-1.86523418592147E-06	-9.7285807884189E-07	2.13441477737163E-06	-0.456856040506206	-0.874488064710584
9.2	0.527956069726762	-0.831550231355972	5.96369591566297E-06	-1.65881148475176E-06	2.01357603901664E-06	8.45154580254553E-06	-0.563067801748713	-0.810450168794643
9.3	0.458868823017849	-0.871008752702292	-3.34830942201623E-07	1.06926873220755E-06	1.36766566131907E-05	1.17557571794577E-05	-0.660706045984543	-0.733421897785103
9.4	0.386441222845631	-0.905413903703188	1.72048129948375E-06	-2.66375943599319E-06	4.28749007585114E-06	1.74173271630089E-06	-0.747929441089753	-0.645322303611859
9.5	0.308195030630845	-0.932635982314218	-6.52126261128931E-06	-4.84365625659052E-06	-1.97365070235962E-06	-5.6825049963028E-06	-0.824897926727184	-0.544061855631283
9.6	0.230763543560725	-0.950727158294499	-1.16337244410786E-05	-2.07218557998123E-07	-5.91797555284349E-06	-3.9705965586941E-06	-0.885107123107683	-0.435126630893503
9.7	0.152725895712532	-0.964801630827265	1.45999874446565E-06	-4.81410021702298E-07	-2.89939839527923E-06	1.64474215134868E-06	-0.932638023105828	-0.320351965970658
9.8	0.073167424539326	-0.972681757242991	2.20116352054788E-06	1.38752676520164E-06	1.50267393601729E-05	-3.53718546381648E-06	-0.965083906363114	-0.20047480209424
9.9	-0.00732934636603766	-0.973561680783569	-3.417280258439E-06	8.94022426777754E-06	1.37100159508784E-05	4.92388915799558E-06	-0.982353772745969	-0.0776627511726295
10	-0.0865880930892571	-0.96628475235571	-3.62077035432537E-06	1.61778159330176E-06	1.91036354479236E-05	-1.80933089435742E-05	-0.98446837903436	0.0462065360378859
10.1	-0.16361831386852	-0.953737734473356	-1.46984890493055E-06	2.29536037390662E-06	-8.39353962120219E-06	-4.28047022496842E-06	-0.971235062428887	0.170028495601381
10.2	-0.239928276862518	-0.935038362669087	-2.30267704035505E-06	-1.23184423701954E-06	-1.28551834654297E-05	7.22409318013629E-06	-0.941759856151083	0.2912377993299
10.3	-0.313363453188604	-0.909529388291691	5.74843781143644E-06	3.89663409551245E-06	-6.11963548984061E-06	1.38563197631887E-06	-0.89718795153678	0.407039864116763
10.4	-0.384029548667748	-0.878567343558641	2.09168099161792E-06	1.03638933773267E-06	6.820531426441E-07	-8.17578501033134E-06	-0.838006255642591	0.51462983461108
10.5	-0.451522495313602	-0.840959865292729	4.33300361144104E-07	-3.03907911528165E-07	-6.54380941577849E-07	-5.58789762576285E-06	-0.769575509715439	0.613234949417027
10.6	-0.513480540533649	-0.79792390136436	5.04997297262541E-06	-2.58707514269606E-06	-9.67709313472971E-06	-7.81859468547942E-06	-0.687930898255941	0.706432844261714
10.7	-0.570893586693873	-0.751194238858662	-2.79190054090505E-06	-4.98598289237615E-07	-5.18319555284675E-06	-7.1116676661696E-06	-0.594310598777787	0.787252405793328
10.8	-0.62355758456621	-0.701991034158958	-3.58152971908274E-06	-3.4181714106306E-06	-1.18723359996972E-05	9.05820703271022E-06	-0.491295917561102	0.855406457433843
10.9	-0.672543237760075	-0.651667053610683	-1.12658476983686E-05	-1.03605889580528E-05	-4.46303544617755E-06	1.0858900716575E-05	-0.381573339700314	0.90968469138814
11	-0.720912534884122	-0.599427393878843	1.00151933444118E-06	1.40386766955951E-06	8.62748070594823E-06	-5.44600879106832E-06	-0.265688806678332	0.951901527883854
11.1	-0.764157294335615	-0.541322316447439	-3.19575202419905E-07	-3.61145183297774E-06	1.01379557955308E-05	-1.01259985363338E-05	-0.14334098581034	0.978155016866586
11.2	-0.803360387986134	-0.48259298488796	-1.01841225608262E-06	-3.89190325580934E-06	2.16022978568985E-06	-6.26936286652658E-06	-0.0185994219307104	0.988233869839895
11.3	-0.839903581263926	-0.420795583964356	1.65252910003006E-06	-1.19731367263433E-05	3.55223836994998E-06	-2.79810179063028E-06	0.106500763736438	0.982377246196138
11.4	-0.872551756733072	-0.355820416843247	9.82014861625076E-07	2.0308947583368E-08	-5.67495242564662E-06	6.41978432025176E-06	0.23029713395076	0.960644983987338
11.5	-0.900359551410406	-0.28577706290471	6.51349159296808E-06	-1.22715313481192E-06	8.19531837983129E-06	-3.01953765909752E-07	0.348861436215013	0.923142408650102
11.6	-0.920671801333963	-0.215375912337403	-6.24670123473857E-07	-5.29672682961161E-06	1.43525316298089E-06	-3.05894034058578E-06	0.462597493586584	0.871562548931682
11.7	-0.936874341505734	-0.142703095607795	-7.75398440606578E-08	-6.01132395554713E-06	8.9408628333282E-07	-2.6398109283332E-06	0.568954007258931	0.805561931002781
11.8	-0.947786260616823	-0.0673857627422423	-1.06305308321502E-06	-7.39975025829848E-07	5.13321657655974E-06	1.08819937038053E-06	0.666176472285465	0.726382566183447
11.9	-0.952758162641077	0.00991653249675571	-3.18454672911032E-06	-5.1916295313136E-06	-5.33571270107868E-06	-7.98525247986572E-06	0.751572184041217	0.634935279052637
12	-0.95161924239729	0.0890703724616211	-2.93459885188122E-06	1.62366650420107E-06	-1.66129290401904E-05	-8.7595020752535E-06	0.820318386173386	0.535217470645151
12.1	-0.942992502898649	0.167480886525357	8.29134703092514E-07	-1.55652903923498E-06	7.76608281050503E-06	1.22580223649218E-05	0.879961166695323	0.431136650659755
12.2	-0.927100634458976	0.245774176735003	-4.11609741360254E-06	5.51031802315328E-06	3.99026761227683E-07	3.30228872518938E-06	0.927415862946691	0.318132818322704
12.3	-0.904891103599507	0.322454066729469	7.78066677047926E-06	6.40021234133658E-06	3.71968361138177E-07	1.08585268376706E-05	0.959675300761682	0.199126749859193
