# GHZ S RI R 50
0.2	0.98587449224819	-0.156813974792322	2.56435082478365E-06	2.2501709432639E-06	6.57105514378422E-06	-4.86862724574115E-06	-0.96639116867899	0.251611263400134
0.3	0.969824900721305	-0.233925109842186	-8.73765984940053E-07	-5.45443381734805E-06	-3.4666998595963E-06	-7.94630202399373E-06	-0.926776743759462	0.371646094081398
0.4	0.948295402268671	-0.309299016385843	-7.27974865779343E-06	-9.90775259062229E-07	4.44171169708834E-06	1.5449076567071E-06	-0.872018878879441	0.485433625197448
0.5	0.921169705312291	-0.382761128985038	6.19977992116611E-06	2.10384004961442E-06	-2.41424171912437E-06	-1.90762452711117E-06	-0.803406800947093	0.591622987680666
0.6	0.888183166299047	-0.453517199087449	-1.05510382993956E-05	2.46105014446192E-06	-2.21838599778745E-06	-1.00701092354762E-06	-0.721925677153016	0.687950903223052
0.7	0.85014346851911	-0.521243660365202	2.78430863852131E-06	-1.17205380540579E-06	-2.98777086371876E-06	5.78846924694461E-06	-0.629271454210957	0.773425227533989
0.8	0.806869834527034	-0.586250692763079	1.17695191779561E-06	-8.47651345868961E-06	-6.62105615085234E-06	-3.07062968191785E-06	-0.526502321609338	0.846357076782295
0.9	0.758646129818307	-0.647948196877311	-1.14689989570197E-06	-6.8117480029528E-07	2.54825119780202E-06	6.54454768958407E-06	-0.415554497998178	0.905606700718587
1	0.705332414431307	-0.706147765671104	-2.74577407049706E-06	-3.22279455964448E-06	-4.06132624113597E-07	-7.31767022682314E-06	-0.29832479957166	0.95023613785683
1.1	0.647915791423856	-0.759764076598017	1.80536550787903E-06	-4.94175303990456E-06	2.2687554943115E-06	-5.13538362734475E-06	-0.17623538812574	0.9799996515808
1.2	0.585214828886802	-0.809282681673714	-2.4946058573713E-06	2.49197065879639E-06	9.25678006013145E-07	-9.11010392375937E-07	-0.0511357209135744	0.993916426752779
1.3	0.517273092585846	-0.853643112149664	-1.53723029560295E-06	7.1955422651073E-07	-1.3545710292201E-06	1.46314238323393E-06	0.0745762825685355	0.992184437799557
1.4	0.446481466320852	-0.891873710600735	3.92016576945637E-06	-3.23952211035199E-06	2.70309102053465E-06	1.09338744303179E-05	0.199508836790003	0.974229698253919
1.5	0.373624246396042	-0.92377401202655	-5.3341003740911E-06	1.10910819905024E-06	6.58565401134595E-06	-7.20255864731177E-06	0.320947545073355	0.94098443494721
1.6	0.300278534106633	-0.949598371531098	1.77716978408014E-06	-7.73344174688554E-06	3.62924781261289E-06	1.38255147953877E-06	0.436863234741575	0.892720304922703
1.7	0.226328456117044	-0.969723264990937	-1.94015544284764E-06	-9.69735754313126E-07	-2.34545313787955E-07	-2.08609200740781E-06	0.54519769193316	0.830991582787315
1.8	0.150031650484573	-0.984558879541526	2.84739358062875E-06	5.27916611663761E-06	3.1160043706326E-09	2.03096793299417E-06	0.645312004630209	0.75577575496923
1.9	0.0727097824392798	-0.993552433722352	5.67541809411372E-06	-2.62868428618697E-06	-2.9981931631777E-06	4.14332155098741E-07	0.734729210735244	0.668772622300232
2	-0.00471730869689288	-0.996361365009254	-1.54810569472853E-06	-2.02745777515578E-06	3.20974228018276E-06	1.1461230326202E-05	0.812856384955299	0.570754595136819
2.1	-0.0836310618777986	-0.99286133698808	-7.55592442392478E-06	2.4545735744091E-06	1.20686330951837E-06	5.14742534068274E-06	0.877715157327009	0.46414429750046
2.2	-0.160189203590041	-0.983222512124713	-8.83626411301265E-07	1.39451197113435E-06	3.00303396759679E-06	7.77946897093763E-06	0.929205130408015	0.35030018944613
2.3	-0.237082673755084	-0.967249969221765	1.77963283437498E-07	7.4563208767009E-06	7.39813399887819E-07	9.39266303797722E-07	0.965457569962483	0.231249288370497
2.4	-0.312615727630546	-0.94519622590798	1.5776483091303E-06	7.17833856006112E-06	1.51970322217041E-06	6.3912745737798E-06	0.987007636675088	0.107675091976918
2.5	-0.385792310664717	-0.918252111806455	4.39473495844593E-06	-2.31377128751102E-06	-1.91236108980366E-06	-7.57788046265076E-06	0.992550926912158	-0.0167895449662583
2.6	-0.457364622185388	-0.884871677904726	6.77745804972931E-06	-5.94900404817491E-06	-1.11124520200823E-05	1.08353474890721E-05	0.982844582977146	-0.141776339530725
2.7	-0.526117921898134	-0.845757217874201	-4.4458538578816E-06	9.14945906539573E-06	-2.87512833852842E-06	-9.16608783890586E-06	0.956889167594804	-0.264613266799505
2.8	-0.590498829387698	-0.801788768252608	2.45904203653001E-06	1.14403497630149E-06	-3.12955221023838E-06	1.24466369487492E-06	0.916437058739069	-0.382437463229158
2.9	-0.65082186570875	-0.753517444982076	-5.50018833421361E-06	6.01700089962786E-06	-9.19562689012962E-06	-2.82530680702033E-07	0.861089668556949	-0.494040561400724
3	-0.708209911888476	-0.700200461197152	4.72227760105927E-07	-1.47294320127649E-06	1.13246069581508E-05	1.46198865082741E-06	0.792318712285216	-0.598069811297931
3.1	-0.761062226275551	-0.642401955785995	2.40484572927913E-06	1.04929000621052E-05	4.32381802188739E-06	2.17329635317861E-06	0.711483175797912	-0.692093834595649
3.2	-0.808702739731995	-0.581040391472187	2.10255596208457E-06	6.46324830955496E-06	4.00026841784696E-06	-1.05998479371342E-05	0.619696680505434	-0.775606277147127
3.3	-0.8515067499609	-0.516449441860148	3.07866573070219E-06	4.96056972984073E-06	-2.220626930069E-06	-9.66502287947864E-06	0.517016631276979	-0.847594456462337
3.4	-0.888476413273886	-0.44912069597043	2.12580219121788E-06	-2.60231159613065E-06	5.95557578996957E-06	1.38479009627748E-06	0.407517892146827	-0.905865670678481
3.5	-0.921070003804719	-0.377566960356427	-3.2397048750329E-06	9.46087472658089E-07	-2.07340020185364E-06	3.42286783016335E-06	0.290400422846038	-0.950365900608793
3.6	-0.947575125602596	-0.303947744623804	-1.81295556243964E-06	-3.74307895963802E-06	-7.82188442381186E-06	4.10658032807711E-06	0.168584743907154	-0.979378405906922
3.7	-0.96813876499709	-0.229187045265752	8.21738542316348E-07	-8.32562759578603E-06	1.07667860111383E-05	3.69595694143895E-06	0.0437098869327945	-0.992795317085509
3.8	-0.983185331549777	-0.152290674590272	9.20105766254249E-08	1.54669518863855E-06	-6.51826410944236E-06	5.95081277675124E-06	-0.0811820039242688	-0.990299372171812
3.9	-0.992062239172661	-0.0750458903591332	-2.62761347324677E-06	-5.02771752244948E-06	-3.70344697020854E-06	8.02543611294963E-06	-0.206451005320614	-0.972064146198097
4	-0.995254562713742	0.00380691906492244	7.12870172061823E-06	-3.81465402291815E-07	-1.04478402606477E-06	-1.20564804146935E-06	-0.326083812604962	-0.938333279848504
4.1	-0.992165972537533	0.0823500021724633	6.19859045073201E-07	-4.43763338219127E-07	7.35525865071564E-06	-4.75472580160352E-06	-0.441385679109201	-0.890398065264104
4.2	-0.982842824203825	0.160524431646829	3.20616208221077E-06	2.10489018152773E-06	-7.18508622896602E-07	-7.62554884810187E-07	-0.550023513753152	-0.827787813310421
4.3	-0.967537087178382	0.236724359268143	-3.19219900673212E-06	1.37283235136448E-06	-5.00086523679657E-06	2.9832764573324E-06	-0.649805963471183	-0.752623494862466
4.4	-0.946210253046009	0.311512504438043	8.0505916717156E-07	2.64491376118768E-06	1.55449205354892E-06	-8.34057630717701E-06	-0.739394688114489	-0.665008995259729
4.5	-0.919304271217238	0.38438887614263	1.82497627337305E-06	-9.40558276176655E-07	7.63690491783471E-06	-2.5657392788936E-07	-0.817117760669248	-0.566545264493082
4.6	-0.886618861888317	0.456301645924026	-7.3084281738867E-07	6.13435467862376E-06	-1.23517919617968E-05	-6.4925115224916E-06	-0.881308614175988	-0.459407348868245
4.7	-0.8482108520236	0.524125145171894	1.20154920910647E-06	2.51349856385968E-06	1.42144204090743E-06	1.86849603474702E-06	-0.932183078571438	-0.345402459120563
4.8	-0.803719120935126	0.589880530013128	-5.18903426708047E-06	1.11350187779324E-05	5.23166028548712E-06	9.70211199385275E-06	-0.968064285840692	-0.225275849075144
4.9	-0.75448530228988	0.651070644271379	1.19735036472555E-06	2.93515243742528E-06	-4.7753779851706E-07	-6.91972224820223E-06	-0.988438783412197	-0.101296050109029
5	-0.700929937778638	0.708458113902099	4.74761450535074E-06	-9.05843331598674E-07	-3.74968347129692E-06	2.42216747215627E-06	-0.992910413873568	0.023756119998604
5.1	-0.641892191459496	0.761767155805333	4.13966799542042E-06	-1.37657941586656E-07	-2.65091148496596E-06	-9.82872736968984E-06	-0.982331666741218	0.148487241780014
5.2	-0.57938157246874	0.809831449969179	2.63784088949859E-06	-1.5010375957994E-05	1.37763171493437E-06	2.8273007708449E-06	-0.956075660916825	0.271375889539441
5.3	-0.513795350375796	0.852898037203356	-8.72395203751159E-06	-7.89994786461577E-07	-1.13686869323524E-06	1.5837541753953E-07	-0.914390264608769	0.39020622321484
5.4	-0.445363450568002	0.890831182144359	-7.18990730232927E-06	-1.10800924778563E-05	-1.37667006258425E-05	1.12058944578037E-05	-0.857501121432295	0.502617883368309
5.5	-0.374405480621503	0.923340786048109	1.90751482714088E-06	8.96264141835812E-08	-2.24865853497056E-06	1.78582339493401E-06	-0.787128259354899	0.606305468645868
5.6	-0.300390322389017	0.950072209065191	-2.41348731494279E-06	3.51857534226044E-06	-1.34427261969995E-06	1.2907765032775E-06	-0.704657927966061	0.699680217833542
5.7	-0.224274036819564	0.970811334220007	1.30779673746203E-06	1.23404921955334E-06	5.77211224661492E-06	-1.16803553790678E-07	-0.611621702122829	0.782446540829792
5.8	-0.146877518837866	0.984819108392632	2.70686073193519E-06	4.26810540712282E-06	-2.11730492213052E-06	4.24997401884269E-06	-0.508572511762076	0.853029552112033
5.9	-0.0688439285166968	0.992705508976091	-6.90400686193334E-06	-2.30524253291196E-06	-7.624804025568E-08	6.30532785659057E-06	-0.397602546709596	0.910421344841203
6	0.00881372027885445	0.993968308904123	-1.79675003905346E-06	9.24767748178682E-08	-5.48215615941359E-06	-4.39344580470237E-06	-0.279584965121319	0.953001681799019
6.1	0.0858864643753701	0.989845746844335	2.69643350631323E-08	-9.93156169776946E-06	-9.89886744690794E-07	-3.21880770822211E-06	-0.157648493156798	0.97964910033082
6.2	0.163383641596575	0.979834275758629	-1.01799729660164E-06	3.11706752165524E-06	-1.75412520107876E-06	4.22095894922882E-06	-0.033107066997528	0.990680632111754
6.3	0.240316861329184	0.963958676034281	-8.01687334952825E-07	2.83259889796823E-06	-2.93582413068454E-06	2.40068951865664E-06	0.0914861791372773	0.986311836382121
6.4	0.316124669305597	0.942048675872599	-5.96368471722815E-06	5.55404854910476E-06	-2.38338015689233E-06	-7.4665113382021E-07	0.214989927944003	0.966638165054468
6.5	0.389939506739841	0.914672626553386	1.40157522382183E-06	-5.27873058012971E-06	-1.45038944984936E-06	-2.37684722365953E-06	0.334601419700637	0.931418839906107
6.6	0.462156797252963	0.881344206504901	3.65876968235477E-06	2.08922301825215E-07	1.13191390230516E-05	-2.68551004982411E-06	0.449057783669863	0.882073712873189
6.7	0.531069774465509	0.841496499623761	-7.77074537176833E-07	8.49054945393392E-07	-3.77385372910982E-06	5.2405380537143E-06	0.555992931444877	0.818690695757617
6.8	0.596292859974236	0.79640486897347	-1.75532785305408E-06	4.49664152711414E-06	1.455720942518E-06	-8.85811789133761E-07	0.654174802688687	0.742558782953568
6.9	0.657521630296586	0.746293435808357	5.93248455728264E-06	2.24859650520805E-06	-9.31291538347907E-07	2.42089978740682E-06	0.742090009943809	0.654700653526278
7	0.714243802971663	0.691461859731033	1.1386894183433E-06	-4.15934755558797E-06	-1.42810823475599E-06	2.92425013021149E-06	0.818189972352281	0.556233564370556
7.1	0.766604996687904	0.632858770187261	2.39844364363848E-07	-7.19299428276283E-07	1.98328224494849E-06	9.19899011449781E-06	0.881115328759488	0.449352946318135
7.2	0.81432276658833	0.569726122467635	1.38579928447323E-06	-2.41772491533553E-06	-1.01778539119992E-06	-8.57656944183079E-06	0.930241931959163	0.335670872715925
7.3	0.856705689502942	0.502690920418243	4.84669448621784E-06	7.23330638041047E-06	-9.72708111898748E-06	2.34203025681492E-06	0.964604181946439	0.216557143029819
7.4	0.894036008024644	0.432414648536961	5.10147584847782E-06	-6.85232828262472E-07	1.93944411566188E-06	-9.64978121639893E-06	0.984255340719848	0.0937507380817685
7.5	0.925756970071289	0.358955520193489	2.74750065404416E-06	-5.31647410315997E-06	2.09657955140927E-06	-7.28943969352331E-06	0.98825816214904	-0.0312051561709629
7.6	0.951403133685642	0.283121034889267	-3.19245686601007E-07	-5.64673136969198E-06	1.68050907352449E-05	3.86044371033213E-06	0.976104502136544	-0.155617190148835
7.7	0.971005944150032	0.20541912195133	3.5249835982643E-06	1.05930520596746E-07	3.20273586481612E-07	-2.93117087713343E-06	0.948500116791241	-0.277566059581999
7.8	0.984174190816423	0.126498506332227	-1.09997024260993E-05	-1.90082275682692E-06	-1.96467335888477E-07	3.4450238016301E-06	0.905728917490536	-0.394746895805264
7.9	0.990945066951963	0.0465979932029178	2.3643858844649E-06	2.0272485086174E-06	-6.96389926131918E-06	-4.69923960409117E-06	0.848729162845584	-0.505378447527829
8	0.990719409513947	-0.0333498456005302	2.35988477454589E-06	2.94540622293987E-06	-9.35520121466668E-06	-7.567036724392E-06	0.778127382727693	-0.607314290506234
8.1	0.984658267993269	-0.112303160714911	3.81710046283907E-06	-3.07361596363166E-06	2.1387843389942E-06	-3.18538813128696E-06	0.696892992811747	-0.699334046859805
8.2	0.972494858483096	-0.190786258043195	-4.03060989013451E-06	1.42106990483139E-06	-6.74764215001979E-06	3.70441001959847E-07	0.604706214482175	-0.781441203001753
8.3	0.95352207243374	-0.268412364860965	9.85884268857219E-06	2.83391461125028E-07	6.25393169760319E-06	1.04355334108712E-05	0.502377547615801	-0.851355952585988
8.4	0.928219171555823	-0.344252081172444	1.28707203279724E-06	2.55448618530324E-06	3.46132757030513E-06	1.81877659756208E-06	0.39178839843748	-0.908100443560823
8.5	0.896914355356616	-0.418059121819429	-4.83733633862252E-06	4.96928679950832E-06	2.85050245295804E-06	-3.02572260291239E-06	0.274181709910028	-0.949730835316314
8.6	0.859659466807882	-0.48910465462192	-4.49587885352425E-06	2.09432337330563E-06	-3.0261944276089E-06	8.12265888876775E-06	0.15367377887383	-0.976365676209634
8.7	0.816792749662653	-0.556954256349003	-1.01966010188001E-06	1.21749058228655E-06	-6.39853893975149E-07	3.4643390559028E-06	0.0303387233166166	-0.988477003087666
8.8	0.768563606605084	-0.62091552956099	-1.58126435882058E-06	3.08100640176609E-06	-6.00693196280521E-06	1.29189502028948E-06	-0.0936014844897221	-0.985358969027195
8.9	0.715655741724124	-0.680737998308773	3.17238990160719E-06	-1.83414845670982E-06	-3.165183794378E-06	-4.54349328425013E-07	-0.216777153987599	-0.966323778091841
9	0.657860128451656	-0.73618344766394	-7.28698534342814E-06	1.35342363593252E-06	-3.9779699647266E-06	7.26446986730824E-07	-0.336726044906867	-0.932282716339157
9.1	0.595817549707728	-0.786506627792011	-3.35656856441369E-06	-1.88295564945057E-06	-9.83598517804884E-07	2.13594128209422E-06	-0.451917967672562	-0.882894353498024
9.2	0.529766579526112	-0.831573765225244	5.98774604973717E-06	-1.64240004279715E-06	1.98929557961814E-06	8.48441632331999E-06	-0.559926923620576	-0.819570968356039
9.3	0.460463436338441	-0.871230196347763	-3.39174428166536E-07	1.0715745658582E-06	1.36830999637089E-05	1.18346463778706E-05	-0.659101625428121	-0.74213547193086
9.4	0.387990351935382	-0.905126911736111	1.73193362808696E-06	-2.66553897465344E-06	4.29315865185082E-06	1.75766829448169E-06	-0.746846097077312	-0.652617715910425
9.5	0.311957190916449	-0.933141459479314	-6.51657265857079E-06	-4.8838640820493E-06	-1.95402495593181E-06	-5.70516408851456E-06	-0.822424284667956	-0.551682030105022
9.6	0.233320242779085	-0.953846279073772	-1.16770096040125E-05	-2.52663399598472E-07	-5.92515661870476E-06	-4.00835930085338E-06	-0.883363363399498	-0.444041933072478
9.7	0.153735846466382	-0.968112263241012	1.46738773515471E-06	-4.78388520566157E-07	-2.91639426618342E-06	1.64146164578661E-06	-0.93209477283023	-0.33003492679271
9.8	0.0733878614765497	-0.975694609601463	2.20586974303621E-06	1.40048021788525E-06	1.51011078410716E-05	-3.50319747447663E-06	-0.966386491273306	-0.210501576525697
9.9	-0.00720450187113953	-0.976369927517073	-3.46198389056692E-06	8.97378299996426E-06	1.37624638175399E-05	4.99087829903463E-06	-0.986136956575469	-0.0868090479635198
10	-0.0868622134209667	-0.969922682721251	-3.64479641937534E-06	1.62031145766984E-06	1.92484545585247E-05	-1.81620111554447E-05	-0.989351076350008	0.0394871791290374
10.1	-0.165117801674505	-0.957114689544231	-1.47970691169907E-06	2.30591366498104E-06	-8.43317852849046E-06	-4.31081553158532E-06	-0.975781537083693	0.164616466522363
10.2	-0.241783045002606	-0.938081586948114	-2.31299869110335E-06	-1.23990184697496E-06	-1.29248803326749E-05	7.24877670919025E-06	-0.946486156606282	0.286530107289025
10.3	-0.315464588093833	-0.912606462768083	5.77385469284398E-06	3.92130370646345E-06	-6.15160137921984E-06	1.38716435616262E-06	-0.902524870690641	0.403396355730795
10.4	-0.386316220174093	-0.882017841842021	2.10229587982024E-06	1.04379086045747E-06	6.92514593026012E-07	-8.22004555854977E-06	-0.843636567909536	0.513608831397057
10.5	-0.454542960480895	-0.845513291926436	4.35691038123489E-07	-3.05629449263795E-07	-6.58410140458134E-07	-5.61895419430322E-06	-0.771225178520792	0.614484914661599
10.6	-0.518437642677913	-0.802946762902007	5.07570837092934E-06	-2.59962129152419E-06	-9.72513053628621E-06	-7.85900693387416E-06	-0.687410890822692	0.705135395800856
10.7	-0.577542066847047	-0.755722697142107	-2.80657095129112E-06	-5.01710076531648E-07	-5.20937525894915E-06	-7.15013856643641E-06	-0.593656946377926	0.784759332110975
10.8	-0.631829686772118	-0.70547417826769	-3.60233887742377E-06	-3.43645669416036E-06	-1.19366243605256E-05	9.11157899738689E-06	-0.49072144749192	0.852315240218082
10.9	-0.681950653506839	-0.653013124361897	-1.13435601149801E-05	-1.04032268167789E-05	-4.47307559696995E-06	1.09261481212602E-05	-0.380632159324668	0.907047680341853
11	-0.728718159958774	-0.599251156627568	1.00791032977955E-06	1.40761229218301E-06	8.65173795047818E-06	-5.48250605962553E-06	-0.262542924458487	0.948181810744499
11.1	-0.772717783720928	-0.541742610971058	-3.24672164081786E-07	-3.62466511417074E-06	1.01650885710294E-05	-1.01749537710417E-05	-0.140390503719111	0.971703320748469
11.2	-0.812888134693664	-0.481571986772115	-1.02641376648627E-06	-3.90470424395223E-06	2.16095415646652E-06	-6.29423538402118E-06	-0.0172597574666514	0.980093794106217
11.3	-0.849308066882727	-0.41793218670422	1.64592013146647E-06	-1.20124693045372E-05	3.56066342303224E-06	-2.8104173464584E-06	0.105501508604631	0.973719885625606
11.4	-0.880646685335765	-0.351788617835966	9.84479317091429E-07	2.00232327085931E-08	-5.68695394308502E-06	6.43779466790524E-06	0.227182816393572	0.952766880391996
11.5	-0.908248455086592	-0.282901428720259	6.53595247249132E-06	-1.22474799480512E-06	8.22235661576045E-06	-2.94874798105021E-07	0.345191169177599	0.916578536240162
11.6	-0.930095942446171	-0.210815590497473	-6.25440132698785E-07	-5.31991927785717E-06	1.44259503793575E-06	-3.07167711669367E-06	0.458180489112853	0.865477925548785
11.7	-0.945307439686482	-0.136093061702931	-7.91373123413716E-08	-6.03748269029999E-06	8.97426140125067E-07	-2.65149278359065E-06	0.563535303866322	0.80089571497411
11.8	-0.954374155568092	-0.0597789250596423	-1.06804673182214E-06	-7.42545435648033E-07	5.15590369611466E-06	1.08993084907063E-06	0.660610829677862	0.724153021613871
11.9	-0.956872207879578	0.0173689145609452	-3.20395608522968E-06	-5.21134202868096E-06	-5.36750253599993E-06	-8.01512416762386E-06	0.748293500647553	0.636387569527705
12	-0.954532647591323	0.0943464155117789	-2.9448991484906E-06	1.63821144626466E-06	-1.67126686034853E-05	-8.76309206089453E-06	0.823983622092588	0.536101217074416
12.1	-0.946813924163296	0.171698668741872	8.26363022908339E-07	-1.56505699423805E-06	7.83835929918751E-06	1.22728526826184E-05	0.885101224365858	0.426483100034328
12.2	-0.931518880299842	0.250093036086236	-4.10477909040322E-06	5.54038887300628E-06	4.13025535815962E-07	3.30903352545578E-06	0.93140058334213	0.310623945201474
12.3	-0.909671707364353	0.327081628718251	7.82077072480227E-06	6.38194526674406E-06	4.15347048748817E-07	1.08779393484726E-05	0.962281045508259	0.190068338550482
