# GHZ S RI R 50
0.2	0.00552355286732639	-0.000330221939338896	0.00305727603975688	-0.000895514827035448	0.00306766005087346	-0.000888673226442778	-0.0144155649462821	0.00336272414824947
0.3	0.00600661453745561	-0.00174201222109631	0.00291563512317872	-0.00131994034013945	0.00290834194390393	-0.00130697530027953	-0.0134789695252373	0.00410184415355844
0.4	0.00582275480480405	-0.00273263419975489	0.0026866719907537	-0.00169424436842929	0.0026919781908375	-0.00170282790513569	-0.0129504518040288	0.00530489446443315
0.5	0.00651061094459814	-0.0043214125745538	0.00242808497541239	-0.00205647915085756	0.00243969435305562	-0.00206876263438286	-0.0111631870787035	0.00578180231885023
0.6	0.0044943847605081	-0.00687127221911464	0.00211325918051603	-0.00237251511926934	0.00211247723770975	-0.00237969747433226	-0.0117211810065634	0.00504341135912507
0.7	0.00215871407321409	-0.00717184644451662	0.00176612189974823	-0.00265271612314231	0.0017641565842118	-0.00265291848468094	-0.0123499265999289	0.00617274289911283
0.8	0.000256299133221663	-0.00703088884868563	0.00137928367276928	-0.00287371496310739	0.00136661937054445	-0.00287830264928835	-0.012461562731261	0.00748539156820752
0.9	-0.00186522619171187	-0.00606137431880129	0.00095835988976975	-0.00304065020904653	0.000959404752102848	-0.00305141269974805	-0.0125910592629366	0.00920257363850279
1	-0.0018440419592586	-0.00382308194632409	0.000528962489140409	-0.00314264193166377	0.000519049684728633	-0.00314338395755626	-0.0106336308750724	0.0117140978537524
1.1	-0.00187280967111864	-0.00524824649407112	7.36920006969378E-05	-0.00317277671610134	7.017690919786E-05	-0.00319052791135338	-0.00901618007701264	0.0105627949638198
1.2	-0.00409814320520757	-0.00561210959266455	-0.000372560208389028	-0.00316473212478334	-0.000373377597275955	-0.00316264265854566	-0.00915043433204314	0.0105831788743685
1.3	-0.0063148251659201	-0.00568676398931734	-0.000804657748803636	-0.00308140605229338	-0.000807920215564668	-0.0030834231053143	-0.0085717049697522	0.0108412878063229
1.4	-0.00828771902039907	-0.00482367998958325	-0.00122977527876537	-0.00293050063701038	-0.00122855985703024	-0.00293607004925263	-0.00763305068281721	0.0111993158917912
1.5	-0.00778960447206154	-0.00380259100351151	-0.00163058415869482	-0.00273469861883666	-0.00162896214217471	-0.00274325349989693	-0.00527279017253621	0.0107935858763426
1.6	-0.00893460239417171	-0.00271683610600632	-0.0019983942987302	-0.0024832321239969	-0.00199861085303869	-0.0024885082619714	-0.00568260738131003	0.0105549618535827
1.7	-0.00846669847875461	-8.13815997425196E-06	-0.00233201001499653	-0.00218125543482231	-0.002332971454414	-0.00217494122733035	-0.00491403822526697	0.0119266935714166
1.8	-0.00718052961623304	0.00220246440399946	-0.00260517866771415	-0.00182446025543251	-0.00261624567366308	-0.00183011372839051	-0.00372448406630256	0.0127530273741763
1.9	-0.00533867017392316	0.00429205637467198	-0.00283129657099227	-0.00145024356036715	-0.00284381886672667	-0.0014440104368556	-0.00238846667859115	0.0137183779316885
2	-0.00159431892389798	0.00482050886167523	-0.0030126176326696	-0.0010392259094515	-0.0030223166484677	-0.00103444416930744	0.000406499786362409	0.0135719252273583
2.1	-0.000675896130490469	0.00308140547458156	-0.00312645432789728	-0.000599096060051193	-0.00312234400124745	-0.000601127747445853	0.000521396007131082	0.0118422605705994
2.2	-0.000195091274846428	0.00309888465653554	-0.00317961446611093	-0.000154204479939575	-0.00319102992070093	-0.000156996733707678	0.000653904340469389	0.0119876769492012
2.3	0.000591474064014077	0.00301062205539433	-0.00317144175643802	0.000294160278333412	-0.00317118085715392	0.000287219258656783	0.00119844872586203	0.0120559902689521
2.4	0.00129448085695952	0.00332066098118308	-0.00309633726675465	0.000738047710512909	-0.00309893038977487	0.000733771888936323	0.00176839393471967	0.0125429990619202
2.5	0.00405555860951114	0.00357886044384107	-0.00295147563952475	0.00116001768557514	-0.00296239386183916	0.00116655558185657	0.00429572735158157	0.0129293111958168
2.6	0.00564749765544576	0.000607531413810964	-0.00276541705431173	0.00156219264681379	-0.00276196117930966	0.00154975983805953	0.00553520549439155	0.0105641415960281
2.7	0.00578107860761151	-0.00144120521205068	-0.00251334911509293	0.00193227305813913	-0.00251865892161132	0.00193233613925032	0.00549434023811942	0.00938977352457871
2.8	0.00566333054760814	-0.00324182299655885	-0.00222361705102513	0.00225962230403594	-0.0022156583114626	0.00226938351811904	0.00533645476250816	0.00880155499343221
2.9	0.00555244192143464	-0.0044502676879148	-0.00187958620205047	0.00255880914522763	-0.00187586433297398	0.00255833632533999	0.00562327493357208	0.00908914002308484
3	0.00666394481892543	-0.00649679642860759	-0.00148276735673833	0.00278390468006233	-0.00149750293716546	0.00279019955726733	0.00748877759492109	0.00865753821106717
3.1	0.0051647527784694	-0.00971982296175404	-0.00109359041049102	0.00295383152326981	-0.00108883500256337	0.00296213863054552	0.00720635509174365	0.00725161593332618
3.2	0.0031942476241763	-0.0111960853937994	-0.000669349107340676	0.00308681887012303	-0.000671103587607524	0.0030862267655278	0.00712708851262225	0.00744947806769061
3.3	0.00119675127553202	-0.012372945327107	-0.000227078074377518	0.00314919281535315	-0.000225472136230869	0.00314542937763687	0.0075835475735836	0.00752473870711469
3.4	-0.000962059264374864	-0.0126182442987414	0.000220393418721734	0.00313231359161325	0.000214392188297042	0.00314894177021597	0.00833028297073809	0.00771881247183065
3.5	-0.00150316437068	-0.0133020699583396	0.000634422971716872	0.00308312802608924	0.0006400115896412	0.00308314767984721	0.0103961572556312	0.00681397616675348
3.6	-0.00465791560300665	-0.0152775292978878	0.00106418855005408	0.0029629147502439	0.00107237636028938	0.00296251081369606	0.0100374675035303	0.00464407754864228
3.7	-0.00827446263292283	-0.0147451877274075	0.00147399834497539	0.00277375036483247	0.00146457755592836	0.00278752300877773	0.00961871663002369	0.00425263263527653
3.8	-0.0112689569260607	-0.0132067406101818	0.00184708958972314	0.00253948125528071	0.00184959358255098	0.00254858500066829	0.00967746209296862	0.00401140945050428
3.9	-0.0133113637731212	-0.0106202149621285	0.00218546852522073	0.00226322900883702	0.00217820400838435	0.00226153097625981	0.0101124372076556	0.00410274857135903
4	-0.0129120281727555	-0.00883097430529157	0.00247002410436468	0.00194263251599486	0.00247444210367117	0.00194015358520948	0.0122275610183539	0.00316233073658481
4.1	-0.0147667842940309	-0.00886709220714843	0.00271751840942752	0.00157230210587072	0.00271627831636179	0.00157305203151538	0.0118287544828141	0.000686310959893537
4.2	-0.0169045197841281	-0.00676993050671849	0.00290592401679714	0.00116797025831442	0.00291026218920049	0.00115923474541608	0.0112153294475044	1.86710951563497E-05
4.3	-0.0182916612574726	-0.00405718493266786	0.00304018990912831	0.000756657793627234	0.00304648715045206	0.000748816676010433	0.0110103390182671	-0.000547117179948008
4.4	-0.0190103277790158	-0.000468347741857879	0.00311112595789938	0.000324117925488383	0.00311346212995348	0.00032184417243252	0.0109167742985479	-0.000650799599455149
4.5	-0.0169924015883622	0.00265231690687887	0.00312517309557195	-0.000119132967897162	0.00313045475308412	-0.000122562316228792	0.0126045431450271	-0.00145932548654078
4.6	-0.0168496875016739	0.00318645725211527	0.00306539755249432	-0.000554003660722492	0.00306678468876467	-0.000541223687366369	0.0117777117685981	-0.00418715110259702
4.7	-0.0169702827302495	0.00559088116783665	0.00295447349273063	-0.000962815240949384	0.00296949530638652	-0.000972517357436504	0.0104605323466154	-0.00500895759861215
4.8	-0.0163319687042613	0.00829462133825343	0.00278939407475803	-0.0013688538031135	0.00279771613481329	-0.00137497566308064	0.0094978604329668	-0.00540736248338433
4.9	-0.0147323680657841	0.0114441642605187	0.00256340237877193	-0.00174604640774947	0.00256755582770666	-0.00174322314028931	0.00890029655664879	-0.00510002965166986
5	-0.010596294319495	0.0131350156053926	0.00229601110599905	-0.00208497100936022	0.00229960871164833	-0.00208238563191751	0.010283682901589	-0.00563181621190426
5.1	-0.00892573053817656	0.0127885874541633	0.00199384688089664	-0.00238103439312709	0.00199612409648097	-0.00237971468813723	0.00920597665365346	-0.00735652886088903
5.2	-0.00696664886036508	0.0140200215906292	0.00164165812456446	-0.0026239191053078	0.00164330949711453	-0.00262899908288974	0.00858573580806597	-0.00733743201694419
5.3	-0.00416904108612132	0.014848097500099	0.0012594011056123	-0.00283075615206146	0.00126249942141909	-0.00282874614268972	0.00854156034665987	-0.0074063644369464
5.4	-0.000851120687706832	0.0155520962074205	0.000841831309514392	-0.00296710555097142	0.00085864099428807	-0.00297822012895853	0.0088648161366137	-0.00736526996907727
5.5	0.00449355090120163	0.0138811715437092	0.000446344450991453	-0.0030585547248838	0.000456206523509236	-0.00306783953795074	0.0107069323726334	-0.00918861839937551
5.6	0.00525467419951927	0.0100240041785182	1.59652597400308E-05	-0.00309963312866358	7.56326147375179E-06	-0.00310278850471104	0.00822903971744835	-0.0118343711505814
5.7	0.00552012580199768	0.00874456652601486	-0.000408156010411244	-0.0030674123997083	-0.000424515837360655	-0.00307098805011694	0.00617948779973203	-0.0115559923987036
5.8	0.00611223564484171	0.00766067932709671	-0.000843139657041393	-0.00297201348017211	-0.000846626451004407	-0.00298577286667262	0.00499962167968755	-0.0112194827390945
5.9	0.00662127587581307	0.00749245507904449	-0.00123503686634349	-0.00283665898123312	-0.00124313345394784	-0.00283659124752258	0.00400767027970838	-0.0102677216213941
6	0.0103595977530081	0.00690785656179332	-0.00162987869176479	-0.00264279827501493	-0.00162636528951218	-0.00264295493818894	0.00569628058095778	-0.00982057001799193
6.1	0.0112976926547356	0.00171261794422	-0.0019823388830918	-0.00238709298685861	-0.00198395707802746	-0.00238314774064075	0.00469413932538519	-0.0125884936733548
6.2	0.00985782663178849	-0.00151835041614285	-0.00228576710274863	-0.00207935523599129	-0.00228939691863382	-0.00209104895197056	0.00261603516114417	-0.0130348095337002
6.3	0.00806870411722264	-0.00386389129952626	-0.00255747789548218	-0.00175469541857492	-0.00256648493242086	-0.00174907491418242	0.0010881812593938	-0.0128739264938547
6.4	0.00646130918875235	-0.00487928751685448	-0.00278400698746917	-0.00137506209245936	-0.00277439860134354	-0.00137985540919927	0.000432123338194003	-0.0118789206673773
6.5	0.00687091143761309	-0.00769400378307134	-0.0029413098761112	-0.000970489210623001	-0.00294906912750191	-0.000966089234727685	0.00176300849841642	-0.0130444087124136
6.6	0.00272855732582079	-0.01055001756188	-0.00304055731036808	-0.000556552571782421	-0.003042146724269	-0.0005604703563487	-0.000611165305201275	-0.0142246797966449
6.7	-0.000504585948317462	-0.0103844706478087	-0.00309363525279352	-0.000132722956951703	-0.00310238689157917	-0.000126600458054637	-0.00185544490936772	-0.0134958985695197
6.8	-0.00326521821998199	-0.0096716382270073	-0.00307832917872784	0.000299275399634569	-0.00308929090096992	0.000304167106541487	-0.00288345874076914	-0.0128499909368262
6.9	-0.00537066159662912	-0.00734144667874645	-0.00300788825737522	0.000727810583515061	-0.00301084739348542	0.000730145138605812	-0.00341837219400781	-0.0112145576345369
7	-0.00362141969426169	-0.00662622602620946	-0.00286983054215335	0.00113618342129787	-0.00288241668437313	0.00113392062097515	-0.00110019453600529	-0.0116358542269734
7.1	-0.00686896785074772	-0.00850643065147425	-0.00270841632530902	0.00151173613543482	-0.00270491447113009	0.00152030644037351	-0.00366573806454762	-0.0136993783759147
7.2	-0.0102567971483876	-0.00653162846758897	-0.00246621045590543	0.0018780533751318	-0.00247267248499558	0.00188001942473993	-0.00559823304813462	-0.0124617217029232
7.3	-0.0127737392674216	-0.00367334872767743	-0.00218173148336721	0.00219649018736443	-0.00219285685265357	0.00220132508189302	-0.00646774169063518	-0.0112089279841833
7.4	-0.0146942534076046	0.000974746861797707	-0.00185101448608762	0.00247668717599862	-0.0018579969749908	0.00249000031268368	-0.0070012654053153	-0.00928128058302615
7.5	-0.0116545193149441	0.00565849386463443	-0.0015082208541403	0.0027164493440386	-0.00150145531684287	0.00272388190184301	-0.00396099814145824	-0.00845098036125769
7.6	-0.0108179975463153	0.00561033919836521	-0.00111412406563612	0.00291161151968407	-0.00111539948771831	0.0029069312017491	-0.00428431100439049	-0.0116562865605678
7.7	-0.0106765579639028	0.00777108090507705	-0.000691523117757259	0.00304278538325002	-0.000692833066403175	0.00304170793917119	-0.00597561597963715	-0.0125871968979784
7.8	-0.00931595013645381	0.0100986055465586	-0.00027280139648232	0.00310134181784684	-0.000280672775611272	0.0031076028839865	-0.00747986106309323	-0.0127326372789384
7.9	-0.0064327900334743	0.0125591265662081	0.000159119846812224	0.00312210660030366	0.000166982429567638	0.00312376220255887	-0.00820920651918924	-0.0119931957692307
8	-0.000993704682593648	0.0113356007659935	0.000603676687203063	0.00307388635163937	0.000603656920449463	0.00307878114563679	-0.00756913969292431	-0.0134199383621401
8.1	-0.000771793186909338	0.00915243037804579	0.00102310422715038	0.00296260492716629	0.00104220722272772	0.00296404010176886	-0.011335249639571	-0.0141222667846431
8.2	0.000179160643850305	0.00952588362842872	0.00142955191559739	0.0027908449551724	0.00143892414228747	0.00278383158855739	-0.013211588384595	-0.0121707378333203
8.3	0.00171271969342511	0.0097315110820759	0.00181109437895075	0.00256418565053784	0.00180918634928731	0.00257770903617892	-0.0142471814475734	-0.010426239329745
8.4	0.00379118575771128	0.0107611935176601	0.00215904279660596	0.00229884535673169	0.00215600714402119	0.00229856175241058	-0.0147093626786635	-0.00803585677297087
8.5	0.00954351856368567	0.00938799322106314	0.00246082277982669	0.00196517098577167	0.00245987239918103	0.00196835283867787	-0.0123409880559094	-0.00747634064309824
8.6	0.0101031000768985	0.00429965881709414	0.00270739816747321	0.00160767856000506	0.00271702770094652	0.00160128225528632	-0.0143585828541307	-0.00891597339006644
8.7	0.00955043339500681	0.00216774340979527	0.00290375448671309	0.00121174905074903	0.00290932203506404	0.00121257299173984	-0.0160283012179159	-0.00732543662171282
8.8	0.00910263100863402	0.000487851624861173	0.00305391509177824	0.000801938566263392	0.00305986653777311	0.000793230605745546	-0.0168657312762228	-0.00566683395788538
8.9	0.00879198321319351	-4.65906909958575E-05	0.00314285459517004	0.00036137159981503	0.00314201267970247	0.000359096755205463	-0.0169276679886179	-0.00319283741479696
9	0.0118252886238739	-0.00174673474004551	0.00315152063418513	-8.30350514548709E-05	0.00315462477438503	-7.88686660835993E-05	-0.0139000215708256	-0.00220319824890213
9.1	0.0110149619728201	-0.00678906045122356	0.00312161757508426	-0.000520463301031226	0.00312428410852434	-0.000507432462411296	-0.01436579715298	-0.00352798245853344
9.2	0.0091826672574347	-0.00963541273145724	0.00302510849430137	-0.000947446782931177	0.00303288156000728	-0.000950214023368826	-0.0146624713905213	-0.00289057363429579
9.3	0.007019647673624	-0.012156995012848	0.00286327036018918	-0.00136364014929164	0.00286261440118434	-0.00136868952747472	-0.0146249175148207	-0.00229487504803592
9.4	0.00466899355997676	-0.013190598010916	0.00264331612110238	-0.00176089588132129	0.00264976219729823	-0.00175312612351952	-0.014214910192626	-0.0010096093639377
9.5	0.00414358854817876	-0.0162276723004571	0.00238294256553413	-0.00209972117466133	0.00239046109774908	-0.00210093945934858	-0.0123091627072061	-0.00210145935030721
9.6	-0.00187992203879047	-0.0193289597278312	0.00207127611318241	-0.00242737360485307	0.00207159396915586	-0.00242637131327516	-0.0149022726337312	-0.0028919350321786
9.7	-0.00744275008908478	-0.0184450045275935	0.00169911286862918	-0.00269345712727185	0.00170484579142908	-0.00270079251099113	-0.0159873773930544	-0.00113603900709471
9.8	-0.012274370329646	-0.0162575140639191	0.00131002204200454	-0.00291417559085175	0.00131568682053926	-0.002905457294949	-0.016293640722135	0.000511074065724587
9.9	-0.0161418736520306	-0.0119740477955758	0.000903421974885138	-0.0030658989380512	0.000895943679371913	-0.0030647639132555	-0.016056247872561	0.00279577404512946
10	-0.0158032207772918	-0.00867535223821642	0.000462197041319802	-0.00317957967570306	0.000454705994489404	-0.00319239935972805	-0.0131789584107536	0.00314880039878181
10.1	-0.019015147578566	-0.00761189866285708	-2.61524213743805E-06	-0.00321600338594614	-1.31183638953843E-05	-0.00321058751500152	-0.0143184568330136	0.00176722888994693
10.2	-0.0219618658536644	-0.00334427592291087	-0.000462012444797118	-0.00318144447780696	-0.000465515236463362	-0.00317863380073547	-0.0150981995299545	0.00291815625010667
10.3	-0.0235485283335178	0.00201806794433878	-0.000908553620975634	-0.00307921622854286	-0.000900214847728333	-0.00308843373463527	-0.0151323457577813	0.00426659897048641
10.4	-0.0231161242448083	0.00885797303954213	-0.00132492489225478	-0.00292783227748133	-0.00132315446669711	-0.00293417239888957	-0.0141683115522763	0.00607464575680082
10.5	-0.0180289740361749	0.0134162899481612	-0.00174110837039602	-0.00271468358009095	-0.00173792567978284	-0.00270137121981786	-0.0109380369808446	0.00544049838975891
10.6	-0.0161543781398805	0.0151129089795657	-0.00209603392276829	-0.00243075860990679	-0.00209380273029934	-0.00243466253420202	-0.0119488253872962	0.00370556152985141
10.7	-0.0137551887225986	0.0184587231360996	-0.00241920961888441	-0.00212241284970459	-0.00241563700924875	-0.00211702099129959	-0.0126498229568702	0.00417235477234203
10.8	-0.0106834689659514	0.0216431364338795	-0.00269822467187006	-0.00175114942086488	-0.00269293127909878	-0.00176028327533341	-0.0132197541625841	0.00506919205530438
10.9	-0.00626949844877666	0.025584167726458	-0.00291257361706775	-0.00135836703299881	-0.00291786813066727	-0.00135759215024576	-0.0128086463488221	0.00713211549338492
11	0.0021096062716842	0.0263802871767159	-0.00305997444218191	-0.000928090386165735	-0.00306493799541299	-0.000934919079270227	-0.00980126037330812	0.00693269601599712
11.1	0.00580875606122523	0.0241107299919717	-0.00317225330976763	-0.000501310668982734	-0.00316118023256816	-0.000498438692334123	-0.0111294070497452	0.00580405138981749
11.2	0.00965183020941516	0.0236155894920238	-0.00320320711917353	-4.96044810923344E-05	-0.00321052642800905	-5.44950202534574E-05	-0.0112583725575114	0.00708101124972458
11.3	0.0136543723395281	0.0227433740659901	-0.00317045585676174	0.00041353798262414	-0.0031822899434374	0.000403400179377797	-0.0106476131231223	0.00838149554183323
11.4	0.0181162908675472	0.0221279266229126	-0.00308449925653476	0.000849108196649688	-0.00307944195060783	0.000856757172935111	-0.0091271749941707	0.00985238398082485
11.5	0.0257487559794385	0.0182611323086931	-0.00294194155891229	0.00126294172183239	-0.00294471317154475	0.00127341039789081	-0.00535928163565069	0.00832120934290212
11.6	0.0278364159239451	0.0114228766192568	-0.00274367530331269	0.00167147954320306	-0.00274363107677077	0.00167447747269033	-0.00632724204158759	0.00605957528019049
11.7	0.0291016381779794	0.00701836786804797	-0.00246701320872237	0.0020345563495006	-0.00246749468768745	0.00204332710607607	-0.00634065130799546	0.00601518807711165
11.8	0.030351699953779	0.00286661679848278	-0.00215790669996448	0.00236852911377621	-0.00216207297120339	0.00237030466240919	-0.00578576656790292	0.00589084910913463
11.9	0.0327987095946314	-0.000452977664753004	-0.00180114832482401	0.00264434982481649	-0.00181434661533405	0.00264887388820631	-0.00412849180481674	0.00625492275202077
12	0.037010203448635	-0.00816798730931812	-0.00141596481598027	0.00288041557380682	-0.00141533737525781	0.00288184815136984	-0.00143135093606514	0.00341042106130177
