# GHZ S RI R 50
0.2	0.00603897299589153	0.00160370124076708	0.00304627952259585	-0.000898357332476501	0.00305664423673058	-0.000891555646855709	-0.0139459020249356	0.00521483495720401
0.3	0.00625676214973798	-0.000522336182420393	0.00290156509324124	-0.00132152278632319	0.00289432898179134	-0.0013085905185004	-0.0132395483777861	0.00523713976141875
0.4	0.00596712049384043	-0.00231556610294637	0.00266941365220212	-0.00169275238682092	0.00267467266846459	-0.00170130759356299	-0.0127369827491696	0.00563801636232687
0.5	0.00491654775820707	-0.00371479611561945	0.00241045177691587	-0.00204822809919372	0.00242197291690927	-0.00206045766058894	-0.0124812099847644	0.00621092932650582
0.6	0.00404448934166221	-0.00437981437932396	0.00209851466557788	-0.00236226856484109	0.00209772753665864	-0.00236941042141873	-0.0118337333620786	0.00704396272958999
0.7	0.00301082371343886	-0.0051101352887527	0.00175141460296124	-0.0026395032635692	0.00174946078403037	-0.0026397013752411	-0.0112864788201927	0.00750702488757371
0.8	0.00182101830920854	-0.00555440575496528	0.00136632575922387	-0.00285607785169871	0.00135374107700786	-0.00286061849159107	-0.0108883444545087	0.0080945045818616
0.9	0.000573015944969073	-0.00573518777132081	0.000950120425157282	-0.00301883229832199	0.000951153268014812	-0.00302951660685855	-0.0104336959548563	0.00869346415404805
1	-0.00106028340686441	-0.00591918893018236	0.00052642051537391	-0.00312243978250162	0.000516571188379546	-0.00312317970501748	-0.0102055199299501	0.00917837830380483
1.1	-0.00280802410646576	-0.00502304988817609	7.08229473962713E-05	-0.00315105071065481	6.73187647287887E-05	-0.00316867742722647	-0.00991155430725109	0.0104573341201318
1.2	-0.00393285547193908	-0.00429452396197766	-0.000370385166804061	-0.00313985086184652	-0.000371195661179179	-0.00313777757303879	-0.00871589342621403	0.0114578556378466
1.3	-0.00520046243977659	-0.0038043794931124	-0.000796319878760387	-0.00305665179359944	-0.000799554503530956	-0.00305865419991502	-0.00700777800390368	0.0120279655410997
1.4	-0.00634506203066504	-0.00324225292596014	-0.00121663948647886	-0.00290899994103505	-0.00121542694421254	-0.00291452425159239	-0.00528692541214883	0.0117521240741968
1.5	-0.00717223174831387	-0.00200270772917741	-0.00161740731263281	-0.00271329574916592	-0.00161579714056249	-0.00272178292319187	-0.00421509284195148	0.0113033062991449
1.6	-0.00677849814127348	-0.000219775778308675	-0.00197637714481806	-0.00246068414850472	-0.00197658657512057	-0.00246590856591777	-0.00345080349254234	0.011254368045941
1.7	-0.00602089803308237	0.00105842464674419	-0.0023035542554313	-0.00216504643157193	-0.00230452113312379	-0.0021587975021835	-0.00286607645911537	0.0112355960745827
1.8	-0.00510733562740717	0.00229503867135237	-0.00257408201270138	-0.00181490375072083	-0.00258502351753711	-0.00182053703530582	-0.00229186405798891	0.0113277497640245
1.9	-0.00399950460526636	0.00311550961364473	-0.00279931855476546	-0.00144516754355513	-0.00281173941639537	-0.00143903432602003	-0.00172639064807133	0.0113835667771621
2	-0.00320258570036718	0.00385296650804774	-0.0029739438951667	-0.00103831059527394	-0.00298354835897821	-0.00103361990902025	-0.00144310185710972	0.0116769161664274
2.1	-0.0016741759381252	0.00474755881800057	-0.0030873815292344	-0.000612536861615959	-0.00308330436735902	-0.000614519132567872	-0.000443596951552035	0.0121626565543593
2.2	4.1859116522988E-05	0.00483387758428444	-0.0031458429967615	-0.000175732599212861	-0.00315712093307921	-0.000178579155583653	0.000722588764545524	0.0120648483440691
2.3	0.00161079300468738	0.00436572547606611	-0.00314206776366217	0.000266683236146771	-0.00314175575687709	0.000259813505128579	0.0016957913477152	0.0116921510529548
2.4	0.00298139453062447	0.00342591432676186	-0.00307021668802965	0.000703971235569958	-0.00307274628315895	0.000699718088988272	0.00255837579092848	0.0112392069780371
2.5	0.00357318169169536	0.00205635583214473	-0.00293467069297553	0.00111425603024489	-0.00294555256813306	0.00112060170344774	0.00306852329389955	0.0106989247810971
2.6	0.00408655857316632	0.0012685457999402	-0.0027632825809608	0.00151752861529809	-0.00275970451592734	0.00150523024365356	0.00387639401401009	0.0105709634601296
2.7	0.00478896014286597	0.000126788651281015	-0.00251845169340098	0.00188927161637	-0.00252372511803596	0.00188927194924108	0.00473551635536274	0.0100179923335424
2.8	0.00539904291186847	-0.0012901945729427	-0.00223664232271321	0.00221675823427308	-0.00222885850341858	0.00222655229228518	0.00539504413730229	0.00948659993651426
2.9	0.00580038158705568	-0.003111931071386	-0.00190397604143828	0.00251692996579138	-0.00190027019273381	0.00251651212798653	0.00615463705460526	0.00900754297971755
3	0.00539665926185115	-0.00499594450240179	-0.00151965252112473	0.00275417535508917	-0.00153443938718981	0.00276023508697879	0.00682110008498783	0.00865323970648675
3.1	0.00510007280072642	-0.00654720574047541	-0.00112887137289261	0.00293254714836797	-0.00112423435689022	0.00294089502845251	0.007876806421528	0.00827048256441973
3.2	0.00429658109115442	-0.00843847070197165	-0.000708957879833531	0.00307005942850868	-0.000710700002416389	0.00306944534624258	0.00855968326012927	0.00756619846316729
3.3	0.00295782689161498	-0.010293784447053	-0.000271364668370454	0.00314092120720468	-0.000269707946535166	0.00313718657666322	0.0092157522673802	0.00682100305558886
3.4	0.00103402688513098	-0.0119264815538538	0.000175140155371125	0.00313671638582025	0.000168895917358521	0.00315326413757624	0.009806915684785	0.00582547062621166
3.5	-0.00171755851399571	-0.013048954184696	0.000598399264569095	0.00309497794388574	0.000603995363438002	0.00309506451085579	0.00984747656358913	0.00474776851656935
3.6	-0.0042244367035013	-0.0130502607865926	0.00102644151480588	0.00297555420398035	0.00103463218417989	0.00297525388254564	0.0101374792424541	0.0041089263331405
3.7	-0.00657347948741664	-0.0129579941359432	0.00143686264758691	0.00279609296443317	0.00142724519187328	0.00280974590858593	0.0104397164001884	0.00317449632318578
3.8	-0.00901039748909375	-0.0124699533855022	0.001815844983443	0.00257037579923394	0.00181822830554683	0.00257953333618021	0.010538713855626	0.00224914375108943
3.9	-0.0113632428879852	-0.0116636478140393	0.0021631500540431	0.00229786578443611	0.00215588545351929	0.00229607004624495	0.0104909500980178	0.00134292967464541
4	-0.0140723355245793	-0.010227156194835	0.00244782623024291	0.00197628400185756	0.00245228063780848	0.00197385890509807	0.0101979482798698	0.000795917491543331
4.1	-0.0158804171210856	-0.00774098878485035	0.00270050505588955	0.00161851764886756	0.0026992500474685	0.00161925041967198	0.0106392951765434	0.000566238908143324
4.2	-0.0170656465906703	-0.0053585392710289	0.00290204134757834	0.0012178410477488	0.00290653339733054	0.00120912980974464	0.0111308277961593	-0.000200784853565576
4.3	-0.0178845959267333	-0.00296891988081987	0.00304682872449311	0.000805320108192163	0.00305327671187199	0.00079752514530822	0.0114475927127655	-0.00119846619100459
4.4	-0.0184548594864769	-0.000612840451337161	0.00312402243651293	0.00037058820572282	0.00312640441153147	0.000368335150416622	0.0114902889882159	-0.00229524446075664
4.5	-0.0192466068264405	0.00197410613886215	0.00314818077397814	-6.63306761062138E-05	0.00315355668056054	-6.96924409424066E-05	0.0111464071459295	-0.00320473153866975
4.6	-0.0191432739221524	0.00537578646678221	0.00310726584597075	-0.000510808896432484	0.00310846297145952	-0.000497869163791023	0.0111930424571383	-0.00387778151651074
4.7	-0.01812265421862	0.00838722111929406	0.00300291041269258	-0.000931780291490432	0.00301824736033409	-0.00094138097654751	0.011061592639357	-0.00496164038642024
4.8	-0.0166249234352648	0.0110954928358398	0.00284229918261973	-0.00134743803090623	0.00285080697963903	-0.00135352096033677	0.0106749592674679	-0.00593176212467462
4.9	-0.0144735550867579	0.0132897314143172	0.00262231463841113	-0.00173272149981767	0.0026264830313471	-0.00172980157865083	0.0102526409983742	-0.00676950609201537
5	-0.0123895081890127	0.0151049787822797	0.00236410441528373	-0.00209089742962832	0.00236773061513861	-0.00208821869722484	0.00982145777819186	-0.00729909202411788
5.1	-0.00912106027926699	0.0168441408123019	0.00205124661778432	-0.00240424836902682	0.00205355153815531	-0.00240288410016918	0.0100370218422238	-0.00784011986017795
5.2	-0.00566614824582034	0.017255943784102	0.00169241388201304	-0.00265500028093584	0.00169413723973388	-0.00266015352679775	0.0100005958410796	-0.0088212727969229
5.3	-0.00246323767852989	0.0168945714587585	0.001304948892654	-0.00287159937408659	0.00130808681336203	-0.00286952813080485	0.00973791896067166	-0.00966147550894085
5.4	0.00030282171468962	0.0158594151247051	0.000879000844235392	-0.00302092834023137	0.000896223951486193	-0.00303215125320548	0.00941333268587405	-0.0106619963660284
5.5	0.00206159115626823	0.0148797917808421	0.000461942034841526	-0.00311987520857724	0.000472024657074082	-0.00312932806364384	0.00854201334293565	-0.0114569855610112
5.6	0.00454023652326756	0.0142090582853222	2.21435404922469E-05	-0.00315437347204466	1.35990807991124E-05	-0.00315760058612741	0.00810496946444322	-0.0119615258232385
5.7	0.00682156548782136	0.0124954485129941	-0.00040966706628159	-0.00312399911322595	-0.000426317603643585	-0.0031276713495309	0.00726550229871272	-0.012701932875405
5.8	0.00856855817455203	0.0103136281449558	-0.00085722517939544	-0.00302916065464951	-0.000860769250788202	-0.00304318433660064	0.00622564203894756	-0.0133054925360268
5.9	0.00975444618753554	0.00764040978527724	-0.00126434188625377	-0.00288832961673992	-0.00127259293120669	-0.00288824425312297	0.00502679228259839	-0.0137740499058817
6	0.00939188666474088	0.00468807677163095	-0.00166278699641448	-0.00267941394875622	-0.00165921922553715	-0.00267958300110265	0.00328581224751625	-0.0137876823526894
6.1	0.00888530881620105	0.00299007547043495	-0.00201778006084447	-0.00242549024296716	-0.00201942199118399	-0.00242147722226287	0.00255285781070311	-0.0129407446009831
6.2	0.00842678005035919	0.000893785743874458	-0.00233220815362385	-0.00211143441684024	-0.00233593214343187	-0.00212333099136561	0.00232632301553953	-0.0128557132918429
6.3	0.00759522310590593	-0.00126593146313352	-0.00261087081226914	-0.00177504561824909	-0.00262001480721104	-0.0017692854765796	0.00203307499808764	-0.0132345627123344
6.4	0.00619073004815653	-0.00356867255286591	-0.00283658694563437	-0.00138222403234909	-0.0028268488968845	-0.00138714720249914	0.0015358496653519	-0.0138696085279182
6.5	0.00378576724380715	-0.00502732866560591	-0.00299240199568805	-0.000977675200576707	-0.00300027538917948	-0.000973180090174997	0.000729781276439694	-0.0141791209129381
6.6	0.00226303808677074	-0.00563864374929356	-0.00310236746524491	-0.000550860715687651	-0.00310400881666508	-0.000554845661128746	0.000569405758555874	-0.0146514084374147
6.7	0.000438460525136098	-0.00642870806836779	-0.00315225682715902	-0.000110528729246339	-0.00316112249672856	-0.000104222536965738	-0.000376383334934104	-0.0153160338762683
6.8	-0.00164823819373505	-0.00668551835020024	-0.00312930081472466	0.000332387425037937	-0.00314040937562081	0.000337463763700542	-0.00155313347019573	-0.0154576210228441
6.9	-0.00388418288934586	-0.00667586032214099	-0.00305292802667336	0.000766058476962589	-0.00305591756941978	0.000768458259795689	-0.00264254321110455	-0.0154418421837163
7	-0.00693092571548855	-0.0056221780283809	-0.00291695354707063	0.00118872901541777	-0.00292982032445574	0.00118654840194071	-0.00402637575977343	-0.0149768013892125
7.1	-0.00849020870119278	-0.00312961651264137	-0.00273607968837926	0.00157986429747316	-0.00273238595800362	0.001588541149338	-0.00447062412752113	-0.0142111893753528
7.2	-0.00936410140356502	-0.00112507254565935	-0.00247715153497206	0.00194750763560377	-0.00248368858551524	0.00194960726341947	-0.00503314504771991	-0.0139536940240518
7.3	-0.00998703914514444	0.000893069978191648	-0.00218029857163294	0.00226619999778021	-0.00219151973653512	0.00227129074670084	-0.0056288306147046	-0.0136721972937908
7.4	-0.0102425507286533	0.0026203514098759	-0.00183761041384452	0.00254984790364702	-0.00184447231007152	0.0025635019690063	-0.00631211798815764	-0.013639521503765
7.5	-0.0112689057080199	0.00419591495259859	-0.00146815358131684	0.00278950352882478	-0.0014611226921014	0.00279688885336822	-0.00746832252242185	-0.0134113252955395
7.6	-0.0112875294337971	0.00716371432467127	-0.00106024453421409	0.00296465355001438	-0.00106163635263208	0.00295995610945568	-0.00769717590255484	-0.0126450554614788
7.7	-0.0104136344864452	0.00941104629472726	-0.000631645480907742	0.00308450636535633	-0.000632990291772538	0.00308344784886439	-0.00800514652604718	-0.0130032620545249
7.8	-0.00893915818714172	0.0112212220945141	-0.000205094132464631	0.00313252990118136	-0.000212887925610522	0.003139018950759	-0.00866065615179742	-0.0132115619683151
7.9	-0.00717170052254831	0.0123860267570156	0.000237704500864622	0.00313776844840866	0.000245657625770854	0.00313923906608481	-0.00943055833459723	-0.0132127403975115
8	-0.00570439967799287	0.0139363738740838	0.000678887259495741	0.00306127578365835	0.000678986592775253	0.00306617437036526	-0.0104899326289075	-0.0127027455228247
8.1	-0.00243382659587465	0.0152715594250597	0.00108738766500423	0.00294305966811595	0.00110653669631785	0.00294408677015532	-0.0106074622861253	-0.0122863362256826
8.2	0.000795544271936253	0.0151772806582973	0.00149206382071314	0.00276106619838725	0.00150128720466501	0.00275384149619098	-0.0111922213210235	-0.012101345402031
8.3	0.00376260212983559	0.0143300055156121	0.00186792550696104	0.00251996259348564	0.00186632937596829	0.00253351533268178	-0.0117994052375276	-0.0117285276637022
8.4	0.00628097612911536	0.0126472615798203	0.00220158158535228	0.00223995538341966	0.00219855280644408	0.00223974167288007	-0.0124618651428789	-0.0114719595678507
8.5	0.00737296624827946	0.0109187064691986	0.00248435560131921	0.00191031937845261	0.00248346814371854	0.00191350259510929	-0.0136534670166548	-0.0107596027293298
8.6	0.00927450441268042	0.00993744643890423	0.00273102292464395	0.00154954741527621	0.00274049777452053	0.00154298039083245	-0.0138885410623687	-0.00979020683665636
8.7	0.0111725750586395	0.00774417445518136	0.00291496062882397	0.00114541167430924	0.00292051843242203	0.00114611566868559	-0.0143470859739354	-0.00940715427755221
8.8	0.0125064747028212	0.00497726763710744	0.00304897047131388	0.000734344447322246	0.00305470370163069	0.000725576161074416	-0.0151269871747479	-0.00894629361086462
8.9	0.0132432909569981	0.0014632071899213	0.00312423557993667	0.000301859402606427	0.00312335941185189	0.00029961791542475	-0.0158002938543942	-0.00820349066410662
9	0.0122581748258835	-0.00218434519656605	0.00313467632522303	-0.00014101965671158	0.00313784258002881	-0.000136931016347009	-0.0165132890279169	-0.00695744217064346
9.1	0.011248262290099	-0.00493392197811153	0.00308540382143798	-0.000583453523867465	0.00308832934203602	-0.000570584481619943	-0.0160852856969661	-0.00554387441966033
9.2	0.00956240899426134	-0.00800979707924056	0.00297345106023094	-0.000999055400102066	0.00298108460118079	-0.00100195169382966	-0.0156504567069906	-0.00482203988256154
9.3	0.00702669653063116	-0.0106386000329894	0.00280390491510759	-0.00140207719183345	0.0028031607312353	-0.00140705509101492	-0.0152002587653768	-0.0041633029311815
9.4	0.00377232547772161	-0.0128227969757895	0.00258154501343321	-0.00179106390393986	0.00258806589685666	-0.00178349945103309	-0.0148114501600909	-0.00380646113627278
9.5	-0.000619287591397763	-0.0134931882597801	0.00230384683655549	-0.00212501762505637	0.00231123713746761	-0.00212638827956695	-0.0147540143232383	-0.00309163263522049
9.6	-0.00389173400236653	-0.0128295918170811	0.00198602372962907	-0.00242409143127076	0.00198635552403388	-0.00242311355465816	-0.0142021986195447	-0.00268704774173276
9.7	-0.00711058595736992	-0.0121400904501404	0.00162040390983961	-0.00267212475764503	0.00162590163315538	-0.00267942120337834	-0.0142548941348175	-0.00255135662898785
9.8	-0.0103410311374033	-0.010865975760984	0.00123661072389536	-0.00287951353070685	0.00124231000869125	-0.002871057146256	-0.0145437902498856	-0.00209623597371887
9.9	-0.0134339199338278	-0.00914501719513606	0.000831579177495198	-0.00301727531348819	0.000824277111686036	-0.00301603498034939	-0.0149498753469227	-0.00139634705875486
10	-0.0171642839910904	-0.00638690060777425	0.000403303134107552	-0.00310225965621602	0.000395822074549166	-0.00311463029336416	-0.0154928233035113	-0.00014561652728007
10.1	-0.0191584025454908	-0.00200689969284803	-3.42875343594619E-05	-0.00313360993413029	-4.44682013822846E-05	-0.00312822911628571	-0.0148247086044785	0.00116234685406807
10.2	-0.019995807638276	0.00201788424983008	-0.000478265455355475	-0.00309717820764471	-0.00048165528018927	-0.00309440767676047	-0.0141645970963849	0.00178683603544896
10.3	-0.0200901334935606	0.00597021783178562	-0.000908637064863246	-0.00299128454037489	-0.000900588960852101	-0.00300032481754484	-0.0135710698027141	0.00226651432808562
10.4	-0.0195941046867236	0.00949131949974849	-0.00130272300885319	-0.00283609621690499	-0.00130103837871373	-0.00284226308659205	-0.0129369791670976	0.00243001372531653
10.5	-0.0194560777576454	0.0134486665312398	-0.00168952867813386	-0.0026404610966849	-0.00168644893835424	-0.00262751826864173	-0.01265375035828	0.00289887012317565
10.6	-0.0175154916197695	0.0181218283600857	-0.00204246444329929	-0.00237347031229423	-0.0020402838874466	-0.00237727672112441	-0.0116418935456044	0.00319225552281492
10.7	-0.0146643034024422	0.0220786079046632	-0.00235661463149489	-0.00207259656297068	-0.00235313714878921	-0.00206733432477398	-0.0110011695157278	0.00306967953785436
10.8	-0.0106911780361779	0.0254834132530465	-0.00262403631357247	-0.00171460788451957	-0.00261885041960369	-0.00172349252186731	-0.0105117580440389	0.00301745522615279
10.9	-0.00616385011911437	0.0277524367362283	-0.00283105611233181	-0.00134409332129318	-0.00283622416471767	-0.00134337315804067	-0.0102797631728864	0.00282080026011431
11	-0.00198990114654967	0.0295936609158071	-0.00299298447671359	-0.000930477842621984	-0.00299780319485064	-0.000937204840241346	-0.0103916386397695	0.00316753958985851
11.1	0.00383806133045514	0.0311961966411649	-0.00310093051436743	-0.000505451532277912	-0.00309011171394821	-0.000502589489701194	-0.00955422501257771	0.0034274034013994
11.2	0.0100725262413746	0.0307834632919714	-0.00312997186647586	-7.04201965688683E-05	-0.00313709110527974	-7.52495855356763E-05	-0.00900932397531627	0.0031640113125865
11.3	0.0161338197723816	0.0288012388913191	-0.00310457620139561	0.000375363953817191	-0.00311605721852106	0.000365340370026407	-0.00850747444878345	0.00296247439857486
11.4	0.0214678525471108	0.0253125594430737	-0.00303379959754407	0.000801637492857805	-0.00302891673296258	0.000809190555232448	-0.00817857258462452	0.00265262056031685
11.5	0.0250958045508081	0.0212661547251659	-0.00289081606712933	0.00121808218413969	-0.00289360053323104	0.00122832115381731	-0.00828471778581696	0.0026405838526235
11.6	0.0290451098113176	0.0171286249555234	-0.00269722585812114	0.00160488354384156	-0.00269721317489564	0.00160781257637436	-0.00753962205872935	0.0024613145317682
11.7	0.0322371681772101	0.0114972452033679	-0.00243953073098378	0.00195811634037108	-0.00244011548420314	0.00196668930165266	-0.00719622687724835	0.00174891809940735
11.8	0.0341328221350885	0.0050741287473879	-0.0021474670855862	0.00229043944425734	-0.0021515740234683	0.00229212075991587	-0.0070952222157709	0.00123451269525639
11.9	0.0344101875719961	-0.00202318331427571	-0.00179986019291794	0.00256753773253304	-0.00181285324788853	0.00257179701955089	-0.00708814917567546	0.00107519132087117
12	0.0320651180426272	-0.00813904879016416	-0.00142858045291711	0.00278838653524346	-0.00142799124365149	0.00278979488403992	-0.0072259388926722	0.00147306737094217
