# GHZ S RI R 50
0.2	0.00601598294184192	0.00111042465823054	0.00304869151402384	-0.000897927389981057	0.00305906103698865	-0.000891117437918584	-0.0139867482632165	0.00471492273101866
0.3	0.00630826993382119	-0.000836058554446355	0.00290452806313086	-0.00132141931841157	0.0028972805659369	-0.0013084792883271	-0.0132090758368543	0.00491776336680614
0.4	0.00601490250134669	-0.00247101370104622	0.00267295525720645	-0.00169329045718531	0.0026782236326791	-0.00170185213951979	-0.012713355714457	0.00548025871242662
0.5	0.00530557195788838	-0.00384721704561215	0.00241406565259479	-0.0020502307768219	0.00242560469347672	-0.00206247303463442	-0.0121133709871576	0.00608350795305869
0.6	0.00421575808465067	-0.0049309875803528	0.00210130374606203	-0.00236472182429677	0.0021005167291228	-0.00237187212666249	-0.0116770942893933	0.00649333866285809
0.7	0.00286865571788221	-0.00556015244911269	0.00175408727109866	-0.00264244740221966	0.00175213106506932	-0.00264264612931959	-0.0114464277548951	0.00705414306183202
0.8	0.00152061179362922	-0.00585347628105271	0.00136858981299138	-0.00285984527927311	0.00135598833571931	-0.00286439385013478	-0.0112105183169177	0.00779425420708587
0.9	8.74648181086256E-05	-0.00579745482404829	0.000951370144179538	-0.00302341306702566	0.000952403917168659	-0.0030341134530958	-0.0109434028810656	0.00863663326550439
1	-0.00125018662409115	-0.00544636039320411	0.000526290872475127	-0.00312658401566417	0.000516428710466719	-0.00312732234741521	-0.0104138726085144	0.00966598062621833
1.1	-0.00259712859478272	-0.00505009236439869	7.08473176588522E-05	-0.00315517385830338	6.73381695696713E-05	-0.00317282355491391	-0.00971368072081139	0.0104481865394689
1.2	-0.00401837498755124	-0.00461909806543793	-0.000371269320836201	-0.00314454904845099	-0.000372080823015844	-0.00314247254801129	-0.00880241087703871	0.0111519524468806
1.3	-0.00554108192789749	-0.00424739079300922	-0.000798418758210911	-0.00306123850359055	-0.000801659024680365	-0.00306324316332803	-0.00733714044067253	0.0116007934860387
1.4	-0.00687260907790484	-0.0036144672360157	-0.00121967097105181	-0.00291277306681715	-0.00121845898964426	-0.00291830604083399	-0.00579635533159197	0.0113881903628092
1.5	-0.00738606302955011	-0.00233999526284633	-0.00162014122434553	-0.0027168263128848	-0.00161853024532108	-0.00272532567181348	-0.00441526987146077	0.0109593365284467
1.6	-0.00727573893040386	-0.000685418695613775	-0.00198071527865859	-0.00246468785327011	-0.00198092654500691	-0.00246992187655139	-0.00393392954516968	0.0107793141473601
1.7	-0.00654900650929651	0.000945315806173591	-0.00230921834798211	-0.00216776767022457	-0.00231018330980095	-0.00216150631854425	-0.00338778537640501	0.0111071531465092
1.8	-0.00551239725361819	0.00240558044287478	-0.00258018130291445	-0.00181621434374872	-0.00259114711904436	-0.0018218494061554	-0.00269717032394336	0.0114231129945957
1.9	-0.00424643296680861	0.00348663334864202	-0.00280537324355704	-0.00144556978759022	-0.00281781133317199	-0.0014394161951701	-0.00197582071672269	0.0117458891727452
2	-0.00280844986181097	0.00423316050179515	-0.00298127499691322	-0.00103817878668202	-0.00299089664821446	-0.00103347011087258	-0.00103945901997961	0.0120559018309707
2.1	-0.00138130753089601	0.00452320160374424	-0.00309492554244246	-0.000609346086911973	-0.00309084249534104	-0.000611338582798842	-0.000131571021227236	0.0119238386548821
2.2	4.53183326960351E-05	0.00459957283978423	-0.00315204837776979	-0.00017086031016371	-0.00316335222635198	-0.000173693566709792	0.000739918692140824	0.0118063157076237
2.3	0.00145032036806104	0.00422063811926504	-0.0031471660205906	0.000272584759944065	-0.00314686533310903	0.000265702335502521	0.00154073781805449	0.011521374737334
2.4	0.0026656365799214	0.00353394403752199	-0.00307462343436424	0.000710934333896596	-0.00307716556295614	0.000706677945849093	0.0022404843412329	0.0113278852060985
2.5	0.00369802878818373	0.00255985496108395	-0.00293729877150634	0.00112366578528643	-0.00294818484527373	0.00113005043879074	0.00320117505358485	0.0111998987513789
2.6	0.00448742246719604	0.00129272368860042	-0.00276250773746807	0.00152653636661277	-0.00275895777799749	0.0015142143449376	0.00430511784338795	0.0105910620640497
2.7	0.0050748155942386	-6.64618431250386E-05	-0.00251621900608033	0.00189747664542824	-0.00252149768559884	0.00189749021665668	0.00505879357038739	0.00981319893518617
2.8	0.00551921492999779	-0.00160408686096046	-0.00223298672888651	0.00222464885695102	-0.00222517016383639	0.00223443190169683	0.00555918584760428	0.00915280925370061
2.9	0.00575024031559839	-0.00331184775128427	-0.00189818389800795	0.00252451463880621	-0.00189447626708953	0.00252408566550743	0.00615211906389442	0.00878412457311385
3	0.00563661819317931	-0.00516310456699989	-0.00151115839218494	0.00275902811088555	-0.00152592709827518	0.00276513410383478	0.00712121190283548	0.00844968984655734
3.1	0.00507612892579101	-0.00705447409075206	-0.00112121303148201	0.00293510565897608	-0.00111655512323038	0.00294344067025535	0.00790909399659866	0.00769219199659454
3.2	0.0040108895564152	-0.00880762464339174	-0.000700938766035501	0.00307170915020235	-0.000702682374889674	0.00307109963166411	0.00832791379578677	0.00712320533828765
3.3	0.00254867736504855	-0.0104736186939931	-0.00026271306643604	0.00314091463984939	-0.000261066949457981	0.00313717636993376	0.0088546628328146	0.00655425124216923
3.4	0.000582504421112561	-0.0117868471702196	0.000183759902640794	0.00313408389263257	0.000177566038886047	0.00315063772860642	0.0093921692303639	0.0058668248620541
3.5	-0.0016515622660812	-0.0127385110187606	0.000604393908178698	0.00309063003215614	0.000609984633239689	0.00309070459946406	0.0099414088122295	0.00495791483482042
3.6	-0.00423883610778232	-0.0132173024822676	0.00103226507804886	0.00297184314192996	0.00104045091945306	0.00297152549935274	0.010151930582769	0.00383384059047831
3.7	-0.00686840925547202	-0.0130512120329309	0.00144255570735324	0.00279082258750969	0.00143297708493628	0.00280448933474519	0.0101571657534649	0.00295618801863434
3.8	-0.00943317936779924	-0.01235160804475	0.00182021042228799	0.00256363947776154	0.00182261317030557	0.00257278269076727	0.0101032894015237	0.00224032514387741
3.9	-0.0117548185243272	-0.0111596312808397	0.00216539415666163	0.00229074578115572	0.0021581342424313	0.00228896711329491	0.0100654178131309	0.00173871479392645
4	-0.0137613779426505	-0.00957318260611641	0.00245010042377971	0.00197036911714573	0.00245454742705665	0.0019679369817063	0.0104953658313538	0.00136760816194882
4.1	-0.0155350186530364	-0.00770357784581145	0.00270238579610391	0.00161015408490875	0.00270113375320239	0.00161088947549891	0.0109840653398409	0.000491011683477498
4.2	-0.0169676662944006	-0.00541399325303534	0.00290126563162224	0.00120885573677078	0.00290572959551518	0.00120014470520611	0.0112083112112899	-0.000383395117352748
4.3	-0.0179552681283786	-0.00296127152025964	0.00304401129795892	0.000796993504036348	0.00305043122788924	0.000789195543653182	0.0113354305017262	-0.00131519412872656
4.4	-0.0186261380450754	-0.000317647110774598	0.00312039824209737	0.000363226931296407	0.00312277190600373	0.00036097186293082	0.0112694922791241	-0.00211182198951899
4.5	-0.0188171213602069	0.00249727340004197	0.00314332808455469	-7.52355268830083E-05	0.00314868641459733	-7.8607686255236E-05	0.0115264666670609	-0.00279906675352613
4.6	-0.0186673435598815	0.0052790593261642	0.00309835293229643	-0.000517908088712032	0.00309958187876257	-0.000505002976497324	0.0116000605446231	-0.00408708296515591
4.7	-0.0179014429693654	0.00818705998575055	0.00299292281060326	-0.000936056822385843	0.00300819790032312	-0.000945666611640411	0.0112049445422844	-0.00526441015655305
4.8	-0.0165720426469336	0.0109092410713039	0.00283193541654438	-0.00134967001076142	0.00284040798486492	-0.00135575414192529	0.0106432638489902	-0.00621351882565759
4.9	-0.0145445124085515	0.0133141791000603	0.00261120938503566	-0.00173362408189297	0.00261537253712671	-0.00173072142400909	0.0100805864080065	-0.00683048542595008
5	-0.0119804554196592	0.015156280151487	0.00235085060689727	-0.0020880111118922	0.0023544688204815	-0.00208535003330868	0.0101141437375844	-0.00729186104334419
5.1	-0.00903394355027149	0.0163875731484438	0.00204081965981393	-0.00239733828136906	0.00204311729866943	-0.00239598171734862	0.0100370346851418	-0.00832475466564361
5.2	-0.00592865015343906	0.0169977816084181	0.00168404879545911	-0.00264689249793454	0.00168576153775102	-0.00265202866995481	0.00965114020035059	-0.00910488757804572
5.3	-0.00279326886555279	0.0169296578392208	0.00129795498299738	-0.00286203505912549	0.00130108294545118	-0.00285997383164553	0.00932006982854025	-0.00963273530894747
5.4	0.000117109569459985	0.0162828846124269	0.000873722349280775	-0.0030090464358764	0.000890868691468556	-0.00302023296467236	0.00914942179266458	-0.0102098206914252
5.5	0.00273899550047772	0.0151946593823704	0.000461752861457176	-0.00310634959911996	0.000471797998286843	-0.00311575653433588	0.00920759408650727	-0.0110891093731491
5.6	0.00486947555068147	0.0137078145074519	2.44213025569167E-05	-0.00314351903990486	1.59086082041907E-05	-0.00314674144216542	0.00845153973430689	-0.0124631922853554
5.7	0.00667869218738291	0.0120776398625636	-0.000406194696223221	-0.003113609322039	-0.000422785969440093	-0.00311728008088632	0.00712796926430623	-0.0131376276074662
5.8	0.00817852439779265	0.0100990050452027	-0.000851517372166005	-0.00301918417225606	-0.000855036523170016	-0.00303316129322639	0.00583380032033413	-0.0135395400359897
5.9	0.00915626266170414	0.00788744919555508	-0.00125556990038355	-0.0028799357649881	-0.00126379174401644	-0.00287986292551216	0.00442585407327328	-0.0135344893418212
6	0.00961872451529139	0.00549589653414068	-0.00165365665481102	-0.00267549168286903	-0.00165009779693985	-0.00267565386107342	0.00352684498042119	-0.0129758294426225
6.1	0.00936153324845455	0.00294044894473905	-0.00200960862679286	-0.00242139250182169	-0.00201125085523891	-0.0024173920400665	0.0030721594740794	-0.0129831951652481
6.2	0.00852781333143017	0.000652148012797639	-0.0023224068024073	-0.00210850874709452	-0.00232610319356924	-0.00212037563945838	0.0024950237293498	-0.0131107248385648
6.3	0.00741935040600391	-0.00143529232520864	-0.00260023566193682	-0.00177465927791644	-0.00260936388129134	-0.00176893197182109	0.00193373461454428	-0.0134437282376298
6.4	0.00594809445304288	-0.00333655410198823	-0.00282706652016813	-0.00138479007199929	-0.00281734130905169	-0.00138968165362588	0.00136300739403769	-0.0136964318738931
6.5	0.00428274066074607	-0.00495659705510011	-0.00298469673514797	-0.000979401358521463	-0.00299255891113214	-0.000974926029480659	0.00129979617670477	-0.0141768049419932
6.6	0.00222393131879743	-0.00606989136133728	-0.00309234573473125	-0.000554262546922865	-0.00309397580403585	-0.000558238422572501	0.000601440083924376	-0.0151823794338302
6.7	0.000172058211172243	-0.00657205283195114	-0.00314318694711747	-0.000117101964611778	-0.00315204155584036	-0.000110832791799129	-0.000598580655164716	-0.0155750535809263
6.8	-0.00195496621128502	-0.0066325674643778	-0.00312237834783998	0.000324090197328424	-0.00313347164565471	0.000329127473719053	-0.00183959168670797	-0.0155201091776115
6.9	-0.00415284829823869	-0.00615911595349816	-0.00304770873517889	0.00075778640435427	-0.0030506967063283	0.000760174378607996	-0.00291355852512687	-0.0150191397542937
7	-0.00608041167465895	-0.00511544708036245	-0.00291051258898529	0.00117859672048025	-0.00292333456882511	0.00117639448438856	-0.0031613115907812	-0.0145297056570237
7.1	-0.00798208265978599	-0.0036786264312385	-0.00273363168969742	0.00156634653572741	-0.00272997712798573	0.00157501125674365	-0.0039159689965144	-0.0148483325102719
7.2	-0.00941486346974305	-0.0016537609649067	-0.00247835664675209	0.00193448104854249	-0.00248488628006117	0.00193655315277953	-0.00505589540174304	-0.0145981160913861
7.3	-0.0103782229724144	0.000545701925502145	-0.00218371530176266	0.0022540051224826	-0.00219493123440472	0.00225904652508508	-0.00602701026106535	-0.0141396284859371
7.4	-0.0109695818256163	0.00281109524664023	-0.0018426153179866	0.00253748799560621	-0.0018495107435593	0.00255108657047789	-0.00708843594189859	-0.0135107213968107
7.5	-0.0110879060265848	0.00511886585811505	-0.00147855267021274	0.00277662816038882	-0.00147157200012643	0.00278403203854778	-0.00730026927348477	-0.0124817400863632
7.6	-0.0108444854976205	0.00719889767808744	-0.00107357508025122	0.00295712297675055	-0.00107494323829716	0.00295242274833259	-0.00722421422412316	-0.0126264703618507
7.7	-0.0102355567499682	0.00933933493674546	-0.000645163498663685	0.00307997699514696	-0.000646502814800412	0.00307891301409896	-0.00778513487291156	-0.0130848425290896
7.8	-0.00889509239217108	0.0112340458019911	-0.000219272161038382	0.00313021619128386	-0.00022709207884251	0.00313666688325191	-0.00853881697448514	-0.0132057766597243
7.9	-0.00703074188555742	0.0127427771110306	0.000221780460214109	0.00313843280435764	0.000229724775033288	0.0031399434277663	-0.00913021050558501	-0.0129091001216943
8	-0.00458392110468255	0.0137978996160944	0.000664068066684912	0.00306867207045314	0.000664142423630318	0.00307357743449906	-0.00918463580783225	-0.0128904186034073
8.1	-0.00209971579304844	0.0143410267864692	0.00107679900663387	0.00295171562088044	0.00109597096200349	0.00295282310879933	-0.0101023386388538	-0.0133966211730657
8.2	0.000579379146787368	0.0144163731304359	0.00148279898102496	0.00277086450172055	0.00149206424044314	0.00276366773953576	-0.0112685903426674	-0.0130888223530912
8.3	0.00320297085917773	0.0138457481981272	0.00186042363875334	0.00253193101903825	0.00185876805607431	0.00254549930595221	-0.0122560652753673	-0.0124727220295467
8.4	0.00554186147196758	0.0128246354947561	0.00219768647243615	0.00225444246437888	0.00219465124289628	0.00225421576471234	-0.0131482821263936	-0.0115740829194461
8.5	0.00771712689643308	0.0113554282527165	0.00248579759338422	0.00192247634692383	0.00248489881748676	0.00192566577159677	-0.0132943125367218	-0.0105646716343516
8.6	0.00935457449934251	0.00945213132222018	0.00273185725753812	0.00156032548814973	0.00274136909084526	0.00155377286634059	-0.0137604744195256	-0.0105378048647718
8.7	0.01074202189255	0.00734921462513384	0.0029176992873111	0.00115695904892983	0.00292326691767219	0.00115768186013907	-0.0147734019376753	-0.010117650250246
8.8	0.0117764136710761	0.00484469848229322	0.00305465209743378	0.000745282265686225	0.00306042611862988	0.000736508382913521	-0.0159296515220871	-0.00940122012356475
8.9	0.0123160734041879	0.00192739712404095	0.00313234847277393	0.000309886060597399	0.0031314749833648	0.000307636242989666	-0.0168815518166174	-0.00800560873373412
9	0.0122210294150781	-0.00126492311282827	0.00314057599458859	-0.000134699861518838	0.00314373933794861	-0.000130597273593138	-0.016681911878673	-0.00620654766471908
9.1	0.0112520123054111	-0.00457213971464699	0.00309396462303842	-0.00057553412495575	0.00309685819962212	-0.000562627907730452	-0.0161933947901752	-0.00535992194298645
9.2	0.00952249478475801	-0.00753837318856716	0.00298457895230221	-0.000993636324211028	0.00299224197850073	-0.000996519638253212	-0.0158114884188874	-0.00449766158078111
9.3	0.00714669488052857	-0.0101155517413731	0.00281554931272961	-0.00139967807466444	0.00281481458801699	-0.00140467255341085	-0.0151819913550207	-0.00375287341540465
9.4	0.00412103912870207	-0.0121181482013711	0.00259195285810587	-0.00179026870589363	0.00259847469142435	-0.00178267108809464	-0.0145371572950206	-0.00319005188998005
9.5	0.000649494214726695	-0.0132546623062717	0.00231683885542933	-0.00212347622934832	0.0023242535575489	-0.00212482716129353	-0.0135231201705718	-0.0029502401009242
9.6	-0.00326469916238327	-0.01353372901585	0.00200045237886361	-0.00242826478597559	0.00200078282576345	-0.00242728214661758	-0.0136007393335076	-0.0035178451904595
9.7	-0.00702413470768907	-0.0127564090858246	0.00163253764250381	-0.00267961258582419	0.00163807285703086	-0.00268692724806523	-0.014200970302007	-0.00331264713797342
9.8	-0.0105470840491537	-0.0112936346877619	0.00124686516070998	-0.00288870127995497	0.00125257151576026	-0.00288020065359754	-0.0147976520776917	-0.00267227337405009
9.9	-0.0138013553744873	-0.0090818074814732	0.00084147349711624	-0.0030278880231763	0.000834138764744445	-0.00302665826973669	-0.0153864574685843	-0.00147287419867904
10	-0.0165809376754207	-0.00622579503796571	0.00041132031892418	-0.00311873741050378	0.000403820749874534	-0.00313119068189999	-0.0149474153870513	-7.45651471646032E-05
10.1	-0.0189249668730642	-0.0027858677321114	-3.30832674359917E-05	-0.00315056631827896	-4.33213602737217E-05	-0.0031451609248486	-0.0145832330794114	0.000262033052774444
10.2	-0.0203938211121262	0.00126643884253452	-0.000480281468568096	-0.00311295621146949	-0.000483688860155387	-0.00311017207275098	-0.0145568610669972	0.000882613097084725
10.3	-0.0209412078586754	0.00554100400202021	-0.000913347852585124	-0.00300664027955654	-0.00090525852715157	-0.00301572711792228	-0.0144319294804162	0.00167187711713588
10.4	-0.0206375793294233	0.00985295274075056	-0.00131128751438656	-0.002851856725671	-0.00130959560338077	-0.00285805960831585	-0.0140008233597147	0.00263265561522329
10.5	-0.019479200069828	0.0141397085611912	-0.00170485434235371	-0.00265172756801434	-0.00170172893552884	-0.0026387181694739	-0.0126576593710388	0.00344044187207351
10.6	-0.0175326131412742	0.0182983603300452	-0.00205680980454398	-0.00237918917071943	-0.00205462839751766	-0.00238301719781542	-0.0116347922453506	0.00319159127931994
10.7	-0.0146477050203578	0.0222473559619863	-0.00237100705492313	-0.00207622589514782	-0.00236750357371094	-0.00207094902887778	-0.010973081487117	0.00305163338184276
10.8	-0.0107935394708469	0.0256164248775581	-0.00263938696338711	-0.00171549784450316	-0.00263420069240118	-0.00172443294463253	-0.010633634579105	0.00289532205488382
10.9	-0.00634794078180356	0.0282313025608369	-0.0028469878255392	-0.00134027135688411	-0.00285217454490921	-0.00133953130147988	-0.0105145542721428	0.00307689352517447
11	-0.00117990701941406	0.0299793271085547	-0.00300360258626357	-0.000922529784400044	-0.00300845632051373	-0.000929256964530463	-0.00962030796306674	0.00338868492371719
11.1	0.00419712709060241	0.0307205103078729	-0.00311037630461047	-0.000499063739956579	-0.00309952181306719	-0.000496221083064913	-0.00920129263327289	0.00272475570257854
11.2	0.00996697370537969	0.0304041780601321	-0.00313924533525115	-6.20152237119589E-05	-0.0031463985099424	-6.68390401791507E-05	-0.00917861607315248	0.00251856543633912
11.3	0.0157963732977763	0.0286895495447736	-0.0031117002031452	0.000386329289346443	-0.00312324417036865	0.000376315644425697	-0.009057123265855	0.00259812999854801
11.4	0.0210260244098627	0.0257292742728983	-0.0030366756054345	0.000813416698710086	-0.00303175808795064	0.00082096711932627	-0.00887388855535175	0.00290456764857503
11.5	0.0256016974799805	0.0217373848205369	-0.00289319090225819	0.00122631505443024	-0.0028959583950788	0.00123657751744299	-0.00792389472235308	0.00296211354479835
11.6	0.0292133356653326	0.0168220758278126	-0.00270024320976806	0.00161626170688004	-0.00270022280711106	0.00161919855573338	-0.00756388873846293	0.00200069457386347
11.7	0.0319464330195845	0.0113448063478045	-0.00243907446015976	0.00197074858272255	-0.00243963284413798	0.00197934413405849	-0.00770205432531623	0.00149705860676606
11.8	0.0336226158889161	0.00532219689868335	-0.00214386582940972	0.00230210729689029	-0.00214797499892741	0.00230380572705595	-0.00781551309202348	0.00144799107831462
11.9	0.034156834826792	-0.000970156684841661	-0.00179561208584982	0.00257703075166253	-0.00180861512001575	0.00258133427965704	-0.00754455783545547	0.00217318599203967
12	0.0333844852775379	-0.00721384142112078	-0.00142415999124945	0.00280112069580536	-0.00142356465119086	0.00280253140123671	-0.0060473610539665	0.0025136776904057
