# GHZ S RI R 50
0.2	0.006209207935907	0.00155519068803973	0.00304581434141552	-0.0008985459599424	0.00305617844282707	-0.000891746135455159	-0.0137763331966522	0.0051645576542505
0.3	0.00642448028206051	-0.000588988512500093	0.00290089389887935	-0.00132164995592046	0.00289366065193253	-0.00130871905782336	-0.0130706046477512	0.00516862967779097
0.4	0.00609758392747617	-0.00246930472547051	0.00266851535813127	-0.00169265884297641	0.00267377194063228	-0.00170121252980252	-0.012601784177662	0.00548176344442038
0.5	0.00485846673276446	-0.00380508986501922	0.00240966578520035	-0.00204766202087887	0.00242118310857743	-0.00205988813192066	-0.0125284382836884	0.00611337527371617
0.6	0.00408932480897349	-0.00434467187130334	0.00209791292054335	-0.00236171895003725	0.00209712580174289	-0.00236885895345713	-0.0117767653711107	0.00706235692054567
0.7	0.00309846220167043	-0.00510179536151679	0.00175081040075019	-0.00263877200695644	0.00174885715747424	-0.00263896999848266	-0.0111904640901207	0.00749061696904602
0.8	0.00194261584243597	-0.00555313242897069	0.00136587407073087	-0.00285509149773974	0.00135329372614499	-0.0028596306543471	-0.0107651521455424	0.00806577030475332
0.9	0.00077907914891731	-0.0058155517406755	0.000950057889313148	-0.0030176343494893	0.000951091365857089	-0.00302831463907189	-0.0102363518066504	0.00858323241708417
1	-0.00099979211886832	-0.00622065791904771	0.00052676045463978	-0.00312157334459024	0.000516913721353324	-0.0031223145713684	-0.0101572677416289	0.00886032587868833
1.1	-0.00286707419213001	-0.0052312090868683	7.10489392412948E-05	-0.00315017713543047	6.75470952163597E-05	-0.00316779926917304	-0.00996951894965483	0.0102365190154531
1.2	-0.00403336070504906	-0.00459614933798754	-0.000369869322889932	-0.00313892458167306	-0.000370679830748405	-0.00313685203924486	-0.00880796788141893	0.0111417438806672
1.3	-0.00545636433965092	-0.00414794935896299	-0.000795512390749339	-0.00305590743878233	-0.00079874569303228	-0.00305790986743862	-0.00724700524094609	0.0116612474390025
1.4	-0.00666327609165783	-0.0035277657582227	-0.00121570969584385	-0.00290865619460124	-0.00121449614304126	-0.00291417904216572	-0.00558895956561325	0.0114293872045817
1.5	-0.0075666551606222	-0.00210491373096421	-0.00161682272690371	-0.00271300349867746	-0.0016152118883091	-0.0027214890142919	-0.00459478422955744	0.0111566294864518
1.6	-0.00692374204850108	-0.00013167103533809	-0.00197539685937566	-0.00246028333094802	-0.00197560537858908	-0.00246550624898115	-0.00359314235366519	0.0112807815852701
1.7	-0.00601608608795212	0.00113024337439637	-0.00230242757313519	-0.00216505427772329	-0.00230339573799815	-0.00215880719828825	-0.00287449599572292	0.011249318210304
1.8	-0.00500164213721809	0.0023216671309317	-0.00257310021174783	-0.00181524806016803	-0.00258403810315834	-0.00182088320738765	-0.00220743232644599	0.0113058257462573
1.9	-0.00385791603627274	0.00300638327580307	-0.00279863404105873	-0.00144555547675108	-0.00281105448868491	-0.00143942569397689	-0.00160668214650373	0.0112379376463417
2	-0.00328383028680732	0.00370691462864446	-0.00297294706768709	-0.00103853414139961	-0.00298254969023884	-0.00103384639215567	-0.00153282576553602	0.0115012481044465
2.1	-0.00171541134122723	0.00479252590112399	-0.00308644950902826	-0.000613407462795536	-0.0030823726598638	-0.000615387923566092	-0.000484827005167014	0.0121658351409199
2.2	7.971303734563E-05	0.00489454242701617	-0.0031452747877749	-0.000176712021852337	-0.00315654997680287	-0.000179561728781606	0.000754859507808914	0.0120740782456344
2.3	0.00172703370301839	0.00442279653140695	-0.00314166227612265	0.000265725330526892	-0.00314134831267801	0.000258856747256557	0.00179592590257782	0.0116954910143176
2.4	0.00320716983233225	0.00337584041619427	-0.00306973239022326	0.000702931173752877	-0.00307226019691659	0.000698678251225846	0.00275728895974114	0.0111453349726719
2.5	0.00365312956925411	0.00179688183454388	-0.00293451021206636	0.00111251863756108	-0.00294539259750118	0.00111885732768599	0.00312621798900718	0.0104167570715617
2.6	0.0040564306978357	0.00111173412178917	-0.00276392184045885	0.00151610687899007	-0.00276033785433429	0.00150381075482885	0.00384370695278689	0.0103929265776953
2.7	0.00475487570740657	-6.36949183758634E-07	-0.00251922594423163	0.00188812364010483	-0.00252449925257491	0.0018881216565177	0.0047088439052289	0.00986061227795475
2.8	0.00538664902092779	-0.00140672512301216	-0.00223757600273266	0.00221567558619446	-0.00222979686386928	0.00222547286165746	0.00539258652937183	0.00933110236065295
2.9	0.00579125406580034	-0.0032984201493214	-0.00190533240672458	0.00251581821044838	-0.001901626406314	0.00251540243945749	0.00615746604709285	0.0087790027855112
3	0.00519375334401714	-0.00517594104234051	-0.00152168123418693	0.00275386386540619	-0.00153647513710639	0.00275991590266212	0.00664125540930403	0.00842834834140026
3.1	0.00492871721550567	-0.00653479961198084	-0.00113038898715472	0.00293278026750383	-0.00112575438565781	0.00294113214032353	0.00773169366245938	0.00821674356241061
3.2	0.00418719514173871	-0.00836908780064263	-0.000710479237700994	0.00307040290781242	-0.000712221460761465	0.00306978791673937	0.00846479451131398	0.00755352049117507
3.3	0.00292278662006072	-0.0101834279317526	-0.00027298254579585	0.00314164125207631	-0.000271323537775181	0.00313790642123705	0.00918014905084113	0.00684540218212056
3.4	0.00109115246876375	-0.0118622707191869	0.000173628266418895	0.00313817056818893	0.000167372931902359	0.0031547223622012	0.00985226059801628	0.00581175245319049
3.5	-0.00177701967165939	-0.0130242146873621	0.000597979976853892	0.00309683336064296	0.000603579147377025	0.00309692133152155	0.00978657496414527	0.00470078899509578
3.6	-0.00417606123314541	-0.0128620810494494	0.00102618626893947	0.00297693461558275	0.00103438018340847	0.00297663597684917	0.0101836136116409	0.00421102002416641
3.7	-0.00636767632494662	-0.0128339350828665	0.00143679164099554	0.00279769950372124	0.0014271664498031	0.00281135607302816	0.0106276733458169	0.0032091225426288
3.8	-0.00871892972375065	-0.0124840530470635	0.00181631259270302	0.00257209074868363	0.00181869541187891	0.00258125360664564	0.0107988376071113	0.00215549554355064
3.9	-0.0110786845892209	-0.0119044744168134	0.00216437044350486	0.00229922873170711	0.00215710165889835	0.00229743184782179	0.0107420507779349	0.00104267619670333
4	-0.0141081059913179	-0.0105956197587315	0.00244881997223011	0.00197663758974992	0.00245327551991642	0.00197421123142668	0.0101480921261004	0.000383474141299532
4.1	-0.0160041783898714	-0.00789798481681469	0.00270123199553442	0.00161925626360525	0.00269997652672737	0.00161998916432881	0.0105221612568914	0.000356807129102523
4.2	-0.0171694122107068	-0.00545601717170525	0.00290311600201211	0.00121844556768367	0.00290761019189859	0.00120973114144635	0.0110372767838711	-0.000364543848253396
4.3	-0.0179681786374752	-0.00303160056616628	0.00304798636217464	0.000805543513996628	0.00305443655882265	0.000797745478279425	0.0113696168813451	-0.00133286272746201
4.4	-0.0184998208389057	-0.000726942374309333	0.00312480927785115	0.000370478803267635	0.00312719169054456	0.000368225045153121	0.0114451410187152	-0.00247439958975831
4.5	-0.0195233303835899	0.00179780547292478	0.00314877942238246	-6.56389866136132E-05	0.00315415707765947	-6.90001727256257E-05	0.0108913083006932	-0.00342514233967138
4.6	-0.019462994297357	0.00547368499062922	0.00310884632595956	-0.000510430498663247	0.0031100414331847	-0.000497484370359544	0.0109277426098798	-0.00384984296264813
4.7	-0.0183550683941018	0.00860006086065543	0.00300451155305625	-0.000932019210730576	0.00301985705761217	-0.000941623579940865	0.0108838659003818	-0.00484795376984116
4.8	-0.0167501012075687	0.011387483280137	0.00284371857194465	-0.00134799412375213	0.00285223068636198	-0.00135407970869344	0.0105933988034089	-0.00575662916096433
4.9	-0.0144631780660784	0.0135458668074322	0.00262374410206984	-0.00173323190789452	0.00262791411337588	-0.00173031013701835	0.0102945114793132	-0.00663261800260633
5	-0.0124801152051364	0.0153333204607334	0.00236624189011776	-0.00209222147212729	0.00236987057730159	-0.00208954014880384	0.0097755989358562	-0.00719876920063115
5.1	-0.0090305799626154	0.0172295414907934	0.00205237058456295	-0.00240650037097213	0.00205467754829777	-0.00240513549005981	0.0101546807968926	-0.00761400651673859
5.2	-0.00539958669920919	0.0175185318749535	0.00169291695805758	-0.00265719533469958	0.0016946402400982	-0.00266235246628668	0.0102630372661747	-0.00872037891156789
5.3	-0.00215001926728259	0.0169990504234348	0.00130514804445037	-0.0028738436813734	0.00130828857045762	-0.00287177178562607	0.010027527073279	-0.0097035286176755
5.4	0.000580324752653537	0.0157862974750776	0.000878912181694983	-0.00302360113790957	0.00089614623483791	-0.00303483767091024	0.00966688500655785	-0.0108609996612933
5.5	0.00202349176208801	0.0148158798364668	0.000460298617473427	-0.00312288987992277	0.00047038380780075	-0.00313235756046458	0.0085000121138275	-0.0116413335820856
5.6	0.00466509114377426	0.0144496492612724	1.99114526281301E-05	-0.00315609854920439	1.1360066841953E-05	-0.00315932133335565	0.00823158923952641	-0.0118656101026792
5.7	0.00720756863697835	0.0126757290876591	-0.000411957796599362	-0.00312525726349904	-0.000428618957092903	-0.00312892016253746	0.00762942872491495	-0.0126797817882028
5.8	0.00915667913438875	0.0102993085462729	-0.000859795855875367	-0.00303003350347369	-0.000863351620962324	-0.00304406152788692	0.00676036939964131	-0.0134722999440895
5.9	0.010487435209283	0.00718556034198155	-0.00126746981912463	-0.00288853994621061	-0.00127572457580822	-0.00288844726552967	0.00567710476544893	-0.014342997499939
6	0.00963587288292908	0.00361368937068891	-0.00166543390357003	-0.00267794463809633	-0.00166186612851325	-0.00267811711931734	0.0034730689364377	-0.0149094931431372
6.1	0.00852388028095682	0.00201560886387781	-0.00201937066484642	-0.00242429190411914	-0.00202101011525954	-0.00242027772600505	0.00219643992548257	-0.0139625760345259
6.2	0.00763674555502125	0.000166135885121121	-0.00233381793172255	-0.00211024818771049	-0.00233754980274708	-0.0021221439444623	0.00157155338137083	-0.0136530273141352
6.3	0.00663963241129189	-0.00153696514003081	-0.00261241622392148	-0.00177348085106165	-0.00262155742619607	-0.00176771371829805	0.00112053749272072	-0.0136021767523227
6.4	0.00538654258870174	-0.0035726490175479	-0.00283752568069478	-0.00138005041431546	-0.00282779165635311	-0.00138498071479214	0.000771549402258782	-0.0139806586542827
6.5	0.00293334765749178	-0.00479472386089809	-0.00299242532963941	-0.000976300615429174	-0.00300029583494961	-0.000971802796859649	-6.01064971854731E-05	-0.0140701124672537
6.6	0.00181500170592194	-0.00512793189892348	-0.00310317381663678	-0.000549439694786043	-0.00310481740004473	-0.000553424527799848	0.000165217910346687	-0.0143129714892599
6.7	0.000241967107859918	-0.0059809271303576	-0.00315271996318552	-0.000108471926506206	-0.00316158258907236	-0.000102159129646576	-0.000566090938371636	-0.0150494722993312
6.8	-0.00167250007563579	-0.00627055227358903	-0.00312903824483247	0.000334555107563537	-0.00314014317036048	0.000339639101431644	-0.00159561403240278	-0.0152131488812992
6.9	-0.00374785272030206	-0.0064352295274961	-0.00305213488446551	0.000767611313290137	-0.0030551227599885	0.000770012411635023	-0.00253510149679061	-0.0153523244523014
7	-0.00711123534974553	-0.00544881702695935	-0.00291700544117475	0.00119029183312187	-0.00292987581242434	0.00118811660986158	-0.00419759936715034	-0.0149418179946506
7.1	-0.00846725903863081	-0.00256110994478418	-0.0027351810584368	0.0015822320100036	-0.00273147998848971	0.00159090705364039	-0.00443229573146257	-0.0138272769595943
7.2	-0.00900697974092446	-0.000565661165982466	-0.00247550752689231	0.00194936117613687	-0.00248204262486623	0.00195146583696816	-0.00469636626125652	-0.0136031656475656
7.3	-0.00932324654194807	0.00134828596106678	-0.00217849682370663	0.00226752828247912	-0.0021897133541051	0.00227262647780406	-0.00503317268117156	-0.0134217250323974
7.4	-0.00920786900561237	0.00274446842990891	-0.00183599389329178	0.00255117777945922	-0.00184284700653565	0.0025648369866453	-0.00539940334991743	-0.0137170396685934
7.5	-0.0104150007123132	0.00365999117064603	-0.00146522796294475	0.00279134019766673	-0.00145818841813312	0.00279871845537579	-0.00675164506372629	-0.0140709570854514
7.6	-0.0106260304784026	0.0065674901022733	-0.00105664891882602	0.0029647320415755	-0.00105804532526381	0.00296003780548777	-0.00710741271877895	-0.0133005135394917
7.7	-0.00991456375450776	0.00861395544517475	-0.000628486622589293	0.00308367558856563	-0.000629831799515801	0.00308261880935258	-0.00757024750236316	-0.0138515917304118
7.8	-0.00867201981959091	0.0103276364679312	-0.000202262332558436	0.00313121136723941	-0.000210046736873786	0.00313770411632131	-0.00842196148702689	-0.0141428304402991
7.9	-0.00714387274269088	0.0114278627890784	0.000240648291441425	0.00313599475333755	0.000248598942776705	0.00313745689086268	-0.00945764833668646	-0.0142164532994363
8	-0.00628862616219616	0.0131923403548826	0.000681194443967698	0.00305768568658157	0.000681298415156798	0.00306257948216541	-0.0109553680631355	-0.0135153450223414
8.1	-0.00286077518212852	0.0149959661915887	0.0010877975272572	0.00293976757706835	0.00110692907774168	0.0029407844046978	-0.0109469037238209	-0.0126863294857057
8.2	0.000462999776036224	0.0149795836424852	0.00149207895334316	0.00275834650353975	0.00150129231957606	0.00275112345372532	-0.0114635628040195	-0.0124688176375525
8.3	0.00345560708689096	0.0142095250501513	0.00186780353414041	0.00251728782660411	0.00186621499200177	0.00253083172849358	-0.0120771688950436	-0.0120327278715742
8.4	0.00602324976554972	0.0124930094149734	0.0022008402050181	0.00223676814177973	0.00219781400328289	0.00223655626589565	-0.0127096401381465	-0.0117894334480283
8.5	0.00671398498825633	0.0108245607814094	0.00248207144611988	0.00190816756108548	0.00248118519113309	0.00191134769497426	-0.0142561030084995	-0.0110104414075261
8.6	0.00877595429744111	0.0104145745639009	0.00272947998141258	0.00154817634723039	0.0027389478387309	0.00154161224373846	-0.0143327565419047	-0.00953368746606082
8.7	0.0110346600123279	0.00833532706741601	0.00291325803942084	0.00114384561609255	0.00291881220228418	0.00114454764395358	-0.0144743255203059	-0.00906313375111739
8.8	0.0126938352837691	0.00552052514480605	0.00304665244732594	0.000732981643484567	0.00305237878774266	0.00072421912027716	-0.0149776034830347	-0.0086494641584086
8.9	0.0137306086276115	0.00170552249718723	0.00312134290169731	0.000301537081186722	0.00312046751551109	0.000299297684139635	-0.0153901646316677	-0.00817282111583099
9	0.01250339622787	-0.00235350375591269	0.00313304723289977	-0.000140575263010302	0.00313621134228211	-0.000136488395071818	-0.0163427517438645	-0.00729052894241934
9.1	0.0113879097512219	-0.00505630035937313	0.0030833420297307	-0.000583716164596353	0.00308626833604616	-0.000570855822383341	-0.0160027932487904	-0.00581264184795569
9.2	0.009578307251945	-0.00820953328081685	0.00297091389762774	-0.000998512113437856	0.00297854089415818	-0.00100140673994547	-0.0156746146949478	-0.0051599433504245
9.3	0.00689365373710218	-0.0107682066357671	0.0028017259951123	-0.00140058519226927	0.00280098300390859	-0.00140555902274083	-0.0153556222267833	-0.00442579157620279
9.4	0.00359237769455809	-0.0129037542098627	0.00258053879851946	-0.00178926939265408	0.00258705367457198	-0.0017817075233082	-0.014986084135705	-0.00400920326361619
9.5	-0.00108081774068529	-0.0133540414456084	0.00230253730812459	-0.00212427785354391	0.00230992400628704	-0.00212564867921045	-0.0151510987710488	-0.00308122928631156
9.6	-0.00400319750859996	-0.0122459992660866	0.00198440554288367	-0.00242203543845019	0.00198473704440799	-0.00242105837283206	-0.0142338921945669	-0.00230927282285568
9.7	-0.00682817418992718	-0.0115814863620919	0.00161981016636908	-0.00266965301281557	0.00162530543703289	-0.0026769424436889	-0.0139343701223771	-0.00224016771729517
9.8	-0.00973315157827302	-0.0104698438149903	0.00123679039939345	-0.00287735312615835	0.00124248345705953	-0.00286890005662638	-0.0139476039729878	-0.00195277538508365
9.9	-0.0125649937646236	-0.0091845495905596	0.000831658858688699	-0.00301573060646669	0.000824360024663528	-0.00301449199212385	-0.014138640688562	-0.00164612105197341
10	-0.0166683377465089	-0.00688977078447664	0.000403232587626406	-0.00309951124289304	0.000395759191830928	-0.0031118717467031	-0.0150267093092837	-0.000815469304897701
10.1	-0.0187889908916698	-0.00244158766633592	-3.26842936149206E-05	-0.00313134790998672	-4.28602657582698E-05	-0.00312597613369935	-0.0144624822514471	0.000542467633668405
10.2	-0.0197289080618559	0.00145846087951349	-0.000476656427062501	-0.00309582478711217	-0.000480045762746295	-0.00309305715243494	-0.0139190675031831	0.00103176388717421
10.3	-0.0199360365346371	0.00537310894046496	-0.000907358025405812	-0.00299003345079415	-0.000899311472720309	-0.00299906697685762	-0.0134607276801209	0.00148597105584395
10.4	-0.0194713749607071	0.0087067585785394	-0.00130113769538189	-0.00283405343408853	-0.00129945326276375	-0.00284021501094203	-0.0128694276565052	0.00150951367285368
10.5	-0.0198764484035939	0.0125108719629313	-0.00168579303422576	-0.00263922347895373	-0.00168272653466469	-0.00262629083195552	-0.0130627410616066	0.00187172224306132
10.6	-0.0182570769833058	0.0174473214296101	-0.00203932938688554	-0.00237394996121819	-0.00203714673285902	-0.00237775245331628	-0.0122626390942264	0.00237953828919759
10.7	-0.0154581032788698	0.021713600672197	-0.00235374948377048	-0.00207349614136811	-0.00235027803194049	-0.00206823366918134	-0.0117640579119868	0.00257740838299051
10.8	-0.0116568541268582	0.025541496859557	-0.00262122732524502	-0.00171604488871167	-0.00261603625620385	-0.00172492055660442	-0.0113267121182131	0.00280615693664428
10.9	-0.00685289995882038	0.0279594588614771	-0.0028281172275429	-0.00134676795629796	-0.00283328363828032	-0.00134605420242669	-0.0108672080328366	0.00280084690457946
11	-0.00290137254475391	0.0299795967296939	-0.00299224643049605	-0.000934443583892736	-0.00299705727702111	-0.000941177754793245	-0.0111669469691079	0.0032880427175588
11.1	0.00326757593494313	0.0321071761990137	-0.00310098833039972	-0.000508198328535698	-0.00309017027295722	-0.000505326528226715	-0.0100080145328256	0.00399202506560034
11.2	0.00992884836990704	0.0317744626160249	-0.0031301334418158	-7.32222118817206E-05	-0.00313724887568798	-7.80583090384855E-05	-0.00909617697651133	0.0037591222373351
11.3	0.016361454221864	0.029746742826507	-0.00310546072759636	0.000372239505078795	-0.00311693330905007	0.000362202530888907	-0.00830338712174775	0.00351303741343681
11.4	0.0220322842861354	0.0259974039029661	-0.00303624236118958	0.00079872150894975	-0.00303136526882985	0.000806283820942172	-0.00770906077879172	0.00297099711074581
11.5	0.0254751788729025	0.0217256540429199	-0.00289345923673078	0.00121739427125506	-0.00289625104688808	0.00122763884566124	-0.00802209039706787	0.00278077325246842
11.6	0.0296839955675501	0.0177721224718581	-0.00269904837975386	0.00160386109933008	-0.00269903738201547	0.00160679111293498	-0.00702259014662026	0.00278389751171472
11.7	0.0332256745977459	0.0119118438819881	-0.00244203341429562	0.00195721169795939	-0.00244262465322307	0.00196578803146367	-0.0063838553037084	0.00186614350123461
11.8	0.0353547304097604	0.00508138722378282	-0.00215048383344049	0.00229046914676425	-0.00215459466630296	0.00229214872683444	-0.00609506471489474	0.00101488272940856
11.9	0.0357053918744294	-0.00275977501458324	-0.00180235585538604	0.00256909601836713	-0.00181536169482483	0.00257335422311768	-0.00600742019368796	0.0002556423871002
12	0.0324845089042487	-0.00919778908686428	-0.0014295785757996	0.00278920410549965	-0.00142898937581273	0.00279061308293523	-0.0069014140319239	0.000352385965870194
