# GHZ S RI R 50
0.2	0.00508303089706747	-0.000883338466246331	0.00306225938235138	-0.000894047412509047	0.0030726516046474	-0.000887187271002561	-0.0149995476148071	0.00269221492729876
0.3	0.0056919441409876	-0.00195763431478134	0.00292216357087771	-0.00131895667334342	0.00291484322616807	-0.00130597736190685	-0.0139310962782916	0.00377010867513647
0.4	0.00557219742281954	-0.00248336859213529	0.00269491329628036	-0.0016946828102418	0.00270024240984615	-0.00170327909303132	-0.0132952050946354	0.00545811118049949
0.5	0.00716624509230869	-0.00413198036280283	0.00243656032908077	-0.00206039537075309	0.00244821214694097	-0.00207270450953765	-0.0104104137782244	0.00584270133015764
0.6	0.00456090387976307	-0.00750084734950415	0.00212022621753493	-0.00237728494349768	0.00211944684653088	-0.00238448632503104	-0.0114718282228247	0.00399169829044542
0.7	0.00170332498522557	-0.0074688312100659	0.00177317952917438	-0.00265888475044361	0.00177120879108691	-0.00265908920079391	-0.0127523932423416	0.0052379839676263
0.8	-0.000415491517835457	-0.0070210912119436	0.00138557246468219	-0.0028821087240778	0.00137287021887299	-0.00288671931272294	-0.0132771666059983	0.00675387109131429
0.9	-0.00290423635582599	-0.00552746202150007	0.000962255291380633	-0.00305126667052649	0.000963305624584636	-0.00306206712402464	-0.0140310605498106	0.00906565294958632
1	-0.00203848256535388	-0.00204344784466766	0.000529725046595929	-0.00315214316702804	0.000519782512419496	-0.00315288483652746	-0.011259852156456	0.0132112696875497
1.1	-0.00127234520669151	-0.00458938355123793	7.50031480406527E-05	-0.00318286217952536	7.1482878699046E-05	-0.00320067113381106	-0.00848425859898476	0.0110565419029627
1.2	-0.00399162217754586	-0.00505338614243267	-0.000373670815884715	-0.0031763796682881	-0.000374491374474361	-0.00317428259900863	-0.00884403801671399	0.010877864656482
1.3	-0.00628365829582078	-0.00503220656679534	-0.000808798385419976	-0.00309291073315859	-0.000812074023560614	-0.00309493437298739	-0.0081192339385139	0.0110117424027428
1.4	-0.00833734168594307	-0.00401953050124644	-0.00123624260580531	-0.00294006646269522	-0.00123502681785245	-0.00294565658319905	-0.00725157116149231	0.0112054466063179
1.5	-0.00717455620435721	-0.00331318859447661	-0.00163620188729371	-0.00274410044031719	-0.00163457431866476	-0.00275268475417942	-0.00420591597740365	0.0101782170111172
1.6	-0.00925713716940683	-0.00276856956212898	-0.00200834056809937	-0.00249386333242612	-0.00200855990219316	-0.00249916342797229	-0.0058608460321313	0.00895195953035057
1.7	-0.00902517889639073	0.00054533556680287	-0.00234518799196298	-0.00218876754545544	-0.00234614692203953	-0.00218242310092095	-0.00577251771995768	0.010922124313679
1.8	-0.007690939978393	0.00308287573805172	-0.00261944925899175	-0.00182866172745417	-0.00263057375915228	-0.0018343237525765	-0.00477979683551647	0.0122786339653105
1.9	-0.00571848669415988	0.00573928214741038	-0.00284543798989647	-0.0014524995660622	-0.00285800518192884	-0.00144622229125399	-0.0033579619063259	0.014152716583664
2	-0.00066094466431676	0.00627672366434147	-0.00303021126596396	-0.00104057898626274	-0.0030399555538575	-0.00103575806004363	0.00119215745554871	0.0142557748957252
2.1	-0.000157668920089572	0.00334079130564323	-0.00314485420427686	-0.000593204692546781	-0.00314072787889017	-0.000595259147931313	0.00117875618747668	0.0108967721071291
2.2	-0.000236221212529068	0.00349248279662526	-0.00319531481061643	-0.000144488484809305	-0.00320679399196654	-0.000147256553150351	0.000548301653359659	0.010857517619752
2.3	0.000288280522705131	0.0036063029304214	-0.00318514183962986	0.000306383592511925	-0.00318490349677088	0.000299409491074968	0.000481665939470978	0.0110720304887785
2.4	0.000667747562359672	0.00440449747700474	-0.00310911438908293	0.000753062199272613	-0.00311173611329584	0.000748774490278025	0.000364438099710416	0.012349710532093
2.5	0.0043537499821228	0.00549055271170103	-0.00296062626252548	0.00118170603872012	-0.0029715664061125	0.00118833581948943	0.00401112308482563	0.0142626417661835
2.6	0.00636668987840143	0.00150802832438113	-0.00276649803512833	0.00158349930291928	-0.00276310026970397	0.0015710021815862	0.00634347651180869	0.0109254305607136
2.7	0.00618526836126146	-0.000788053861002962	-0.00251118671519344	0.00195239406009828	-0.00251651384702724	0.00195248627563936	0.00633188317161277	0.00921852355296566
2.8	0.00572532491865973	-0.00266462729193373	-0.00221804476654729	0.00227984202585955	-0.00221000376219858	0.00228959000555084	0.00595216753815109	0.00822658978907846
2.9	0.00530446924919262	-0.0034482600508342	-0.00186866617262886	0.0025793836580734	-0.00186493556829655	0.00257888473642494	0.00591741854376064	0.00879667118058168
3	0.00721506508620954	-0.00533528245066575	-0.00146422348314592	0.00279847454600098	-0.00147893208085718	0.00280488615177063	0.0089371974618134	0.00838170818017797
3.1	0.00516324683209962	-0.00928487647229401	-0.00107676814884308	0.00296340953396991	-0.00107195762090728	0.00297169608832903	0.00821570116691722	0.00547696242532181
3.2	0.00278218809389998	-0.0103922983495955	-0.000650689280361852	0.00309472066435862	-0.000652449586080815	0.00309413891309741	0.00736815005215169	0.00562431911220224
3.3	0.000650198654951001	-0.0112869539769001	-0.00020582628199389	0.00315319368707403	-0.000204244700085944	0.00314941638697135	0.00727895669930093	0.00577684299829209
3.4	-0.00162080393184308	-0.0109878652812752	0.000242670640921442	0.00312961828056469	0.000236790240639529	0.0031462833337571	0.00752695551132863	0.00660647143368078
3.5	-0.0011133328530659	-0.011424389811497	0.000650683108113919	0.00307578163169935	0.000656264878200592	0.00307577035546764	0.0107704040478147	0.00616044541885568
3.6	-0.00467628424972899	-0.0143452839030301	0.00108082763321287	0.00295675009201438	0.00108901270526387	0.00295630003201769	0.0100120204816767	0.00259294954967515
3.7	-0.00884989591572146	-0.0134252934585499	0.00149072218304733	0.00276307894886228	0.00148139283041472	0.00277690399676443	0.00847320937806357	0.00238048324946065
3.8	-0.0119608035414959	-0.0113625908875393	0.00186078810994853	0.00252464666728144	0.00186334637576026	0.0025337232006646	0.00782844660157907	0.00294532097253315
3.9	-0.0138212710040034	-0.0079972696088516	0.00219402731526503	0.00224696932285069	0.00218676665921799	0.00224531468958533	0.00817312298265461	0.00457424236029525
4	-0.0118824689685012	-0.00599717379226223	0.00247881242380914	0.0019291216991113	0.00248321572900101	0.00192662133884266	0.0125408174045234	0.0045966010607213
4.1	-0.013772499166006	-0.00736248855766039	0.00272573498531355	0.00155244320907101	0.00272450110021259	0.00155320087276626	0.0128259879661652	0.000359402096635131
4.2	-0.016384083414675	-0.00540742810849872	0.00290806731391563	0.00114597665145095	0.00291233773025535	0.00113722909487613	0.0117392295489943	-0.000870105091735336
4.3	-0.0180365104722892	-0.00263559754730257	0.00303756695027861	0.000735373192759288	0.0030437986341553	0.00072751106888739	0.0110918865771452	-0.00146205578734301
4.4	-0.019000193600834	0.00134521328033973	0.00310644835163163	0.000304386674411756	0.00310876560853921	0.000302103494143121	0.0106788949422158	-0.000916895909125889
4.5	-0.015936932729456	0.00482136581991572	0.00311787046532481	-0.000143634285347961	0.00312311422306396	-0.000147098473187197	0.0140349952627493	-0.00104752173526415
4.6	-0.0159849133465166	0.00406436806022694	0.00304722405698987	-0.000575463066706741	0.00304870482600178	-0.000562751649059732	0.0136460165433734	-0.00572963451441986
4.7	-0.016752276617062	0.006470458217291	0.00293280120386327	-0.000978145668449125	0.00294767989182423	-0.000987901204695412	0.0116369915028598	-0.00722699521575022
4.8	-0.0164646666796894	0.00932574153105399	0.00276580609477046	-0.00137976100557659	0.00277404454305431	-0.0013859046697401	0.0100134033379061	-0.00790203220445515
4.9	-0.0151670534538802	0.0129770408877753	0.00253717500461732	-0.00175425256554214	0.00254132522568638	-0.00175147367920478	0.00867038448292337	-0.00717186143455259
5	-0.0100171152866734	0.0148742372405778	0.00226272111559569	-0.00208476720710669	0.00226630850467495	-0.00208222827342941	0.0111656732568748	-0.00733202126850352
5.1	-0.00918724756376994	0.0136551691906698	0.00196605869449062	-0.00237039667493777	0.00196832299922965	-0.00236909863118621	0.00915054683704617	-0.0105882037511247
5.2	-0.00777503972573941	0.0156022761813966	0.00161759174289842	-0.00260997527036423	0.00161920865099882	-0.00261502183585317	0.00719239138634083	-0.00996279878235571
5.3	-0.00484866134208609	0.0170291405656658	0.00123735330265871	-0.0028125742375467	0.00124043431776024	-0.00281059357311334	0.0067390531381311	-0.00893505806244088
5.4	-0.00121735660133211	0.0183389593160588	0.000822565287262741	-0.00294219872028139	0.000839173424284094	-0.00295327196426331	0.00735575326608329	-0.00746406740498788
5.5	0.00582630645451238	0.0163781912396772	0.000438853397433953	-0.00302786919702562	0.000448606182784871	-0.00303706906415901	0.0120289991401326	-0.00913707567574602
5.6	0.00550144954551017	0.0109221749626818	1.40172917707829E-05	-0.00307413724572949	5.68257975799579E-06	-0.00307726173380176	0.00889476247626573	-0.0145500995239155
5.7	0.0047452980397723	0.0101429043238767	-0.000407285755417845	-0.00304157849005166	-0.000423512530003888	-0.00304511096319226	0.00508394692556212	-0.0143463203695689
5.8	0.00496086625823721	0.00969094473996911	-0.000836763744505857	-0.0029455698552772	-0.000840224685915039	-0.00295920696282343	0.00264462570029083	-0.0132203519792851
5.9	0.00514706303528019	0.0106298548969387	-0.0012206988571925	-0.00281228120692842	-0.0012287220480626	-0.00281222302396003	0.000604850771036104	-0.0101558587440113
6	0.0107825992379239	0.0115199404205716	-0.00161341853457866	-0.00262828042405124	-0.00160992856912778	-0.00262842879810256	0.00488023962397539	-0.00653952197895304
6.1	0.012744867772679	0.00473219185525228	-0.00196794767934504	-0.00237116774471117	-0.00196955583166243	-0.00236725023366672	0.00654858273470762	-0.0107845761666087
6.2	0.0112162368785952	0.000896743322884159	-0.00226637035405036	-0.00206461881778996	-0.00226996352482708	-0.00207622323604903	0.00527981375808156	-0.0124735392435227
6.3	0.00917408485539988	-0.00197337112798461	-0.00253416512660976	-0.00174478059903545	-0.00254310913420285	-0.00173921965353299	0.00380764336399792	-0.0135973845030102
6.4	0.00708554771903283	-0.00275662796828577	-0.00276093446216333	-0.00137195874620184	-0.00275138286360813	-0.00137669500004785	0.00261144626001632	-0.0127832943892216
6.5	0.00846391080150345	-0.00591983837869385	-0.00292124075665668	-0.000965894416714094	-0.00292895139088057	-0.000961528382880812	0.00551660989497606	-0.0147898532395947
6.6	0.0028232724472904	-0.0094775535672498	-0.00301275342516206	-0.000555764990223503	-0.00301432333994149	-0.000559650106698017	0.00128728463847797	-0.0181701898447815
6.7	-0.000791102778131612	-0.00844025445612545	-0.0030660693879927	-0.000140741694501428	-0.0030747623364176	-0.000134698952548242	-0.00143748768687982	-0.0170380791343558
6.8	-0.00355728804968865	-0.00745127721032835	-0.00305458524060169	0.000285525810581851	-0.00306547649918988	0.000290337675519579	-0.00330650870370221	-0.0159645842294944
6.9	-0.00587409022578797	-0.00437978410868973	-0.00298775734146669	0.000712718523614432	-0.0029907018686673	0.000715026141554777	-0.00456336204608202	-0.0128774796984832
7	-0.00204701982197222	-0.00341434029675508	-0.0028449807340964	0.00111634477479093	-0.00285743606529959	0.00111406635070749	0.000852440913855334	-0.0123649002721137
7.1	-0.00633028480781439	-0.00742252053019081	-0.00269208227990196	0.00148083724950216	-0.00268866608306973	0.00148934800888897	-0.00219791208339767	-0.0180287209194454
7.2	-0.0108560745969102	-0.00495446508521128	-0.00245864329332329	0.00184624220014049	-0.00246506574009138	0.00184814900728013	-0.00634317827798945	-0.0172990034064052
7.3	-0.0137885710521592	-0.00159858526565284	-0.00217960871934143	0.00216480074785739	-0.00219068044143925	0.00216952335297426	-0.00919521113860687	-0.0156734136929788
7.4	-0.0162163177513848	0.00400376403920098	-0.00185259356965588	0.00244256331170734	-0.00185960987207622	0.00245571383959312	-0.0120840106806728	-0.0115524880160562
7.5	-0.011377243129304	0.0100513319313312	-0.00152366421465838	0.00267841110880423	-0.00151703123697601	0.00268585165272963	-0.00717815667368657	-0.00686218034763456
7.6	-0.0103175989742098	0.00845710978921503	-0.00113905191087627	0.00288450151196641	-0.00114027112072916	0.00287983234282241	-0.00606395381605406	-0.0109076241416052
7.7	-0.0107143475303417	0.0106465746621658	-0.000718759629982158	0.0030214650129796	-0.000720052582643101	0.00302037953012097	-0.00773169951331605	-0.0113103049452682
7.8	-0.00950908690357728	0.0132406502672615	-0.00030347849773202	0.00308428374632253	-0.000311378173278067	0.00309043500401405	-0.00852764223312144	-0.0107859108523751
7.9	-0.00653224982488704	0.0164636158546992	0.000121729869019784	0.00311087304014746	0.000129539975259981	0.00311261417228589	-0.00766045030933579	-0.00900221708858448
8	0.000570541319110345	0.0147488016458861	0.00056568510576059	0.0030793369105592	0.000565605459815956	0.00308422838001949	-0.00341189329871239	-0.0116666898430431
8.1	-0.000405513314470835	0.0110216941841543	0.000993159506619612	0.00297162374828362	0.00101224057612526	0.00297324880469607	-0.00773894922317435	-0.01670896655588
8.2	-0.000186895722434065	0.0120848590711988	0.0014002268060211	0.00280284767007616	0.00140966161879756	0.00279593467886116	-0.0113279151635652	-0.0154747070774404
8.3	0.00119968749454981	0.0127210198197663	0.00178270108289681	0.00258263461012124	0.00178064809499819	0.00259613178241373	-0.0135330593775905	-0.0138054350748315
8.4	0.00307953576252327	0.0146273214513214	0.00213601708232707	0.002326443079901	0.00213298044765707	0.00232612474280406	-0.0149947299613984	-0.0102141523376262
8.5	0.011070628942591	0.0136845877078524	0.00245075733266858	0.0019914679060452	0.00244977726814635	0.00199465029408824	-0.00963060263668215	-0.00862571928856154
8.6	0.0109259520134459	0.00630058887969164	0.0026947201358206	0.00163242131949767	0.00270441133244072	0.00162610635602114	-0.0117683616127611	-0.0139901794503534
8.7	0.00920470259224698	0.00456557324424356	0.00289532985414524	0.00124236326958812	0.00290089625967327	0.00124324399548799	-0.0159102306158963	-0.0133650018464632
8.8	0.00839818441336972	0.00342680312927801	0.00305378598604385	0.000834981726825167	0.00305984124736408	0.000826311267370901	-0.0190504002859764	-0.0113877207573101
8.9	0.00777361677836581	0.00385152687676185	0.00315175775883747	0.000390336639550699	0.00315093256962698	0.0003880456675278	-0.0213790417745261	-0.00664740087523259
9	0.0127940094344689	0.00309101634636033	0.00315607910291768	-5.81816008276179E-05	0.00315915409555937	-5.39854801438492E-05	-0.0160761413552313	-0.00229724454999311
9.1	0.0118153862037179	-0.00337789277404219	0.00313508275281253	-0.000487998818810177	0.00313761500613872	-0.000474906426512029	-0.0157493948349397	-0.0047464673892491
9.2	0.00986328090455502	-0.00594506935402604	0.00304858884643999	-0.00092022877673266	0.00305642570966278	-0.000922927577511355	-0.0157954750832964	-0.00337444844757302
9.3	0.00799924512601995	-0.00866977098271252	0.00289113486664541	-0.00134426171904696	0.0028905223609257	-0.00134934398326232	-0.0147406491394055	-0.00261593644463104
9.4	0.00546434496699489	-0.00952861643226138	0.00266977293619894	-0.00174647111006696	0.00267618221963352	-0.00173861292143441	-0.0136865261234986	-0.000788434231134981
9.5	0.00649440135616584	-0.0134817161944612	0.00241780100818211	-0.00208162643979418	0.0024253671722586	-0.00208276347964664	-0.00833170288778345	-0.00329827936953592
9.6	-0.00162373019291221	-0.0182211050768061	0.0021135416961331	-0.00242484999659827	0.00211385148110681	-0.00242383631627614	-0.0126350605953313	-0.00803231124571775
9.7	-0.0084205997600264	-0.0164607783791076	0.00173780903957334	-0.00270102908201484	0.00174365674218827	-0.00270837512613366	-0.0161230066007073	-0.00666008537940315
9.8	-0.0137286178573347	-0.0135079316419249	0.00134566264598892	-0.00292760159875211	0.00135130136585042	-0.00291876214201137	-0.0183341765428027	-0.00444625254659847
9.9	-0.0180643130022	-0.00799476185777793	0.000939982715572991	-0.00308375333680126	0.000932429508679845	-0.00308267880655876	-0.0198253720013588	-1.95806818554611E-05
10	-0.0157027393941187	-0.00386691756809225	0.000497029604910607	-0.00321512878599604	0.000489561985963471	-0.00322817726978451	-0.0141762434294851	0.00270618163090603
10.1	-0.0193461476467536	-0.00422574408427338	1.56840532593716E-05	-0.00325583666144132	5.02001607681126E-06	-0.003250413603651	-0.0149142253539981	-0.000785493279465634
10.2	-0.0227737292808085	0.000535474782206564	-0.000450710245675863	-0.00322105962268778	-0.000454268738483724	-0.00321823447954126	-0.0167185151574035	0.000439724424360217
10.3	-0.0244081073328065	0.0062530679716271	-0.000903122028242372	-0.00312157098301402	-0.000894632362162694	-0.00313085604577002	-0.0175747288420923	0.00252671319669187
10.4	-0.0241550831481548	0.0139985434760144	-0.00132921811004512	-0.00297636332852752	-0.00132739059528664	-0.00298278530245552	-0.017137702315975	0.00668044124740442
10.5	-0.0169938781854178	0.0191085759992379	-0.00176693365991325	-0.00275769232078114	-0.00176370759576471	-0.00274417151239759	-0.0099762670578155	0.00805795826093771
10.6	-0.0152843741829023	0.0194263026460625	-0.00212326296026747	-0.0024602812447283	-0.00212100549663082	-0.00246423492391133	-0.00927009142783483	0.00390810197241595
10.7	-0.0128857077575284	0.0227104558718526	-0.00244970032435317	-0.00214854344539088	-0.00244608236046577	-0.00214308483153405	-0.00929417922531211	0.0029708754087761
10.8	-0.0100846254820574	0.0254709807530297	-0.0027351697034977	-0.00177174264606412	-0.00272981492396477	-0.00178100100457568	-0.0101968071579982	0.00212723985845572
10.9	-0.00618618079258771	0.0299553156859902	-0.00295634739341134	-0.00136689521121932	-0.00296171060468942	-0.0013660921459095	-0.0108280890007356	0.00439609302923388
11	0.00398455677637875	0.0308206176165649	-0.00309298108774084	-0.000922365366088921	-0.00309802324535377	-0.000929234584555865	-0.00509859906957483	0.00416899650416727
11.1	0.00631152712298578	0.0269667065428103	-0.0032050880696172	-0.000499769983280321	-0.00319389806176795	-0.000496892140747354	-0.00766126816285217	-0.00109270379624324
11.2	0.00937361524107351	0.0272489482280334	-0.00323907497543141	-4.03324087016376E-05	-0.00324649089651033	-4.52550244341954E-05	-0.0104482712096594	-0.000649878386255191
11.3	0.0133288854815892	0.027126387348561	-0.00320331463966372	0.000432726387352307	-0.00321532536248478	0.000422532098332176	-0.0127781467483556	0.000969294695423812
11.4	0.0178128993601468	0.0274173531952698	-0.00310709670956403	0.000874925302374271	-0.00310194896239794	0.000882612884686145	-0.0133872017520739	0.00482964087995584
11.5	0.0278531668443362	0.0235391383171098	-0.00296300442722693	0.00128050066476562	-0.0029657732015713	0.00129106205253334	-0.00642661561505376	0.00489646847779655
11.6	0.0289215902923382	0.0145529766247747	-0.0027676111394656	0.00170127311199141	-0.0027675542959409	0.00170430440158676	-0.00898532908163465	0.000155763374996573
11.7	0.0292237790741595	0.0104293688891257	-0.00248085270885466	0.00207092839435802	-0.00248128646683833	0.00207979480736981	-0.0114359540324524	0.00128902024322827
11.8	0.029886526788775	0.00672203205331396	-0.00216203839482607	0.00240502208438695	-0.00216623143441355	0.00240684210912775	-0.0123720032620478	0.00374891621271657
11.9	0.032131403483193	0.00498174243491484	-0.00180170367715701	0.00267688691331036	-0.00181498893771396	0.00268152310976663	-0.0104853317426438	0.0089443036183888
12	0.0396390628988572	-0.00281648526665456	-0.00141546449891536	0.00292336675194336	-0.00141482090842588	0.002924812643365	-0.000730755382256617	0.0081105919316845
