# GHZ S RI R 50
0.2	0.0057748612551664	0.000704614069364667	0.00305114678844104	-0.000897191574566375	0.00306152031884529	-0.000890372455047822	-0.0141323181811185	0.00440694768196627
0.3	0.00615200466818356	-0.00105995023475433	0.00290771167477265	-0.00132094325613651	0.00290045094032455	-0.00130799625286888	-0.013289709839587	0.00479169724436709
0.4	0.00594164664357177	-0.0025116930852463	0.00267685797621565	-0.00169349448168433	0.00268213720763756	-0.00170206218972611	-0.0127708929544219	0.00552655643587872
0.5	0.00566203482963028	-0.00396688372271031	0.0024180730139447	-0.00205180544901361	0.00242963228454282	-0.00206405837504372	-0.011936466709598	0.00611112734911717
0.6	0.0043752456860728	-0.00549351965851938	0.00210488746818117	-0.00236675319299777	0.00210410248642559	-0.00237391263889397	-0.0117701331208673	0.00637436699167888
0.7	0.0027705473084126	-0.00609931792890749	0.00175773660920051	-0.00264523425782193	0.00175577782019666	-0.00264543418151719	-0.011672737795757	0.00717967536761062
0.8	0.00125533083725275	-0.00631192882684859	0.00137189672595983	-0.00286366336358012	0.00135927780097182	-0.00286822422884021	-0.0114091546297808	0.00811945777192203
0.9	-0.000374078237127338	-0.00600040856466434	0.000953739680644745	-0.00302815785385335	0.000954777984409982	-0.00303887564805156	-0.0110720599968524	0.0091667233941139
1	-0.00132235696566297	-0.00513063900870984	0.000527687133888435	-0.00313121889756838	0.000517810175480394	-0.00313196023741963	-0.0101044658839268	0.0103331964113358
1.1	-0.00226826214721357	-0.00516698444366594	7.21218572127009E-05	-0.00316048112087843	6.8613237337996E-05	-0.00317816193513967	-0.00937048615765739	0.0105718835547664
1.2	-0.0038223365685742	-0.00494135801675892	-0.00037119990619828	-0.00315063956168733	-0.000372013469991353	-0.00314855930070431	-0.00883650167204761	0.0111707813452035
1.3	-0.00548941448241708	-0.00466000991419244	-0.000799754487008164	-0.00306744367619222	-0.000803001075166055	-0.00306945263433753	-0.00771672534407984	0.0117606127316219
1.4	-0.00693469645797017	-0.00395294016771747	-0.0012221573838258	-0.00291853867944978	-0.00122094310932955	-0.00292408267993994	-0.00627769878617756	0.0119423279335434
1.5	-0.00714130935658293	-0.00287695965837517	-0.00162321059237328	-0.00272280850846352	-0.00162159504671398	-0.00273132567893698	-0.00461261674299628	0.0115990166767812
1.6	-0.00740091661674319	-0.00153857893214	-0.00198595858661588	-0.00247055602459085	-0.00198617105857726	-0.00247580302895987	-0.004177293969394	0.0115588616775969
1.7	-0.00685173631382844	0.000251479101361888	-0.00231593138828258	-0.00217223824174426	-0.00231689613402685	-0.00216596075888582	-0.003362120576786	0.0120379024832852
1.8	-0.00583743066247546	0.00187880032044118	-0.00258770605215198	-0.00181925290805646	-0.00259870262905869	-0.00182489566550126	-0.0024488146227285	0.0123060696510468
1.9	-0.00444147393033051	0.00322310504526763	-0.00281352258661896	-0.0014474837320508	-0.00282598872107277	-0.00144130629871743	-0.001555606927989	0.0125486483963054
2	-0.00240758855361248	0.00385084505635506	-0.00299096323043187	-0.00103849532073524	-0.00300060877845458	-0.00103376404310794	-0.000450930419167005	0.0125049131678049
2.1	-0.00114634610954698	0.00357574082981445	-0.00310443339735214	-0.000606576525345212	-0.00310034184412069	-0.000608580470819271	1.30850255188497E-05	0.0122217890040609
2.2	-3.19460376850519E-05	0.00359971846072359	-0.00316060473766484	-0.000166203925827018	-0.00317194286742124	-0.000169026316389213	0.000766920196583633	0.0123612006610291
2.3	0.00112979331764865	0.0033268976989913	-0.00315483242117396	0.000278892083710298	-0.00315454320412545	0.000271991297796227	0.00166577223253777	0.0122426780660466
2.4	0.00218540806305783	0.00300331291912848	-0.00308132798218429	0.000719098751285905	-0.0030838855461417	0.000714836263061214	0.00257233702354636	0.0121130807428167
2.5	0.00373633280865694	0.00239529928726949	-0.00294152972815823	0.00113407382963004	-0.00295242568705868	0.00114050247199292	0.003880049289703	0.0116689768096521
2.6	0.00477587449875233	0.000701261339932263	-0.00276404245271297	0.00153681815400771	-0.00276051762451338	0.00152446218693955	0.00459209157440311	0.010586691929259
2.7	0.00526406632695172	-0.000845240797876716	-0.00251601543111355	0.00190786343128221	-0.00252130427718279	0.00190789112490152	0.00491556361572842	0.00989789371765027
2.8	0.00559151359103667	-0.00242423828306702	-0.00223070918336304	0.00223517675422598	-0.00222285005567475	0.00224495537155978	0.00519446913319623	0.00951233308034226
2.9	0.00582849706814601	-0.00399347127037741	-0.0018931800067515	0.00253463912870844	-0.00188946777635685	0.00253419762772346	0.00580497422090806	0.00942982744097261
3	0.00612826388425047	-0.00599412189224744	-0.00150394188210923	0.00276670448285835	-0.00151870647836379	0.00277286384236207	0.00685507541857563	0.00906947281801936
3.1	0.00536885121929465	-0.00833996746207614	-0.00111366435615533	0.00294161742877113	-0.0011089765522516	0.00294994753231578	0.0073347758095811	0.00853501719416224
3.2	0.00406164309405765	-0.0101491593432781	-0.000691925026445491	0.00307706395473464	-0.000693672345204343	0.00307645933673012	0.00786663347175713	0.00836953903775016
3.3	0.00240751885049463	-0.0117546936866557	-0.000252480436032522	0.00314426642858013	-0.00025084544552948	0.00314051973725597	0.00862743676007471	0.00803881718887254
3.4	0.00038349859009282	-0.012805264691888	0.00019425652700548	0.0031348362545989	0.000188114989025736	0.00315141787684754	0.00948792545730284	0.00748362736201333
3.5	-0.00139682009656163	-0.013770539356325	0.000613936287930431	0.00309018105485268	0.000619529705789664	0.00309023887645112	0.0103573899924105	0.00633134164004857
3.6	-0.0041508719171073	-0.0146954813686404	0.00104281508475448	0.00297009764746187	0.00105100457893071	0.00296975240060062	0.0103948535521208	0.00518928516408802
3.7	-0.0070982177862821	-0.0145088269844436	0.00145291302630857	0.00278646663716564	0.00144338042890213	0.0028001713914102	0.0106204664985493	0.00448889844778554
3.8	-0.00985526918439075	-0.0135897842915178	0.00182944677581592	0.00255709056181589	0.00183188245572966	0.00256622514342714	0.0109187862672893	0.00368192051795237
3.9	-0.0121121128842319	-0.0119892289898015	0.00217315263809481	0.00228283861807833	0.00216588743695453	0.00228108568065078	0.011173483744369	0.00283534027182294
4	-0.0134722932389281	-0.0103962894121373	0.00245765295378879	0.00196105527239092	0.00246209075000343	0.00195860613921262	0.0115590441496374	0.00172790317408793
4.1	-0.0152819354483416	-0.0090391040077267	0.00270755373900764	0.00159795197670962	0.00270630548390616	0.00159869217012479	0.0112712512845237	0.000687450903843814
4.2	-0.0169402946312775	-0.0068370336816165	0.00290327491054684	0.00119581949138474	0.00290769889452842	0.00118709902730391	0.0111981022685704	0.000115356728161255
4.3	-0.0180962645277059	-0.00429097482956034	0.00304336275609063	0.000783866942624088	0.0030497435601345	0.000776053203330093	0.011266953266334	-0.000618506927555448
4.4	-0.0187599533367239	-0.00130264026915427	0.00311753866645894	0.000350082061838723	0.00311989990055024	0.000347820507728033	0.0112603172081247	-0.00132052348925178
4.5	-0.0182738960468939	0.00156986708742902	0.00313677917376793	-8.88911798257639E-05	0.00314211209391313	-9.22802000685282E-05	0.011501791255146	-0.00232931842146705
4.6	-0.0180714112808604	0.0037429674161965	0.00308828659037259	-0.000528700866014313	0.00308956289840486	-0.000515834045796236	0.0108720600450023	-0.00352233657327611
4.7	-0.0175195231666825	0.00644048164403274	0.00298130736342937	-0.000944370868835947	0.00299650560020137	-0.000954009831779402	0.0102513401155463	-0.00415807505249713
4.8	-0.0164008395712354	0.00913626842822411	0.00281885790019018	-0.00135573830457849	0.00282728410046346	-0.00136183459362076	0.00976488130025161	-0.00462673048990877
4.9	-0.0144572192589662	0.0117621908314648	0.00259640572491611	-0.00173715375214541	0.00260056539497393	-0.00173427548949525	0.00951181088177511	-0.00488796720251618
5	-0.0114506307419825	0.0134758917445247	0.00233514287198691	-0.00208686533577198	0.00233875479866134	-0.00208422585829917	0.00982233753404662	-0.00547706018932284
5.1	-0.00883127855696242	0.0142451261811661	0.00202693913550657	-0.00239333991066332	0.00202923142350408	-0.00239199435732492	0.00962976386131036	-0.00621812834408364
5.2	-0.00609476262296313	0.0149293637460385	0.00167099793370858	-0.00264066633799583	0.0016726914279377	-0.00264578662703065	0.00970263601746415	-0.00678494640159328
5.3	-0.0031542061863739	0.0151172801993195	0.00128603927409011	-0.00285306020162623	0.00128915888898631	-0.00285101467498012	0.00974469483823536	-0.00750628992358209
5.4	-0.000116544344919453	0.0149423822014776	0.000864121183444495	-0.00299709002413071	0.000881169026611893	-0.00300825821266491	0.009746448395675	-0.00835999031338413
5.5	0.00331152160431664	0.0136733141110117	0.000456012381232481	-0.00309349298120005	0.000466002796370957	-0.00310287141177197	0.00962502207246329	-0.00978388819254259
5.6	0.00521689256463762	0.0115361105847598	2.00474694374405E-05	-0.00313043788171899	1.15659097696087E-05	-0.00313363527201453	0.00827225524110008	-0.0107231624043429
5.7	0.00665560215305445	0.00982982389084927	-0.000408219526299647	-0.00309924647975609	-0.000424741449297206	-0.00310288046879356	0.00732814292525783	-0.0108895667537239
5.8	0.00784938873677319	0.00799446103554143	-0.000850224221663329	-0.00300436757055418	-0.000853739355875823	-0.00301827647339293	0.00667035140183174	-0.0112914339704639
5.9	0.00869798298524334	0.00633245592477268	-0.00125096197947888	-0.00286613465162007	-0.00125914586641031	-0.00286605876814073	0.00593649866988157	-0.0117656466057884
6	0.0100608938079021	0.00425051710664476	-0.00164791013031323	-0.00266311375639954	-0.00164436668819919	-0.00266327706839933	0.00526217240593319	-0.0126687289508114
6.1	0.00998316923742162	0.000945229369426693	-0.00200093558297419	-0.00240876059179615	-0.0020025680765074	-0.00240477880214371	0.00334303345360915	-0.0135235283044651
6.2	0.00882462072492376	-0.00157589363888975	-0.00231060899846863	-0.00209811965407589	-0.0023142859649114	-0.00210992736267418	0.00158492925562183	-0.0132778192037744
6.3	0.00744685066385537	-0.0035402535947404	-0.00258655305348339	-0.0017671961291827	-0.00259563912242487	-0.00176150152832683	0.000463256823779799	-0.0127460814672064
6.4	0.00611495979992582	-0.00503220885051845	-0.00281284845265232	-0.00138006926371049	-0.00280316597208947	-0.0013849315531705	9.7597892228918E-05	-0.0122158874575429
6.5	0.00517031540740868	-0.00711843565131092	-0.00296888101766596	-0.000976030202109439	-0.00297670541347666	-0.000971582104623133	0.000122930474609592	-0.0126641727210042
6.6	0.00262107106566229	-0.00889512116268227	-0.00307516891000524	-0.000555448117012643	-0.00307678500324166	-0.000559405038112007	-0.000661293382587288	-0.0128436890809535
6.7	6.14883675845568E-05	-0.00941806946212762	-0.00312701125312961	-0.000121997308442221	-0.00313583182053845	-0.000115775457259647	-0.00127081342262364	-0.012832336330632
6.8	-0.00244111029288573	-0.0091922753311973	-0.00310753308494015	0.000316386614108077	-0.0031185812277713	0.000321377258286225	-0.0020710137187751	-0.0126743359904044
6.9	-0.00455215120965763	-0.00804201302541159	-0.00303374191465088	0.000747588856018226	-0.00303671961121624	0.000749958443883578	-0.00263707971593485	-0.0122041784337928
7	-0.00542025184853423	-0.0072034651386961	-0.0028981145982555	0.00116373487339535	-0.00291086047947558	0.0011615073616166	-0.00287445433043298	-0.0124656006750267
7.1	-0.00761000589308406	-0.00665574145109515	-0.00272598076418285	0.0015492461468632	-0.00272237410874775	0.00155788202840771	-0.00433755020948388	-0.0122090236282633
7.2	-0.00962405609702743	-0.00482348868824371	-0.00247421510100848	0.00191660948285165	-0.00248072272110589	0.00191864822128942	-0.00496233802592424	-0.0111966323959661
7.3	-0.011226892327637	-0.00245279566289318	-0.00218292530970427	0.00223537130402867	-0.00219411136530258	0.00224034601510759	-0.00500995948443013	-0.0104693985611253
7.4	-0.0122881906834689	0.000679284340316382	-0.00184596394769021	0.0025180389851398	-0.00185289040080797	0.00253154676265185	-0.00481599002367912	-0.0100812882132468
7.5	-0.0115070499167266	0.00372628509780643	-0.00148768206934281	0.00275902781797	-0.00148076478659774	0.00276644147059637	-0.00407969054426902	-0.0107947170510153
7.6	-0.0110589569763901	0.00540594394082343	-0.00108482643376602	0.00294272550708559	-0.00108616723463095	0.0029380330253112	-0.00485960470481145	-0.0121653158481167
7.7	-0.0104977851939094	0.00760688680876272	-0.000658800855187324	0.00306748573714313	-0.000660130778931121	0.00306641817363693	-0.00610677539121046	-0.0130147313509561
7.8	-0.00904981989838358	0.00970997796101391	-0.000235577108157598	0.00312035824430585	-0.000243410211472662	0.00312674881177126	-0.00754140684714039	-0.0133269743041346
7.9	-0.00657584284644672	0.0114888667657657	0.000203034382840467	0.00313280144977316	0.00021095238962456	0.00313435495551159	-0.0088011105357526	-0.0131248672362301
8	-0.00322597412875873	0.011553005306718	0.000646412884204414	0.00306778420458001	0.000646460465743637	0.00307268278290281	-0.010038551585476	-0.0132441049798311
8.1	-0.00126701582951533	0.0111645633363678	0.00105895655634305	0.00295265935767497	0.00107809058757915	0.00295386925492168	-0.0119400176498348	-0.0121941870148927
8.2	0.000808573040451368	0.0110303673337808	0.0014647168306955	0.00277572150214311	0.00147401131967332	0.00276858823014614	-0.0127412087885586	-0.0108061874079966
8.3	0.00291625151236611	0.0106166791735463	0.00184383162171656	0.00254098879492148	0.00184209646849021	0.00255453630485183	-0.0132516455890097	-0.00965033321095383
8.4	0.00516847098885294	0.0102542307332766	0.00218431250303674	0.00226659360325178	0.00218127918552785	0.00226634953978405	-0.0135365521532023	-0.00855410468526442
8.5	0.00829558988298233	0.0086688441497006	0.00247440531532376	0.00193499071295941	0.00247348980631121	0.00193817393703336	-0.013664197815349	-0.00816134252342848
8.6	0.00966009717663844	0.00595185221125454	0.00272195580959946	0.00157623424373288	0.00273150450378712	0.00156973970951136	-0.0148188364214013	-0.00730745103141325
8.7	0.0104615357167841	0.0036713440889703	0.00291177596166099	0.00117488576179771	0.00291734120589499	0.00117564226001975	-0.0151567980756068	-0.00591800454419571
8.8	0.0108757275761447	0.00138902582098188	0.00305262014090027	0.000763667501294867	0.00305844972465521	0.00075492065109919	-0.0151615302822144	-0.00487763676014102
8.9	0.0111169600084239	-0.000685495193608291	0.00313312221318713	0.000327618108287108	0.00313226058385993	0.000325361616824069	-0.0147352202552834	-0.00392094619337168
9	0.0118816200549838	-0.00348006079687911	0.00314370702907647	-0.000115337498839476	0.00314684726341018	-0.000111212309256447	-0.0139748903744859	-0.00387245235788055
9.1	0.0110144042560721	-0.00717972084943106	0.00310271900472389	-0.000557027585250763	0.00310553620040497	-0.000544081750162229	-0.014320031592252	-0.00381654076056329
9.2	0.00920831994674715	-0.0101879043534574	0.00299669073776615	-0.000977649980609104	0.00300438686668985	-0.000980492929030688	-0.014493249010026	-0.00338373260309909
9.3	0.00677937461919841	-0.0126373507295116	0.00283026871960331	-0.00138603509233021	0.00282956214770787	-0.00139104524621766	-0.0146542201824057	-0.00279442656712784
9.4	0.00409544185067278	-0.0141814839612627	0.0026095765154654	-0.0017784879806977	0.00261606697419422	-0.00177083073187924	-0.0145911333981155	-0.00201354970325184
9.5	0.00156766592442867	-0.0158653997746338	0.00233911986454062	-0.00211616401449216	0.0023465704519578	-0.00211747164667033	-0.0145154231115022	-0.00180509540184489
9.6	-0.00263443810419207	-0.0169630185329635	0.00202268601754832	-0.00242711322138217	0.00202301226785105	-0.00242612456521907	-0.0152396508138375	-0.000825824326183353
9.7	-0.00684567122633601	-0.0164351299172599	0.00165423472010724	-0.00268256955655101	0.00165983391159183	-0.00268988644932801	-0.0150792453365841	0.000438474940395869
9.8	-0.0108438789895565	-0.0148729721494089	0.00126817998451288	-0.00289586102563973	0.00127386837466685	-0.00288728947083937	-0.0146706365174453	0.00140821045024099
9.9	-0.0142459047621831	-0.0120327496267361	0.000861880291445429	-0.00304022318560489	0.000854498666216893	-0.00303902482391999	-0.0141244119673674	0.00220369533433824
10	-0.0161792818113066	-0.00921635458471309	0.000426731958779157	-0.00313651410475036	0.000419236854502957	-0.00314907600840509	-0.0135838155759092	0.00213594271517532
10.1	-0.0187551389695625	-0.00644945414361728	-2.18597136106887E-05	-0.00316951769878163	-3.2178596773141E-05	-0.00316411711111845	-0.0141398255689794	0.00249179440346421
10.2	-0.0207885567481694	-0.00245238056452834	-0.000472795575627011	-0.00313402996259339	-0.000476233643031932	-0.00313123990280384	-0.0140744069395869	0.00340905044734318
10.3	-0.0218140306471731	0.00229054068586832	-0.000910774148547507	-0.00302915829571491	-0.000902605234773194	-0.00303828208757034	-0.0136268659670813	0.00421960917210532
10.4	-0.0213087795951554	0.00757967317649779	-0.00131465670078864	-0.00287407321189401	-0.00131294085952688	-0.00288031541160839	-0.0126469576056578	0.0046453126924361
10.5	-0.0188196174148623	0.0118356396172347	-0.00171190764408047	-0.00266995437856902	-0.00170877944927544	-0.00265686207977055	-0.0118816783313323	0.00395784032120941
10.6	-0.0167416742837446	0.0151365418454101	-0.00206535045559986	-0.00239685772177037	-0.00206314970280884	-0.00240070528303798	-0.0124735076841013	0.00380468657293839
10.7	-0.0140818996618685	0.018695017948408	-0.00238330968329774	-0.0020927168850567	-0.00237979103815515	-0.0020874015488436	-0.012807098942924	0.00442411696282778
10.8	-0.0105876860812043	0.0220280865987256	-0.00265522762671361	-0.00172892891103495	-0.00264999995262648	-0.0017379181552015	-0.0128766318280391	0.00541407002859786
10.9	-0.00600681732903481	0.025056563995677	-0.00286442880883682	-0.00134940796195784	-0.00286964814960413	-0.0013486646611087	-0.0123018674383683	0.00647791188074464
11	9.54368008691E-05	0.0262810502034205	-0.00302109423663488	-0.000930235923154444	-0.00302597251899055	-0.000937007192548349	-0.0115090271948113	0.00666539066603669
11.1	0.0050822369497037	0.026005563301899	-0.00313131089033582	-0.000503380361653765	-0.00312038367238906	-0.00050051517712481	-0.0114665585229208	0.00745011728978672
11.2	0.0100841059333732	0.0252976096057011	-0.00316061890791412	-6.12742218190615E-05	-0.0031678225194448	-6.61281964452789E-05	-0.0104160196872649	0.00839594807468349
11.3	0.01500701261229	0.0238157868091898	-0.0031319571982633	0.00039138745407594	-0.00314358552955085	0.000381316911839754	-0.00888845991861119	0.00891862762903409
11.4	0.0198249061981102	0.0217328986417128	-0.00305551800446194	0.000821022816507861	-0.00305056300183892	0.000828617810836156	-0.00717273344975373	0.00887974195927042
11.5	0.0250390688240723	0.0178498087941621	-0.00291311116968922	0.00123796093005917	-0.00291588918864332	0.00124830073070554	-0.0058332675496131	0.00754549645882481
11.6	0.0282353330494938	0.0126885085791918	-0.00271636069048192	0.00163360597045519	-0.00271633397716002	0.00163656399534607	-0.00555451385623307	0.00675725865324126
11.7	0.0305286009581527	0.00766472315589185	-0.00245081677473299	0.00199054504940735	-0.0024513570208038	0.0019992011692055	-0.00466620452579919	0.00597987842296703
11.8	0.0321641537337547	0.00247159597421023	-0.00215187846950153	0.00232370400860647	-0.00215601063627801	0.00232542548653478	-0.00386340215626416	0.00478702510592159
11.9	0.0337134552853531	-0.00283722583131624	-0.00180022829428418	0.00260107498367049	-0.00181331027966672	0.00260545038363324	-0.00313566040096416	0.00334462539200315
12	0.0343796582273121	-0.00971349554913024	-0.00142140263714283	0.00282776518955621	-0.00142079650951922	0.00282918324308923	-0.00371567289358202	0.00135588432810602
