# GHZ S RI R 50
0.2	0.00581744921929616	0.000624473518541898	0.00305157326230755	-0.000897078258029228	0.00306194753193955	-0.000890257582735708	-0.0140957566681717	0.00432261642484031
0.3	0.00620118521911633	-0.00113919141605309	0.00290826161567733	-0.00132088863992734	0.00290099867057963	-0.001307940328624	-0.0132467881465721	0.00470846126286343
0.4	0.00598615866412433	-0.00259487213494674	0.00267750267273497	-0.0016935763210086	0.0026827836303316	-0.00170214516185324	-0.0127316179872506	0.00544045279193841
0.5	0.00569668682669437	-0.00409465692664231	0.00241869149574453	-0.00205205943610723	0.00243025388208636	-0.00206431406647787	-0.0119009084602468	0.0059797497151045
0.6	0.00432231497050652	-0.00561780188689097	0.00210551391782192	-0.00236707273608697	0.00210472935181288	-0.00237423372612162	-0.0118198383091404	0.00623742562016459
0.7	0.00268562149611756	-0.00617383136001954	0.00175837476582183	-0.00264572681744953	0.00175641552227652	-0.00264592694888307	-0.0117585891864135	0.007086366007505
0.8	0.0011624996509379	-0.00634626226022169	0.00137245162497317	-0.00286433557227679	0.00135982963968085	-0.00286889848723869	-0.0115088314958694	0.00806358405601591
0.9	-0.000446857823985258	-0.00599569241163742	0.000954143894525631	-0.00302894235788351	0.000955182988681236	-0.00303966303907875	-0.0111593569112869	0.00915212773645646
1	-0.00132251481203908	-0.00518026132962128	0.000528061648729489	-0.00313205196257754	0.000518181995441644	-0.00313279422685939	-0.0101208031688432	0.0102761233473254
1.1	-0.00236147424799465	-0.00532888185356721	7.23423757952504E-05	-0.00316157738807105	6.88336270998158E-05	-0.00317926457710988	-0.00946828838973188	0.0104076405657251
1.2	-0.00403098997019325	-0.00514799974558143	-0.000371286810251105	-0.00315182537454641	-0.000372100713042443	-0.0031497443481298	-0.00904528453046577	0.0109546259791453
1.3	-0.00583894487362656	-0.00487596217810681	-0.0008001003904096	-0.00306860721779256	-0.00080334824714527	-0.00307061690263215	-0.00806138846356531	0.0115303449721027
1.4	-0.00732964745176176	-0.00408349412440023	-0.00122268108559609	-0.00291966294158188	-0.00122146642102446	-0.00292520913224613	-0.00666530031410024	0.0117918347592588
1.5	-0.00750444618881193	-0.00295244993437481	-0.0016240511413846	-0.0027240327363465	-0.00162243509599971	-0.00273255393711966	-0.00495608276361322	0.0114915720302654
1.6	-0.00772240504548694	-0.00147519292845827	-0.00198719983117995	-0.00247148868520078	-0.0019874130381607	-0.00247673815445305	-0.00449270139573498	0.011582388606604
1.7	-0.00704105594493951	0.000390523957818729	-0.00231732326619645	-0.00217289548354091	-0.00231828752223898	-0.00216661496104953	-0.00355729033549775	0.0121323146909723
1.8	-0.00591671496846597	0.00203112967961293	-0.00258924711214056	-0.00181967236613591	-0.00260024987931038	-0.00182531591457065	-0.00254248548725682	0.0124171356344076
1.9	-0.00441832651657041	0.00334522871651117	-0.00281528575766344	-0.00144763105498544	-0.00282775701586317	-0.001441447767134	-0.00154844441527757	0.0126407528304711
2	-0.00237957829670507	0.00384222445991521	-0.00299287293975576	-0.00103799361658299	-0.00300252183823448	-0.00103325653681709	-0.000424933643527695	0.0124737528833129
2.1	-0.00120169233669072	0.00360805052290455	-0.0031059686035209	-0.000605687162618055	-0.00310187606145528	-0.000607693464441648	-3.57632487813521E-05	0.0122183509989814
2.2	-5.48842979725533E-05	0.00367001916503688	-0.00316198989124574	-0.000165094157527645	-0.00317333382068526	-0.000167913498925809	0.000744622262181273	0.0123862460306919
2.3	0.00114921496315103	0.00339870651253113	-0.003156049219084	0.000280326658980437	-0.00315576275997394	0.000273422836163827	0.00167576033810432	0.0122673987333732
2.4	0.00227572738059607	0.00304315458943463	-0.00308218929688027	0.000720932229205165	-0.0030847500172438	0.000716669334711145	0.00264273668195167	0.0121170198809952
2.5	0.00384759622428323	0.00224268594547912	-0.00294168655865987	0.00113590944699981	-0.00295258192801804	0.00114234545886945	0.00397871876480593	0.011501201398475
2.6	0.00467798491271213	0.000487241263213912	-0.00276409408399854	0.00153847353384493	-0.00276057386344264	0.00152611266308638	0.0045024385758633	0.0103589101883909
2.7	0.00503474299251479	-0.000970244107551323	-0.00251577951885792	0.00190962580765954	-0.00252106982010565	0.00190965609985751	0.00470609883569089	0.00974969752848598
2.8	0.00534079206914679	-0.00240375604523574	-0.00223006204094401	0.00223686923367494	-0.00222219594895466	0.00224664602954721	0.00496856644484122	0.00949915714332374
2.9	0.00568283795774314	-0.00389094889440317	-0.00189217478643715	0.00253600707849248	-0.00188846220253033	0.00253556360290641	0.0056827228364741	0.00949335157034519
3	0.00601363601830512	-0.00596216128596242	-0.00150317864052781	0.00276776758590958	-0.00151794360232536	0.00277393358389508	0.00677371568991467	0.00905872889244553
3.1	0.00523076527550546	-0.00822684557925129	-0.00111264254414769	0.00294305740572762	-0.0011079493912688	0.00295138793357205	0.0072366535458932	0.00858205351299595
3.2	0.003990550439032	-0.0100107667372012	-0.0006903857834067	0.00307830101455705	-0.000692133923657824	0.00307769721226843	0.0078283488122548	0.00842577962213656
3.3	0.00238662115852416	-0.0116209761440998	-0.00025067965688035	0.00314511675713905	-0.000249046514648941	0.00314136826459273	0.00862576840807649	0.00808140849066313
3.4	0.000433882923491984	-0.0127026789839931	0.000196042780943833	0.00313538674493662	0.000189909185035036	0.00315197527062985	0.00954440816693441	0.00749686723054171
3.5	-0.00138723017284457	-0.0138144594138731	0.000616118769247572	0.00309085903915212	0.000621714159605278	0.00309091331489065	0.0103805442682906	0.00620572196861885
3.6	-0.00424429112076748	-0.0146524423185294	0.00104546379686035	0.00296989789162667	0.00105365480215545	0.00296954589521141	0.0103170840983511	0.00513047424069449
3.7	-0.00712687877092706	-0.0144186989776056	0.00145533585019358	0.00278559635698754	0.00144581331943273	0.00279931036839939	0.0105879558530783	0.00446721863586834
3.8	-0.00981249438325918	-0.0135401468793066	0.0018316312775477	0.00255581095491504	0.00183407446066647	0.00256494425276036	0.0109373642755952	0.00362617219779886
3.9	-0.0120307275084587	-0.0120708123888156	0.00217528353156404	0.0022812197246153	0.00216801616736231	0.00227947275279849	0.0112216877737687	0.002670084045747
4	-0.0135928857041951	-0.0106899849836935	0.00245961051738652	0.00195843855496871	0.00246404562543284	0.0019559848909833	0.0114245316340668	0.00136711540442072
4.1	-0.0156862029437638	-0.00914102416442663	0.00270835383626968	0.00159505581991873	0.00270710657499609	0.00159579698073431	0.0108683413817474	0.000507397397444579
4.2	-0.0173581209198919	-0.00670290374579331	0.00290354443237411	0.00119306895213898	0.00290795994308676	0.00118434697728381	0.0107811689898081	0.000158988867931788
4.3	-0.0184250989808458	-0.00398490949467099	0.00304325788714478	0.000781073870646732	0.00304963041056205	0.000773256677372157	0.0109292949859992	-0.000411855077260765
4.4	-0.0189140180457273	-0.00090331697191418	0.0031168668943484	0.000347035873141389	0.00311922524187826	0.000344772823308425	0.0110878656238878	-0.00101547810887148
4.5	-0.0183404013313226	0.00185997785919935	0.00313486907721752	-9.15604887399158E-05	0.0031401959409847	-9.49521550723124E-05	0.0114239932307635	-0.00211599284120747
4.6	-0.0181412057624683	0.00415353231860844	0.00308634803825636	-0.000530559137884726	0.0030876325607205	-0.00051769975601552	0.0108201285838691	-0.00319728486659166
4.7	-0.0174050728937246	0.00687380043809626	0.00297912043098619	-0.000946057079779155	0.0029943040202801	-0.000955702207911923	0.0103819399197637	-0.00383272281549784
4.8	-0.016140104554126	0.0094855361799114	0.00281619162818211	-0.00135700123694697	0.00282460835968837	-0.00136310008891165	0.0100261204706298	-0.00439950848212625
4.9	-0.0140758931121894	0.0119637265000574	0.00259333489737555	-0.00173753149225459	0.00259749331126187	-0.00173465807941424	0.00987848586701903	-0.00480315326171436
5	-0.0111592796321402	0.0134114287869329	0.00233280371398085	-0.00208625379639613	0.00233641408848791	-0.00208361740416449	0.0101106620553657	-0.00564810293580878
5.1	-0.00865160575501677	0.0142526581600542	0.00202478597434142	-0.00239302241061347	0.00202707768508986	-0.00239167860914917	0.00980354707992183	-0.00634273394004219
5.2	-0.00584664444680928	0.014875935053754	0.00166869877720195	-0.00263990172653354	0.00167038874156815	-0.00264501977377932	0.00991749987428713	-0.00697049612624023
5.3	-0.0029399229305299	0.0149123646899532	0.00128400790901722	-0.00285172428503484	0.00128712632936563	-0.00284968139888325	0.00991111879224632	-0.00782270752377552
5.4	-1.34922748232424E-05	0.0145982310230937	0.000862793493753933	-0.00299550965928779	0.000879828027095368	-0.0030066756734236	0.00980823414294463	-0.00878944807715493
5.5	0.00304399145782068	0.0131838241866385	0.000454690158554188	-0.00309261309658136	0.000464673638052365	-0.00310199210736829	0.00935017187064968	-0.0103530287226402
5.6	0.00468609384002953	0.0114321714572928	1.82419764091745E-05	-0.00312879036486828	9.76307840027795E-06	-0.00313198119770319	0.00774479683018647	-0.0109378518742125
5.7	0.00618637251596492	0.00997571909968304	-0.000409506229922951	-0.00309706196378439	-0.000426019408648188	-0.00310068538033786	0.00684132086095021	-0.0108699504414118
5.8	0.00745498910988467	0.00830944857210675	-0.000851011405176414	-0.00300209535277478	-0.00085453044962043	-0.00301599392189571	0.00623263897525516	-0.011100053369142
5.9	0.00848095184694325	0.0067827252642916	-0.00125170650891654	-0.0028639424221684	-0.00125988587944875	-0.00286386249967414	0.00565106272405319	-0.0114093070112168
6	0.0099149605629881	0.00454748515879512	-0.00164869674270457	-0.00265979662769395	-0.00164515614976565	-0.00265996254608185	0.00506665212992629	-0.0124057388157076
6.1	0.00976627883942864	0.00151054787453986	-0.00200003520029908	-0.00240517449972765	-0.00200166392283467	-0.00240119611589198	0.00313741887217125	-0.0129860047855799
6.2	0.00895064689404164	-0.000893533092582295	-0.00230889048507677	-0.00209515879970332	-0.00231256753008304	-0.00210695294358018	0.00175548568478128	-0.0126471419928856
6.3	0.00786359254132913	-0.00301581930727079	-0.00258439359087102	-0.00176468192614987	-0.00259346881525484	-0.00175899065716227	0.000928684164150706	-0.0123045879457396
6.4	0.00670262909030394	-0.00486128407072781	-0.00281018948390067	-0.00137766895139853	-0.00280051917442319	-0.00138252893555998	0.000733329078808585	-0.0121417972646204
6.5	0.0054398066340874	-0.00735316848495843	-0.00296477237408331	-0.000974517832916051	-0.00297258559687297	-0.000970075578543624	0.000460455952101802	-0.0130129345821653
6.6	0.0026870444086095	-0.00895901325743432	-0.00307151320190759	-0.000555617496213378	-0.00307312641652243	-0.000559570322295079	-0.000543283383945785	-0.0130703824035577
6.7	9.28060451351514E-05	-0.00948091085651266	-0.00312381066221962	-0.000122600727057869	-0.00313262372853687	-0.000116387238716542	-0.00122461572306055	-0.0130715097153549
6.8	-0.00246300564707102	-0.0092060563754058	-0.00310436740616216	0.000315355724813158	-0.00311540516659956	0.000320338677143603	-0.00210544897877243	-0.0128573683109539
6.9	-0.00447945059020428	-0.00808097770419435	-0.0030304440094296	0.000745592171962907	-0.00303341907083808	0.000747957873644562	-0.00258853175958405	-0.0123854542865565
7	-0.00563133845229979	-0.00753536106644729	-0.0028962684591798	0.00116036926182605	-0.00290900049298453	0.00115813392758679	-0.00307646303375334	-0.0129181305690896
7.1	-0.00809676281848715	-0.00657086944477174	-0.00272508116281721	0.00154664949739988	-0.00272148187630219	0.00155528177653316	-0.00479595421712687	-0.0122910311878983
7.2	-0.00998927173416355	-0.00450681307781936	-0.00247343854911475	0.00191396216680641	-0.00247994257524486	0.00191599608638367	-0.00533272041193096	-0.011080283250072
7.3	-0.011476883307548	-0.00199643030551625	-0.00218265069073766	0.0022323778580169	-0.00219383140897274	0.00223734206938027	-0.00531367680507508	-0.0102201385482091
7.4	-0.0122969368103718	0.00123336891454916	-0.00184686771524262	0.00251495673138401	-0.00185380087667416	0.00252845040625087	-0.00493658974196853	-0.00967348698102021
7.5	-0.0114593468671828	0.0040233781632752	-0.0014890909291798	0.00275738791571923	-0.00148218012997061	0.00276480419001408	-0.00413265999553	-0.0105645798972032
7.6	-0.0110525767824992	0.00598654373805053	-0.00108566838917077	0.00294087024152573	-0.00108700642826819	0.00293617931642714	-0.00493217002952061	-0.0116412684659306
7.7	-0.0100196394026005	0.00819670158447696	-0.000660360050824791	0.00306557565185779	-0.000661688666549886	0.00306450779619101	-0.00565690174153886	-0.0124631691536807
7.8	-0.00829066819763849	0.00990071703019483	-0.000237648747941502	0.00311909048628302	-0.000245483490839945	0.00312547338065327	-0.00678419400257923	-0.0131780153897436
7.9	-0.00587217751876055	0.0111409341443495	0.000201206458811525	0.00313249283200315	0.000209122497905802	0.00313405067717314	-0.00809620190130495	-0.013528391855709
8	-0.00323699218778443	0.0108024886317891	0.000645557343607991	0.00306676553134226	0.00064560392747631	0.00307166228611894	-0.00995388026394007	-0.0140586723286927
8.1	-0.00161226632876435	0.0109152780007688	0.00105674363655653	0.00295141045149372	0.001075865299152	0.00295262974135004	-0.0121856949573291	-0.0125640288075687
8.2	0.000503819992301176	0.0110199797127959	0.00146212687086768	0.00277541001504716	0.00147142184019282	0.00276828646947596	-0.0129644136129219	-0.0109914287801715
8.3	0.00269751657214973	0.0107422289575274	0.001841478536137	0.0025412991059397	0.00183973500312099	0.00255484058280933	-0.0134205141508291	-0.00972218357181186
8.4	0.00514849251630048	0.0103462466714001	0.00218220383929825	0.00226675450229381	0.00217917194653257	0.00226650897256576	-0.0135321224094772	-0.00864746035356218
8.5	0.00800309574457479	0.00840277725058147	0.0024708239648228	0.00193555313882268	0.0024699064923798	0.00193873308298103	-0.0138956682180357	-0.00860016919444724
8.6	0.00905984093289304	0.0061376305264402	0.00271905667741066	0.00157879642189765	0.00272860923103697	0.00157231555822066	-0.0153494809892824	-0.00735881477351845
8.7	0.0100155593032443	0.00414048547991563	0.00290990039582106	0.00117781486505002	0.00291546367631295	0.00117857726671066	-0.0155782154796687	-0.00572799050019466
8.8	0.0106209776394446	0.00201713823187884	0.00305120831834388	0.000766763520254122	0.00305704605785875	0.000758024587589107	-0.0154487834756902	-0.00453547924573612
8.9	0.0111868366954213	-2.4060572322884E-05	0.00313178387775668	0.000331436454407647	0.00313092532383523	0.000329179555167797	-0.0147504970179104	-0.003516374460312
9	0.0119880333995269	-0.00313486216229441	0.00314444813864345	-0.000109945996861745	0.00314758181406712	-0.000105814689892918	-0.0139662022242893	-0.00373380873787972
9.1	0.0111539859412972	-0.00664455538553591	0.00310535947150911	-0.000553242177789591	0.00310816117479429	-0.00054028466984907	-0.0142672752155427	-0.00346396155095578
9.2	0.00963172603431179	-0.00983406856272217	0.00299962931494294	-0.000974816317927096	0.00300733337063446	-0.000977652190727752	-0.0141495426351368	-0.00318790009706499
9.3	0.00720178123501049	-0.012586631151199	0.0028336225933869	-0.00138363379031215	0.00283292135651526	-0.00138864786806969	-0.0142880580071019	-0.00288432819990901
9.4	0.00442945198581765	-0.0143829341062474	0.0026140881677419	-0.00177656036092648	0.00262057403449429	-0.00176888820880643	-0.0143056097994914	-0.0023351587786196
9.5	0.00137978408492048	-0.0162986619447385	0.00234418244501795	-0.0021170075225136	0.00235164438539165	-0.00211831040072636	-0.0146955981970573	-0.00235416108576354
9.6	-0.00301413292548921	-0.0168965019650104	0.00202606418887105	-0.0024285775752425	0.00202639025983915	-0.0024275877191824	-0.0155777719581341	-0.000938397836985145
9.7	-0.0070716136047744	-0.0162010107856306	0.00165743635634881	-0.00268419983684639	0.00166304533877471	-0.00269152053148523	-0.015292182390745	0.000452368282368115
9.8	-0.0109392477040304	-0.0145809721588471	0.00127131370270385	-0.00289828303054981	0.00127700319801644	-0.00288969863521458	-0.0147956649695191	0.00147370337620412
9.9	-0.0141241846152012	-0.0118405158422642	0.000864170346893077	-0.00304399647452458	0.000856778337340537	-0.00304279924195469	-0.0140643700444599	0.00220070878784902
10	-0.0163450078789538	-0.00941287762847596	0.000426719617032146	-0.00313967814296137	0.000419215351801383	-0.0031522514428878	-0.0137793284981073	0.00178267754500614
10.1	-0.0191958382684325	-0.00623149246062114	-2.11620294604991E-05	-0.00317183804459325	-3.14896668506969E-05	-0.00316643583504674	-0.014590620015483	0.0025295852953562
10.2	-0.021064101089865	-0.00199491584111406	-0.000472250382199552	-0.00313703235213417	-0.000475692450561989	-0.00313424082115887	-0.0143722578439179	0.00367410555551104
10.3	-0.0218561209846698	0.00285195347488874	-0.000911146276275185	-0.00303247884657526	-0.000902967143575047	-0.00304161057093722	-0.0137112435518186	0.00459302366873851
10.4	-0.0209905102954176	0.00800290652474968	-0.00131612548774161	-0.00287663349003123	-0.00131440858542461	-0.00288288164194596	-0.0123867369774096	0.00491335290306742
10.5	-0.0186808585687849	0.0117688623913859	-0.00171207128501443	-0.00267176865720957	-0.00170894497047943	-0.00265866885920966	-0.0117600240431938	0.00379013947666303
10.6	-0.0167937854394752	0.0152532397124257	-0.00206631593068887	-0.00240031657050441	-0.00206411106067465	-0.00240416702270899	-0.0124758720291479	0.00380128378136691
10.7	-0.014140812527023	0.0188306462705808	-0.00238572141040381	-0.00209573097271683	-0.00238219967723239	-0.002090408519294	-0.0127851988899447	0.00439415608051861
10.8	-0.0106286534113108	0.0222486803488827	-0.00265813507514432	-0.00173092266582285	-0.0026529013470902	-0.00173992176988464	-0.012834016229299	0.00542052446567996
10.9	-0.00585702335327249	0.0252001257528609	-0.00286675872836246	-0.00135101802977356	-0.00287198278340663	-0.00135027483725402	-0.0120900332576806	0.00637408009775117
11	-0.000117293790760919	0.0260452691410692	-0.00302471598026339	-0.000933238746698775	-0.00302959710358205	-0.000940022107630572	-0.0116367536785519	0.00615943812252725
11.1	0.00465480673334003	0.0262205997448921	-0.00313658470050289	-0.000504224254461344	-0.00312563907742694	-0.000501354258273339	-0.011828926338427	0.00732550903248323
11.2	0.0098138587030169	0.0256802816711966	-0.00316547018917091	-6.06835363900463E-05	-0.00317268587863625	-6.55433810402629E-05	-0.0106842022301711	0.00839927543590428
11.3	0.0148950611798051	0.0242381497147644	-0.00313645845064457	0.000392601545818118	-0.00314810585478292	0.000382518654429451	-0.00907235025874037	0.00897095064391647
11.4	0.0199457836014985	0.0220551384155525	-0.00306064370178176	0.000822564169940859	-0.00305567993998931	0.000830171759091828	-0.00719457591281061	0.00885913864740849
11.5	0.0248230187866055	0.0178383708778096	-0.00291870361351038	0.00124264234482162	-0.00292148082732984	0.00125300680176632	-0.00622722138984616	0.00725996988108375
11.6	0.0278696205191873	0.0131789982883159	-0.00271919395622175	0.00163931364437143	-0.00271916399574008	0.00164227665128882	-0.00608446794877428	0.00698733860163239
11.7	0.0304948328495826	0.0083451033325262	-0.00245257376710844	0.0019961426420103	-0.00245310597498903	0.00200481272989028	-0.0049057490286677	0.00642789295375935
11.8	0.0325081350049543	0.00307970471001552	-0.00215293873183892	0.00232982049531757	-0.00215707585776448	0.00233154921156959	-0.00375762620481248	0.0052283758062863
11.9	0.0341515422330589	-0.00270097883129689	-0.001799869715203	0.00260848785783958	-0.001812969821445	0.00261289007245608	-0.00291044210914901	0.00345346938877478
12	0.0343362573459855	-0.010191743238105	-0.00141708861973879	0.00283432345427624	-0.00141647869428423	0.0028357419628997	-0.00384896096879588	0.00092069300640435
