# GHZ S RI R 50
0.2	0.00592383659048818	0.000920109177044687	0.00304949912165578	-0.000897668354240296	0.00305986991214803	-0.000890855343818543	-0.0139803082667933	0.00461984916467897
0.3	0.00622641546150179	-0.000977650157371256	0.00290559455891335	-0.00132124866496121	0.0028983425965608	-0.00130830634075872	-0.0132082781658106	0.00487109022938553
0.4	0.00596213766093126	-0.00254188611649532	0.00267427911725036	-0.00169336063227436	0.00267955117387274	-0.00170192436137811	-0.0127363116972107	0.00549234894249995
0.5	0.00545383533223868	-0.00396211472024553	0.00241541844633853	-0.00205078787368938	0.00242696430130905	-0.00206303386758919	-0.0121166975185094	0.00610331169022866
0.6	0.0043051152462427	-0.0052823233163505	0.00210250961391037	-0.00236543595587215	0.00210172323013476	-0.00237258938155166	-0.0118087453198169	0.00655212229666964
0.7	0.00282728601786141	-0.00596313843949269	0.00175530978563082	-0.00264343187772966	0.00175335268640154	-0.00264363099098186	-0.0115918819803956	0.00726594142209213
0.8	0.001357981519642	-0.00626019963045851	0.00136968340039922	-0.002861191184427	0.00135707580307941	-0.00286574378590329	-0.0112953441768226	0.00811024474244305
0.9	-0.000230311985725202	-0.00609431749930366	0.000952121842684299	-0.00302508279175673	0.000953156937468736	-0.00303578924618034	-0.0109366896994428	0.00901187481633491
1	-0.00144582902415723	-0.00543857226745353	0.000526687486471341	-0.00312819394673449	0.000516820210256552	-0.00312893304884372	-0.0102419179779328	0.00998921521848895
1.1	-0.00254167565742957	-0.00516445382052681	7.12105832513557E-05	-0.00315700806584545	6.77011879067824E-05	-0.00317466842128473	-0.00963136637456394	0.0105430123418628
1.2	-0.00393676701617344	-0.004850084941472	-0.000371328286821196	-0.00314665413046635	-0.000372140450023217	-0.00314457630276803	-0.00892500704979659	0.0112189403587294
1.3	-0.00546483948647271	-0.0046055297569998	-0.000798972385437013	-0.00306338173320987	-0.000802214915808081	-0.00306538780090273	-0.00765762379102441	0.0117519101918343
1.4	-0.00687221629615096	-0.00404286852279602	-0.00122063495003156	-0.00291474871586215	-0.00121942234726177	-0.00292028558365226	-0.00618777746978875	0.0117669430102685
1.5	-0.00727500281053007	-0.00288179393159321	-0.00162128472474984	-0.00271886653882474	-0.0016196723862085	-0.00272737214774572	-0.004716724800444	0.0114972989719969
1.6	-0.0073579721940256	-0.00143891306925336	-0.00198262207534305	-0.00246670916191077	-0.00198283389116653	-0.00247194775576995	-0.00413527256483684	0.0115256969119411
1.7	-0.00678616627933436	0.000260318194186995	-0.00231165453696521	-0.00216930596294485	-0.00231261928164849	-0.00216303885230404	-0.00332883701454228	0.0119199760588242
1.8	-0.00579919867800181	0.00182852114787915	-0.00258292162284494	-0.00181725248093791	-0.00259389860432552	-0.001822890080867	-0.00245675470364615	0.0121477310103434
1.9	-0.00449076158566827	0.003077241854812	-0.00280835250331493	-0.00144620882185273	-0.00282080063097523	-0.0014400463552334	-0.0016536793645296	0.0123188375362458
2	-0.00271963707539438	0.00383138629634333	-0.00298484313444024	-0.00103826375299465	-0.00299447351061492	-0.00103354667753998	-0.000784933742341177	0.0124166425783071
2.1	-0.00129098329667014	0.00377735641713891	-0.00309848948112338	-0.000608271169544628	-0.00309440327757459	-0.000610267999413333	-0.000136247862047203	0.0123293054958754
2.2	-6.20795276576008E-05	0.00374725461951857	-0.00315526869224634	-0.000169035680461504	-0.00316658549373529	-0.000171864585997179	0.000719239008225968	0.0123953554448414
2.3	0.00113806391538601	0.00340330245027857	-0.00315003365853495	0.000275048072748605	-0.00314973748657132	0.000268158750736377	0.00163361545798683	0.0122022044061755
2.4	0.0021790503382786	0.00295154474210645	-0.00307712407565191	0.000714075835238815	-0.00307967210538472	0.000709817218319741	0.00249876715350421	0.0119645178588318
2.5	0.00345109123811994	0.00233710763278224	-0.0029389203287284	0.00112766691244101	-0.00294981018306875	0.00113406847316411	0.0035356172026109	0.0115603848538288
2.6	0.00454402437557599	0.0009358963433146	-0.0027630956115287	0.00153054238357777	-0.00275955547274624	0.00151820716497761	0.0043432700234321	0.0107752272840646
2.7	0.00520776234036496	-0.000584843779001632	-0.00251614017475031	0.00190153233371276	-0.00252142282485831	0.00190155141858708	0.0048643580888165	0.010093508152799
2.8	0.00563863274055882	-0.00224758440331432	-0.0022321321994532	0.00222878040712582	-0.00222429894824532	0.00223856186944789	0.00525175676126768	0.00960193511140921
2.9	0.00585199459216158	-0.00395067690865984	-0.00189630432890655	0.0025285526010974	-0.00189259476905198	0.00252811873085471	0.00583489866127441	0.00937424859328654
3	0.00598142318960055	-0.00587490351423088	-0.00150835437052771	0.00276221294697497	-0.00152312212355421	0.00276834047582085	0.00673441171233226	0.00908632858305288
3.1	0.00538899322673327	-0.00812376200996265	-0.00111822717680935	0.00293781278797639	-0.00111355713702339	0.00294614611417191	0.00738763303046704	0.00861045343164225
3.2	0.00413888504209124	-0.0100232471704968	-0.000697374546333081	0.00307399662842145	-0.000699119721244292	0.00307338903651943	0.00794465133133257	0.00832181742386026
3.3	0.00249390830503282	-0.0117142838718668	-0.000258625038226987	0.00314247199763673	-0.000256983274347781	0.00313873009579222	0.00868207862506172	0.00790060408998225
3.4	0.000404230143003301	-0.0128929173394796	0.000188058940371601	0.00313465370920781	0.000181885911224139	0.00315122027262294	0.00945151690134939	0.00723518916062649
3.5	-0.0016057472268522	-0.0137725758366255	0.000608395608680812	0.00309064438097315	0.000613987815121596	0.00309071199953555	0.0101032007723661	0.00618651911891072
3.6	-0.0042195476217427	-0.0145649130463067	0.00103666361766033	0.00297136736893225	0.00104485160964217	0.0029710384085785	0.0102772654413444	0.00515595286156135
3.7	-0.00711926149764338	-0.014471867969133	0.00144698509127232	0.00278932849131554	0.00143742441639015	0.00280301240133277	0.0105179059614415	0.00436321111836162
3.8	-0.0099256955003847	-0.0136308715710189	0.00182431870192413	0.00256121305427461	0.00182673558197151	0.00257035379688578	0.0107386617636008	0.00350701079718085
3.9	-0.0123118356787808	-0.012085254594088	0.00216897988142929	0.0022876403186554	0.00216171681772438	0.00228587244893115	0.0108577329219684	0.00265742517333441
4	-0.0138806834882709	-0.0102848982506824	0.00245357064093489	0.00196665324711543	0.00245801425313134	0.00196421364959473	0.0110798710410493	0.00181008292777286
4.1	-0.0154691045963099	-0.00875385630305534	0.00270499943288464	0.00160519631013543	0.00270374881476489	0.00160593386002953	0.011072232332863	0.00093107453675485
4.2	-0.0170289770646314	-0.00663239394246577	0.00290258861718941	0.00120341498647312	0.00290703601394203	0.00119469851432931	0.0111136653302395	0.000255388570672671
4.3	-0.0181827743206148	-0.00415482864915759	0.00304419624380385	0.000791445456182351	0.00305060025477461	0.000783639488956389	0.0111879731666823	-0.000550584238995138
4.4	-0.0189203050322145	-0.00125360916920005	0.00311965915762064	0.000357676890148701	0.00312202788600262	0.000355418708560201	0.0111152699734188	-0.0013233349511268
4.5	-0.0186704493391151	0.00178042655913947	0.00314122979921598	-8.1046375775639E-05	0.00314657850725506	-8.44264199731215E-05	0.0111842085436524	-0.00214554919909614
4.6	-0.0182474458007306	0.00418893375827543	0.0030947944036172	-0.000522778251473774	0.00309604443493349	-0.000509886368347781	0.0108451829135896	-0.00317002563986636
4.7	-0.0175232535847991	0.00683259932063609	0.00298866054568332	-0.000940023455235646	0.00300390608746109	-0.000949649045033785	0.0104014887038914	-0.00392261855674736
4.8	-0.0163172065265104	0.0094099645228247	0.00282702984154061	-0.00135282947559561	0.00283548449650746	-0.00135892105741929	0.00998384465294873	-0.00455245035901263
4.9	-0.0144127841773146	0.0118603535018825	0.00260556345739838	-0.00173591944158105	0.0026097267111648	-0.00173302665187792	0.00967231418293768	-0.00500969857881309
5	-0.0116071019335938	0.0136711060552703	0.00234459867957261	-0.00208866729560506	0.0023482159445872	-0.00208601514643175	0.00979569262416434	-0.00552271584894982
5.1	-0.00881254131220303	0.0144879408058277	0.00203503018336473	-0.00239681309625722	0.00203732654441572	-0.00239546129034713	0.00975340163921294	-0.00627815450434716
5.2	-0.00608247428355797	0.0150748849332917	0.00167841153501779	-0.00264547424932274	0.00168011543159579	-0.00265060568907395	0.00976073808720945	-0.00695963039056368
5.3	-0.00317479885448171	0.0152353412341552	0.00129252888114409	-0.00285951320160588	0.00129565488500555	-0.00285745883239357	0.00972638710671064	-0.00769016920218102
5.4	-0.000214850229197509	0.0149859671066334	0.000868899948692103	-0.00300523518000881	0.000886006163728224	-0.00301642336774378	0.00963477513877637	-0.00858091557714492
5.5	0.00304112449528041	0.0139503490940231	0.000458252476328139	-0.00310183369750318	0.000468273297224518	-0.00311123466208506	0.00938787812404255	-0.00974758482812858
5.6	0.00524388826240004	0.0118582630461925	2.14573781397349E-05	-0.00313874755093671	1.2954666488758E-05	-0.0031419571131879	0.0083499365838482	-0.0107105384037135
5.7	0.00673176262677268	0.00998382627357126	-0.000408369421894278	-0.00310813885362681	-0.000424936867581819	-0.00311178846634241	0.00739474246309149	-0.0110818189381549
5.8	0.00787157710466961	0.00801769898925787	-0.000852469843782261	-0.00301322194390573	-0.000855994142975156	-0.00302717180491704	0.00661214102256258	-0.0116026180930969
5.9	0.00854138735438475	0.00618118447123414	-0.0012551505837635	-0.00287399477935038	-0.00126335769092184	-0.00287391686256058	0.00563888075952117	-0.0121785699468381
6	0.00942666066171094	0.00431995091241403	-0.00165251799139984	-0.00266992699322317	-0.00164896526787158	-0.00267009111096213	0.00452929774862689	-0.0127387330187579
6.1	0.00954418425986337	0.00143963105009259	-0.00200723838152367	-0.00241559702627174	-0.00200887510600746	-0.00241160317885289	0.0029079844097608	-0.0131607240200216
6.2	0.00861670082111289	-0.00104163476952577	-0.0023186102665591	-0.00210345021104693	-0.00232230385280685	-0.00211529219945192	0.00143341314586718	-0.0129076798367635
6.3	0.00737996371688408	-0.00309817147600012	-0.00259551311651644	-0.00177071306186437	-0.00260462248878748	-0.00176499516743767	0.000463896746542718	-0.0125099753892892
6.4	0.00597703204112041	-0.00476783701580863	-0.00282200739664083	-0.0013819623208167	-0.00281230055210588	-0.0013868458797744	2.76340530813605E-05	-0.0121735763910552
6.5	0.00490643954599652	-0.00658861790280794	-0.00297911711937451	-0.000977048511049581	-0.0029869634839168	-0.000972580538814166	-2.88083095182027E-05	-0.01238559315864
6.6	0.00266440804707475	-0.00839329495105418	-0.00308606871049192	-0.000553415310907371	-0.00308769515033991	-0.000557383319991052	-0.000525293821415117	-0.012687749542772
6.7	0.000169597061735048	-0.00904020056578783	-0.003137063588456	-0.000117620612353242	-0.00314590251287651	-0.000111365698111054	-0.00113538764888661	-0.0128287416945668
6.8	-0.00229164660656293	-0.00896183304778103	-0.00311658145623901	0.000322510285215184	-0.00312765536308705	0.000327534609158022	-0.0019437768623149	-0.0128098500329999
6.9	-0.0045713247587285	-0.00803918469612213	-0.00304209982799056	0.000755319577619341	-0.00304508284523752	0.00075770197042159	-0.00270851521025522	-0.012523642801796
7	-0.00575645989737525	-0.00686770346173556	-0.00290512200159431	0.00117448724082079	-0.00291791602862566	0.00117228229899232	-0.00319172738249125	-0.012416657416137
7.1	-0.00757982902335155	-0.00621737509926564	-0.00272969350478345	0.00156114851097648	-0.00272605292334926	0.00156979968787966	-0.0042592871109561	-0.0121593334515219
7.2	-0.00951738937129207	-0.00455690165634912	-0.00247555817589807	0.00192879086533891	-0.00248207777746597	0.00193085346840952	-0.00487945564644292	-0.0113890187238763
7.3	-0.0111315601314295	-0.00233828214253533	-0.00218198351810579	0.00224783394242524	-0.00219318420393177	0.00225285538832715	-0.00504246274253739	-0.0108339090010613
7.4	-0.0123646489484359	0.000535918568618087	-0.00184218712132884	0.00253073150415583	-0.001849085685207	0.00254429731301695	-0.00515081111463932	-0.0106344313081021
7.5	-0.0121120902323414	0.00384022388348147	-0.0014802364270497	0.00277001136757159	-0.00147327777861667	0.00277741356167459	-0.00495500918008477	-0.0109211450195957
7.6	-0.0113962181397983	0.00590226054824021	-0.00107627176814091	0.00295141927284329	-0.00107763129965405	0.00294672373073268	-0.00544445955433307	-0.0118511135944759
7.7	-0.0106489796306136	0.00809533473034464	-0.000648841792632321	0.00307476206952589	-0.000650177678604658	0.0030736975719722	-0.00643545593812435	-0.0126771012389074
7.8	-0.00909557864969673	0.0101123646921362	-0.000224105588816027	0.00312571793784697	-0.000231925723854103	0.00313214730023428	-0.00773030909298728	-0.0130419255702031
7.9	-0.00672778059574326	0.0118111382467174	0.000215726685879955	0.00313526829164565	0.000223659160377034	0.00313679187910236	-0.00899843155950989	-0.0128657776227214
8	-0.00331771433382848	0.0122520353841157	0.000657973635840726	0.0030674125323739	0.000658039042998023	0.00307231409394712	-0.0100769931046302	-0.0126545427163618
8.1	-0.000969698445358359	0.0116750064970774	0.00107062395071587	0.00295127638935726	0.00108977848343435	0.0029524174647951	-0.0115248850429576	-0.0119701788220215
8.2	0.00110839407562113	0.0112639426641943	0.00147647340742957	0.00277190142419548	0.00148574645532381	0.00276472728828839	-0.0124034712647222	-0.0109240538545669
8.3	0.00312905419915106	0.0106551431710099	0.00185460362894713	0.00253456266518117	0.00185292176187017	0.00254812193577491	-0.0130674456788634	-0.00996712137047664
8.4	0.00510900747878986	0.0100987755962466	0.00219303841776557	0.00225829210112452	0.00219000409176131	0.00225805963730792	-0.013662636403689	-0.00901727052552327
8.5	0.00788296476842623	0.00890201646679509	0.00248211412773515	0.00192643057244613	0.0024812100315141	0.00192961795594406	-0.0140769562269545	-0.00819140940313789
8.6	0.00958440729404004	0.00629591295387551	0.00272863434645445	0.00156519395763518	0.00273815715303581	0.00155865974994805	-0.0148532452760511	-0.00731511288842492
8.7	0.0104233683686264	0.00385991957644471	0.00291572167510383	0.00116246549785049	0.00292128829827942	0.00116319872608725	-0.0152219565257698	-0.00614640288396285
8.8	0.0107681100955615	0.00144385447441343	0.00305393052882942	0.000750929154808342	0.00305972150624256	0.000742163881549041	-0.0153932895318967	-0.00524657172672811
8.9	0.0107424988797195	-0.000781781799060119	0.00313254859791947	0.000315235296694957	0.00313167869788572	0.000312983488543077	-0.0153329177951482	-0.00435918572225129
9	0.0110918609153314	-0.0031714278771799	0.00314126453010684	-0.000128913859043328	0.00314442073323316	-0.000124804849984066	-0.0149473442045672	-0.00375395275659812
9.1	0.0104716160656015	-0.00653550909370436	0.00309639598711099	-0.000569743753327693	0.00309926561807693	-0.000556826432849142	-0.0149516771872065	-0.00335062825032779
9.2	0.0088637517164312	-0.00939434753698791	0.00298819697809479	-0.000988555180118961	0.00299586992332739	-0.00099142564104784	-0.0148808776685233	-0.00276653627342378
9.3	0.00672142822909732	-0.0118334783942885	0.00282008006447543	-0.00139533145500443	0.00281935423008706	-0.00140033068538616	-0.0147077309950816	-0.00216990344944174
9.4	0.00410799209302469	-0.0136086150077497	0.00259741006332042	-0.00178650125998949	0.00260392180363344	-0.00177888513751784	-0.0145095702962137	-0.00159530262445412
9.5	0.00160216036297808	-0.0150657770911429	0.00232395848778856	-0.00212091723351554	0.00233138437250433	-0.00212225387802549	-0.0142706220874063	-0.00122074370808092
9.6	-0.00224760048501748	-0.0163862538397407	0.00200783909348389	-0.0024278711951614	0.00200816814304449	-0.00242688655883311	-0.014624623004044	-0.00064297822089122
9.7	-0.0064743872232641	-0.0161216833696545	0.00163979760202281	-0.0026807121948807	0.00164535425585053	-0.00268802792408113	-0.0145667521821722	0.000257605024542205
9.8	-0.0105421060276253	-0.0147681187146947	0.00125404090852994	-0.00289127875121889	0.00125974167264358	-0.00288275395208823	-0.0143332305364493	0.000990804174056341
9.9	-0.0141958452235596	-0.0121321920296958	0.000848467686858032	-0.00303225323822819	0.000841116587641558	-0.0030310341062105	-0.0141544137343342	0.00162059858764065
10	-0.0164371187019115	-0.00899518454599083	0.000416819692921008	-0.00312535594292041	0.000409320924004171	-0.00313784897228156	-0.0139048898756918	0.00197520956568459
10.1	-0.0187637522298376	-0.00621046356010121	-2.93900256356418E-05	-0.0031579551695674	-3.96584696624383E-05	-0.00315254941946763	-0.0141762003480394	0.00232260757332848
10.2	-0.0208437790285019	-0.00236145835302024	-0.000478256515161867	-0.00312112563179013	-0.000481675177084037	-0.00311833814184381	-0.0142046097146947	0.00307809066431661
10.3	-0.0220157503639603	0.00227725956444594	-0.000913346393018922	-0.00301520002186357	-0.000905228785812764	-0.00302430413458222	-0.0139654083696628	0.00382705202458211
10.4	-0.0218814429822482	0.00754125111952692	-0.00131355804879044	-0.00286018091826103	-0.00131185875451791	-0.00286639985836069	-0.0133848847413265	0.00434978760966981
10.5	-0.0197142362536626	0.0124322360322829	-0.00170881020865093	-0.00265842440471123	-0.00170567830990541	-0.00264538264010633	-0.0127218176821608	0.00440171446786376
10.6	-0.0171101150198607	0.0160900044850406	-0.00206124046753423	-0.00238514960962438	-0.00205905325807238	-0.00238898627305546	-0.0127412549144296	0.00454723431045625
10.7	-0.014026453996274	0.0196270987786561	-0.00237657831272539	-0.00208157739250295	-0.00237306684847948	-0.00207628720983853	-0.01260310251444	0.00507653910364395
10.8	-0.0102644363857231	0.0226380102579724	-0.00264611567607784	-0.00171968051135516	-0.00264091680856071	-0.00172863835866153	-0.0123920357286265	0.00567650905059302
10.9	-0.00587416205337355	0.0253136568273086	-0.00285436130236813	-0.0013427716872653	-0.00285956056670301	-0.00134202836465932	-0.0120327287818124	0.00634844555890063
11	1.71323276959752E-05	0.0268406036281807	-0.00301076962426469	-0.000924088529581386	-0.00301563596388936	-0.00093083040910496	-0.011378626240892	0.00683629429482656
11.1	0.00530625830404788	0.0264592872957219	-0.00311846884409634	-0.000499503025770123	-0.00310758581503924	-0.000496656018818743	-0.0109987605817742	0.00736543421242148
11.2	0.0102926054335804	0.0255560481429615	-0.00314746034185555	-6.06350898025071E-05	-0.00315463453533291	-6.5467969534963E-05	-0.0100507488954234	0.00800602175584946
11.3	0.0151601968445145	0.0238767608871525	-0.00311945873317618	0.000389392360938351	-0.00313103909071522	0.000379360594174473	-0.00870317817879338	0.00830040858093297
11.4	0.0196953449758595	0.0215972244379765	-0.00304368684328796	0.000817573011951506	-0.00303875176445509	0.000825138838814342	-0.00739807769317421	0.00813011353456011
11.5	0.0246321089532669	0.0180978394032692	-0.00290035324163548	0.00123165422944011	-0.00290312145140582	0.00124194690137309	-0.00629156544834889	0.00727907930998611
11.6	0.028044510913227	0.0129043919037926	-0.00270624115579351	0.00162376811121472	-0.00270621755886932	0.00162671333883581	-0.00581088728356781	0.00638388940602457
11.7	0.0301804063358429	0.00776983670638224	-0.00244334297245913	0.00197940130845639	-0.00244389182074369	0.00198802158811793	-0.00518360272856666	0.00551774137601617
11.8	0.0315579726047144	0.00262531391322534	-0.00214647714484988	0.00231156344726498	-0.00215059523073961	0.00231327249635875	-0.0047122002610847	0.00447678648676194
11.9	0.0326327123091412	-0.00238990885175759	-0.00179669825257475	0.00258735444625805	-0.00180973205807633	0.0025916911745965	-0.0043972171923146	0.00355379226434426
12	0.0335849147982893	-0.00831723007014892	-0.00142250352079225	0.00281250827788827	-0.00142190341999649	0.00281392194584175	-0.00447455402492066	0.00254133795077695
