# GHZ S RI R 50
0.2	0.00586297705582254	0.000966323845433093	0.00305023700866782	-0.000897204364845703	0.00306060828048657	-0.000890387986251059	-0.0141522566490033	0.00456236223975673
0.3	0.00615525566217239	-0.000923860741046541	0.00290670244526897	-0.00132080874100651	0.00289944512203011	-0.00130786501769329	-0.013377960654834	0.0048213815745288
0.4	0.00589788327747369	-0.00243261533877122	0.00267575048684072	-0.0016931788457845	0.00268102699710925	-0.00170174410815863	-0.0128490579622181	0.00551262129586503
0.5	0.00541097739480315	-0.00393331973670016	0.00241688540195677	-0.0020510524175817	0.00242843884563824	-0.00206330067025287	-0.0120219848065416	0.00599530075273078
0.6	0.00407113895706021	-0.00515428778778519	0.00210407874534633	-0.00236576349000289	0.00210329420080099	-0.0023729200626426	-0.0118332594237935	0.00626016343506733
0.7	0.00263449526356931	-0.00565802219284414	0.00175705206957144	-0.00264417142659907	0.0017550940613227	-0.00264437128186779	-0.0116974743110506	0.00694308263676504
0.8	0.00125827238122185	-0.00586609844269257	0.00137136133528942	-0.00286241830822368	0.0013587478709714	-0.00286697744732982	-0.0114953337545294	0.00776940999008031
0.9	-0.000203159908043056	-0.00564449217908649	0.000953493081709057	-0.00302671843986982	0.000954531577980929	-0.00303743128461979	-0.0112615587587873	0.00878295799937559
1	-0.00118944706143547	-0.00514022038984371	0.000527900048946781	-0.0031298928816864	0.000518027148150291	-0.00313063526300185	-0.0103801623018508	0.00997653604349888
1.1	-0.00249877802495168	-0.00511169286778137	7.22721778066471E-05	-0.00315929328902862	6.87658641921281E-05	-0.00317696767764817	-0.00963332953165732	0.0103979543199436
1.2	-0.00407180464616586	-0.00475311140961638	-0.000370843675969359	-0.00314927369088322	-0.00037165700838335	-0.00314719439646391	-0.00886303141859776	0.0110296481661962
1.3	-0.00576430015458496	-0.00442331600071984	-0.00079904421301902	-0.00306609231228104	-0.000802289058892368	-0.00306810068288462	-0.00755616779207863	0.0114355405336172
1.4	-0.0072354325169924	-0.00363862438971894	-0.00122114402795374	-0.00291741575825763	-0.001219929423375	-0.00292295706583661	-0.00614733813872382	0.0113680081809217
1.5	-0.00761966583627072	-0.00238468138034607	-0.00162226588104111	-0.00272182898444281	-0.00162065017810965	-0.00273034243660094	-0.00463488611716426	0.0109030511057664
1.6	-0.00766581017652324	-0.000651764435811525	-0.0019845829909939	-0.00246938734747228	-0.00198479478141311	-0.00247463144025115	-0.00431185116799092	0.0107940913073514
1.7	-0.0068435725667344	0.00111317371637516	-0.00231409069726177	-0.00217145516143174	-0.0023150562326778	-0.00216518160099479	-0.00368186855163446	0.0112514580478538
1.8	-0.00571483110600337	0.00262604669393682	-0.00258569182576452	-0.00181894106342217	-0.00259668043945463	-0.0018245837018666	-0.00290801255182884	0.0116223264754391
1.9	-0.00430235575801759	0.00378043555690007	-0.00281149275165912	-0.00144753502472698	-0.00282395376911969	-0.00144136490795787	-0.00204141589363594	0.012027598693042
2	-0.00261128690992164	0.00430334936465096	-0.00298860655342406	-0.00103877666226788	-0.0029982471524395	-0.00103405173819506	-0.00083756739507087	0.0121207168206699
2.1	-0.00142081622752015	0.00443845758141121	-0.00310198412310646	-0.000607889639127138	-0.00309789423947472	-0.000609889946724847	-0.000158396453160683	0.0118195069792182
2.2	-5.55606239555007E-05	0.00460331101150397	-0.00315870418968979	-0.000168172736128054	-0.00317003404845172	-0.00017100092725677	0.000645440572197692	0.0117816237693183
2.3	0.00135325374666564	0.00428690896972575	-0.00315346325868173	0.000276572607768207	-0.00315316941332542	0.000269675438494509	0.00144074266889654	0.0115585813622249
2.4	0.00263502030224328	0.00370487113209419	-0.00308036939313725	0.000716506134304755	-0.00308292261856161	0.000712243832702957	0.0022003145037365	0.0114803858303056
2.5	0.00397064346311216	0.00261129888192891	-0.00294122117865166	0.00113085244451875	-0.00295211804023936	0.00113726813193698	0.00347574025507624	0.0112529465441351
2.6	0.00458817009822335	0.00102753880382825	-0.00276495447391146	0.00153380269244671	-0.00276141836221342	0.00152145276751017	0.0044299915048473	0.0103266527663916
2.7	0.00495539452533696	-0.000330202192579174	-0.00251747432162555	0.00190532727080194	-0.00252276257351162	0.00190535009980456	0.00497506263180073	0.00953999821793167
2.8	0.0052731666338493	-0.00173979545906275	-0.00223261402978436	0.00223295749109992	-0.00222476449220357	0.00224274266801707	0.00535309209201801	0.00899780499002729
2.9	0.0055547557588768	-0.00329188088929664	-0.00189568960666145	0.00253274809704523	-0.0018919769532968	0.00253231028506302	0.00599672717659068	0.00878853901656589
3	0.00557415773036699	-0.00526577174261017	-0.00150718470325186	0.00276583418818884	-0.00152195936146258	0.00277197977431997	0.00711554365681182	0.00832524721076914
3.1	0.00480029710970369	-0.00715535912068526	-0.00111647400715341	0.00294171091510977	-0.00111179146162739	0.00295004775164313	0.00769992114353192	0.0075338816684454
3.2	0.00372419676883828	-0.00878075618587451	-0.000694540567545008	0.00307752711218921	-0.000696287984839523	0.00307692094008919	0.00810160610197119	0.00708608848747334
3.3	0.00227941635697053	-0.010352461265968	-0.000255019168962844	0.00314523724859243	-0.000253380658088993	0.00314149043788113	0.00863990252641283	0.00659919769666974
3.4	0.000412353164361841	-0.0115440607884206	0.000191971263446263	0.00313652207683452	0.000185814119687514	0.00315310717202729	0.00926808817271247	0.00602790721616148
3.5	-0.00163501932751223	-0.012644062530632	0.00061262270379944	0.00309230207682637	0.000618219329383581	0.00309236295307047	0.0100144674496232	0.00496765335434534
3.6	-0.00441005435189281	-0.01314407616847	0.00104174740965749	0.00297183992787378	0.00104994043423373	0.00297149866194347	0.010039870832941	0.00379890107113945
3.7	-0.00699639557567796	-0.0128353936280063	0.0014519378334492	0.00278848487954688	0.00144239333469381	0.00280219001842535	0.0100693991383904	0.00304451151702279
3.8	-0.00942864275233501	-0.0120887564269426	0.0018288911183003	0.00255940774554407	0.00183132277761452	0.00256854825750298	0.010126428977631	0.0023732612841729
3.9	-0.0115681285467148	-0.0109381809816401	0.00217323738488392	0.00228516822230236	0.00216596901884881	0.00228341075290893	0.0102594238257949	0.0018437809518463
4	-0.0134729549253588	-0.00971183815083062	0.00245778400239597	0.00196293944274166	0.00246222468542182	0.00196049127772972	0.0108118191626503	0.0011155610472915
4.1	-0.0156235421570791	-0.00791218588557811	0.00270780912672782	0.00160046991380375	0.00270655979621794	0.00160120965088552	0.0109234767977981	0.000139270635737509
4.2	-0.017142783202688	-0.00543877848998129	0.00290442431202526	0.0011984269699337	0.00290885667283249	0.00118970357637346	0.0110428233098827	-0.000567680196349911
4.3	-0.0180836812626575	-0.00286981539234131	0.00304521063353891	0.000786070886730279	0.0030516003475359	0.000778254729006431	0.0111944831642413	-0.00138768894393109
4.4	-0.0186116334616234	-0.000140863777988278	0.00311964092834899	0.000351753364730611	0.00312200490342052	0.000349491243624739	0.0112536683229759	-0.00209599758068926
4.5	-0.0185941090353914	0.00241086971329774	0.00313917162039141	-8.70498785060472E-05	0.00314451057703274	-9.04381820757284E-05	0.0117078165119009	-0.0030374288797114
4.6	-0.018748363913383	0.00506097314324336	0.0030917546719912	-0.00052763892738263	0.00309302559784788	-0.000514758140518747	0.0114741770766654	-0.00445873491815603
4.7	-0.0180949826047022	0.00808330563174765	0.00298485750645801	-0.000944394657677595	0.00300007546023053	-0.000954038974325823	0.0109512381923568	-0.00552861615165326
4.8	-0.016795874117126	0.0109328067757759	0.00282221039038469	-0.00135651578649723	0.00283064710359102	-0.00136261659373137	0.0103394141515773	-0.0063455004629408
4.9	-0.0146690369630913	0.0134860989729552	0.00259965950517547	-0.00173839467405648	0.00260382297817851	-0.00173551224806393	0.0098492107540988	-0.00679421901367956
5	-0.0119605829915533	0.015149654941106	0.00233870413336255	-0.00208921240222002	0.00234232040125642	-0.0020865686500697	0.0100332280266573	-0.00739889751740193
5.1	-0.00919376264098423	0.016463539755444	0.00202933597150503	-0.00239684429543275	0.00203163153313995	-0.00239549724874017	0.00978061786326746	-0.00835890697286265
5.2	-0.005948874716686	0.017156207791234	0.0016724460645249	-0.00264434956476054	0.00167414044306646	-0.00264947662650826	0.00951291136206471	-0.0090433199858411
5.3	-0.00272476258364223	0.017000037946733	0.0012868228481797	-0.00285693253576745	0.00128994687634115	-0.00285488536535075	0.0092626118803927	-0.00962802021332536
5.4	0.000229172654403275	0.0162887774571881	0.000864199216745104	-0.00300137447394409	0.000881265696797028	-0.00301256355733511	0.00914880069510604	-0.010230686920465
5.5	0.00278729242987931	0.0148654628796142	0.000454430767990083	-0.0030979857193783	0.000464427988856831	-0.00310738388145784	0.00919061472574098	-0.011436157975747
5.6	0.00450038115908693	0.0135858098513109	1.76079532814202E-05	-0.0031337691719565	9.11489721271891E-06	-0.00313696328157933	0.00802710429746915	-0.0126259810093779
5.7	0.00636938638367256	0.0122428688486798	-0.000410972065667493	-0.00310207626008787	-0.000427513459410096	-0.00310570145812858	0.00675353033346689	-0.0130160599961988
5.8	0.00803246297440348	0.0104191531010581	-0.000853561154009104	-0.00300675599698431	-0.000857091304272597	-0.00302067630246702	0.00561524139365475	-0.0132523708344697
5.9	0.00932355457887297	0.00832601016191891	-0.00125509691635786	-0.00286774843888028	-0.00126328892615786	-0.00286766425125474	0.00451745793056075	-0.0131023255875799
6	0.0102385774524226	0.00546255451778517	-0.00165199988089109	-0.00266313356090027	-0.00164845416545424	-0.00266330090916244	0.00409764186602463	-0.012971551895928
6.1	0.00959108340369738	0.00253277700975366	-0.00200454386168641	-0.0024085296562315	-0.00200617374748263	-0.00240454363695098	0.00331432589484058	-0.0133528914336939
6.2	0.00851867011392937	0.00025741661078695	-0.00231442597495962	-0.00209725889688793	-0.00231811770717459	-0.00210907133354707	0.00253237095943659	-0.0134971866034757
6.3	0.00726242641267615	-0.00172036089934099	-0.00259021398998744	-0.00176531613524929	-0.00259929917426237	-0.00175960747493591	0.00183885982331973	-0.0137478985939902
6.4	0.00587496272949878	-0.00345982290373224	-0.0028156635309793	-0.00137721922573888	-0.00280598301485488	-0.00138209522808951	0.00134971340999397	-0.0138578951957711
6.5	0.00417082594959282	-0.00536739634451067	-0.00297066789682495	-0.00097348473917881	-0.00297849031624404	-0.000969027905774505	0.00126568035739561	-0.0146403536188215
6.6	0.00183594364402658	-0.00620641378433712	-0.00307722285344012	-0.000552630121236172	-0.00307884370667912	-0.000556587344508789	0.000278812610779584	-0.0154187463758851
6.7	-0.000146496944556704	-0.00657052739575006	-0.00312846309654683	-0.000118483784134326	-0.00313728027416669	-0.000112249265615931	-0.000885153067612557	-0.015686440462411
6.8	-0.00225639228151761	-0.00650441457700751	-0.00310808980760155	0.000320107477531439	-0.00311913541820793	0.000325112502328841	-0.00213265647946743	-0.0154994651296825
6.9	-0.00420948829361584	-0.00586782541324101	-0.00303362900393391	0.000750976968991596	-0.00303660485317901	0.000753350249416598	-0.00298680477487506	-0.0148186490703135
7	-0.00601025782004219	-0.0053121778876967	-0.0028982353271396	0.00116735926170349	-0.00291098954429853	0.00116514424981572	-0.00307589038981787	-0.0147897132288142
7.1	-0.00837464414796783	-0.00367876737829471	-0.00272483907166268	0.00155357754530411	-0.00272121917065313	0.00156221160697086	-0.00427768968161203	-0.0149508385174044
7.2	-0.00970480883756975	-0.00135661259497475	-0.00247193562007508	0.00192044936441545	-0.00247844149586323	0.00192249767529712	-0.00534278377833106	-0.0144216669596119
7.3	-0.0104801366100184	0.00100686570660806	-0.00218001906644411	0.00223861477149669	-0.00219119924179897	0.00224360550162763	-0.00616282173871141	-0.0137898061945756
7.4	-0.0106780043644486	0.00344860245912197	-0.00184266223170228	0.00252101361611088	-0.00184957054708095	0.00253453313617743	-0.00689589153239986	-0.012951067058092
7.5	-0.0102660009691805	0.00517524293403782	-0.00148289378034689	0.00276177633006272	-0.00147596312047423	0.00276917815013429	-0.00656061914794295	-0.0124502706105978
7.6	-0.0104348688173009	0.00688898854569454	-0.00107935030432417	0.002943601322048	-0.00108069878749858	0.00293891277085825	-0.00678674520076636	-0.0129266450525111
7.7	-0.00992860585134058	0.00899847450597602	-0.000653572253259768	0.00306718890226338	-0.00065490330683283	0.0030661239516002	-0.00747639472250474	-0.0133897981500627
7.8	-0.00870502522105768	0.0108383596593902	-0.000230417649274199	0.00311922370740844	-0.000238236616002305	0.00312562383594243	-0.00829289443193348	-0.0135524401052943
7.9	-0.00684082628267053	0.0122573301251377	0.00020843158866821	0.00313050462890716	0.000216347433714571	0.003132043214392	-0.00885528618329791	-0.0133988550870347
8	-0.00486797704517612	0.0128985459345929	0.000651053713160112	0.00306323170120514	0.000651109803591953	0.00306812473108765	-0.00926779185949844	-0.0137907409632474
8.1	-0.00287891678192388	0.0140131663234831	0.00106181552522271	0.00294760471707024	0.00108092811754153	0.00294878632723075	-0.0106804441014664	-0.0138157424681151
8.2	-8.70690460630147E-05	0.0145080465193986	0.00146655837466722	0.00277031992683769	0.00147583182980747	0.00276318327051994	-0.0117420788480803	-0.0131527876768992
8.3	0.00271877267028821	0.0141799121672395	0.00184445600071337	0.00253512330301782	0.00184274031445538	0.00254865409284398	-0.0125730053796018	-0.0123361069501052
8.4	0.00543511861493625	0.0132944359928057	0.00218321696350885	0.0022604381416759	0.00218018837961776	0.00226019783667413	-0.0131197083769233	-0.0113101329872073
8.5	0.00775635285281638	0.0112685401569279	0.00247130268526175	0.00193015600757567	0.00247039067925886	0.00193333428969061	-0.013083563137231	-0.0108440803775286
8.6	0.00892867860265669	0.00959536900452488	0.00271877913495578	0.00157256560415539	0.0027283106344893	0.00156607573681432	-0.0139990292569489	-0.010682111495342
8.7	0.0104658681097952	0.0078248703703978	0.00290804702138535	0.00117176616158624	0.00291360442827787	0.00117251889086001	-0.0149273435322195	-0.00999539019352542
8.8	0.0117750851343365	0.00549096297302089	0.00304821674100165	0.000761460572904732	0.00305403443796104	0.000752725099146227	-0.0158883771296716	-0.00912943689016942
8.9	0.0128080135496295	0.00261808946817432	0.00312845058160932	0.000326937515400634	0.00312759010561432	0.000324684455043154	-0.0164234158944178	-0.00765961856660774
9	0.0130737929131548	-0.00125865440072483	0.00314032439297188	-0.000115128467557835	0.0031434611339829	-0.000111007636019437	-0.01588269746061	-0.00650262576635357
9.1	0.0117929434813973	-0.00483798536290592	0.00309916252446311	-0.000557127441787805	0.00310197959213728	-0.000544196559464495	-0.0157259305829003	-0.00590818421714582
9.2	0.00992234497454874	-0.00803204036873682	0.00299287932603252	-0.000977023668320344	0.00300056560468856	-0.00097986460607317	-0.0154955365345377	-0.00524368710701805
9.3	0.0072046278477329	-0.0107240644357115	0.00282672964496282	-0.00138460747676463	0.0028260234901648	-0.00138961151797686	-0.015209179446833	-0.00459081467324897
9.4	0.00400900721284961	-0.0125820278019623	0.00260669536208767	-0.00177672693141957	0.00261317929501067	-0.00176907820414128	-0.014735049994704	-0.0038524350040575
9.5	0.000198603747973076	-0.0139595497864221	0.00233566156031139	-0.00211467175666036	0.00234310322232614	-0.00211598077694838	-0.0140280734507562	-0.00383826358186221
9.6	-0.00409542391844646	-0.0136336151942636	0.00201911790841003	-0.00242395645599709	0.00201944389777515	-0.002422969347711	-0.014467896903929	-0.00383360494897639
9.7	-0.00764577979878877	-0.0124747671845026	0.00165167421186006	-0.00267854757131378	0.00165726477500091	-0.00268585351730887	-0.0148855762517226	-0.00325928955997815
9.8	-0.0109337919328332	-0.0108063283058254	0.00126645334463438	-0.00289149796340711	0.00127213284021964	-0.00288293881931917	-0.0152781764247305	-0.00239675205167153
9.9	-0.0137622519617182	-0.0085170316380384	0.00086048887846581	-0.00303556003478935	0.000853118645009761	-0.00303436336222704	-0.0154479341838863	-0.00107836776056997
10	-0.0164034601812469	-0.00623854072293261	0.000426278560901916	-0.00313024180842072	0.000418799890337714	-0.00314277974342139	-0.0148219584071708	-0.000205801652426539
10.1	-0.0191169368206596	-0.00260993698583815	-1.9845360864795E-05	-0.00316332904678875	-3.01474107714174E-05	-0.00315794544602727	-0.0147824391984501	0.000295260837837492
10.2	-0.020413317869226	0.00165254083712818	-0.000469295236120166	-0.00312867474480465	-0.000472729336609202	-0.00312589269402525	-0.0145785273589162	0.00110754897280421
10.3	-0.0206922100867517	0.00598294459083491	-0.000906080939479806	-0.00302471994384329	-0.000897917214626704	-0.00303381927122404	-0.0141898610473798	0.00194905468394487
10.4	-0.0199072145229708	0.0101263092116599	-0.00130873013273649	-0.00287054579188692	-0.00130700962467807	-0.0028767746576568	-0.0132770274378327	0.00276333408734214
10.5	-0.0187101258322276	0.0134668163305698	-0.0017044531906196	-0.00266882502571755	-0.00170135328985528	-0.00265574767244274	-0.0118372718334143	0.00266532933071108
10.6	-0.0174945786774788	0.0174612633190748	-0.00205897311029435	-0.00239805201416597	-0.00205676780092674	-0.00240189171063273	-0.0114758617540466	0.0021777300462693
10.7	-0.015093510200333	0.0215485347378984	-0.00237772745530355	-0.00209487127736278	-0.00237422077250218	-0.00208955470654129	-0.0113401762128263	0.00210525954163422
10.8	-0.0115904671389778	0.0253664220134143	-0.00265014694003473	-0.00173206616603645	-0.00264490814233462	-0.00174103927594128	-0.0113149373863433	0.00233817336717346
10.9	-0.00687211156008133	0.0284022385611816	-0.00285997412627187	-0.00135402725403293	-0.00286519149593442	-0.00135329445448387	-0.0109648288793999	0.00292440152203464
11	-0.00170488725344413	0.0298123603274542	-0.00301905066523354	-0.000935853644319824	-0.00302391569569317	-0.000942633484820539	-0.010047058789764	0.00286489380329701
11.1	0.00337589186463915	0.0310701243357003	-0.00313032513114537	-0.000508199010288271	-0.00311940307067598	-0.000505317083181533	-0.00997788192736472	0.00261728870215946
11.2	0.00942021279558226	0.0311035830675876	-0.00316029786576662	-6.61756420697308E-05	-0.00316749342814754	-7.10404509575696E-05	-0.00977853435754536	0.00272547113478086
11.3	0.0155866058194891	0.0296101218552348	-0.00313275495461753	0.000386391808298025	-0.00314436778837241	0.000376302089749619	-0.00948406892612086	0.00299585286414673
11.4	0.0213410699772913	0.0266904617198347	-0.00305787671239279	0.000816603415813635	-0.00305293165310281	0.000824208768062542	-0.00888079212506109	0.00340840228742409
11.5	0.0260345934545727	0.0220755968224943	-0.00291551393475544	0.00123534413426411	-0.00291830393342885	0.00124568487691952	-0.00783930454483782	0.00291461540429362
11.6	0.0294489766872479	0.0174097029911659	-0.00271846899389027	0.00163062722343994	-0.00271844567445304	0.00163358553242212	-0.00770400964025518	0.00227450479450312
11.7	0.0325971521510176	0.0120163460110341	-0.00245375327219119	0.00198773440442537	-0.00245430466199939	0.00199639122527582	-0.00747339226753637	0.0019365622920525
11.8	0.0347465043064726	0.00574118976385066	-0.00215546076612242	0.00232166402412151	-0.0021595963379024	0.00232338077368507	-0.00713683237941328	0.0017593536963021
11.9	0.03577333059262	-0.00130306068415569	-0.00180365706559592	0.00259983948934789	-0.00181674779164639	0.00260420161567576	-0.0063848956587144	0.00187992318450389
12	0.0342371852746416	-0.00884852012743173	-0.00142478795265986	0.00282587743287323	-0.00142418359196737	0.00282729615355769	-0.00546693695115908	0.00106309065320398
