# GHZ S RI R 50
0.2	0.00588545156622668	0.00148124181282702	0.00304726092644287	-0.000898290255989721	0.00305762791834803	-0.000891485479159729	-0.0141104990403583	0.00508680146296477
0.3	0.00618167730802654	-0.000508070971878675	0.00290270955848832	-0.00132162638541774	0.00289546944411293	-0.00130869058148812	-0.0133260578493451	0.00524652234595633
0.4	0.00593907071980929	-0.00220490180365475	0.00267072533680377	-0.00169311784522155	0.00267598758761545	-0.00170167592464219	-0.0127752870125954	0.00574571045333838
0.5	0.00508234311038486	-0.00355315372188119	0.00241176443565512	-0.00204918851900799	0.00242329194080884	-0.00206142392206395	-0.0123174400745414	0.00637067120926475
0.6	0.00420241242885454	-0.00440025612074065	0.00209938598421497	-0.00236342027333594	0.00209859824015478	-0.00237056535571858	-0.0116718141102123	0.00700953114678444
0.7	0.00308402871405807	-0.00510907929542536	0.00175216172293439	-0.00264078113610101	0.00175020698723626	-0.0026409792883681	-0.0112144633160979	0.00748451557946115
0.8	0.00186847156315919	-0.00550780460771944	0.00136686518097177	-0.00285761158881098	0.00135427382263447	-0.00286215385005738	-0.0108502330473303	0.00811364130586479
0.9	0.000572947931565802	-0.00560869407348218	0.000950226733108687	-0.00302062048098699	0.000951258673080148	-0.00303131079771573	-0.0104532058678173	0.00879668537541478
1	-0.000937629512748496	-0.00554811580460835	0.000525912135227595	-0.00312396880560113	0.000516058204826236	-0.00312470671070346	-0.0101011194371096	0.00954315926660751
1.1	-0.00246613897667843	-0.0047766213638887	7.04130773195297E-05	-0.00315240463952071	6.69049382719883E-05	-0.00317003838512565	-0.00957242450725559	0.0107019528090518
1.2	-0.00364379218068826	-0.00403287326568337	-0.00037108554193574	-0.00314135468917814	-0.000371896099574527	-0.00313928023405144	-0.00841358014501929	0.0117145605460996
1.3	-0.00486494358986781	-0.00340311056774414	-0.000797445259541267	-0.00305803753190271	-0.000800682016951354	-0.0030600402107143	-0.00664397261981421	0.0124124230490731
1.4	-0.00590956411522979	-0.00277248443833645	-0.00121807632883752	-0.00290998317953213	-0.00121686488225076	-0.00291551041447907	-0.00482064709599543	0.0121871615114678
1.5	-0.00654151636953943	-0.00167546398979204	-0.00161860026636468	-0.00271407915386966	-0.00161699111532716	-0.00272257009500119	-0.00355913835119397	0.0115812031180862
1.6	-0.00631431025043703	-0.000186868020629892	-0.00197808448989258	-0.00246168320843526	-0.00197829521066177	-0.00246691063823197	-0.00297233321645089	0.0112171818623014
1.7	-0.00569351852661655	0.00105578459994457	-0.00230571788082435	-0.00216551644307264	-0.00230668308706926	-0.00215926341255907	-0.00254555460270031	0.0111625807684522
1.8	-0.00485460418077741	0.00227136717511871	-0.00257630668180536	-0.00181479655036134	-0.00258725673788328	-0.00182042821868631	-0.00205829413513978	0.0112441863785699
1.9	-0.00380428560305117	0.00313684603104536	-0.00280138616368056	-0.00144471326160314	-0.00281381081487098	-0.00143857154195378	-0.00155343142174463	0.0113603469861304
2	-0.00284508801450478	0.00387805606890709	-0.0029764091781712	-0.00103775692309733	-0.00298601819372307	-0.0010330589711795	-0.00108813068937826	0.0116698229961917
2.1	-0.00142650669787295	0.00452562043586468	-0.00308990431485626	-0.000610770676510418	-0.00308582579303425	-0.000612757169445468	-0.000184188221856685	0.0118890599740216
2.2	0.000104987131572001	0.00464348674309011	-0.00314767816275387	-0.00017332697559353	-0.00315896443990685	-0.000176166102377163	0.000788829104378081	0.0118079792275483
2.3	0.00157592744817368	0.00426357771203273	-0.00314331730590749	0.000269372605035052	-0.00314301076110363	0.000262499411405782	0.00164895598512388	0.0115206609458217
2.4	0.00287036610784094	0.00347479360287034	-0.00307111547153323	0.000706897970250823	-0.00307364987612078	0.000702644887193431	0.00241847343974411	0.0112307850120882
2.5	0.00363653515738178	0.00233096433881789	-0.00293486891808287	0.00111804920586882	-0.00294574907684559	0.00112441002462661	0.00311305880676456	0.0109467601521185
2.6	0.00428586598201748	0.00139034944797903	-0.00276199703561191	0.00152100431880201	-0.00275843264936703	0.00150869965610374	0.00408757986034091	0.0106670540006268
2.7	0.00494990561923509	0.000200508759302355	-0.00251659919146508	0.0018921743612219	-0.00252187305124609	0.0018921804455521	0.00492397301725537	0.0100539909232195
2.8	0.00550783559333783	-0.00122529879077264	-0.00223430754193858	0.00221934463122453	-0.00222651249616114	0.0022291305911014	0.00553866432479544	0.00949996211305996
2.9	0.00585974699221614	-0.00295904361019422	-0.0019008790128526	0.00251924522610659	-0.00189717370183432	0.00251882285077766	0.00625611180775542	0.00910017091419409
3	0.00562729274049489	-0.00478870969909904	-0.00151550139875608	0.00275520042204144	-0.00153027510105344	0.00276127743295388	0.00711079698568048	0.00878671502525504
3.1	0.00528697962336106	-0.00648832886841961	-0.0011253091065776	0.00293234354847508	-0.00112066562197484	0.00294068272620006	0.00811950601974743	0.00821710056709685
3.2	0.00443088257148808	-0.00834481665697482	-0.000705604001815543	0.00306940898599742	-0.000707345965101482	0.0030687969002341	0.00873725540805093	0.0075284956753785
3.3	0.00309158132318506	-0.0101589123066483	-0.000268062840699102	0.00313961039201878	-0.000266410717704586	0.00313587597580123	0.00937289542086591	0.00681178686419292
3.4	0.00118180855925983	-0.0117077415312398	0.000178159842917463	0.0031343957296731	0.000171936437964296	0.00315093841330053	0.00995738976377586	0.00589979967749628
3.5	-0.0013282483213503	-0.0127905138212966	0.000599999669748058	0.00309200541427387	0.000605591185571072	0.00309208811826559	0.0102368856161898	0.00486850433699403
3.6	-0.00384257383746049	-0.0130507011895774	0.00102767756673598	0.00297318149709281	0.00103586326298275	0.0029728762971928	0.0105189996469106	0.00395609533863975
3.7	-0.00631184286125195	-0.0129697491392852	0.00143794860820342	0.00279337816910994	0.00142834660485146	0.00280702953325527	0.0106746578601691	0.00299869415519244
3.8	-0.00879965554319388	-0.0124228812169358	0.00181631899335303	0.00256731103865607	0.00181870689908801	0.00257646045530579	0.0106922781184565	0.00214288675567269
3.9	-0.0111331674818293	-0.0114870915132092	0.00216268298502069	0.00229489747188486	0.00215542313247378	0.00229310704637464	0.0106452288192659	0.0014017087771485
4	-0.0135278763084735	-0.0100231481773932	0.00244738032024078	0.00197418918391488	0.00245183133290076	0.00197176345782436	0.0106983975816325	0.000921927300114534
4.1	-0.0153164628399642	-0.00789545726133674	0.0027000963118629	0.00161562219622339	0.00269884256566773	0.00161635544522271	0.0111909974146768	0.000310523503385953
4.2	-0.0166740341147075	-0.00564660844992701	0.00290060207637608	0.00121486061143809	0.00290508452038052	0.00120615311143721	0.0115038523328161	-0.000607839022390907
4.3	-0.0176686712309715	-0.00328650431861642	0.00304463340223584	0.000802863472882199	0.00305107127558596	0.000795071600795298	0.0116329241611735	-0.00163490552828259
4.4	-0.0184011432946206	-0.000825729651770543	0.00312170046114678	0.000368828841143326	0.00312407947801496	0.000366576469898492	0.0115092300479292	-0.00260989954160529
4.5	-0.0190511654405365	0.00189660073154883	0.00314573175863218	-6.85774250490521E-05	0.00315110111268741	-7.19405493832731E-05	0.0113333842496266	-0.0033708564130729
4.6	-0.0190201011368492	0.00508620959518435	0.00310336473234508	-0.000512241125941088	0.00310456889046675	-0.000499317034577693	0.0113285582402022	-0.00427564707724417
4.7	-0.0181913520277845	0.00815679763786422	0.00299891864470364	-0.000931934922168681	0.00301423315584145	-0.000941530596674966	0.0110062651902122	-0.00532080649632021
4.8	-0.0167872696379757	0.0110012311541056	0.00283857399801074	-0.00134679404680983	0.00284706998388025	-0.00135287267545862	0.0105174407109339	-0.00617033393926726
4.9	-0.0146629822694193	0.013401649366615	0.00261865614953231	-0.00173174590688929	0.00262282089863456	-0.00172883091633799	0.010050701832624	-0.0068045430392923
5	-0.0123098155203048	0.0153294364117417	0.00235970273060406	-0.00208861010808406	0.00236332442195405	-0.00208593684221377	0.00988882375586221	-0.00720591733746698
5.1	-0.00910485931085062	0.0168883411567218	0.00204827379890385	-0.00240039187540263	0.00205057506812874	-0.00239902952980087	0.0100487045473512	-0.00794708247642894
5.2	-0.00575318775926171	0.0174233255158627	0.00169056331942082	-0.00265096893125874	0.00169228526460368	-0.0026561146532138	0.00988287232431528	-0.00881157789513513
5.3	-0.0025141293435195	0.0172315080748736	0.00130379565492177	-0.0028673522056242	0.00130692878989715	-0.00286528311115023	0.00963739277315513	-0.00946124787281311
5.4	0.000405056187981857	0.0163910431440635	0.000878547316333824	-0.00301607514006547	0.000895747503654829	-0.00302727593977585	0.00946907520833623	-0.0102283693920185
5.5	0.00266637489568243	0.0153733951633777	0.000463666120884394	-0.00311455779455697	0.000473740180615006	-0.00312398769885699	0.00916452507516521	-0.0110401838805261
5.6	0.00513813548939912	0.0142636157720604	2.49365078499031E-05	-0.00315067551737958	1.64048952954833E-05	-0.00315390650384522	0.00874718193975215	-0.0120494315127796
5.7	0.00731823179644846	0.0124626307069537	-0.000406602670221432	-0.003120919321871	-0.000423231889902792	-0.00312460147517685	0.0077734990647994	-0.0129084885072785
5.8	0.0090416052561252	0.0101944136030174	-0.000853499402160809	-0.00302655617185211	-0.000857026699397057	-0.00304056740829253	0.00667194500919842	-0.013597150431808
5.9	0.010148972603051	0.00747478844299714	-0.00125954917091979	-0.00288664363782987	-0.00126779124487796	-0.0028865680883373	0.00536338259809517	-0.0140737749138794
6	0.0100154040149821	0.00451459981388798	-0.00165813588465709	-0.00268006280918393	-0.00165457003431852	-0.00268022690116675	0.0038790615473314	-0.0140292593115296
6.1	0.00933420433648188	0.00225391027697643	-0.00201420489403835	-0.00242630908764938	-0.00201585012365999	-0.00242229987723836	0.00303942149161625	-0.0137397500378464
6.2	0.00832786757132777	0.000144617268889902	-0.00232853077773331	-0.00211274854870429	-0.00233223956739037	-0.00212464222430796	0.00230477056663459	-0.0136984735301256
6.3	0.00716304307489897	-0.00167374092581906	-0.00260741298641504	-0.00177736578264161	-0.00261655952486997	-0.00177161966624023	0.00169186552994288	-0.0137747412671834
6.4	0.00575759091724868	-0.00347797237596562	-0.00283422166128035	-0.00138562848761448	-0.0028244791804441	-0.00139053802479345	0.00118627782376806	-0.0139341579265098
6.5	0.00385373092279841	-0.00481357149832213	-0.0029915065158652	-0.000980269250706024	-0.0029993837132541	-0.000975781068134833	0.000901958263181058	-0.0141412985167738
6.6	0.00225230554570068	-0.00563866590528884	-0.00310077813702422	-0.000553485880365414	-0.00310241529200475	-0.000557470918517898	0.000645999622314408	-0.0148900543631525
6.7	0.000397601186923798	-0.00633017961343359	-0.00315125943677819	-0.000113962868893687	-0.00316012957443673	-0.000107668173889628	-0.000381209802876795	-0.0154760327183075
6.8	-0.00167723753343435	-0.00653197348773712	-0.00312935951050739	0.000328811912549338	-0.00314047268980682	0.000333875163183436	-0.00158596732336215	-0.015553449867705
6.9	-0.0039050017614918	-0.00633079595091004	-0.00305375974857996	0.000763191031089558	-0.00305675166955558	0.000765588062938691	-0.00269035062003373	-0.0153101142189647
7	-0.00644049289347447	-0.00523831046753147	-0.00291695596740594	0.00118580223873107	-0.00292981636516808	0.00118361131319923	-0.003518081396373	-0.014772098829611
7.1	-0.00808788059418523	-0.00321680958664095	-0.0027374720373194	0.00157586568525559	-0.00273379065692282	0.00158454521969077	-0.0040206499085474	-0.0145400033568793
7.2	-0.0091604310764513	-0.00120733361631578	-0.00247982510297025	0.00194419866891907	-0.00248636510546323	0.00194628950989983	-0.00482660892467007	-0.0143228077596457
7.3	-0.00985420948007355	0.00087157553605766	-0.00218349049672109	0.00226373306082371	-0.00219471970711887	0.00226881020366755	-0.00556196775257831	-0.0139852355577324
7.4	-0.0101651396610803	0.00275332174534666	-0.00184084620480064	0.00254771083333797	-0.00184772527840672	0.00256135712645568	-0.00637512660768637	-0.0137517698426811
7.5	-0.0107655337475947	0.00450977158040881	-0.00147304876528326	0.00278722438377697	-0.00146602992522349	0.00279462235402914	-0.00709708518238893	-0.0132236871814961
7.6	-0.0107964233905675	0.00696117964371184	-0.00106583101147534	0.00296486010869916	-0.00106721600329507	0.00296015727679321	-0.00726928329613565	-0.0129502516968536
7.7	-0.010289191857217	0.00913946540785383	-0.000636527698504252	0.00308597113488791	-0.000637872031407163	0.00308490988927152	-0.00792209223950667	-0.0133630403176695
7.8	-0.00903878525277388	0.0111850703588247	-0.000209595308248312	0.00313465196877065	-0.000217404086502641	0.00314113519632301	-0.00875815935792022	-0.0133245235557857
7.9	-0.0072334858515922	0.0127380485318156	0.000232947193734805	0.0031407831365036	0.000240904684588932	0.00314226755592953	-0.00942088730337412	-0.0129530183966982
8	-0.00516306169222707	0.0141993262107416	0.000674928090569741	0.00306696186809439	0.000675019610950373	0.00307186794937376	-0.00978169582789933	-0.0125603298226073
8.1	-0.00209995556008962	0.0151560529933322	0.00108588578693091	0.00294898350984636	0.00110506442200521	0.00295003338908053	-0.010119594752662	-0.0126619099970729
8.2	0.000948907974761977	0.015055013869189	0.00149163995948098	0.00276689210246686	0.00150088504840017	0.00275966530115334	-0.0109385165528015	-0.012546230286912
8.3	0.00376711352534361	0.0142609134878987	0.00186864187996954	0.00252605005507794	0.00186702986764902	0.00253962421525067	-0.0117512656265414	-0.0121452630559742
8.4	0.0061760027104456	0.0128486388057006	0.00220414524975447	0.00224642041192358	0.00220111047541537	0.00224620365833033	-0.0125751922562263	-0.0116077500565696
8.5	0.00776437982965308	0.0112857954672788	0.00248954433058525	0.00191485640855575	0.00248865448439752	0.00191804648952469	-0.0132628473938069	-0.0106909659940623
8.6	0.00962622981884367	0.00988739057128681	0.00273575297789731	0.00155230635043931	0.00274524448658974	0.00154572807178683	-0.0135142001944697	-0.0101933846868523
8.7	0.0113527292123515	0.0077126016607072	0.00292002209764837	0.00114759571838102	0.00292558963752169	0.00114830127356652	-0.0142049352154703	-0.00984074931085495
8.8	0.0126383107267575	0.00501336715066531	0.00305474344284319	0.000735467019984704	0.00306048668585342	0.0007266818310326	-0.0151235738977037	-0.0093089323143635
8.9	0.0133502051118828	0.00165207374144189	0.00313034662837338	0.000300936375305471	0.003129467711339	0.000298691028204584	-0.0159058843470455	-0.00833571503584996
9	0.0127532223529892	-0.00193452487232386	0.00313866033546697	-0.000143389176480122	0.00314183356482037	-0.000139297419305713	-0.0161971658096917	-0.00690962221172201
9.1	0.0116433066947593	-0.00510035471686901	0.00308926241293899	-0.000585148592457314	0.00309219564692722	-0.000572263604865676	-0.0158258511652165	-0.00590698444996927
9.2	0.00969831934792693	-0.00814528759487133	0.00297743987237863	-0.00100164905661007	0.00298508352797801	-0.00100455249572363	-0.0156336188091892	-0.00512815104191358
9.3	0.00705758095872757	-0.0106252443400529	0.00280719763269502	-0.00140570389499634	0.00280644955234955	-0.00141068862573761	-0.0152496904308543	-0.00429452567940175
9.4	0.00382843830635516	-0.0125701312736768	0.00258335279829314	-0.00179498393556289	0.00258988667499205	-0.00178741507266836	-0.0147813380453225	-0.00367858932997456
9.5	-0.00011373874128827	-0.0132755214979177	0.00230600088800584	-0.00212775892681366	0.0023133990623275	-0.00212913239414835	-0.0141903074470712	-0.00302254339676712
9.6	-0.00358458070100297	-0.0129601354625795	0.00198845780341519	-0.00242864164312474	0.00198879044622557	-0.00242766229272988	-0.0138141834810389	-0.00306398914465155
9.7	-0.00695607949802019	-0.0121840041072557	0.00162139324361945	-0.00267744039244956	0.00162689540544934	-0.00268475200888235	-0.0140604581912837	-0.00290032223163168
9.8	-0.0102052953479788	-0.0108255166129077	0.00123642058627218	-0.00288474661978736	0.00124213452329261	-0.00287628153579763	-0.014423939742156	-0.00237689388133134
9.9	-0.0132830781651163	-0.00893762405141361	0.000831128359844863	-0.0030222082496115	0.00082381617000177	-0.00302096200751967	-0.0148777116892282	-0.00147325638385936
10	-0.0165279695274102	-0.00620181590736117	0.00040223105893621	-0.00310905553288094	0.000394726545481356	-0.00312144763507648	-0.0148951722081326	-0.000177569374593576
10.1	-0.0186708165843662	-0.00236921798902631	-3.84883833450176E-05	-0.00313996874142862	-4.86827629820533E-05	-0.00313456350666396	-0.0143339295323032	0.000540814181818372
10.2	-0.0198755485877187	0.00160763216035926	-0.000483828220521502	-0.00310204287600353	-0.000487219960013436	-0.00309926220077689	-0.0140656083784716	0.00108781527518976
10.3	-0.0202387987542268	0.00572407651048837	-0.000915016830821649	-0.00299493998805221	-0.00090696952882734	-0.00300400872125847	-0.0137786904040071	0.00173807981850597
10.4	-0.0198472245125861	0.00963088158082711	-0.00131013277007915	-0.00283904727571062	-0.001308455893731	-0.00284522852527131	-0.0132704811125578	0.00233849440732804
10.5	-0.0192229509263746	0.0137625915547253	-0.00169921484833815	-0.00264067685092769	-0.00169609659431653	-0.00262771961919796	-0.0124383483343454	0.00303328653288584
10.6	-0.0173141011729719	0.0181414192661356	-0.00205056203638209	-0.00237048814683198	-0.00204838920222073	-0.00237430385730178	-0.0113961088937259	0.00299376524022789
10.7	-0.0144642934402378	0.0221225044403993	-0.00236342969896098	-0.00206850804344529	-0.00235993684322095	-0.00206325014072804	-0.0108006108718581	0.00287738467445146
10.8	-0.0106420370502345	0.0255491906957057	-0.00263014767879295	-0.00170944121760057	-0.00262497973090037	-0.00171834503159093	-0.0104197055970624	0.00277114757085726
10.9	-0.00619161818067428	0.0280273796505178	-0.00283649642484074	-0.00133706926016649	-0.00284166561936307	-0.0013363343484041	-0.0102819343024501	0.00278506977651663
11	-0.00153942046862797	0.0299220346108092	-0.00299496530492373	-0.00092182255055829	-0.00299980198175704	-0.000928534482053177	-0.00986974459659359	0.00321000137943079
11.1	0.00415791881759598	0.0311669892396616	-0.00310124326688736	-0.000498266820826334	-0.00309042087811977	-0.000495430141188626	-0.00913929689335195	0.00300499974743018
11.2	0.0102434039262438	0.0308238740691542	-0.0031295095814181	-6.32908552416647E-05	-0.00313663838317994	-6.81030998932087E-05	-0.0088235882878138	0.00274292811264389
11.3	0.01633473368268	0.0289494189988387	-0.00310259978944792	0.000382657925986876	-0.00311410078802135	0.000372665281208287	-0.00843193157027002	0.00268147706008963
11.4	0.0217004444609917	0.0256585652801413	-0.00302946291822125	0.000808286362306152	-0.00302456579519414	0.00081582169421378	-0.00813715998756973	0.0026536056792083
11.5	0.0258197967159113	0.02161985002899	-0.00288598360801701	0.00122176984463716	-0.0028887481756701	0.00123200363471429	-0.00768232564477725	0.00268155313169623
11.6	0.0296953931262138	0.0169998415099099	-0.0026930588535984	0.00160873967527514	-0.00269304109575965	0.00161166718400712	-0.00703503190061232	0.00199300461532513
11.7	0.0326654889763882	0.0112971773856186	-0.00243424269263816	0.00196156004866391	-0.0024348106464067	0.00197012873651739	-0.00696673735663669	0.00124968139452278
11.8	0.0343918784899404	0.00493792558318438	-0.00214128950689222	0.00229246540011512	-0.00214538969577014	0.00229415295205455	-0.00705932287120846	0.000881899716385533
11.9	0.0347714768821938	-0.00190981244134294	-0.00179424226706857	0.00256763458842945	-0.00180721596363682	0.00257190889527711	-0.00693211225003831	0.00112228345160943
12	0.0329590694356957	-0.00805827801359571	-0.00142412096480357	0.00278945913706346	-0.00142352995455672	0.00279086616254338	-0.0064055237882968	0.00153523138059985
