# GHZ S RI R 50
0.2	0.00563164680696712	0.00012470375560563	0.003055190725525	-0.000895937916707731	0.00306557073207491	-0.00088910359264863	-0.0144006632302096	0.00372255508118266
0.3	0.00605353243443485	-0.00142267907105194	0.00291302995710714	-0.00132007673571061	0.00290574691359665	-0.00130711835055663	-0.013507298191293	0.00432546390971185
0.4	0.00582449717052177	-0.00254263985561117	0.00268357489861996	-0.00169377855807845	0.00268887290761801	-0.00170235644543479	-0.012967778868585	0.00540958843848636
0.5	0.00617344547944785	-0.00405651907352544	0.00242499857344499	-0.00205484498546059	0.00243659261822201	-0.00206711802803993	-0.0113334957881039	0.00590430155078203
0.6	0.00434297584205845	-0.00619342536334644	0.00211071144444882	-0.00237049516727132	0.00210992902641681	-0.0023776701443366	-0.0116362248619723	0.00529503456790281
0.7	0.00228263418765225	-0.00649603109924842	0.00176368734874805	-0.00265016818430807	0.00176172413419468	-0.00265036994662935	-0.0121102075821109	0.00621113092349233
0.8	0.000573103731935553	-0.00642971228380052	0.00137726874598686	-0.00287044869491106	0.00136461902660586	-0.00287502928638929	-0.0122165553767808	0.00733653305205777
0.9	-0.00133993848989302	-0.00569293782817052	0.000957240913004481	-0.00303680237268951	0.000958284764363369	-0.00304755130980132	-0.0123933656605534	0.00887083121608655
1	-0.00163418049435717	-0.00392118218603946	0.000528710689297553	-0.00313915539327758	0.000518808786488628	-0.00313989763691936	-0.0107997763059435	0.0112844692029108
1.1	-0.00202694068941497	-0.00492569089478927	7.34705179923347E-05	-0.00316897952994827	6.99588911557145E-05	-0.00318670931585585	-0.00919093073239424	0.0106605230647993
1.2	-0.0040853227541306	-0.00499957461757126	-0.000371846515438109	-0.00316051323538808	-0.000372662949705841	-0.00315842662651294	-0.00892329224357455	0.0108749225479509
1.3	-0.00605696371078895	-0.00486795713342995	-0.000802912931812049	-0.00307732620222293	-0.000806170486835237	-0.00307934114923456	-0.00790811906400664	0.0111181726702393
1.4	-0.0078192855319743	-0.00404593842708961	-0.001227313838733	-0.00292702075186176	-0.00122609839066025	-0.00293258251862632	-0.00677387567480231	0.0111323821160088
1.5	-0.00756927410670316	-0.00293867615598655	-0.00162797929794848	-0.00273116589494202	-0.00162635835645005	-0.00273970882065317	-0.0046363074431977	0.0105445709860401
1.6	-0.00843030714587411	-0.00167481242504936	-0.00199430191298617	-0.00247983636888505	-0.00199451635984554	-0.0024851039528438	-0.00507332422214534	0.0100389307235155
1.7	-0.00785635977273229	0.000783711346672126	-0.00232703675804476	-0.00217903141464692	-0.0023280001523834	-0.00217272792734297	-0.00462791481039842	0.0111756089249312
1.8	-0.006622150149884	0.00276798401837309	-0.00259989706140477	-0.00182334442955488	-0.00261094302557806	-0.00182899643678294	-0.00371816700904312	0.0119823099651423
1.9	-0.00497454824844013	0.00457288008998728	-0.00282585227714084	-0.0014498745342337	-0.00283835905578896	-0.00144365971236533	-0.00261410632659562	0.0129910852249929
2	-0.00183973224471565	0.0051900253544702	-0.00300617156064489	-0.00103990898027576	-0.00301585683135813	-0.00103514441209174	-1.65532712209117E-05	0.0131539501535838
2.1	-0.000856031333713032	0.0039839009316316	-0.00312038097244081	-0.000602054092113205	-0.00311627504498973	-0.000604077100908923	0.000427321873957378	0.0115570372152853
2.2	-0.000121294707816774	0.0041074041949268	-0.00317453976140416	-0.000158377723643103	-0.00318593389257165	-0.000161181537924955	0.000623541792854981	0.0115123182323243
2.3	0.00089086806627421	0.00396463025286611	-0.00316722762960219	0.000289040120918526	-0.00316695685055947	0.000282109661847716	0.00106412726519841	0.011471525008969
2.4	0.0017495030125457	0.00397129243115352	-0.00309293121110589	0.000731817417077131	-0.00309551337792055	0.000727543692813183	0.00144470303446347	0.0119425381848097
2.5	0.00405257333484788	0.00390350019139605	-0.00295008559260492	0.00115232260839313	-0.00296100338642515	0.00115882912800359	0.00367818587920047	0.0126595168007328
2.6	0.00538231387577033	0.001333357204937	-0.00276620814673535	0.00155508505935054	-0.00276272957880532	0.00154267039547491	0.00527536254394428	0.0107385212595298
2.7	0.00559038895733267	-0.000489031412452993	-0.00251535197410859	0.00192558214883361	-0.00252065773957685	0.00192563425148072	0.00562597193026439	0.00952291066456657
2.8	0.00559110937473756	-0.00219391098719488	-0.00222699557000245	0.0022532584867854	-0.00221906342663432	0.00226303028226917	0.00568563192187363	0.00872478342774793
2.9	0.00551104096390231	-0.003489367147931	-0.00188479920337118	0.00255316008721248	-0.00188107792986333	0.00255269633112518	0.00598245543634792	0.00878962659221348
3	0.00628274628590818	-0.00538892852857424	-0.00148928145020649	0.00278067797829949	-0.00150403253359148	0.0027869393366139	0.00782677376457434	0.00839622634957607
3.1	0.00497951272126129	-0.00817142790773077	-0.00109967400691523	0.00295176290916502	-0.00109493527967219	0.00296008016854165	0.00785866213713817	0.00675854575256804
3.2	0.00330497992996269	-0.0095988958441726	-0.000675914062874775	0.00308574871375761	-0.000677667489753547	0.00308515285463864	0.00771935864556137	0.00658424697409396
3.3	0.00152976190184024	-0.0108630085776198	-0.000233917251021381	0.00314967394981719	-0.000232302728980752	0.00314591280581924	0.00799436282206177	0.00640786763968407
3.4	-0.000550762106947131	-0.0113960196661872	0.000214095943256735	0.00313469230325703	0.000208056872481065	0.00315131838157725	0.00845820261730713	0.0064455096089664
3.5	-0.00150442344003359	-0.0121051918002679	0.000629664154818331	0.0030859939470866	0.000635256020845521	0.00308602291360213	0.0102615865165626	0.00572879303201003
3.6	-0.00452719140232827	-0.0136865831812642	0.00105917721643299	0.00296619152877155	0.00106736938888742	0.00296580256077174	0.0100411816040232	0.00353348582960246
3.7	-0.00783400156658588	-0.0131692043722991	0.00146958653724631	0.00277837867066053	0.00146013309421123	0.00279214195879716	0.00941335523128171	0.00297350217030214
3.8	-0.0106209872777828	-0.0118572592255632	0.0018438877368103	0.00254501809850619	0.00184637684953861	0.00255413402690355	0.00916047737118889	0.00280193126602437
3.9	-0.0127088378020673	-0.00969659455848308	0.00218356324971565	0.00226886293527004	0.00217629528280493	0.00226715122863433	0.00933896104416834	0.00318351246439729
4	-0.0129089794880199	-0.00798233387027022	0.00246804139542601	0.00194846054229502	0.00247246684964299	0.00194598816246672	0.011516733379981	0.00286437930286091
4.1	-0.0148106719692661	-0.00760422688104888	0.0027170740829025	0.00157958824386484	0.00271583114096378	0.00158033637037838	0.0117749430186051	0.000457671222686814
4.2	-0.0168126785344452	-0.00542957905633064	0.00290744142717389	0.00117515507545727	0.00291180227744134	0.00116641661220993	0.0113567205107003	-0.0005162483709619
4.3	-0.0181122789853937	-0.00280221075810649	0.00304311898414811	0.000763272817481766	0.0030494394453941	0.000755432068082099	0.0111231099167353	-0.00126054525630997
4.4	-0.0189035225978442	0.000497001177518165	0.00311493476657316	0.000330332023872383	0.00311727845477029	0.000328059370297334	0.0109075785090746	-0.00142194158885468
4.5	-0.0175552067569073	0.0035920179179052	0.0031310818681363	-0.000112657748836317	0.00313638042257848	-0.000116081993620761	0.0125694656040333	-0.00190834936101289
4.6	-0.0175448756583538	0.00476142772429057	0.00307331269981726	-0.000549933637837419	0.00307468077522343	-0.000537122268493429	0.0123147875566866	-0.00468569190689811
4.7	-0.017488940053127	0.00747301414895586	0.00296277346420226	-0.000960685073792344	0.00297784458948615	-0.000970387545756826	0.0111623883341529	-0.00591617342740574
4.8	-0.0166250993057239	0.0102943996505276	0.00279799250237599	-0.00136830543368207	0.00280634302290943	-0.00137443056192961	0.0101409431840911	-0.00665728720582688
4.9	-0.0148890607958924	0.0133057866444478	0.00257261243977882	-0.0017471344048172	0.00257677300139679	-0.00174429791173566	0.00928662188118632	-0.00660362101601766
5	-0.0111135390823868	0.0151320011498952	0.00230524505111742	-0.00208942097309597	0.00230885162804924	-0.00208682402389698	0.0104610027906723	-0.00696154604341901
5.1	-0.00911594636562507	0.0152676413896487	0.00200084149173382	-0.00238717768686011	0.00200312485097541	-0.00238585303189512	0.00952609385603084	-0.0089235884900264
5.2	-0.00673203344452301	0.0164734622007725	0.00164738926069814	-0.00263105177300617	0.00164904724627775	-0.0026361460901624	0.00853510604521413	-0.00905651324551918
5.3	-0.00366424623690425	0.0170552164693422	0.00126376976715743	-0.00283917639461929	0.00126687718313953	-0.00283715967343967	0.00822041345741155	-0.00893290744662842
5.4	-0.000390267680882273	0.0172718441598415	0.000844051282204457	-0.00297694636356446	0.00086091388425955	-0.00298810024142026	0.00844950517664463	-0.00865594894854601
5.5	0.00423300823756072	0.0156926362678097	0.000445238205005518	-0.00306795118401567	0.000455122070110717	-0.0030772712690482	0.0105209125711808	-0.010015786150086
5.6	0.00519822765555791	0.0124201445939556	1.39530880381584E-05	-0.00310799333619146	5.52636478586935E-06	-0.00311115164113179	0.00860598550650575	-0.0131124955387021
5.7	0.00587939330888382	0.0111901798998087	-0.000411616421019299	-0.00307563547452548	-0.000428024465475098	-0.00307920867048976	0.00625291702394163	-0.0133177524652034
5.8	0.00683370147544134	0.00987435257270337	-0.000848554510696343	-0.00297950334851975	-0.000852065202366557	-0.00299329783729845	0.0045575835707497	-0.0130621274007728
5.9	0.00749627135007083	0.00902773688752079	-0.00124221875391789	-0.00284234063993623	-0.00125033638246337	-0.00284226143235745	0.00297791019138374	-0.0118099097976279
6	0.010347792468154	0.00792176434506958	-0.00163667245976163	-0.00264657181994245	-0.00163315157973939	-0.00264673312659771	0.00442551900885991	-0.0102042183855112
6.1	0.0108317610730308	0.00325679752900335	-0.0019901009775586	-0.00239069992505088	-0.0019917185427622	-0.00238674293254776	0.0045496693573684	-0.0123345974051019
6.2	0.00940338476792371	0.000331968468162506	-0.00229463351193903	-0.00208114699003226	-0.00229829001081484	-0.00209286463687068	0.00331689526455945	-0.0130637450428285
6.3	0.00772056271354808	-0.00191519524928523	-0.00256649099286207	-0.00175432440483878	-0.00257550920795845	-0.00174867511644598	0.00217300650558396	-0.0135068954524816
6.4	0.00599393689143477	-0.00308371037392129	-0.00279207951807157	-0.00137303476957763	-0.00278245983768777	-0.00137785456038175	0.00134825909555871	-0.0130241130806282
6.5	0.0058130104602381	-0.005361044026798	-0.00294953661007178	-0.000968267631940469	-0.00295730703023269	-0.000963845803747881	0.00268556505442181	-0.0141179382919025
6.6	0.00215656379735853	-0.0074864836604323	-0.00304900828821438	-0.000551735933254396	-0.00305060946412608	-0.00055565993618798	0.00044101610152806	-0.0159890787184883
6.7	-0.000507812411384382	-0.0072376949189825	-0.00310063495256791	-0.000126088047828169	-0.00310939185265621	-0.000119932700842182	-0.00126937435510646	-0.015602632399477
6.8	-0.00284953987314742	-0.00678258919200187	-0.00308384892698412	0.000306868400847946	-0.0030948216164631	0.000311794850894406	-0.00265542617858623	-0.0150589281806794
6.9	-0.00497123371202382	-0.0050857905777655	-0.00301262529650573	0.000736011290390269	-0.0030155855067627	0.000738357329918152	-0.00365291787019544	-0.0133957126997998
7	-0.00421578185695972	-0.0042493936551504	-0.0028736016682668	0.00114693772287611	-0.00288622456368567	0.0011447045630635	-0.00133944849989289	-0.0131134925681771
7.1	-0.00726056190397346	-0.00521300741808755	-0.00270866607896889	0.00152318374024874	-0.0027051303965896	0.0015317589157365	-0.0032363000504125	-0.0156701432093567
7.2	-0.0100156974593151	-0.00294628547055507	-0.00246421356605706	0.00188903375797689	-0.0024706798432498	0.0018910237517765	-0.00557434661971262	-0.015080453667791
7.3	-0.0117759976366434	-0.000217055371450866	-0.00217783322920691	0.00220715406045787	-0.00218895985926933	0.00221203342544669	-0.00717782125106119	-0.0140700679825443
7.4	-0.0130676162962881	0.00354822691236917	-0.00184469558160541	0.00248736249300792	-0.00185163952792271	0.00250072202254732	-0.00881279968552365	-0.0119689619310615
7.5	-0.0107783058255775	0.00736900375019588	-0.00149812985244786	0.00272492479521073	-0.00149132790019541	0.00273233519215386	-0.00652608270812928	-0.00965496151407457
7.6	-0.01026262141397	0.00748054471930202	-0.00110333155138342	0.0029170347237393	-0.00110462551026095	0.00291235750889639	-0.0061219055695809	-0.0119177670904111
7.7	-0.0101999097338136	0.00957594590251243	-0.000680009181687568	0.00304631580501913	-0.000681323651341035	0.00304524309515084	-0.00735162483936933	-0.0124546603867684
7.8	-0.00905362189327565	0.0117603011708773	-0.000260397203386776	0.00310267071141618	-0.00026824409760752	0.00310896378913549	-0.00830846539199364	-0.0123348032946854
7.9	-0.00676774790978569	0.0140612715614524	0.000172178348711805	0.00312004837981648	0.000180044395528246	0.00312167018118114	-0.00840782106033941	-0.0114062603167772
8	-0.00221848951579145	0.013709278404113	0.000614332239847751	0.00306840196501349	0.000614330483082454	0.00307329163124932	-0.00667017249315191	-0.0126680481691361
8.1	-0.00157989423433139	0.012550705205433	0.00103259030045492	0.00295646521193971	0.0010516818210933	0.00295783228293957	-0.00945196327959214	-0.0148109113989808
8.2	-2.47511655565323E-05	0.0131678914481668	0.00143810856079639	0.00278270247417555	0.00144744545005139	0.00277566273371198	-0.011637012071944	-0.0138940597919344
8.3	0.00201394402842867	0.0132286015510493	0.00181763049828326	0.00255398387454794	0.00181577359325734	0.00256749442964724	-0.0131181826928016	-0.0126949535631346
8.4	0.00418307007853398	0.0136385084123058	0.00216233463060953	0.00228758017049205	0.00215930380348172	0.00228730683484527	-0.0141732745901109	-0.0105138274880205
8.5	0.00901316986825801	0.0123264344801638	0.00246221068565256	0.00195542304332718	0.00246127038477894	0.00195860240685555	-0.0118681306783469	-0.00937254149024179
8.6	0.00972555785573728	0.00811765909618228	0.00270788855118279	0.00159691430446405	0.00271748325646519	0.00159049923649313	-0.0132446280173396	-0.0115048464615097
8.7	0.00981752976446316	0.00630372880164152	0.00290163967934111	0.00120091176985656	0.00290719879481614	0.0012017178507777	-0.0154722007478118	-0.0107850677337902
8.8	0.0101387085031201	0.00446368318689219	0.0030495009394842	0.000792172546385588	0.0030554167041851	0.000783467510160194	-0.0172722012393428	-0.0094504295742286
8.9	0.0103149453950052	0.00303474373160252	0.00313741886378511	0.000353516464769287	0.00313657345925579	0.000351248060054535	-0.0185546724968196	-0.00667340221319927
9	0.0125525116189319	0.000702252166494547	0.00314593830206596	-9.14691813210576E-05	0.0031490485032475	-8.73183238537759E-05	-0.0160636938707673	-0.00415207059166405
9.1	0.0114885121153344	-0.00407547561784111	0.00311296602295387	-0.000527738172185076	0.00311566177927992	-0.000514744790067542	-0.0158349674033841	-0.00485878612015737
9.2	0.00958841714366446	-0.00688306949807083	0.00301537929439937	-0.000952472347808289	0.00302312655249909	-0.000955251684402662	-0.0157638509653836	-0.00381696363081202
9.3	0.00737419299334923	-0.00945736344932746	0.00285319976653635	-0.00136693530215315	0.00285253376454662	-0.00137197094948406	-0.0150827490936838	-0.00301648070775525
9.4	0.0046409681385591	-0.0108834338066008	0.0026326000191936	-0.0017634177864509	0.00263905050112579	-0.00175568274306119	-0.0142587446022808	-0.00183515909105367
9.5	0.00315775459359524	-0.0133135761749881	0.00236948943410281	-0.00209954475987301	0.00237698043441695	-0.00210077987014884	-0.0114843472660282	-0.00280983284757158
9.6	-0.00261638126368442	-0.0154672557721977	0.00205905396942835	-0.00242315717367679	0.00205937277565884	-0.00242215903432959	-0.013464765050183	-0.00492375078013556
9.7	-0.0076255447681396	-0.01421358530379	0.00168828431542198	-0.00268718357853728	0.00169398390026056	-0.00269450389372057	-0.015154250403016	-0.00404603995213264
9.8	-0.0118390850803981	-0.012100229116226	0.00130019011810009	-0.00290596166842607	0.00130584974696119	-0.00289728474275998	-0.0162483513202151	-0.00268789274290982
9.9	-0.0153974144101711	-0.00846770277057131	0.000894543436907464	-0.00305494323013255	0.000887097525735919	-0.00305380014753576	-0.0169523039565921	-0.000162947246373978
10	-0.0158015662300374	-0.00532508056088745	0.000457668037402674	-0.00316561629935247	0.000450200858055419	-0.00317837248388279	-0.0141493951311174	0.0014420639130844
10.1	-0.0189082674401308	-0.0037172008522855	-3.88736860979262E-06	-0.00320276860662501	-1.43451096638903E-05	-0.00319737083166812	-0.0145078254429792	-1.47153266857972E-05
10.2	-0.0213763063825749	0.000616181797888996	-0.000460758293416674	-0.00316808083236453	-0.000464245884815183	-0.00316528113503581	-0.0153644638762372	0.000867882474479795
10.3	-0.0225090245311821	0.00555084697949164	-0.000904146245576532	-0.00306606248216329	-0.000895842031361047	-0.00307523887473737	-0.015705582403763	0.00221171417988375
10.4	-0.0222356073054368	0.0114279743956258	-0.00131653855891279	-0.00291609116320319	-0.0013147704075071	-0.00292240181763175	-0.0152438328884795	0.00450547784366911
10.5	-0.0184413033799623	0.0159084315791869	-0.00173083380444767	-0.00270763793990601	-0.00172768243938908	-0.00269436817563332	-0.0114966956390186	0.00526980960245507
10.6	-0.0168864342984951	0.0184059361964468	-0.00208627201328445	-0.00242514813567891	-0.0020840436702901	-0.00242903654587178	-0.0110284228927287	0.00339022762024334
10.7	-0.0143443056801445	0.0222252396175465	-0.00240818217302712	-0.00211844786948015	-0.00240462885909423	-0.00211306951561168	-0.0108849737660305	0.0031393882281815
10.8	-0.0110292281302376	0.0255151739115418	-0.00268630057217419	-0.00175001509186462	-0.00268100892452302	-0.00175910967440088	-0.0111508725881113	0.00295240689263698
10.9	-0.00676755446188805	0.0291434502115177	-0.00290157713958227	-0.00136082172325418	-0.00290685860119565	-0.00136006031542837	-0.0112828886503122	0.00426417033702917
11	0.000689979797248809	0.0304812645997558	-0.00305149805237186	-0.000930772489482077	-0.00305643948823839	-0.000937593324880966	-0.00825810969486498	0.00431824801169563
11.1	0.00470934598686308	0.0293741010664306	-0.00316280412601545	-0.000505474254912417	-0.00315176598360111	-0.000502590778536309	-0.00919464212298781	0.0019872268858523
11.2	0.00941355217189413	0.029450649052532	-0.00319508032374491	-5.61842606715785E-05	-0.00320237106438102	-6.10778695288003E-05	-0.0101678088322028	0.00231601054793906
11.3	0.0146489229071509	0.0285016318896835	-0.00316460814643304	0.000405578701091701	-0.00317639433424347	0.000395436135080775	-0.0107593318409427	0.00316940548396334
11.4	0.0197615361063583	0.0269477488490964	-0.00308075283744687	0.000841650119735138	-0.00307571918500645	0.00084929552234651	-0.0105814765248842	0.00493001280752165
11.5	0.026757369270996	0.0228186805541852	-0.00293705082460731	0.0012547854620503	-0.00293983395989563	0.00126522410420812	-0.00703481816178523	0.00469373242181777
11.6	0.0293026591280526	0.0161631822065873	-0.00274161193544709	0.00166102757768172	-0.00274157513551611	0.00166401889669075	-0.0078762793227904	0.0021735170798003
11.7	0.0310935377481353	0.0112311719677443	-0.00246752901033226	0.00202445697091272	-0.00246803185238282	0.00203320997194789	-0.00880792170634928	0.00232016666796291
11.8	0.0324574551445385	0.00613151143496503	-0.00215999118466307	0.00235912818486872	-0.00216415460772342	0.00236089042449118	-0.00907844066100476	0.0031652446915246
11.9	0.0339720605205921	0.00158625821891475	-0.00180400525387921	0.0026344997578539	-0.00181718777580668	0.00263898196959141	-0.00790898677797331	0.00539692356654907
12	0.0365552040558417	-0.00565176473188709	-0.00142289895542011	0.00286958215272885	-0.00142227772793577	0.00287101390707364	-0.00334756454877986	0.00479381352407623
