# GHZ S RI R 50
0.2	0.00578851228681074	0.000881266472126763	0.00305094372674869	-0.000897079073353491	0.00306131640959665	-0.000890260274398854	-0.0142146402907938	0.00449159666847234
0.3	0.00614015751240997	-0.000935390375637994	0.00290756523169793	-0.00132075040106001	0.00290030451545191	-0.00130780452315309	-0.013384269863609	0.0048241749930321
0.4	0.00590422649610909	-0.00238349144494548	0.00267682014938914	-0.0016932698098697	0.0026820995861927	-0.00170183682381534	-0.0128435823684271	0.00557459407515911
0.5	0.00559083283500751	-0.00385582141541662	0.00241805066520607	-0.00205163606449401	0.00242960991737999	-0.00206388808319108	-0.0118729081161802	0.00609631484842326
0.6	0.00422237979184707	-0.00528677850881538	0.00210493472501741	-0.00236649682362774	0.00210415024788353	-0.00237365595846699	-0.011722226150252	0.00619602763556687
0.7	0.00266328745818442	-0.0057988737724	0.00175790433725333	-0.00264502261544261	0.00175594561588057	-0.00264522269228457	-0.0116903419800775	0.00690343036555932
0.8	0.0012065087274171	-0.0059825125676724	0.00137213826290897	-0.00286354546345052	0.00135951973180237	-0.0028681073939803	-0.011539829712871	0.00777257718562949
0.9	-0.0003839612125462	-0.00568647311288368	0.000953968945349575	-0.0030281844762553	0.000955007991166892	-0.00303890251978271	-0.0113948205389292	0.00885430437056372
1	-0.00133140415507382	-0.00486661783006591	0.000527801993582191	-0.00313121421053493	0.000517925016800745	-0.00313195590848698	-0.0104649888771907	0.0103067031356712
1.1	-0.00241523411647777	-0.0049082207524409	7.23225108534543E-05	-0.00316051437821083	6.88149666899846E-05	-0.00317819562582594	-0.0095490227785804	0.0106403090236437
1.2	-0.00401099189640349	-0.00451068829391354	-0.000371048961687908	-0.003150739455418	-0.000371862652358286	-0.00314865918240056	-0.00883990568487663	0.0113232043460542
1.3	-0.00556384493402742	-0.00410054117978761	-0.000799665720559677	-0.00306754475254067	-0.0008029123153579	-0.0030695538725612	-0.0074256089147144	0.0118452551350296
1.4	-0.00690438409063921	-0.00340341716240941	-0.00122210823637435	-0.00291854754684154	-0.00122089388058742	-0.00292409150967572	-0.00588327111340067	0.0117426628862976
1.5	-0.00713391428314226	-0.00233200896216127	-0.00162291590938125	-0.002722795692235	-0.00162129978375906	-0.0027313123020216	-0.00421369552137381	0.011134548875507
1.6	-0.00743233404865208	-0.000909672569541432	-0.00198572472584728	-0.00247079751483348	-0.00198593664839884	-0.00247604461058195	-0.00409788762056745	0.0107910965552331
1.7	-0.00681186853454826	0.000922674079664425	-0.00231580311201621	-0.00217249996672546	-0.00231676843458952	-0.00216622239952784	-0.00359985595185633	0.01131029574628
1.8	-0.00576979748636616	0.00251563444932741	-0.00258760401648248	-0.00181948264623461	-0.00259860032255867	-0.0018251263478586	-0.00287528000447444	0.0117252553724401
1.9	-0.00441115245958869	0.00382889610610813	-0.00281329969778399	-0.00144776242610969	-0.00282576623657647	-0.00144158650897847	-0.00205682320186339	0.0122373051843847
2	-0.00244068909928924	0.00448570141419	-0.00299087323047698	-0.0010391378891504	-0.00300052011275659	-0.00103440836284908	-0.000637563519589459	0.0124303830985617
2.1	-0.00122148557281202	0.00431060298956394	-0.0031046044658624	-0.000607115856145002	-0.00310051224710168	-0.000609119331295433	3.01541815461401E-05	0.0118802615175985
2.2	-1.80961845980493E-05	0.00441816168126545	-0.0031608567499832	-0.000166772613850896	-0.00317219539365602	-0.000169597242536965	0.000700954924141163	0.0118306414830458
2.3	0.00124814117546524	0.00411350728652284	-0.00315526734760569	0.000278272517329091	-0.00315497666783223	0.000271370966163142	0.00140422409529281	0.0116286275019395
2.4	0.00233379318747041	0.003665578747169	-0.00308210112118951	0.000718468622846854	-0.00308465811462345	0.00071420467524081	0.00202155725257272	0.0116401005007417
2.5	0.00377426654227222	0.00295566615457792	-0.00294266086388854	0.00113395416830378	-0.00295356137917479	0.00114038308283042	0.00337725243307892	0.0116959061788801
2.6	0.00463424414900499	0.00129538263474511	-0.00276493247164741	0.00153691276210367	-0.00276140535854063	0.00152455396620457	0.00448050940817044	0.0106864842274247
2.7	0.00505492637035799	-0.000104655246505104	-0.00251698721373942	0.00190805630824505	-0.00252227755579697	0.00190808328362548	0.00503149995782596	0.00989895840013249
2.8	0.00538720118125886	-0.00156506749740453	-0.00223178220981884	0.00223561384042885	-0.00222392182149515	0.00224539688475618	0.00541099755230341	0.00935162108455251
2.9	0.00564564114001519	-0.00305247612143719	-0.00189425562553189	0.00253557434962813	-0.00189054171844312	0.00253513300875092	0.0060283468115112	0.00922683200632646
3	0.00594814729931578	-0.0049645109845918	-0.00150443204322883	0.00276790389606578	-0.00151920239972762	0.00277406644118608	0.00738128013669369	0.00884300114313009
3.1	0.00521255875768994	-0.00718461388958931	-0.00111416444919092	0.00294282786916611	-0.0011094747978436	0.00295116149797707	0.00798672372576615	0.00782007235232113
3.2	0.00403171801053339	-0.0089187822015649	-0.000692069088614603	0.00307861412618604	-0.000693817301035872	0.00307800932272955	0.00833855574474763	0.00733483590482287
3.3	0.0024821782639565	-0.0105663000394907	-0.000252063559696882	0.00314590678996891	-0.000250428388495936	0.00314215791271632	0.00883872296977398	0.00679711690767299
3.4	0.000461985398644635	-0.011720194527028	0.000195306822238895	0.0031361592136062	0.000189167677593759	0.00315275003957513	0.0093723828471105	0.00623890490384373
3.5	-0.00142583570446563	-0.0127081487769649	0.000614854380021286	0.00309087484496779	0.000620449337661996	0.00309093132365856	0.0102514024514605	0.00525471279168127
3.6	-0.00427579081759117	-0.0135354187158836	0.00104381517457428	0.00297098985824396	0.00105200764973299	0.00297064279674628	0.0102013735812189	0.00382614246160854
3.7	-0.00716373705294822	-0.0132259844855061	0.00145420529377558	0.00278705412323546	0.00144467311641344	0.00280076640683799	0.0100106797595588	0.00309309325735392
3.8	-0.00982198727060452	-0.0123116497710121	0.00183074765532837	0.00255729599605128	0.00183318677752323	0.00256643253516015	0.00992045338904231	0.00254037255645984
3.9	-0.0120783092162017	-0.0108090175677379	0.00217413992312344	0.00228281296790938	0.00216687278813601	0.002281061351312	0.00996444312769442	0.00225132344826727
4	-0.013571910812599	-0.00923281013733288	0.00245865746077623	0.00196159513684407	0.00246309668115717	0.00195914484108202	0.0108262834722707	0.00177232268054514
4.1	-0.015511102093119	-0.00774659058543669	0.00270919425994154	0.00159809720617475	0.00270794558146178	0.00159883803098979	0.0110458050022265	0.000528913203142059
4.2	-0.0171318374937199	-0.00536958947607408	0.00290493335887934	0.00119556778383367	0.0029093569678058	0.00118684210924626	0.0110506452433198	-0.000219702004902759
4.3	-0.0181783885997319	-0.00276171762746264	0.00304505422190143	0.000783362496501996	0.00305143583266847	0.000775543148986587	0.0111103156913891	-0.000985334798780209
4.4	-0.0188037002491745	0.000180107786810081	0.00311944477024861	0.000349417134659693	0.00312180674448335	0.000347153611068179	0.0110823071034303	-0.00151614841065443
4.5	-0.0183881668796326	0.00308532340725153	0.00313919261332941	-9.06426707988567E-05	0.00314452790063579	-9.4037209229165E-05	0.0118352922961603	-0.00217371288424183
4.6	-0.0181972213861672	0.00539390475705703	0.00308962701360436	-0.000531332788637666	0.00309091376508884	-0.000518459683588803	0.0118192112953951	-0.00383184262966579
4.7	-0.0174949669081159	0.00818653034268114	0.00298192738651469	-0.000947097908049263	0.00299712506211985	-0.000956752955363066	0.0113388130753476	-0.00501284057788621
4.8	-0.0162180266904639	0.01080592650361	0.00281894787907701	-0.00135849574307335	0.00282737275019986	-0.00136460110855835	0.0107461992558802	-0.00598217560884199
4.9	-0.0142577571192801	0.013255137883341	0.00259604160265422	-0.00174016299029491	0.00260020558883771	-0.00173728706460471	0.0101476557607507	-0.00651688856601794
5	-0.0113899491662351	0.0149136576468304	0.00233338728332115	-0.00208984987725023	0.00233700285548496	-0.00208721374267163	0.0104499827955285	-0.00712007337518849
5.1	-0.00887449101668376	0.0157909295108087	0.0020249336323512	-0.00239530719403665	0.00202722727230882	-0.00239396360049053	0.00998666927917674	-0.00838730102121611
5.2	-0.0060441257342833	0.0165739282892037	0.00166884501079731	-0.0026423988911329	0.00167053417565679	-0.00264752118070855	0.00943445873226137	-0.00896105054641639
5.3	-0.00299958631515064	0.0166758007128897	0.00128346531218202	-0.00285450373465146	0.00128658710605636	-0.00285246096968155	0.00909027650015737	-0.00935466683802596
5.4	-5.53821832133122E-05	0.0162791936295828	0.000860941922126183	-0.00299787879553787	0.000877977373584013	-0.00300906443457966	0.00897017376935536	-0.00974981908143361
5.5	0.00303779333401196	0.014976440202602	0.000453225554323242	-0.00309297675050156	0.000463204996050072	-0.00310236099847617	0.00941174542135199	-0.0108750093056255
5.6	0.00461799452727824	0.013075629639123	1.76866835447114E-05	-0.00313014744566774	9.20354247761219E-06	-0.0031333381328924	0.00807013486391954	-0.0125375161961216
5.7	0.00599563151011066	0.0117204877874777	-0.000410790506113972	-0.00309865177569705	-0.00042731414064869	-0.00310227158710031	0.00641707474312983	-0.0128569627524696
5.8	0.00724737092536317	0.0101318974540062	-0.000852820203619278	-0.00300317568955442	-0.000856347415235358	-0.00301707945512721	0.00500801746441878	-0.0128794128251946
5.9	0.00813248856819603	0.00864800323721422	-0.00125312354753512	-0.00286423334308921	-0.00126130507034335	-0.00286415030617539	0.00362758060763166	-0.0122747778864227
6	0.00953126172689899	0.00693218609268292	-0.0016495965638688	-0.00266164041264611	-0.00164605365028486	-0.00266180620546961	0.00359316598395321	-0.0112719733359243
6.1	0.00984324925006557	0.0040272847552606	-0.00200322462012623	-0.00240648563644196	-0.0020048528763679	-0.00240250253649971	0.00351258552274235	-0.0116422023466421
6.2	0.00943170780345792	0.00152082598332806	-0.00231218759667484	-0.00209490677516035	-0.00231587640890509	-0.00210670668169261	0.0032622329070324	-0.0119224089273571
6.3	0.00855122677276587	-0.00102329231647639	-0.00258710669591411	-0.00176360090301456	-0.00259618224407634	-0.00175789964209647	0.00290085433605396	-0.0126283639240905
6.4	0.00706920730793899	-0.00319550224111419	-0.00281252584840385	-0.00137684199740673	-0.00280285293165679	-0.00138171014591251	0.00232990199585258	-0.0131162505330502
6.5	0.00559744408861127	-0.00545352415842831	-0.00296868769943594	-0.00097253591811772	-0.00297650426453112	-0.00096808147555518	0.00238116930594179	-0.0141772764109345
6.6	0.00271436098229152	-0.00694843139479534	-0.00307338929874527	-0.000551730855677109	-0.00307500837605278	-0.000555682994338779	0.000911341795432166	-0.0153875386100796
6.7	0.000264715898335322	-0.00725310660530435	-0.00312441131046288	-0.000119216680494643	-0.00313321892691664	-0.000112992664196694	-0.000555173708334085	-0.0155360657818438
6.8	-0.00211482250043808	-0.00713148886301115	-0.00310475565621666	0.000318358591184427	-0.00311579114835417	0.000323353073816266	-0.00195268704863465	-0.0153244966426791
6.9	-0.00437760883138146	-0.00623547006630974	-0.0030311162847042	0.000749343870280881	-0.00303409018308415	0.000751714065911943	-0.00305307396888389	-0.0144853249453271
7	-0.00563464997947761	-0.00536537144510592	-0.00289421557037766	0.00116550425758753	-0.0029069515830043	0.00116329148712444	-0.002762504380447	-0.0142191635534745
7.1	-0.00812865567478438	-0.00450915968245484	-0.00272195846413906	0.00154932496844666	-0.00271835012369435	0.00155794896074015	-0.00414976892261887	-0.0149358116315849
7.2	-0.0100532975691723	-0.00227358298549584	-0.00247057489782264	0.00191610515155607	-0.00247707469944827	0.00191814562037568	-0.00564504514760311	-0.014356612197386
7.3	-0.0113797394110159	0.000231588839109974	-0.00217929863635892	0.00223443452180508	-0.00219047013160996	0.00223941107766113	-0.00678573790498797	-0.0135768597436475
7.4	-0.0122825883622114	0.00319465007782143	-0.00184195966378766	0.00251630964369127	-0.00184886822242898	0.00252980604061267	-0.00796111165565607	-0.0123356757785941
7.5	-0.0116845157867622	0.00623517545349082	-0.00148453988574634	0.00275521706742157	-0.00147763103225282	0.00276261714754986	-0.00740752931689565	-0.0108737777563955
7.6	-0.0111775409538285	0.00814807293200992	-0.00108337571503321	0.00293922244188716	-0.0010847151198926	0.00293453569247679	-0.00717975759250029	-0.0113043160751095
7.7	-0.0102074374177091	0.0104923551824392	-0.000657841570072521	0.00306412157808099	-0.000659170092959855	0.00306305530042964	-0.00745044538981713	-0.0116152772743849
7.8	-0.00848035646470399	0.012233650694815	-0.000234993399062091	0.00311689268635404	-0.000242817086144083	0.00312327691067234	-0.0078905664247374	-0.0119381896278606
7.9	-0.00628801602886983	0.0135488627467291	0.000202777389046603	0.00312882611556733	0.000210685348791067	0.00313037764839224	-0.00823781931897115	-0.0119215302242288
8	-0.00339997598124665	0.013821959095262	0.000644928987474327	0.00306489441197437	0.000644975183685922	0.00306978810703484	-0.00814502521470178	-0.0125664085411823
8.1	-0.00168888531573974	0.0138235328702387	0.00105817252800535	0.00294983809058626	0.00107728882848017	0.00295104555343605	-0.00986579712983695	-0.0133680892942774
8.2	0.000627262134527925	0.0140761946967028	0.00146319067173356	0.00277229611081885	0.00147247351408495	0.00276517060620884	-0.0112669108944842	-0.0127500452852304
8.3	0.00309047349965516	0.0136693410715861	0.00184097702805147	0.00253769709919723	0.00183924264625499	0.00255122566963214	-0.0122904576038956	-0.0119545844588057
8.4	0.00543814708567833	0.0129969554809538	0.00218030693538619	0.0022646177014147	0.00217727778464679	0.00226437250568438	-0.0131025569799321	-0.0107974997717312
8.5	0.00832094798058097	0.0113027610080575	0.00247121822679333	0.0019338536292504	0.00247030257181691	0.00193703328811477	-0.0126743075687729	-0.0100728103325074
8.6	0.00940623856201451	0.00875709218575871	0.00271757998453867	0.0015751468930116	0.00272711811372709	0.00156866510295827	-0.0137227130809824	-0.010515190906426
8.7	0.0103064938639137	0.00683595817677828	0.002906935383706	0.00117544459456304	0.00291249248093527	0.00117620419053397	-0.0150894272934024	-0.00982350613373601
8.8	0.0110430644357202	0.00465612427855881	0.00304825059136275	0.000765800871575597	0.00305408198178837	0.000757070163828445	-0.0163668253803009	-0.00880008098067371
8.9	0.0114810484047033	0.00237625651298904	0.00313014437053836	0.000330632515691913	0.00312928583487593	0.000328377016416037	-0.0172682040630348	-0.00693015331028674
9	0.0121516160974744	-0.000460157720984817	0.00314071807532289	-0.000112574472871826	0.00314385174980378	-0.000108450686066701	-0.0163656720274775	-0.0050266059504762
9.1	0.0113265389615284	-0.00399573100682143	0.00310081348693365	-0.000552526267433677	0.00310361148363266	-0.000539587742648935	-0.0158828283640367	-0.00445878996407149
9.2	0.0098930496790093	-0.00699487621577515	0.00299656368275094	-0.000973376950721323	0.0030042599093995	-0.000976208772917274	-0.0152985821226059	-0.00365112308836128
9.3	0.00769869186119041	-0.00985965665320058	0.00283101424658206	-0.00138267116583876	0.00283031318047149	-0.00138768078331124	-0.0145964837359239	-0.0032007225038277
9.4	0.00472609828952701	-0.0119506116275704	0.00260993203639158	-0.0017758888988636	0.00261641439710464	-0.00176822966163418	-0.0140291305862176	-0.00273105652860241
9.5	0.00158834466530274	-0.0137326972994479	0.00233975354627113	-0.00211211093331333	0.00234720024223175	-0.00211340952962122	-0.0129248949555193	-0.00305339688163364
9.6	-0.00313824098022302	-0.0144846761606174	0.00202502939182363	-0.00242398279568497	0.00202535435770959	-0.00242299402907712	-0.013860145262419	-0.00376998041876923
9.7	-0.0073910818042696	-0.0135003904432679	0.00165661432046849	-0.00268025378677226	0.00166221975329724	-0.002687563244497	-0.0147946250704735	-0.00317159560021442
9.8	-0.0112469452074221	-0.0117508823473741	0.00127052656600624	-0.00289369042556773	0.00127620488364931	-0.00288511627456971	-0.0155297982501585	-0.0021944172628765
9.9	-0.0146446788148395	-0.00898404733966822	0.000864839872643128	-0.00303754766402795	0.000857461018415859	-0.0030363583281209	-0.0160764721560903	-0.000556798878461638
10	-0.0168172559737752	-0.00599346608725676	0.000431525399669747	-0.00313527588396735	0.000424051181997072	-0.00314784712457763	-0.0150953320322812	0.000823042188451073
10.1	-0.0194733658093496	-0.00276647084514614	-1.78934698844236E-05	-0.0031692547228675	-2.82181624142828E-05	-0.00316386753588866	-0.0150906473351088	0.00102304278286411
10.2	-0.0210552371567631	0.00162460019820764	-0.000468225527626114	-0.00313398727384101	-0.00047166678182616	-0.00313120274622296	-0.0150811017293591	0.00201045690730381
10.3	-0.0215462375733226	0.00621934513274923	-0.000905287562614037	-0.00303041556663014	-0.000897103419388095	-0.00303952377052841	-0.0147837441321207	0.00304654705181365
10.4	-0.0209807825295757	0.0110346405330681	-0.00130897096957753	-0.00287803685036575	-0.00130724098686803	-0.00288427779598608	-0.0140338974236361	0.00430078782688108
10.5	-0.0188439375648639	0.0152463546935779	-0.00170951509832881	-0.00267598446733552	-0.00170640492009406	-0.00266287134833244	-0.0119570439702821	0.00482591140764963
10.6	-0.0168686769135185	0.0188950977207282	-0.00206432653368744	-0.00240188172617273	-0.00206211866723427	-0.00240573028243902	-0.0110955827982655	0.00414692930124423
10.7	-0.013826100279445	0.0226154873302396	-0.00238315509374767	-0.00209782814886367	-0.00237963944392702	-0.00209250298169463	-0.0104334521243519	0.00387720482556744
10.8	-0.0100720560621688	0.0256451356840337	-0.00265624804737676	-0.00173412602517192	-0.00265100350762394	-0.00174311947400001	-0.0101871100822174	0.0034979073439924
10.9	-0.00569778903380946	0.0282583627312944	-0.00286729157605785	-0.00135409891051864	-0.00287251919104935	-0.00135335951641545	-0.0101366635055166	0.0037432576280141
11	-9.4557193065183E-05	0.029502645019494	-0.00302377015908457	-0.000932711128944308	-0.00302865013186293	-0.000939491872344897	-0.0089529766585618	0.00361279292920387
11.1	0.00455652993892917	0.0296982777544	-0.00313405775184694	-0.000506822418188855	-0.00312312198380576	-0.000503944083101897	-0.00928228979559348	0.0026734330633798
11.2	0.00982894600145193	0.0295102457018366	-0.00316479143567828	-6.41420577345976E-05	-0.003172000401743	-6.90088728928981E-05	-0.00958828759592436	0.00278163684707756
11.3	0.0153238518565898	0.0280645448800602	-0.00313693629652963	0.000389988319770675	-0.00314857579123865	0.000379895177902734	-0.00964093992290715	0.00313934864705399
11.4	0.0204148032497401	0.0255831927909676	-0.00305996810385893	0.000821430984133818	-0.00305500803063191	0.000829037740491173	-0.00940528705066961	0.00382732321900588
11.5	0.0254678960045554	0.0215186684342185	-0.00291685410899454	0.00123744745847151	-0.00291964130088205	0.00124779615650834	-0.00798005952166044	0.00364346563664091
11.6	0.0285469516276624	0.0163973346438293	-0.00272160353671559	0.00163452787962158	-0.00272157856580677	0.00163749055684634	-0.0081704841821853	0.0025909186442693
11.7	0.0310067360371294	0.0113571350155933	-0.00245533504813863	0.00199314756648619	-0.00245587844622619	0.00200181765815577	-0.00841393746432516	0.00251424945337739
11.8	0.0326889556751289	0.00584845465733405	-0.0021551655467556	0.00232708811083033	-0.0021593039283475	0.00232881200571623	-0.00839082815148846	0.00281699992926764
11.9	0.0335096990524257	0.000252981215809471	-0.00180270168191551	0.00260375256137219	-0.00181579929918535	0.00260813084457719	-0.0078946730299522	0.00388406877189959
12	0.0339124371723698	-0.00631783201136791	-0.00142507774593026	0.00283155112781927	-0.00142447136379556	0.00283297173970438	-0.00558549473270797	0.00381748510538057
