# GHZ S RI R 50
0.2	0.00568289438005892	0.00130464233338207	0.00304913465960194	-0.000897557746251931	0.00305950420073245	-0.000890745541700651	-0.0143169277030999	0.00491161836610562
0.3	0.00601141464857468	-0.000591516340083053	0.00290526213128181	-0.00132105391082293	0.00289801087872221	-0.0013081132306597	-0.0135054156921912	0.00516446545916716
0.4	0.0058165266997721	-0.002124805770609	0.0026739805217539	-0.00169312519878765	0.00267925205438968	-0.00170168783935874	-0.0129157006863792	0.00582878740773668
0.5	0.00529439625082049	-0.00358116723377394	0.0024150479518163	-0.00205040976832521	0.00242659207314616	-0.00206265354838473	-0.0121377099891759	0.00635635965470388
0.6	0.0041485845634204	-0.00469981159666088	0.00210238677583736	-0.00236490069878185	0.00210160110799214	-0.00237205310123274	-0.0117613834248134	0.00674488658458332
0.7	0.00286502173244653	-0.00529494265331879	0.00175531328797881	-0.00264294989332899	0.0017533564521352	-0.00264314914769385	-0.0114622226666932	0.00735138896329847
0.8	0.00156568628543319	-0.00559993572997576	0.00136975804023052	-0.00286071800506539	0.00135715240099829	-0.00286527111979795	-0.0111682894405234	0.00808685049723222
0.9	0.000147097250230402	-0.00549047946789809	0.000952284379405965	-0.00302458360296245	0.000953320364114554	-0.00303528851502802	-0.0108730314698713	0.00898139196544297
1	-0.00100515527308182	-0.00505970940041465	0.000527093625655468	-0.00312774661149031	0.000517227622505764	-0.00312848710324107	-0.0101557691864245	0.0100718603362845
1.1	-0.00235082589027971	-0.00466926788754967	7.15546121638496E-05	-0.00315678945752659	6.80474022653936E-05	-0.00317444902171635	-0.0094716653240053	0.0108443471873671
1.2	-0.00367215149503339	-0.00394243999193353	-0.000371001378530542	-0.00314638574747374	-0.000371813655778435	-0.00314430819479928	-0.00847155775894217	0.0118481055770824
1.3	-0.00492853170213867	-0.00328301172826036	-0.000798549343672199	-0.00306309620349664	-0.000801791267904877	-0.00306510237390825	-0.00674822649206569	0.0125973993257674
1.4	-0.00599638338190378	-0.00257712037219888	-0.00122009021636618	-0.00291455238110102	-0.00121887701623242	-0.00292008839920113	-0.00493973754147644	0.0124757561503163
1.5	-0.00639161705723635	-0.00164236374670357	-0.00162085034238718	-0.00271884659738374	-0.00161923715074098	-0.00272735137772034	-0.00343671989928364	0.0117160122632318
1.6	-0.00649123220792951	-0.000307988971422855	-0.00198216214140474	-0.00246649216571506	-0.00198237355807204	-0.0024717300176115	-0.00315064882117865	0.0112416082288383
1.7	-0.00592242144398998	0.00109065024516646	-0.00231098372366646	-0.00216917660028593	-0.00231194901338664	-0.00216291074276481	-0.00274210829283385	0.0113344100504936
1.8	-0.00506198916385613	0.0023989034730054	-0.00258217263948348	-0.00181729846108989	-0.00259314674718949	-0.00182293664355416	-0.00221792345643026	0.0114863963403657
1.9	-0.00391878317576747	0.00343213126582267	-0.00280762796507454	-0.0014464092598822	-0.00282007491062733	-0.00144024988037539	-0.00161776679338699	0.0117456170599078
2	-0.00253377222948069	0.00404421356000297	-0.00298403016760545	-0.00103841782101088	-0.00299365897392519	-0.0010337030735106	-0.000753978759318993	0.0119105767870243
2.1	-0.00133502639481611	0.00432213000333791	-0.00309744601564366	-0.000608877036207093	-0.00309336048293977	-0.000610872262996455	-8.80768295419116E-05	0.0117858124147911
2.2	1.10631804982427E-05	0.00448275973563237	-0.00315448403700804	-0.000170034452925158	-0.00316579729313022	-0.000172866427207075	0.000711923479857651	0.0117681995338585
2.3	0.00137047761206492	0.00417313251565166	-0.00314955062888688	0.000273887145314627	-0.00314925208319194	0.00026699919609597	0.00148395436762685	0.0115564023455274
2.4	0.00257325184822963	0.00358838035813324	-0.00307684322997998	0.000712869882948207	-0.00307938932104158	0.000708611106001438	0.00219098050076067	0.0114525292041424
2.5	0.00369142199279225	0.00261889384453634	-0.00293877799336303	0.0011261447753519	-0.00294966828790747	0.00113254021703737	0.003232658519231	0.0112971553449433
2.6	0.00434626668280149	0.00134485288477628	-0.00276364290432936	0.0015289836230724	-0.00276009671493256	0.00151665130991555	0.00417377374366478	0.0106784464742477
2.7	0.00484481483627442	0.000144228194376464	-0.00251699386519633	0.00190027458723349	-0.00252227639501456	0.00190029112882779	0.00482495375651121	0.0100706211841987
2.8	0.00530325077503352	-0.00117834661873284	-0.00223316540678093	0.00222769630725596	-0.00222533688475156	0.00223748137951535	0.0053351334544242	0.00963853965969816
2.9	0.00570703851655775	-0.00270910556203546	-0.00189759802438295	0.00252757557162749	-0.00189388824828258	0.00252714360489598	0.00609749075137112	0.00945776183409313
3	0.00582368258713939	-0.0046066971010881	-0.00151019818558268	0.00276166172381536	-0.0015249714799958	0.00276778119820802	0.00728373818994959	0.00908284680027972
3.1	0.00533481466553164	-0.00654685724764116	-0.00111987097383415	0.00293800239404318	-0.00111520369588825	0.00294633992237373	0.00814206192995831	0.00830324517864448
3.2	0.00441456822472028	-0.00838286131870162	-0.000698756782921077	0.00307440738028361	-0.000700502106588423	0.00307379895622584	0.00872433958767407	0.00767482711029377
3.3	0.00302104015157251	-0.0101833693395068	-0.000259904900912315	0.00314306555396915	-0.000258261318387513	0.0031393234643334	0.00934224011472882	0.006977118702208
3.4	0.00109334387098295	-0.0116091069156149	0.000186854959926339	0.00313555009197035	0.000180673690230966	0.00315211852738648	0.00993719836761299	0.00616799133157411
3.5	-0.00112881302148227	-0.0127622662944075	0.000607721367066651	0.00309190830986575	0.000613315524506598	0.00309197756010892	0.0104950615729603	0.00504280219245137
3.6	-0.00388068868003407	-0.0132895816076625	0.00103629534376487	0.00297222749269759	0.00104448519905995	0.00297190010203044	0.0105415747974855	0.00388557475771218
3.7	-0.00653212145920904	-0.0130881089233187	0.0014465189972768	0.0027901671979163	0.00143695322669412	0.00280385098146008	0.0105487622304396	0.00304600796809205
3.8	-0.00907028232907718	-0.0123887494236414	0.0018239107404385	0.00256219856007279	0.00182632542759509	0.00257134164287395	0.0105459190282553	0.00231158477779957
3.9	-0.0113329697195792	-0.0112460366049281	0.00216884073483838	0.00228872013233157	0.00216157655961109	0.0022869499324874	0.0105772167751435	0.00172154017231078
4	-0.0133534529164101	-0.00987218182124799	0.00245349146240605	0.00196737010076449	0.00245793609325482	0.00196493106375574	0.0109604592557624	0.00109360560705297
4.1	-0.015366438232282	-0.0080334853301608	0.00270465071031404	0.00160629761063405	0.00270339972416924	0.00160703477466916	0.0111648117080504	0.000196589406991329
4.2	-0.0169028149453641	-0.00567008546823345	0.00290267663410512	0.00120480846802342	0.00290712837862287	0.00119609206408424	0.0112750334417254	-0.00058601303892649
4.3	-0.0179512311042836	-0.00315142145750352	0.00304473224803079	0.000792733676600339	0.00305114073455211	0.000784927881350721	0.0113397478761237	-0.00144658361946482
4.4	-0.0186304210659628	-0.000416398512186159	0.00312036086486874	0.000358647313742517	0.00312273083834513	0.000356389218280093	0.0112626926350296	-0.00216500164824123
4.5	-0.0187812700825418	0.00235930041273548	0.00314181859151745	-7.98957743613521E-05	0.00314716950449549	-8.32744360648845E-05	0.0115160914209511	-0.00290874037322853
4.6	-0.0187406524220152	0.00521341877586141	0.0030960859629082	-0.000521709280554882	0.00309733121742414	-0.000508812392367726	0.0114392584602	-0.0040842043775305
4.7	-0.0179297053845894	0.00821913925897168	0.00299010032581921	-0.000939488826535105	0.00300535466440891	-0.000949113559364134	0.0110841128748035	-0.00512514664395554
4.8	-0.0165390176157485	0.0109834243191173	0.00282837327069084	-0.00135259423061113	0.00283683246040947	-0.00135868583362642	0.0105929588681983	-0.00600212268579634
4.9	-0.0144314099956688	0.0134119971420996	0.00260686519599474	-0.0017356991879997	0.00261102889169155	-0.0017328043066898	0.0101242241328697	-0.0065808574201228
5	-0.0118378088883497	0.0151379822965149	0.00234646385349041	-0.00208870614696061	0.00235008172924577	-0.0020860514038093	0.0101828755405245	-0.00714782167507065
5.1	-0.00899474878980914	0.0164441275078941	0.00203657989555929	-0.00239770525014045	0.00203887722622767	-0.00239635227952924	0.010014310986664	-0.00806996229220647
5.2	-0.00582755597266587	0.0171093718017044	0.00167952889563481	-0.00264648154780731	0.00168123424183684	-0.00265161514142996	0.00972885022305793	-0.00878247422580095
5.3	-0.00265308297522471	0.0170168501108723	0.00129350203969781	-0.00286058594910512	0.00129662912538856	-0.00285853023428868	0.00946648065418355	-0.00935002061892821
5.4	0.000283508036481102	0.0163436096203917	0.000869848131087079	-0.00300661893856607	0.000886964938318462	-0.00301780994313888	0.00932908115701328	-0.00998490806181276
5.5	0.00285373135828964	0.0151046702600064	0.000458454618840917	-0.00310381746530778	0.000468481536539163	-0.00311322468981437	0.00929164773999621	-0.0110366552345954
5.6	0.0048309756877144	0.0137533448115891	2.09973488100949E-05	-0.00314011283913323	1.24904677789409E-05	-0.00314332252267653	0.00836001032644303	-0.0122182429590057
5.7	0.00670822927227419	0.012221305580218	-0.00040881002845447	-0.00310927389656212	-0.000425384060879046	-0.00311292335888941	0.00714462878029772	-0.0127609562989464
5.8	0.0082777391671637	0.0102723802039984	-0.000853096439619411	-0.00301435219729409	-0.000856623469313164	-0.00302830733067867	0.00597016570161658	-0.0131359824764437
5.9	0.00936886140736312	0.0081177365038446	-0.00125629200213789	-0.00287501071209231	-0.00126450272455674	-0.00287493108755059	0.00471872754216384	-0.0131234168618649
6	0.0100016385777301	0.00557563438156931	-0.00165392170768187	-0.00266995086133605	-0.0016503681861865	-0.00267011635505889	0.00395968941143144	-0.0127974074788472
6.1	0.00966152879174542	0.00302502311475069	-0.00200802572732623	-0.00241545011243754	-0.00200966176479399	-0.00241145540449795	0.00335115643223657	-0.0128049162333919
6.2	0.00895569817793366	0.000784221578849777	-0.00231943056058634	-0.00210325564387228	-0.00232312733864634	-0.00211509861591298	0.00286450759077178	-0.0128598038789427
6.3	0.00796797265094681	-0.00135037332661505	-0.00259628079082268	-0.00177013882182344	-0.00260538941237671	-0.00176441773302729	0.00241213879351204	-0.0132063363869293
6.4	0.00660118473560782	-0.00334959235122298	-0.00282233586047926	-0.00138093736125128	-0.00281263115211924	-0.00138582396826769	0.00195148136093291	-0.0135416501381383
6.5	0.00483168526403336	-0.00524819320119945	-0.00297852448117582	-0.000976464206247909	-0.00298636845253154	-0.000971996368938467	0.00175641083818611	-0.0142775050300331
6.6	0.00256514605445214	-0.00631736062741588	-0.0030859044190029	-0.000553383261372101	-0.00308753077507564	-0.000557351057541751	0.000867979281295142	-0.0151709238133972
6.7	0.000419344346537738	-0.00686050073762137	-0.00313698800446949	-0.000117408930546356	-0.00314582627791395	-0.00011115359519654	-0.000375466827051898	-0.0155840211002422
6.8	-0.00185986684198433	-0.00691461012126306	-0.00311628955069837	0.000322727112582555	-0.00312736211604379	0.000327751874998791	-0.00173053498273907	-0.0155298398232201
6.9	-0.00410173260516717	-0.00637641997469245	-0.00304163699255266	0.000755127453130702	-0.00304461959507173	0.000757509397872528	-0.00283070255924535	-0.0149986469242171
7	-0.00615490281328636	-0.00551468054228972	-0.00290545736511337	0.00117402333317443	-0.00291825156044049	0.00117181602557093	-0.00325183058269152	-0.0147135571349424
7.1	-0.00834797958123661	-0.00384613263115129	-0.00272995692435561	0.00156149676869255	-0.00272631540603649	0.00157014885163692	-0.00431826711444024	-0.0147306463249347
7.2	-0.00976456989907138	-0.00160569494614973	-0.00247539463274395	0.00192911683726805	-0.00248191414741573	0.00193118023017586	-0.00538907827371124	-0.0142156874268999
7.3	-0.0106984354003078	0.000749746920529576	-0.00218173862851153	0.00224795396405408	-0.00219293859672339	0.00225297620172905	-0.00625268895255383	-0.0135931282406895
7.4	-0.0111876590255539	0.00320583093709625	-0.00184219475557983	0.00253089300424283	-0.00184909323194943	0.00254445959430536	-0.00713028897802097	-0.0128175715622545
7.5	-0.0111552181051819	0.00546836363204129	-0.0014797139737591	0.00277080220819517	-0.00147275236101979	0.00277820361909373	-0.00717763047843483	-0.0119601813665683
7.6	-0.0109800497716773	0.00777713326817409	-0.00107511865446913	0.00295147179528326	-0.00107647968248494	0.00294677724649778	-0.00721615597136482	-0.0119066688087818
7.7	-0.0101174209159738	0.0100885722618786	-0.000647969468350163	0.00307438021838525	-0.000649305381340601	0.00307331623772841	-0.00754749361129608	-0.0122163996989687
7.8	-0.00854562950340981	0.0119258672300646	-0.000223305324118238	0.00312531488025196	-0.000231122734561385	0.00313174522038796	-0.0080943971620334	-0.0124143057355492
7.9	-0.00649338094882055	0.0132342851524358	0.000216915159728372	0.00313472492076455	0.000224847064772924	0.00313624519804675	-0.00857615025804377	-0.0123536262658459
8	-0.00424725128763092	0.0139481718741911	0.000659368814904283	0.00306548980270089	0.000659436950394101	0.00307038884733306	-0.00889331934705983	-0.0126387298683033
8.1	-0.00189810694918642	0.0146349646586689	0.00107075523969821	0.00294890244715957	0.00108989676902241	0.0029500370354381	-0.00997861131855251	-0.0128776998440687
8.2	0.000871501934648602	0.0147258365216642	0.00147595465809807	0.00276960802673382	0.00148521959230965	0.00276243724011163	-0.0110003694721474	-0.01250346482901
8.3	0.00356242119116453	0.0140954823821656	0.00185348655936041	0.00253224223335515	0.00185180807218217	0.00254579082212457	-0.011871705712966	-0.0119390748537315
8.4	0.00601363030520557	0.0129778578120862	0.00219106622405977	0.00225586402162302	0.00218803488105499	0.00225563205464031	-0.0126205036606351	-0.0111647722596998
8.5	0.0080998327450752	0.0111555551480962	0.00247857697840687	0.00192492351782384	0.00247767295983476	0.00192810684781793	-0.0128894371600616	-0.0105349930419759
8.6	0.00944213537685036	0.00939748449547599	0.00272530346066541	0.00156523294162646	0.00273482109221569	0.00155870981488541	-0.0136708442959379	-0.0103083137851486
8.7	0.0108585344149251	0.00746220918097342	0.00291264597351521	0.00116311077077049	0.00291820754771662	0.00116384647045385	-0.0146069987338003	-0.00968077744281072
8.8	0.0119905763740044	0.00506514606958529	0.0030508885783612	0.000752231546551098	0.00305668023841021	0.000743477305968458	-0.0155901492369665	-0.00886069991747548
8.9	0.012743722227294	0.00221006687248808	0.00312965146438153	0.000317640087085995	0.00312878421308734	0.000315389427167944	-0.0162586977307839	-0.0074716038607849
9	0.0127887869975152	-0.0012236214966003	0.00314000790188907	-0.000125465852804729	0.00314315826728122	-0.000121355262667023	-0.0159503028060792	-0.00603012625730589
9.1	0.0117815130051973	-0.00455387336869381	0.00309607393219408	-0.000567117218933301	0.00309893248204231	-0.000554200846748177	-0.0155681012774082	-0.005218667102263
9.2	0.0101113544275946	-0.00769363211300824	0.0029880291255564	-0.000986121189008294	0.00299570187810931	-0.000988985302621341	-0.0151580306278237	-0.00453789698890089
9.3	0.00757944831970246	-0.0104733497096845	0.00282027393946581	-0.00139285010789701	0.00281955198915108	-0.00139784839895346	-0.0147284752240044	-0.0040024837237603
9.4	0.0043610762545703	-0.0125288191420144	0.00259835301403609	-0.00178417315966808	0.00260485770878021	-0.00177655328173148	-0.0143307754457398	-0.00349184134923368
9.5	0.000550917340303723	-0.0137818074738813	0.00232484659455652	-0.00211981574736932	0.00233227287498843	-0.00212114902187673	-0.0137503552900672	-0.00332803190966224
9.6	-0.0036044369207677	-0.0136937043673056	0.00200800357653299	-0.00242627891901778	0.00200833215210218	-0.00242529451410548	-0.0140802404598867	-0.00340325986486883
9.7	-0.00730014914147763	-0.0127027082301328	0.00164035433458752	-0.00267875841117635	0.00164591203414054	-0.00268606829386948	-0.014555322248737	-0.00291349764004807
9.8	-0.0107511415610163	-0.011109684669094	0.00125497313889239	-0.00288941513048023	0.0012606671621198	-0.00288089106398461	-0.0150052617080531	-0.00212295258055654
9.9	-0.0138565574292839	-0.00882151652363724	0.000849296078183909	-0.00303065637148105	0.000841947572702158	-0.00302944061521792	-0.0153741458098941	-0.000892180844100401
10	-0.0166639870213428	-0.00614237678897725	0.000417352099160548	-0.0031226521786297	0.000409863044113705	-0.00313513697274013	-0.0149869340090292	0.000263174233051572
10.1	-0.0191618673763565	-0.00242999484038821	-2.71334388782955E-05	-0.00315482033727461	-3.73954343981786E-05	-0.00314942723067033	-0.0148014756543779	0.000903667220721479
10.2	-0.0204694953972511	0.00185189014569614	-0.000474907612602817	-0.00311869429928742	-0.000478325720203716	-0.00311591256403415	-0.0145760320276013	0.00176853703904554
10.3	-0.0207839485212352	0.00626564327427838	-0.000909356825579715	-0.00301361318895788	-0.000901236406965611	-0.0030227009181299	-0.0141707861390971	0.00266949884833547
10.4	-0.0201101716925979	0.0105800237090899	-0.00130913214369005	-0.00285921546207165	-0.00130742716928683	-0.00286542706505851	-0.0133469942043161	0.00355213136150606
10.5	-0.0187650331170022	0.0145153399215447	-0.00170314583912611	-0.00265881906920493	-0.00170003719111269	-0.00264578364075188	-0.0119204200269365	0.00393234258760968
10.6	-0.0168726190185461	0.0185621553794876	-0.00205649337506076	-0.00238768424938441	-0.00205430060020765	-0.00239151582736083	-0.0110099491293661	0.0035972519070668
10.7	-0.0140001452758983	0.0222934761165071	-0.00237293694307787	-0.00208473250680268	-0.00236943420445542	-0.00207943812540651	-0.0103949584349288	0.00328587873704847
10.8	-0.0101915987630436	0.0255826933410176	-0.00264308951399682	-0.0017231894822262	-0.00263787864407794	-0.00173213799123784	-0.0101215470900459	0.00309437671081374
10.9	-0.0057317018700558	0.0280817333476229	-0.002851638835285	-0.00134708676079672	-0.00285683825973147	-0.00134635193184306	-0.00998489220819889	0.00317309074640216
11	-0.000794761538595098	0.0294906589330165	-0.0030098928645961	-0.000929605780637054	-0.00301474856865454	-0.000936357878810794	-0.00937071197602774	0.00315005466475982
11.1	0.00428801077188798	0.0304307765759521	-0.00311903104544821	-0.000504026858633256	-0.0031081475842972	-0.000501163620266528	-0.00927429044497552	0.00278766777612812
11.2	0.0100433567237352	0.0302377419775141	-0.00314847010012595	-6.47467637236156E-05	-0.00315564049359187	-6.95906393107624E-05	-0.00920230424589524	0.00278436624866161
11.3	0.0159283918752359	0.0286058851260961	-0.0031211256087946	0.000385391811977492	-0.00313269690728308	0.000375340964286594	-0.00894443459939677	0.00295276336600242
11.4	0.0212758424474035	0.0256656810616421	-0.0030465798126412	0.000813936141921617	-0.00304165206978981	0.000821513086320927	-0.00857037019313834	0.00323006461740259
11.5	0.025719520413756	0.0214528549169364	-0.00290371176094981	0.00123001935296078	-0.00290649132852458	0.00124031755994495	-0.00779126894148083	0.0030031579132372
11.6	0.0291488396772876	0.0167772146554932	-0.00270864271962612	0.0016223408334965	-0.00270862140804891	0.00162528731598739	-0.00760522517083864	0.00233816050333678
11.7	0.0319925796370504	0.0114429273648956	-0.00244598512562314	0.00197795738401099	-0.00244654180874258	0.00198658031390529	-0.00756662750110598	0.00196947043572053
11.8	0.0338181782023107	0.00544970689641102	-0.00214948378623103	0.00231063869595484	-0.00215360519298248	0.00231234478861785	-0.00748384010159792	0.00188677890529012
11.9	0.0344618556355867	-0.000971810852889819	-0.00179944204418448	0.00258728857028137	-0.00181248525581873	0.00259161789812399	-0.0071314205950167	0.00235491086811898
12	0.0334518685493455	-0.00762038346521118	-0.00142422032857916	0.00281183052179421	-0.00142362101973034	0.0028132446159507	-0.00598223572851378	0.00225713935910247
