# GHZ S RI R 50
0.2	0.00562357095231796	0.000236140002358994	0.00305449885993287	-0.000896267815441342	0.00306487810211333	-0.00088943638403651	-0.0143394699245795	0.00389739294323787
0.3	0.00605832154884253	-0.00135818339361789	0.00291207727508266	-0.00132036587646192	0.0029047985962243	-0.00130740902844313	-0.0134406626767769	0.0044531968456006
0.4	0.0058428572350527	-0.00252101330669325	0.0026823815663871	-0.00169389189686858	0.0026876760108803	-0.00170246844335992	-0.0129180305870467	0.00548561061024228
0.5	0.00620347094351308	-0.00404108545309026	0.00242370976530824	-0.00205465423270138	0.00243529711846148	-0.00206692551077246	-0.0113847459735627	0.00600325220251643
0.6	0.00445016475863274	-0.00624557220055218	0.00210937910158992	-0.00237013829069089	0.00210859525478487	-0.00237731047561921	-0.0116543643926733	0.00549841232061756
0.7	0.0023711700636274	-0.00666159662140402	0.00176226086102895	-0.00264952582346626	0.0017602984109466	-0.0026497269889193	-0.0120723559229891	0.00642789912265765
0.8	0.000591142771171683	-0.00667085218213344	0.00137586907479416	-0.00286945562569802	0.00136322412098244	-0.00287403075085397	-0.0121346230266554	0.00754273622111125
0.9	-0.00143875813311339	-0.00596706680181339	0.000956004852446168	-0.00303548887989475	0.000957045524641768	-0.00304623259059375	-0.0122743622629285	0.00900957541863863
1	-0.00188636259991395	-0.00406898178681592	0.000527584958895508	-0.0031376587133087	0.000517688027554963	-0.00313839788949697	-0.0108074092483307	0.0113237149533453
1.1	-0.00218577723557296	-0.00487399932536241	7.24895042418495E-05	-0.00316705883192172	6.89747931712188E-05	-0.00318477671333797	-0.00932051697998175	0.0108303526870668
1.2	-0.00408177980813116	-0.00485526696265388	-0.000372442747571919	-0.00315824526301456	-0.000373258059834147	-0.00315615986544136	-0.00904169781523922	0.0111897363925857
1.3	-0.0057896624925677	-0.00473037955445356	-0.000803066089103709	-0.00307484520616348	-0.000806321715552779	-0.00307685786336544	-0.00788937165873468	0.0115581960192945
1.4	-0.00739698669583906	-0.00415398272785311	-0.00122702766417249	-0.00292441529626223	-0.00122581448163797	-0.0029299729433831	-0.00659924434096484	0.0115156685859996
1.5	-0.00718697339133012	-0.00324789182646269	-0.00162712716257115	-0.00272831141274284	-0.00162550965373671	-0.0027368469501584	-0.00450907131342859	0.0108955527287689
1.6	-0.00822740311152442	-0.00224609350351397	-0.00199264012516661	-0.00247714511455599	-0.00199285500871764	-0.00248240747673226	-0.00494724134481359	0.0104022143914602
1.7	-0.0079201789097134	0.000205122768436813	-0.00232480120171192	-0.00217668361971127	-0.0023257632507247	-0.00217038647580911	-0.00450515588128563	0.0115234971365958
1.8	-0.00684961157077308	0.00228515710227525	-0.00259716313298309	-0.00182135966478054	-0.00260819744528763	-0.00182700546771386	-0.00361807398054197	0.0122995312840572
1.9	-0.0052972332895521	0.00426274255462337	-0.00282254176944969	-0.00144829643956169	-0.00283503432248266	-0.00144208921281288	-0.002585892198225	0.0132806133044873
2	-0.00203734869208852	0.00512131955466717	-0.0030022119894982	-0.00103919573213826	-0.00301188608594099	-0.00103443900708344	-0.000117765388676311	0.013549049069388
2.1	-0.000813584358735853	0.00381144074251157	-0.00311640102137092	-0.000602321567342103	-0.00311229943025395	-0.000604340807269886	0.000403258460282441	0.0120955382861559
2.2	-8.33927585388173E-05	0.00376538135693064	-0.0031706065381886	-0.000159464085963293	-0.00318198565124947	-0.000162269074851725	0.000711088352221162	0.0120638364143971
2.3	0.000809030544738392	0.00352179315279827	-0.00316347317652135	0.000287094260926859	-0.00316319925172554	0.000280172470693325	0.0012328414761217	0.011956211779794
2.4	0.00145750865382408	0.00356141609996595	-0.00308957448014158	0.000728948922512488	-0.00309215074235088	0.000724678838803228	0.00161270837819651	0.0122837422082261
2.5	0.00366508018254286	0.00382464623286839	-0.00294762995288547	0.00114878029731882	-0.00295854036198846	0.00115527117592312	0.00364482360448091	0.0129313091699681
2.6	0.00526441566728095	0.00142022505123718	-0.00276431357991323	0.00155125480088662	-0.00276082944995715	0.00153885658322303	0.00513106862945067	0.0111512811785554
2.7	0.00567626810967316	-0.000434240501405342	-0.0025141605022652	0.00192125466017844	-0.00251946032185877	0.00192130216171036	0.00549071600260462	0.010066466489571
2.8	0.00579873593183405	-0.00225309457726138	-0.00222674829667367	0.00224858250323967	-0.00221883451156496	0.00225835129398661	0.00560808446864181	0.00933892828152489
2.9	0.00574026846580562	-0.00361540860795755	-0.00188573395482329	0.00254850236375615	-0.00188201591026037	0.00254804319981057	0.00592746202443278	0.00941843984609431
3	0.00668626816971803	-0.0055005290410143	-0.00149097422342881	0.00277655352645239	-0.00150571886907377	0.0027827931697493	0.00774522979520424	0.00911355574039217
3.1	0.00556120843149579	-0.00862501734257257	-0.00110211928532832	0.00294775552409954	-0.00109739466755956	0.00295607067385314	0.00788435473541289	0.0075549094851383
3.2	0.00377848946715524	-0.0103290066346094	-0.000679203417573723	0.00308229876785521	-0.000680954619164624	0.00308170121836595	0.00784736414793103	0.00736140727394217
3.3	0.00182050719225869	-0.0117945954218264	-0.000237803897915905	0.0031469517457162	-0.000236185760643549	0.00314319557620565	0.00818138647384953	0.00709297732836935
3.4	-0.000526871780157033	-0.0123983622247622	0.000209928917890651	0.00313271827426306	0.000203872891154604	0.00314932469657948	0.00860032221858461	0.00699122211077565
3.5	-0.00158114098457803	-0.0129706710587904	0.00062503562219448	0.00308428761345476	0.000630622838438586	0.00308432400218616	0.0102108694084525	0.00628798530216034
3.6	-0.00464157577944271	-0.0147147264989991	0.00105381314275296	0.00296555487458817	0.00106199966128521	0.00296517878593115	0.00994542157631956	0.00419561789835319
3.7	-0.00825793997971831	-0.0142429782739211	0.00146410272425411	0.00277890775391149	0.00145463327647014	0.00279264653878243	0.00932990490511694	0.00369914505204436
3.8	-0.0113555369011705	-0.0127531956021989	0.0018384412032126	0.00254661999893868	0.00184091329297902	0.00255573465874041	0.00909268189224866	0.00353556064125961
3.9	-0.0136416997259791	-0.0101932169785534	0.00217817545207166	0.00227151544455562	0.00217091480719912	0.00226979152452437	0.00921001079372873	0.00388364696786127
4	-0.0135906132845465	-0.00793316961645038	0.00246284347080588	0.00195276352549999	0.0024672721237204	0.0019503015431458	0.011233965560903	0.00369699343621538
4.1	-0.0150328129984639	-0.00759048665800113	0.00271330314344686	0.00158520955032092	0.00271205876550878	0.00158595490187557	0.0115390625784975	0.00148307054874906
4.2	-0.016902188090148	-0.00554948704657924	0.00290502608026238	0.00118144826502185	0.00290940587648515	0.00117271884258958	0.0112377355079659	0.000616738713924689
4.3	-0.0181646953303898	-0.00295787050623451	0.00304207781469533	0.000770022732841649	0.00304841654484216	0.000762194103211345	0.0111366010996256	-0.000105773024058794
4.4	-0.0189442334509273	0.000413853146753942	0.00311540306323104	0.000337383205540534	0.00311775270769496	0.000335114883955435	0.0109812763148203	-0.00034140834125769
4.5	-0.0172899590263883	0.00377604913780992	0.00313363386924905	-0.000105984422521968	0.00313894371989401	-0.000109399758941907	0.0125800914213764	-0.000780806630206368
4.6	-0.0167421053109102	0.00465443721597106	0.00307679555038082	-0.00054447851563898	0.00307814015500989	-0.000531654399211382	0.0124517625547076	-0.00345326691479206
4.7	-0.0165170001199153	0.00690675384389167	0.00296698276472956	-0.00095588073578026	0.00298208437531766	-0.000965562668523085	0.0114811863537589	-0.00472354474365966
4.8	-0.015706119108448	0.009285618355507	0.00280309513881255	-0.001364199784391	0.00281146477469744	-0.00137031448168874	0.0105807999506266	-0.00563889686911168
4.9	-0.0142576761972589	0.0119924319500883	0.00257872655281743	-0.00174413884623969	0.00258288623638525	-0.00174129136364745	0.00969042249276292	-0.00583524944035171
5	-0.010617853840249	0.0138156777052207	0.00231151217419612	-0.00208807413687298	0.00231511873942314	-0.00208546803098494	0.0106374334812233	-0.00624894355736346
5.1	-0.00879323778030724	0.0135885387186749	0.00200723889499191	-0.0023865047478751	0.00200952261972495	-0.00238517465348858	0.00963092395035119	-0.00814619088191784
5.2	-0.00690478369847596	0.0147601029517737	0.00165410737272877	-0.00263164882467309	0.00165577635720973	-0.00263674695114178	0.00862801999895093	-0.00825004080500472
5.3	-0.00416367270655944	0.0155857561197544	0.00127035642838252	-0.00284126586371419	0.00127346507772702	-0.00283924099837847	0.0083084178193725	-0.00816929823333451
5.4	-0.0010318902288444	0.0161223586975767	0.000849862533391268	-0.00298040305688707	0.000866768651539383	-0.00299154930696551	0.00840629715889845	-0.00803029054570128
5.5	0.00387999387279009	0.0148602433876906	0.000450461542649052	-0.00307181557492609	0.000460373864461139	-0.00308113470156007	0.0101622674474153	-0.00929654032293429
5.6	0.0049163355238029	0.0111377070166059	1.89713633939111E-05	-0.00311332375165317	1.05352020411486E-05	-0.00311650103696691	0.00809575787553322	-0.0122102960073606
5.7	0.00505511238158253	0.00979966538448816	-0.000407807511905515	-0.00308223794321353	-0.00042424213235929	-0.00308584268631612	0.00562993849071947	-0.0122008785511105
5.8	0.00541788582021839	0.00882076432418508	-0.000846375315226583	-0.00298689689351059	-0.000849875038745607	-0.00300072505685288	0.00386766764585727	-0.0117018439313873
5.9	0.00557856647150769	0.00884616952055353	-0.00124156399051142	-0.0028498864476795	-0.00124969911965584	-0.00284981654833238	0.00222609896194427	-0.0101765782029495
6	0.00880335421747654	0.00934934138913499	-0.00163720549340492	-0.00265467159325186	-0.00163367630408993	-0.00265482896409908	0.00364451703251326	-0.00798548221667867
6.1	0.0109182729959334	0.00536710545976326	-0.00199307556065505	-0.00239864007789924	-0.00199470084253126	-0.00239467435436193	0.00441888019857808	-0.00950007147782901
6.2	0.0110020699360128	0.00202788681516203	-0.00229921901529552	-0.00208789136317354	-0.00230287762714875	-0.0020996412568742	0.00417263403202057	-0.0102739908677278
6.3	0.0101268765832686	-0.0013899945859177	-0.00257212289978077	-0.00175989286911799	-0.0025811662966823	-0.0017542335377492	0.00365343243747643	-0.0114370966314077
6.4	0.0082488051671906	-0.0036507090687463	-0.00279849877011281	-0.00137766881831342	-0.00278885290416008	-0.00138249660138532	0.00271258492347009	-0.0118110339147214
6.5	0.0078777145733624	-0.00648568673076958	-0.00295744570602045	-0.00097164757000454	-0.00296523863447787	-0.000967215400106216	0.00349840257545235	-0.0131687956467981
6.6	0.0036802033197404	-0.00942127328429627	-0.00305707759226512	-0.000552992343180413	-0.00305868324098954	-0.000556926581518757	0.00094455806438317	-0.0149735676463803
6.7	0.000301305113664101	-0.00934982987071806	-0.0031086615095465	-0.000126048844727258	-0.0031174403119882	-0.000119876562088931	-0.000835982033167768	-0.0145059426413537
6.8	-0.0025355729480216	-0.0088908545379534	-0.00309197200794521	0.00030824643518718	-0.00310297289886292	0.00031318795882331	-0.0022361529099459	-0.014060226187384
6.9	-0.00514108969746132	-0.00701599069424428	-0.00302090509795797	0.000739148122653261	-0.00302387287771478	0.000741501842955024	-0.00344182431819031	-0.0126299107402157
7	-0.00421350216704528	-0.00570449521284343	-0.00288068195800625	0.00115255283314733	-0.00289334204299668	0.00115032399314971	-0.00156256387771909	-0.0122302275452526
7.1	-0.00713231194853488	-0.00730008714231677	-0.00271429641430796	0.00152948212529337	-0.00271074410208549	0.00153807625584803	-0.00361476578014897	-0.0145624276064226
7.2	-0.010556775449325	-0.00538656062336474	-0.00246874550978644	0.00189641026124873	-0.00247522663846984	0.00189841188644486	-0.00598683472936769	-0.0137653920688211
7.3	-0.0131871970108192	-0.0026148739918886	-0.00218078743374739	0.0022155391077912	-0.00219193696870293	0.00222044471766073	-0.00755300539794674	-0.0126699102940387
7.4	-0.0155752314915439	0.00169029069455806	-0.00184543490013512	0.00249630500779713	-0.00185237552145141	0.00250970803730172	-0.00923225448448066	-0.0106539958567022
7.5	-0.0137013358859427	0.0072338715652915	-0.0014971635233209	0.00273280726362318	-0.00149033641247457	0.00274022285257995	-0.00735516174436875	-0.00804137336037195
7.6	-0.0122735409972675	0.00835507187845833	-0.00110178735745792	0.00292507618681849	-0.00110309064290135	0.00292039029086708	-0.00680641885088234	-0.00977103618764175
7.7	-0.0114139143015738	0.010970952001776	-0.000676811473482652	0.00305443433326997	-0.000678130666999003	0.00305336119887741	-0.007484346427113	-0.0100965899236104
7.8	-0.00935121950308246	0.0131151522197801	-0.000255298815215651	0.00311027352202331	-0.000263152174667216	0.00311659545716059	-0.00804217722692043	-0.0102660213304185
7.9	-0.00634282730547672	0.0151413375615709	0.000178929776051127	0.00312619053591469	0.000186815520554608	0.00312779959575057	-0.00812647322860655	-0.00974556511331955
8	-0.000924004144617605	0.0145735582971339	0.000621849825831023	0.00307356376048145	0.000621857999964099	0.00307846364492883	-0.00684242113709589	-0.0108030251880396
8.1	2.89672800802153E-05	0.0119978464902957	0.00104213856514048	0.00296026833246204	0.0010612745559236	0.00296159103551754	-0.00959203805457927	-0.0128524848447148
8.2	0.00121654375611772	0.0119943093763397	0.00144848431614702	0.00278370185100265	0.00145781836665622	0.00277662330112698	-0.0116063567890859	-0.011741210889068
8.3	0.00295107663142828	0.01172950661882	0.00182759127054403	0.00255237203095938	0.00182577072708686	0.00256590717947979	-0.0128013846244329	-0.0105903638382609
8.4	0.00476588641871466	0.0120393379944633	0.00217118624755416	0.00228432306311503	0.0021681510921196	0.0022840577528714	-0.0137731245672654	-0.00874245430237363
8.5	0.00985967797304659	0.0109273425284357	0.00247107399192896	0.00195090312529594	0.00247014160889445	0.00195408937178365	-0.0117282032586512	-0.00770562311628108
8.6	0.0106989882635624	0.00578254072064986	0.00271537019601756	0.00158990612584043	0.00272495363113334	0.00158345514835133	-0.0132539752899634	-0.00978226601242843
8.7	0.00999864095472584	0.00335867763478428	0.00290718073970339	0.00119283902931865	0.00291274591225208	0.00119362867654472	-0.0155087324826859	-0.00893784124869402
8.8	0.00931999868704844	0.00147807169708927	0.00305344513010802	0.000783530707149688	0.00305933813366244	0.000774803560173352	-0.017225464471475	-0.00755042900837664
8.9	0.00842900764161929	0.000692255066174765	0.00314026894980282	0.000344346914468826	0.00313941628600322	0.000342079737836373	-0.0185212068866806	-0.00487050785822188
9	0.0106080916035859	-0.000131382295082366	0.00314662505663585	-0.000102116717416419	0.00314975025290115	-9.79750442417492E-05	-0.0162279655209233	-0.00214956380795335
9.1	0.0102887514934806	-0.00435632699884437	0.00311135714569313	-0.000537493869946406	0.00311409362858367	-0.000524508747054808	-0.0157933738519187	-0.00253822388750605
9.2	0.00908473309031822	-0.0068698858050291	0.0030125056932512	-0.000962042166039773	0.00302024451877837	-0.000964846104509643	-0.0152790051904424	-0.0014515342333827
9.3	0.00762576004889906	-0.00962809765581907	0.00284852222814204	-0.00137650562718241	0.00284783929002953	-0.00138153889930161	-0.0142696919181165	-0.00101373046862774
9.4	0.00523846487608345	-0.0114652549764383	0.00262519518865456	-0.00177266064034331	0.00263167242453935	-0.00176495208138634	-0.0135871033993098	-0.000414213206291819
9.5	0.00437311786515492	-0.0142209045632536	0.00235958269601528	-0.00210601072022626	0.00236706184572012	-0.00210727161065405	-0.011277169678319	-0.00144677854661953
9.6	-0.00150296234453151	-0.0176482289166	0.00204871861592126	-0.00242773362908632	0.0020490405005256	-0.00242673758161712	-0.0135872118090429	-0.00347159444632759
9.7	-0.00738235227582464	-0.0169367607530244	0.00167675253425044	-0.0026898420197422	0.00168241935709113	-0.0026971734516976	-0.0154444415176638	-0.00239518876013689
9.8	-0.0125198382772626	-0.0148242478002923	0.00128770196281227	-0.00290595716873179	0.00129338358143523	-0.00289731441591783	-0.0166121479623608	-0.000926344268355471
9.9	-0.0170024802857586	-0.0105860166313627	0.000882115674882954	-0.00305142240107923	0.000874689764431183	-0.00305025620180477	-0.0175123474014492	0.00162850700159306
10	-0.0172660292079698	-0.00618888971493978	0.00044747060165315	-0.00315967347689794	0.000439983700769001	-0.00317237880892747	-0.0150225872594974	0.00363432638536058
10.1	-0.0198400677608301	-0.00446611215438031	-1.33292450832321E-05	-0.00319507454014605	-2.37459725295299E-05	-0.00318965885254787	-0.0152698608868351	0.00270134794945879
10.2	-0.0221848865951181	-1.09851035581339E-05	-0.00046809612872919	-0.00315800689896147	-0.000471566392085997	-0.00315520550595015	-0.0156700641391181	0.00391557153096059
10.3	-0.0232818354495867	0.00505730528982383	-0.000908431409658598	-0.00305479017435507	-0.000900173086021821	-0.00306395796890472	-0.0155263550540243	0.00514580398964342
10.4	-0.0231458705267817	0.0114369237794023	-0.00131780639501326	-0.00290534419743637	-0.0013160543699157	-0.00291163964392199	-0.0150061117513687	0.00708300669375907
10.5	-0.0184885726503786	0.0169330679583601	-0.00173168524754152	-0.0026981077981543	-0.00172851714929746	-0.00268487503433883	-0.0114855948073947	0.00798484198029957
10.6	-0.0156700627130306	0.0190733510311628	-0.00208580686253733	-0.00241434294919814	-0.00208359257315179	-0.00241822569708772	-0.0108011172710601	0.00642637370393784
10.7	-0.012116753470018	0.0221560839047587	-0.00240533031191753	-0.00210743454801306	-0.00240177672134191	-0.00210207905706952	-0.0101230865570609	0.00609159443288264
10.8	-0.00845444114794994	0.0241967694890346	-0.00268110710830468	-0.00173979702459454	-0.00267584809360349	-0.00174887289363055	-0.0100629814495212	0.00540280100079651
10.9	-0.00466508481772539	0.0269507469204824	-0.00289504197606073	-0.0013517513421062	-0.00290030604826847	-0.00135098329478894	-0.0104142489249148	0.00609892263288613
11	0.00287059532444498	0.0279963895831925	-0.00304272854719759	-0.000921523425805407	-0.00304766625526315	-0.000928310818029454	-0.00788610237752609	0.00607277075138427
11.1	0.00660355226122076	0.0255409114159077	-0.00315122831845004	-0.000499120093412572	-0.00314022902058187	-0.000496263139115977	-0.00909203443880967	0.0038513180612986
11.2	0.0101664920297619	0.0248934288798933	-0.00318280312087764	-5.25853448274227E-05	-0.00319007089103057	-5.74523418302195E-05	-0.0101213145291088	0.00436791901087601
11.3	0.0140592496562132	0.0237371998661962	-0.00315200964828256	0.000406849191444508	-0.00316375936692751	0.000396756409442424	-0.0105182807180947	0.00521580438040523
11.4	0.0178809332404232	0.0227011557783367	-0.00306750888271887	0.000841045686413219	-0.00306248865800775	0.000848655541038651	-0.0104107481409682	0.0067224577902872
11.5	0.0247064822866567	0.019627179355065	-0.00292309956005558	0.00124998745777251	-0.0029258663796544	0.00126037893932205	-0.00722943764290903	0.00659442190482622
11.6	0.0269305769761386	0.0129232106573715	-0.00273016809151894	0.00165346392968314	-0.00273013195200339	0.0016564424639467	-0.00819945540930853	0.00420538906781927
11.7	0.0278312719637657	0.00858244902466283	-0.00245765284132612	0.00201523178357086	-0.00245815593824656	0.00202394766206444	-0.00914533239560192	0.00447666837183624
11.8	0.028582914987452	0.00469831226632135	-0.00215155517331112	0.00234796357406147	-0.00215570118878321	0.00234971642355725	-0.0094526215535333	0.00531493411340851
11.9	0.0296701801364746	0.00208098182425105	-0.00179754409274872	0.00262041027914883	-0.00181066723848498	0.00262486019153659	-0.00895942699357923	0.00759180062652569
12	0.0346205201829222	-0.0032490973060025	-0.00142081614991151	0.00285444310315121	-0.00142019990466187	0.0028558693235791	-0.00418513878817702	0.00766843378173512
