# GHZ S RI R 50
0.2	0.0059971539380608	0.00124520650321583	0.00304773743976251	-0.000898166083838321	0.00305810526489441	-0.000891359574850539	-0.0138939300361952	0.00495136290901389
0.3	0.00630733487757033	-0.000750330487400942	0.00290329340151399	-0.0013215453650787	0.00289605087683898	-0.00130860825879226	-0.0131112698716768	0.00510440034148737
0.4	0.00606101314334523	-0.00248781827384591	0.00267137847573025	-0.00169312562282716	0.00267664258010339	-0.00170168463542036	-0.0126180654972504	0.00554973956996656
0.5	0.00520796415701047	-0.00389604708297159	0.00241247688095195	-0.00204926087082732	0.00242400810463067	-0.0020614970745939	-0.0123458918539569	0.00616611764072731
0.6	0.00428124557716532	-0.00485759819831589	0.00210018787336599	-0.0023636193050915	0.0020994010157985	-0.00237076604395829	-0.0118210737333897	0.00697793021004448
0.7	0.00304678385596087	-0.00562513103488892	0.00175300016707999	-0.00264115420089727	0.0017510449844758	-0.00264135270530999	-0.0113578570770567	0.00760769957704212
0.8	0.00171634227430428	-0.00602379526895778	0.00136767648742373	-0.00285815461893975	0.00135508250375316	-0.00286270006246319	-0.0109190090940844	0.00834883127873417
0.9	0.000336215948851334	-0.00606880746107697	0.000951005648236629	-0.00302127030911695	0.000952039716425749	-0.00303196332910018	-0.0103506062924203	0.00903362188060669
1	-0.0011583576524683	-0.00596699328724353	0.000526807114874907	-0.00312485181159433	0.000516950185164813	-0.00312559224339646	-0.00994096619984526	0.0094505567458105
1.1	-0.00265252604831633	-0.0052875491378385	7.10832128947478E-05	-0.0031536642158348	6.75772455230134E-05	-0.00317130580144251	-0.00973147411370122	0.0104076792429443
1.2	-0.00389738867731981	-0.00477974612435924	-0.000370695783210349	-0.00314278805408564	-0.000371507058056362	-0.00314071283768224	-0.0088877323738998	0.0112774591384767
1.3	-0.00533602691448988	-0.00438081178278623	-0.000797315480303145	-0.00305959076275014	-0.000800553415594514	-0.00306159490325596	-0.0075429259489431	0.0119687520871449
1.4	-0.0065487183762554	-0.00378718821734339	-0.00121819054411587	-0.00291169920255976	-0.00121697749641862	-0.00291722907424361	-0.00588485562532087	0.0120229206561936
1.5	-0.00717674822275412	-0.00263791595798236	-0.00161932066077913	-0.00271599200462986	-0.00161770951523102	-0.00272448816765297	-0.0046293647838183	0.0117510550895533
1.6	-0.0069456685119341	-0.00104331796145714	-0.00197925620731451	-0.00246322070400631	-0.00197946697486759	-0.00246845133589123	-0.0037339745750592	0.0119350387428333
1.7	-0.00630136937391843	0.000361045176827282	-0.00230712290405167	-0.00216685240951627	-0.00230808872556368	-0.00216059555005078	-0.00284916661839338	0.0120388912977612
1.8	-0.00537620492455641	0.00174910603541995	-0.00257802579815369	-0.00181593683591649	-0.00258898312288198	-0.00182157198850945	-0.00203254021997789	0.0120834999115384
1.9	-0.00415317543062433	0.00274691892396164	-0.00280356285440461	-0.00144551296023076	-0.00281599601725488	-0.00143936562562702	-0.00131182836704192	0.0119979576284622
2	-0.00299202240096828	0.00344942620035731	-0.00297873057869913	-0.0010376512584825	-0.00298834488256144	-0.00103294745746068	-0.00106213595941494	0.0120352561539973
2.1	-0.00146964327795776	0.00400014224263077	-0.00309185477518708	-0.00061037889472189	-0.00308777435500129	-0.000612367533944914	-0.00032919909943906	0.0125623309940464
2.2	6.72160674857402E-05	0.00399257968789683	-0.0031496486906382	-0.000172640934173968	-0.00316094259140154	-0.00017547895864593	0.000837588079138096	0.0126587200087959
2.3	0.00146844023563458	0.00355927172253479	-0.00314520864119473	0.000270553246169014	-0.0031449041144556	0.000263675628867632	0.00195949655872598	0.0123777067963662
2.4	0.00272274343159998	0.00282256801039661	-0.0030725850799095	0.000708668229374884	-0.00307512283894968	0.000704413799888848	0.00304968078218751	0.0118496555980003
2.5	0.0035749300293469	0.00167263294531495	-0.00293556560975276	0.00111968389560351	-0.00294644744845218	0.00112605164449182	0.00365709851149273	0.0108941175633639
2.6	0.00425887942303314	0.000670040487073351	-0.00276283443033646	0.00152263728589496	-0.00275927233012809	0.00151032552633122	0.00403811343337749	0.0105070105905813
2.7	0.00492005724592048	-0.000586161152001633	-0.00251707806911702	0.0018941351710628	-0.00252235454135803	0.00189414340143056	0.00454620467310064	0.010094279513982
2.8	0.00549611705037476	-0.00203071197926037	-0.00223426072470207	0.00222132452508416	-0.00222645784009779	0.0022311111588528	0.00507159231940321	0.00982675552535509
2.9	0.00594462338710134	-0.0038042955574619	-0.00190043660764406	0.00252084676863412	-0.0018967302849445	0.00252042271067572	0.00587910553215621	0.00953159553404033
3	0.0057987396265576	-0.0058092835055016	-0.00151552971118088	0.00275670533915554	-0.00153030831903761	0.00276278821585477	0.0064867708348926	0.00917812562042458
3.1	0.00543265181606269	-0.00768564943422987	-0.00112477646051028	0.00293449720542865	-0.00112012691643184	0.00294283933900803	0.00737238258766384	0.00909841019025487
3.2	0.00446011947284124	-0.00969172742288721	-0.000704403778093656	0.00307133283314262	-0.000706146940787242	0.00307072132060964	0.00820684046563998	0.00871112612288052
3.3	0.00296158089804824	-0.0115442665298687	-0.00026654822980376	0.00314117767245588	-0.000264897302140112	0.00313744069707164	0.00909312894512783	0.00814166137410875
3.4	0.000972332663584139	-0.013038203789914	0.000179700501396306	0.003135850371494	0.000173481714322978	0.00315240405390328	0.00996955578738553	0.0071752733505473
3.5	-0.0015558262054127	-0.0141720368622552	0.000602453641002081	0.00309379346614875	0.000608049157157958	0.00309387255651427	0.010116601343169	0.00587981260983789
3.6	-0.00415277348738482	-0.0144550559412399	0.00103081879461454	0.00297368349002533	0.00103900812358213	0.00297337084588307	0.0103073950995511	0.00535881583978111
3.7	-0.00675136140934693	-0.0144002957618364	0.00144088743869148	0.00279311557706688	0.00143129391386257	0.00280678012438947	0.0108582662491946	0.00454426582493325
3.8	-0.00938809163462461	-0.0137750971341029	0.00181915963470459	0.00256658189285127	0.0018215563060209	0.0025757322702923	0.0112681858585214	0.00347877237370755
3.9	-0.0117712126069711	-0.0126769635488347	0.00216575109610952	0.00229365426967033	0.00215848673023782	0.00229187026667167	0.0114111654976815	0.00216981544513305
4	-0.014145126152345	-0.011141627499389	0.00245022038042243	0.00197132774637164	0.00245466888534937	0.00196889602416935	0.0108104611529962	0.00103319863627271
4.1	-0.0159188467087889	-0.0088726975372689	0.0027014335363174	0.00161253933765463	0.00270018074009759	0.0016132738128449	0.0106058576414708	0.000924678992010275
4.2	-0.0172050279709021	-0.00650573637918687	0.0029014621639204	0.00121186156936626	0.00290593550787327	0.00120315066422527	0.0109421997580122	0.000508155817886573
4.3	-0.0180878438999779	-0.00400355788907969	0.00304507667802699	0.000799589919785868	0.00305150560838145	0.000791792349588623	0.0113089855053905	-0.000274835687722277
4.4	-0.0185746211804074	-0.00137446950087593	0.00312125874751409	0.000364995690680868	0.00312363440152459	0.00036274111426211	0.0114955612460502	-0.00133359078860048
4.5	-0.0188512637525265	0.00128878570440903	0.00314350666735541	-7.16717882617798E-05	0.00314886898189942	-7.50379688651506E-05	0.0110305340304432	-0.00251854661747822
4.6	-0.0185189658287127	0.00431108905878159	0.00310138346423306	-0.00051436428660265	0.00310259693964033	-0.000501447732219563	0.0106214764158319	-0.00292769160138558
4.7	-0.0174982320694738	0.00704966310535647	0.00299659311671544	-0.000934004941027502	0.0030118916447905	-0.000943608712279818	0.010482915739676	-0.00359528898223334
4.8	-0.016087582969533	0.00958092419849822	0.00283554803500814	-0.00134838837866796	0.00284403317992712	-0.00135447044292882	0.0102784369740998	-0.00427262798700321
4.9	-0.0139969724324508	0.0117599501517618	0.00261508063416334	-0.00173211393845191	0.00261924381250627	-0.00172920455210952	0.0101677709043301	-0.00500526657378826
5	-0.0117201941176067	0.0133724459281132	0.00235735881733335	-0.00208789462733811	0.00236097880989474	-0.00208522442233113	0.00978456025140498	-0.00574140267622998
5.1	-0.00869806277691528	0.0147280241687713	0.00204584341143947	-0.00240031755587209	0.00204814426628403	-0.00239895722888412	0.00995633097306284	-0.00598126055705425
5.2	-0.00560682132563002	0.0150902181554287	0.00168778381237661	-0.00265022162836562	0.00168950141617064	-0.00265536493662417	0.0103244274108382	-0.00689327330552239
5.3	-0.00267459258843303	0.0148915719198543	0.0013013343144144	-0.00286580536446723	0.00130446608657632	-0.00286373945602118	0.0103188113609801	-0.00800044969849804
5.4	8.14132620222374E-05	0.0142078519273287	0.000877022082712469	-0.00301427983507439	0.000894207065885582	-0.00302547823694987	0.0100179753920532	-0.00936053988815228
5.5	0.00226867312107871	0.0131874642614149	0.00046178159225191	-0.00311375521183545	0.000471846996346387	-0.003123187493156	0.00864588044508642	-0.0105353904341123
5.6	0.00463843685916536	0.0121414681904165	2.24207203187469E-05	-0.00314844799642279	1.38926313635262E-05	-0.00315166991412333	0.00775040707764279	-0.0104094534698046
5.7	0.00659695903896632	0.0103601972347925	-0.000408275319438214	-0.00311792439353345	-0.000424892382672782	-0.00312159251725357	0.00727916079828243	-0.0106699465051123
5.8	0.00801208347040054	0.00836172566841206	-0.000854449820189832	-0.00302347405219965	-0.00085798188275465	-0.00303747125640345	0.00678295871880262	-0.0112286379035609
5.9	0.0090370942593077	0.00624222471935676	-0.00126053914590764	-0.00288367284622853	-0.00126877508047951	-0.00288359186894384	0.00616468718366998	-0.0121098044323093
6	0.00924758494116789	0.00376468674280056	-0.00165905159022666	-0.00267522266738163	-0.00165549002559836	-0.00267539033256006	0.00435328657418961	-0.0132977907742926
6.1	0.0091582276451018	0.00189750100135304	-0.00201255808895749	-0.0024213767783129	-0.00201419839578628	-0.00241737274754861	0.00250316939798487	-0.0127050185920031
6.2	0.00890278384716221	-0.000358294114603544	-0.00232588775526338	-0.00210875221689446	-0.00232959554627516	-0.00212062693362447	0.00167720883219176	-0.0122158738941959
6.3	0.00818598572500664	-0.00267500449802171	-0.00260420516296691	-0.00177391148520037	-0.00261333647208788	-0.00176817070198386	0.00121245710032546	-0.0120507446191643
6.4	0.00696725514130515	-0.00506383090897774	-0.00283015653914332	-0.00138218460484726	-0.00282043204393377	-0.00138709014533837	0.000966124051051884	-0.0124124102803229
6.5	0.00490869015856335	-0.00709249716050443	-0.00298515500162658	-0.000978403467628088	-0.00299301593438872	-0.000973925230769414	-8.38111899886114E-05	-0.012815419721478
6.6	0.00296537838977366	-0.00832727194167832	-0.00309532937271072	-0.000553990307910769	-0.00309696194623229	-0.000557969427276839	-0.000270535354539334	-0.0125185136476698
6.7	0.000593858237799946	-0.00923032589185378	-0.00314632505616983	-0.000115006638658775	-0.00315518386709838	-0.000108725147449797	-0.000730619551919696	-0.0129076186592184
6.8	-0.00188422659292715	-0.00925694331919589	-0.00312430816821712	0.000327039489955405	-0.00313540493764265	0.000332089997804552	-0.00153532352916982	-0.0129981284406116
6.9	-0.00409465072480067	-0.00878031722879064	-0.00304846744080779	0.000759727587950086	-0.00305145526482045	0.000762118096460987	-0.00221795999641644	-0.0131804174911046
7	-0.00654676358861123	-0.00785384856339912	-0.00291409592964808	0.00118032267365328	-0.00292693429542141	0.00117811869427665	-0.00398632875271355	-0.0133260179519679
7.1	-0.00825715898408022	-0.00592593835746198	-0.00273576785137177	0.0015715109648621	-0.00273209875867042	0.00158018387862156	-0.00494188904727471	-0.0117733525732546
7.2	-0.00961791500574563	-0.00413692364839435	-0.00247834979855714	0.00193946794912244	-0.00248488319977816	0.00194155024539378	-0.00496772559905231	-0.0108655939529305
7.3	-0.0108613712439087	-0.00197718932600182	-0.00218298203172581	0.00225830642988513	-0.00219420152766626	0.00226336455390668	-0.00473316869223395	-0.0103760900718913
7.4	-0.0116053131107964	0.000456304771253803	-0.0018423546090527	0.00254216629108167	-0.00184924518659682	0.00255578712530413	-0.00431793586088967	-0.0106582110742587
7.5	-0.0121996602725829	0.00282491708026288	-0.00147524936360774	0.00278393631174517	-0.00146824287758537	0.00279133762535264	-0.0049821767528459	-0.0119551736753115
7.6	-0.011838340744164	0.00591826552426326	-0.00106738777317386	0.0029608483244706	-0.00106876712441649	0.00295614910106897	-0.0058963691622524	-0.0118399769373514
7.7	-0.0106348614734202	0.00826922924907274	-0.000639452462557519	0.00308191145988486	-0.000640794110252174	0.00308084978238913	-0.00642889945930518	-0.0125239337662741
7.8	-0.00879075395420587	0.0100471945822282	-0.00021354312472522	0.00313162220352624	-0.000221353589588583	0.00313808944310552	-0.00747613374861502	-0.01313913996226
7.9	-0.00648110133695694	0.0111272267303059	0.000229159911481133	0.00313929447040581	0.000237111215185381	0.00314078732284578	-0.00892586654167749	-0.0135384662952794
8	-0.00448827018299868	0.0117832882105863	0.000672279153197441	0.00306437763096271	0.000672367409452647	0.00306927893911779	-0.0114188678060357	-0.0130754584296664
8.1	-0.00155711027340569	0.0123858442130949	0.00108089576426587	0.00294653160797334	0.00110004855305322	0.00294760354958232	-0.0122568549906943	-0.0110890645285823
8.2	0.00115394412456823	0.0120280089485178	0.00148611941621292	0.00276613939897293	0.00149536520236197	0.00275893338545653	-0.0124664764003654	-0.00997036623122076
8.3	0.00367822122040315	0.011273871766808	0.00186344995418192	0.00252639988856673	0.00186182045082722	0.00253995967640871	-0.0126001359273203	-0.00914083556157234
8.4	0.00611492489822041	0.0100196655315807	0.00219912631347089	0.00224668278662779	0.00219609500745038	0.00224646263050337	-0.0127064211104766	-0.00887451071086885
8.5	0.00773250012786204	0.00818091507890247	0.00248214975135219	0.00191642931834549	0.00248125544870789	0.00191961278948246	-0.0142520979444563	-0.00870584320091358
8.6	0.00946790006093125	0.00666958294013087	0.00272987042057274	0.00155709859049511	0.00273936841522787	0.00155054740291933	-0.015001470598291	-0.00671381086268428
8.7	0.0108742837120984	0.00426123224863174	0.00291576904904271	0.00115299532941568	0.00292133158950382	0.00115371211708498	-0.0147662168820495	-0.00549303473563424
8.8	0.0115989805971003	0.001670099941196	0.00305122299207995	0.000741283727496089	0.0030569805835025	0.000732516144541868	-0.0144995725142485	-0.00477221104277422
8.9	0.0119980286072261	-0.00113179299391981	0.003127013864357	0.00030811834151287	0.00312614101446825	0.000305872785156762	-0.0139685648671237	-0.00451474274044303
9	0.0114909623856896	-0.00428601269223233	0.00313874271684745	-0.000133817993645105	0.00314190313159619	-0.000129717037889721	-0.01447531392513	-0.00472117094133901
9.1	0.0107501520474055	-0.00702588553463684	0.00309192219175278	-0.000577784753375804	0.00309482490665271	-0.000564887460899561	-0.0145905653934805	-0.0036800430847829
9.2	0.00926693598215388	-0.0101190788084086	0.00298069937796797	-0.000995089976799784	0.0029883521682183	-0.000997976682911375	-0.0143840704144926	-0.00334934110157835
9.3	0.0068819280063309	-0.0127476148970679	0.00281161563499843	-0.0013993263088878	0.00281087948893844	-0.00140431460805749	-0.0144554214859805	-0.00297384242828352
9.4	0.00400720803524339	-0.0148029592518239	0.00259028366554235	-0.00178917767624463	0.00259680149476305	-0.0017815849717943	-0.0145812213333469	-0.00269374920048302
9.5	0.000236697155344468	-0.0159317427100864	0.00231407849311052	-0.00212624166549905	0.00232149112489922	-0.00212760173636713	-0.0156195125446914	-0.00196751163599862
9.6	-0.00314463621679463	-0.0159735142576789	0.00199462083673303	-0.00242785302517012	0.00199495218482708	-0.00242687208887544	-0.0154883099827338	-9.48362824823398E-05
9.7	-0.00678152564750469	-0.0156468931173926	0.0016280005801845	-0.002677166796026	0.00163352187973659	-0.00268447567692044	-0.0148300941271917	0.000873074172871436
9.8	-0.0105128288269632	-0.0143608465599746	0.00124344634896453	-0.00288607455507355	0.00124915154053893	-0.00287758791022031	-0.014244159014682	0.00153532590526369
9.9	-0.0138546037729292	-0.0121558265688473	0.000837171165196335	-0.00302600171295965	0.000829844787140401	-0.00302476462556142	-0.0137413159521884	0.00169600003846003
10	-0.0171670816329089	-0.00931668153386651	0.000405233134596016	-0.0031121147482795	0.00039773065340387	-0.00312452655290403	-0.0145989440890795	0.00170816817389807
10.1	-0.0192595036431757	-0.00524379923323275	-3.39395664037346E-05	-0.00314259490771932	-4.4150174861113E-05	-0.0031372001195555	-0.0146800759598671	0.0033780724610501
10.2	-0.0204731635166613	-0.00122290222801285	-0.000479581260992317	-0.00310637764905964	-0.000482981228860125	-0.00310359901506686	-0.0138356821796367	0.00432748770834761
10.3	-0.0208952225447337	0.00313223397159779	-0.000912257273779145	-0.003000201344631	-0.000904187019340575	-0.00300927158192515	-0.0128392958938323	0.00479246858121969
10.4	-0.0201982259866109	0.00741390399225596	-0.00130895888630519	-0.00284344237918603	-0.00130727438606073	-0.00284962898609279	-0.011709633972974	0.00431849674027326
10.5	-0.0191599783852815	0.0113721851391454	-0.00169577712141199	-0.00264478054375917	-0.00169267837961495	-0.00263181167184349	-0.0121780233848751	0.00347457605308403
10.6	-0.0167719362041744	0.0155997129995646	-0.0020487675598063	-0.00237774170569301	-0.00204658430688565	-0.00238155843457155	-0.0124425214404245	0.00423516155692266
10.7	-0.0138115526130771	0.0191265948698622	-0.00236407908172546	-0.00207570396940991	-0.0023605887607528	-0.0020704317686929	-0.0124084000986125	0.00477664712145383
10.8	-0.0100165907054882	0.022322711830456	-0.00263204227730603	-0.00171573564071558	-0.00262685401132579	-0.00172464670645579	-0.0121334867461182	0.00557961178824485
10.9	-0.00535290528495929	0.0246329613122318	-0.00283819544826183	-0.00134329605473429	-0.00284337270314564	-0.00134256825112105	-0.0114807219871488	0.00586259928311432
11	-0.000657581014510501	0.0258950071385237	-0.00299963761389103	-0.000930213127325232	-0.00300447076052116	-0.000936950166780192	-0.0120470376147744	0.00606056064157283
11.1	0.00486508211556067	0.0266108032161559	-0.00310874670048542	-0.000503297971045446	-0.00309789944746717	-0.000500440865719731	-0.011435385431067	0.00775479089204553
11.2	0.0103384316960722	0.02571204931037	-0.00313687390040341	-6.63218203907352E-05	-0.00314401518047149	-7.11520410038311E-05	-0.00993395832706146	0.00842781849275569
11.3	0.0154894141769999	0.0238458523268417	-0.00311014834709709	0.000380501292497937	-0.00312166614143771	0.000370474269981691	-0.00820661817324991	0.00849112827485878
11.4	0.0202863569966628	0.0210190694523358	-0.00303870164911251	0.000806775120324532	-0.00303380042559839	0.000814336969166505	-0.00662597791217874	0.00770314733179999
11.5	0.0240361219897382	0.0172204153399484	-0.00289634486543598	0.00122530225137286	-0.00289912163275844	0.0012355710019261	-0.00675633689026365	0.00658069165903433
11.6	0.0276491558632524	0.0131634312748799	-0.00269991655063135	0.0016138708148198	-0.00269989791566706	0.00161680626839447	-0.00599724709533618	0.00680280789443997
11.7	0.0304597373617851	0.00803265029615339	-0.00244021331629337	0.00196700400395346	-0.00244078138486009	0.0019755948864475	-0.00467242033714198	0.00586937143576864
11.8	0.0323220170323247	0.00245356238848716	-0.00214679359029494	0.00229934022275769	-0.00215090489594885	0.00230103337490522	-0.00371980009959141	0.00431167408297441
11.9	0.0332836387550311	-0.00368088756971551	-0.0017978549845171	0.00257742978819787	-0.00181086689117644	0.00258172884771298	-0.00357317907348682	0.00223289846884155
12	0.0321842925564293	-0.0100057491211959	-0.00142209353722908	0.00279824718111576	-0.00142149861751106	0.00279965621403273	-0.00572464197031965	0.000755922561171977
