# GHZ S RI R 50
0.2	0.00594797692261945	0.00173233780525838	0.00304571529212775	-0.000898699980918808	0.00305607960206039	-0.000891900840136765	-0.0140219437037584	0.0053568632225057
0.3	0.00622177259385785	-0.000343449937276374	0.00290071753428279	-0.00132182695058859	0.00289348543496093	-0.00130889587446028	-0.0132593918065243	0.00542947522318333
0.4	0.00596209736874928	-0.00214177759955903	0.00266831769722509	-0.00169283071603672	0.0026735734758001	-0.00170138461778755	-0.0127305750786136	0.00582274728266191
0.5	0.00492729704156484	-0.00342343663571723	0.00240941656027213	-0.00204801555364915	0.0024209323602178	-0.00206024338453271	-0.0124791581329597	0.00651680266699613
0.6	0.00425138226992777	-0.00411907115181587	0.0020973455800184	-0.00236201873595144	0.00209655709060983	-0.00236915823903094	-0.0116424195119373	0.00734962568814859
0.7	0.00325564908731347	-0.00494221198640076	0.00175013874105935	-0.00263891275166965	0.00174818561471746	-0.00263911033410381	-0.011043337932477	0.00774058109642691
0.8	0.00207840376272471	-0.00544327249106632	0.001365138769164	-0.00285513907451727	0.00135255853467187	-0.00285967511942759	-0.0106126452463083	0.00828098004860416
0.9	0.000800189003595231	-0.00569542471676161	0.000949168619533106	-0.00301766146041438	0.000950199126396375	-0.00302834121551892	-0.0101621077595243	0.00880141349728936
1	-0.00100775063414254	-0.00577239921335991	0.00052545737155739	-0.00312120513642887	0.000515612155656041	-0.00312194242142623	-0.0101033396512814	0.00935418988348045
1.1	-0.00261446499594262	-0.00461618156098908	7.00624598598222E-05	-0.00314928724109085	6.65562259998226E-05	-0.00316690320121911	-0.00970541927787719	0.010878616390991
1.2	-0.00358592804485344	-0.00367207309257763	-0.000370683027370369	-0.00313789678794427	-0.000371492689072375	-0.00313582461438534	-0.00838145442594483	0.0121032445482898
1.3	-0.00452110059448777	-0.00293562328277617	-0.000796226298551549	-0.00305464997951414	-0.000799459177929871	-0.00305665071880384	-0.00636294194933193	0.0129386793886836
1.4	-0.00535069986850222	-0.00247106089538912	-0.00121625932630443	-0.00290697902999351	-0.00121504830904104	-0.00291249998214334	-0.00432926388242141	0.0125961032947826
1.5	-0.00610431691865794	-0.00146651095883234	-0.00161649460700592	-0.00271098276791293	-0.0016148867615081	-0.00271946355226327	-0.00318902932113125	0.0119440474009052
1.6	-0.00579011562162995	-0.00011258757836093	-0.00197473093451719	-0.00245883239789325	-0.00197493999547305	-0.00246405272730051	-0.00247672096337513	0.0115122774488173
1.7	-0.00529243511887693	0.000932949571829306	-0.0023016912204117	-0.00216361273470248	-0.0023026578396106	-0.0021573685004502	-0.00210810876680072	0.0112632067123951
1.8	-0.00459068523588483	0.00204627511567325	-0.00257202166856822	-0.00181376266556369	-0.00258295458386755	-0.0018193926470787	-0.00172007644722016	0.0112125093990054
1.9	-0.00371895440304123	0.00282032682520591	-0.00279691513771626	-0.00144427824561657	-0.00280932657885791	-0.00143815121144261	-0.00138690356990953	0.0111873406739677
2	-0.00303547563617864	0.00373211247922826	-0.00297115980216093	-0.00103827795960457	-0.00298075753946724	-0.00103359390773104	-0.00126243421339864	0.0116319067634537
2.1	-0.00145450583981416	0.00454390786907506	-0.00308505582811409	-0.000612969976882939	-0.00308098095945792	-0.000614949727682441	-0.000238131164985786	0.0120790621966296
2.2	0.000120477434054563	0.0045914538176853	-0.00314349177801323	-0.000176400153269534	-0.00315476072399526	-0.000179247477536264	0.000807491667315312	0.0119743493355043
2.3	0.00156291704945045	0.00415939433919378	-0.00313967908499262	0.000265515299503426	-0.0031393652282874	0.000258651064012577	0.00168928236440768	0.0116437884510992
2.4	0.00276559774835189	0.00329739914355188	-0.0030680583761261	0.000702060896325012	-0.00307058407604709	0.000697810058817	0.00242053296137222	0.0112364103898803
2.5	0.00323188965992879	0.00228624104175554	-0.00293341048259274	0.00111210135216831	-0.00294428879003478	0.00111843766535213	0.00278485647728136	0.0109844341229145
2.6	0.0040023413766555	0.00170058135540499	-0.00276199014125566	0.00151540768012276	-0.0027584096954487	0.00150311911445757	0.00378359103960642	0.0110545197838692
2.7	0.00487926665627209	0.000584222546114353	-0.00251752821511944	0.00188662979847194	-0.00252279774714293	0.00188662751963186	0.00478319592486727	0.0105566096658389
2.8	0.00559255521083603	-0.000885829444268307	-0.00223641570956062	0.00221385363983773	-0.00222864326218916	0.00222364554309413	0.00553572891353757	0.0100045076733887
2.9	0.00598598229497662	-0.00271967348475081	-0.00190455763833071	0.00251422166405389	-0.00190085363608842	0.00251380652904549	0.00628781490598091	0.00952507181429408
3	0.00572334154533639	-0.00445487500274855	-0.00152019573331285	0.00275188867968356	-0.00153497746567959	0.00275793763144943	0.0070591971146415	0.00933145347525664
3.1	0.00565050237312562	-0.00618365242679732	-0.00113000811059943	0.00292973509229107	-0.00112537986659422	0.00293808014169074	0.00831940547820931	0.00884463504261331
3.2	0.00487403132658813	-0.00824382136349888	-0.000710944824552685	0.00306765114996732	-0.000712685413981235	0.0030670360678747	0.00906403498603791	0.00801856514954812
3.3	0.00352696715796438	-0.0102430757068667	-0.00027378277083857	0.00313913497388448	-0.000272123838795102	0.00313540355173106	0.00975291654832216	0.00715161263489329
3.4	0.00150047940602905	-0.0119839465790163	0.000172728376024349	0.00313541837180108	0.000166474678520542	0.00315195394660378	0.0102798916771483	0.00603784582582359
3.5	-0.00124151629581861	-0.0130015033595663	0.000595430362251654	0.00309341987326378	0.000601022673035619	0.00309351103239026	0.0103108185415417	0.00504170781223313
3.6	-0.00364358510451519	-0.0132442512529561	0.00102268192929985	0.00297527631833568	0.00103086905526946	0.00297498515145673	0.0107019053089664	0.00421731334339369
3.7	-0.00618272406415516	-0.0133006952353439	0.00143339998828003	0.00279677736261885	0.00142377077802084	0.00281041569796085	0.0108723804106668	0.00315760214137337
3.8	-0.00882736432281687	-0.0128034093284544	0.00181267925208468	0.00257161649494554	0.00181505235147886	0.0025807741656511	0.0108231134323046	0.0022139587311178
3.9	-0.0113628075938454	-0.0118317051419244	0.00215997574809012	0.00229950421206753	0.00215271536415726	0.00229770112743428	0.0106167540282389	0.00139881163051437
4	-0.0139062709002312	-0.0100451250502304	0.00244465204278995	0.00197938349289837	0.00244910910630728	0.00197696503681247	0.010417968048051	0.0011389677559081
4.1	-0.0154094821119145	-0.00780736209357097	0.00269888195647671	0.00162210382879627	0.00269762585800062	0.00162283514588177	0.0111026568456208	0.000702528928166059
4.2	-0.0167211772156833	-0.00567675117936353	0.00290100153823037	0.00122137727968696	0.00290550431175441	0.00121267013642414	0.0114677677011577	-0.000276456851456012
4.3	-0.017782362980429	-0.00336007296279812	0.0030462699931803	0.000809178825734069	0.00305272847341627	0.000801390685072702	0.0115595399603603	-0.0013330499474221
4.4	-0.0186443331423943	-0.000885726578067326	0.00312436029038908	0.000375068769140654	0.00312674607712399	0.000372818434302772	0.0113262346949313	-0.00233214650223496
4.5	-0.0194365059576877	0.00216885290365527	0.0031505593243616	-6.22975250669434E-05	0.00315594350412006	-6.56547684130084E-05	0.0109306642326566	-0.00281914920432312
4.6	-0.0190140483253109	0.00556221008604443	0.00310972847810807	-0.000508021386152587	0.00311091341127759	-0.00049507232864411	0.0112234374647986	-0.00344015683712988
4.7	-0.0179255514138553	0.00850788680640277	0.00300570613579191	-0.00092917513453357	0.00302106246959144	-0.000938765437022611	0.0111638777613935	-0.00451604287311584
4.8	-0.0163907446149564	0.0111428959551386	0.00284583366442462	-0.00134527834161657	0.0028543542993695	-0.00135135628477072	0.0108506305992414	-0.00551390883528661
4.9	-0.0143260933646157	0.0132930587210731	0.00262664757366045	-0.00173169884149775	0.00263081700153185	-0.00172877178621792	0.0103906889027825	-0.00639592345640872
5	-0.0121435145338931	0.0152834232819883	0.00236759929566199	-0.0020913560605726	0.0023712271788854	-0.00208867258284222	0.0100306962613504	-0.00676562331982546
5.1	-0.00882765953591792	0.0167401910134471	0.00205470430330548	-0.00240432506887042	0.00205700978897342	-0.0024029579239496	0.0103149297208587	-0.00750815822025143
5.2	-0.00563819517621177	0.0171698842378379	0.00169629114196458	-0.00265593828216539	0.00169802059937289	-0.00266109472013246	0.0101016424868864	-0.0084663581554769
5.3	-0.00252504234513294	0.0170345755773032	0.00130854750226712	-0.00287365297135656	0.00131168717063268	-0.00287157710868581	0.00980494883970403	-0.00913761680841655
5.4	0.000304534561172912	0.016236422770034	0.000881543114724028	-0.00302369720709262	0.000898790612072597	-0.00303492300920166	0.00953786198964464	-0.00998704850447436
5.5	0.00255020744274012	0.0155190191365937	0.000464276236159141	-0.00312185000979821	0.000474372250278876	-0.00313130328762115	0.00904678525059404	-0.0105490293177796
5.6	0.0053609879653132	0.01426803424933	2.49863837093117E-05	-0.00315773170097041	1.64356580032913E-05	-0.00316096990734462	0.00890700898717999	-0.0115343461638315
5.7	0.00745342229916795	0.012214630259983	-0.000407962650062322	-0.0031282785112213	-0.000424631820995003	-0.00313196730580528	0.00794797341745419	-0.012559398456141
5.8	0.00896852707172251	0.00983471786491003	-0.000856695291979551	-0.00303354556147408	-0.000860236360455866	-0.00304758931389413	0.00676417949529868	-0.0133776660555348
5.9	0.00972542701501038	0.00709723077111322	-0.00126430100787138	-0.0028922948193946	-0.00127256155946116	-0.00289221361709926	0.00521219511579671	-0.0140150021650373
6	0.00916220528480804	0.00473474651383688	-0.00166275743107131	-0.0026845960059776	-0.00165918454813219	-0.00268476217384211	0.00320069905525465	-0.0136251246753394
6.1	0.00899259367790308	0.00302928566468625	-0.00202014958207524	-0.00243069200561101	-0.0020217962963222	-0.00242667275446854	0.00262243514674816	-0.0127946789266292
6.2	0.00849528036634929	0.000937333378786365	-0.00233550143380998	-0.00211560181123816	-0.00233922829975743	-0.00212751923511636	0.00226522178216302	-0.0126357356246845
6.3	0.00768545908757496	-0.00113030476891848	-0.0026146874179564	-0.00177862305129575	-0.00262384786230688	-0.00177285583509592	0.00195713516517161	-0.0128425756274873
6.4	0.00625160548312297	-0.00330199482823946	-0.00284115008589953	-0.00138574386768225	-0.00283139280107705	-0.00139067224739118	0.00143913614959129	-0.0133045608563667
6.5	0.00429358103824265	-0.00453444430722177	-0.00299933294428482	-0.000979934287145063	-0.00300722456233489	-0.000975428755112905	0.00101037717628608	-0.0133359510062554
6.6	0.00285061590390739	-0.00568048283162961	-0.00310876744721126	-0.00055051328689203	-0.00311041389715318	-0.00055450536415149	0.000975001404879824	-0.0141817326470896
6.7	0.000830879164930851	-0.0065608696317919	-0.00315815778827849	-0.000109374017996488	-0.00316703719948814	-0.000103052291456885	-4.99052824686668E-05	-0.0148921662424186
6.8	-0.00137299482539751	-0.00690195195715282	-0.00313525701119864	0.000334432654348352	-0.00314638497654643	0.00033952385411496	-0.00125928371451917	-0.0151369755125876
6.9	-0.00393268625761631	-0.00683330796205347	-0.00305916093615414	0.000769819064537441	-0.00306215546586189	0.000772226177832785	-0.00262564194264852	-0.0151361659824768
7	-0.00667961791066079	-0.0052659557586459	-0.00292102048568344	0.00119495975341245	-0.00293391518473519	0.00119279220487095	-0.00382259635122789	-0.0142135263204364
7.1	-0.0079587098543021	-0.00334237325584238	-0.00273857432009353	0.00158537480230761	-0.00273486516271524	0.00159406103396397	-0.00402438205002648	-0.0138640355766682
7.2	-0.00915558317105291	-0.00156477948112681	-0.0024790948623815	0.00195350458653527	-0.00248564043047059	0.00195561499070721	-0.00479571562776738	-0.013742216550258
7.3	-0.0100935021044572	0.000414286743509102	-0.00218098304842336	0.002272938127695	-0.00219221646893887	0.00227805241490168	-0.00554842506125733	-0.0134990944181767
7.4	-0.0108720653681273	0.00224559017396867	-0.00183602248516572	0.00255676636494668	-0.00184287143944659	0.00257045242404553	-0.00656679576639224	-0.0134825648567015
7.5	-0.0120332469863211	0.00476657512890607	-0.00146532118115265	0.00279399924318011	-0.00145827358301253	0.00280138053712594	-0.00784680881408326	-0.0125382461828811
7.6	-0.0114274939077997	0.00789913686048778	-0.0010581385579024	0.00296944482984374	-0.00105953742276933	0.00296474330629567	-0.00762724975100342	-0.0116830494135198
7.7	-0.0104626539521436	0.0101955966392249	-0.000628217752895122	0.00308938953778277	-0.000629565771677492	0.00308833149689652	-0.0078615295382123	-0.0120770370408094
7.8	-0.0088138625986476	0.0120850015365062	-0.000200474396556963	0.00313648543444298	-0.000208267176668783	0.00314299410559543	-0.00843957474155994	-0.012247129662531
7.9	-0.00693496454650945	0.0134431133561339	0.000242589860082706	0.00314010629960948	0.000250552003589311	0.0031415663135706	-0.00921143829363167	-0.0120607581401282
8	-0.00450569058293935	0.0150664132680976	0.000682679259529174	0.0030642537482925	0.000682783487125868	0.00306915806263141	-0.00955409784909289	-0.0114015039257891
8.1	-0.00106329765735458	0.0153817121630194	0.00109354264911643	0.00294594376479364	0.00111272277388154	0.00294694331419201	-0.00954786422954791	-0.0117607194311553
8.2	0.00178994800625464	0.0147940391781245	0.00149901781454675	0.00276205454168967	0.00150824046814566	0.00275480362876022	-0.0104267516635495	-0.0119202003656143
8.3	0.00433109962166605	0.0137117683762626	0.00187473643561202	0.00251942615672475	0.00187316348102293	0.00253299750442635	-0.0113615777857203	-0.0117283993551515
8.4	0.00628086391610521	0.0121452355130503	0.00220805148729219	0.00223893588257165	0.00220501867343183	0.00223872705182517	-0.0125206729130525	-0.0114014132815029
8.5	0.0076096214330541	0.0110953722800003	0.00249284236333099	0.00190799111724874	0.00249196053184901	0.00191118171358986	-0.01360345926145	-0.0100554797149306
8.6	0.00980275321020714	0.00956716783803585	0.00273806785649466	0.00154367861125195	0.00274753450996528	0.00153707893620143	-0.0135789050856308	-0.00941866070650685
8.7	0.0113405390212382	0.00716424244932687	0.00291999475130727	0.0011385872302983	0.00292555828194854	0.00113927717826332	-0.0142480138732297	-0.00911738817184458
8.8	0.0123252139257909	0.00438802084976369	0.00305275054126838	0.000727048833848639	0.00305846506170097	0.000718260464545504	-0.0151818482158922	-0.00865228137515065
8.9	0.0125495930538537	0.00111078289162571	0.00312745925370803	0.000293565369376109	0.00312657629568269	0.000291324551396384	-0.0161928211550043	-0.00780021766243913
9	0.011646102413322	-0.00167523854327727	0.00313475558452321	-0.000151582801438878	0.00313793614354833	-0.000147504083764327	-0.0168308991498633	-0.00588327580495334
9.1	0.0110083634730904	-0.00442559873266648	0.00308272918049457	-0.000591954174787004	0.0030856899925301	-0.000579097674818678	-0.0160960038577522	-0.00452996715491906
9.2	0.00944910815930277	-0.00729260649444084	0.00297008548816508	-0.00100677962074126	0.00297770950186949	-0.00100969566719365	-0.0155785271651468	-0.00364867421688959
9.3	0.00726218490972514	-0.00983603807673761	0.00279927364741586	-0.00140966830652112	0.00279851557079823	-0.00141464291589293	-0.0148443444488076	-0.0029355007820411
9.4	0.00421004791252517	-0.0120948867169488	0.00257431246786807	-0.00179827383392258	0.00258085373551395	-0.00179073464345883	-0.014328236148971	-0.00267981236348547
9.5	0.000471008219663881	-0.0126907143415685	0.00229484010932532	-0.00212819102056171	0.00230221618205784	-0.00212957961994229	-0.0137944480386172	-0.0018575529903167
9.6	-0.00269565613684745	-0.012958619679622	0.00197855329620187	-0.0024261068155093	0.0019788869559015	-0.00242513067680232	-0.0131801806206413	-0.00215693616143976
9.7	-0.00630070632488721	-0.0125879828932226	0.00161232089484796	-0.0026733516374179	0.00161779546770862	-0.00268065402478679	-0.0134921797599642	-0.00221697570657173
9.8	-0.00983365821296993	-0.0114639245710882	0.00122793545417474	-0.00287892259292926	0.0012336484064546	-0.00287049098367454	-0.0139313849571728	-0.00190294750567494
9.9	-0.0134012705116232	-0.00965598919535587	0.000823568436242777	-0.00301391116017081	0.000816281609775989	-0.00301265702300675	-0.0147094614816047	-0.00124408550489078
10	-0.0168821349152789	-0.0063589691521103	0.000398391355308029	-0.00309888484148299	0.00039090227264445	-0.00311122913352642	-0.0150989085238174	0.00040315774520196
10.1	-0.0187449008138169	-0.00260728900792358	-4.04798396107788E-05	-0.00313056332429361	-5.06401408927552E-05	-0.00312516739696384	-0.0143732784818985	0.00115882539835874
10.2	-0.0201362410255362	0.00126175773338408	-0.000484191846026713	-0.00309221195731422	-0.000487571492169607	-0.00308943781071059	-0.014210433963856	0.00166202639710706
10.3	-0.0207592347814951	0.00543239242850956	-0.000913056925380131	-0.00298500790718006	-0.000905038479569477	-0.00299405011590109	-0.0140700015365896	0.00231495563216029
10.4	-0.0207767826104701	0.00962177384706038	-0.00130525769744526	-0.00283018822415628	-0.00130358481786459	-0.00283634915075614	-0.0139188062965264	0.0029933248251503
10.5	-0.0200619733195932	0.0147463377542519	-0.00169379699291207	-0.00263492201098797	-0.00169069240624072	-0.00262199541425926	-0.0132652897421008	0.00447628779946919
10.6	-0.0172930864778354	0.0193685252315107	-0.00204522873221137	-0.00236459613081571	-0.00204306118857548	-0.00236840204492858	-0.0116214334579486	0.00482661028300411
10.7	-0.0137271578024234	0.0231264229818171	-0.00235654152489471	-0.00206328634143552	-0.00235305927479441	-0.00205804219798304	-0.0104063037982848	0.00467128040036729
10.8	-0.00951621753789822	0.0258831235202396	-0.00262197592813775	-0.00170602176255214	-0.00261681783656364	-0.00171489822589812	-0.00963725913009939	0.00407859269949932
10.9	-0.00536341664507977	0.0277655439806477	-0.00282851328577349	-0.00133597333950382	-0.00283367037223812	-0.00133524420660839	-0.00972910220311821	0.00355377485765354
11	-0.000849322418295906	0.0298463358610266	-0.00298751979781248	-0.00092054015335359	-0.00299234284302284	-0.000927237523692594	-0.00961287587032993	0.00422665694149582
11.1	0.00501703774476869	0.0305903184490849	-0.00309217382853788	-0.000498927919499163	-0.00308138382047581	-0.000496092026024982	-0.00867948230955704	0.0038995073028408
11.2	0.010759248773965	0.0298935559378982	-0.0031210747688886	-6.63615380027985E-05	-0.00312817952399146	-7.11682935032785E-05	-0.0084142644408446	0.00349566450817171
11.3	0.0164483739551228	0.0278268420122507	-0.00309552480585171	0.000378046025700293	-0.0031069860314094	0.000368063977159463	-0.00804510011154725	0.00325969250272003
11.4	0.0212376090157033	0.0245177596803476	-0.00302337461236171	0.000803437366885006	-0.00301849611702386	0.00081096042341184	-0.00803626339508764	0.00300978205846107
11.5	0.0251206908279547	0.0210933679577544	-0.00287911964414449	0.00121496844967039	-0.00288188801128255	0.00122516977616621	-0.00783234238854731	0.00343025435343344
11.6	0.0291009462289433	0.0163667368131878	-0.0026890397361498	0.00159979502780492	-0.00268902726645731	0.00160271506756637	-0.0070310390495254	0.00263713758099436
11.7	0.0316564389125436	0.0107084133819351	-0.00243240538221503	0.00195266717171489	-0.00243298788191118	0.00196121559584492	-0.00717921209006735	0.00180152617141822
11.8	0.0329489403851385	0.00473286001148676	-0.00214078287620893	0.0022837258813276	-0.0021448772752864	0.00228540249789283	-0.00757940386911613	0.00149931982654498
11.9	0.0327635177693396	-0.00125623266981839	-0.00179467292758397	0.00255783196014768	-0.00180762250972607	0.00256207092151167	-0.00803658096605248	0.00202499292956826
12	0.0319720235196015	-0.00606295316215894	-0.00142827303751067	0.00277912946343864	-0.00142768717862289	0.00278053478820023	-0.00708843701236114	0.003569407787949
