# GHZ S RI R 50
0.2	0.00583354050513157	0.00103989427282201	0.0030494112794618	-0.000897863293064428	0.00305978242858387	-0.000891051036277508	-0.014101435358343	0.00471157970464448
0.3	0.00621248575313495	-0.000796925704480711	0.0029053748706641	-0.00132143017009721	0.00289812423064726	-0.00130848777013512	-0.0132479096400991	0.00502394033599464
0.4	0.0059707893275174	-0.00233025986790566	0.00267401828478671	-0.00169344093757682	0.00267928948484297	-0.00170200453212044	-0.0127376545485055	0.00567947137161566
0.5	0.00557351260826425	-0.00364894806348155	0.00241524351570579	-0.00205099338848487	0.00242678832640468	-0.00206324036449886	-0.0119532038396081	0.00637795205004549
0.6	0.00451404782870698	-0.00510160297574264	0.00210199524659439	-0.00236563735243482	0.00210120773891286	-0.00237279021718697	-0.0115327915672832	0.00661190723532834
0.7	0.00299137663513641	-0.00581757721314554	0.00175473836080498	-0.00264340586178924	0.00175278144092979	-0.00264360466911214	-0.0113956481644841	0.007227980306205
0.8	0.0014984902094646	-0.0061267006062698	0.00136915610365714	-0.00286106215537115	0.00135654927116404	-0.00286561259417549	-0.0111776509018897	0.00802768910662112
0.9	-0.000184780931221085	-0.00597666986465456	0.00095156968035766	-0.00302501222294062	0.000952602992500697	-0.00303571805545237	-0.0109878930286377	0.00892984801090343
1	-0.0015084521772472	-0.00504980786891929	0.000525664507432372	-0.00312788395500038	0.000515798487330129	-0.00312861996855756	-0.0104107167931171	0.0102858530856158
1.1	-0.00238040603187181	-0.00466600735683541	7.05481955718334E-05	-0.00315612065533142	6.70362111738041E-05	-0.00317377525184057	-0.00947574051979317	0.0109785981969591
1.2	-0.00369288652761712	-0.00417319975801328	-0.000371741164142321	-0.00314575393130316	-0.000372552772521808	-0.00314367652597271	-0.00861552423661246	0.0118055786568487
1.3	-0.00486649304830594	-0.00374110286602121	-0.000799321189005897	-0.00306239507533628	-0.000802563203341851	-0.00306439999310226	-0.00693552155877019	0.0124605854668641
1.4	-0.0059946265772127	-0.00336716026991957	-0.00122094773778914	-0.00291343588982138	-0.00121973694736866	-0.00291897115284	-0.00518857265850801	0.0121976529178724
1.5	-0.00631785532840662	-0.00246224558178343	-0.00162073041160799	-0.00271712128498196	-0.00161912010359044	-0.00272562231620989	-0.00363419443498176	0.0115884098815666
1.6	-0.00668953175187347	-0.00143762862544572	-0.00198173003975982	-0.00246574252759395	-0.00198194161915251	-0.00247097895521474	-0.00343191129179289	0.0110785278103515
1.7	-0.00646048835436283	0.000247005430927765	-0.00231088130051918	-0.00216838392859404	-0.00231184539834582	-0.00216211913640537	-0.00309103708585515	0.0114557389786175
1.8	-0.00569609896300499	0.001878650125594	-0.00258191449568357	-0.00181620749319736	-0.00259288701526222	-0.00182184159311198	-0.00251157020918513	0.0118040413036614
1.9	-0.00459079541921775	0.00331119841887321	-0.00280666824110749	-0.00144528077031709	-0.00281910868830836	-0.001439121841125	-0.00192468233641049	0.0122540818640726
2	-0.00264319829628686	0.00441484935681338	-0.00298301913612153	-0.00103855991149274	-0.00299264587093875	-0.00103384794078735	-0.000759573689894993	0.0127698907537953
2.1	-0.00104042090191742	0.004151571996961	-0.00309731217722276	-0.000608400703803609	-0.00309322721254389	-0.000610396360975267	0.000143958236225351	0.0123558793480089
2.2	0.000115099402491912	0.00405783353902524	-0.00315377310584705	-0.00016926300060984	-0.0031650843272649	-0.00017209167955697	0.000871103605088088	0.0122700595021747
2.3	0.00123551914418617	0.00367320742648507	-0.00314845524725554	0.00027428940583753	-0.00314815788121916	0.000267403711477199	0.00160903527889081	0.012019341153296
2.4	0.00205678549994981	0.00325220720175327	-0.00307603128483636	0.000712648942172503	-0.0030785766549306	0.000708391273267373	0.00214950699407412	0.0118943319876023
2.5	0.00327781618345034	0.00309291188762535	-0.00293874694039555	0.00112694459220325	-0.00294963658470797	0.00113334317937837	0.00318456249466517	0.0121393881132834
2.6	0.00469737783578719	0.00174616289494799	-0.00276191624542839	0.00152983749236593	-0.00275837746942151	0.00151750768707468	0.00450230447212322	0.0114217057109061
2.7	0.00551806845938789	0.000193829734049759	-0.00251518581639609	0.00190006929610299	-0.00252046571729304	0.00190008737982368	0.00527483788518529	0.0106312400580891
2.8	0.00601594060565579	-0.00159750591373217	-0.00223176759485153	0.00222711581422388	-0.00222394075897453	0.00223689511475278	0.00576068493146562	0.00992132553237057
2.9	0.00612391144560336	-0.00332322271013944	-0.00189636834168483	0.00252737099250967	-0.00189265974186112	0.00252693813899215	0.00623513213953839	0.00962731207617659
3	0.00643597772553605	-0.00507064385241576	-0.00150731672285365	0.0027609119652925	-0.00152207622530542	0.00276703765041415	0.00741374090836077	0.00947485346810227
3.1	0.00593804404263227	-0.0076293317144346	-0.00111827481801032	0.00293526823818925	-0.00111361080376024	0.00294359671584187	0.00818513027099046	0.00849306884259422
3.2	0.00458456403256657	-0.00963480336046588	-0.000698229059473106	0.0030719124500109	-0.000699972964218012	0.00307130449678277	0.00854209829011112	0.0079735475636463
3.3	0.00283802795221092	-0.0114251975170915	-0.000259597999993427	0.00314075439729057	-0.000257955767921009	0.00313701501046629	0.00905919583793137	0.00740032038638723
3.4	0.000514589073709765	-0.012619216701835	0.000187324156896001	0.0031326445233918	0.000181151922090905	0.00314919906896872	0.00948809250902282	0.0067492160186005
3.5	-0.00143767013496898	-0.0132367135219124	0.000605982819670309	0.00308757487108991	0.000611568813910279	0.00308764556531646	0.0102210258505142	0.00602484491960516
3.6	-0.00406013496242058	-0.0143187381838916	0.00103321248399232	0.00297027136485068	0.00104139512852007	0.0029699501702452	0.0103860785236315	0.00459387685296555
3.7	-0.00727257311093979	-0.0141907725424604	0.0014438463132144	0.00278891227009718	0.00143427986158051	0.00280258038303431	0.0101646662497071	0.00378932733749477
3.8	-0.0103066487035406	-0.0131380243097935	0.00182096835652338	0.00256110279035949	0.00182337592703056	0.00257023966992661	0.0100001574630048	0.00322964913559555
3.9	-0.0128496729534931	-0.0111770440140556	0.00216472075989489	0.00228820134869036	0.00215746545953741	0.00228642688371575	0.00988752560262126	0.00301102625952181
4	-0.01394571947954	-0.00877319524951573	0.00244947487444057	0.00197013277416277	0.0024539211395224	0.00196770142436507	0.0107807627895228	0.00299633110144101
4.1	-0.0150265570041785	-0.00756766299983946	0.00270330891615343	0.00160874138374675	0.00270205723959342	0.00160947746178549	0.0115002581674495	0.00168366879397667
4.2	-0.0165360125914165	-0.00568531801303428	0.00290132894393492	0.00120676021018004	0.00290578641757545	0.00119804846854853	0.0116073651902502	0.000658963560004319
4.3	-0.0177327543096632	-0.00337740861513452	0.00304342733183439	0.000795225421271068	0.00304984132323878	0.000787426782750248	0.0116121858113805	-0.000342702177445822
4.4	-0.0186744129182866	-0.000510822105380687	0.003120184873666	0.000362240778468828	0.00312255760583269	0.000359985222599712	0.0113270480453369	-0.00107644234779943
4.5	-0.0182471849808883	0.00289117040390885	0.00314430532055771	-7.81941441260716E-05	0.00314966228903786	-8.15724279246115E-05	0.0117782372249255	-0.0014446506786527
4.6	-0.0175316597167832	0.00490507567550837	0.00309634486870283	-0.000521433087323866	0.00309758891081931	-0.000508535213831405	0.0119173717685122	-0.00306272179787847
4.7	-0.0169129718012614	0.00732725405000885	0.00299010719184757	-0.000938186803517482	0.00300536348358115	-0.000947804302318554	0.0113671693892572	-0.0042374995801629
4.8	-0.0158365555122088	0.00972230561823554	0.00282916054752012	-0.0013510449837189	0.00283762322574674	-0.0013571319804921	0.0107404104725389	-0.00518738158091618
4.9	-0.0142466755774204	0.0121138167939207	0.00260837503013306	-0.00173535201235452	0.00261253910028145	-0.00173245465059006	0.0100057679795311	-0.00574462813943435
5	-0.0113645276987575	0.0141984503665411	0.00234521803152758	-0.00208888010393139	0.00234883577860353	-0.00208622715304387	0.0102307451615624	-0.00597875207726786
5.1	-0.0087303750368276	0.0146505659950893	0.0020365090224758	-0.00239500391010444	0.00203880408722592	-0.00239365060707996	0.00998093595851584	-0.00728487303699707
5.2	-0.00640997426265336	0.0154484992040973	0.00168106232204557	-0.00264444462450072	0.00168277108763234	-0.00264957544888463	0.00935993821267276	-0.0077965294538922
5.3	-0.00358393589283218	0.0159756928299138	0.00129515650303304	-0.00285945995795171	0.00129828195482882	-0.00285740250494903	0.00908699862213405	-0.00803763554528841
5.4	-0.000578157119988934	0.0160342036072637	0.000870558095992833	-0.00300526154091576	0.000887672638597883	-0.00301644279611649	0.00902379263313375	-0.00840316825503659
5.5	0.00330426141277134	0.0152883936369592	0.000461526646677587	-0.00310001124305238	0.000471553744919839	-0.00310939703398269	0.00970198274526184	-0.00916077167857807
5.6	0.00550501470267255	0.0123973546867149	2.63219651413932E-05	-0.00313989679638711	1.78210163992608E-05	-0.00314312072371202	0.00878205277114442	-0.0112517420780397
5.7	0.00640934054897046	0.0104566597616043	-0.000404594456166272	-0.0031107672932367	-0.000421168319531778	-0.00311444095719847	0.00703192656180617	-0.0118638133147185
5.8	0.00708466608407887	0.00874413268572699	-0.000849571784894722	-0.00301631005640237	-0.000853082372722515	-0.00303027372443884	0.00551907253684597	-0.0120926748916267
5.9	0.00722074374137862	0.00754300341448646	-0.00125202771115423	-0.00287722878875916	-0.00126023940619429	-0.0028771617059684	0.00379063800380058	-0.0117490755308856
6	0.00852659392993026	0.0072673607567217	-0.00164970743092902	-0.00267660504085418	-0.0016461496472213	-0.00267676269753629	0.00329592460410242	-0.0102451264305799
6.1	0.0100773774566612	0.00453343900265761	-0.00200868298908568	-0.00242187654058448	-0.00201032640175993	-0.00241787688989083	0.00355091372136358	-0.010501581297664
6.2	0.0101445733992867	0.00164215426664769	-0.00232098405147918	-0.00210800568461237	-0.0023246765937113	-0.00211986800067711	0.00329951207176602	-0.0108266406045101
6.3	0.00940182446227735	-0.0013757110665732	-0.00259805738108809	-0.00177458033381999	-0.00260718236973023	-0.00176885975330856	0.00290535883567603	-0.0115880136603362
6.4	0.00758395822218269	-0.00374285179319059	-0.00282530380890814	-0.00138636705709327	-0.00281557793940117	-0.00139125048626293	0.00203296027261848	-0.0120531047881177
6.5	0.00655105820225558	-0.00565376637982863	-0.0029856611896306	-0.000979328197926646	-0.00299352507457753	-0.000974850669385695	0.00218700984422147	-0.0124933803639128
6.6	0.00373216358076442	-0.00807489770169129	-0.00309033466615617	-0.000552974538459431	-0.00309196474586546	-0.000556947147739525	0.00100698937768744	-0.0138234786077904
6.7	0.000823952803726859	-0.00853366255950932	-0.00314061289065776	-0.000117729751307942	-0.00314946176534204	-0.000111467694803635	-0.000322284466382171	-0.0138962134477015
6.8	-0.001796005761613	-0.00849546614298674	-0.00312086147919732	0.000322469433706833	-0.00313195118961285	0.00032749887693075	-0.00151892046428859	-0.0138684685534697
6.9	-0.00456659579230622	-0.00748048508894643	-0.00304749376135332	0.000757206263015415	-0.00305048178958124	0.00075959348584185	-0.00289318350447811	-0.0132904882367234
7	-0.00528916273720336	-0.00568150498476809	-0.00290711809672948	0.0011788799727363	-0.00291992874110638	0.00117668614319661	-0.00262466215029583	-0.0124022163350571
7.1	-0.00709847809048317	-0.0059632219042209	-0.00273119223856983	0.00156287584839531	-0.00272754708007763	0.00157153208925735	-0.00355882693250177	-0.0134824861336264
7.2	-0.00969034926434679	-0.00441517518264917	-0.0024779138800043	0.00193120233861631	-0.00248444012240441	0.00193326808124251	-0.00513799990979261	-0.0130955480804944
7.3	-0.0118229911821925	-0.00213465138926926	-0.00218366671884931	0.00225147073633535	-0.00219487880214595	0.00225650298296339	-0.00626001918529947	-0.0125145099553198
7.4	-0.0139159462152441	0.000989950818353512	-0.00184149354351087	0.00253451993271872	-0.00184838586529406	0.00254810339596601	-0.00770972714106763	-0.0117212081904371
7.5	-0.0138259669026938	0.00579971956889679	-0.0014802202945286	0.00277013779899536	-0.00147326124188854	0.00277754007444886	-0.00766768197041069	-0.00977489098484555
7.6	-0.0124320557809548	0.00804381482296508	-0.00107856585757668	0.0029541247670861	-0.00107992499318571	0.00294942371957362	-0.00722153509032334	-0.0103151119592913
7.7	-0.0115486510264687	0.0106185249994162	-0.000649467595180519	0.00307887881210359	-0.000650805328937272	0.00307781300734547	-0.00784971723260636	-0.0106653654738313
7.8	-0.00959769405725663	0.0128588733414187	-0.000223204548747258	0.00312957086038524	-0.000231031703991201	0.00313601090555052	-0.00854481380114646	-0.010701490522036
7.9	-0.0069814613293676	0.014858708981099	0.00021656058586193	0.00313776407407122	0.000224499809885264	0.00313928722893238	-0.00909200140417117	-0.0100855214241103
8	-0.0022371296584875	0.0155063673718938	0.000657868196709682	0.00307299877545863	0.000657931725657102	0.00307790886291284	-0.00838184072432068	-0.00994689872055558
8.1	0.000282501824054826	0.0137342363607339	0.00107540169629992	0.00295649511603522	0.0010945970871935	0.00295762202242261	-0.0095013730824036	-0.0112009782768046
8.2	0.00217281454685196	0.0130444393691838	0.00148214203546098	0.00277408501471388	0.0014914195586492	0.00276688864743039	-0.0108611817776995	-0.0107769195095737
8.3	0.00415532681031644	0.0121606607654347	0.00185938507001062	0.0025350711401235	0.00185771683436932	0.00254864627822875	-0.0118391528592261	-0.0101955737514738
8.4	0.00577802448007129	0.0114917217605527	0.00219714617147745	0.00225956877801276	0.00219410805221971	0.00225933801846363	-0.0129882080580379	-0.00924506113575181
8.5	0.00918420542865063	0.0107319478876029	0.00249009314126797	0.00192628259958626	0.00248919233885606	0.00192947772678147	-0.012551019580574	-0.00783387095363507
8.6	0.0109757542702082	0.00685007809303956	0.00273387846688266	0.00156090513056874	0.00274339543620555	0.00155434674543623	-0.013102815387074	-0.00866305235698828
8.7	0.0110736587888373	0.00404539747387695	0.00291895751638705	0.00115860309385275	0.00292452805136098	0.00115932820223198	-0.0145541041299855	-0.00819152875125367
8.8	0.0107862057312915	0.00158339194418906	0.00305702037783826	0.000747465146304599	0.00306280392551431	0.000738686262986539	-0.0158667011360494	-0.00737350405501986
8.9	0.00990133110938234	-0.000315056097741346	0.00313674098543763	0.000310353043097325	0.00313586629332394	0.000308100059314859	-0.0171556915862584	-0.00578534390603767
9	0.0103800832346039	-0.00145221392908495	0.0031412548130787	-0.000137256281612862	0.003144422244528	-0.000133155206500745	-0.0165312950526101	-0.00329560780610777
9.1	0.0100952042767872	-0.00481585981864249	0.00309459638610963	-0.000574092767053373	0.00309748400618188	-0.000561183674503515	-0.0159344183372955	-0.00280621185066257
9.2	0.00872486040541414	-0.00725140848038051	0.00298747275576542	-0.000992884070031954	0.00299514338379779	-0.000995765717413567	-0.0155065087376345	-0.00168754496109922
9.3	0.007178082935459	-0.00967810360673638	0.00281862963162012	-0.00140097981028739	0.00281789445367185	-0.00140597963894096	-0.0145369364815852	-0.000981027358931078
9.4	0.00470350767269913	-0.0117241718987918	0.00259233967243994	-0.00179275925726381	0.00259886950752407	-0.00178516124610903	-0.0139163456124773	-0.00060718788135522
9.5	0.00294057505051514	-0.0132828883500335	0.00231762454800624	-0.00212141202255055	0.00232503820759978	-0.00212275776233308	-0.0123924364334597	-0.000504397895199356
9.6	-0.00137537166253882	-0.0158902947629283	0.0020045486718282	-0.00242931166295461	0.00200487869611573	-0.00242832769496246	-0.0131338358151559	-0.00186904063345732
9.7	-0.00648141989584856	-0.0156848099368696	0.00163488848073677	-0.00268254932677102	0.00164043139469072	-0.00268987183956155	-0.0142895439106067	-0.00139052196849365
9.8	-0.0111916104410769	-0.014140593479215	0.00124764618289754	-0.00289127738922583	0.00125335821006116	-0.00288277008650248	-0.01510879167633	-0.000532672447622443
9.9	-0.0156456989034039	-0.0108767985919066	0.000842988774792399	-0.00302861299289638	0.000835650970305855	-0.00302738576174366	-0.0160877239821631	0.00102037594159329
10	-0.0173168079906361	-0.00636632380113005	0.000415628817957699	-0.00312361814507456	0.00040813075333863	-0.00313610146452899	-0.015059811891029	0.00316568158640449
10.1	-0.019146340191593	-0.00389139097488035	-3.39605457831003E-05	-0.00315651208788012	-4.42165901430982E-05	-0.00315109383076368	-0.0146131137240519	0.00300550510466271
10.2	-0.0210985906021427	0.000105833941407232	-0.000481973549237624	-0.00311685472655581	-0.000485384435030031	-0.0031140657879073	-0.0146777502693708	0.00379200604633623
10.3	-0.0221211138115231	0.00466229054431397	-0.000914322814050036	-0.00301032481205211	-0.000906223283806492	-0.00301942230935253	-0.0145180244690901	0.00457295798297032
10.4	-0.0223942337493749	0.010144746628964	-0.0013124242466289	-0.00285824372221889	-0.00131072572008322	-0.00286445812973399	-0.0144410473023034	0.00573359560742234
10.5	-0.0194362800736507	0.0161311829399294	-0.00171312800060855	-0.00265792648947326	-0.00170997810330016	-0.00264488068473309	-0.0125302520880123	0.00726710858356645
10.6	-0.0160573640893722	0.0194245020417017	-0.00206435826629461	-0.00237946901283639	-0.00206218001616339	-0.00238330714024334	-0.0112388630720008	0.00676201830025148
10.7	-0.0121834580900253	0.0226027554633864	-0.00237713596750489	-0.00207565710066681	-0.00237362030006649	-0.00207037810570352	-0.0101264389915123	0.00661788364155481
10.8	-0.00809963518892962	0.0245347320099404	-0.00264567162840084	-0.00171451703912501	-0.00264048961215026	-0.00172347257664877	-0.00958374282125252	0.0058179002757307
10.9	-0.0043995646491159	0.0265790166380736	-0.00285511294851025	-0.00133693931997176	-0.00286030792285106	-0.00133618719606107	-0.00999860244404138	0.00575850633944085
11	0.00183869276485991	0.0283241841038478	-0.00300690040918901	-0.000913761934733192	-0.00301177505424091	-0.000920475909971909	-0.00871299636050552	0.00639995479846165
11.1	0.00673795121960641	0.0267493204982466	-0.00311074394667228	-0.000494499912956549	-0.00309988657692295	-0.000491673308717102	-0.00868589868635662	0.00503147387002309
11.2	0.0109147117202822	0.0257179340421587	-0.00314070121679742	-5.77237241917753E-05	-0.00314786415059237	-6.25398062364505E-05	-0.00905896149857756	0.00509614216757577
11.3	0.0152306159644444	0.0240379726577562	-0.00311266140826828	0.000392126289563885	-0.00312422951052762	0.000382128061063757	-0.00894436032468571	0.00533897458575022
11.4	0.0189726569382552	0.0220305695827428	-0.00303400823316628	0.000820441604230948	-0.00302907394773382	0.000827978508153593	-0.00896673083098866	0.00582297278392471
11.5	0.0243545662107589	0.0193822540941416	-0.00288882286421683	0.00122684459438144	-0.00289157983772852	0.00123709652878872	-0.00724422986996785	0.00621621354190749
11.6	0.0275286006912418	0.0133608250951862	-0.00270029733103795	0.00161822427749789	-0.00270027537597793	0.00162116209960339	-0.00716566301893692	0.00433888671832319
11.7	0.028753851742852	0.00839205072574011	-0.00243756850727101	0.00197445771620168	-0.00243811659496436	0.00198305712877462	-0.00785846918230105	0.00387479500271776
11.8	0.0293140876372682	0.0038818121859551	-0.00214020773585656	0.00230491841337797	-0.00214431385648679	0.00230662260740986	-0.00843764140321356	0.00403333813080932
11.9	0.0295549212693227	0.000477435398386568	-0.00179215354055767	0.00257612901814456	-0.00180514214523228	0.00258043843681385	-0.00877646584598743	0.00559770055767681
12	0.0325038894111795	-0.00349552502038751	-0.00142569169901894	0.00280303072950943	-0.00142509612922737	0.00280444260580995	-0.00591895594148335	0.00693436868822997
