# GHZ S RI R 50
0.2	0.00587283688126834	0.00164470625674114	0.0030468409659905	-0.000898089996313821	0.00305720630152004	-0.00089128596426857	-0.0141253354866239	0.00524441508939694
0.3	0.00613660319103087	-0.000422803057880275	0.00290234693149621	-0.0013212992629056	0.00289510727597422	-0.00130836568201904	-0.0133729396987959	0.00532526757578545
0.4	0.00591000795130109	-0.00217001809078243	0.00267038548531254	-0.00169270353524018	0.00267564734386946	-0.00170125995798356	-0.01280370835183	0.00577419941959017
0.5	0.00492796535343184	-0.00361506386008598	0.00241143249979105	-0.00204841054026176	0.00242295870990628	-0.00206064164119613	-0.0124620976384819	0.00629783853653018
0.6	0.00401537847563568	-0.00426655428170839	0.00209958595979036	-0.00236254714543027	0.00209879999386138	-0.00236969123429792	-0.0118488341896305	0.00711800803789699
0.7	0.00302092175929387	-0.00495070146407377	0.001752563195944	-0.0026400608024021	0.0017506087394018	-0.00264025938299911	-0.0112743695399785	0.00760868795290254
0.8	0.00188071137992087	-0.00537367020149217	0.00136741031313832	-0.00285693505557486	0.00135482156953358	-0.00286147989411998	-0.0108441962782239	0.00820847910095217
0.9	0.000702352171882954	-0.00551953882138624	0.000951030473482255	-0.00301990934242881	0.000952065579843668	-0.00303059786385025	-0.0103431355550188	0.00884836236833815
1	-0.000792037109505557	-0.005765700284758	0.000527318615724172	-0.00312364367939579	0.00051746529202199	-0.00312438604630434	-0.0099806273735305	0.00930590006860806
1.1	-0.0026181280628871	-0.00492706959716425	7.15253764808662E-05	-0.00315269216223772	6.80230729283399E-05	-0.00317032888437502	-0.00973210916969989	0.0105398355283621
1.2	-0.0037747550285466	-0.00407484133048461	-0.000370081427155155	-0.00314170469401703	-0.00037089272455264	-0.0031396303542677	-0.00854658550108744	0.0116562459921118
1.3	-0.00503301799062864	-0.00339062440616177	-0.000796379404370394	-0.00305857916501124	-0.000799615682920573	-0.00306058320183363	-0.00680863314631261	0.0124031723566097
1.4	-0.00605229105420087	-0.00266108399401568	-0.00121699440493946	-0.00291098207196241	-0.00121578034052416	-0.00291650965803725	-0.00495804210002906	0.0122679879988694
1.5	-0.0067802902755341	-0.0015548354513965	-0.00161829135882912	-0.00271551959421134	-0.00161667896309109	-0.00272401292356889	-0.00378015842307507	0.0116548997835326
1.6	-0.00640398729176169	0.0001430441120212	-0.00197792505673241	-0.00246256288569762	-0.0019781346987616	-0.00246779133036816	-0.00306051483478389	0.0114836875699714
1.7	-0.00562540527914043	0.00127715768370743	-0.0023054246192561	-0.00216659245718076	-0.00230639193238676	-0.002160338693661	-0.00249489909561095	0.0113181995660193
1.8	-0.0047392228097941	0.00238851149670236	-0.00257627441072152	-0.00181615523636581	-0.00258722507567209	-0.00182179218007106	-0.00197157710876121	0.0113022208038284
1.9	-0.00364210084457037	0.00310007510067851	-0.00280195504738918	-0.0014460782354994	-0.00281438601354896	-0.00143993806582078	-0.00142043291123751	0.0112802249310438
2	-0.00296595600809474	0.0036377141602596	-0.00297696317700021	-0.00103831924107769	-0.00298657487104858	-0.00103362129624893	-0.00121817133899664	0.0113946693961127
2.1	-0.00164580507701153	0.00461934975169516	-0.00309007646664166	-0.000611953962062174	-0.00308599671794238	-0.000613939246347111	-0.000402180190988475	0.0119292113128133
2.2	5.97501870561517E-05	0.00480420753429159	-0.0031485011091314	-0.000174712234692943	-0.00315978939585705	-0.000177556960082983	0.000735964529753535	0.0119022538854127
2.3	0.00166194919572318	0.00439606295526848	-0.00314462122242792	0.000268310841372965	-0.00314431201292311	0.000261435128490748	0.00171219950772528	0.011584362135786
2.4	0.0031341289789949	0.00347113906908568	-0.00307238762608443	0.000706341615386338	-0.00307492181051264	0.00070208636212894	0.00264580843807189	0.0111758154063856
2.5	0.00377095541928405	0.00187964830198218	-0.00293592508191551	0.00111686187362664	-0.00294681020424843	0.00112321868892727	0.00322041804330921	0.0104750783978398
2.6	0.00401341799578968	0.00105182047716039	-0.00276438576038854	0.00152016322829303	-0.00276081209556237	0.00150785411885169	0.00381732685492671	0.0103098226549873
2.7	0.00454769775203879	6.71313060908768E-05	-0.00251906113597252	0.0018923102763673	-0.00252433843118069	0.00189231406836371	0.00453951796214026	0.00988670421415075
2.8	0.00513965156636778	-0.00111207858905743	-0.00223652652068807	0.00221995119175569	-0.00222873004209063	0.00222974617743969	0.0051902008615072	0.00956352449657912
2.9	0.00570433572824967	-0.00279181558401438	-0.00190309110636357	0.00251987591461256	-0.00189938345444905	0.00251945492075756	0.00611034433742436	0.00921852942774917
3	0.00537278030609666	-0.00474679578633501	-0.00151874773514885	0.00275675706089263	-0.00153353924356691	0.00276282989225285	0.00688278084951441	0.00878171947830017
3.1	0.00509255416914425	-0.00618061791946289	-0.00112734999991198	0.00293551874275054	-0.00112270309018943	0.00294386886770561	0.00796898350549733	0.00844904982945135
3.2	0.00444388879509075	-0.00805229290584351	-0.000706608563170997	0.00307265871205549	-0.000708352353889343	0.00307204582823065	0.00877811599626443	0.00772362169726203
3.3	0.00322303510293005	-0.00994591074648925	-0.000268534986960169	0.00314292133877684	-0.000266880889515962	0.00313918306421916	0.0095163886590734	0.0069199405769813
3.4	0.00143777892983102	-0.0116625685487063	0.00017807012032361	0.00313821616122894	0.00017183754993093	0.00315477830918047	0.0102126900413753	0.00584837539375488
3.5	-0.00133796906934275	-0.0130271036642235	0.000601952350217691	0.00309656434536131	0.000607552499017983	0.00309664531533675	0.0102459595843124	0.0045442289254156
3.6	-0.00396306352431729	-0.0129419603020962	0.00103073353510169	0.00297587181655576	0.00103892825063457	0.00297556104437969	0.0104198657426475	0.00394514377219631
3.7	-0.00619748183662355	-0.0128149021564166	0.00144098145460595	0.00279540108373311	0.00143137740573182	0.00280907170613339	0.0107856737329228	0.00302432711497736
3.8	-0.00850219606938908	-0.012409051360748	0.00181976591344483	0.00256896730930251	0.00182216176100921	0.00257812504122203	0.0109654147300876	0.0020395669689079
3.9	-0.0107513154053135	-0.0118252795880116	0.00216708655688565	0.00229581040258047	0.0021598167575884	0.00229402382172181	0.0110006796253662	0.000973479228478777
4	-0.0136944299367862	-0.0107661318937451	0.00245160661550853	0.00197264319272133	0.00245605793527181	0.00197021021832791	0.0105352810764879	0.000100879378109966
4.1	-0.0158790720429014	-0.00813285962953367	0.00270272684791198	0.0016142196323074	0.00270147308446576	0.00161495425726517	0.0106510453954604	-2.10386329174306E-05
4.2	-0.0171268024998555	-0.005565345511682	0.00290344810612723	0.00121341853646092	0.00290792677049344	0.00120470184731111	0.0110764247301706	-0.000639103260378341
4.3	-0.0179257713137272	-0.00306236541049741	0.00304751571594997	0.000800579798659577	0.00305395081401072	0.000792776453127997	0.0113929837048777	-0.00153372219673698
4.4	-0.0183917982441858	-0.000666764705035139	0.00312367127820323	0.00036533862001422	0.00312604881710359	0.000363082341545554	0.0115243300556565	-0.00257125964374994
4.5	-0.0192496490862799	0.00171551149151861	0.00314586784024819	-7.11201468429096E-05	0.00315123480705158	-7.44878088002801E-05	0.0111583886994554	-0.00364468434536784
4.6	-0.0193638126288424	0.0053222787615371	0.00310467290526744	-0.000514527071555683	0.00310588609207624	-0.000501596928965114	0.0110502141543322	-0.00416433922190222
4.7	-0.0182776896230891	0.00850954334520245	0.00299976733062847	-0.000935251779934588	0.00301508168535672	-0.000944867156722173	0.0109789545623738	-0.00513548122080526
4.8	-0.0166711633972955	0.0113236481326874	0.00283828172550138	-0.00135035524287637	0.00284677465807852	-0.00135644535313791	0.0106685375186484	-0.00603741903730658
4.9	-0.0143326182458024	0.0135341574193569	0.0026174371022747	-0.00173442567320089	0.00262160516311297	-0.00173151411148455	0.0103901890115621	-0.00685574043973964
5	-0.0122862595809046	0.0151531452469077	0.00235986173514867	-0.00209113015029947	0.00236348699433025	-0.00208845741411352	0.00994650949957817	-0.00756690136510337
5.1	-0.00904738372035636	0.0171012255092311	0.00204692963501003	-0.00240457617739827	0.00204923420330171	-0.0024032155607597	0.0101137548336492	-0.0079680720791677
5.2	-0.0053842443024108	0.0174903451781036	0.00168772111054551	-0.00265435342025932	0.00168943688137808	-0.00265950362042598	0.0102098458690985	-0.00897476025790135
5.3	-0.00210929658263676	0.0169627410089203	0.00130050207570017	-0.00286977426051297	0.00130363867579654	-0.00286770859270469	0.00997214316475514	-0.00993100383106664
5.4	0.000641660987148759	0.0157542349273528	0.000875505128417362	-0.00301829470788266	0.000892699697920414	-0.00302951946305062	0.00963845524536475	-0.0110302909793768
5.5	0.00205098187843746	0.0145596913533985	0.000458616575413042	-0.00311772940018023	0.000468681937216642	-0.00312718394496528	0.00851020402731339	-0.0120167561960624
5.6	0.00435567007483599	0.0143431667193985	1.84522165051905E-05	-0.00315080599100933	9.91373965260842E-06	-0.00315401949845264	0.00792764933817577	-0.0121533611104978
5.7	0.00688798140213951	0.0128122700676776	-0.000412304138315046	-0.00311942892139699	-0.000428936280603266	-0.00312307931807806	0.00728052742257613	-0.01275573759169
5.8	0.0088828263631875	0.0106298941662706	-0.000858728802525651	-0.00302423734200651	-0.000862280418261295	-0.00303823860714532	0.00641239169041105	-0.0133446583591679
5.9	0.0103922467340562	0.00780519466736168	-0.00126524680284793	-0.00288347397768333	-0.00127348708136357	-0.00288338145983645	0.00547033536046441	-0.0138730122291997
6	0.0100099503331958	0.00419489112354984	-0.0016632887509167	-0.00267320884573116	-0.00165972684351331	-0.00267338181397413	0.00377276588519833	-0.0143796836404814
6.1	0.00897942010079773	0.00253434025340273	-0.0020157224264015	-0.00241921415082482	-0.00201735806741377	-0.00241520767540686	0.0026777002085402	-0.0134890564426097
6.2	0.00840306291194679	0.00063594325940398	-0.0023288988188471	-0.00210620161626987	-0.0023326220174989	-0.00211807367067668	0.00241521634251707	-0.01326795054782
6.3	0.00759775774938822	-0.00132315787581894	-0.00260680031067795	-0.0017705737231915	-0.00261592470213313	-0.00176482022798287	0.00217752399754057	-0.013519479663575
6.4	0.00641921287183815	-0.00360820893369585	-0.00283171709523573	-0.00137808078029279	-0.00282200064073312	-0.00138299919973668	0.00189926576914336	-0.0141735598786322
6.5	0.00378428056437594	-0.00531565820344136	-0.00298542021409433	-0.000974891219156708	-0.00299327416435232	-0.000970405624098304	0.000924823850150874	-0.0147762790178004
6.6	0.00223245041935649	-0.00560304814477493	-0.00309583609323208	-0.000550482731236876	-0.00309747308680849	-0.00055445986107562	0.000694779609427229	-0.0150653466197444
6.7	0.000494763441025745	-0.00642883709589907	-0.00314609540868635	-0.000110993735445657	-0.00315494517711727	-0.000104701734675944	-0.000266796587776495	-0.0158033814898878
6.8	-0.00160778289258051	-0.00665428221711383	-0.00312303133435577	0.000330990733045227	-0.00313411853910465	0.000336054211680982	-0.00153435694980208	-0.015894777964309
6.9	-0.00367660800716066	-0.00668513734012799	-0.00304637807129458	0.000762973855170225	-0.00304936193245242	0.000765366894329458	-0.00249662324427848	-0.0158556231391355
7	-0.00708193356970561	-0.00602553815147948	-0.0029123183319512	0.00118333700311936	-0.00292515701706247	0.00118114751849893	-0.00413851314119031	-0.0157343950678622
7.1	-0.00892355345278866	-0.00295350563125861	-0.00273278051008246	0.00157493233569076	-0.00272910020220713	0.00158359763263505	-0.004832602402886	-0.014522088943772
7.2	-0.00953150403780274	-0.000663585847984149	-0.00247436183688114	0.00194195895823023	-0.00248088898091567	0.00194404936722096	-0.00522814801232187	-0.0140576035168171
7.3	-0.00987115967911307	0.00148589090906891	-0.00217865313125974	0.00225979952537567	-0.00218985903143113	0.00226486935772426	-0.00567750795947201	-0.0136450811212084
7.4	-0.00965216352908809	0.0032085759354613	-0.00183806474860478	0.00254306076884367	-0.00184493404359218	0.00255668259951034	-0.00604119600806133	-0.0135145176929166
7.5	-0.0105415155555292	0.00410745556731091	-0.00146989356008378	0.0027845919995799	-0.0014628795242194	0.00279197757640661	-0.00706294767587367	-0.0137599487314005
7.6	-0.0108990733575167	0.00715651880949748	-0.00106166787947711	0.00295933862886808	-0.00106305302775084	0.00295464655606659	-0.00750529298274945	-0.0128217583214689
7.7	-0.00989910141677272	0.00940599836624788	-0.000634537686171763	0.00307908438899496	-0.000635879157798717	0.00307802578839871	-0.00764164396828567	-0.0131251811719619
7.8	-0.00839633709923242	0.0110517040788775	-0.000209318160200964	0.00312798436530121	-0.000217110703972546	0.00313445340752211	-0.00817520782982909	-0.0134596495817189
7.9	-0.00666593305899474	0.0119252327307529	0.000233002063960594	0.00313476956284006	0.000240944647864228	0.00313624989544873	-0.00891050057142259	-0.0137757994542166
8	-0.00600828704012015	0.0131975956121146	0.000674864431756084	0.00305792892741153	0.000674958630471365	0.00306282115040685	-0.0105073066684998	-0.0135987056011653
8.1	-0.00290400582214941	0.0152769583185552	0.00108111171154761	0.00294013149933842	0.00110022910908788	0.00294118672609086	-0.0107820250978889	-0.0126555375016604
8.2	0.000556313466092294	0.0154279678614526	0.00148511711319528	0.00276019313370865	0.00149434164714846	0.00275299454304016	-0.0112104346651687	-0.0123585912652377
8.3	0.00372679563692354	0.014680259504211	0.0018613265602114	0.00252071898559867	0.00185970726854342	0.00253425444516585	-0.0117047129454799	-0.011936772920903
8.4	0.00657370093632732	0.0128935905748186	0.0021955570870191	0.00224122063502619	0.0021925318630678	0.00224100215172388	-0.0121076218345314	-0.0117450418323434
8.5	0.00732542177943073	0.0106471814018972	0.0024767482993658	0.00191271633563539	0.0024758554955473	0.00191589305970066	-0.0135296224760244	-0.0115079661001188
8.6	0.00893264814574803	0.0102781213227067	0.00272479790966237	0.00155494483513307	0.00273428070217871	0.00154840699831803	-0.0140332529147135	-0.0101141077033726
8.7	0.0111593996550519	0.0083973443940804	0.00291048975605224	0.00115159394782319	0.00291604252677218	0.00115231062748774	-0.0142969916223558	-0.00953358483228295
8.8	0.0128829858263424	0.00573914777255973	0.00304557172264094	0.00074096395349363	0.00305132196375798	0.000732213791587828	-0.0148586263832624	-0.00897759359766704
8.9	0.0141810573021442	0.00207168096067911	0.00312133852521413	0.000309478892112386	0.0031204685725499	0.000307236746073535	-0.0151264255794709	-0.00827790692577894
9	0.01322740272005	-0.00231348775566574	0.00313472848926045	-0.000131319060013673	0.0031378817265177	-0.000127221138897162	-0.0158059461483498	-0.00760536879819835
9.1	0.0120176940239136	-0.00510246105952004	0.00308806790990989	-0.000575572737816168	0.00309096074091938	-0.00056269129304604	-0.0155271124436834	-0.00617447423637863
9.2	0.0102813885732081	-0.00847040364019343	0.00297691575885116	-0.000991975425414716	0.00298455902035111	-0.000994853651974243	-0.0151043425274639	-0.00569757466003058
9.3	0.00741099010750317	-0.0112960498504715	0.00280859356637901	-0.00139527668466581	0.00280786209710162	-0.0014002583549151	-0.0149346500162703	-0.00520486781545447
9.4	0.00389199127087379	-0.0134963065247478	0.00258857745869818	-0.00178477159869564	0.00259508079205119	-0.00177718282145052	-0.0147407412631566	-0.00483355806980721
9.5	-0.00118189963573904	-0.0142178299207575	0.00231243805590728	-0.00212245377932009	0.00231984252010993	-0.00212380825709839	-0.0152070058158429	-0.00419052545186403
9.6	-0.004574310613456	-0.0127004764927566	0.00199329145074986	-0.0024226800968793	0.00199362158395417	-0.0024217004338902	-0.0147319358433923	-0.0031283840374132
9.7	-0.00742884157885342	-0.0117031531644776	0.00162822083407323	-0.00267159110988899	0.00163374113728827	-0.00267888370844754	-0.0145260176166875	-0.00279257361359675
9.8	-0.0103248872753147	-0.0103259049531786	0.00124494209825771	-0.00288081378862025	0.00125063026197681	-0.00287233231997869	-0.0146105353707816	-0.00224311034315985
9.9	-0.0129709563004151	-0.00878288172299922	0.000839241292802383	-0.00302130646832939	0.000831922906964766	-0.00302007852331676	-0.0146670792876357	-0.00161446233610291
10	-0.0169855505866696	-0.00665407560894649	0.000408045838761314	-0.00310660938385926	0.000400569382750221	-0.00311900940099892	-0.015407685687095	-0.000867548444999354
10.1	-0.0192923806361059	-0.00181985860517055	-2.8795018823613E-05	-0.00313798788983966	-3.89992246629238E-05	-0.00313261765649234	-0.0149828309502933	0.000827256954983264
10.2	-0.0199146031910794	0.00242511794312707	-0.000473565491574926	-0.00310338645809097	-0.000476966121094794	-0.00310061718623523	-0.0141531335643044	0.00163599045272893
10.3	-0.0197124015882778	0.00646900169462339	-0.000905869371995516	-0.00299852608587932	-0.000897791756962279	-0.00300757183763659	-0.0133279537693155	0.00223928650186876
10.4	-0.0187082628051724	0.00973218609444001	-0.00130210297121039	-0.00284265920306475	-0.00130040873533453	-0.00284883556282206	-0.0122156488099213	0.00227242668606216
10.5	-0.0188669629262363	0.0128926999892297	-0.00168767946059201	-0.00264629338449185	-0.00168461528351283	-0.00263332976890806	-0.0120493189864565	0.00207287960389838
10.6	-0.0174150574420315	0.0175979199107119	-0.00204220025676145	-0.00238174373244014	-0.00204000864981414	-0.00238555365717887	-0.0113159160565991	0.00229307544568966
10.7	-0.0146871513138033	0.0216927476899954	-0.00235878852176226	-0.00208064143794927	-0.00235531106446893	-0.00207536245137616	-0.0108531669948454	0.00222729017317045
10.8	-0.0109506458709899	0.0254224632245188	-0.00262778600848016	-0.00172156843498142	-0.00262257791945724	-0.00173046651497154	-0.0105285002883863	0.00235786756504532
10.9	-0.00613722856861505	0.0278264651801618	-0.00283500312834741	-0.00135039563117198	-0.00284018243690497	-0.0013496806247963	-0.0100479376942059	0.00223795895538621
11	-0.00236657931524422	0.0293218863400013	-0.00299937587777339	-0.000938210334622596	-0.00300419573294977	-0.000944963793975364	-0.0104608659641966	0.00216681971428642
11.1	0.00333513139786846	0.0316332158324472	-0.00311006129528122	-0.000509996481044987	-0.00309921169357807	-0.000507115175076032	-0.00980320453539531	0.00289428402006382
11.2	0.00992797325207366	0.0314742265387651	-0.00313911147783526	-7.2636712066914E-05	-0.00314624850682762	-7.74848443374664E-05	-0.00908854670236747	0.00276113305455251
11.3	0.0163614393185594	0.0295729745050876	-0.00311369934684711	0.000374543706352517	-0.00312520713451346	0.000364484397048948	-0.00845008437886028	0.00262450206939677
11.4	0.0221811673164163	0.0259092550944838	-0.00304404931056739	0.000801807568912319	-0.00303915686516022	0.0008093884072228	-0.00782968112514628	0.00225318200792445
11.5	0.0255414155728711	0.0213238087180641	-0.00290197191109673	0.00122288540708525	-0.00290476684947879	0.00123316410348808	-0.00824126168315981	0.00184097632491802
11.6	0.0294354272942883	0.0176644135163555	-0.00270505381857398	0.00161166715679746	-0.00270503938921225	0.0016146056971441	-0.00758429711399022	0.00216403481241011
11.7	0.033114229682267	0.0120467851475293	-0.0024460914776439	0.00196550115335216	-0.00244667352310476	0.00197410111388102	-0.00688511661825277	0.00156076437969657
11.8	0.0354701271042121	0.00527800569300488	-0.00215316302924608	0.00229923363081532	-0.00215728245909527	0.00230092290087508	-0.00641790600018052	0.000916697975166687
11.9	0.0359936026864796	-0.00272170665163912	-0.00180374783641257	0.0025790236733651	-0.00181678447980278	0.00258331289672221	-0.00612417577602017	0.000172974251580229
12	0.0324931322480006	-0.00985935761016102	-0.00142712321397493	0.00279966352918984	-0.00142652934776145	0.00280107488007198	-0.00702601060017549	-0.000237193072796794
