# GHZ S RI R 50
0.2	0.0059224075808827	0.00102757679862527	0.00304915482065994	-0.000897875245644893	0.00305952535795835	-0.000891063782571565	-0.0139843021657401	0.0047245529219649
0.3	0.00630096583869917	-0.000847455596923672	0.0029050516235523	-0.00132143235184315	0.00289780220062269	-0.00130849083282704	-0.0131344727218313	0.00499864957601379
0.4	0.00607878894764762	-0.0024911716305278	0.00267348462528023	-0.00169338232101321	0.00267875438373376	-0.0017019450039121	-0.0126164245039889	0.00554031962682068
0.5	0.00541966984578277	-0.0038916654362602	0.00241464259532236	-0.00205032485636802	0.00242618462664302	-0.00206256794993847	-0.012139468331813	0.00616589165963437
0.6	0.00437960082223623	-0.00505858755900534	0.00210196496363554	-0.00236495144904918	0.00210117856715937	-0.00237210321715001	-0.0117212670810335	0.00675582330885898
0.7	0.00300229248692111	-0.00575590970945445	0.00175475353847792	-0.00264282202545666	0.00175279693446742	-0.00264302100978194	-0.0114088524825319	0.00744378882375999
0.8	0.0016156376163975	-0.00606778761713682	0.00136921754868266	-0.00286034252537458	0.00135661371602885	-0.00286489352594555	-0.0110378063285257	0.00826740353672151
0.9	0.00017193537910278	-0.00598699281322369	0.000951997360941831	-0.00302395967483114	0.00095303283133106	-0.00303466231509296	-0.0105469626829111	0.00908442430850978
1	-0.0011385632111028	-0.00563744596684337	0.000527094430121566	-0.00312740315737376	0.000517229493456347	-0.00312814375015797	-0.00995262260191595	0.00977235352275794
1.1	-0.00246317610233797	-0.00521700811142453	7.13728030006169E-05	-0.00315636999001231	6.78650999986005E-05	-0.00317402699452807	-0.00955385997347441	0.0104786790484326
1.2	-0.00387361801727942	-0.0047825283440903	-0.000371018694267578	-0.00314588095504836	-0.00037183079354904	-0.00314380371025047	-0.00885904020574213	0.0112707751842052
1.3	-0.0054070017568116	-0.00432900694353517	-0.000798403309752428	-0.00306266903540226	-0.00080164475173111	-0.0030646749548654	-0.00759218010666688	0.0120059801158801
1.4	-0.00662027798064059	-0.00364264416868956	-0.00121988983281058	-0.00291439736202999	-0.00121867649839959	-0.00291993294601358	-0.00592872408922453	0.0121348860559366
1.5	-0.0070449468347131	-0.00255068964770027	-0.00162108927883022	-0.00271863294078686	-0.00161947696385806	-0.00272713771709796	-0.00446708042536902	0.0117814093610728
1.6	-0.00697774824404159	-0.00108277607716491	-0.00198209302734367	-0.00246598349328491	-0.00198230485303438	-0.0024712205994291	-0.00375034223330121	0.0118201275429313
1.7	-0.00635761530265225	0.000440121574777369	-0.00231078601225497	-0.00216882828744116	-0.00231175095103183	-0.00216256314993748	-0.0029137896102464	0.012035926831205
1.8	-0.00539075001783484	0.00188728097219391	-0.002582057224576	-0.00181705239096911	-0.00259303075285725	-0.00182268968341307	-0.00207264132072146	0.0121480668163637
1.9	-0.00411068760106144	0.00297134176852735	-0.00280773814358929	-0.00144598076571306	-0.00282018386056632	-0.00143981987774583	-0.00129837649744954	0.0121686507690056
2	-0.00268779444967127	0.00362068720048876	-0.00298365373023122	-0.00103749125458752	-0.00299327940385727	-0.0010327752021346	-0.000759942767678776	0.0121687644526048
2.1	-0.00129444661388076	0.00390675978413489	-0.00309675549355864	-0.000608417692320538	-0.00309267115316924	-0.000610412845763383	-0.00013700109584552	0.0124043387229492
2.2	9.27432719052971E-05	0.00394017981977873	-0.00315381526153124	-0.000169646762224043	-0.00316512636617099	-0.000172476861628241	0.000868569795420583	0.0125215436037718
2.3	0.00142865640619119	0.0035751996646168	-0.00314873399287715	0.000274297352765009	-0.00314843656518809	0.000267411053410495	0.00190478330112193	0.0123046110219823
2.4	0.0026378308078648	0.00296146368763393	-0.00307557490723893	0.000713200925118021	-0.00307812088336582	0.000708944204290757	0.00292815838665453	0.0119184019961181
2.5	0.00370391080671378	0.001935914823074	-0.00293732309517871	0.00112552384182545	-0.00294820804008517	0.00113191586631192	0.00376418821085502	0.0111286466688623
2.6	0.00441360591184121	0.000696836042805729	-0.00276277607233149	0.00152826949943538	-0.00275923032135739	0.0015159417281143	0.004212347873051	0.0105067775991347
2.7	0.00495310749417962	-0.000579492733407404	-0.00251610074126325	0.00189947423684529	-0.00252138127000187	0.00189949060358682	0.00462057784761796	0.0100569601780721
2.8	0.00545410705076163	-0.0019722587658189	-0.00223231316935016	0.00222653315917626	-0.00222448887103072	0.00223631436135957	0.00508021423480717	0.00982207356319332
2.9	0.00589596892662798	-0.00362076448105063	-0.00189717393715214	0.00252580976845709	-0.0018934660189499	0.00252537887579444	0.00588388068624001	0.00964365877922626
3	0.00594789451298223	-0.00562365606519923	-0.00151090165542299	0.00276020259934862	-0.00152567308640818	0.0027663140583064	0.00671403200943289	0.00927818355530956
3.1	0.00548127234938537	-0.00763761838826343	-0.00112035109743601	0.00293701660154641	-0.00111568705375094	0.00294535332786262	0.00750369637203713	0.00901303926848456
3.2	0.00445139252039494	-0.00957894176268293	-0.000699442066484181	0.00307331643427906	-0.000701186709724962	0.0030727076824287	0.00826755243696645	0.00866231971600033
3.3	0.00294566242497637	-0.0113752236474817	-0.000261018834202445	0.0031421308071025	-0.000259374280693226	0.0031383903325677	0.00912405142567642	0.00813022433432339
3.4	0.000977834449336155	-0.0127684304143381	0.000185348586420347	0.00313529388203589	0.000179160145148319	0.0031518575666584	0.00999825048293644	0.00726150363558729
3.5	-0.00131957055340535	-0.0139152669483329	0.000607084222544535	0.00309232246430947	0.000612678867792226	0.00309239297248714	0.010377054391966	0.00596125153488054
3.6	-0.00401698203179723	-0.0144138384300194	0.00103568184546701	0.00297202136699888	0.00104387072203516	0.00297169534826186	0.0104696405045191	0.00519707290332867
3.7	-0.00672964185373186	-0.0143037278616369	0.00144566578529616	0.00279019692067103	0.00143609777209743	0.00280387676218925	0.0108718546076415	0.0044169325563885
3.8	-0.0093906955956981	-0.0136010826773522	0.00182320237251601	0.00256255431802919	0.00182561468936407	0.00257169765060496	0.0112161876608289	0.00343859322890672
3.9	-0.0117381907549913	-0.0123934443959995	0.0021686947663503	0.00228907276547139	0.00216143042839603	0.00228730167539398	0.0113699301284869	0.00228258443871288
4	-0.0138668661715168	-0.0109037791738686	0.00245302639498565	0.00196672778819565	0.00245746978216126	0.00196428904718776	0.0110568992502687	0.00114621533150761
4.1	-0.0157762432628828	-0.00887531971200571	0.00270342720831295	0.00160639870713672	0.00270217645320905	0.00160713535372378	0.0107538371971391	0.000762229083385597
4.2	-0.0172199615058563	-0.00645915499413877	0.00290172407808066	0.00120533009649603	0.00290617720862426	0.00119661677768282	0.0109226482114766	0.000368432248129459
4.3	-0.0181778488480054	-0.00385560973423552	0.0030439668316444	0.000793268606328712	0.00305037584676403	0.000785465761664304	0.0111939426602382	-0.000321904092620175
4.4	-0.018675217148397	-0.0010447439193923	0.00311928592977123	0.000359002435937042	0.0031216554699472	0.000356745437896797	0.0113563216907789	-0.00118090453690232
4.5	-0.0186613580471247	0.00170095424166565	0.00314019240776052	-7.82801247715969E-05	0.0031455421748925	-8.16543151794606E-05	0.0112090806514821	-0.00226368905564471
4.6	-0.0183453794582194	0.00450899292854911	0.00309581489891624	-0.000519672820523313	0.00309705184948139	-0.00050677764165576	0.0108116155887315	-0.0029099821551207
4.7	-0.0173794348491605	0.00726101134182464	0.0029902172176655	-0.000937749093323323	0.00300547476531599	-0.000947364318673474	0.0106132958752716	-0.00359423331070308
4.8	-0.0159708039185945	0.00980718885306296	0.00282862245634559	-0.00135082767595615	0.00283708350165238	-0.00135691364479708	0.0103854561052219	-0.00427868206102855
4.9	-0.01386706592604	0.0120509277490898	0.00260748806091713	-0.00173338238829835	0.00261164863721983	-0.0017304851918503	0.0102585337938314	-0.00494293066472784
5	-0.01137839486636	0.0135822592871419	0.00234888708538007	-0.00208671429241495	0.0023525029015658	-0.00208405556986624	0.0100901158847448	-0.00573857891649225
5.1	-0.00855215031592189	0.0147426526594129	0.00203879823447583	-0.0023971012516502	0.00204109538237946	-0.00239574634116439	0.010066776537557	-0.00620070969532492
5.2	-0.00557615134643179	0.0152015153370261	0.0016816383906648	-0.00264606931647913	0.00168334744132653	-0.0026512031021122	0.010278356647884	-0.00701720937352992
5.3	-0.0026564278444776	0.0150882087760247	0.00129593947030879	-0.00286050603713693	0.00129906600792033	-0.00285844746744275	0.010232613583217	-0.00800278535865704
5.4	0.000150201323931988	0.014523263479495	0.000872764969747605	-0.00300753646796382	0.000889900136703979	-0.00301871959373576	0.00998995319160915	-0.00918612544692324
5.5	0.00261995249462783	0.0133731979161511	0.000460074297149401	-0.00310628584330143	0.000470113497686993	-0.00311569713104245	0.00898313945712334	-0.0104649785270088
5.6	0.0047156392957142	0.0120827568902318	2.17736863980157E-05	-0.00314178601871786	1.32630405128831E-05	-0.00314499949059483	0.00784562609064137	-0.0106589120855141
5.7	0.00649842007429052	0.0104436906777255	-0.000408013564341366	-0.00311104355900366	-0.000424595133953671	-0.00311470033501561	0.00715703312149894	-0.0108158399466472
5.8	0.00785819059243421	0.00857802074178201	-0.000852703818963536	-0.00301655632979434	-0.000856228759984697	-0.00303052153547187	0.00655528252521523	-0.011233586433791
5.9	0.00886701778532907	0.00667828558018446	-0.00125705722270998	-0.0028773980649968	-0.00126527447895999	-0.00287731904367871	0.00588041755926464	-0.0118343628058613
6	0.00948000879353033	0.00435026504542535	-0.00165515659576081	-0.00267057151273081	-0.0016516017802367	-0.00267073788638316	0.00451793416117926	-0.0127738497958066
6.1	0.00941655661295735	0.00215520869476977	-0.00200814554434447	-0.00241642562638385	-0.00200978268895485	-0.00241243014370474	0.00279557853461006	-0.0125040504005709
6.2	0.00907693193166183	-0.000110833305224419	-0.00231999597997318	-0.00210466026862866	-0.0023236918680372	-0.00211650917374255	0.00194340128826245	-0.012066144064783
6.3	0.00834135295867441	-0.00241540120134024	-0.00259741205665493	-0.00177133639263965	-0.0026065259847623	-0.00176561339454091	0.00148152460908971	-0.0119452790457772
6.4	0.00717211141548507	-0.00472646793328547	-0.00282341255013512	-0.00138127838721654	-0.00281370465155084	-0.00138616724663737	0.00127726000675915	-0.0122607204477894
6.5	0.0053401518310009	-0.00698715450806255	-0.00297847622890347	-0.000977667107699805	-0.00298632267417456	-0.000973201699424042	0.000488734315321307	-0.0129298547597362
6.6	0.00304191058827913	-0.00837014918045355	-0.00308748465114962	-0.000555079999166087	-0.00308911020901296	-0.000559050864304319	-8.2295475087507E-05	-0.0128735354728515
6.7	0.000557072139579831	-0.00911925411727541	-0.00313905271623887	-0.000118167986287129	-0.00314789823643704	-0.000111910400849296	-0.000727791992637629	-0.0131342237222284
6.8	-0.0019600016525562	-0.00903841841823483	-0.00311808874027136	0.000322530011617724	-0.00312916817053336	0.000327556264112057	-0.00162489775039536	-0.0131039197003509
6.9	-0.00413323463524515	-0.00835613955985934	-0.00304308685451695	0.000754513994246857	-0.00304607137359313	0.000756895997269108	-0.00229553831242963	-0.0130328117903962
7	-0.00618772103406854	-0.00754649894835979	-0.00290881337488956	0.00117332857326851	-0.00292161787205864	0.00117111149407528	-0.0036039240330266	-0.0132612517036932
7.1	-0.00820608160722159	-0.00592043705656058	-0.00273305222074652	0.00156291908892683	-0.002729407605113	0.00157158085624539	-0.00484283478449683	-0.012093105624489
7.2	-0.00976549079719122	-0.00397182829069556	-0.00247769180822401	0.00193093179319502	-0.00248421739179878	0.00193299715146917	-0.00513164838751794	-0.0110792113037883
7.3	-0.0110735323180483	-0.00164404059851794	-0.00218384178986217	0.00224989842091031	-0.00219505223222171	0.00225492468981131	-0.00505519721256904	-0.0104218796190729
7.4	-0.0118365910855826	0.00107818843821514	-0.0018447264404272	0.00253355057331277	-0.00185163502803266	0.0025471318681665	-0.00475634299731862	-0.0103303654981213
7.5	-0.0119467421897127	0.00365385059701816	-0.00148072625962772	0.00277560553467574	-0.0014737509722342	0.00278301501686915	-0.00492385662261078	-0.0112603917044825
7.6	-0.0115036444752727	0.00641483775711049	-0.00107429952006281	0.00295508227057511	-0.00107566489358389	0.00295038393969046	-0.005672565588078	-0.0114419735877437
7.7	-0.0102583007577234	0.00875698589054728	-0.000646976983707349	0.00307759323139474	-0.000648314699709913	0.00307652895005558	-0.00611874211457085	-0.0121134086276815
7.8	-0.00836231762078619	0.0104392968354757	-0.000221843454409956	0.00312870788194548	-0.000229665560007493	0.00313514919526575	-0.0070526336288681	-0.0128078251990564
7.9	-0.0060224857124688	0.0114693257238269	0.000219869850704885	0.00313832512551079	0.000227812642817087	0.00313984042582593	-0.00837894913166618	-0.0132825730580703
8	-0.00384742222614335	0.0117517335401536	0.000663708302585783	0.00306657178999869	0.000663782753780324	0.00307147382581416	-0.0105529558674256	-0.0132410713407076
8.1	-0.00143230554387561	0.0121817075912985	0.0010736450492955	0.00294937717524125	0.00109279624256897	0.00295049669723594	-0.0119145232596241	-0.0115928223519455
8.2	0.00106729319708491	0.012009669588744	0.00147913727275585	0.00277016802110164	0.00148840226888851	0.00276298517107105	-0.012391104571265	-0.0103760868658759
8.3	0.00349173873596929	0.0114166140541219	0.00185728252763514	0.00253204866392483	0.00185561664318811	0.00254560795778747	-0.012688497450583	-0.00942349619694032
8.4	0.00592648424896837	0.01042481181832	0.00219473652137532	0.0022538361339221	0.00219170381718696	0.0022536079853926	-0.0128514591995818	-0.0088811079059924
8.5	0.00792997948650253	0.00854003118535612	0.00247977894668188	0.00192294028749759	0.00247887734175469	0.00192612401009849	-0.0139698287257844	-0.00872795411220374
8.6	0.00938145581972358	0.00678804706060441	0.00272750629956664	0.00156415125145885	0.00273702386052765	0.00155761911507188	-0.014983338256548	-0.00708277693279134
8.7	0.0106256394700665	0.00457942293248838	0.00291496573619112	0.0011609520446372	0.0029205303831019	0.00116168298124076	-0.0149989094408784	-0.00573863148169457
8.8	0.0113431476019449	0.00218631035456418	0.00305231920358395	0.00074930984311874	0.00305810327741334	0.000740547821540384	-0.0148629607201133	-0.0048249600753105
8.9	0.0118310667009141	-0.000356701017217019	0.00312967203222006	0.0003152559673074	0.0031288031431324	0.000313006119476485	-0.0143536177922483	-0.00422312468434962
9	0.0117772666747546	-0.00348465783100852	0.00314154327637386	-0.00012670316706767	0.0031446967662508	-0.000122591683524264	-0.0143938740312202	-0.00428266621714656
9.1	0.0110302793023827	-0.0064692428487961	0.00309729627456257	-0.000570486876712636	0.0031001691653008	-0.000557565889348181	-0.0144898149232178	-0.0034589562973122
9.2	0.00959214373730221	-0.00959875860354366	0.00298786753719774	-0.000989514650852996	0.00299553952951522	-0.000992387574246864	-0.0142243953962464	-0.00312175438077284
9.3	0.00722880342818009	-0.0123308733724507	0.00281957558443576	-0.00139557563223023	0.00281884912623697	-0.00140057421414974	-0.0142332697330893	-0.00281026736896743
9.4	0.00436537872255741	-0.0143750322905717	0.00259844531816641	-0.0017866541952198	0.00260495788653825	-0.00177903485112445	-0.0142856399974515	-0.00249850560405819
9.5	0.000762812929687462	-0.0157911385294075	0.00232400975571866	-0.00212479227888853	0.00233144069394834	-0.00212613672332319	-0.0150509344514773	-0.0020769540079211
9.6	-0.00304269389540215	-0.016000856403088	0.00200470559265242	-0.00242986199759564	0.00200503574499945	-0.00242887789083523	-0.0153177442064401	-0.000491662405226782
9.7	-0.00684254783682021	-0.015486722517706	0.001636936148097	-0.00268120897896177	0.00164248462473785	-0.00268852699341879	-0.0148823951124249	0.000595141543521727
9.8	-0.0106012594609513	-0.0140569235117249	0.00125144699865133	-0.00289162097818227	0.00125715326885297	-0.00288310267278758	-0.0144041903149115	0.00139243946409913
9.9	-0.0138851343712779	-0.0116814508848869	0.000844580243616609	-0.00303313040447813	0.000837231158573167	-0.00303190205910553	-0.0139024249576155	0.00180065564142528
10	-0.0168519645966985	-0.00897757348450314	0.0004106418589864	-0.0031221850644356	0.000403129905056495	-0.00313464883732769	-0.0143483346397845	0.00176496013935289
10.1	-0.0192458044466729	-0.00516963757679126	-3.17598312790654E-05	-0.00315276068992861	-4.2007318959226E-05	-0.00314735593091166	-0.0146750635006865	0.00311120944014555
10.2	-0.0206671335752856	-0.000998976062804506	-0.000479194384848293	-0.00311647043023277	-0.000482606777696077	-0.00311368510996948	-0.0140696537887381	0.00417794236754831
10.3	-0.0211576605539336	0.00356028691682296	-0.00091378604734	-0.00301042558126347	-0.00090568510103836	-0.00301952150847503	-0.0131848724076055	0.00486172904646867
10.4	-0.0203620171268028	0.00812982025266984	-0.00131305810933629	-0.00285371628221523	-0.00131136653287884	-0.00285992441351129	-0.0119742331253001	0.00474923012597405
10.5	-0.018842315094456	0.0120784552892407	-0.0017029437467731	-0.00265268318453292	-0.00169982733200244	-0.00263967262678596	-0.011979380628343	0.00397135512766501
10.6	-0.016686183156163	0.0159550084185993	-0.00205602176569364	-0.00238373455768571	-0.00205383398673859	-0.00238756366726313	-0.0121645591468866	0.00426577134867614
10.7	-0.0136860528402757	0.0195656703072481	-0.00237234211308767	-0.00208058237199552	-0.00236883833941075	-0.00207529635297834	-0.0121564715793116	0.00486325468890527
10.8	-0.00993356848273624	0.022752288689651	-0.0026413716674351	-0.00171883031610491	-0.0026361748015421	-0.00172777247330123	-0.0119304617701521	0.00558168669891712
10.9	-0.00527027987522573	0.0251850639796372	-0.00284797441881551	-0.00134383727173698	-0.0028531657728376	-0.00134310127470989	-0.0113050965827676	0.00596366719576599
11	-0.000296176384071994	0.0262605028574091	-0.00300772230494895	-0.000929126008331065	-0.00301257420388738	-0.000935873638651095	-0.0115305862069685	0.00595334501386101
11.1	0.00488366824128907	0.0268122326817128	-0.00311738738096641	-0.000501818930014241	-0.00310650898508485	-0.000498964086175259	-0.0112803424433284	0.00732482287887689
11.2	0.0102317168396218	0.026101543015426	-0.00314556775303782	-6.28109229592118E-05	-0.00315273433406791	-6.76460028478827E-05	-0.0100372471704274	0.00809995074870253
11.3	0.0154093662300591	0.0243939721065968	-0.0031178293191757	0.000386016783342028	-0.00312939213563333	0.000375979915004791	-0.00845070919862436	0.00834637771883533
11.4	0.0203097564977647	0.02175640787904	-0.00304464787644316	0.000813360724216379	-0.00303972341989538	0.000820932916551333	-0.00687815982935052	0.00783876371485227
11.5	0.0244138883820372	0.0178092758403299	-0.00290221692585655	0.00123199531433319	-0.00290498811374426	0.00124229366091092	-0.00665157564622473	0.00664185824534429
11.6	0.0277953005923957	0.0135526254729221	-0.00270475104192134	0.00162312742771985	-0.00270472725424416	0.00162607115367741	-0.00616249642727665	0.00667860357907739
11.7	0.0305341602884631	0.00855113472792929	-0.00244253135243667	0.001977273491215	-0.00244308298877141	0.00198588817081607	-0.00498926330716338	0.00595183788630043
11.8	0.0324448805120212	0.00308491432937824	-0.00214686439390237	0.00230972570111963	-0.00215098189699176	0.0023114321604373	-0.00403448076788494	0.00465362984884716
11.9	0.0335621170539703	-0.00292788371099468	-0.00179650640398195	0.00258759461172346	-0.00180954016738758	0.00259193267987633	-0.00369020707948742	0.00289095356842002
12	0.0329079618715057	-0.00956719771296867	-0.00141847249698549	0.0028097342065712	-0.00141787216206163	0.00281114550174906	-0.00517520661616721	0.00125306106200369
