# GHZ S RI R 50
0.2	0.0060782473268908	0.0015659828686519	0.00304644918045666	-0.000898410657012119	0.00305681448163915	-0.000891608600891698	-0.0139316674643676	0.00515475779071582
0.3	0.00633008459935651	-0.000537969991737625	0.00290171156598751	-0.00132166165814155	0.00289447528773903	-0.00130872846713079	-0.0131879024460143	0.00519977778647815
0.4	0.00606614451644258	-0.0023917891073673	0.00266941202652914	-0.0016929583475474	0.00267467075088945	-0.00170151413994646	-0.0126470544807575	0.00554364804062149
0.5	0.00483545995848288	-0.00383169769466573	0.00241035076288332	-0.00204816857995076	0.00242187140459934	-0.00206039776776636	-0.0125286459102336	0.00606300270896917
0.6	0.00395851437894754	-0.00427820048512966	0.00209865801683364	-0.00236225872974884	0.00209787112302811	-0.00236940081321889	-0.0118714643183976	0.00705104408843908
0.7	0.00303093460758052	-0.00494211819961491	0.00175149978992096	-0.00263959862672589	0.0017495458940721	-0.00263979675757243	-0.0112450194001181	0.00753414089667972
0.8	0.00195351763960602	-0.00534708900971614	0.00136632603616517	-0.00285612208334753	0.00135374116785843	-0.00286066270575356	-0.0107760390799085	0.00813612918458219
0.9	0.000934183701941019	-0.00556450797520788	0.000950217559331283	-0.00301864915863166	0.000951250853104511	-0.00302933292767534	-0.0101500434526243	0.0087091048295623
1	-0.00063528025675934	-0.00620341898547948	0.000527074462361385	-0.00312255706981812	0.00051722458360655	-0.00312329898988676	-0.00987123203341455	0.00882187942166807
1.1	-0.00274170096375267	-0.00535521165091951	7.10210348473302E-05	-0.00315162505364403	6.75172442001647E-05	-0.00316925521214747	-0.00985551084408189	0.0100808468486573
1.2	-0.0040245623459301	-0.00465551206354071	-0.000370377386405201	-0.00314030417177773	-0.000371188035844263	-0.00313823060394836	-0.00876955444316778	0.0110330258383967
1.3	-0.00562002509298379	-0.00405413713803434	-0.000796288482583395	-0.00305709877239095	-0.000799523451493846	-0.00305910159440876	-0.00734317804793354	0.0116698559505446
1.4	-0.00679826468396838	-0.00314315028050434	-0.00121656329117012	-0.00290977468285069	-0.00121534983848243	-0.00291530005215636	-0.00565165301329996	0.0116731120061464
1.5	-0.00763039130003855	-0.00175334255138782	-0.0016183139355218	-0.0027143727155545	-0.00161670366603949	-0.00272286373829019	-0.00457453721597463	0.0113079557577992
1.6	-0.0068871078506837	0.000366149162956975	-0.00197740392075386	-0.00246075917214973	-0.00197761464500857	-0.00246598470073477	-0.00352661728428574	0.0114984229217159
1.7	-0.00578449758817377	0.00151411472326326	-0.0023042774695472	-0.00216504443822019	-0.00230524352609862	-0.00215879431790516	-0.00269367671427904	0.0113485377347962
1.8	-0.00468564685042419	0.00256691892359505	-0.00257490724982368	-0.00181499580699966	-0.00258585199796788	-0.0018206290021396	-0.00198867214773217	0.0113017742725772
1.9	-0.00344174121827586	0.00307023506525038	-0.00280071988832292	-0.00144502043336392	-0.00281314388732856	-0.0014388818730805	-0.00129467470999401	0.011114816936207
2	-0.00308294501326167	0.0034008221513369	-0.00297501125564133	-0.00103671313671893	-0.00298461441667109	-0.00103201606268083	-0.00135589602178603	0.011049260738039
2.1	-0.00180583152160769	0.00473892057805434	-0.00308736790517649	-0.000611454735736114	-0.00308329170017764	-0.000613438237142859	-0.00054969236016031	0.0118884182904435
2.2	8.50195098124415E-05	0.00499563358479647	-0.00314596732259013	-0.000174824183571045	-0.00315724634756333	-0.000177667534931028	0.000749754913800818	0.0118944654629999
2.3	0.00186872985704125	0.00457704612328682	-0.00314210559128476	0.000267894335688494	-0.00314179619264168	0.000261024180334685	0.00186525643614133	0.0115573489808347
2.4	0.00360632090409894	0.00346258451214519	-0.00306947942304219	0.000705591165290101	-0.00307201108630221	0.000701339900528619	0.00301910555691693	0.010998213638646
2.5	0.00409210119229657	0.00131625466838298	-0.00293286453580825	0.0011144375506301	-0.00294373914178861	0.00112078275158608	0.00346445161390598	0.00982572532592269
2.6	0.00393383860059118	0.000548180197088441	-0.00276278669053714	0.00151733496281547	-0.00275920949348332	0.00150503857212975	0.00373860589124901	0.00972332520558239
2.7	0.00431447901723333	-0.000316281785152495	-0.00251782762851911	0.00188949774746244	-0.00252310044414386	0.00188949901041826	0.00434553419417548	0.009382561236828
2.8	0.00489901974247736	-0.00133574119915202	-0.00223561144210127	0.00221672794819666	-0.00222782729526554	0.0022265179219945	0.00499648440553141	0.00917936399137667
2.9	0.00556431344061017	-0.00304798097620401	-0.00190300080234978	0.00251585822008002	-0.0018992966655917	0.00251544041923055	0.00601505742248359	0.00878841719721066
3	0.00493819274388719	-0.00509478229230667	-0.00152068165639397	0.00275325097798041	-0.00153546965113107	0.00275930377347015	0.00653312428678867	0.00824644056644088
3.1	0.00463680243520785	-0.00613148471803055	-0.00112905840805122	0.00293309559088192	-0.00112442047790201	0.00294144497601248	0.00760862495293302	0.00823068004984762
3.2	0.00413561981347571	-0.00787032197103697	-0.000708679845294825	0.00307012886836139	-0.000710422026544108	0.00306951494352139	0.00852378619372443	0.00757650705687423
3.3	0.00306987422757777	-0.00968126526786319	-0.000271443267454485	0.00314071550400854	-0.000269786536023674	0.00313698115868166	0.00936022562439363	0.00683445393851595
3.4	0.00150689453251705	-0.0114702748579377	0.000174323633729534	0.00313721051721029	0.000168074066313622	0.00315375895274374	0.0102290055301317	0.00571271761862601
3.5	-0.00147108219847887	-0.0130489676586955	0.000599380965496945	0.00309701063144513	0.000604980953966665	0.00309709623227129	0.0100823766590749	0.00422479551735286
3.6	-0.00405690305049776	-0.0125803942618338	0.00102826595863406	0.00297547759912273	0.00103645782079801	0.00297517267481993	0.0102954973749896	0.00395187121549416
3.7	-0.00594408280824102	-0.0124598399318504	0.00143795814791547	0.00279564256378878	0.00142834551167814	0.00280929955342813	0.0109389075325648	0.00300948628307593
3.8	-0.00798923129629081	-0.0122841445725598	0.00181692839542216	0.0025701174115533	0.00181931503979498	0.00257927537038803	0.0113123597989715	0.00183837902036098
3.9	-0.0101346600768146	-0.012181393567562	0.00216524208872547	0.00229740225749103	0.00215797391665572	0.00229561013325449	0.0114307495649645	0.000385297285779443
4	-0.0137205603301417	-0.0115994112222375	0.00244959608428373	0.00197285254178302	0.00245404647449316	0.00197042269070678	0.0104070687722639	-0.000885769545156995
4.1	-0.0163129144134426	-0.00845919180070057	0.00269950583418542	0.00161590658025401	0.00269825210416074	0.00161663952716657	0.0101948011970097	-0.000536076457628656
4.2	-0.0174759411660479	-0.00560590886467099	0.00290102184070956	0.00121616711089804	0.00290550844372494	0.00120745862786044	0.0107157982096478	-0.000908757036975932
4.3	-0.0181128097279459	-0.00297499870645965	0.00304583122478207	0.000803553437771542	0.00305227272111514	0.00079575900375585	0.0111846019267672	-0.00168533312245645
4.4	-0.0183294072128956	-0.000693607113109601	0.00312196981431592	0.000368112173401432	0.00312434843736829	0.000365859108175235	0.0115554637750897	-0.00280719973530485
4.5	-0.0195341242784752	0.00129438081105499	0.00314363958158492	-6.62597115183669E-05	0.00314900770802821	-6.96166698242848E-05	0.0109246699370432	-0.00420564669869967
4.6	-0.0199115817686312	0.00538236982444941	0.0031053352384914	-0.000508953410593268	0.00310652528864843	-0.000496022165950848	0.0106702950312309	-0.00432514961727225
4.7	-0.018675786309056	0.00880068360293112	0.00300164901152247	-0.000930538705223668	0.00301698076713486	-0.000940130627249916	0.0107591326067542	-0.00516561946333749
4.8	-0.0168884617938226	0.0117509326101348	0.00284078234640132	-0.00134610914998562	0.0028492859621537	-0.00135218683766243	0.0105965072146539	-0.00599870129500194
4.9	-0.0142615222140494	0.0138923624828649	0.00262073346641347	-0.00172985393458038	0.00262489660042292	-0.00172693469068697	0.0105626688517343	-0.00689528547354406
5	-0.0124682893934859	0.0152874990885662	0.00236622795601826	-0.00208753854416337	0.00236985009722675	-0.00208485584311641	0.00991841989203775	-0.00784110987240552
5.1	-0.00904150812818624	0.0176813693221934	0.00205291065947318	-0.00240391866249468	0.00205521554576825	-0.00240255295635812	0.0102383833695929	-0.00791655080943279
5.2	-0.00495100788963984	0.0178878897469447	0.00169324711861669	-0.00265441281183946	0.00169497211716936	-0.00265956542252882	0.0106534044597384	-0.00912684116310813
5.3	-0.00156113029794115	0.0169786947113299	0.00130633160384725	-0.00287068435481449	0.00130946818971035	-0.00286861165394835	0.010459437638796	-0.0104131708520093
5.4	0.00108419744178796	0.0153434700345756	0.000881890199603757	-0.00302107988325977	0.0008991282676828	-0.00303229123937256	0.0100211831499143	-0.0118541882316243
5.5	0.00163566885050441	0.0139733631959284	0.000462654658550676	-0.00312343605217048	0.000472749425059957	-0.00313289919123904	0.00814204934732935	-0.0129976546498458
5.6	0.0039246502473705	0.014677339436379	2.05936820515092E-05	-0.00315526239679382	1.20452522342094E-05	-0.00315848619432226	0.00757435416620616	-0.0123325743745533
5.7	0.00699534361895755	0.0133321160321733	-0.000410324613451565	-0.00312405719995789	-0.000426976658077933	-0.00312772619765572	0.0073765231916388	-0.0128191140086656
5.8	0.00945399571861502	0.0110266079808057	-0.000857623351631552	-0.00302963461300493	-0.000861169190373659	-0.00304366052351711	0.00685203157580791	-0.0135192533721335
5.9	0.011491657985349	0.00764924997207898	-0.00126620601963158	-0.0028892904770685	-0.00127446128870545	-0.00288920160877233	0.0063261264928385	-0.0144716834164804
6	0.0105512973485119	0.00275318776556755	-0.00166538517395933	-0.00267623560942201	-0.00166181911661695	-0.00267640898402555	0.00414947552254977	-0.0160244443801086
6.1	0.00846993995479919	0.001380069324712	-0.00201622320151985	-0.00242295513559094	-0.00201786305958885	-0.00241894563929475	0.00222395707958601	-0.0148396221329492
6.2	0.00750072125656707	-0.000130039993123403	-0.00233067208660068	-0.00211072499255352	-0.00233439225517763	-0.0021226160583648	0.00167267508902691	-0.014311424897528
6.3	0.00658957997975285	-0.00158285470567743	-0.00261003469171232	-0.00177460275725428	-0.00261917615236712	-0.0017688446322655	0.00136032382472401	-0.0141546781669074
6.4	0.00572547501912705	-0.00374404395597828	-0.00283539609268735	-0.00138038247993798	-0.00282566560629282	-0.00138530622036979	0.00138061012188068	-0.0147254245905932
6.5	0.00261295390952738	-0.00544290169436392	-0.0029875228522099	-0.000978152681555451	-0.00299538782899283	-0.000973668906638196	1.72492579625327E-05	-0.0153761183226521
6.6	0.00149944942990182	-0.00498990662581295	-0.00310103151547752	-0.000554155672676919	-0.0031026680834486	-0.000558141494580391	0.0001665764550354	-0.0151196739039357
6.7	0.000168278982273622	-0.00589934732795849	-0.00315231365255657	-0.000112435482477102	-0.00316118347538379	-0.000106134393371672	-0.000530869946150028	-0.0159891198106104
6.8	-0.00170463774863316	-0.00612250609129131	-0.00312880557717702	0.000331169226755653	-0.00313991381497861	0.000336240472155822	-0.00167011338670149	-0.0160490640361939
6.9	-0.00337483443225271	-0.00645914943989452	-0.00305138986038876	0.000763135375967856	-0.00305437918626367	0.000765531141783744	-0.00227559913398455	-0.0162285848593242
7	-0.00759895066160998	-0.00627658932889434	-0.00292013700539573	0.00118391456051445	-0.00293300448463688	0.00118171004398069	-0.00458788334406223	-0.0165303093156689
7.1	-0.0094247509988527	-0.00210655447518698	-0.00273972063065956	0.00157954715485495	-0.0027360291537435	0.00158823467991112	-0.00523280120264665	-0.0144142213760592
7.2	-0.0093441788472296	0.0004093929696275	-0.00247936848354957	0.00194753286134005	-0.00248591008185492	0.0019496308593651	-0.00508315703491376	-0.0138358620548974
7.3	-0.00904780226628182	0.00251906206717236	-0.00218276646935307	0.00226577487956446	-0.00219399600262193	0.00227086050475677	-0.00509253108706533	-0.0134679725198908
7.4	-0.00793090012521303	0.00377050972842044	-0.00184224519203702	0.00255031511989134	-0.00184912897992968	0.00256397499122405	-0.00475596855128952	-0.0137029021289767
7.5	-0.00899572466196577	0.0031523301939479	-0.00147099578755745	0.00279552431093137	-0.00146394938539392	0.00280292457479367	-0.00599746593214249	-0.0151879599197158
7.6	-0.0099887613323545	0.00627665367014928	-0.0010587671393562	0.00296799452078932	-0.00106016388238289	0.00296329424132531	-0.00693200757576467	-0.0140298325335615
7.7	-0.0090580506856618	0.00826288239789433	-0.000630802347448016	0.00308644268135658	-0.000632148304560979	0.00308538410268806	-0.00706746007385422	-0.0145267023760237
7.8	-0.00780785597876904	0.00961303087087183	-0.000204497678218613	0.00313496581674849	-0.000212295850085637	0.00314146168298595	-0.00774648903128634	-0.0151056804087724
7.9	-0.00648147576605529	0.0101486808694791	0.000240324950638817	0.00314140239148936	0.000248288826905219	0.00314286888488419	-0.00886644237192418	-0.01578106747586
8	-0.00747210548846548	0.0114379116956818	0.000684367012528959	0.00305983650402292	0.000684475183247927	0.0030647345696365	-0.0116590571979	-0.0156618730094836
8.1	-0.00420834025145096	0.0149976732218354	0.00108779850730821	0.00294064356714145	0.00110693497580451	0.00294166251117911	-0.0118228522233201	-0.0134956460069879
8.2	-0.000322274808111603	0.0155307201414215	0.00149211735938864	0.002760738417198	0.00150133950350525	0.00275351372383928	-0.0119449037492954	-0.0129745784174064
8.3	0.00318638821576393	0.014992127969257	0.00186926185809527	0.00251987872332938	0.00186767021070562	0.00253343518139015	-0.0122315778823065	-0.0123822888289183
8.4	0.00651086445427196	0.0129867756886213	0.00220330767985267	0.00223717052785455	0.00220027943289157	0.00223695993981636	-0.0122431868892421	-0.0123189532337906
8.5	0.00638843979281317	0.010237769932303	0.00248035049942496	0.00190843650087275	0.00247946330218	0.00191161505810853	-0.0143635513336453	-0.0125188944137438
8.6	0.00795612091743507	0.0111613805617939	0.00272999299472649	0.00155183844311191	0.00273947378350911	0.00154527847393798	-0.0148901976622821	-0.0100782975315439
8.7	0.010950804458436	0.00961982864383301	0.00291567668927849	0.00114633653146497	0.00292123614115192	0.00114704181448008	-0.0145665565505749	-0.00926949360783474
8.8	0.0133897857393446	0.00692906267579242	0.00304902404151575	0.000734110917564394	0.00305475659725587	0.000725342200603895	-0.0146227239064976	-0.00872800861315885
8.9	0.0155101878511957	0.00267773902653234	0.00312212841181438	0.000303149886405013	0.00312125385661404	0.000300909393122799	-0.014234776633468	-0.00843620135543035
9	0.014128178259143	-0.00290165486697611	0.00313742583578218	-0.000136163055211613	0.0031405881589047	-0.000132066099392129	-0.0153008392525395	-0.00873690247739675
9.1	0.012557030739194	-0.00554735383911866	0.00308944329014072	-0.000584043536719892	0.00309237191088767	-0.000571157619169633	-0.0152849330568612	-0.00708962532320771
9.2	0.0106316370023838	-0.00922191183462134	0.00297520089371026	-0.00100025846036412	0.00298283886560039	-0.00100315805835786	-0.0149622933298542	-0.00687523042949931
9.3	0.00731699258167917	-0.0120999795691481	0.00280534904236191	-0.00140205612605237	0.00280460560995774	-0.00140703621925059	-0.0151450145960855	-0.00641741800667028
9.4	0.00351888435119956	-0.01429888309026	0.00258600748287491	-0.00179060268623085	0.00259252839382568	-0.00178302397388115	-0.0151032722110106	-0.00602066017849335
9.5	-0.00258495134277807	-0.0147600175097731	0.00230791469560755	-0.00213153399047824	0.00231532157606451	-0.00213291267625524	-0.0163671580074122	-0.00516786864645101
9.6	-0.00560662633111544	-0.0118520130712618	0.0019845756149497	-0.00242858028212812	0.00198490891715981	-0.00242760202849165	-0.0154601010786208	-0.00301994907791166
9.7	-0.00763039984506074	-0.0106140291827402	0.00161950946523399	-0.00267481862817021	0.00162500537798861	-0.00268212317234788	-0.0145786613993334	-0.00261890871058293
9.8	-0.00984485637874671	-0.00932325956019204	0.00123635961590222	-0.00288296014149097	0.00124206877260335	-0.00287449837217264	-0.0141741811114022	-0.00219013015334885
9.9	-0.0117753347903523	-0.00844466210516899	0.000829183266735287	-0.00302332966084336	0.000821870620886071	-0.00302207812548675	-0.0136866090154234	-0.00207810597023594
10	-0.0165779622893183	-0.00735668975618238	0.000395188331446255	-0.00310345867069037	0.000387674498530783	-0.00311581025891757	-0.0151106225214328	-0.00221658039405645
10.1	-0.019172932970792	-0.00183156773404659	-3.75900006585323E-05	-0.0031318894572796	-4.77594938016629E-05	-0.00312650074230733	-0.0149056204396302	7.59931137038137E-05
10.2	-0.0194773584617033	0.00244782208441552	-0.000481256021714884	-0.00309693913739444	-0.000484643439602201	-0.00309416517555207	-0.0138473087950099	0.00087637417252253
10.3	-0.0189583734035346	0.00635915532881128	-0.00091328563375087	-0.00299042806428215	-0.000905249743243905	-0.00299948197004676	-0.0128213081816398	0.00140934107677749
10.4	-0.0174890424212399	0.00888781699087533	-0.0013081792398603	-0.00283075486441653	-0.00130651020285781	-0.00283692052332832	-0.0113031541153507	0.000914726982846836
10.5	-0.0187985100652524	0.0109823575674536	-0.00168638555626514	-0.00263343377485337	-0.00168330859068171	-0.00262052350099271	-0.0120340804430317	-0.000154595649865552
10.6	-0.0179885759278662	0.0162866204030333	-0.00203996725147629	-0.00237257506728434	-0.00203778671153917	-0.00237637775768164	-0.0117895101689771	0.000550615621826115
10.7	-0.0161903303472702	0.0205237019169431	-0.00235583356655358	-0.00207164985600682	-0.00235235709654397	-0.00206638986435205	-0.0119934720616701	0.000477708454458516
10.8	-0.0124086153054999	0.0251689850625043	-0.00262255535127249	-0.00171263385441248	-0.00261737568102471	-0.00172151331133901	-0.0117092577908796	0.00144990859540273
10.9	-0.00711101737937966	0.0279303892845272	-0.00282643813272275	-0.00134373929363857	-0.00283159943584776	-0.00134302286313572	-0.0107397055304068	0.00159566697166461
11	-0.00409556051474321	0.0293448814702701	-0.00299307093395515	-0.000936404127917307	-0.00299788039295198	-0.000943143741575962	-0.0117371453707604	0.00133253116308752
11.1	0.00195356227146599	0.0330222002178564	-0.00310439005134511	-0.000505828324940442	-0.0030935591167023	-0.00050296375276591	-0.0107862281245125	0.00310553394894118
11.2	0.00941541606349988	0.0331551194784557	-0.00313122990509521	-6.94263599591398E-05	-0.00313835352945368	-7.42553308350691E-05	-0.00942661394189043	0.00309334161894227
11.3	0.0165832683638195	0.0311681620043188	-0.00310507257122659	0.000375032093889249	-0.00311655400429196	0.000365005629960374	-0.00829131627812714	0.00292129896087669
11.4	0.0231718710468279	0.0269894093244687	-0.00303761987524531	0.000799799346865203	-0.00303273862079285	0.000807364453360249	-0.00711589461768377	0.00215851894154412
11.5	0.0259192884604001	0.0217384760260458	-0.002896244237555	0.00122428088890884	-0.00289902351511931	0.00123454724154774	-0.00820466145782184	0.00121749508159697
11.6	0.0300848522567947	0.0188783288246326	-0.00269567615442606	0.0016102982751913	-0.0026956583832579	0.00161322862677381	-0.00728855068424455	0.00232384325572593
11.7	0.0346755039853648	0.0130482073379344	-0.00243801213782645	0.00196092798303606	-0.00243858838439177	0.00196950310962424	-0.00583776190602249	0.00158787941419761
11.8	0.0377829865599386	0.00546744107757478	-0.00214724444499201	0.00229359215574224	-0.00215135295041949	0.00229527765464085	-0.00474757299117816	0.000368074465093231
11.9	0.0385814142905571	-0.0043261933192278	-0.00179847800066659	0.00257483023478328	-0.00181148528853184	0.00257911859128019	-0.00410368095298417	-0.00173117123033576
12	0.0327688072024662	-0.0127157213158941	-0.00141854747062543	0.00279179268000843	-0.0014179538400332	0.00279319836410766	-0.00681614664877783	-0.00325453527711565
