# GHZ S RI R 50
0.2	0.00538172098324797	0.000114532297162689	0.00305591728690535	-0.000895694142438106	0.00306629840182341	-0.00088885703984027	-0.0145800918481975	0.00378049269106076
0.3	0.00582338659753379	-0.00139138282068773	0.00291403629725945	-0.00131992665372497	0.00290674907055373	-0.00130696606283858	-0.0136790501664122	0.00442477176917431
0.4	0.00565909617428257	-0.00239062049310605	0.00268489151723214	-0.00169392780807755	0.00269019307642427	-0.00170250795781781	-0.0131141399412427	0.00562169442633531
0.5	0.00632111364702178	-0.00398788556262868	0.00242620402829911	-0.00205566881924106	0.00243780395259502	-0.00206794691943479	-0.0112973546360459	0.00607264412537678
0.6	0.00438602140305683	-0.0064030736930554	0.00211161578521883	-0.00237134173727174	0.00211083331726746	-0.00237851953076484	-0.0117540252133017	0.00538420286250777
0.7	0.00221059441559771	-0.00673813197581447	0.00176457938124112	-0.00265125279483333	0.00176261531405884	-0.00265145473312671	-0.0122582214477701	0.00641641227425375
0.8	0.000386625166056582	-0.00668812230145405	0.0013779497527061	-0.00287188562368028	0.00136529370452633	-0.00287646847270655	-0.0123466543578272	0.00760436996076834
0.9	-0.00172753114902085	-0.00581857916206908	0.000957391620304446	-0.00303853854752482	0.000958434752589915	-0.00304929335150289	-0.0125441328222792	0.0092357765106005
1	-0.00184839396525577	-0.00360665450105549	0.000528292675640905	-0.0031404577071784	0.000518386847700875	-0.00314119827917934	-0.0107429118224955	0.0118284559696581
1.1	-0.00195114711044521	-0.00471246643767835	7.3208628373856E-05	-0.00317029378152758	6.96939178024608E-05	-0.0031880305588871	-0.00909476013722072	0.0110261666354777
1.2	-0.00390117099398205	-0.00468806777034885	-0.000372505361447947	-0.00316191792569314	-0.000373321852092066	-0.00315983022590185	-0.00888658543056001	0.0114029537267952
1.3	-0.00561425390534951	-0.00453040730174698	-0.00080399917061261	-0.0030785027358791	-0.000807258650402307	-0.00308051780552519	-0.0077520972682155	0.0118273214034601
1.4	-0.00726239856330441	-0.00385493626239287	-0.00122860561367695	-0.00292765271648655	-0.00122739141044356	-0.0029332167423671	-0.00649677520050697	0.0119120496724692
1.5	-0.00686133780763558	-0.0030875891671972	-0.00162880421704819	-0.00273173979202482	-0.00162718392322414	-0.00274028538844944	-0.00422228977882651	0.0111740841584763
1.6	-0.00814179832189105	-0.00226760879804624	-0.00199571424169604	-0.00248059582194635	-0.00199592982193627	-0.0024858658084646	-0.00486422722219489	0.0105431590175066
1.7	-0.00789074369802897	0.000214575243957437	-0.00232871820782746	-0.00217924277878381	-0.00232968004922726	-0.00217293627831954	-0.00443760088298145	0.0116910417691107
1.8	-0.00683842719506177	0.00229503717946548	-0.00260146434551135	-0.00182307689422187	-0.00261251623029575	-0.00182872701971557	-0.003549167467907	0.0124465205936733
1.9	-0.00525281411116522	0.00434846445091026	-0.00282709633529827	-0.00144949285055639	-0.00283960501066826	-0.00144327263023518	-0.00248082397244901	0.0134720492344711
2	-0.00170325068740305	0.00505114660021201	-0.00300790920653697	-0.00103965938229229	-0.0030175980246114	-0.00103489002877334	0.000239695359078808	0.013565366591798
2.1	-0.000730393185870082	0.00342961120246067	-0.00312205898875434	-0.000600770921592847	-0.00311795225100865	-0.000602796863055932	0.000486566684392645	0.0118361741913324
2.2	-0.000213316380260934	0.00344563278687962	-0.0031756546259207	-0.000156810176100937	-0.00318705389868563	-0.000159609092271767	0.000598966164682755	0.0118935339748906
2.3	0.000559653566962947	0.00331684088250642	-0.00316801931645947	0.000290664922584887	-0.00316775182691426	0.000283732292042007	0.00103242238845827	0.0119057850141141
2.4	0.00114857439479615	0.00358326361560582	-0.00309371338173783	0.000733590544253142	-0.00309629857663571	0.000729316503036258	0.00138552488896014	0.0124334857979169
2.5	0.00369367428435741	0.00403073219744777	-0.00295033666167841	0.00115506002763706	-0.00296125364437024	0.00116157754857174	0.00374390879325482	0.0132038550213068
2.6	0.00536841984404426	0.00134554748542852	-0.00276521266690513	0.0015573631631576	-0.00276174350374172	0.00154494481510479	0.00524918129267606	0.0111382705486811
2.7	0.00567544661436551	-0.000574663578297656	-0.00251410316002592	0.00192738741584584	-0.00251940906656985	0.00192744319259829	0.00547551329793076	0.0100131591181838
2.8	0.00569072219876215	-0.00236474169164951	-0.00222550010443344	0.00225488358499071	-0.00221756089489324	0.00226465017981698	0.00547867807470597	0.00934401731206388
2.9	0.00561662302672567	-0.00357551448072381	-0.0018827492611348	0.00255474775027833	-0.0018790282962844	0.0025542809458953	0.00579029317590311	0.00958979064971779
3	0.00680602626792844	-0.00549829344327675	-0.00148630780094029	0.00278109878859801	-0.00150104845595102	0.00278737128400825	0.00782641821037625	0.00925140909357402
3.1	0.00553175342245513	-0.00879320553693383	-0.0010974966876549	0.00295141824969421	-0.00109275452013491	0.00295972976081669	0.00780464688819215	0.00757956920508923
3.2	0.00368458989777895	-0.0104287901650848	-0.000673753959021193	0.00308528779678069	-0.000675507258840937	0.00308469322628067	0.00774148410997992	0.0074938716740288
3.3	0.00170764071668251	-0.0118266250672155	-0.000231615776651345	0.00314869826923206	-0.000230004486282778	0.00314493735060256	0.00809847601000727	0.0073025000397556
3.4	-0.000597675161558698	-0.0122825175659349	0.000216260278332376	0.00313270447842137	0.000210236878766675	0.0031493252535046	0.00859344491960673	0.00732703889891506
3.5	-0.00132378252184974	-0.0129022937870938	0.000630299725829474	0.00308345886320515	0.00063588741779646	0.00308348580258014	0.0105141334483087	0.00655075557176829
3.6	-0.00449118543704229	-0.014893386784547	0.00105963354794902	0.00296432962218572	0.00106782142840147	0.002963938105487	0.0101439745265535	0.00424845528552026
3.7	-0.00819837023971749	-0.0143774131209464	0.00146983555719626	0.00277618001870276	0.00146039307490679	0.00278993906016914	0.00948460580258174	0.00379996809619724
3.8	-0.0112954060699692	-0.0128149888378385	0.00184343475534273	0.00254262343342972	0.00184592513295057	0.00255173214387938	0.00929051273610774	0.0036728129923071
3.9	-0.0134748134557115	-0.0101417791709367	0.00218210470725148	0.00226687198430549	0.0021748422065309	0.00226516236816796	0.00952618805528338	0.00406404327320936
4	-0.0130655613383968	-0.00805491971334282	0.00246685625254188	0.00194772519572607	0.00247127987996759	0.00194525412679651	0.0118476225125423	0.00363605113974066
4.1	-0.0146820111193718	-0.00809830254008787	0.00271614721255458	0.00157825912401276	0.00271490501432643	0.00157900717098132	0.0119033414931626	0.00105437419809422
4.2	-0.016783498605299	-0.00611246043895912	0.00290590011992509	0.00117399566128675	0.00291025699299325	0.00116526169906509	0.0113502626069588	0.000165374960158673
4.3	-0.0182233250223879	-0.0034791928965783	0.00304134966674829	0.000762684537285742	0.00304766603208463	0.000754848152108174	0.0110689856285607	-0.000506799814039541
4.4	-0.0191025617938713	7.25015066024553E-05	0.00311359238788951	0.000330272219610101	0.00311593513214915	0.000328000600529475	0.0108094331184204	-0.000581472033738484
4.5	-0.0172046763609959	0.00347172594806131	0.00312999901124204	-0.000113707333436865	0.00313529461048819	-0.000117132276464619	0.0125774009120243	-0.00101905794122578
4.6	-0.0168252722412788	0.00411825440695273	0.00307082237962159	-0.000550515899671174	0.00307219357765843	-0.000537714611867632	0.0121968767220394	-0.0038449664391787
4.7	-0.0167948737585705	0.00646272863408872	0.00296023845061749	-0.000960329110209361	0.00297529599533593	-0.000970025873327768	0.0110275300751964	-0.00494199421740964
4.8	-0.0160786821539446	0.00900574111283339	0.00279570234531701	-0.00136740811248042	0.00280404589987334	-0.00137352895587505	0.0100570508178434	-0.00564104553347662
4.9	-0.0146036125923021	0.0119733466244668	0.00257037916849431	-0.00174618737029733	0.00257453697634862	-0.00174335367812848	0.0092228609833592	-0.00555694655343443
5	-0.0106191563022956	0.013806791746137	0.00230211540691745	-0.00208736871784317	0.00230571818323597	-0.00208477552832772	0.0104921075046497	-0.00594301822175248
5.1	-0.0089344748023597	0.0134315863560046	0.00199916591260765	-0.00238378856231664	0.00200144619900043	-0.00238246481516028	0.00937472534157172	-0.00790575915398219
5.2	-0.00707788283121627	0.0147324949922811	0.00164663585643934	-0.00262774888552071	0.00164829396187139	-0.00263283735733225	0.0084199162315169	-0.00786136597428388
5.3	-0.00427456312021144	0.015659046667885	0.00126348316791815	-0.0028358181973089	0.0012665866834099	-0.00283380243900849	0.00821761263979117	-0.00771127285051113
5.4	-0.000992535155321132	0.0163539432181268	0.000844195684573166	-0.00297302323685672	0.000861042290919047	-0.00298415706251013	0.008478664735691	-0.00746861460952356
5.5	0.00437990188297745	0.0149006973782716	0.000447549415386327	-0.00306358511760385	0.00045742932454972	-0.0030728839189915	0.0106257393238932	-0.00895610785568169
5.6	0.00524684573195399	0.0108607363961518	1.70406532758711E-05	-0.00310540569412868	8.62405745670887E-06	-0.00310856978625441	0.00836227115898473	-0.0120951883205791
5.7	0.00534730628145304	0.00953232766496437	-0.000408450646983104	-0.0030736619019138	-0.000424842815658035	-0.00307724756910129	0.00593148563477699	-0.0120240061232141
5.8	0.00576015361418822	0.00848893463280168	-0.000845004094365676	-0.00297800840482462	-0.00084849867328411	-0.00299179556674658	0.00431111841146407	-0.0116019431999327
5.9	0.00597208199409209	0.00848027359367637	-0.00123787876673378	-0.00284165674356728	-0.00124599030139462	-0.00284158728665078	0.00280178731771064	-0.010203928393492
6	0.0095860319918246	0.00869484262676643	-0.0016328229061008	-0.0026480555892658	-0.00162930267893014	-0.00264821226868495	0.00455401628840901	-0.00846762418811778
6.1	0.0112840062285855	0.00397128810243126	-0.00198746850179298	-0.00239186575283935	-0.00198908917955419	-0.00238791120260104	0.0047669853918587	-0.0107333581209114
6.2	0.0106233323798206	0.0006220090039742	-0.00229178405267035	-0.00208244414858994	-0.00229542821334865	-0.00209416050138587	0.00370595746260675	-0.0114669996381399
6.3	0.00927132151675597	-0.00232247417371207	-0.00256364404853798	-0.00175638704549777	-0.00257266483578723	-0.00175074951289096	0.00269123489760162	-0.0121016969632974
6.4	0.00744668003586931	-0.0039141609989772	-0.00279008024272438	-0.001376116691676	-0.00278045625324665	-0.00138092453186601	0.00180509055719723	-0.0117832548110815
6.5	0.00761891523298156	-0.00669416018717726	-0.00294884004827899	-0.000970482786709042	-0.00295661384849153	-0.000966066728918111	0.00307410162110551	-0.0130458117952444
6.6	0.00333591661183548	-0.00972887561729319	-0.00304738206531168	-0.000554103409721893	-0.00304897931508288	-0.000558027273439032	0.000464044523030619	-0.0148184448639167
6.7	-2.40892173111051E-05	-0.00957460825549059	-0.00309958177442048	-0.000129398647248056	-0.0031083427307385	-0.000123254575956882	-0.00120521627991205	-0.014228539615537
6.8	-0.00287207356899151	-0.0090305497762043	-0.00308388480437789	0.00030335411773711	-0.00309486195283862	0.000308267677171949	-0.00254692168696602	-0.0137107228852096
6.9	-0.00537756305879477	-0.00687308025786876	-0.00301349782281879	0.000733268477242576	-0.0030164603930581	0.00073561192458942	-0.00361546508083545	-0.0120566722842392
7	-0.00386394357650813	-0.00569827755822648	-0.00287339404055885	0.00114426486464418	-0.00288601037089054	0.00114202274543984	-0.00124373926299013	-0.0118442671888826
7.1	-0.00700431550538855	-0.00768100350406986	-0.00270980493524605	0.00151931816764052	-0.00270628111721793	0.0015278953228276	-0.00356098650348076	-0.0144266379495026
7.2	-0.0105572175416013	-0.00569868152914628	-0.00246645866712508	0.00188585185366442	-0.00247292711725601	0.00188783364522174	-0.00596207013424958	-0.0134661607552687
7.3	-0.0132133893692124	-0.00283939793392944	-0.00218036622635368	0.00220465222894864	-0.00219149845242241	0.0022095188155712	-0.00741160909931136	-0.0122622372339471
7.4	-0.0155427947098675	0.00175426470131707	-0.00184706369910615	0.00248477859147511	-0.00185402100084014	0.00249812753662925	-0.00887012823041004	-0.0100548075317372
7.5	-0.0129847566633834	0.00725257032408454	-0.00150250738267514	0.00272170382838571	-0.0014957198307909	0.00272912431022129	-0.0063076152131031	-0.00770603698657312
7.6	-0.0117069635889144	0.00776220109800493	-0.00110881852601834	0.00291622378862645	-0.00111010484855265	0.00291154255173449	-0.00594258591754301	-0.0101292495660503
7.7	-0.0111514159615965	0.0102368316974292	-0.00068513416552944	0.00304676319548232	-0.000686447603756766	0.0030456878864227	-0.00701124434405817	-0.010624407923185
7.8	-0.00935512757998669	0.0125283717676112	-0.000265272208217679	0.00310394139964836	-0.000273132925072758	0.0031102258855045	-0.00787855998167211	-0.0106856003391627
7.9	-0.00634224454588559	0.0148770495277049	0.000166952743187722	0.0031222162143361	0.000174820743955739	0.00312385242481129	-0.00806873588892266	-0.0099153018635269
8	-0.000522852385132943	0.0139352792641446	0.000609977927991941	0.00307338998213102	0.000609967967454561	0.0030782859520779	-0.00652952756770401	-0.011281481075003
8.1	5.46368166412356E-05	0.0111816601323386	0.00103073896734091	0.00296141524419829	0.00104985378069093	0.00296280469451044	-0.0097427538405556	-0.013298294927279
8.2	0.00102240265590676	0.0112542449072985	0.00143700393625434	0.00278722294596841	0.00144635815415682	0.00278018443139804	-0.0118830604758584	-0.0120068189213257
8.3	0.0025595530023183	0.0111235140531107	0.00181703149631279	0.00255866892391029	0.00181515872439839	0.00257219253515507	-0.0131890055571681	-0.0107051952696515
8.4	0.00432092044317732	0.0118138381245839	0.00216287927012438	0.00229300769397284	0.00215984457443635	0.00229273077464364	-0.0141631780079484	-0.00853456915244338
8.5	0.00991407438745826	0.0107404459846498	0.00246514352794227	0.00195952162075956	0.00246420037673535	0.00196270546967097	-0.0117139884537577	-0.00751190584376049
8.6	0.0105834574574419	0.0053403425634046	0.00271003979987846	0.00159978446211949	0.00271964742572094	0.00159336684817118	-0.0134611836361452	-0.00970743404520001
8.7	0.009798685663108	0.00307478632569536	0.00290413196351293	0.00120395227214234	0.00290969673747467	0.00120476252864477	-0.0157034604359011	-0.00860348412789818
8.8	0.00915111884007859	0.00133336438062261	0.00305291951794284	0.000794869985850638	0.00305884760705468	0.000786157222262926	-0.0172454920338549	-0.00706214738662607
8.9	0.00840426449226821	0.000783366075293096	0.00314174717996044	0.000354763184246207	0.00314090112835515	0.000352491386971647	-0.0182507250014553	-0.00425042807510197
9	0.0111686084946197	-0.000176024977478642	0.00314849868758673	-9.14124299892159E-05	0.00315161124377454	-8.72580696643087E-05	-0.0153980623029557	-0.00187037660286215
9.1	0.0106852556312955	-0.00489990389538743	0.00311634153944621	-0.000526552382650846	0.00311903283487143	-0.000513544640574757	-0.0152447270574473	-0.00279356061303222
9.2	0.00922385260894766	-0.00751087937762005	0.00301964986087409	-0.000952543148144606	0.00302740821923442	-0.000955323096476363	-0.0150445389716324	-0.00182445302163913
9.3	0.00753229859927766	-0.0102049079539761	0.00285711057293376	-0.0013685242572657	0.00285644409300828	-0.00137356666520931	-0.0143402710200278	-0.0013283381871143
9.4	0.00510138224618016	-0.0116978967145262	0.00263494299036185	-0.00176564612800451	0.00264140129633302	-0.00175790442045853	-0.0137682224066747	-0.000406378721982742
9.5	0.00461915060862281	-0.0146323342393486	0.00237238427035922	-0.0021003934960577	0.00237988222902993	-0.00210162663313159	-0.0112680877471405	-0.0015593519978513
9.6	-0.0015252931241954	-0.01818840794893	0.00206238808899985	-0.00242612698865841	0.00206270714357786	-0.00242512739816028	-0.013881970321426	-0.00347764478362578
9.7	-0.00742906525302048	-0.0173377329091027	0.00169016792163397	-0.00269092935967253	0.00169587408489788	-0.00269826001595826	-0.0156469058714679	-0.00213018231565658
9.8	-0.012504998885483	-0.0151387445533509	0.00130098611112966	-0.00290949713737688	0.0013066540104651	-0.00290081180468461	-0.0166128595751477	-0.000545408178248146
9.9	-0.0168284086406603	-0.0107673342021704	0.000895422126519213	-0.0030578732843031	0.000887969053117456	-0.00305672914976008	-0.0172209647498643	0.00207829016229946
10	-0.0165801574314682	-0.00668114962474006	0.000458526338197443	-0.00317056656873333	0.000451047997256736	-0.00318334311190586	-0.0142596608303231	0.00364691522010591
10.1	-0.0194630494991042	-0.00548905807728859	-5.65725746597482E-06	-0.00320725419514649	-1.6126678782E-05	-0.00320184309514627	-0.0148621371312311	0.00222820984477435
10.2	-0.0222138478008291	-0.00108536694325525	-0.000462974208440349	-0.00317142953897753	-0.000466464260926141	-0.00316862480055688	-0.0156072457426834	0.00341582113349985
10.3	-0.0236290463155603	0.00420134513596455	-0.000906373527491794	-0.0030691859598211	-0.000898063490072529	-0.00307837601603155	-0.0156977303728923	0.00481485762454041
10.4	-0.0234711459574422	0.011026852518494	-0.00131956145943679	-0.00292004549672195	-0.0013177928539724	-0.00292636633660086	-0.0151121775138264	0.00704463669872269
10.5	-0.0182793420886376	0.0164213087452528	-0.00173710356470694	-0.00271018977113696	-0.00173393064142856	-0.00269690101707145	-0.0112287989087654	0.00767868856838724
10.6	-0.0156188934465697	0.0182497708853893	-0.00209179861359561	-0.00242483740314973	-0.00208957326288311	-0.00242873296740169	-0.0109340441289814	0.00578959036230616
10.7	-0.0124491414545474	0.0212917680234569	-0.00241318973308658	-0.00211723716631117	-0.00240962606910757	-0.00211185851993678	-0.0105745829045841	0.00570148654875412
10.8	-0.00898377892365981	0.0235610000180259	-0.00269110239313283	-0.00174778853501566	-0.00268581883802408	-0.00175689848836654	-0.0107132545052992	0.00530010361664339
10.9	-0.00515493908329717	0.0267883055302393	-0.00290639837809693	-0.00135681480130398	-0.0029116828809917	-0.00135604340857945	-0.011118820344661	0.00647455268122067
11	0.0029234167637872	0.0277857615532528	-0.00305305054403598	-0.000924759677308107	-0.00305800482686285	-0.000931570327032645	-0.00813701192538955	0.00642841915734576
11.1	0.00649055638072124	0.0251387493203362	-0.00316312469829373	-0.000501256046477525	-0.00315208396387161	-0.000498387413971061	-0.00953415828617942	0.00422242507881559
11.2	0.0100196760366524	0.0246068995646796	-0.00319514937281927	-5.18512258207418E-05	-0.00320244673357385	-5.67349365353676E-05	-0.0104641902529099	0.00499871539709675
11.3	0.0139212195747599	0.0236375273416684	-0.00316359906941523	0.000410293456003586	-0.00317539904811054	0.000400169916135233	-0.0106663873468668	0.0060717710525288
11.4	0.0179221877405517	0.0228914156961574	-0.00307752219198507	0.000846063399465625	-0.00307247938878153	0.000853696073832777	-0.0101990158890192	0.00778058938174483
11.5	0.0253600739075696	0.0195909299837885	-0.00293366986975304	0.0012559206966122	-0.00293644293113196	0.0012663527019888	-0.00643982756607464	0.00727118355421483
11.6	0.0274379702231449	0.0125175988768511	-0.00273940966162509	0.00166292151224046	-0.00273937029556245	0.00166591195768325	-0.00755642642389763	0.00460193107032959
11.7	0.0282795445572541	0.00817039262406965	-0.00246427525805083	0.00202629931862846	-0.0024647683220604	0.00203504917540783	-0.00842167365380009	0.0048289081465844
11.8	0.029069334154691	0.00430671059699414	-0.00215590101134825	0.00235981905038716	-0.00216005958346229	0.00236158458288133	-0.00860177271938781	0.00554214604229088
11.9	0.0306021256999758	0.00177534393520353	-0.00180043211563902	0.00263316959568464	-0.00181359868796512	0.00263765650202938	-0.00770523900511777	0.00761641329684804
12	0.0358525242293654	-0.00432437194134757	-0.00142066316550573	0.00286958747183444	-0.00142004123328774	0.00287101839537872	-0.00296647271791237	0.00681596338216819
