# GHZ S RI R 50
0.2	0.0062399305543062	0.00128055448560743	0.00304658024642983	-0.000898659326211831	0.00305694661882336	-0.00089185750762132	-0.0136533589039596	0.00498194899984725
0.3	0.00653121260236576	-0.000779224924114238	0.0029016737409878	-0.00132191977255351	0.00289443831441581	-0.00130898571852573	-0.0128853962108228	0.00507067970144304
0.4	0.00621934888219675	-0.00264404694492417	0.00266930853891131	-0.00169307765576593	0.00267456680144434	-0.00170163364439766	-0.0124498629168308	0.00538782973188341
0.5	0.00512361215665686	-0.00394755146208128	0.00241047869177993	-0.00204844711327876	0.00242199984511793	-0.0020606778466878	-0.0124040646899065	0.00609996462007738
0.6	0.004366230337198	-0.00476903952515355	0.00209830967726728	-0.00236267700096409	0.00209752154668151	-0.00236981913425133	-0.0117043037821363	0.00702689060964196
0.7	0.00318279268562812	-0.00560960244712985	0.00175104363543756	-0.00263972004801685	0.00174908980475125	-0.0026399178935779	-0.0111995217818772	0.00756318538662324
0.8	0.00187310494564929	-0.00605084028595814	0.00136594329078779	-0.00285611790128619	0.00135335860141263	-0.0028606569161799	-0.0107565722580365	0.00824900600836095
0.9	0.000537935410093587	-0.00623206653078208	0.000949862161303009	-0.00301874874522646	0.000950894205828982	-0.00302943259516954	-0.0101677102085746	0.00879918404123536
1	-0.00124165513268013	-0.00632148699752925	0.000526126280754422	-0.00312250580302794	0.000516276833012794	-0.00312324479271469	-0.0100489077997759	0.00905752906245045
1.1	-0.00281079505963155	-0.00543068903714959	7.04943615523419E-05	-0.00315084598131014	6.69886032047909E-05	-0.00316847115181205	-0.00988238411831463	0.0102332250439183
1.2	-0.00401638157668313	-0.0050089330614487	-0.000370554859906267	-0.00313964878484832	-0.000371365181908955	-0.00313757556533455	-0.00897934847918468	0.0110104837793887
1.3	-0.00549330483194015	-0.00471847263694346	-0.000796449164895238	-0.00305651241782385	-0.000799683786528963	-0.00305851459519893	-0.00765635446777479	0.0115704160614834
1.4	-0.0067591529945798	-0.00423353359982929	-0.00121682448267925	-0.00290894493899881	-0.00121561226870153	-0.00291446935950559	-0.00605660597977565	0.0114841585975555
1.5	-0.00756012991976481	-0.00289415378623905	-0.00161771377712135	-0.00271302555546487	-0.00161610472243889	-0.00272151273222731	-0.00497878085994328	0.0113837915726468
1.6	-0.00712200448766598	-0.00112868440947134	-0.00197647374952416	-0.00246044369059263	-0.00197668354541228	-0.00246566788280133	-0.00390534510216835	0.0116941485710683
1.7	-0.00643182170261462	0.00030892402144045	-0.00230373244006685	-0.00216483358541293	-0.00230469876518126	-0.00215858460273019	-0.00301417793822849	0.0118376619170001
1.8	-0.00547211241099705	0.00173607563553546	-0.00257432333912902	-0.00181459766045231	-0.00258526561265516	-0.00182022963014209	-0.00218220566878908	0.0119428639254837
1.9	-0.00427184786896043	0.00270426779005979	-0.00279957416795607	-0.00144463605176366	-0.00281199381619045	-0.00143850054232481	-0.0014874759474004	0.0118569002981951
2	-0.0032802206090431	0.00359329824027595	-0.00297387658263102	-0.00103764033501476	-0.00298347926981776	-0.00103294821053702	-0.00137282799870334	0.0120997946574704
2.1	-0.00151308331524323	0.00432273494759937	-0.00308728652866245	-0.000611876227959792	-0.0030832100505063	-0.000613859174655528	-0.000372363923603846	0.0127722498819322
2.2	0.000159833515331432	0.00425260845471406	-0.00314551429159286	-0.000174938982484675	-0.00315679159405133	-0.000177782431670885	0.000914184063876028	0.0127804783651696
2.3	0.0016403731007511	0.00374043313595286	-0.0031414312355914	0.00026746468645407	-0.00314112109863075	0.000260596110834758	0.00208629375426806	0.0124155158363229
2.4	0.00291811371408108	0.00284384740357522	-0.0030692203235374	0.000704589831067053	-0.00307175036459526	0.000700338472166992	0.00316899414928117	0.0117515051392413
2.5	0.0035328818544067	0.00165763566778354	-0.00293358690425104	0.00111449111263982	-0.00294446433436548	0.00112083700175558	0.00354969275476446	0.0108171943363566
2.6	0.00430427111476768	0.000843828471891433	-0.00276202644999995	0.00151764316147899	-0.0027584523225821	0.00150534806967934	0.00407067072810406	0.0106233795966644
2.7	0.00511111734212986	-0.000464641532436991	-0.00251706722050358	0.00188897033717064	-0.00252233848730899	0.00188897165782962	0.00475103902885192	0.010135704649966
2.8	0.00575069801430172	-0.00206413214713988	-0.00223530681875139	0.00221602505836181	-0.00222752531557712	0.00222581352446718	0.00534681607954641	0.00968645800901222
2.9	0.00609534670149051	-0.00402166641600516	-0.00190289344255056	0.0025157414805173	-0.00189918949321319	0.00251532368281904	0.00604816268955597	0.00919408639156712
3	0.00570243002627526	-0.00595209456645456	-0.00151892807546995	0.00275285966804705	-0.00153370788374767	0.00275891650040146	0.00643486406464253	0.00890719869069772
3.1	0.00539417824374274	-0.00773213987091267	-0.00112839476037085	0.00293092250346451	-0.0011237606033227	0.00293926610570237	0.00738554204616489	0.00887232573309103
3.2	0.00438402802552478	-0.00973149482218522	-0.000708984682170939	0.00306832195329927	-0.000710725790788251	0.00306770796921146	0.00814621740028479	0.00845180806285125
3.3	0.00286620646476924	-0.0115595823444369	-0.000271851918247495	0.003139251563438	-0.000270195303217694	0.00313551918437803	0.00897446603496221	0.00789717103032801
3.4	0.000823381664045449	-0.0130831618158383	0.000174274541394478	0.0031353172112174	0.000168029034471985	0.00315185578760418	0.0097654486463485	0.00691877409522544
3.5	-0.00187255022472693	-0.0140580866473533	0.000597443078368529	0.00309372574185471	0.000603036653209571	0.00309381351469248	0.0097562630209974	0.00580402795428939
3.6	-0.00429729744980578	-0.0142101009100841	0.00102511378611911	0.00297450684974913	0.00103330083956779	0.00297420904145787	0.0101161384023597	0.005384165461034
3.7	-0.0068416217178175	-0.0142110676593048	0.00143539909098411	0.00279538829688968	0.00142578134454933	0.00280903261679281	0.0106788399451285	0.00451004398645345
3.8	-0.00949599092424004	-0.0136262134190226	0.00181432314816987	0.00256996191888758	0.00181670262735929	0.00257911667754757	0.0110311729660158	0.00343676116643153
3.9	-0.0119691887906481	-0.0125525291746408	0.0021616521805236	0.00229765295216615	0.00215439083773183	0.00229585571158065	0.0110708097219327	0.00216857792122274
4	-0.0144779656039428	-0.010782679126339	0.00244610821545759	0.00197621451872394	0.00245056145881446	0.00197379193752621	0.0103922742197309	0.00133377616593013
4.1	-0.0159710020379613	-0.0083692702904669	0.00269880122330454	0.00161887947310742	0.00269754644720445	0.00161961147419287	0.0105395326606623	0.00134860563924434
4.2	-0.0171008455747137	-0.00609510395925639	0.00290038103182901	0.0012184659569696	0.00290487461481345	0.00120976002671228	0.0110459733903588	0.000808988857292427
4.3	-0.0179069565538171	-0.00371255621673101	0.0030452051988833	0.000806228472102791	0.00305165364805503	0.000798439463134936	0.0114905349161383	-9.71108758076792E-05
4.4	-0.0184263381326073	-0.00126959599458474	0.00312239548795469	0.000371792207401694	0.00312477734061807	0.000369541257993381	0.0116492152647368	-0.00131929280844522
4.5	-0.0189420446659304	0.00143928221126225	0.00314672010403113	-6.45318876426403E-05	0.00315209533988373	-6.7889035180772E-05	0.0110207301704551	-0.00242620044180693
4.6	-0.018506698351537	0.00455583920470707	0.00310621432586498	-0.000508737855231467	0.00310740323250298	-0.000495803054682784	0.0107875792251706	-0.00281564824917054
4.7	-0.0174821119724507	0.00724618021498298	0.00300222354465411	-0.000929421179151789	0.00301756014040677	-0.000939007728547026	0.0106590227349914	-0.00360201121743788
4.8	-0.0160891328170316	0.00974696964518943	0.00284207554697749	-0.00134483326922512	0.0028505841458614	-0.00135090754312289	0.0104187405419836	-0.00435767365708187
4.9	-0.0140693658510802	0.0118580469775974	0.00262269511728192	-0.00172988317143001	0.00262685946123688	-0.0017269609902471	0.0102117097515407	-0.00518021501052687
5	-0.0119401763175038	0.0136416184722303	0.00236531223820925	-0.00208821472430979	0.00236893505079047	-0.0020855335042688	0.00969679926798808	-0.00576438076445039
5.1	-0.0087314654811864	0.0150463071211511	0.00205294606296917	-0.00240180350828627	0.0020552491882251	-0.00240043746596091	0.0100292951644006	-0.00602608197845867
5.2	-0.00563109798234513	0.0153516631279078	0.00169470197037307	-0.00265289997222365	0.00169643003757782	-0.00265805065831366	0.0103363897503987	-0.00701424331491502
5.3	-0.00269490881540725	0.015153838744363	0.00130776259431436	-0.00287002007439757	0.00131089813153536	-0.00286794581246467	0.0102834895036288	-0.00809411094614603
5.4	2.97783872193884E-05	0.0144192747372176	0.000882210048245763	-0.00302010506398466	0.000899445548558679	-0.00303131022796287	0.009937907440984	-0.00945371372238672
5.5	0.00213095935758346	0.0136133223297848	0.000465094209001592	-0.00311979793196134	0.000475187442499425	-0.00312924193708055	0.00854792539577474	-0.0103837782799164
5.6	0.00478106049030516	0.0125399453524559	2.53650852503827E-05	-0.00315487599967784	1.68224950682136E-05	-0.00315811236743646	0.00795991444138609	-0.010375131467326
5.7	0.00675485879863654	0.010605457659736	-0.000406593605375792	-0.00312521541845354	-0.000423244668183965	-0.00312890553461754	0.00743370538634057	-0.0108408093766727
5.8	0.00813405145482035	0.00850648081339755	-0.000854490949471857	-0.00303107803877279	-0.000858022214474831	-0.0030451101722734	0.00681411677028276	-0.0114879809736394
5.9	0.00903140456713552	0.00621727040451597	-0.00126218950507862	-0.00289079935705859	-0.00127044429263686	-0.00289072170732765	0.00599363394861907	-0.0124490959693238
6	0.00885095804867566	0.00390127683374932	-0.0016611216837594	-0.00268205850401911	-0.00165755221392683	-0.00268222445110231	0.00384633380499144	-0.0133242410460641
6.1	0.0089168084333699	0.00227774524819821	-0.00201660649488247	-0.00242855216182805	-0.00201825289814222	-0.00242453859028564	0.00228100152152823	-0.0124808117959614
6.2	0.00873403961875859	9.32958892102191E-07	-0.00233171441168363	-0.00211467905418386	-0.00233543019735284	-0.00212658571871753	0.00159199103053643	-0.0120561047824481
6.3	0.00803775776493532	-0.00238560845277346	-0.00261107350113805	-0.00177832602161705	-0.00262022806511497	-0.00177256973618458	0.00117232384323245	-0.0120139575171559
6.4	0.00667473186543517	-0.00485932637751003	-0.00283736174915239	-0.00138527983751679	-0.00282761366356503	-0.00139019875264177	0.000777189145946013	-0.0124844244576821
6.5	0.00451343964653322	-0.00654192164682682	-0.00299360329260162	-0.000980737398838281	-0.00300148554425621	-0.000976245646798575	-0.000320650941108981	-0.0125799640305333
6.6	0.00284990123047877	-0.00774297751192981	-0.00310429164087872	-0.000553626571272514	-0.00310593121256271	-0.000557615767542461	-0.000257006426775581	-0.0123712275362909
6.7	0.000589876485649785	-0.00865003563138486	-0.00315465518932501	-0.000112854491553972	-0.00316353230420039	-0.000106549641018411	-0.000692907120274411	-0.0127988316103889
6.8	-0.00174393624281607	-0.0087556370270103	-0.00313204034460112	0.000330524440805573	-0.00314316128262069	0.000335597295655441	-0.00141822978396457	-0.012954295906319
6.9	-0.00401480311266497	-0.00847505889781921	-0.00305596482296123	0.000764546456345695	-0.00305895849553889	0.000766946109509709	-0.00219583964923123	-0.013279417234425
7	-0.00662659192355249	-0.00725428626814714	-0.00292059013113101	0.00118781062697407	-0.00293346771040931	0.00118561884196559	-0.00403483972253513	-0.0130887032367295
7.1	-0.0079580775747852	-0.00535071839875317	-0.00273982490849019	0.00157976894353848	-0.00273613281208826	0.00158845685783121	-0.00457999224149351	-0.0116845772197626
7.2	-0.00924247982815469	-0.00375841307027109	-0.00248091278559226	0.00194813702992843	-0.00248745799664911	0.00195023509104498	-0.0046207797587456	-0.0110543158380216
7.3	-0.0104426558285673	-0.00178601895554088	-0.00218398823496253	0.00226756023049537	-0.0021952248030874	0.00227265058488118	-0.00447395399435445	-0.0107638170462233
7.4	-0.0112774093001983	0.00031413558990765	-0.00184115784839378	0.00255206489166849	-0.00184803507099869	0.00256573232749965	-0.00429449377260598	-0.0113142448730259
7.5	-0.0123162564290894	0.00269406646916596	-0.00147104024402451	0.00279268700350872	-0.0014640025837944	0.00280008446851816	-0.00542625413443431	-0.0123919650506924
7.6	-0.0119001237051662	0.00584453683015005	-0.00106239194310061	0.00296825218878526	-0.00106378437032042	0.00296354825582994	-0.00620611158823695	-0.0121359502909062
7.7	-0.0108851976768879	0.00814746499220701	-0.000633029340085374	0.00308855767284436	-0.000634375782234749	0.00308749749677609	-0.00688483946971157	-0.0128339534897602
7.8	-0.00918193781162877	0.0100392204851985	-0.000205623656427588	0.00313689600621428	-0.000213428854657182	0.00314339352947117	-0.00802094613727754	-0.0132913903477234
7.9	-0.00703123030357091	0.0112858018132176	0.000238274090872464	0.00314232673075628	0.000246238916718837	0.00314379892755384	-0.00950738455249209	-0.0134642044058679
8	-0.00489957104524789	0.0125062986992621	0.000680550740369007	0.00306538543591941	0.000680651359229006	0.00307029082995406	-0.0117109540052546	-0.0125102717286394
8.1	-0.0015629088417688	0.013012689736879	0.00108979414123418	0.00294685122632386	0.00110897027818907	0.00294787400871596	-0.0120889245816171	-0.0108333912369239
8.2	0.00123442351939751	0.0125426364972273	0.00149535246298544	0.00276429489341515	0.00150458566283707	0.0027570560616006	-0.0123044824158824	-0.00991886058450601
8.3	0.00381878624450018	0.0116875319488195	0.00187197186984984	0.00252232897569007	0.00187038150191396	0.00253590127646008	-0.0124602044784733	-0.00920582707746477
8.4	0.00614126359277463	0.0102680502071526	0.00220601993102832	0.00224114520543896	0.00220298717493694	0.00224093347368634	-0.0127307935760277	-0.00905444856016053
8.5	0.00760141270138738	0.00875314568698201	0.00248860973099015	0.00191069677041523	0.00248772358334436	0.00191388429581731	-0.0143529346977901	-0.00851618965537954
8.6	0.00969760080726803	0.00718378754077689	0.00273546705465414	0.00154908956032488	0.00274494746660987	0.00154250710520785	-0.0147001776156517	-0.00670429332462038
8.7	0.0111374244485976	0.00455820865320778	0.00291919415985851	0.00114392032362267	0.00292475864784331	0.00114461987038365	-0.0145245439092074	-0.00578668555507095
8.8	0.0118116260056023	0.00177308730650549	0.00305269765142817	0.000731937544819179	0.00305842749337526	0.000723154830059739	-0.014444191611518	-0.00526734494227413
8.9	0.0119711398166613	-0.001268875790662	0.00312718628680338	0.000298869788462843	0.00312630705141595	0.000296627318990909	-0.0142857083356641	-0.00514242597276817
9	0.0110719162680896	-0.00419758657745323	0.003137186964388	-0.000144392436796378	0.00314036014616501	-0.000140303616850803	-0.0151451659549403	-0.00493361822761854
9.1	0.0103523869474436	-0.00679510799825694	0.00308708574685115	-0.000587397902338472	0.00309002809293528	-0.00057452240308855	-0.0151386173326178	-0.00372391154907891
9.2	0.00879475253002518	-0.00969014326765709	0.00297428198250658	-0.00100314006149529	0.00298191727540508	-0.00100604706214435	-0.0149543054871643	-0.00317802345002717
9.3	0.00654508257269893	-0.0121131428003501	0.00280400773624353	-0.00140611928978142	0.00280325743374472	-0.00141109935822355	-0.0148275577974657	-0.00258745021171471
9.4	0.00376222803531099	-0.0141756686747604	0.00258116580540426	-0.00179508693481304	0.00258769927988312	-0.00178752501946442	-0.0147714432253413	-0.00229941724584837
9.5	0.000129334377354419	-0.0150108538476483	0.00230263122889357	-0.00212936574151167	0.00231002461601159	-0.00213074677414331	-0.015502615620593	-0.00133821073430227
9.6	-0.00290317610407106	-0.0152546146114643	0.00198377837867463	-0.00242808017234451	0.00198411167983852	-0.00242710222861492	-0.015001141060765	0.000116134419729837
9.7	-0.00653567316840627	-0.0151141589833447	0.00161739281274631	-0.00267562472044616	0.00162288280542178	-0.00268293223054956	-0.0144459486084368	0.000777838590865568
9.8	-0.0102920209404461	-0.0139650571485466	0.00123291014850109	-0.00288248698506578	0.00123862408782132	-0.00287403548644611	-0.0140147622495953	0.00127278983250878
9.9	-0.0138122510365926	-0.0118999091677173	0.000827097833332403	-0.0030196631165356	0.000819795138046531	-0.00301841078342296	-0.0138166455908911	0.00137122737407089
10	-0.0172795861240199	-0.0087168224555383	0.000398080068727031	-0.00310338064396935	0.00039057690784477	-0.00311574028265088	-0.014786528558445	0.00184959264054918
10.1	-0.0190384382230881	-0.00467808433245889	-3.95680505485879E-05	-0.00313360890783242	-4.97398358033479E-05	-0.00312821083888126	-0.0144818384952225	0.00343609109265617
10.2	-0.0201779030997676	-0.000850127047235337	-0.000483616284600939	-0.00309604848490209	-0.00048700095771218	-0.003093272312625	-0.0136212803800123	0.00416709564776261
10.3	-0.0206259148107639	0.0032530147854851	-0.000913825847963103	-0.00298887149308794	-0.000905796190479403	-0.00299792404134425	-0.0127271149329603	0.00442711519479016
10.4	-0.0202695689460701	0.00728882875553841	-0.00130733449533731	-0.00283221517353316	-0.00130566221122301	-0.00283838201426481	-0.0119712433553009	0.00385181816907471
10.5	-0.0196039589144495	0.011659747653049	-0.00169266317373289	-0.0026355868784257	-0.00168956405987311	-0.00262265920153189	-0.0126573963461884	0.00352795131820869
10.6	-0.0170913178130973	0.016023529664401	-0.00204451569013895	-0.00236826119986055	-0.0020423429724305	-0.00237206788419098	-0.0126360871815367	0.00436638562103842
10.7	-0.0140414213036877	0.0196838765022287	-0.00235752195894021	-0.00206704840920304	-0.00235403979095618	-0.00206179645256899	-0.012451642029221	0.00495698159448623
10.8	-0.010112955107128	0.0228365137542795	-0.00262367704851433	-0.00170893153768285	-0.0026185097008349	-0.00171781405829548	-0.0120283941619984	0.0056297881083802
10.9	-0.00557625498500266	0.0250314759713612	-0.0028293030745766	-0.00133872991324597	-0.00283446378166561	-0.00133800389251018	-0.0115200068849042	0.00576428291139972
11	-0.000943398870870013	0.0267074389710239	-0.0029904531236753	-0.000925877002394231	-0.002995273842314	-0.000932590281262019	-0.0120537622799474	0.00635282693662267
11.1	0.00491280042074113	0.027361018322932	-0.00309748535985508	-0.000501186402292554	-0.00308667730114336	-0.000498340669091783	-0.0110843972953856	0.00778303377350634
11.2	0.0104440603599941	0.0263529965557119	-0.00312559148168733	-6.69780325302872E-05	-0.00313270574256254	-7.17929454106028E-05	-0.00965374812104639	0.00820841131882168
11.3	0.0156097803326332	0.0243649847513794	-0.00309957790285836	0.000377680982153097	-0.00311105101932737	0.00036768305995805	-0.00808154095738022	0.00811239803118352
11.4	0.0202586790435576	0.0213750926741275	-0.00302866479340904	0.000802769408341302	-0.00302378341227648	0.000810307473130665	-0.00680721324736137	0.00725398128115946
11.5	0.0239279112253682	0.0178670339914405	-0.00288562193742454	0.00121857842225168	-0.00288839425020976	0.00122880459382177	-0.00697699651357732	0.00654114244548137
11.6	0.0277877425075728	0.0136565421231399	-0.0026917762644758	0.00160426862738075	-0.00269176149403795	0.00160719298678147	-0.00599674589153991	0.00654053551786048
11.7	0.0304985543531719	0.00833633341037928	-0.00243434184125722	0.00195638408293943	-0.00243492043614887	0.00196494333732803	-0.0049010384853882	0.00545761446537686
11.8	0.0321447560372569	0.00266131493526144	-0.00214275441994754	0.00228778124398308	-0.00214685373749525	0.00228946191393124	-0.00425048910912967	0.00395224606535322
11.9	0.0327951983407733	-0.00339271833595983	-0.00179557211516075	0.002564316674062	-0.00180854178306564	0.0025685759231021	-0.00436687334770485	0.00219718049830213
12	0.0316426524282466	-0.00897678998698796	-0.00142438852023979	0.00278406134068126	-0.00142379960382648	0.00278546676922091	-0.00628127434270588	0.00156485228538897
