# GHZ S RI R 50
0.2	0.00568556652216712	0.000605258797690316	0.00305256004066709	-0.000896598057057325	0.00306293537166582	-0.000889773231655896	-0.0143479894824619	0.00419245807393253
0.3	0.00604411658268989	-0.00110147692595935	0.00290967632183207	-0.00132045619607659	0.00290240688688409	-0.0013075056137017	-0.0135109028964273	0.00463546133347264
0.4	0.00581568578799436	-0.00240444627217531	0.00267943453984337	-0.00169345829733634	0.00268472117666804	-0.00170202949574344	-0.0129562580850622	0.0055357356395452
0.5	0.00574924378825699	-0.00389441918811307	0.00242069780311994	-0.00205285493296978	0.00243227031339194	-0.00206511494207579	-0.0117039730343061	0.00603617245067591
0.6	0.0042070968860864	-0.00554204734826515	0.00210716631034441	-0.00236800190141729	0.00210638269531735	-0.00237516709600152	-0.0117105927183285	0.00586638994832733
0.7	0.00250346740935637	-0.00595334159654997	0.00176013014022532	-0.00264698675976576	0.00175816969843056	-0.00264718749005549	-0.0118469044576587	0.00663615543631738
0.8	0.000991652405301736	-0.00603876109780359	0.00137409377912635	-0.0028661753535475	0.00136146336594999	-0.00287074439739241	-0.0117868432224082	0.00758590347380358
0.9	-0.000670089300656494	-0.00557785038022893	0.000955202037097892	-0.00303143159142011	0.000956242894418661	-0.00304216127546331	-0.0117586555499764	0.00884651233677702
1	-0.00132510289218118	-0.00445984852173355	0.000528197938990255	-0.00313418574116741	0.000518311619035602	-0.00313492781706064	-0.0105405929264784	0.010667320572921
1.1	-0.00218738529955898	-0.00486854759793328	7.278049109769E-05	-0.00316370854737806	6.92715443658425E-05	-0.00318140814073374	-0.0093376467711369	0.0106559980184394
1.2	-0.00395052026637947	-0.00462529850043323	-0.000371304917479536	-0.00315438684962249	-0.000372119657957181	-0.00315230422596703	-0.00874221995425173	0.0111685455383516
1.3	-0.00569171981365704	-0.00427194759773756	-0.00080079799434778	-0.00307118483745595	-0.000804048601540527	-0.00307319618919385	-0.0074705662392665	0.0115925862462686
1.4	-0.00720253385330038	-0.00342889405095035	-0.00122391656918448	-0.00292172838828344	-0.00122270158922988	-0.00292727888436139	-0.00609473381071021	0.0115746643901478
1.5	-0.00723080747662817	-0.00230790279212142	-0.00162471078974413	-0.00272602849708393	-0.00162309247505451	-0.00273455497928922	-0.00422725108827795	0.0109611796855529
1.6	-0.00765110849776987	-0.00092275640383136	-0.00198883904214677	-0.00247423197800123	-0.00198905173103196	-0.00247948671606172	-0.00428556303843276	0.0104950058942154
1.7	-0.00697079260011645	0.0010463717861971	-0.0023198696191066	-0.00217505422470879	-0.00232083455699582	-0.0021687670598301	-0.00380921451983496	0.0111509528780029
1.8	-0.00583176872247834	0.00267691553740745	-0.00259208850120703	-0.00182113458305379	-0.00260310305380989	-0.00182678225556181	-0.00303331054126922	0.0116439008396381
1.9	-0.00437479365373622	0.00404649604751511	-0.00281800228054603	-0.00144884227346442	-0.00283048491561621	-0.00144265253470916	-0.00212516423139587	0.0122749704238825
2	-0.0020902884987453	0.00455893995179805	-0.00299673916183229	-0.00103960555766212	-0.00300640117833474	-0.00103486300572551	-0.000310805418018252	0.0123686556463381
2.1	-0.00109587652264584	0.00404307389555001	-0.00311063893277047	-0.000605375401803338	-0.0031065413002791	-0.00060738612385738	0.000185554581568267	0.0113987091263033
2.2	-0.000112731000058482	0.00422186880666818	-0.00316615948667223	-0.00016372078256011	-0.00317751949247661	-0.000166538075197927	0.000599767930188894	0.0113616721966477
2.3	0.00106241278834174	0.00404287933868077	-0.00315991810468705	0.000282292005188229	-0.00315963480109893	0.000275379260566135	0.00114905172078797	0.0112743530282023
2.4	0.00212355276933827	0.00379370011857386	-0.00308627559311037	0.000723533112958055	-0.00308884216875335	0.000719265358046425	0.00167355357274675	0.0115385599200776
2.5	0.00391136506249467	0.00323846574190432	-0.00294542536210294	0.00114082960241415	-0.00295633228696093	0.00114728755540652	0.00341316989796599	0.0118756715408004
2.6	0.00487089854557011	0.00122882692915415	-0.00276550891481288	0.00154368991627152	-0.00276199961681798	0.0015313099957473	0.00473783785905455	0.0105243568045499
2.7	0.00516455200693754	-0.000308626348813491	-0.00251644686582949	0.00191466449852115	-0.00252174312546132	0.00191470087163749	0.00522466056018673	0.00954921990357733
2.8	0.00534052057605405	-0.00181087747324879	-0.00222999463389501	0.00224229069115225	-0.00222210710324118	0.00225206957250805	0.00547134164009955	0.00890302831798799
2.9	0.00547672588957335	-0.00319086991031542	-0.00189061760307373	0.00254216088843236	-0.00188690101527854	0.00254171106974379	0.00597672246011258	0.0088582733555495
3	0.00590541936538597	-0.00508787713496034	-0.00149876682610481	0.00277259375647917	-0.00151352969965248	0.00277879290732646	0.00752321663688744	0.00845693116732127
3.1	0.00494509432561083	-0.00738978104354864	-0.00110866799626306	0.00294609890365681	-0.00110396000516091	0.00295442609295578	0.00791963630953119	0.00720837788295385
3.2	0.0036562993714818	-0.00893581330591195	-0.000686004524657783	0.00308107684556327	-0.000687754568976748	0.00308047541390938	0.00810249460240333	0.00683365224875466
3.3	0.00211407629185647	-0.0103925052691586	-0.000245392233499549	0.00314706034427914	-0.000243764751335171	0.0031433072408463	0.00853444088821753	0.00644568334196154
3.4	0.000192262317716702	-0.0113164270483835	0.000202033380092923	0.00313541526285521	0.000195930560615423	0.00315201758285408	0.00909373542135185	0.00613031060043558
3.5	-0.00129493943400577	-0.0122721469263068	0.000620121007563127	0.0030890879509767	0.000625714776848398	0.00308913462721453	0.0103951371317268	0.0052135561461985
3.6	-0.00415508592215431	-0.0133536969179563	0.00104932762061458	0.00296919467361324	0.00105751980439244	0.00296883251893908	0.0103367369886706	0.00345003980901628
3.7	-0.00707661680026565	-0.0130149553858926	0.00145970462270524	0.00278391463096141	0.00145020077310188	0.0027976450575031	0.0100104093540043	0.00270353441201582
3.8	-0.00968549361394823	-0.0120644610220769	0.00183549947278733	0.0025528979933336	0.00183795662837981	0.00256202719727879	0.00986033247955573	0.00223340844590177
3.9	-0.0118217371515688	-0.010497041988987	0.0021776818056905	0.002277804777198	0.00217041405563689	0.00227606769290334	0.00997138710708896	0.00214472638704735
4	-0.0129460229963056	-0.00910381729360041	0.00246228659798208	0.00195657750320199	0.0024667205868237	0.00195411870496237	0.0113322955153931	0.00161621733659508
4.1	-0.0150491791492112	-0.00806420595115072	0.00271200634971282	0.00159101689865838	0.00271075991059326	0.00159176043482285	0.0115126290631294	-0.000159692062651422
4.2	-0.0169285402364554	-0.00577574397696285	0.00290562868800431	0.001187804322205	0.00291002836490176	0.0011790745864788	0.0112495201802389	-0.00107490182506449
4.3	-0.0181856788269754	-0.0031520594528126	0.00304397231357446	0.000775784743872967	0.0030503303852592	0.000767958349268904	0.0110592304309232	-0.00183974356996409
4.4	-0.0189551785749348	-5.43615314583733E-05	0.00311730144610991	0.000342284041577311	0.00311965628040623	0.000340017471969675	0.010865839319567	-0.00216545838525026
4.5	-0.0183489405787555	0.00289623014542459	0.0031354824219054	-9.85589088989543E-05	0.00314080312814483	-0.000101963310589295	0.0119134713294186	-0.00271457936463422
4.6	-0.0184068981963535	0.00496018187812453	0.00308319877018018	-0.0005376804339589	0.00308451352484982	-0.000524831940406252	0.0117586909832335	-0.00472747345080145
4.7	-0.0179908279452713	0.00792639929500305	0.00297464675965657	-0.000951589933426456	0.00298979732128292	-0.000961259265195581	0.0109842038498626	-0.00585101735974996
4.8	-0.0168303842711331	0.0108193687559864	0.0028111140239485	-0.00136163922687133	0.00281951140858517	-0.00136775026655201	0.0102184211610608	-0.00662165868376516
4.9	-0.0148186808749389	0.0136212468010092	0.00258728580156178	-0.00174224403617057	0.00259144771827849	-0.00173938253540092	0.00958731483807525	-0.00681334915352529
5	-0.0115349411756206	0.0153698476110747	0.00232314595126131	-0.00208909739906303	0.0023267574168072	-0.00208647534663483	0.0103229352037087	-0.0072873778427642
5.1	-0.00908222667710653	0.0161016731357086	0.00201616574072475	-0.0023919379874836	0.00201845529633263	-0.00239060122675967	0.00978177247878793	-0.00881379114925985
5.2	-0.00622631718055388	0.0170231244666538	0.00166101256631113	-0.00263777089553869	0.00166269055227506	-0.00264288216048255	0.00911425096977886	-0.00926387523766969
5.3	-0.00305484216735049	0.0172209127185725	0.00127635749697613	-0.0028483290632028	0.00127947334471265	-0.00284629581683811	0.00880240452286782	-0.00946535817672283
5.4	9.30713157840104E-05	0.0169611903697379	0.00085506661702929	-0.00298961210344408	0.000872037746099909	-0.00300078181203145	0.00888888157891158	-0.0095666490064199
5.5	0.00371268315666921	0.0154632272133806	0.000450631577648712	-0.0030834583324005	0.000460576191292011	-0.00309281696696618	0.0100725734361735	-0.0108073522088315
5.6	0.0051681663546278	0.0131802701560194	1.66089514272157E-05	-0.00312147391784405	8.14828393582835E-06	-0.00312465296999371	0.00868904738011396	-0.0130641692240416
5.7	0.00656919632498808	0.0117956013443398	-0.000410609559506047	-0.00308960840585897	-0.000427086845986106	-0.00309321247339156	0.00693092747580295	-0.0135189456464632
5.8	0.0079700692108023	0.0100389911553279	-0.000850538505731104	-0.00299392522804626	-0.000854056438279073	-0.00300778621162974	0.00551627213648278	-0.0136835100314485
5.9	0.00894475380691781	0.00828199124325307	-0.00124820354643692	-0.00285581965906595	-0.00125635976678151	-0.00285573984963544	0.00409778283624155	-0.0131711910211041
6	0.0106078264470519	0.00598955872575091	-0.00164384032574307	-0.00265571592010525	-0.00164030644710827	-0.00265587928116407	0.00445669896932307	-0.0124391377427092
6.1	0.0101163594673494	0.00207267760029849	-0.00199692846344299	-0.00240068254463139	-0.00199855373885713	-0.00239671082789179	0.00387943019648687	-0.0138043239546382
6.2	0.00843951810502075	-0.000346053558949504	-0.00230429702104603	-0.0020904354232851	-0.00230796786581029	-0.0021022042067404	0.00253152886799365	-0.0141210330241365
6.3	0.00678717265561824	-0.00203621458555899	-0.00257838109127857	-0.00176123692473972	-0.00258743727429366	-0.00175555980044736	0.0014536170173162	-0.0141245046251934
6.4	0.0053560054292637	-0.00313708365703179	-0.00280431472123339	-0.00137665015555667	-0.00279465950074254	-0.00138149608822755	0.000914315442316638	-0.0136218233458794
6.5	0.00464190111181466	-0.00506535832862559	-0.00296107739977078	-0.000972269906577819	-0.00296887867954898	-0.00096783119013958	0.00182880420589723	-0.0144409453200379
6.6	0.00186387312564774	-0.00654426626851006	-0.00306442269299631	-0.000553151199332377	-0.00306603354947079	-0.000557094031694045	0.000394170220817587	-0.0159064406915713
6.7	-0.000354309460552067	-0.0066720043680136	-0.00311597081335973	-0.000122878948703744	-0.00312476298968104	-0.000116682659400317	-0.00104464840979431	-0.0159612476618156
6.8	-0.00254306035857228	-0.00646304066194975	-0.00309745178040307	0.000313251447677722	-0.00310846667775798	0.000318218139839075	-0.00240658175674948	-0.0156315844721968
6.9	-0.0045687300263401	-0.00532881051754992	-0.00302459618008175	0.00074365053872873	-0.00302756575618458	0.000746011118543587	-0.00336231837922375	-0.0144192882623326
7	-0.00512235232060147	-0.00462217607450731	-0.00288719101730675	0.00115771026364396	-0.00289988528094344	0.00115548537863274	-0.00218156594504009	-0.0141940190444435
7.1	-0.00777003755308176	-0.00421473403867351	-0.00271767607100074	0.00153910022476674	-0.00271409648037957	0.00154770783920423	-0.00362651326852015	-0.0156210977173466
7.2	-0.0097249064587208	-0.00190455206031846	-0.00246879343389174	0.00190552441896627	-0.00247528157243911	0.00190754462528437	-0.00534434367618596	-0.0151411783114649
7.3	-0.0108909526636076	0.000635005915551566	-0.00217942465867514	0.00222374185460426	-0.00219058111866516	0.00222867930129107	-0.00660415411897083	-0.0143392679013026
7.4	-0.0115172247449353	0.00366816394886315	-0.00184390473453548	0.00250504859050082	-0.00185083128800931	0.00251849242017895	-0.00784151043943302	-0.0128211396268793
7.5	-0.0101237132446393	0.00634688020327135	-0.00149049424586136	0.00274396164301246	-0.00148362604869959	0.00275136832977051	-0.00648725999418851	-0.0112611144849907
7.6	-0.00991134633965181	0.0071700670072124	-0.00109138689669125	0.00293081756689699	-0.00109270851887844	0.00292613401425406	-0.00625737607053084	-0.0126641134666956
7.7	-0.00965700557955756	0.00915255707697109	-0.000666813867898035	0.0030572315459571	-0.000668136856704455	0.00305616258767977	-0.00717646039248591	-0.0132241028454926
7.8	-0.00856657323532984	0.0111075194496069	-0.000245437094469599	0.00311133209178206	-0.000253270992479701	0.00311767948173043	-0.00807142341998446	-0.013268750398637
7.9	-0.00657667426276868	0.0129835416270101	0.000190162021181526	0.00312562308349734	0.00019805373441733	0.00312720385980852	-0.00841293260048313	-0.0126899719910391
8	-0.00337360447242852	0.0130880354480718	0.000632259312950682	0.00306636218232998	0.000632285647813607	0.00307125423261508	-0.00751655863493157	-0.0136369400871768
8.1	-0.00209297342941497	0.0130940912762835	0.00104691938772457	0.00295296573236214	0.00106602598044197	0.00295424391855738	-0.00964714543089602	-0.0149328225241633
8.2	2.71342699621642E-06	0.0135812261242622	0.00145237226241687	0.00277767919360328	0.00146168170834962	0.0027705901189102	-0.0114396428628226	-0.0143484644695047
8.3	0.00227552074591531	0.013441123714051	0.00183152569898388	0.00254581332685447	0.0018297371756125	0.00255933942865623	-0.0128471095793518	-0.0133940878234649
8.4	0.00457465724512939	0.0132911143569514	0.00217376236015877	0.00227515758397181	0.00217073120480805	0.00227490056306395	-0.0138711375537637	-0.0116644262233323
8.5	0.00805028940524171	0.0117972201328073	0.00246821975573459	0.00194355384742459	0.00246729343218027	0.00194673440267211	-0.0127253725270932	-0.0106293507804047
8.6	0.0090497210356258	0.0090762014065679	0.00271500838403584	0.00158484353476761	0.00272457449568482	0.00157838569249447	-0.0137706576392535	-0.0115459365678725
8.7	0.0099966123578275	0.00740303229182175	0.00290635246224792	0.00118587096225239	0.00291191313417345	0.00118664889220944	-0.0153349837566701	-0.0108369066686276
8.8	0.0109720257575145	0.00536001217713663	0.0030501078277552	0.000775950561025599	0.00305597323611958	0.000767225404282313	-0.0167290457850973	-0.00970199714582881
8.9	0.0117251490415468	0.00316454879691672	0.00313385277343437	0.000339027856559106	0.00313299869487581	0.000336766911639899	-0.0176576739789871	-0.00749605398781136
9	0.0130141960270887	-3.55906408975595E-05	0.00314362676704418	-0.000104755808902245	0.00314675267118014	-0.00010062068035455	-0.0160742895159608	-0.00553435896744119
9.1	0.0118837153118346	-0.00426190415533639	0.00310592034738957	-0.000543915418882488	0.00310868296425045	-0.000530954119434914	-0.0157489991175167	-0.00560370183550996
9.2	0.00998159068306297	-0.00733917058859231	0.00300358976325269	-0.000965996377476876	0.00301130500323281	-0.000968809707464536	-0.0155682617727256	-0.0047875998834754
9.3	0.00746606030967718	-0.00999936133689369	0.0028391145710316	-0.00137677979640599	0.00283842653015061	-0.00138179884499302	-0.0150601156112307	-0.00405911644548964
9.4	0.00446960052591065	-0.0116468408581078	0.0026185112923855	-0.00177076838983786	0.00262498032189115	-0.00176308032829467	-0.0143596553596644	-0.00307178734748115
9.5	0.00179567198831868	-0.0134926313625401	0.00235123828901916	-0.00210730028034804	0.00235870215183133	-0.00210857444322405	-0.0124579936528573	-0.00354304030546479
9.6	-0.00314759049185273	-0.0143411955101559	0.00203798757900783	-0.00242324965595133	0.00203831008235599	-0.0024222573932997	-0.0135360591313946	-0.0047627417927909
9.7	-0.00730597428437298	-0.0131500809557677	0.00166913170307321	-0.00268235093009403	0.00167477416059874	-0.00268966281280499	-0.0145828120413102	-0.00418134591901911
9.8	-0.0109168422139241	-0.0113500709326431	0.00128271424969362	-0.00289805051282625	0.00128838302364014	-0.00288943533675654	-0.0153289454711377	-0.00318652756405938
9.9	-0.0139951587889246	-0.00859056915402982	0.000877220801826478	-0.00304450570767293	0.000869814624708694	-0.00304333594428866	-0.0157820405097484	-0.00137501853311561
10	-0.0155734318375767	-0.00616318235616337	0.000442071767009601	-0.00314734682466674	0.00043460087527917	-0.0031599920646041	-0.014054335952284	-0.000275568504283983
10.1	-0.0186872958469422	-0.00377369715440468	-1.18193840054285E-05	-0.00318293027969077	-2.21989711237035E-05	-0.00317753994457674	-0.0143459954397283	-0.00104406823983525
10.2	-0.0209176855010683	0.00044813506466269	-0.000465335103907294	-0.00314835934180996	-0.00046879570911562	-0.00314556810958839	-0.0150701698276679	-0.000310720221762708
10.3	-0.0219300588465308	0.00524396277818392	-0.000905714030271147	-0.0030451641694374	-0.000897482022862216	-0.00305430355475239	-0.0154282186355673	0.00097920866214846
10.4	-0.0215201891489193	0.0105133842829029	-0.00131332245257089	-0.0028927453811059	-0.00131157995708071	-0.00289901514640064	-0.0148994568499072	0.00292987224786589
10.5	-0.0190285964529585	0.0146543804495079	-0.00171829857814133	-0.00268729514890785	-0.00171516901130771	-0.00267412442669988	-0.0121450754173029	0.00363487123885709
10.6	-0.0175511309437218	0.0180520413471424	-0.00207303617355528	-0.00241017767119278	-0.00207082141924065	-0.00241404160631603	-0.0114539912922205	0.00251901167461049
10.7	-0.0149914481748041	0.0220877561947231	-0.00239280134442167	-0.00210498330223733	-0.0023892707598378	-0.00209963917175599	-0.0111562653941421	0.00232247299809737
10.8	-0.0115033559690265	0.025696475263654	-0.00266752463483066	-0.00173940865575537	-0.00266226464571167	-0.00174843994029063	-0.0111939037907213	0.0022822101418515
10.9	-0.0069482374279689	0.0290424153470897	-0.00287964216957927	-0.0013559643978016	-0.00288488867266634	-0.00135521629978019	-0.0110644199702636	0.00320359411545733
11	-0.000611230405841723	0.0304608331616426	-0.00303375850189759	-0.000932004624632039	-0.00303866062861991	-0.000938799792794368	-0.00897180267274685	0.0032203862213717
11.1	0.00403895053214989	0.0306206285548583	-0.00314442244217551	-0.000505926749285809	-0.00313344962064134	-0.000503048012095249	-0.00929607026919257	0.00178260806368499
11.2	0.0095363138064556	0.0307010007959047	-0.00317533374737908	-6.09648423395258E-05	-0.00318257178300292	-6.58400429135563E-05	-0.00973047466812635	0.0018747185602384
11.3	0.0154007244376284	0.0294930068475804	-0.00314632408610771	0.00039560210131176	-0.00315801452328432	0.000385493250473056	-0.009944870590391	0.00240705480085712
11.4	0.0209692315494207	0.0271729879950988	-0.00306701124411544	0.000828190551963059	-0.00306202648820823	0.000835810485783817	-0.00961614620135431	0.00353419222185971
11.5	0.0268378490315061	0.0227082075876311	-0.00292407325914088	0.00124349764740959	-0.00292685939288654	0.00125387818839588	-0.00726146737977298	0.00324174547283715
11.6	0.0299184163604389	0.0169828246146873	-0.00272846811898021	0.00164356445450617	-0.00272843913399158	0.00164653693220142	-0.00753849591351217	0.00154510927282569
11.7	0.0324313410456877	0.0116837713110149	-0.00245974989216839	0.00200366910802272	-0.00246028025151336	0.0020123677019368	-0.00799305046818793	0.00137618598772412
11.8	0.0341782999531539	0.00587462275924164	-0.00215737261350489	0.00233791341615507	-0.0021615201969843	0.00233964992743964	-0.00807166982464971	0.00177370557899975
11.9	0.0354275757509237	-3.3294064109525E-05	-0.00180404551968581	0.00261471457602027	-0.00181717647603148	0.00261912761451231	-0.00709178946669953	0.00314725917269075
12	0.0359240803066023	-0.0075096601408128	-0.00142473894245008	0.002845483323278	-0.00142412726630109	0.0028469081881099	-0.00403690476722008	0.00251625740277327
