# GHZ S RI R 50
0.2	0.00594660001319215	0.00162958219008589	0.00304643653997335	-0.00089843608529715	0.0030568018849542	-0.000891634131001022	-0.0140573932400618	0.00522403485625442
0.3	0.00618990860847973	-0.000453100041746189	0.00290171047800319	-0.0013217062808838	0.0028944743265753	-0.00130877292567832	-0.0133228997911362	0.00529043333632962
0.4	0.00594393591921904	-0.0022383804184119	0.00266945758415916	-0.00169304899328806	0.00267471631214919	-0.00170160510797684	-0.0127670265528371	0.00570230977685151
0.5	0.00485055459650816	-0.00366125945815738	0.0024103313966034	-0.00204846321474933	0.00242185176292745	-0.00206069394658285	-0.0125209577388389	0.00624256961452183
0.6	0.00398450719388402	-0.00420565713550684	0.00209843187822878	-0.0023625028211997	0.00209764422786641	-0.00236964489516673	-0.0118552876752462	0.00714747715919542
0.7	0.00304370758921855	-0.00488898497547909	0.00175122089500533	-0.00263979123522851	0.00174926697411832	-0.00263998915744204	-0.0112352897419653	0.00762181912008861
0.8	0.00194792076859313	-0.00531478563819202	0.0013659841743642	-0.00285631147666637	0.00135339865392262	-0.00286085058182843	-0.0107743585304084	0.00820862497027607
0.9	0.000851111494603079	-0.00550761334654323	0.000949709663778947	-0.00301886982260281	0.000950741117354191	-0.00302955396720502	-0.0102114212063156	0.00880360709424386
1	-0.000683604811693644	-0.00592886262709834	0.000526253259348146	-0.00312246670855305	0.000516403896755392	-0.00312320610386172	-0.00989330837755532	0.00911353321761711
1.1	-0.00260187568708872	-0.00506391445652755	7.04270454171419E-05	-0.00315123673418436	6.69204290157259E-05	-0.00316886399642463	-0.00970809345618322	0.0103813517878269
1.2	-0.00377688682402344	-0.00428777179156071	-0.000370904632003824	-0.00313985674047647	-0.000371714805597665	-0.00313778327588849	-0.00852032934171431	0.0114141306683661
1.3	-0.00516907967882871	-0.00365929395150151	-0.00079680370783922	-0.00305651527708127	-0.000800038640845529	-0.00305851716229694	-0.00689760870155281	0.0120841571208031
1.4	-0.00628628487705846	-0.00285534063971881	-0.00121702309393836	-0.00290889927999263	-0.00121581121852683	-0.00291442383822082	-0.00514707025946024	0.0119916996645588
1.5	-0.00708906241791373	-0.00159721389815518	-0.00161821666091566	-0.0027132998364599	-0.00161660813806556	-0.00272178848672169	-0.00405126783580008	0.0115131698986203
1.6	-0.00653231219218642	0.000276795357804013	-0.00197721674624762	-0.00246002072082951	-0.00197742794837712	-0.00246524508137035	-0.00317385128310392	0.0114757873721205
1.7	-0.00562174545181812	0.00138958078835982	-0.00230406472207169	-0.00216421135725499	-0.00230502964472332	-0.00215796253009347	-0.00251325851688474	0.0112939226883674
1.8	-0.00465842602264192	0.00245159650070203	-0.00257444061600873	-0.00181407796651453	-0.00258538306260109	-0.00181970786177735	-0.0019327062111347	0.0112500071189492
1.9	-0.00352601756032002	0.00305396161980652	-0.00279980328155477	-0.00144425245912687	-0.00281222217036856	-0.00143811513771283	-0.00134981903041177	0.0111456393340552
2	-0.00301668812492893	0.00351934729427567	-0.00297415078736606	-0.00103662766887565	-0.0029837516877171	-0.00103193246534508	-0.0012829175662479	0.0112054804899267
2.1	-0.00171315795992513	0.00465924087318491	-0.00308677828593138	-0.000611138015200564	-0.00308270303331145	-0.000613121367362209	-0.000463198197211135	0.0118684302846562
2.2	5.94622075229348E-05	0.00488367338431422	-0.00314511521476817	-0.000174547194759058	-0.00315639134602599	-0.000177388943724473	0.000728179729099532	0.0118581833674705
2.3	0.00174029377413853	0.00448926270086315	-0.00314113609333391	0.000267871210580603	-0.00314082691887999	0.000261003158172625	0.00175836166951322	0.011548760284963
2.4	0.00333549061310098	0.00349613650743513	-0.00306875915524253	0.000705208740457982	-0.00307128990009672	0.000700958368967756	0.00278601656288793	0.0110923654446192
2.5	0.00391862912913737	0.00169891653870977	-0.0029324768188161	0.00111453121836107	-0.00294334982828956	0.00112087653439477	0.00331853496140887	0.01023474923435
2.6	0.00405500842760482	0.000898651649306396	-0.00276176437304602	0.00151727851224678	-0.00275818995063134	0.00150498522093517	0.00385447112350768	0.0100995403476688
2.7	0.00456249579722181	-8.94749626474683E-05	-0.00251691552273238	0.00188901682741053	-0.00252218663280197	0.00188901836276492	0.00457225202435772	0.00965247842769484
2.8	0.00513569336568962	-0.00127292681551758	-0.00223493320517637	0.00221616346025248	-0.0022271509932378	0.00222595051089458	0.0052102472766303	0.00930283325528915
2.9	0.00566640525391663	-0.00300161476239855	-0.00190231985507716	0.00251552773585782	-0.00189861655564075	0.00251510962074009	0.00610506865098238	0.00889612969466759
3	0.00514379498098313	-0.00496406396182043	-0.00151923735043556	0.00275248636203421	-0.00153401719359928	0.0027585407318328	0.00670875335048746	0.00843860096900992
3.1	0.0048290890575124	-0.00619576087055131	-0.00112828625800664	0.00293144187660815	-0.00112365067850661	0.00293978623816894	0.00775830999763067	0.0082605575028951
3.2	0.00421892014044036	-0.007963368939915	-0.000708451787660404	0.00306852040896036	-0.00071019304678048	0.00306790672232421	0.00858088811241903	0.00760061298612607
3.3	0.00307612891155909	-0.00977207590912762	-0.000271433012642717	0.00313913615839074	-0.000269776959610936	0.00313540374414812	0.00935838353729596	0.00686894515642013
3.4	0.00140681948667633	-0.0114828812115881	0.000174238516627875	0.00313531911716212	0.000167992819895179	0.00315185762129143	0.0101362667050154	0.00581762565466539
3.5	-0.00141392783378458	-0.0128871413114751	0.000598056686036453	0.00309463738402505	0.000603652068404009	0.00309472442237234	0.010131643096157	0.00449447310741456
3.6	-0.00394560241305363	-0.0126429649738159	0.00102634248494121	0.00297429008619937	0.00103452993024251	0.00297398905277639	0.0103969632706031	0.00402691272274584
3.7	-0.00599164380799401	-0.0125421111678883	0.00143612106598495	0.00279486792240385	0.00142650754777558	0.00280851435750687	0.010909098725414	0.00307444535267378
3.8	-0.00815520802720263	-0.0122556366672568	0.00181490774205595	0.0025695598779142	0.0018172892923834	0.00257871412532044	0.0111896023044045	0.00199944559848233
3.9	-0.0103330018238052	-0.0118961533409349	0.00216266027027909	0.00229729900933854	0.00215539737440593	0.0022955037703545	0.0112812790983617	0.000769440300329057
4	-0.0134971095504549	-0.0110506825101615	0.00244723001299259	0.00197436737059945	0.00245168119820096	0.00197194197835124	0.0106448539937636	-0.000260573653174094
4.1	-0.0157917935676084	-0.00829830105581745	0.00269830746406073	0.00161727450761437	0.00269705344699639	0.00161800666568395	0.0107031979850553	-0.000279262263854354
4.2	-0.0170222661020345	-0.00572471497727145	0.00289981953908158	0.00121746851173155	0.00290430988780101	0.00120876408026492	0.0111552940648258	-0.000911151950674592
4.3	-0.0178178963326445	-0.00325429847323224	0.00304469738051896	0.000805267239878541	0.00305114234495046	0.000797478416916818	0.0114746292964862	-0.00184025100167115
4.4	-0.018273470233665	-0.000979093058029485	0.00312150335519572	0.000370497173333802	0.00312388357580021	0.000368246073500629	0.011616322115286	-0.00297546561307121
4.5	-0.0193984923307862	0.00122082871360063	0.0031444582201195	-6.47074834948711E-05	0.00314982936325556	-6.80626017985371E-05	0.0110399765375419	-0.00418952388556206
4.6	-0.0197520981719859	0.00502322241774674	0.00310537948194076	-0.000507749320080318	0.0031065645626425	-0.000494818244235585	0.0107680471967358	-0.00456054427263861
4.7	-0.0187524086762478	0.0083905723899356	0.00300197479828181	-0.000928871672563028	0.00301731081826578	-0.000938454798831999	0.0106256885810083	-0.0054106478954742
4.8	-0.0171500037002055	0.011411793002877	0.00284178793409668	-0.00134450875893004	0.00285029578286722	-0.00135058180155976	0.0103000167158005	-0.00614920140325363
4.9	-0.0147023955298906	0.0137497675275074	0.00262221886133937	-0.00172910485295441	0.00262638174991853	-0.00172618292652541	0.0101119260481684	-0.00685405321304895
5	-0.0126965399876278	0.0154344552139497	0.00236650005410743	-0.00208710915355326	0.00237012167666387	-0.00208442594431859	0.00965694328571443	-0.00751195082513305
5.1	-0.00926334272048862	0.0176299701973292	0.00205385924390503	-0.00240249827145938	0.00205616308168117	-0.00240113156734205	0.0100029987373965	-0.00773849238301966
5.2	-0.00533871775534946	0.0179785914193597	0.00169484093262542	-0.00265351596070091	0.00169656897489477	-0.00265866773629084	0.0102995373696219	-0.00880570011488872
5.3	-0.00192296945839659	0.0173198514311314	0.00130788933949567	-0.00287034853137268	0.00131102523985604	-0.002868274059008	0.0101605968014606	-0.00986934195826342
5.4	0.000881824537926313	0.0159413020031473	0.000882937043337062	-0.00302068661035391	0.000900178622796825	-0.00303189155880229	0.00987931585186099	-0.0110931552582922
5.5	0.00206834218192412	0.0146861454248387	0.000464822403918553	-0.00312209453648947	0.000474920959080214	-0.0031315471662766	0.00859476400806155	-0.012128854219076
5.6	0.00452274846388491	0.0147562389258644	2.36057517553919E-05	-0.00315564161971133	1.50593162133152E-05	-0.00315887397813122	0.00818285342794643	-0.0120618116125433
5.7	0.00739384039896185	0.0131710198914596	-0.000407870765535606	-0.00312522504031127	-0.000424524230474758	-0.00312890867569925	0.00781457653038629	-0.012768556408335
5.8	0.00968486783864989	0.010750584929386	-0.000855476120691236	-0.00303104406184247	-0.000859011914480907	-0.0030450761670279	0.00716515711561045	-0.0135933316595354
5.9	0.0114452397839047	0.00739707385713969	-0.00126363530547369	-0.00289096510737222	-0.00127189197309593	-0.00289088414549277	0.00640236470157374	-0.0145768342519842
6	0.0106832692623163	0.00291879846576422	-0.0016629930332439	-0.00268021320352306	-0.00165942435743227	-0.00268038201912367	0.00436675125459074	-0.0158123231087916
6.1	0.00884565429405479	0.00107183463471913	-0.00201617939797245	-0.00242695250131885	-0.0020178241348187	-0.00242294048001035	0.00258952220761284	-0.0151016782784109
6.2	0.0075319984426554	-0.000636968513190514	-0.0023312872017273	-0.00211416617990927	-0.00233500255808804	-0.00212607023476608	0.001650507999597	-0.0147390799238956
6.3	0.00630037338582227	-0.0019916472945445	-0.00261111301154002	-0.00177800716186446	-0.00262026662905547	-0.00177225031605576	0.00100363647502474	-0.0144443301799168
6.4	0.00520410505818682	-0.00374547964257379	-0.00283747810109933	-0.00138421044251446	-0.00282773271765909	-0.00138913191415649	0.000795214074618727	-0.0145934628090055
6.5	0.00260371999735356	-0.00508414217848624	-0.00299185046599558	-0.000980465086020922	-0.00299972874649267	-0.000975976548034766	-9.83260155049181E-05	-0.0148605190312844
6.6	0.00150632387934479	-0.00497487592430125	-0.00310432502195065	-0.000554803857565378	-0.00310596325917068	-0.000558793956685672	8.93067986886044E-05	-0.0148631325878915
6.7	0.000126243577536083	-0.00581842246240369	-0.00315548188498253	-0.000113072126684379	-0.00316436172022518	-0.000106766139198706	-0.000600702731579659	-0.015644696633361
6.8	-0.00174254375804848	-0.00607211853596767	-0.00313251441524896	0.000330980519658096	-0.00314363653635875	0.000336055636667974	-0.00169582330088768	-0.0157436630496824
6.9	-0.0035841738871614	-0.00625738966916815	-0.00305562054058048	0.000764498125933887	-0.00305861385642661	0.000766897550373527	-0.00245395828350584	-0.0158045861976315
7	-0.00721937443214744	-0.00574025463582114	-0.00292220614926424	0.0011867105389475	-0.00293508701812305	0.0011845113523687	-0.00423804927270136	-0.0157916539138895
7.1	-0.00889767445978764	-0.00228280183916438	-0.00274156149139928	0.00158110150164196	-0.00273786607336445	0.00158979504196926	-0.00474340665091361	-0.0143086986583164
7.2	-0.00911927061367167	2.70229739510632E-05	-0.00248153324096295	0.00194967218747644	-0.00248808088365549	0.00195177291390191	-0.00483582808948177	-0.0138943960265231
7.3	-0.00906570743354392	0.00205919887985686	-0.00218439580442907	0.00226876292339685	-0.00219563559906065	0.00227385706557918	-0.00500885150549724	-0.013603963724597
7.4	-0.00833061588728498	0.0033824124167628	-0.00184237351634979	0.00255348535509528	-0.00184925548321213	0.00256716054486404	-0.00497147760052674	-0.0138379227067
7.5	-0.00926036854092158	0.00332796069331555	-0.00147126188366459	0.00279690079099797	-0.00146421153798103	0.0028043032942555	-0.00606861275030554	-0.0148593912533384
7.6	-0.0101066022258681	0.00609650916169128	-0.00105985610919396	0.00297092029494028	-0.00106125417226854	0.00296621534054468	-0.00689327437080393	-0.0141153693785712
7.7	-0.00962977829933495	0.0081158798801424	-0.000630612388528835	0.0030898916613321	-0.000631960067693433	0.00308883233458362	-0.00752069946946261	-0.0146162378371934
7.8	-0.00858498647511756	0.00991353905254353	-0.000203410922613535	0.00313791262362855	-0.000211213578992998	0.00314441759166062	-0.00845656267492036	-0.0147782279236898
7.9	-0.00710551995239453	0.0110246887837628	0.000241182045392351	0.00314358034187562	0.000249151896681482	0.00314504613621777	-0.00943267872051981	-0.0148509888220249
8	-0.00695714146706714	0.0125954567091998	0.000684753598028667	0.00306388147989598	0.000684861117988237	0.00306878586129622	-0.0112820958046319	-0.0144402737285912
8.1	-0.00360172668217996	0.0152890111307291	0.00109096018472304	0.00294457571320653	0.00111012637710219	0.00294558644028767	-0.0113572299585913	-0.0130284607561909
8.2	9.69957519376443E-05	0.0155761711620741	0.00149599328366349	0.00276323438226292	0.00150522217847095	0.00275599385832071	-0.0116306570268482	-0.012680831716722
8.3	0.00341755448497714	0.0149040653612399	0.00187315806001824	0.00252160789415483	0.00187157359993799	0.00253518144737839	-0.0120606619635542	-0.0121982255112832
8.4	0.0064344823763839	0.0130692642406281	0.00220759581608826	0.00223921135589076	0.00220456315605873	0.00223900203389718	-0.0123518723697437	-0.0119973704497646
8.5	0.00690972146076266	0.0107633661952257	0.00248737754260671	0.00190886190507153	0.00248649270281245	0.00191204750146419	-0.0139677857472475	-0.0117718288022005
8.6	0.00867291589758522	0.0108967766744588	0.00273562671908457	0.00154937401306688	0.00274510832628214	0.00154279148271799	-0.0143078708724022	-0.0099941357247554
8.7	0.0113079782673966	0.00908277650155689	0.0029202873417349	0.00114334809389487	0.00292585347344837	0.00114404616774096	-0.0142627968051942	-0.0093888590695158
8.8	0.0134223451037073	0.00629963035455536	0.00305343777150049	0.000730500992426697	0.00305916392462019	0.000721714336412973	-0.0145499408529912	-0.00893083194494594
8.9	0.015083001359159	0.00221081026189669	0.00312661074250741	0.000297760865845532	0.00312573094808991	0.000295519174314577	-0.0145397139632391	-0.00853145659293508
9	0.0138976197882934	-0.00283062494276504	0.00313851274923128	-0.000143763059767259	0.00314168634200308	-0.000139671856150848	-0.0153952118048436	-0.00836966477329601
9.1	0.0123480600966214	-0.0057629229519043	0.00308873189569746	-0.000589661876894526	0.00309168400418428	-0.000576779812182213	-0.0153857757051001	-0.00705715360932152
9.2	0.0101950262903473	-0.00920818328944983	0.00297419413703156	-0.00100561883574248	0.00298182895343979	-0.00100853227464378	-0.0153217018938599	-0.0066352610650817
9.3	0.0069534380594954	-0.0118086688158127	0.0028032941368955	-0.00140767719764675	0.00280254110143265	-0.00141265695269982	-0.0154566859938096	-0.00590585493691762
9.4	0.00330109842257677	-0.0137535428503941	0.0025816123596393	-0.00179591855476497	0.00258814861185735	-0.00178835550494317	-0.0153031324844904	-0.00526378026905213
9.5	-0.00202223188294498	-0.0141225368897077	0.00230297037028983	-0.00213324107550146	0.00231036939555998	-0.00213462954116834	-0.0158737217066288	-0.00430997497825611
9.6	-0.00507211988778476	-0.0120008754140845	0.00198118299564471	-0.00243058469308504	0.00198151744972108	-0.00242960703888411	-0.0150149735504806	-0.00283391683958545
9.7	-0.00744189052836563	-0.0108983659192083	0.00161519698693066	-0.00267676913852254	0.00162068092903527	-0.00268408062217931	-0.0144111734441352	-0.00250807360872454
9.8	-0.00990610856354738	-0.00960107271571534	0.0012312674851759	-0.00288367301721218	0.00123698756366054	-0.00287522392324813	-0.014176066287211	-0.00207263617900481
9.9	-0.0121506716586377	-0.00842965155582484	0.00082476348986705	-0.00302202508488588	0.000817458069620515	-0.00302076538058606	-0.0139533682221848	-0.00173557461925671
10	-0.0163796547092629	-0.00681198659595186	0.000392913557472052	-0.00310340388803616	0.000385391663291341	-0.00311574872474111	-0.0148503506511393	-0.00141012310083178
10.1	-0.0187451719415661	-0.00193734936871059	-4.21293792675843E-05	-0.00313198238085013	-5.22915435535782E-05	-0.00312657867828951	-0.0144480312765525	0.00026415011929158
10.2	-0.0193466400642258	0.00213546227910295	-0.00048591186571867	-0.00309522484388475	-0.000489293920471199	-0.00309244649160176	-0.0136563148989141	0.000872310406670604
10.3	-0.0191535337064611	0.00602963274980911	-0.000916970550367419	-0.00298770811722834	-0.000908951084387484	-0.00299676870622018	-0.0129146302368033	0.00136089134139999
10.4	-0.0181100080313135	0.00894782760131629	-0.00131096821780071	-0.00282867664004216	-0.00130930629373275	-0.00283484270378162	-0.0118037397178806	0.00116828370114308
10.5	-0.0188389736715626	0.0116905743365064	-0.00169182312098784	-0.00263068612938822	-0.00168872052387824	-0.00261777926555758	-0.0120758954651138	0.000664299867831059
10.6	-0.0177761377493403	0.0166308351576577	-0.00204349780671746	-0.00236651914731797	-0.0020413269143004	-0.00237032367233728	-0.0116735653081889	0.00106594073237974
10.7	-0.0155959081247031	0.0209062342528993	-0.0023571857063286	-0.00206537859218147	-0.0023537033085684	-0.00206013005023215	-0.0116647453697544	0.00112606163398795
10.8	-0.0120552922464911	0.0251932984815677	-0.00262300889111427	-0.00170690051817816	-0.00261784808849455	-0.00171578051278423	-0.0115182177319309	0.00176161807702695
10.9	-0.00708954303376456	0.0279705285076925	-0.0028270370380705	-0.00133735339328785	-0.00283219333214123	-0.00133662753122497	-0.0108701308649386	0.00197442109850823
11	-0.00347958222947946	0.029699493735673	-0.00299022279166981	-0.000927792885080444	-0.0029950399728031	-0.000934509832018491	-0.0113400741760437	0.00210624235132364
11.1	0.00256814533145555	0.032641579611265	-0.00309905462731619	-0.000500277452331104	-0.00308824069182372	-0.000497434400247176	-0.0103344991231829	0.00328566831786336
11.2	0.00967731497662715	0.0326372752277574	-0.00312586315433811	-6.52880026459884E-05	-0.00313298056219989	-7.00994199742973E-05	-0.00921861204412421	0.00320145427143176
11.3	0.0166153930867113	0.0306470795743796	-0.00309913595028868	0.000378702327242851	-0.00311061132612551	0.000368709335799312	-0.00820980255499781	0.00304972476329622
11.4	0.0228608805079839	0.0267205642947659	-0.00302954786875882	0.000802817867917469	-0.00302466557007594	0.000810358295698815	-0.007259560990016	0.00249492689698233
11.5	0.0261223795337408	0.0218584868300219	-0.00288735299191311	0.00122244665571966	-0.00289011861273667	0.0012326855041548	-0.00776663301433231	0.00185292976061414
11.6	0.0302771256683812	0.0183196450951893	-0.00268970555003423	0.0016075628625114	-0.00268968714988827	0.00161048711747351	-0.00683883028188469	0.00225450437427372
11.7	0.0343431296445246	0.0124007144199113	-0.00243224711061659	0.0019579451666228	-0.00243281865296264	0.00196650309476122	-0.00583618801748528	0.00137470656157507
11.8	0.0369406957277543	0.00510623069344753	-0.00214144275318772	0.00228910509491009	-0.00214554116321914	0.00229078823768733	-0.00518596674556819	0.000311558760417728
11.9	0.0376422107526015	-0.0038222156341642	-0.00179410290871057	0.00256734605997848	-0.00180707536472856	0.00257161972385627	-0.00467621482515659	-0.00109902746680871
12	0.0329448030842285	-0.0114470908645735	-0.00141896450349779	0.0027854894609717	-0.00141837335050164	0.00278689331897318	-0.00652384056382151	-0.0019953421260854
