# GHZ S RI R 50
0.2	0.00597261358351688	0.00115042294720693	0.00304828567453289	-0.000897972682627155	0.00305865430783619	-0.000891164053185263	-0.0139358529851159	0.00484179036796557
0.3	0.00627517283601655	-0.000806963355098423	0.00290402923383482	-0.00132137422020005	0.00289678348152121	-0.00130843573115647	-0.0131599160880657	0.00503290354978999
0.4	0.00600383022947266	-0.00246134601121836	0.0026723884673663	-0.00169308101848262	0.00267765551702282	-0.00170164131243427	-0.0126865995574252	0.00556349272669448
0.5	0.00532716950865695	-0.0038223965359506	0.00241360717367509	-0.0020497724156313	0.00242514406360984	-0.00206201198423402	-0.0122144984447643	0.00622356028436437
0.6	0.00434633407876192	-0.00498484084653295	0.00210098599174756	-0.00236424959416233	0.00210019928726272	-0.00237139864051906	-0.0117322108543655	0.00679774003783909
0.7	0.00298740432485079	-0.00573820034548559	0.00175383134941545	-0.00264188592172246	0.00175187552530865	-0.00264208467065716	-0.0114097156413469	0.00741401947266896
0.8	0.00157680597821774	-0.00610715658722407	0.00136847457494853	-0.00285918302726147	0.00135587593075686	-0.00286373139281088	-0.0110760606111248	0.00817167676627823
0.9	4.39995849914016E-05	-0.00607602370439752	0.000951488833181187	-0.00302271531082663	0.00095252348997991	-0.00303341346493294	-0.0106925759215356	0.00894212998947095
1	-0.00141182839576549	-0.00559704682644982	0.000526570692918572	-0.00312606990402612	0.000516710047541273	-0.00312680925229099	-0.0102454292684837	0.00978443207629491
1.1	-0.0026242471840617	-0.00501531651817745	7.11384614250829E-05	-0.00315465550372346	6.76315751709796E-05	-0.00317230267530329	-0.00971088916869824	0.0106566459259623
1.2	-0.00387800842116798	-0.00452313997111131	-0.000370804035409828	-0.00314407091399307	-0.000371615668170083	-0.00314199486477571	-0.00883996808357425	0.0114985049780142
1.3	-0.00519233227182595	-0.00414923717861074	-0.000797816266188465	-0.00306090798250903	-0.000801055732790874	-0.0030629128549122	-0.00734108933556112	0.0121348486853004
1.4	-0.00640214249588542	-0.00368332043392086	-0.00121904455774288	-0.00291265277948923	-0.00121783178077922	-0.00291818493124746	-0.00567825630673673	0.0120202096046314
1.5	-0.00691222317837854	-0.00258863017746509	-0.001619579623719	-0.00271672964391172	-0.00161796767046571	-0.00272522778645459	-0.00430790415538605	0.0116552361676408
1.6	-0.00690406579439164	-0.00121920742260732	-0.00197996988163571	-0.00246474405234717	-0.00198018009965009	-0.00246997741640452	-0.00367580109886652	0.0115630369843782
1.7	-0.00640915124244967	0.000313408766861031	-0.00230852113964438	-0.00216810521750511	-0.00230948744682427	-0.00216184463438425	-0.00299404918196385	0.011792841927287
1.8	-0.00552727579460891	0.00178992919801563	-0.00257965083307178	-0.0018167320604507	-0.00259061487594521	-0.00182236941284965	-0.00225283707788715	0.0119519430778877
1.9	-0.00436160072359143	0.00294718709028246	-0.00280500617570721	-0.00144612554945144	-0.00281744527375351	-0.00143997470663671	-0.00159644991801845	0.0120688426259545
2	-0.0028659337424436	0.00383032738924003	-0.00298087649367982	-0.00103885916382857	-0.00299049883377421	-0.0010341530733976	-0.000958266546451561	0.0123202000645201
2.1	-0.00131049529206111	0.00398854431669987	-0.00309484572430276	-0.000610241622329303	-0.00309076198988437	-0.000612233020706476	-0.000153702264252278	0.0124019610713796
2.2	1.349939094454E-05	0.00393177117811689	-0.00315223536713778	-0.000171693044852869	-0.00316353930850856	-0.000174529450792069	0.000776006919973831	0.0124089406699378
2.3	0.00125281391925955	0.00353391767530609	-0.00314751338899208	0.000271830307293722	-0.00314721097186271	0.00026494734510217	0.00169271441345796	0.012155829126796
2.4	0.00227847931677518	0.00296334621245108	-0.00307509027351976	0.000710179632595895	-0.00307763149793751	0.000705922183357132	0.00250405254335831	0.0118315309175288
2.5	0.00327760917274288	0.00233538844103393	-0.00293815761824769	0.00112290589443217	-0.0029490475927006	0.00112928810627492	0.00328373894509864	0.0114876293129713
2.6	0.00436414067644855	0.00121648052232369	-0.0027635667453523	0.00152617726175768	-0.00276001271199284	0.00151385322908967	0.004153402781954	0.0109907326573996
2.7	0.00514984407480641	-0.00020183086218626	-0.00251731587942728	0.00189734118381757	-0.00252259589256981	0.00189735347111281	0.00483170539157093	0.0103820388956566
2.8	0.00569820504285115	-0.00185111304263829	-0.00223417494220241	0.00222471678238721	-0.00222635862433335	0.00223450454887125	0.00534652254645466	0.00986990348461349
2.9	0.00595962638258651	-0.00362306710743781	-0.0018995342666562	0.00252489499692449	-0.00189582521072335	0.00252446687076045	0.00597205454388953	0.00955771941120293
3	0.0060129512496253	-0.00547604065527827	-0.00151239896341728	0.00276002163755778	-0.00152717574385252	0.00276612761110937	0.00682995225996014	0.0093319240000357
3.1	0.00561759577296243	-0.00766665049445256	-0.00112210566364558	0.00293628701141497	-0.00111744674087907	0.00294462640649474	0.00769473587837963	0.00884615160466173
3.2	0.0044698897726281	-0.00968187671498104	-0.000701626088136992	0.00307313884903022	-0.000703370484888639	0.00307252883644365	0.00831318474619216	0.00839204063781732
3.3	0.00285937739530099	-0.0115078886469993	-0.000263076418410325	0.00314261107503877	-0.000261429140963327	0.00313887087941578	0.00903811508645794	0.00782085961581137
3.4	0.000711244336576432	-0.0128644174804686	0.000183918097757605	0.00313598024472887	0.000177720728263642	0.00315254420408371	0.00971022152129836	0.00699694291016816
3.5	-0.00153633557934347	-0.0137267367061371	0.000605132093328709	0.00309227143086028	0.000610725939402813	0.00309234531278239	0.0101422956455351	0.00599205254115404
3.6	-0.00408504609751071	-0.0144153922745768	0.00103315099563567	0.00297334598432519	0.00104134125254789	0.0029730272746082	0.0103811308352812	0.00502096038297348
3.7	-0.00697427996549235	-0.0143853751421917	0.00144383428580177	0.00279223798548349	0.00143425215348283	0.00280591423804454	0.0105776698245433	0.00415358048725591
3.8	-0.00983091395665073	-0.013597744304858	0.00182190262093461	0.00256476681541025	0.00182430893462729	0.00257391499473007	0.0106953097800676	0.00327995372763682
3.9	-0.0123350958380133	-0.0121031321292412	0.00216735337649396	0.00229135749677525	0.00216008877245564	0.00228958012999508	0.0106768513113592	0.00245896382020409
4	-0.0141188788840879	-0.0101252365420134	0.00245190756291168	0.00197065689856802	0.00245635611051256	0.00196822224962642	0.0107565762723632	0.00187025227951767
4.1	-0.0155462355785062	-0.00840354946118523	0.0027044622986285	0.00161022315199627	0.00270320976625228	0.00161095936730054	0.0109966726873385	0.00115042160919421
4.2	-0.0170089850729261	-0.00630882234184045	0.00290339315910641	0.00120840394964641	0.00290785624173213	0.00119968620225841	0.0111509899394452	0.000405682579210584
4.3	-0.0181320280664929	-0.00387435027877927	0.00304600146265408	0.000796107219351571	0.0030524214886505	0.000788302266332465	0.0112529747120743	-0.000457797949258782
4.4	-0.018910789869788	-0.00105320153566018	0.00312216069305031	0.000362071196337667	0.00312453460840428	0.000359813945847857	0.0111377939025131	-0.00128784954735826
4.5	-0.0188624969878159	0.00211081336521261	0.00314521723091828	-7.66310490331021E-05	0.00315057738862198	-8.00075702352942E-05	0.0110876965826128	-0.00194198312579537
4.6	-0.0182470078678484	0.00473370066042399	0.00309995895532532	-0.000520037224352706	0.00310119619819224	-0.000507124880527901	0.0110289067465428	-0.00283945953822618
4.7	-0.0173406031868268	0.00733473759890931	0.00299398634987227	-0.000938512910928071	0.00300926374455848	-0.000948137929375213	0.010766918965334	-0.00372471617181993
4.8	-0.0160272375000617	0.0097878552962825	0.0028325135245438	-0.00135227866267705	0.00284098644869737	-0.00135837167081833	0.010423239006699	-0.00453853802546111
4.9	-0.0141457387954053	0.0120417958708231	0.00261144440060819	-0.00173637673694293	0.00261561183845928	-0.00173347536110024	0.010047714244324	-0.00521190989163062
5	-0.0115472822637333	0.0138901738002754	0.00235043805729488	-0.00209121475508035	0.00235406062313606	-0.0020885552086001	0.00998062332315653	-0.00569955364465089
5.1	-0.00865358700789222	0.0147551164417019	0.00203954766876048	-0.00240028840394902	0.00204184758659378	-0.00239893332971493	0.0100050544915645	-0.00649243100570622
5.2	-0.00594827820977185	0.0152773476746951	0.00168227037592282	-0.00264957532408085	0.00168397901848517	-0.0026547152443786	0.0098944676475491	-0.00725600985990321
5.3	-0.0030816328261898	0.0154200938981104	0.00129562191551318	-0.00286446986375238	0.00129875317918542	-0.00286241092970998	0.00975301679708312	-0.00796042076779452
5.4	-0.000206296056368571	0.0150992085809067	0.000870703470594712	-0.00301111878762127	0.00088784368329507	-0.0030223284432399	0.00956275060286575	-0.00884683944067822
5.5	0.00284599098757613	0.0142538531708095	0.000458105831869309	-0.00310745279561032	0.000468141452476889	-0.00311687345061874	0.00920584779879684	-0.00977936784934312
5.6	0.00524124149014912	0.0122473489438595	2.08781552038732E-05	-0.00314390852161949	1.23608458116753E-05	-0.00314712169239105	0.00839919589783961	-0.0107677877708722
5.7	0.00672877732380375	0.0102880110057937	-0.000409879778471185	-0.00311341437159689	-0.00042647685034479	-0.00311706602065697	0.00736078131001953	-0.011284639768717
5.8	0.00779395002441981	0.00829317039447986	-0.000855287947938285	-0.00301818553050592	-0.000858824546128599	-0.00303215855411145	0.00639872818925145	-0.0118167768000354
5.9	0.00831306948521207	0.00643378186041394	-0.00125917594833338	-0.00287791676818623	-0.0012673966245919	-0.00287783317608025	0.00518435815789007	-0.01230223307965
6	0.00885536152492978	0.00492060821394881	-0.00165640175099922	-0.00267275311833174	-0.00165284409054317	-0.00267291952212824	0.00380508583430322	-0.0123182428595244
6.1	0.00934451229614897	0.00257342533040329	-0.0020119342813782	-0.00241830073389561	-0.0020135712579021	-0.00241429944409321	0.0027317483448441	-0.0121974645406529
6.2	0.00894831517807123	0.000115330290775762	-0.00232404241752391	-0.0021049213413443	-0.00232775160164776	-0.00211677926678919	0.00187766790211441	-0.0119840824498926
6.3	0.00807329925879389	-0.00225516640235764	-0.00260104051265793	-0.00177081320448164	-0.00261015776821234	-0.00176507810660632	0.00129862033585893	-0.0119729775303308
6.4	0.00662163364484663	-0.00436793477736775	-0.00282697012491598	-0.0013810565654499	-0.00281725539900005	-0.00138595568764584	0.000810029251637633	-0.0121155547846133
6.5	0.00527134787772233	-0.00615394319435697	-0.00298432097505253	-0.000975997785254429	-0.00299217516103835	-0.000971516675893057	0.0005430562314847	-0.0123455406219788
6.6	0.00311065616934005	-0.00801036332026782	-0.00309134257084984	-0.000550600719568213	-0.00309297613013407	-0.000554572749629994	8.77161654689802E-05	-0.0128581654581432
6.7	0.0005612849530621	-0.00875177756358792	-0.00314136453331785	-0.000113712845655442	-0.00315020704496499	-0.000107438210964698	-0.000691877049035749	-0.0131397202095893
6.8	-0.00193978480120409	-0.00879015273953577	-0.00311997056522392	0.000326971833819499	-0.00313105145286585	0.000332016751884274	-0.00162648676682644	-0.0132195856746435
6.9	-0.00442933318862311	-0.00806923651040574	-0.00304503346084804	0.000760179746833293	-0.00304801725440736	0.000762569010085075	-0.00264677060863453	-0.0130614678491509
7	-0.00599274989401723	-0.00663075861173726	-0.00290731394300776	0.00118097004667061	-0.00292012983891819	0.00117878314996395	-0.00339592031588175	-0.0126288735191507
7.1	-0.00761455696963292	-0.00582142088718566	-0.00272967232539665	0.00156786239615855	-0.00272601184364274	0.00157651593292234	-0.00421732358467193	-0.0123711042162041
7.2	-0.00953262963754077	-0.00422272854748505	-0.00247422000494781	0.00193512264970516	-0.0024807416748065	0.00193719920167607	-0.00493668410799926	-0.0117680573577387
7.3	-0.011185308280838	-0.00206146444321965	-0.00217950030029403	0.00225389140919988	-0.00219070072346153	0.00225893850553549	-0.00530823289865351	-0.0112867470783483
7.4	-0.012599088856897	0.000658362284083085	-0.0018382597134596	0.00253662163375992	-0.00184513489446523	0.00255021270101398	-0.00578637242151047	-0.0111169803632134
7.5	-0.0128600064285406	0.00426393598385449	-0.00147419251425442	0.00277431501026781	-0.00146721442349426	0.0027817031321124	-0.00610926925656981	-0.0108253545498651
7.6	-0.0118627323079187	0.00686303735683798	-0.00107031168804835	0.00295389174627283	-0.0010716809764371	0.0029491985739935	-0.00623812389651004	-0.0111158889722895
7.7	-0.0107982511198306	0.00919975283009	-0.000642680610406454	0.00307632869299919	-0.000644018758888999	0.00307526680734996	-0.00681196347488996	-0.011764798944534
7.8	-0.00896512768779263	0.0111093211698645	-0.00021750168855383	0.00312619562263811	-0.000225308249718329	0.00313264151646652	-0.0077555832063691	-0.0121937537679935
7.9	-0.00661223670006611	0.0126025941162491	0.000222700157251201	0.00313393160349443	0.000230633891303552	0.00313543698462179	-0.00888703024723788	-0.01215404274407
8	-0.00320764015520136	0.0132895833031569	0.000663491023568	0.00306429264793786	0.000663565842273105	0.00306919112527153	-0.00977013667276003	-0.011791389717816
8.1	-0.000533448662076502	0.012587293246687	0.00107570226429789	0.00294793078627888	0.00109485032433972	0.00294903526056622	-0.0108187672115918	-0.0115013353668116
8.2	0.00161432404138735	0.0119690515264942	0.00148112126979552	0.00276728666278527	0.00149037441678544	0.00276009832143822	-0.0117328054725444	-0.0107936943146763
8.3	0.00366212504213577	0.0111555993975929	0.00185802201828655	0.00252868716517816	0.00185636849940951	0.0025422380147761	-0.0124697899226934	-0.0100750854616768
8.4	0.0054866881353652	0.0103145214451282	0.00219446455602576	0.0022518864054859	0.00219143329683364	0.00225165949546909	-0.0132835711931626	-0.00935799790660491
8.5	0.00791928020566605	0.00929419184479817	0.00248260185142921	0.00192100878916683	0.00248170324927714	0.00192419450975973	-0.0139343448216287	-0.00830778906477095
8.6	0.00980211204133199	0.00674612364389431	0.00272850534146579	0.00155904808946914	0.00273800761152433	0.00155250452203464	-0.0144789293390142	-0.00754529759202684
8.7	0.0106261207958896	0.00419746966249708	0.00291395501986524	0.00115639777779947	0.00291951591144748	0.00115712126255256	-0.0149878224118887	-0.00661373405668788
8.8	0.0108966873200155	0.00169383870964174	0.00305081036420902	0.000745670399081218	0.00305658129376166	0.000736909038906903	-0.0154154586363009	-0.00582120058135466
8.9	0.0106566623301888	-0.000644977649030149	0.00312894773321988	0.00031122537856882	0.0031280763383186	0.00030897742284695	-0.0157492872892369	-0.00492027428860373
9	0.0106429425258973	-0.00268927879929436	0.00313754339428617	-0.000133195488888034	0.00314070183181552	-0.000129095557635091	-0.0156942570457364	-0.00373970416815827
9.1	0.0102529841243602	-0.00571222569853061	0.00309105601349149	-0.000573074131755489	0.0030939388102029	-0.000560179752139848	-0.015361047490595	-0.00296173907413322
9.2	0.00889619180462747	-0.00847536459726236	0.00298252098406584	-0.000990558810696116	0.002990178966011	-0.000993433914310437	-0.0149913407991139	-0.00225170361729893
9.3	0.00700850500943392	-0.0110075885866021	0.0028143562852502	-0.00139642273677292	0.00281362593554701	-0.00140141377383619	-0.0144932078223817	-0.00172392935826614
9.4	0.00439955045439521	-0.0130770900705623	0.00259133469112629	-0.00178719480731863	0.00259784660182448	-0.00177959812072773	-0.0141983093618996	-0.0014141116103199
9.5	0.0017388954643883	-0.0144005684997408	0.00231645432228023	-0.00211990224133425	0.0023238636790155	-0.00212124641044599	-0.0139012307284536	-0.000967075842635684
9.6	-0.00195002104951194	-0.0158334870373344	0.0020013450236554	-0.00242462055816948	0.00200167429554624	-0.00242363830444974	-0.0140619791791012	-0.00076323167473233
9.7	-0.00625610079757076	-0.0157050584350523	0.00163420635195644	-0.00267644185559087	0.00163974548882303	-0.00268374680543323	-0.0142189715744899	-0.000141968397998202
9.8	-0.0104270244948961	-0.0144426784926434	0.00124908410844196	-0.00288596923398875	0.00125477907927892	-0.00287746735014765	-0.0142531775358112	0.000473812568960452
9.9	-0.014327047008931	-0.0119081514418682	0.00084419847959534	-0.00302537808688778	0.000836866397928235	-0.00302415669035602	-0.0144696495688496	0.00111548915343061
10	-0.016886246201157	-0.00838663859634078	0.000415312343056245	-0.00311695182980037	0.000407832341955539	-0.00312941015157688	-0.0144684460720042	0.00201431856686811
10.1	-0.0189696176926682	-0.00536715450530485	-2.9050451308822E-05	-0.0031502639472997	-3.92943370396782E-05	-0.00314487223849151	-0.0144221106684832	0.00253504580260015
10.2	-0.0208987220066034	-0.00149247707904455	-0.000476437033001378	-0.00311350077557818	-0.000479847804530808	-0.00311072087924923	-0.0143604122872433	0.00328405617193444
10.3	-0.0219734254068982	0.00306494352383844	-0.00090964416935987	-0.0030079582664375	-0.000901543013180781	-0.00301703552937606	-0.01410706551064	0.00400375129797428
10.4	-0.0219965364417136	0.00820452577063849	-0.00130763810693125	-0.00285416974385557	-0.00130593742302184	-0.00286037145851084	-0.0137178914097854	0.00457214899049294
10.5	-0.019987602612269	0.0135592742664333	-0.00170232886251142	-0.00265543460364087	-0.00169921875768528	-0.00264241387985889	-0.0130734118533675	0.00525973602819915
10.6	-0.0169964790466908	0.0174540181561078	-0.00205541268959424	-0.00238277934864312	-0.00205322588811064	-0.0023866072078577	-0.0124346814489743	0.00551824809764784
10.7	-0.0134665034866084	0.0208996257547034	-0.00237016885857121	-0.00207997816787044	-0.00236666898154702	-0.0020746944666014	-0.011771660235431	0.00583111747255474
10.8	-0.00943057933138724	0.0234977368105217	-0.00263924335162195	-0.00171956309420338	-0.00263404373198499	-0.00172849839636711	-0.011271877856937	0.0058899232765067
10.9	-0.00522127070782528	0.02569983890103	-0.0028480410941993	-0.00134456817623119	-0.00285323320978155	-0.0013438331348758	-0.0111296662880762	0.00603395031606203
11	0.000332728238372006	0.0273371527958487	-0.00300567331035121	-0.00092586391315416	-0.00301052609250312	-0.000932601411502796	-0.0107054054821817	0.00659137236062149
11.1	0.00571326680669515	0.0268921049424597	-0.00311267460413833	-0.000502314145697051	-0.00310181308661304	-0.000499459172590076	-0.0102217058313312	0.00679115750285226
11.2	0.0106160193717241	0.0258775633598392	-0.00314246008239924	-6.49859754045477E-05	-0.00314961624761065	-6.98214418715867E-05	-0.00954295431308168	0.00714130092034486
11.3	0.0154004819917998	0.0240653004731763	-0.00311583147609761	0.000384144663105327	-0.00312738099709591	0.000374108929336924	-0.0085276542259006	0.00725814691515366
11.4	0.0196829686612817	0.0216105099516227	-0.00304125056381867	0.000812507118942811	-0.00303633145508	0.000820070813980832	-0.007697016716096	0.00703961044921575
11.5	0.0243010310893419	0.0184187876249239	-0.00289744711181707	0.00122588934222945	-0.00290022461421256	0.00123616225258392	-0.00687179113201935	0.00666781622537765
11.6	0.0278124206876259	0.0132928253030731	-0.00270530768972435	0.00161665819787848	-0.00270528936744742	0.00161959930675833	-0.00633539093423236	0.00577101222820494
11.7	0.029818421072571	0.00814387728611086	-0.00244410601100138	0.00197261981142908	-0.00244466997965925	0.00198122901048725	-0.00601113400551586	0.00496506416515048
11.8	0.0309886505476236	0.00307582537775277	-0.00214827084510233	0.00230529790163996	-0.00215238755250436	0.00230699784273085	-0.00585949192996079	0.0042104902762362
11.9	0.0316065826238575	-0.00166443600070924	-0.00179894435459009	0.00258095341839812	-0.00181196927275467	0.00258526193149262	-0.00593345264295042	0.00392115562498712
12	0.0326915090180838	-0.00673008377309235	-0.00142730349920082	0.00280553712438715	-0.00142670750279907	0.00280695038844513	-0.00551049030422334	0.00390523667807443
