# GHZ S RI R 50
0.2	0.00578493915825051	0.00144453952480109	0.00304792381003224	-0.000897922855184604	0.00305829138149111	-0.000891115177314531	-0.014221879079552	0.00504085573853966
0.3	0.00606578886484837	-0.000527585399762832	0.00290368474703603	-0.00132130366313451	0.00289644009131638	-0.00130836638597862	-0.0134537659255038	0.00521768233207205
0.4	0.00584194115538955	-0.00215421368366032	0.00267200734906364	-0.00169303969192189	0.00267727336844807	-0.00170159933632898	-0.0128830108019161	0.00578901669439668
0.5	0.0050972792394872	-0.00357163863669208	0.0024130286904353	-0.00204955137209789	0.00242456265644135	-0.00206178943375996	-0.0123013097788253	0.00634416636295094
0.6	0.0040929090483681	-0.00446596324213647	0.00210065361299469	-0.00236385882856961	0.00209986706124283	-0.00237100671839206	-0.0117754132130008	0.0069176470682066
0.7	0.00295211486386971	-0.00511056223738468	0.00175352418398433	-0.00264155267827492	0.00175156863146017	-0.00264175135495823	-0.0113491411182728	0.0074447662687066
0.8	0.00173364759018938	-0.00547455092134693	0.0013681292464213	-0.00285878255431041	0.00135553243171978	-0.00286332963669661	-0.0109998565949045	0.00810354610013325
0.9	0.000428536834022735	-0.0054959525799253	0.000951171534719448	-0.00302212423796076	0.000952205553804892	-0.00303282020790458	-0.0106275125964222	0.00887137896908131
1	-0.000906115087036896	-0.0053648539479276	0.000526627776139992	-0.0031254400576161	0.000516769070833509	-0.00312617976371298	-0.0101015547467699	0.00971195323380483
1.1	-0.00243418773124252	-0.00474247846185592	7.10462094885802E-05	-0.00315425454165644	6.75393059101592E-05	-0.00317189936730163	-0.00955064825187899	0.0107304015513232
1.2	-0.00366047498688998	-0.00397582600012085	-0.000370910304671296	-0.00314345579962876	-0.000371721667478267	-0.00314138009732305	-0.00842456920812516	0.0117600405989673
1.3	-0.00492009555102778	-0.00331622070376529	-0.000797727546717467	-0.00306017001253102	-0.000800966322563172	-0.00306217431545485	-0.00667963316320278	0.0124767741594759
1.4	-0.00599214214367192	-0.00259342793648473	-0.00121869866543025	-0.00291200072359776	-0.0012174860527645	-0.00291753156167336	-0.00488045996415327	0.0123269420222335
1.5	-0.00654062316227972	-0.00153041348937385	-0.0016194675526493	-0.00271629971668038	-0.00161785614962763	-0.00272479677600246	-0.00353056307037052	0.0116651362131705
1.6	-0.00637145808195783	-4.05726961697604E-05	-0.00197973322646316	-0.00246378839560416	-0.00197994407029674	-0.0024690202535856	-0.0030196083372048	0.0112779414553934
1.7	-0.00569115203703503	0.00120654930934867	-0.00230780059520827	-0.00216721043624371	-0.00230876624091612	-0.0021609520538776	-0.00255947302130972	0.0112247689772526
1.8	-0.00481218980229921	0.0023834178867665	-0.00257869074240952	-0.00181611475843945	-0.00258965073639341	-0.00182175024053334	-0.00204790862629059	0.0112786785443398
1.9	-0.00371623057726471	0.00322181791751033	-0.00280409239467272	-0.00144574381173877	-0.00281652775660188	-0.00143959520598807	-0.00149998095451706	0.0113888153649729
2	-0.00269160215700055	0.00380334958054439	-0.00297975724885905	-0.00103816433085102	-0.00298937524114953	-0.00103345927975995	-0.000941315317128538	0.0115533309704939
2.1	-0.00145385963662894	0.00437605913227877	-0.00309315491942451	-0.000610214561107752	-0.00308907314955843	-0.000612204519906171	-0.000200645394807623	0.0116705181504813
2.2	4.26477455414198E-06	0.00455528056765871	-0.00315077319179342	-0.000172182288956132	-0.00316207149017	-0.000175019441045019	0.000686557710574257	0.0116312405218542
2.3	0.00144907783162899	0.00423379510077905	-0.00314625528824682	0.000271135679428353	-0.00314595172488787	0.000264255634153572	0.00149944205177255	0.0113987941128891
2.4	0.00276446127715952	0.00352446000551528	-0.00307380995431329	0.000709402081982829	-0.00307634940001082	0.000705146173570162	0.00226795307267348	0.0112086479618143
2.5	0.003666411398532	0.00233989276240029	-0.00293670977683335	0.00112130483484887	-0.00294759507579543	0.00112767975446569	0.00311228386462149	0.0109269075943115
2.6	0.00421715293192448	0.00128018983466655	-0.00276318778434932	0.00152428711883285	-0.00275962940906711	0.00151196960470381	0.00403002953841317	0.0105303411573086
2.7	0.00477399729434971	0.000126475609692789	-0.00251725713063017	0.00189574363427671	-0.00252253545930405	0.00189575383998525	0.00478124286943715	0.00993531262614781
2.8	0.00528014912597427	-0.00119772226748781	-0.00223423215144501	0.00222313983540735	-0.00222642208564356	0.00223292714377398	0.0053515662446091	0.00946282936893393
2.9	0.00568471536224849	-0.0028224529071507	-0.00189983658761352	0.00252303387717501	-0.00189612887973763	0.00252260752491626	0.0061208652696646	0.00916643678878638
3	0.00555229206247257	-0.00469260303108799	-0.00151379775627794	0.00275835474750329	-0.00152857476324056	0.00276444966862131	0.00709998655600405	0.00880352667407858
3.1	0.00516007532932661	-0.00637935986681277	-0.00112324463362877	0.00293546131233813	-0.00111858985595354	0.00294380175357255	0.0080669212256573	0.00820000024129098
3.2	0.0043481713000186	-0.00819173982763881	-0.000702743744958622	0.0030721933968634	-0.000704487517697584	0.00307158279507424	0.00870992344686821	0.00752760950925104
3.3	0.003053813261649	-0.00999005410072911	-0.000264575945059201	0.00314172430817515	-0.000262927203867154	0.00313798583142674	0.00936782538879274	0.00681166096794594
3.4	0.00121811236933823	-0.0115167290718033	0.000181907399804886	0.00313564258121866	0.00017570044788274	0.00315220022151089	0.0100041479135595	0.00592475529517726
3.5	-0.00119137856527989	-0.0127105946582703	0.000603765246411773	0.0030929278377374	0.00060935973568355	0.00309300433380878	0.01039504680795	0.00479136649531371
3.6	-0.00378896628846091	-0.013009759819375	0.00103206354253083	0.00297334318962714	0.00104025296778222	0.00297302718668836	0.0105966708825427	0.00380849357932016
3.7	-0.00622933071841438	-0.0129011030468579	0.0014423342066787	0.00279247804849422	0.00143274724766286	0.00280614783321785	0.0107466138899177	0.00286105159388721
3.8	-0.00865989520767587	-0.0123774813301497	0.00182044652285953	0.00256552620901632	0.00182284793441996	0.00257467498086155	0.0107847186482404	0.00199479855785619
3.9	-0.0109255244150739	-0.0115099812921605	0.00216648217385718	0.00229245259055136	0.00215921789701769	0.00229067192172386	0.0107887802898767	0.00122772904306709
4	-0.0133190757967051	-0.0102698851600611	0.00245115566520158	0.00197080590041221	0.00245560397045917	0.001968372463191	0.0108871416830923	0.000560806485834046
4.1	-0.0153593693886264	-0.00819785588660306	0.00270279110716196	0.00161111650124419	0.00270153858481986	0.00161185184189748	0.0111633814443149	-0.000139241790873307
4.2	-0.0168426803381396	-0.00585858757568075	0.00290219782854798	0.00120998038860691	0.00290666551246179	0.00120126673854138	0.0113439334036672	-0.000995237821658323
4.3	-0.017901378444589	-0.00339636177358593	0.00304528903210861	0.000797776180949098	0.00305171296276147	0.000789975550548194	0.01139120438393	-0.0019273154746007
4.4	-0.0186162179083591	-0.000806094552364996	0.00312148189709177	0.000363511407881449	0.00312385651204902	0.000361255662051395	0.0112731316962087	-0.00275955718877004
4.5	-0.0191727965421852	0.00188811581057976	0.00314397590262821	-7.40823369437084E-05	0.00314933654238305	-7.74531702284763E-05	0.0112174043484564	-0.0035262260420164
4.6	-0.0192379448072121	0.00511418138782206	0.00310051252653877	-0.000516846714937153	0.00310173647452953	-0.000503933022247196	0.0111516082587433	-0.00442693234582207
4.7	-0.0183802595028706	0.00828372610965143	0.00299536480828541	-0.000935968974096273	0.0030106536138045	-0.000945581866167653	0.010851239642501	-0.0054125925183464
4.8	-0.0169159702434473	0.0111869785084322	0.0028342118454898	-0.00135019576298333	0.00284269155365945	-0.00135628295500552	0.0103978377258422	-0.0062273646705692
4.9	-0.014688810984345	0.0136326954973211	0.00261338023038197	-0.00173424257130375	0.00261754560427655	-0.00173133701126596	0.0100008336193543	-0.00681305135661472
5	-0.0122445420177986	0.0154394130887083	0.00235407234669466	-0.0020894670731419	0.00235769355538986	-0.0020868019283143	0.00993959488323777	-0.00731743063624195
5.1	-0.00911028477619461	0.0170182785913566	0.00204286186938424	-0.00240046900332264	0.00204516241847158	-0.00239911118789126	0.0100201382683688	-0.00807854212883416
5.2	-0.005684311772573	0.01756557659987	0.00168502015827323	-0.00265006511881902	0.00168673320015482	-0.00265520700921083	0.00987787271356368	-0.0089304030417238
5.3	-0.00240557749736808	0.0173108837791021	0.00129839802551347	-0.00286522110549151	0.00130152965667203	-0.00286315876297593	0.00964000230723426	-0.00960521497982233
5.4	0.000531150845575199	0.0164259174356817	0.000873834281480838	-0.00301267867494708	0.000890996650391348	-0.00302388272280279	0.00949271176977981	-0.010360101093702
5.5	0.00275524789973217	0.0152437204743106	0.000459946049865334	-0.00311077272966868	0.00046999702987095	-0.00312019977067514	0.00922193062816167	-0.0113126541486291
5.6	0.00505596653587758	0.0142439352047306	2.14226793297037E-05	-0.00314616458144226	1.28997898340938E-05	-0.00314938149606348	0.00865749867706495	-0.0122739380873166
5.7	0.00732014634501071	0.0125537256836468	-0.000409193978330459	-0.00311548971461514	-0.000425800345970472	-0.00311914867744565	0.00773105483764535	-0.0130500679315804
5.8	0.00916153310521196	0.0102768144368891	-0.00085481192397996	-0.00302058181400073	-0.000858346024571347	-0.00303456578151498	0.00670016497286399	-0.0137363274486295
5.9	0.010409526171965	0.00748495882727715	-0.00125961285413908	-0.00288064706090315	-0.00126784055260481	-0.00288056521396632	0.00549194635910749	-0.0142229948672742
6	0.0103761452699074	0.00416061513057502	-0.00165750757518419	-0.00267388092200329	-0.00165394818865075	-0.00267404779848661	0.00415430047299469	-0.0144354982738628
6.1	0.00930351006484779	0.00169952076700574	-0.00201177339182369	-0.0024198962269275	-0.00201341240754769	-0.00241589410327936	0.0030341356987313	-0.0143425700945822
6.2	0.00800478201261291	-0.000289441699573659	-0.00232458364757328	-0.00210721778621055	-0.00232829006634235	-0.00211908464246114	0.00206549103958185	-0.0142259089711391
6.3	0.00670689356611971	-0.00184472346879391	-0.00260247081935727	-0.00177290805680018	-0.00261159660509593	-0.00176717134070936	0.00133900409006898	-0.0140940175978199
6.4	0.00543773291149518	-0.00341739485719067	-0.00282873273363678	-0.00138214525129901	-0.00281901132345819	-0.00138704695254001	0.00096338201853595	-0.0140493030686284
6.5	0.00363407051011903	-0.00485016349430873	-0.00298491443747441	-0.000977581541117349	-0.00299277315075183	-0.00097310222839103	0.000818130165451294	-0.0143830348423494
6.6	0.00199807430095626	-0.0055597459162113	-0.00309378262032571	-0.000552748057905188	-0.00309541549210174	-0.000556724480590271	0.000502606215134248	-0.015111370286074
6.7	0.000217698345463103	-0.00623623538828761	-0.00314448161184681	-0.000114541254875434	-0.00315333439777956	-0.000108262354246591	-0.000519780448569975	-0.015710570653178
6.8	-0.0018486394151568	-0.00640874397024927	-0.00312277424869058	0.000327109308627407	-0.00313386528627341	0.000332158184493638	-0.0017684146074079	-0.0157484599658292
6.9	-0.0039655705817993	-0.0061431117277036	-0.00304720708565996	0.00076025847199038	-0.00305019324483004	0.000762648927114628	-0.00279302202254858	-0.015394784398631
7	-0.00646706213985537	-0.00527677258767075	-0.00291113159637067	0.00118084075649116	-0.00292396065397788	0.00117864507158937	-0.00352162036343376	-0.0150438368434179
7.1	-0.00832391672410592	-0.00311243808292905	-0.00273313829876907	0.00157017848383641	-0.00272947220526177	0.00157884312556451	-0.00420685126161359	-0.0147579387573468
7.2	-0.00930877061436275	-0.000937360224267365	-0.0024764859151491	0.00193784482251532	-0.00248301427805424	0.00193992521666088	-0.0049920548158604	-0.0144298573744859
7.3	-0.00987172862471657	0.00123304360348857	-0.0021813287058176	0.00225663322691095	-0.00219253975830604	0.00226168765537296	-0.00569040042976899	-0.0140013914967192
7.4	-0.00995103248256717	0.00320184284784753	-0.0018403765897061	0.00253992336105647	-0.0018472593953307	0.00255353190673939	-0.00638562488319033	-0.0135957065032539
7.5	-0.0102531107588628	0.00469224609195973	-0.00147465558255497	0.00277999685698946	-0.00146766055641555	0.00278739227560538	-0.00680228920256969	-0.0131866105653658
7.6	-0.0103898988593998	0.00696891087241442	-0.00106824011272363	0.00295810075184262	-0.00106961586944704	0.00295340419628395	-0.00698501232162087	-0.0130460131681822
7.7	-0.00983557712458523	0.00906563923586591	-0.000640339319744759	0.00307947686667468	-0.000641679568374516	0.00307841535151415	-0.00756263448506335	-0.0134949141969408
7.8	-0.00862276804522663	0.0109627874910588	-0.000214871334756799	0.00312896556659795	-0.00022267853189201	0.0031354237843797	-0.00836702542908633	-0.0135791444879899
7.9	-0.00686439327657562	0.0123749630847882	0.00022641063513737	0.00313658557542658	0.000234353401532588	0.00313808347991662	-0.00901423390909729	-0.013373445661733
8	-0.00512045091399822	0.013555760083103	0.000668350024863864	0.00306410878841875	0.000668432344227905	0.00306900847723983	-0.0095092925925963	-0.0132873131582868
8.1	-0.00235939068499196	0.0147583818052224	0.0010782642239039	0.00294700336452825	0.00109741328556852	0.00294809121580327	-0.0101475000837939	-0.0133109543370459
8.2	0.000642596292030859	0.0148128540088176	0.001483494167869	0.00276688141485733	0.00149274433331803	0.00275968459598111	-0.0110608303291252	-0.0131376792650479
8.3	0.00341171895489719	0.0141431419016476	0.00186083518077386	0.0025280058281018	0.00185919260547699	0.00254156290715048	-0.0119836462873297	-0.0126564052153901
8.4	0.00588250257451346	0.0128729124216972	0.00219733051984213	0.00224975017361579	0.00219429855156542	0.00224952664571388	-0.012798705583792	-0.0119622277157709
8.5	0.00745653234222498	0.0111675334777455	0.00248295319948688	0.00191886905852219	0.00248205682828791	0.00192205427818281	-0.013442465898542	-0.0111562068341753
8.6	0.0091073329607072	0.0100396152600553	0.00272996084977881	0.00155825340819052	0.00273946280867534	0.00155170376036491	-0.0138798614907342	-0.0105117698382749
8.7	0.0109673618310749	0.00812975048115613	0.00291581280388168	0.00115455892471411	0.0029213761078575	0.00115527840415795	-0.0145262113082368	-0.00998099063604
8.8	0.012467900426517	0.00557367834119935	0.00305197388774984	0.00074296453068014	0.00305773761028395	0.000734196472160467	-0.0153538582333474	-0.00932178572743937
8.9	0.0134964897816006	0.00225971450036651	0.00312868560046926	0.000308777395168463	0.00312781262205311	0.000306530467038586	-0.0159386316127907	-0.00822600775309538
9	0.0131293876950135	-0.00164143517016602	0.00313863116147302	-0.000134397174004655	0.00314179225053795	-0.000130296918449958	-0.0159988110368981	-0.00699219988491107
9.1	0.011964587729298	-0.00493201005088328	0.0030917000770319	-0.000576709085443571	0.00309459823990501	-0.000563812560305073	-0.0156508332730372	-0.00607860312893042
9.2	0.0100380542405372	-0.00813975563299566	0.00298127152097823	-0.000994029042527656	0.00298892590560188	-0.000996913046644714	-0.0154211754313593	-0.00542784896233578
9.3	0.00726782797456675	-0.0107591350973957	0.0028123051237266	-0.00139877985075036	0.00281157015502543	-0.00140376893035742	-0.0151308442571342	-0.00470749024135045
9.4	0.00394069203512765	-0.0126956278598865	0.00259004699271506	-0.00178868090621942	0.00259656317280489	-0.00178108878462644	-0.0147151944247264	-0.00405899130360737
9.5	-0.000196790107999619	-0.0135430649661172	0.00231460893130724	-0.00212353097706419	0.0023220191775957	-0.00212488486842641	-0.0142128050092879	-0.00356199165533051
9.6	-0.00382911604882483	-0.012925498352466	0.00199710122115912	-0.00242638417557684	0.00199743172637415	-0.00242540280151024	-0.0139718727630122	-0.00343068225244229
9.7	-0.00704654684697829	-0.0119890244081869	0.00163041690015187	-0.00267666787136128	0.00163594508167057	-0.00268397459148394	-0.0141351789962811	-0.003175994033543
9.8	-0.0101187780030435	-0.0105987554331076	0.00124582146011406	-0.00288581062858434	0.00125152174547953	-0.0028773179505924	-0.0144086932312695	-0.00262361682654024
9.9	-0.012948395799204	-0.00881313351318246	0.000840437833865861	-0.00302567658980537	0.000833108880279804	-0.00302444683162388	-0.0146783289048392	-0.00174752387513899
10	-0.0161907795766817	-0.00653575026411403	0.000409740554480619	-0.00311457444974194	0.000402247272137673	-0.00312700812831723	-0.0146323167980789	-0.000815989864979343
10.1	-0.0186767557175531	-0.00273780894232707	-3.18646534589644E-05	-0.00314640462316235	-4.2091197771808E-05	-0.00314101020865309	-0.0143566589161657	-0.000176969203743376
10.2	-0.0200392863263466	0.00132188595172008	-0.000478549930008923	-0.00311006882922726	-0.000481955072375524	-0.0031072888212054	-0.0142695684067085	0.000423892268983125
10.3	-0.0204809244184523	0.00560662949676343	-0.000911813901673218	-0.00300407811605188	-0.000903729944300246	-0.00301315471452478	-0.0141016755175936	0.00125766839970341
10.4	-0.0199276808836378	0.00964713225391002	-0.00130941107490626	-0.00284833413884205	-0.00130772085050923	-0.0028545290220017	-0.0134518198110398	0.00207056645326444
10.5	-0.0192652788814976	0.01351415220739	-0.0016996889091084	-0.00264898582108206	-0.00169658036945409	-0.00263599462971777	-0.012465545162553	0.00258454766919794
10.6	-0.0175606398925283	0.0179324040389302	-0.00205230780440423	-0.00237930387016217	-0.00205012414238027	-0.002383126004733	-0.0115149464101594	0.00251277301641591
10.7	-0.0148377092390297	0.0219799576167513	-0.00236718355834846	-0.00207694509414969	-0.00236368787112007	-0.00207166884917524	-0.0110078021536159	0.00237719802613571
10.8	-0.0111029764376378	0.0256104091159163	-0.00263561063123679	-0.00171676536056638	-0.00263041958019785	-0.0017256882926399	-0.0107137859880751	0.00239075045036327
10.9	-0.0064929353178961	0.0282774096947905	-0.00284283341535704	-0.00134299759840377	-0.00284801684885852	-0.00134226513651243	-0.0104568217155576	0.00255546980090382
11	-0.00183920443081908	0.0300071263757255	-0.00300226540561064	-0.000927510797311222	-0.00300710838904681	-0.000934246333957577	-0.00998213759097331	0.00278001789879877
11.1	0.00375383251891026	0.0315303574689312	-0.00311044102909881	-0.000502070702304677	-0.00309958734563483	-0.000499217363334477	-0.00938585385430484	0.00268723174779568
11.2	0.0100243556336716	0.0313583270365406	-0.00313913000501929	-6.49101054339594E-05	-0.00314627859719183	-6.97404317997468E-05	-0.00902121536129066	0.00250886299081216
11.3	0.0163287504614093	0.0295768973294314	-0.00311218782018507	0.000382903083285517	-0.00312372096462489	0.000372876502069418	-0.0085942266355078	0.00251551851810861
11.4	0.0219926921133021	0.0262704962867156	-0.00303909962973754	0.000809883702558299	-0.00303418958233677	0.000817443870575448	-0.0081434802560658	0.0025627207285461
11.5	0.0261791315340341	0.0219018603181616	-0.00289617215037042	0.00122595864333697	-0.002898946809439	0.00123622830272277	-0.00762837555780154	0.00236547820944954
11.6	0.0299891938238963	0.0173832999049968	-0.00270148280681128	0.00161533596604858	-0.00270146373577824	0.00161827337306104	-0.00708142079049986	0.00179578733968396
11.7	0.0331741314786692	0.0116862702546536	-0.00244115054934202	0.00196943694475162	-0.00244171544729657	0.00197803424897288	-0.006893399146943	0.00113347328318864
11.8	0.0351355100422535	0.00518610431744763	-0.00214681552534736	0.00230165507227004	-0.00215092822032238	0.0023033511868513	-0.0068174106388462	0.000780186684095097
11.9	0.0357302351263695	-0.00204778819537971	-0.00179815055001735	0.00257853059794284	-0.00181116636531622	0.00258283272780412	-0.00644212056787432	0.000856796395234329
12	0.0336709698120664	-0.00882831735365698	-0.00142444266221704	0.00280143264134335	-0.00142384729481432	0.00280284355006698	-0.00592513460707985	0.000790580338148451
