# GHZ S RI R 50
0.2	0.00585748717498068	0.00126830998211773	0.00304862651931877	-0.00089774272388821	0.00305899532841401	-0.000890932499155955	-0.0141227750023476	0.00489224429719248
0.3	0.00615822640113194	-0.000680682963706447	0.00290456928618853	-0.00132116455118852	0.00289732093378737	-0.00130822536223274	-0.0133402524694931	0.00509197127001173
0.4	0.00590770027553183	-0.00227688004187733	0.00267313276868802	-0.00169303406250279	0.00267840200848274	-0.00170159526052648	-0.0128132482472576	0.0056903073230366
0.5	0.00529028262908039	-0.00368746304305746	0.00241428306207075	-0.00205002718600855	0.00242582337034179	-0.00206226849682443	-0.0121598190770425	0.00626976551788742
0.6	0.0041972317138759	-0.00479961967420825	0.0021016625807917	-0.00236447765589633	0.00210087652284214	-0.00237162819153749	-0.0117423362829175	0.00670876384786351
0.7	0.00288269287746921	-0.00544308144470334	0.00175458952560222	-0.00264232291408617	0.00175263324275548	-0.00264252195263408	-0.0114552086472441	0.00729870744189935
0.8	0.00154140824009905	-0.00576858373752701	0.00136916589803067	-0.0028598750975416	0.00135656405250113	-0.00286442607800704	-0.0111746423742155	0.00802966030336815
0.9	7.37588016569222E-05	-0.00570426900700578	0.000951948070901588	-0.00302361713583141	0.000952983618284116	-0.00303431860484887	-0.0108903357677035	0.00886998899579304
1	-0.0012347634239081	-0.00526264004415247	0.000526861421035924	-0.00312687297248329	0.000516998197958094	-0.00312761299351444	-0.010323049748334	0.00991472676276619
1.1	-0.00254775910009227	-0.0047939586148966	7.14137001956109E-05	-0.00315569822009864	6.79070559417058E-05	-0.00317335153605249	-0.00966102985603388	0.0107472423479755
1.2	-0.00385503115967122	-0.00416890652127481	-0.000370845827035174	-0.00314523439744593	-0.000371657819413415	-0.00314315761158486	-0.00868618787912538	0.0116623891053863
1.3	-0.00512970580828613	-0.00366025586427915	-0.00079814729323757	-0.00306202226370185	-0.000801387974489452	-0.00306402783220137	-0.00701555933578292	0.0122940587707863
1.4	-0.00627990101270451	-0.00309609600948193	-0.00121956145065552	-0.00291360360022489	-0.00121834845235732	-0.00291913768051924	-0.00529181482255437	0.0120795299051366
1.5	-0.00676409839920725	-0.0020474172382488	-0.00162014378226848	-0.00271776385322844	-0.00161853110809982	-0.00272626513584977	-0.00388017830188867	0.0114810611548905
1.6	-0.00682125200306061	-0.000624839321922259	-0.00198101748992191	-0.00246566733068079	-0.00198122819415494	-0.002470902956423	-0.00350657965934517	0.0111619123858791
1.7	-0.00625923905353676	0.000895398335875881	-0.00230973664030777	-0.0021686732943274	-0.00231070251004859	-0.00216241006341709	-0.00303666586839755	0.0113768689263578
1.8	-0.00536637223917122	0.00230996096355499	-0.00258088808789892	-0.00181701715377889	-0.00259185707269134	-0.00182265494129312	-0.00244106670699867	0.0116038601418678
1.9	-0.00420870944002944	0.00342198946843603	-0.00280622305251224	-0.00144626719288529	-0.00281866582814157	-0.00144011241385436	-0.00181963842170301	0.0118900979231598
2	-0.00275988157860888	0.00420566287937598	-0.00298235981460861	-0.00103877617516429	-0.00299198549646257	-0.00103406631041833	-0.00095705497252964	0.0121909078113665
2.1	-0.00136562595852261	0.00445132541373204	-0.00309612410622937	-0.000609677942735774	-0.00309203939448214	-0.000611671100219326	-0.000137370036600916	0.0120965849176376
2.2	1.34123406055287E-05	0.00452368160503907	-0.00315334329086203	-0.000171015585784198	-0.00316465172348253	-0.000173850314668221	0.000724609785234987	0.0120368891638474
2.3	0.00135764339518399	0.00415101044287661	-0.00314856425661177	0.00027266028994558	-0.00314826333699184	0.000265774820630934	0.00153182811823812	0.0117709509565878
2.4	0.002485311336065	0.00352460769528808	-0.0030761081202686	0.00071128140398384	-0.00307865148205409	0.000707022962409611	0.00221630796314474	0.0115798014079221
2.5	0.00351704563631808	0.00270036950428594	-0.00293876185597429	0.00112442395313062	-0.00294965322129119	0.00113081257246925	0.00314247470181421	0.0114684710616038
2.6	0.00435823285461327	0.00149953439128014	-0.00276382895984362	0.00152753510369667	-0.00276027807434371	0.00151520641707403	0.00417270593994046	0.0109175565265918
2.7	0.00499322582561652	0.000206008558382349	-0.00251743596920275	0.00189878076193102	-0.00252271759008163	0.00189879485750598	0.00491003855892982	0.0102596833855822
2.8	0.00549315822409765	-0.00128173117640694	-0.00223401194071879	0.00222626155598594	-0.00222618945177935	0.00223604934884874	0.00544556792829839	0.00971061647981532
2.9	0.00580100418506507	-0.00293547888645367	-0.00189893393832517	0.00252646540228362	-0.00189522402580713	0.00252603548356318	0.00611279884744038	0.00942668555407714
3	0.00585724085721909	-0.0047835440600894	-0.00151145998648394	0.00276117621043761	-0.00152623672826743	0.00276728974423026	0.00718747015297728	0.00912286267028279
3.1	0.00539404942584816	-0.00681346802506556	-0.00112117305802647	0.0029374595072822	-0.00111650958377572	0.00294579901329522	0.00805508527505315	0.00836206294724846
3.2	0.00436671323532606	-0.0086988610075659	-0.000700290050778369	0.00307421006344364	-0.000702035159088573	0.00307360075904898	0.00858049203480801	0.00775204961498544
3.3	0.00287800886769788	-0.0105009569854913	-0.000261423191498581	0.00314333124565931	-0.000259777636377415	0.00313958947052178	0.00916696725362441	0.00708370664821881
3.4	0.000826838302596409	-0.0118974110482457	0.00018567428076587	0.00313618785823035	0.000179485479653787	0.00315275688729094	0.00969822379540448	0.00628821122782247
3.5	-0.00143616711702509	-0.0128753922470114	0.000606680480828385	0.0030922919717939	0.000612274926143268	0.00309236317047681	0.0101958590660485	0.00530505667829644
3.6	-0.00410503620909516	-0.0134447490272947	0.00103500579056362	0.00297308242281844	0.0010431967975656	0.00297275889284448	0.0103239988967717	0.00417451674859703
3.7	-0.006856023566713	-0.0132768396028339	0.00144557379238167	0.00279139501348743	0.00143599991416018	0.00280507737478021	0.0103159533718546	0.00332927526549582
3.8	-0.00951841799368205	-0.0125192352346423	0.00182331436711224	0.00256353866903994	0.00182572595523055	0.00257268488992912	0.0102746173738229	0.00260875133390351
3.9	-0.0118962957040241	-0.0112103527779171	0.00216839077541859	0.00228999423547862	0.00216112585797766	0.00228822091872221	0.0102273384133264	0.00207227317266394
4	-0.0138079113457848	-0.00950925487932579	0.0024529654161263	0.0019691810163017	0.00245741241898878	0.00196674388077176	0.0106155707907756	0.00166736031373181
4.1	-0.0155285728621194	-0.00770157466886785	0.00270504692762851	0.00160829235423195	0.00270379504642972	0.0016090292351979	0.011012693206292	0.000796021658714737
4.2	-0.0169939925993962	-0.00543374113145409	0.00290350807229712	0.00120650479300456	0.00290796528696503	0.0011977862234664	0.0111912215692544	-2.56852428292224E-05
4.3	-0.0180284786189391	-0.00296172567981365	0.00304581850310576	0.000794245713152826	0.00305223285809351	0.000786438787640507	0.0112933501032602	-0.00092002630152919
4.4	-0.0187446556402036	-0.000229987197173327	0.00312174225765753	0.000360182075644963	0.00312411438165547	0.000357923899025789	0.0111928668984215	-0.00168064604742074
4.5	-0.0188231074770047	0.00273306026362097	0.00314419293834832	-7.87360306112172E-05	0.00314954915358171	-8.21151356172597E-05	0.0114277139187029	-0.00229988675684378
4.6	-0.0185181731710596	0.00547380078371819	0.00309835216077292	-0.000521577078110205	0.00309959621062056	-0.000508670899781352	0.0115051682951339	-0.0034964168713372
4.7	-0.0176571989666571	0.00830147402158966	0.00299220961608431	-0.000939679331991925	0.00300747540999369	-0.000949308226959562	0.0111974941948079	-0.00460962167686936
4.8	-0.0162889023764132	0.0109032848155095	0.00283052424557983	-0.00135311486276385	0.00283899016762543	-0.00135920943599793	0.0107260405145141	-0.00557971258310885
4.9	-0.0143125015001179	0.0132171288323838	0.00260918370698998	-0.00173683181524199	0.00261335048665294	-0.00173393411494162	0.0101877566356654	-0.0062619146658151
5	-0.0117505342239815	0.0150287639879519	0.00234805003798785	-0.00209082621782537	0.00235167134860916	-0.00208816989137021	0.0101822409221717	-0.00675713595819922
5.1	-0.00890099240948518	0.0161511910325942	0.00203762538364096	-0.00239956370573045	0.00203992441768433	-0.00239821013155374	0.0100436927122125	-0.00774935186248596
5.2	-0.00592868078328917	0.0167915739578541	0.00168042897832647	-0.00264860319922693	0.00168213494427541	-0.00265374072172136	0.00968408209959578	-0.00846978708038617
5.3	-0.00285671872322804	0.0168012959441353	0.00129393615525545	-0.00286308681965349	0.00129706610453664	-0.00286103012797135	0.00939852754920388	-0.00900704774484622
5.4	3.65241142108838E-05	0.0162373295631975	0.000869389123025257	-0.00300928259232059	0.000886515002275323	-0.00302048874918828	0.00921471339539434	-0.00964829421441498
5.5	0.00277801966249499	0.0151882410268359	0.000457471122854	-0.00310560338434349	0.00046749952776074	-0.00311501941865541	0.00919240515099736	-0.0105554691070533
5.6	0.00486974698022127	0.013540406137995	2.02421247176685E-05	-0.00314209862831108	1.17290921874344E-05	-0.00314530825458545	0.00832148331836969	-0.0118716627433687
5.7	0.00651587098212514	0.0118936097522224	-0.000410169327112072	-0.00311132997072361	-0.000426756326457522	-0.00311497630546072	0.00698240000962362	-0.0124411460907606
5.8	0.00784311114523278	0.00999781989661477	-0.000855063050331572	-0.0030160439743567	-0.000858598893217723	-0.00303000713296353	0.00570151042692469	-0.0127822851878187
5.9	0.00864922397703401	0.00804503820786799	-0.00125847726201725	-0.00287597666302792	-0.00126669255001862	-0.0028758927657031	0.00428232606442054	-0.0127164616713482
6	0.00925961874362289	0.00615189092061378	-0.00165574006675485	-0.00267105142206994	-0.00165218445463711	-0.00267121810880261	0.00340351763863174	-0.0120059656294187
6.1	0.00947464311189057	0.00378142922687412	-0.00201084861529823	-0.00241629831451701	-0.0020124838618208	-0.00241229963378908	0.00309794276970503	-0.0118485194365
6.2	0.00912220604224053	0.00140193530643837	-0.00232240668710495	-0.00210315137271657	-0.00232611383985337	-0.00211499996706698	0.00283339880486816	-0.0119460331445982
6.3	0.00829974533602878	-0.00104450852682379	-0.00259899791973829	-0.00176935912828144	-0.00260810781629537	-0.00176362844736149	0.00250132736140571	-0.0124883916457721
6.4	0.00678944688996446	-0.00328482906757052	-0.0028246657149154	-0.0013799842781647	-0.00281495876056114	-0.00138487929511088	0.00190965753247352	-0.0130049450442366
6.5	0.00507067331986843	-0.00511634820616245	-0.00298151641295784	-0.000975119860463316	-0.00298936330164093	-0.000970643038353944	0.00167046879093258	-0.0136008872372835
6.6	0.00276315849847119	-0.00646929934046672	-0.00308814545718673	-0.000550784134836887	-0.00308977645806275	-0.000554752609639335	0.000804490506284155	-0.014552589555538
6.7	0.000475354990558113	-0.0070066638308118	-0.00313843692046831	-0.000114693941375986	-0.00314727347037675	-0.000108428131897133	-0.000413076146379988	-0.0148967940354489
6.8	-0.00184029475886232	-0.00707671084416038	-0.00311737042580057	0.000325434178644651	-0.00312844363648477	0.000330470235695143	-0.0016801704240852	-0.0148884896826836
6.9	-0.00424229139318996	-0.0065235796246979	-0.00304270511543509	0.000758185463124567	-0.00304568734573416	0.000760571335493997	-0.00287586413585544	-0.0144493764388934
7	-0.00612128306164719	-0.00533556711580138	-0.00290534776176015	0.0011781258173014	-0.00291815052561041	0.00117593319604582	-0.00328332992050044	-0.0139242107685564
7.1	-0.00808885763388715	-0.00405064850198264	-0.00272877553090044	0.00156477158727867	-0.00272512388332287	0.00157342135160172	-0.00418845643349728	-0.0141059602267681
7.2	-0.00972464306469118	-0.00202821635111772	-0.002473924257697	0.00193212150180819	-0.00248044304744315	0.00193419214752767	-0.00531638267509244	-0.0136700398619188
7.3	-0.0109192099626456	0.000243767169726166	-0.00217973129158628	0.00225090237016542	-0.00219092822444322	0.00225593825019924	-0.00621062235621347	-0.0131219781821363
7.4	-0.0118305866235778	0.00274025553044024	-0.00183912627733061	0.00253362453959345	-0.00184600792256986	0.00254720188443185	-0.00725926753298825	-0.0124675596633662
7.5	-0.0120022148454702	0.00564876876383591	-0.0014759926292801	0.00277177507981047	-0.00146902418529462	0.00277916609146702	-0.00750386505237157	-0.0113205111421869
7.6	-0.0114320695794269	0.00808844796221364	-0.00107217291108749	0.00295206910136926	-0.00107353818752432	0.00294737650845869	-0.00733659269805987	-0.0112605948899167
7.7	-0.0104439046524444	0.0104518609830059	-0.000644744623341052	0.00307475531052089	-0.000646081504392821	0.0030736928053785	-0.00762308429552338	-0.0115961037060154
7.8	-0.00872032689742703	0.0122767687682391	-0.000219803561759821	0.00312501525774071	-0.000227612479444884	0.00313145313361543	-0.0081545278105961	-0.0118616612324235
7.9	-0.0066176311021736	0.0136208324714944	0.000220223504452473	0.00313325479897638	0.000228153929754295	0.00313476588966289	-0.0087255734750422	-0.0117799582429179
8	-0.00386642306419183	0.0144583365544946	0.000661420511792501	0.00306407105661204	0.000661492226514944	0.00306896855817582	-0.00893000960329832	-0.0118163514731898
8.1	-0.00139571894857649	0.014553184174107	0.0010735110710624	0.00294747493877771	0.00109265126536032	0.00294859060478141	-0.00991567651078806	-0.0122854943744626
8.2	0.00115437422584506	0.0144205779559242	0.0014785182229197	0.0027671515062713	0.0014877725073567	0.00275997282876386	-0.0110172595471068	-0.0119267696034217
8.3	0.00365833563798789	0.0136995794323893	0.00185519428643734	0.00252910385737014	0.00185353056690841	0.00254264759568403	-0.0119193481785115	-0.0113828280799878
8.4	0.00582956950703984	0.0126192786492516	0.00219168719039592	0.0022529232644581	0.00218865727977077	0.00225269382553583	-0.0128301180329344	-0.0106380062357021
8.5	0.00805818860898641	0.0111884983811379	0.00247976158794278	0.00192231028362117	0.00247886059219139	0.00192549374059321	-0.0131024156859969	-0.00969802837211138
8.6	0.00961321857337059	0.00902363254111448	0.00272559034685883	0.00156147949913062	0.0027350960185019	0.00155494944647066	-0.0137249167945365	-0.00961337185421258
8.7	0.0107501614244304	0.00685602157121772	0.00291180500824528	0.00115967347900686	0.00291736361267112	0.00116040358883317	-0.0147344971735294	-0.00904296205363984
8.8	0.0115374246854634	0.00440353607665873	0.00304950744012176	0.000749395512080255	0.00305528862694057	0.000740642433051543	-0.0157869112425561	-0.00826930208613496
8.9	0.0118162445760589	0.0017101276864436	0.00312844207538595	0.000315138892070406	0.0031275735324354	0.000312889926068372	-0.0166770818727194	-0.00691817061275928
9	0.0117777264698384	-0.00104040031499199	0.0031378303899512	-0.00012882712003877	0.00314098321561193	-0.00012472265453299	-0.0164896303994406	-0.00510460155627409
9.1	0.011036705889577	-0.00419868404746311	0.00309287720516046	-0.000568972041382955	0.0030957430532407	-0.000556069381165834	-0.0159624091675609	-0.00419044186156723
9.2	0.00956539521533164	-0.00709978744044595	0.00298513021285575	-0.000987270734687579	0.00299279531050785	-0.000990137547752239	-0.0154253330727949	-0.00334212852694547
9.3	0.00741269438700501	-0.00980781251297787	0.00281743370999096	-0.00139385535310617	0.00281670881126309	-0.00139884980937114	-0.0147268600229599	-0.00278404874227516
9.4	0.00442691911042782	-0.0119721968044212	0.00259478331370474	-0.00178520229970764	0.00260129007357569	-0.00177759404859746	-0.0142285793462856	-0.00242530752852235
9.5	0.00107471222143261	-0.0132456079201661	0.00232057148682403	-0.00211882689938205	0.00232798782670329	-0.0021201636272409	-0.0134629019660733	-0.0022235435648164
9.6	-0.00297924111283796	-0.0138423314209951	0.00200511955541679	-0.00242474080222857	0.00200544820311437	-0.00242375747178701	-0.0137590050493338	-0.00264203135218741
9.7	-0.00698690805877488	-0.0131405075541231	0.0016376115686471	-0.00267711461016852	0.00164316080767181	-0.0026844205167614	-0.0143723150578721	-0.00224993231832726
9.8	-0.0107472056086609	-0.0116541421830322	0.00125223343290797	-0.00288715704260867	0.00125792610512987	-0.00287864444973942	-0.0149161721195268	-0.00153543330621488
9.9	-0.0142562506765508	-0.00925347118403566	0.00084706322564453	-0.00302713207623228	0.000839724513388562	-0.00302591506405975	-0.0155078820964073	-0.000347179562697751
10	-0.0169647130194073	-0.00604268446891939	0.000417313724649693	-0.00311923581363621	0.000409834374159776	-0.00313170815385743	-0.0151470319326936	0.00113158542697175
10.1	-0.0192172259796251	-0.00256522571494507	-2.74096422846245E-05	-0.00315212655426377	-3.7662372250208E-05	-0.00314673707456506	-0.0148226608936303	0.00164890576998668
10.2	-0.0206514726836049	0.00159828077826496	-0.000474677986923402	-0.00311555239056724	-0.00047809247473106	-0.00311277315820535	-0.0146383657756305	0.00245341807629498
10.3	-0.0211536016616002	0.00596456430377962	-0.000908025173159279	-0.00301051754423931	-0.000899912293540938	-0.00301959462495411	-0.0143049901748814	0.0032490673883703
10.4	-0.0208466561621365	0.0104696835903101	-0.00130658004611038	-0.0028572528102201	-0.00130487364572172	-0.00286345797465884	-0.0137941712357719	0.0041081859868988
10.5	-0.0193082703276866	0.0150781481432534	-0.0017018469809349	-0.00265842597306475	-0.00169874298858981	-0.00264539393542861	-0.0124504486071681	0.00494429625785735
10.6	-0.0169694412602093	0.0191069178095939	-0.00205526036103286	-0.00238626020833894	-0.00205306889113181	-0.00239008949251608	-0.0113581044632874	0.00473928129252407
10.7	-0.0136958052754503	0.0227984315275547	-0.0023710000565846	-0.00208363073669912	-0.00236750049361645	-0.00207833951334536	-0.0105022118028546	0.00455941517621828
10.8	-0.00976795495717833	0.0256554397040419	-0.00264097750370091	-0.00172290148531567	-0.0026357672285639	-0.00173184302393136	-0.0100569854787935	0.00411962895595634
10.9	-0.00554287014225938	0.0279386979984941	-0.00285035378793113	-0.00134736601835872	-0.0028555516803744	-0.00134663275341013	-0.0100985439316818	0.00404652805727187
11	-0.000411944550832383	0.0295599796983656	-0.00300830736413769	-0.000928547463291898	-0.00301316141650738	-0.000935294807500737	-0.00945503147965891	0.00430465911330043
11.1	0.00474724000483867	0.0299461306480703	-0.00311645264774905	-0.000504409931367872	-0.00310557845971608	-0.000501546224594209	-0.0092541004761538	0.00376392527489743
11.2	0.0101747044376939	0.0295207700357576	-0.00314663228071349	-6.59226854592725E-05	-0.00315379667901716	-7.07665348063065E-05	-0.00922899848596115	0.00374544792464454
11.3	0.0156961676604564	0.0278016179466416	-0.0031199778178672	0.000384216197660356	-0.0031315411153976	0.000374165675656569	-0.00897674284474513	0.00385598113886285
11.4	0.0205904745647969	0.0249876659390417	-0.00304524933245049	0.000813349694010708	-0.00304032437095587	0.000820923534921522	-0.00876414973061664	0.00407000599897064
11.5	0.0251286639300938	0.0212591238046051	-0.00290159467604863	0.00122772646167435	-0.00290437593509972	0.00123801424889663	-0.00790110345131882	0.00409951732389677
11.6	0.0285813458131519	0.0163140526084699	-0.00270852090483607	0.00161976171575422	-0.00270850160932129	0.00162270687849813	-0.00765553345322051	0.00319238400472911
11.7	0.0310429103606845	0.0110472235238423	-0.00244628674683213	0.00197608616020404	-0.00244684777162091	0.00198470621659985	-0.00779054932795605	0.00277544552444957
11.8	0.0325343028362668	0.00540240360602307	-0.00214966459820052	0.00230894736310128	-0.00215378524289002	0.00231065117548719	-0.00790260990577295	0.00273776882875768
11.9	0.0329632290192396	-0.00025966595914648	-0.00179966686553638	0.00258472635568859	-0.00181270416601462	0.00258904615154152	-0.00782510712017212	0.00348524569203964
12	0.0328946506695327	-0.00597979713781524	-0.00142686017897933	0.00280952779425675	-0.00142626255732417	0.00281094214755311	-0.00630810682995732	0.00402424567192379
