# GHZ S RI R 50
0.2	0.00602750464588059	0.00143984858563032	0.00304648447458321	-0.000898335293806214	0.00305684964048774	-0.000891532942358586	-0.0138485107625744	0.00515467949561505
0.3	0.00625442582826229	-0.000654668443822648	0.0029017904646885	-0.00132154172478614	0.00289455356094724	-0.00130860876610353	-0.0131484119809796	0.00520813165574976
0.4	0.00598703836849073	-0.00245277053825554	0.0026696107390597	-0.00169280420979135	0.0026748702456354	-0.0017013598393513	-0.0126775556020019	0.00559042804795177
0.5	0.00496598488476425	-0.00385945800571812	0.00241068243113215	-0.00204821954188591	0.00242220479379871	-0.00206044919367598	-0.0125848883043447	0.00620739904756667
0.6	0.00415135617406557	-0.00460672939944366	0.00209881621931014	-0.00236235807260543	0.00209802939902838	-0.00236950057445304	-0.0119550396812745	0.00725075453914631
0.7	0.00307797815019274	-0.00542595760484031	0.00175169146187891	-0.00263965376870528	0.00174973748040207	-0.00263985198875856	-0.0113227610099616	0.00784162245030218
0.8	0.00182694413845525	-0.005902695378074	0.00136658138418995	-0.0028562480179292	0.00135399587871381	-0.00286078966087276	-0.0107925882880468	0.00850961384626774
0.9	0.000535140309265637	-0.00606267913526498	0.000950420305340672	-0.00301897186047801	0.000951454045254912	-0.0030296568426915	-0.010121138448545	0.00907323853821524
1	-0.0010902404123097	-0.00620756218744373	0.000526900880984576	-0.00312275978084555	0.000517050422343164	-0.00312350110365394	-0.00984268859491742	0.00921932269147027
1.1	-0.00273542318470377	-0.00530129190321004	7.11374644762082E-05	-0.00315157117263104	6.76343885404611E-05	-0.00316920117526147	-0.0098044704497877	0.010395106630318
1.2	-0.00381643649326483	-0.00471801704349071	-0.000370146963170228	-0.00314043725734174	-0.000370957799863742	-0.00313836368319627	-0.00881066508911859	0.0113469070816346
1.3	-0.00518843448484844	-0.00434876436498317	-0.000796142574089313	-0.00305735285343624	-0.000799377627004115	-0.00305935601818367	-0.00741241668240091	0.0120185389461997
1.4	-0.00642602262896382	-0.00377641854130422	-0.00121657253891546	-0.00290991635773772	-0.00121535895377452	-0.00291544194453858	-0.00578361063875849	0.0120663195469002
1.5	-0.00723021733654168	-0.00253966456038028	-0.00161784430494346	-0.00271435898501952	-0.00161623309909267	-0.00272284912791651	-0.00471426888885308	0.0119083586602567
1.6	-0.00679249231843748	-0.000828442574816295	-0.00197700820668148	-0.00246142417795986	-0.00197721774887713	-0.00246665020269732	-0.00359406123388698	0.0122238706794674
1.7	-0.00607400058534941	0.00040451923182081	-0.00230426691896726	-0.00216574705957256	-0.00230523414667721	-0.00215949616205755	-0.00261224333045791	0.0121668657907479
1.8	-0.00516642816363864	0.00165035020816687	-0.00257502133211956	-0.00181558304769376	-0.00258596683890946	-0.00182121845375778	-0.00179549561447031	0.0120633381469175
1.9	-0.00401275533054627	0.00247215687290729	-0.00280067220382554	-0.00144565277923527	-0.0028130983159732	-0.00143951603830457	-0.00114076356310346	0.0117817212130962
2	-0.00317567130448305	0.00313568439732625	-0.00297537016113905	-0.00103809372538501	-0.00298497750773312	-0.00103339908259599	-0.00124316206387964	0.0117640662388115
2.1	-0.00164392837192678	0.00393845191843125	-0.00308858421966509	-0.000612204508841766	-0.00308450596616106	-0.000614188207427769	-0.000520228948209534	0.0125716673746603
2.2	-3.09308300419781E-05	0.00394753426757713	-0.00314708916624043	-0.000175114608806495	-0.00315837205307524	-0.000177959800701695	0.000735167792259106	0.0127057871615628
2.3	0.00141830617666047	0.00351943221105196	-0.00314317591422156	0.000267695902965416	-0.00314286578376037	0.000260823489321902	0.00192682059024168	0.0124343394846173
2.4	0.00275190859392937	0.00271769301835404	-0.00307089505052126	0.000705352994785022	-0.00307342703846055	0.000701099498289315	0.00311923572379306	0.0118221679300177
2.5	0.00344368443476215	0.00143931007806863	-0.00293480228400034	0.00111531602549403	-0.00294568398108334	0.00112166598137801	0.00355191452028559	0.0106950937391203
2.6	0.00409931116573748	0.000644948801612447	-0.00276365108249758	0.00151862865588326	-0.0027600751192982	0.0015063260654188	0.0038622178448595	0.0105147803961441
2.7	0.00486333709547099	-0.000601156564269947	-0.00251853879753792	0.00189061904343825	-0.00252381369314347	0.00189062109418364	0.0044516969177037	0.0101307971059376
2.8	0.00548760659915378	-0.0020922863582175	-0.00223633317728833	0.00221810316627818	-0.00222854391279788	0.00222789658681209	0.00501762473205571	0.0098373005827019
2.9	0.00591833924206142	-0.0039659333324697	-0.00190336855725043	0.00251792204643065	-0.00189966235326389	0.00251750288068548	0.0058085970268831	0.00945188309488826
3	0.00555991737441388	-0.00595381333561513	-0.00151943481622816	0.00275511255235856	-0.00153422380586939	0.00276117668679801	0.00618099006407798	0.00912941811902843
3.1	0.00527702198652465	-0.00763336230601113	-0.00112813764068677	0.00293379311699382	-0.0011234962895519	0.00294214171490609	0.00714665710204802	0.00929508532002427
3.2	0.00439163531901785	-0.00963637934499204	-0.000707961588815614	0.00307097904957828	-0.000709704312400358	0.00307036548750715	0.00808163905385774	0.00893775665333705
3.3	0.00296340105123641	-0.0115005115522708	-0.00027038205296239	0.00314160890483433	-0.000268726245345274	0.00313787301729578	0.00906436567422901	0.00837411294079701
3.4	0.00103775106017474	-0.0130757159457548	0.00017597581224034	0.00313752071427508	0.000169734044058537	0.0031540745107072	0.0100299922346087	0.00732687677850347
3.5	-0.00163996047917404	-0.0142290914268078	0.000600004583958476	0.00309618999007261	0.000605603373331091	0.00309627420852552	0.0100268824869472	0.00599890869449793
3.6	-0.00407871397966081	-0.0143278677344471	0.00102848454558509	0.00297586341826709	0.00103667753461245	0.00297555824205138	0.0103749946021047	0.00568949120187789
3.7	-0.0064930299025765	-0.0143771995533359	0.00143883005708443	0.00279604648839953	0.0014292176687708	0.00280970857677508	0.0111466080643315	0.00478846092196902
3.8	-0.00904840542156398	-0.0139109947836039	0.00181796389857524	0.00257006374422762	0.00182035351333067	0.0025792226501438	0.01168070581125	0.00354899763265574
3.9	-0.0114322173202261	-0.0130358002153706	0.00216569493761658	0.0022970440412846	0.00215842632409269	0.00229525321307423	0.0118475135720767	0.0019666247399398
4	-0.0140807777395177	-0.0116137550083186	0.00245015983654003	0.00197391906876004	0.00245461216307335	0.00197148903665312	0.0109253444979125	0.000662769898071365
4.1	-0.0158400159775045	-0.00921254925363941	0.00270158875808602	0.00161594833529432	0.00270033454823237	0.00161668211558228	0.0106906432664685	0.000718322651554482
4.2	-0.0171135254033081	-0.00694536056980971	0.00290262326157584	0.00121522347867523	0.00290710732743313	0.00120650979262606	0.0110440276571629	0.000226096189095823
4.3	-0.0180716836773411	-0.00452798477568403	0.00304684428728646	0.000802515818083993	0.00305328412346636	0.000794717035154596	0.0113442764798067	-0.000632993127015355
4.4	-0.0186581076103115	-0.00201813731004589	0.00312312314023287	0.00036756437218227	0.00312550209472492	0.000365310018169797	0.0114389510348993	-0.00182605758063296
4.5	-0.0193200130658396	0.000609653277625596	0.00314591731310639	-6.82784995071087E-05	0.00315128729638517	-7.16412982879956E-05	0.0105549222341019	-0.00306158164425537
4.6	-0.0191015151976139	0.00396193787857381	0.00310558056115855	-0.000511829453242975	0.00310678237888537	-0.000498896360550748	0.0100023997040927	-0.00311301109813933
4.7	-0.0180846716267533	0.00686687774526379	0.00300127590778041	-0.000932739662040123	0.00301660235051791	-0.00094234328083837	0.00986471495751635	-0.00357781623905511
4.8	-0.0166402728233641	0.00957583986006911	0.0028404116696791	-0.00134816204797159	0.00284891286368678	-0.00135424623531849	0.00971861165453788	-0.00405306863984342
4.9	-0.0144523389102869	0.0118440788022461	0.00262021678029072	-0.00173270584085246	0.00262438390280085	-0.00172978907019629	0.00973238486499248	-0.00469971349773193
5	-0.0122550458563436	0.0136027588845916	0.00236312563942573	-0.00209046328271229	0.00236675094079779	-0.00208778578809062	0.00926368371487339	-0.00530707887356916
5.1	-0.0089188115678504	0.0152027555676936	0.00204993962636462	-0.00240458749589117	0.00205224464043963	-0.00240322436754559	0.00974975171569164	-0.00527141526342684
5.2	-0.00557605075786856	0.0154663302951031	0.001690714043318	-0.00265491738143514	0.00169243458955208	-0.00266006977759397	0.010411603348098	-0.00627888010846795
5.3	-0.00251824988209584	0.0151456505851511	0.00130336319603414	-0.00287102940421141	0.00130650074100031	-0.00286896013405427	0.0105597918721215	-0.00754296465788414
5.4	0.000293303261498271	0.0143003612160957	0.00087795058628149	-0.00302029046855257	0.000895165772924752	-0.00303151469494305	0.0103066835350024	-0.00912196482949984
5.5	0.00229676556661118	0.0133352798935099	0.000460235956841833	-0.00311999510463279	0.00047031304840035	-0.00312945301769366	0.00866520435499234	-0.0102646380311989
5.6	0.00506086428348315	0.012494083590642	1.98644212577932E-05	-0.00315313214741952	1.13210444849349E-05	-0.0031563518255795	0.00813170236414566	-0.00985248745623948
5.7	0.00740403658893508	0.0104489160258873	-0.000411363680021683	-0.00312205987850274	-0.000428007476651711	-0.00312571990857523	0.00808501927923414	-0.010334774541733
5.8	0.00907596823047014	0.00802506367936942	-0.000858377256939405	-0.00302696687458971	-0.000861926904496138	-0.00304098063036136	0.0078986931935358	-0.0113227585462752
5.9	0.0102069781374509	0.00518587295880969	-0.00126541069202964	-0.00288605198409625	-0.0012736573474911	-0.00288596171291241	0.00743096755180632	-0.0129799751743888
6	0.00974551631265376	0.00186975315184984	-0.00166341845404434	-0.00267562165801052	-0.00165985408834702	-0.00267579342461518	0.0049023134461642	-0.0151065208263169
6.1	0.00882179137342524	-9.12676529701686E-05	-0.00201628223006856	-0.00242214379487538	-0.00201792106563803	-0.00241813474999797	0.00211629144227212	-0.014603423770101
6.2	0.00770800986749348	-0.00212227081109284	-0.00233020865908335	-0.00210914595109391	-0.00233393041691796	-0.00212103069260669	0.000385937340513641	-0.0138427464450924
6.3	0.00648685378459022	-0.00369081355002341	-0.00260882486748824	-0.00177336105050866	-0.00261796077586622	-0.00176760502053593	-0.000593358105623191	-0.0128807850139729
6.4	0.00533178608482294	-0.0053926955472608	-0.00283432336140673	-0.00138048759908649	-0.00282459482830981	-0.00138540816494491	-0.000764463310641368	-0.0125329442043551
6.5	0.0034294685448042	-0.00680130692822114	-0.00298878928397473	-0.000977074003807081	-0.00299665440789219	-0.000972585440306418	-0.00169545089412065	-0.0122868368006997
6.6	0.00220844257105631	-0.00772560259248711	-0.00309995416263341	-0.000551541309588337	-0.00310159295720154	-0.000555523969227592	-0.00113248896789471	-0.011588536149736
6.7	0.000226374888024598	-0.00877727014362537	-0.00315027188140001	-0.000111012910258486	-0.00315913312938541	-0.000104712205666452	-0.00113277034243465	-0.0121019944582634
6.8	-0.00203753266975858	-0.0089241013664061	-0.00312708567273754	0.000331827439824495	-0.00313818676996391	0.000336898990030864	-0.00167127523192553	-0.0123254062891473
6.9	-0.00413154357965113	-0.00865032767626473	-0.00305031137484261	0.00076455066318339	-0.00305329878794902	0.000766947447047992	-0.0022174175694839	-0.0127591152810918
7	-0.00686214276038582	-0.00765224244906093	-0.00291606031872542	0.00118611070957533	-0.00292891823564327	0.00118392282522419	-0.00432978649212478	-0.0128631782829871
7.1	-0.00815279731822417	-0.00537682233216398	-0.00273550600078831	0.00157841378511006	-0.00273181636118083	0.00158708841378441	-0.00488818611079095	-0.01087456283011
7.2	-0.00910257027267803	-0.00373646904705536	-0.00247637805652375	0.00194577216937262	-0.00248291221096728	0.00194786883870308	-0.00443496140909994	-0.0100564168480092
7.3	-0.01001300492278	-0.00181097657215203	-0.00218000303030907	0.00226399390998628	-0.00219121992260616	0.00226907705591813	-0.0037684113956101	-0.00979257903928529
7.4	-0.0104007459709807	0.000132152528524215	-0.00183852825014301	0.00254773223854694	-0.00184539617917541	0.00256137685250241	-0.00289879330962546	-0.0106817955738082
7.5	-0.0112855981334478	0.00177634442766499	-0.00146888642711717	0.00278928064083627	-0.00146185697920875	0.00279666798098001	-0.0038781087932831	-0.0128798253512791
7.6	-0.0112053452421091	0.00473586572390199	-0.00105984919636638	0.00296340561250897	-0.00106124036489352	0.00295871010249943	-0.00510891292971418	-0.0129146559895517
7.7	-0.0104850976842928	0.00685724029799013	-0.000631937779367677	0.00308265293780299	-0.000633281618424516	0.00308159473091137	-0.00622335118334163	-0.0138356484613485
7.8	-0.00909528349169291	0.00882285254866972	-0.000206127856504132	0.00313082155149868	-0.000213919947992042	0.00313730437886624	-0.00776449923913612	-0.0142627168857348
7.9	-0.0069857938007437	0.0101854638434744	0.000236592528908111	0.00313683437371275	0.000244542602246324	0.00313830714088228	-0.00952767325582612	-0.0143889907221041
8	-0.0052916840658946	0.0113494168587472	0.000678207684208553	0.00305920625547825	0.000678306612310595	0.00306410146279406	-0.0124028545745359	-0.0133462440329634
8.1	-0.00187234493379719	0.0122147765082923	0.00108448626265392	0.00294149204318454	0.00110361946911364	0.00294253162925152	-0.012757581220542	-0.0109455319873061
8.2	0.000987474944405615	0.0116987581465211	0.00148905111264046	0.00276121326423962	0.00149827692987797	0.00275399955616062	-0.0127605929724365	-0.0099056495448076
8.3	0.00346859193473963	0.0108631130675229	0.00186578382650191	0.00252103790812664	0.00186417770446732	0.0025345876681242	-0.0128760768372283	-0.00912742047246371
8.4	0.00580955766473929	0.00953909740151827	0.00220021495765113	0.00224056937532531	0.00219718677588117	0.00224035434521825	-0.0130269588856984	-0.00894902012154086
8.5	0.00702272411378063	0.00794422498912345	0.00248154163358363	0.00191143162585211	0.00248065197780607	0.00191461252990727	-0.0150218418271573	-0.00856864822526977
8.6	0.00912595170650538	0.00694984951604302	0.00272977845167425	0.0015521786977046	0.00273926002441586	0.00154561998007416	-0.0154258370788583	-0.00595722639167834
8.7	0.0109267215821151	0.00450941195525263	0.00291472959689357	0.00114745922866286	0.00292028790040878	0.00114816687477416	-0.0147130009584172	-0.00469626740857387
8.8	0.0119557580139331	0.00173858322007746	0.00304880050966238	0.000735827814400966	0.00305453821616562	0.000727061728149005	-0.014020205239981	-0.00415217444622315
8.9	0.012545530373204	-0.00147589080343192	0.00312341485311026	0.000303652227034126	0.00312254019570657	0.000301410679845216	-0.0131911516155722	-0.00439651214849437
9	0.0116827381502935	-0.00501305552480934	0.00313547944647285	-0.00013799109347447	0.00313864238399553	-0.000133898495609125	-0.014073267411929	-0.00510931016511209
9.1	0.0107645914673907	-0.00779316825964235	0.00308663215290582	-0.000582174253643742	0.00308955248959239	-0.00056929985517469	-0.0143963884355288	-0.00413532283706171
9.2	0.00892300727183539	-0.0108999717671893	0.00297406054888455	-0.000997634514321441	0.00298169581762186	-0.00100052717333249	-0.0145658449965288	-0.00385892251038279
9.3	0.00628038802410233	-0.0132467946228441	0.00280487135647237	-0.00139994779435411	0.00280413090439939	-0.00140492610861163	-0.0149397936378998	-0.00324150937962405
9.4	0.00334621460681151	-0.0150454626224708	0.00258427998489561	-0.00178870827885128	0.00259079433250804	-0.00178113439671021	-0.0151829338215742	-0.00271844794115147
9.5	-0.000508112143617191	-0.0157147565627111	0.00230717767646253	-0.00212536876432298	0.00231457518662857	-0.00212673587763837	-0.0164281607709952	-0.00150267534339978
9.6	-0.00326652049771035	-0.0153879990124456	0.00198796702307847	-0.00242419557738166	0.00198829850800751	-0.00242321713942484	-0.0156976291563872	0.000867836121451772
9.7	-0.00642390708620792	-0.0152056224051219	0.00162299897504522	-0.00267221451085968	0.00162850427284542	-0.00267951045603617	-0.0144936173821061	0.00176677274374674
9.8	-0.00979476359325632	-0.0141820567467479	0.00123978277789609	-0.00288062172305156	0.00124547950592644	-0.00287215470825747	-0.0134592374544584	0.00217664538180701
9.9	-0.0128938155520379	-0.0124656337679038	0.000834158666935469	-0.0030202550712213	0.000826847627821108	-0.00301901728321286	-0.0126563932134719	0.00176151122036136
10	-0.0165104277824496	-0.0100131218755332	0.000403620617699314	-0.00310461381295644	0.000396133922191013	-0.00311699387047243	-0.0138870961100984	0.00129585927044116
10.1	-0.018564752139369	-0.00607395798197028	-3.29569911369699E-05	-0.00313598965841212	-4.31476706265941E-05	-0.00313060918657234	-0.0139909180654364	0.00289330458124643
10.2	-0.0199838898537135	-0.0023934235353785	-0.000478017349064868	-0.00310071154980545	-0.000481411603663963	-0.00309793881381233	-0.013320918408136	0.0035425174877896
10.3	-0.0207074683897466	0.0018448404612687	-0.000910257318673576	-0.00299455954414326	-0.000902201665888104	-0.00300361178530596	-0.0125743914098191	0.00388244574494413
10.4	-0.0202496640364495	0.00599801924027146	-0.00130556336550329	-0.00283719136380472	-0.00130388175529049	-0.00284336368896812	-0.0116547744851032	0.0032022548150473
10.5	-0.0197175211689008	0.0101033700741445	-0.00168961471161841	-0.00264018784600243	-0.00168653424546565	-0.00262724599219952	-0.0128531867815213	0.00244649962445479
10.6	-0.0175151329837097	0.0145323880178644	-0.00204268329181843	-0.00237506353469325	-0.00204050073371065	-0.00237887097603777	-0.0132679086927266	0.00344966198887731
10.7	-0.014810512407377	0.0182787295837744	-0.002357509623666	-0.00207416013083721	-0.0023540312287225	-0.00206889438776363	-0.0135275629584754	0.00427267441497074
10.8	-0.0111055723173917	0.021881717423292	-0.00262509765671737	-0.00171582007579792	-0.00261990796416384	-0.00172470839271396	-0.0133432874332418	0.00555451543451601
10.9	-0.00635491808738999	0.0244550877443628	-0.00283140839292894	-0.00134559224258635	-0.00283657830610793	-0.00134487384271003	-0.0125876656636435	0.0061222746619984
11	-0.00177893623303597	0.0261635013997257	-0.00299531084018952	-0.000933898322954929	-0.00300012900694764	-0.000940636228376431	-0.0133422163527161	0.0067888608792259
11.1	0.00432567137489954	0.0273272126786505	-0.00310471968953111	-0.0005064696516453	-0.00309388780745821	-0.000503602692044591	-0.0121348926454918	0.00909344518177009
11.2	0.0102647000339502	0.0263903638205155	-0.00313313526120041	-7.0516158638276E-05	-0.00314026165833932	-7.53504857511786E-05	-0.0100347284275499	0.00981717101339984
11.3	0.0157781669362832	0.0244002378379935	-0.00310759395328711	0.000375280760500247	-0.00311908450710998	0.000365245972760031	-0.00778406300100639	0.00973997654529335
11.4	0.0208374394131229	0.0212996793737805	-0.00303802924781228	0.000801423563821381	-0.0030331432037161	0.000808988340953715	-0.00582932145543033	0.00858136011905881
11.5	0.0244764927339147	0.0174206192945014	-0.00289577917213779	0.00122122705794451	-0.00289856561279844	0.00123148580362101	-0.00608657695178777	0.00730051309476866
11.6	0.0285067727493027	0.0133714347916441	-0.00269965615757071	0.00160843066225724	-0.00269964177350457	0.00161136332930059	-0.00487774840598822	0.00752815775955042
11.7	0.0315702159322027	0.0078474738896594	-0.00244173743519511	0.00196143583759388	-0.00244231958949445	0.00197001943536821	-0.00322372972430033	0.00612971434413717
11.8	0.0334946666440012	0.00183371739880786	-0.00214973020755312	0.00229456215424851	-0.00215384247834034	0.00229624743832251	-0.00217920004357723	0.00399766064709404
11.9	0.0345663859337366	-0.00497260610179835	-0.00180116368068608	0.00257384501581752	-0.0018141777692889	0.00257812291442544	-0.00198216320064988	0.00100536029546745
12	0.0326156300358009	-0.0113270492645713	-0.0014258529975797	0.00279405031568907	-0.00142526082215261	0.00279545942925253	-0.00518268413783491	-0.00053479816822153
