# GHZ S RI R 50
0.2	0.00580732259701017	0.000526517256278222	0.00305199374754175	-0.000896869226397437	0.00306236845631655	-0.000890046771533596	-0.0140981703926929	0.00423263047359249
0.3	0.00616446973338886	-0.00122997797515957	0.00290886367817784	-0.00132071370692196	0.0029015979962081	-0.00130776439499989	-0.0132783231927055	0.00462557708901957
0.4	0.0059435855811139	-0.00264742080429021	0.00267828158433772	-0.00169354549144311	0.00268356480837695	-0.00170211533066777	-0.0127753113221776	0.00539516106947283
0.5	0.00571412260525236	-0.00417934035287863	0.00241948013959016	-0.00205229541702695	0.00243104655055919	-0.00206455175669609	-0.0119026702454367	0.00590870702873961
0.6	0.00426938492427792	-0.00575109046884295	0.00210628523366208	-0.00236738337972664	0.00210550131923968	-0.00237454614477341	-0.0118988307009053	0.00614515445931892
0.7	0.0025964101169425	-0.00628187156240827	0.00175918714681067	-0.00264622936042448	0.00175722739290945	-0.00264642979227475	-0.0118627035289385	0.00704027081601708
0.8	0.00105270662585239	-0.00643349254870384	0.00137320376989166	-0.00286507288506451	0.00136057836739187	-0.00286963865161014	-0.0116155822422445	0.00804995432814895
0.9	-0.000574772515049183	-0.00603275045636786	0.000954707949874375	-0.00302988236755579	0.000955748255605493	-0.00304060656398417	-0.0112592295943735	0.00918464201722573
1	-0.00134006214681049	-0.00516339278184295	0.000528475949089786	-0.00313298317193676	0.000518593284670494	-0.00313372645607753	-0.0101054589209976	0.0103271105317736
1.1	-0.00232325617170738	-0.00545390812885322	7.27157851977787E-05	-0.00316272228128941	6.92076985288776E-05	-0.00318041630490472	-0.00943141620639264	0.0103071155960055
1.2	-0.00403018475126391	-0.00540528303171272	-0.000371174387507259	-0.00315315387817596	-0.000371988800410076	-0.00315107206373469	-0.00906424787513802	0.0107343490133053
1.3	-0.00597216957301586	-0.00527885634495739	-0.000800283039013387	-0.00307000474661615	-0.000803532216505163	-0.00307201549778389	-0.00822898453338637	0.0111852444818794
1.4	-0.00764314263623074	-0.00445826217186607	-0.00122312829862831	-0.00292102313710033	-0.00122191288850305	-0.00292657178542808	-0.00701085780695841	0.0115004392122164
1.5	-0.00782980797315598	-0.00323842333610562	-0.00162471408816737	-0.00272548656511742	-0.00162309676311405	-0.00273401194405712	-0.00532528799778614	0.0113175543250468
1.6	-0.00805863975530315	-0.00165129698970026	-0.00198836839796651	-0.00247283967301188	-0.00198858183116098	-0.00247809209283249	-0.00483605497263486	0.0115530179292399
1.7	-0.00732585682895939	0.000306958399833665	-0.00231878191223734	-0.00217393863086221	-0.0023197462397428	-0.00216765452214448	-0.00381080015032578	0.0121983529549745
1.8	-0.00614984302702853	0.00201133606296831	-0.00259087294818056	-0.00182043630110126	-0.00260188241970809	-0.00182608192780779	-0.00272133850787069	0.0125305052979831
1.9	-0.00457160361982526	0.00338485155071366	-0.00281707668470781	-0.00144819461859239	-0.00282955461198078	-0.00144200646451434	-0.00164376527721203	0.012781847154084
2	-0.00240148658853623	0.00384087047707712	-0.00299503452032955	-0.00103820350867784	-0.00300468908628672	-0.00103346171867544	-0.000428186719826322	0.0125525852591844
2.1	-0.0012436453200809	0.00353422227003477	-0.00310812490161191	-0.000605298832218514	-0.00310403022187677	-0.000607307455418629	-8.45646734781896E-05	0.0122629888383768
2.2	-0.00010783633756728	0.00359898023001289	-0.00316406362844056	-0.000164300358546901	-0.00317541563121924	-0.000167118279586932	0.000702992191285581	0.0124623054969836
2.3	0.00109950667918111	0.00334293920658593	-0.00315803330742615	0.000281534722809993	-0.00315774889941944	0.000274626267994286	0.00166914125774871	0.0123643569948077
2.4	0.00225885008074018	0.00303074664104864	-0.0030840398011611	0.000722635991117473	-0.00308660395970916	0.000718371148537499	0.00270222796191797	0.0122290005078492
2.5	0.00397490896070125	0.00221994380549845	-0.00294304445488854	0.00113816446227338	-0.00295394371246084	0.00114461029572104	0.00416692349443912	0.0115397911336339
2.6	0.00485221536531717	0.000319211754086801	-0.00276498510052664	0.00154086545005049	-0.00276146919244989	0.00152849514819413	0.00467790574808389	0.0102486154603174
2.7	0.00518440022016011	-0.0012548973688049	-0.00251626139898228	0.00191226573260545	-0.00252155499920503	0.00191229907784679	0.0048268703132594	0.00954986806580561
2.8	0.00541865801096675	-0.00277625371886219	-0.00222998210362268	0.00223973493123417	-0.00222210466030893	0.00224951265445979	0.00500970439888366	0.00924214672246751
2.9	0.00567156153141364	-0.00429729485056742	-0.00189130253844266	0.00253890966208824	-0.00188758817819992	0.00253846307662089	0.00564120957439246	0.00921640897825463
3	0.00594127147584719	-0.00641259133577262	-0.00150163888609036	0.00277018569659401	-0.00151640545620421	0.00277636616908665	0.00664260392715418	0.00874809354364485
3.1	0.00501025359954697	-0.00867005559678814	-0.00111077477211362	0.00294519228357573	-0.00110607300119577	0.00295352261778882	0.00694856995306632	0.0083410310480761
3.2	0.00367359978729063	-0.0103579785379078	-0.000688097590833825	0.00308005391357204	-0.000689846902140715	0.00307945132953994	0.00747619749275007	0.00832240358183846
3.3	0.00202884893158263	-0.0118478573092008	-0.000248068838213366	0.00314636295941261	-0.000246438370018347	0.00314261183901739	0.00827553116612511	0.00811307690188626
3.4	0.000103310906283312	-0.0127922014201491	0.000198770790721171	0.00313603592948659	0.000192649760484449	0.00315263401219344	0.0092578098535243	0.00765051416602301
3.5	-0.00160087320627738	-0.0138586478842465	0.000618795556184679	0.00309122720617289	0.000624392560561014	0.00309127696430973	0.0101980203625149	0.00638023887030102
3.6	-0.00443574446322431	-0.0146971883211295	0.00104844101060578	0.00296982106807903	0.00105663408237748	0.00296946159702657	0.0101582017710524	0.00534221874331404
3.7	-0.00727958700699991	-0.0144267399682071	0.00145831754097316	0.00278487214146063	0.00144880576679546	0.00279859840008138	0.01051758637666	0.00472619295209857
3.8	-0.00990843725702002	-0.0135182409137959	0.00183445572746514	0.00255450955975779	0.00183690823743988	0.00256364219115394	0.0109729370722331	0.00388281471265132
3.9	-0.0120340550527271	-0.0120223798992978	0.00217788290757522	0.00227947533162394	0.00217061260842003	0.00227773517794074	0.0113692112698688	0.00288099499378676
4	-0.0134563592527446	-0.0107216046299148	0.00246218279367332	0.00195613686677567	0.00246661606222668	0.00195367795105764	0.0116476328933983	0.00142606093994712
4.1	-0.0155458108401546	-0.00928214293974193	0.00271034787133994	0.0015919913051908	0.00270910140662577	0.00159273395384658	0.0110236044805598	0.000484895764399641
4.2	-0.0172088439153831	-0.00690664007245146	0.00290483027411272	0.00118961277078872	0.00290923536987195	0.00118088595699266	0.0109347720013126	0.000106636116730526
4.3	-0.0182735281099767	-0.00426332602399596	0.0030438299370919	0.0007773671409362	0.00305019242850978	0.000769543291221529	0.0110877381578264	-0.000529984734142015
4.4	-0.0187636928380374	-0.00125431387327969	0.00311671191786563	0.000343163753445441	0.00311906706276167	0.000340898242925815	0.0112445563778331	-0.00122746193616757
4.5	-0.0181903681414257	0.00135159864345762	0.00313364215001664	-9.54909757602636E-05	0.00313896283807504	-9.88881738332029E-05	0.0115121751851514	-0.00251706688577633
4.6	-0.0182053535635307	0.00350656544417613	0.00308432806681133	-0.000533837818340352	0.00308562667447139	-0.000520985796011646	0.010619436050986	-0.00366810961098343
4.7	-0.0176986350405149	0.0062772985810823	0.00297668217273921	-0.000948872476132635	0.0029918480555162	-0.000958529682292897	0.00995125692865091	-0.00417950512727837
4.8	-0.0165830939696678	0.009054078891269	0.00281329257427561	-0.00135943424738712	0.00282169838631871	-0.00136553935419333	0.00947647407970056	-0.00453404868329555
4.9	-0.014534564170577	0.0117514752485213	0.00258984072251073	-0.00173947395455614	0.00259399998541102	-0.00173660695915983	0.00934604980262865	-0.00470733128735877
5	-0.0114947207041463	0.0132998591742226	0.00232891898254496	-0.0020872169846602	0.0023325295435924	-0.00208458630657376	0.0096821532105931	-0.00544843397984366
5.1	-0.00894135415664189	0.0141921900662301	0.00202091898352517	-0.00239336659381847	0.00202321042108739	-0.00239202607120954	0.00943965458100107	-0.00601924049418474
5.2	-0.00604946539035436	0.0148614059519174	0.00166471117356693	-0.00263954273261718	0.00166639461135006	-0.00264465851109226	0.00971537144028098	-0.00658582028004222
5.3	-0.00305917234319127	0.0149117435422377	0.0012800503501666	-0.002850506656948	0.00128316807397818	-0.00284846865712676	0.00984421093429969	-0.00746159995221734
5.4	-2.96689795414488E-05	0.0146251249554097	0.000859203378052602	-0.00299335077446322	0.000876210928096483	-0.00300452138508298	0.00985016038122307	-0.00846591035416421
5.5	0.00318157522270603	0.013121473751985	0.000451773805108183	-0.00308997312969019	0.000461740082659849	-0.00309935101959578	0.00945683559020312	-0.0101497954287261
5.6	0.0048409708359902	0.0112965745274263	1.56396105169337E-05	-0.00312561886794945	7.16671290510557E-06	-0.00312879944908348	0.00783624825542651	-0.0107050179009436
5.7	0.00641214649210325	0.00979365216909319	-0.00041142749717536	-0.0030932811074744	-0.000427924978479904	-0.00309688778105135	0.00707470666944321	-0.0106310131236575
5.8	0.00777524560091543	0.00803825828316291	-0.000851971967580574	-0.00299794218762246	-0.000855495962669825	-0.0030118218065476	0.00664788522547544	-0.0109620158013525
5.9	0.00891501349065061	0.00636023594864738	-0.00125167728932824	-0.00285986263012208	-0.00125984680515112	-0.00285977859784289	0.00625533227428792	-0.0115148312413042
6	0.0104462410906983	0.00373731592313117	-0.00164814233746233	-0.002655923596939	-0.00164460588285942	-0.00265609110086667	0.005707085541363	-0.0130609026338246
6.1	0.00992518454615892	0.000252541282028145	-0.00199864618157894	-0.00240136919049636	-0.00200027118232214	-0.00239739494658201	0.00325533377944463	-0.0140949591294515
6.2	0.00851475884291758	-0.00220190842966293	-0.00230682370004993	-0.00209181103993832	-0.00231050041123408	-0.00210358959774273	0.00120284318786051	-0.013748463761759
6.3	0.00698797074628605	-0.0039893790189145	-0.00258183373381975	-0.0017618198665943	-0.00259089647383194	-0.00175613270912913	-7.60876185733447E-05	-0.0130075289764312
6.4	0.00576626866290194	-0.00533318585788916	-0.00280730077425102	-0.00137523348113444	-0.0027976432128531	-0.00138009060073446	-0.00032677237790026	-0.0123136917288878
6.5	0.00472576522862719	-0.00757902325311821	-0.00296122944099324	-0.000972358276647214	-0.00296903120353413	-0.000967919406607966	-0.000435095458280325	-0.0128962182195023
6.6	0.00212934066620162	-0.00905241920049178	-0.00306749963758414	-0.000554412834619231	-0.00306911129659336	-0.000558360144256309	-0.00124815944545543	-0.0126877751322187
6.7	-0.000304417583546923	-0.00951488650987386	-0.00311968550202165	-0.00012217994196456	-0.00312848638743882	-0.00011597394986711	-0.00167191884340186	-0.0125913037540076
6.8	-0.00273958605071213	-0.00919164690820947	-0.00310019321942393	0.000315044989586941	-0.00311121599882509	0.000320021658677805	-0.00235955480868365	-0.0123435761534463
6.9	-0.00458002417463417	-0.0079836550167777	-0.00302616132541973	0.000744509733223133	-0.00302913219708104	0.000746872059750851	-0.0026278702223691	-0.0118540541575747
7	-0.00548291255351008	-0.00755700673223816	-0.00289219978124809	0.0011579935032457	-0.002904912301604	0.00115575868323117	-0.00296640501468868	-0.0125569915091389
7.1	-0.00790847907737542	-0.00670443041464204	-0.00272181453499143	0.00154355911044241	-0.00271822322640878	0.00155218059568433	-0.004687907471319	-0.0119031863068631
7.2	-0.00972459891723771	-0.00470763046003808	-0.00247086582091208	0.00191028993230894	-0.00247736180684253	0.00191231830162724	-0.00504907435056885	-0.0106651692022804
7.3	-0.0111195934850981	-0.00227628135138083	-0.00218090342917854	0.00222821357415574	-0.00219207175233905	0.00223316515735487	-0.00479381514930797	-0.00986177631913988
7.4	-0.0117777007069507	0.000863788635966198	-0.00184615932473448	0.00251043300732185	-0.00185309256287428	0.00252390441994186	-0.00408796967452647	-0.00953807874954343
7.5	-0.0107287703710856	0.00322511514385529	-0.00148957161143325	0.00275320564511298	-0.0014826741277682	0.00276061906637872	-0.00308322187301901	-0.0110954883550936
7.6	-0.0106354002252537	0.00467824818509059	-0.00108653184212023	0.00293699009689294	-0.00108786523232719	0.00293230325186769	-0.00423730501036993	-0.0127444601208029
7.7	-0.0101885692125397	0.00677066108942268	-0.000661848034723078	0.00306171720827988	-0.000663174413094466	0.00306064956981463	-0.00567019844579243	-0.0137109930840091
7.8	-0.00888985264178834	0.00877975885890757	-0.00024000280460828	0.0031154197458858	-0.00024783418679397	0.00312178895932495	-0.00728662969869017	-0.0141417426653385
7.9	-0.0065379161085655	0.0104342224632431	0.000197914737832289	0.00312948899146679	0.000205821150327422	0.00313105304285263	-0.00874511510469156	-0.0141262125107371
8	-0.00375027484399661	0.0102527698709269	0.00064199541285636	0.00306459587915336	0.000642037206485814	0.00306948821536605	-0.0106606252609515	-0.0144106409533269
8.1	-0.00209049496365006	0.0104943341919691	0.00105256315631779	0.00294980106007624	0.00107166566136309	0.00295103991034269	-0.0128890117874968	-0.0125705581322836
8.2	0.000101558905697486	0.0106891694277849	0.00145756574354585	0.0027749122613119	0.00146686174574481	0.00276780581285418	-0.0134987775077427	-0.0107947939729608
8.3	0.0023536103116819	0.0104997513890828	0.0018370036844433	0.00254198241477329	0.00183524393776611	0.00255551271383115	-0.0138040959732892	-0.00940863810861282
8.4	0.00493380486640611	0.0102328254937215	0.00217827613193955	0.00226836385228401	0.00217524605475568	0.00226811464257179	-0.0137224487560818	-0.00825315889541541
8.5	0.00801574627872292	0.00822698054226793	0.0024671755417657	0.0019375693590152	0.00246625465785352	0.00194074653135334	-0.0139456489034548	-0.00832292648442503
8.6	0.00912048447987885	0.00589307175807033	0.00271585526122879	0.00158182185173291	0.00272541272539844	0.00157535639624184	-0.0153975013289697	-0.00700614997912439
8.7	0.0101516727320046	0.00384205706649378	0.00290761844755734	0.00118139691819267	0.00291317934685734	0.00118216653411435	-0.0154428755460423	-0.00532045594588354
8.8	0.0108227071629829	0.00164330291289673	0.00304981674704418	0.000770525433856988	0.00305566476009351	0.00076179510254838	-0.0150891306883214	-0.0041928906720564
8.9	0.0114863653302391	-0.0004857561771699	0.00313096521122307	0.000335074022874416	0.00313010942900858	0.00033281642305995	-0.0141393258604806	-0.00337900587545132
9	0.0123792163264341	-0.00391730713551688	0.00314406248959694	-0.000105905516771973	0.00314719035619431	-0.000101770893244175	-0.0132969163589125	-0.00411649741162455
9.1	0.011253312459144	-0.00773815833831805	0.00310583570433074	-0.000549239673059861	0.00310862066974991	-0.000536279548630423	-0.0139789837819395	-0.00419051814232091
9.2	0.00931799112448513	-0.0109293188508941	0.00300070181369999	-0.000970787189926956	0.00300840906243167	-0.000973612690288518	-0.0143185664135031	-0.00394932916136352
9.3	0.00659971005025459	-0.0134058637763105	0.00283550190315693	-0.00137956920387448	0.00283480780654687	-0.0013845841263227	-0.0148118621229634	-0.00339673571737243
9.4	0.0038350967901947	-0.0148085694674302	0.00261708404294077	-0.00177256336026814	0.00262355827227535	-0.00176488040764859	-0.0148877773331562	-0.00248526844892457
9.5	0.00096581636143617	-0.0166232013309593	0.00234855833739558	-0.00211390023115357	0.002356025191344	-0.00211519121367536	-0.0152926687151407	-0.00234158389404673
9.6	-0.00331899522786485	-0.0171247672858853	0.00203086105594658	-0.00242664613166098	0.00203118575092096	-0.00242565527099867	-0.0161005269185825	-0.000610921875543187
9.7	-0.00723515455074053	-0.0163933428120169	0.00166264272316451	-0.00268327449536264	0.00166826657736009	-0.00269059097001447	-0.015563607181172	0.000938652750948617
9.8	-0.0109853216434608	-0.0147565013438771	0.00127684509890231	-0.0028985287123683	0.0012825255211173	-0.00288992875109822	-0.0148119816554232	0.00199988042978578
9.9	-0.0139834762143307	-0.0119981951637418	0.000869774538966545	-0.00304573885767544	0.000862373178744592	-0.00304455189440253	-0.0137785219859114	0.00266614306882899
10	-0.0159795882753366	-0.00976010924071977	0.000431375426581368	-0.00314289409802776	0.000423878717360721	-0.00315549243176625	-0.0133290970123902	0.00192607261136573
10.1	-0.0188209780379751	-0.00678070061998432	-1.7254172993594E-05	-0.00317579486834995	-2.76013089374984E-05	-0.00317039877394495	-0.0141920191220454	0.00253311358237171
10.2	-0.0207222631306268	-0.00270949907245534	-0.000469334139612539	-0.00314187589154406	-0.000472784105706684	-0.00313908443927606	-0.0139472861986629	0.00354519980588948
10.3	-0.0215837014477037	0.00202448500432721	-0.000909544967461953	-0.0030378336393119	-0.000901344911592243	-0.00304697088300708	-0.0132757173145204	0.00430980121775794
10.4	-0.0207259952164489	0.00708696737899002	-0.00131595227515282	-0.00288192404224112	-0.00131422814234924	-0.00288818027395273	-0.0119192118253996	0.00439566446083705
10.5	-0.0184738230741137	0.0105393518406508	-0.00171250664908576	-0.00267632382536745	-0.00170938495712095	-0.00266320516480086	-0.0115263296572867	0.00281336574381479
10.6	-0.0170077828763837	0.0138386649308482	-0.0020671269508149	-0.00240518307785049	-0.00206491603269781	-0.0024090368746764	-0.0128290886869796	0.00272698637531519
10.7	-0.0148341476423142	0.0175653351360911	-0.00238758159391635	-0.00210078497294539	-0.00238405891838227	-0.00209545173635517	-0.0136837373780381	0.00356958218478994
10.8	-0.0116232962316573	0.0213700046107388	-0.00266129443971469	-0.00173568456831466	-0.00265604562569975	-0.00174469481540153	-0.0140009636119585	0.00504596448932953
10.9	-0.00670012906143543	0.024846260806397	-0.00287080287404438	-0.00135486149093952	-0.00287603607111633	-0.00135411994530029	-0.0131233457013936	0.00661485578734227
11	-0.000680607123779903	0.02584996865491	-0.00302942223573825	-0.000936673961794016	-0.00303430779432801	-0.000943472052090471	-0.0124892489432728	0.00658238008023333
11.1	0.00425187016437259	0.0261238138878636	-0.00314239782539033	-0.000506472488709938	-0.00313143236975794	-0.000503592516043506	-0.0125314610102916	0.00807183496287224
11.2	0.0095839912679613	0.0256220706863116	-0.00317158080589011	-6.15258134774623E-05	-0.00317880934328626	-6.6396713229247E-05	-0.0110572477957903	0.00932688237383365
11.3	0.0147900747706685	0.0242284120620404	-0.00314250967039645	0.000393032788463809	-0.00315417836425907	0.000382929380518057	-0.0091097774115614	0.00997899619275477
11.4	0.0200476933880287	0.0221076504455164	-0.00306653816790734	0.000823882037613028	-0.00306156557203753	0.00083150451503444	-0.00684204444610626	0.00981430604790952
11.5	0.0251904081488637	0.0177219916472649	-0.00292481823357923	0.00124533546828605	-0.00292760102640576	0.00125572182583937	-0.00564877733096246	0.00790912499621846
11.6	0.0283351406123933	0.0129140716944082	-0.00272436652660784	0.00164340547596603	-0.00272433572640845	0.00164637458040072	-0.00538026190972775	0.00753575497049792
11.7	0.0310733567123297	0.00791748370265341	-0.00245682770526466	0.00200101245633558	-0.00245735799268514	0.00200970020210765	-0.00395827506277885	0.00675244233568465
11.8	0.0331691511442641	0.00244469744755328	-0.0021563944100664	0.00233536219883071	-0.00216053923608706	0.00233709600615833	-0.0026456388512642	0.0051780967643189
11.9	0.0352148121662998	-0.00368006474121477	-0.00180251849365036	0.00261498212739906	-0.00181564481845143	0.00261940009055643	-0.00146653645905185	0.00271475546465335
12	0.0349199409058105	-0.0116370490625419	-0.00141820717923149	0.00284170101355038	-0.00141759485840292	0.00284312225752409	-0.00318831951930423	-0.000348497039234007
