# GHZ S RI R 50
0.2	0.00562833058982893	0.00121129115420578	0.00304919265893851	-0.000897612995712995	0.00305956251097468	-0.000890800757956258	-0.0142688886119723	0.00491553979647342
0.3	0.00597665115287387	-0.000656175928108766	0.00290529017228672	-0.00132113841707445	0.00289803904710975	-0.00130819734316808	-0.0134518081399625	0.00519679025481544
0.4	0.00581290343052466	-0.00218457983823008	0.00267396114912595	-0.00169321224465972	0.00267923250505404	-0.00170177510668611	-0.0128815332383847	0.00585315874120984
0.5	0.00536488129394452	-0.00363957215165252	0.00241504212994454	-0.00205046655656647	0.00242658618716194	-0.00206271063299082	-0.0122097308532198	0.00643064018684246
0.6	0.00429254309332534	-0.0048845785821585	0.00210235074716045	-0.00236501368384823	0.0021015648337501	-0.00237216619772673	-0.0118299912471503	0.00696696445034424
0.7	0.00295926724558196	-0.00558962579189723	0.00175522024284319	-0.00264304267531716	0.00175326338299313	-0.00264324185182881	-0.0114634621190804	0.007666526449406
0.8	0.00158133675786729	-0.00594437134615033	0.00136963591662913	-0.00286077083915934	0.00135703010675183	-0.0028653234181252	-0.0110669190612138	0.00845808292314842
0.9	6.87817852211953E-05	-0.00581580684514427	0.000952171689377603	-0.00302458159023118	0.000953207301585058	-0.00303528641647504	-0.0106210924622388	0.00931946477076563
1	-0.00110950706733082	-0.0052434573568228	0.000527016841225728	-0.00312777102937384	0.000517150784264125	-0.00312851127561976	-0.0098886680664098	0.0101964136391793
1.1	-0.00228561628700668	-0.00478603662083784	7.14383183368102E-05	-0.00315678283583476	6.79304693457303E-05	-0.00317444221928758	-0.00937338898371801	0.0109290178275254
1.2	-0.00350306679475474	-0.00411919835979397	-0.000371087666406939	-0.00314635896775928	-0.000371899881157881	-0.00314428140312502	-0.00850214120853221	0.0119598825674241
1.3	-0.0047078935327011	-0.00352784266492934	-0.000798613489721259	-0.00306308146440113	-0.000801855457604829	-0.00306508756865847	-0.0069230057586408	0.0128496047307803
1.4	-0.00576804941719602	-0.00290248733255725	-0.00122015295404894	-0.00291458326918271	-0.00121893981417486	-0.00292011939730211	-0.00510733221147508	0.0129439974480021
1.5	-0.00612315804763758	-0.00208310563127442	-0.0016210163994214	-0.00271887984266917	-0.00161940348739611	-0.00272738499222358	-0.00358383728630725	0.0123456005931384
1.6	-0.00629206614699194	-0.000974969898150751	-0.00198230139536403	-0.00246645796182646	-0.00198251303124293	-0.00247169590529976	-0.00307735597756665	0.0120595215835948
1.7	-0.00589564158508879	0.000360843606620669	-0.00231112732194585	-0.00216916316816186	-0.00231209242712686	-0.00216289708890931	-0.00242689469942184	0.0120907979144487
1.8	-0.00513382729514048	0.0017042385934034	-0.00258236566506256	-0.00181729733926371	-0.00259334051916073	-0.00182293541312785	-0.00176863309193106	0.0120842748260094
1.9	-0.00401451225116259	0.00281383033817319	-0.00280792789347607	-0.00144636160216335	-0.00282037545330107	-0.00144020103692501	-0.00115203755240175	0.0121012627168702
2	-0.00251388027092949	0.00346686768886049	-0.00298432426036437	-0.00103819497080887	-0.00299395323164768	-0.00103347898213414	-0.000572552504915334	0.0120865009480273
2.1	-0.00124589063163466	0.00357145433001647	-0.00309771432633873	-0.0006086198865025	-0.00309362870928324	-0.000610615641864029	-9.79952577448326E-05	0.0121765222013764
2.2	-2.9722503336434E-05	0.00361184857916851	-0.00315473029836373	-0.000169647672717385	-0.00316604471867014	-0.000172478418162196	0.000753337594150903	0.0123275931645856
2.3	0.00116141537587429	0.00331554118944906	-0.00314969146392887	0.000274389574838146	-0.00314939396482761	0.000267501178989978	0.00167412462148266	0.0121849819668991
2.4	0.00222768838692932	0.00288960091001475	-0.00307680547159722	0.000713445151090534	-0.00307935240484752	0.000709186707320661	0.00258186500936934	0.0119604521194055
2.5	0.00342761631455044	0.00219236933494791	-0.0029385685347057	0.00112659369050343	-0.00294945770412412	0.00113299077106383	0.00353840823189109	0.0114424438667855
2.6	0.00434954073953514	0.000947038879823735	-0.00276343022324769	0.00152943891470745	-0.002759885952881	0.00151710590468656	0.00414549248228737	0.0108112444767739
2.7	0.00497851025791447	-0.000369936664152388	-0.00251664738526447	0.00190071407386051	-0.00252192989253683	0.00190073155257133	0.00461655661525324	0.0103451185350874
2.8	0.00547928420726177	-0.00180905615676548	-0.00223269825467652	0.0022280534796726	-0.0022248681195571	0.00223783686207504	0.00506821579533354	0.0100910698811339
2.9	0.0058937372240493	-0.00339233859359158	-0.0018970498517254	0.00252775659696792	-0.00189334036678957	0.00252732401332514	0.00585039705336699	0.0099899400898646
3	0.00614545720804697	-0.00534722520915196	-0.00150976071087198	0.00276175592679819	-0.00152453257396996	0.00276787716746783	0.00685514826545008	0.00967975114575654
3.1	0.00572367777253217	-0.00755292941381803	-0.00111932809123586	0.00293803767834134	-0.0011146596728873	0.0029463740097083	0.00767736844573833	0.00928010647416982
3.2	0.00468119107809462	-0.00957745473783591	-0.000698268010363203	0.00307428730384088	-0.000700013296088738	0.00307367917240238	0.00845719235541824	0.00888539825351097
3.3	0.00314179955529707	-0.0114459729811673	-0.000259528344853597	0.00314286669157619	-0.000257885307617639	0.00313912468688789	0.0093180399435972	0.00829632587011112
3.4	0.00110902528820341	-0.0128261745950087	0.000187096059036951	0.0031353936288521	0.000180916387038185	0.0031519618080113	0.0101608567687093	0.00742707819002633
3.5	-0.00102814808973948	-0.0139282366154793	0.000608089249095271	0.00309186731939215	0.000613683469196631	0.00309193591542922	0.0106840065275915	0.0061485447495216
3.6	-0.00373132386394317	-0.0146587499668484	0.00103666200842257	0.00297202012736964	0.00104485162523123	0.00297169166606319	0.0107699392840966	0.00519491152560244
3.7	-0.00658240125775009	-0.0145919012498304	0.00144684796061711	0.00278997367195519	0.00143728391151037	0.0028036585266774	0.0110820784439201	0.00438460457126733
3.8	-0.00934766678091087	-0.0138246530479642	0.00182429681967808	0.00256199778608253	0.00182671280600519	0.00257114071339953	0.01136974987136	0.00344289827304602
3.9	-0.0117062255299297	-0.0124332782530903	0.00216935793941612	0.00228841941211169	0.00216209312058119	0.00228665047652077	0.0115302562084738	0.0024055574367938
4	-0.0134855346265603	-0.0108412315544881	0.00245394853533131	0.00196669619752647	0.00245839244481133	0.00196425606376598	0.0115101256986878	0.00131168682980535
4.1	-0.0152571771274421	-0.00918949429968418	0.00270483012139997	0.00160560034584649	0.00270357937746121	0.00160633773743879	0.0112839703112012	0.000574676443970363
4.2	-0.016852443978527	-0.00702115692777407	0.00290271688978559	0.00120407897510266	0.00290716637938701	0.00119536226742027	0.0112917678361286	-3.51681998052172E-05
4.3	-0.0180464133134624	-0.00452662189921676	0.00304459627375088	0.000791991626955315	0.00305100241479566	0.000784185229121895	0.0113334449031293	-0.000822001532871938
4.4	-0.0187999088789945	-0.00163150097222134	0.00311999882355528	0.000357898143161131	0.00312236795573988	0.000355639837373809	0.0112470833546061	-0.00161486066166961
4.5	-0.0187166062665422	0.00132893837168543	0.00314114460063219	-8.03228240724213E-05	0.00314649390759031	-8.37015291471862E-05	0.0111161314143235	-0.00252254615700965
4.6	-0.0183980271147978	0.00398218678342054	0.00309559938098633	-0.000521912737595523	0.00309684561484485	-0.000509017793108075	0.0106490001053297	-0.00327131409602222
4.7	-0.0175865815753948	0.00674726890558772	0.00298964973618858	-0.000939659976339666	0.00300490131611796	-0.000949284998706865	0.0102937909438763	-0.00387537916163684
4.8	-0.0162936922631882	0.00938271342431652	0.00282790639349436	-0.00135271255113385	0.00283636398574085	-0.00135880426645198	0.00997437895100564	-0.00442733502912738
4.9	-0.0142825252387233	0.0118204878713523	0.00260637004231588	-0.00173566467006682	0.00261053339173616	-0.00173277051405058	0.00978715213680798	-0.00489091725226068
5	-0.011569764439632	0.0135520024080865	0.0023462579257783	-0.00208861367231732	0.00234987561092014	-0.0020859591892477	0.00981754353786385	-0.00548612991319268
5.1	-0.00874423935887199	0.0145602647560324	0.00203625456828456	-0.0023978023897772	0.00203855193291246	-0.00239644970489917	0.0098118609009386	-0.00602700102946119
5.2	-0.00588123102894438	0.0151317946025144	0.0016791324758555	-0.00264647486808315	0.00168083716110704	-0.00265160828473448	0.00998326979536096	-0.00671820162241408
5.3	-0.00293167745558222	0.0152164590519734	0.00129313368897234	-0.00286048766721786	0.00129626072756366	-0.00285843240439647	0.01001440388571	-0.00754384569329046
5.4	3.17824263601904E-05	0.0148728315177684	0.000869597787616095	-0.00300651003121799	0.000886712890628548	-0.00301770156259193	0.00992898270833896	-0.00856490213291262
5.5	0.00305934668973031	0.0137692661745105	0.00045803339471139	-0.00310387910349189	0.000468059034164177	-0.00311328768678031	0.00940194718003289	-0.00982141235589023
5.6	0.00531044152005202	0.0119757880968475	2.05042780974357E-05	-0.00313985804861516	1.19975939645962E-05	-0.00314306613726041	0.00839101768264527	-0.0104311091730939
5.7	0.00700904133098737	0.0100971678826442	-0.000409181592379307	-0.00310891788217082	-0.000425754498091426	-0.00311256479782033	0.00768092458537652	-0.0107772483183288
5.8	0.00828231528256427	0.00804311920090166	-0.000853371563707217	-0.00301395560029975	-0.000856899908575636	-0.00302790894777711	0.00707327132188596	-0.0113919445866874
5.9	0.00909400642067008	0.00606125940738748	-0.00125656528420656	-0.0028746138659426	-0.00126477533107787	-0.00287453317650356	0.00627444135145488	-0.0121605677127414
6	0.00984149190777012	0.00386608358001685	-0.00165409037496653	-0.00266919350429158	-0.00165053751009013	-0.00266935958200029	0.00499312529666457	-0.013125567709356
6.1	0.00975655847661742	0.00119048101290443	-0.00200769908102707	-0.00241489619483171	-0.00200933465697673	-0.00241090224025923	0.00310260021726194	-0.0133450578656996
6.2	0.00893286260421284	-0.00117084841440773	-0.00231906745158837	-0.0021030280343248	-0.00232276344655589	-0.00211486949932308	0.00169472291689357	-0.0129478945329591
6.3	0.00782425456297391	-0.00318360693978819	-0.00259605626105253	-0.00177012098038162	-0.00260516451900698	-0.00176440057149799	0.000837199913851062	-0.0124726451308785
6.4	0.00656431246359916	-0.0049560694033281	-0.00282227122896	-0.00138088391465621	-0.0028125668028661	-0.00138577045541837	0.000548944364081607	-0.0122217124994365
6.5	0.00528172560472456	-0.00693079093491636	-0.00297832856899026	-0.00097656817460412	-0.00298617238329769	-0.000972100956452825	0.000254264413621261	-0.0125650429572915
6.6	0.00306849935038818	-0.00861626795839253	-0.00308613844707729	-0.000553538587503379	-0.00308776479562954	-0.000557506767795348	-0.000196962205306739	-0.012682600320459
6.7	0.00054002703709423	-0.00941227922304336	-0.00313731245472551	-0.00011727244550134	-0.00314615133065515	-0.000111016056091747	-0.000792075471379794	-0.0129538744905857
6.8	-0.00205277738066556	-0.00938403680288633	-0.0031164951653037	0.000323059736540834	-0.00312756807788326	0.000328085976379019	-0.00169544275216066	-0.0129925434967911
6.9	-0.00437947604195749	-0.00853051064975371	-0.00304161283309444	0.000755430185890415	-0.00304459525498902	0.000757812453410532	-0.00248754749229147	-0.0128061069006937
7	-0.00596473461816404	-0.00749199123427575	-0.0029056909534286	0.00117419791547817	-0.00291848635241708	0.00117199071283372	-0.00341622134826045	-0.0128549479487429
7.1	-0.00789852890184197	-0.0063874459641855	-0.00273002924806286	0.00156202692748348	-0.00272638618504182	0.00157067941604457	-0.00460984013796151	-0.0120814550088317
7.2	-0.00968588440250597	-0.00458718790419621	-0.00247524568461333	0.00192956116576597	-0.00248176523199633	0.0019316255792999	-0.00503254065176093	-0.0111318511490123
7.3	-0.0112036611049241	-0.00229268990956109	-0.00218154386031557	0.00224825981383621	-0.00219274356266631	0.00225328344720333	-0.00503042702577859	-0.0104986289187593
7.4	-0.0122616571500308	0.000589690706121669	-0.00184214665807009	0.00253113834653925	-0.00184904471492733	0.00254470607749077	-0.00488860801316918	-0.0103349129041561
7.5	-0.0121431554787817	0.00365835938786721	-0.00147951484271149	0.00277141148884625	-0.00147255115659208	0.00277881291968906	-0.00482400010164743	-0.0109737597306013
7.6	-0.0115675973271159	0.00615298653376957	-0.00107464110709789	0.0029517100608131	-0.0010760029537719	0.00294701565147067	-0.00551237544591803	-0.0115063525537226
7.7	-0.0105994285668859	0.00850577144107214	-0.000647611820029567	0.00307445583438884	-0.000648947856913393	0.00307339200908645	-0.0063012693971672	-0.0121872470874219
7.8	-0.00885266651020288	0.0105226475820844	-0.000223106749062535	0.00312537148318748	-0.00023092385029379	0.00313180241439463	-0.0074387053904905	-0.0125745626759104
7.9	-0.00633288823798631	0.0120276190078571	0.000217093924417169	0.00313499837578955	0.000225026626389706	0.00313651838850987	-0.00864782311220928	-0.0126005712620406
8	-0.00326891612442067	0.0123449876823911	0.000659704854235889	0.00306556861503517	0.000659773480316833	0.00307046788368337	-0.0101387887298488	-0.012473178474339
8.1	-0.000759510838417052	0.0120567421570351	0.00107072955001682	0.00294919853203831	0.00108987267858972	0.00295033398169104	-0.0114409780180454	-0.0113665763886138
8.2	0.00154032267007614	0.0115579997961815	0.00147618204679966	0.00277030572972177	0.00148544940567631	0.00276313366814895	-0.0120474263118755	-0.0103592963754353
8.3	0.00368965529487139	0.0108053049105284	0.00185423274152992	0.00253303777708853	0.00185255424619362	0.00254659111099328	-0.0125381777397596	-0.00953108807300277
8.4	0.00580195110101725	0.00999824434374627	0.00219229974442083	0.00225626975361287	0.00218926724802357	0.002256038282204	-0.0129671432014317	-0.00884820036844621
8.5	0.00822832061680772	0.00846059223598478	0.0024796301516666	0.00192506625736674	0.00247872640918068	0.0019282506735118	-0.0137569956926408	-0.00838919880340896
8.6	0.00980686562071624	0.00619710249995844	0.00272683165334004	0.00156522903955866	0.00273635170543214	0.00155870085119096	-0.0146779310010989	-0.00710719091009084
8.7	0.0108021324935637	0.00383202042296495	0.0029142458336721	0.00116244865709872	0.00291980989057768	0.00116318250518337	-0.0148349633601489	-0.00581895274334169
8.8	0.0112943587211579	0.00141743542736973	0.003052220695947	0.000751009363715375	0.00305801000622428	0.000742249559976713	-0.0147768886903244	-0.00491444023546915
8.9	0.0114951512458142	-0.000923288618924012	0.0031303962721724	0.000316132826153976	0.00312952773186256	0.000313882179111862	-0.0144133637248412	-0.00420739849457798
9	0.0117174529438642	-0.0036513410665245	0.00314063392225957	-0.000126841304879648	0.00314378673482455	-0.000122731177426621	-0.0141812629409922	-0.00404159256651685
9.1	0.0110455132441409	-0.00691948056201069	0.00309621582326243	-0.000568926957116953	0.00309908199593595	-0.000556010267572393	-0.0142776008309555	-0.0035517703139513
9.2	0.00943518056685537	-0.009967470243923	0.00298759136524971	-0.000987688705587985	0.00299526282220242	-0.000990556852245077	-0.0142281685198942	-0.00317267871978735
9.3	0.00707099000475986	-0.0125465193351108	0.00281960018843448	-0.00139399782992523	0.00281887615085698	-0.00139899566389957	-0.0143060937183921	-0.00273190713879864
9.4	0.00424245160145483	-0.0143669478948899	0.00259789402929141	-0.00178497429403631	0.00260440110388821	-0.00177735613357424	-0.0143791744690597	-0.00221326581320066
9.5	0.00124461192389386	-0.0157518823578896	0.00232441153097041	-0.0021210345871161	0.00233183848527662	-0.00212237089130585	-0.0147149153969309	-0.00173570928089626
9.6	-0.00258096485524592	-0.0165412599170221	0.00200717367398772	-0.00242716784031103	0.00200750264284003	-0.00242618351281093	-0.0150511131361446	-0.00052518008885277
9.7	-0.00661320560827316	-0.0161518317203198	0.0016396613202698	-0.00267946053883594	0.00164521721016045	-0.00268677266750153	-0.0147472474042519	0.000555711224896268
9.8	-0.0105464949860254	-0.0147470932438469	0.00125440605777038	-0.00289019017204467	0.00126010320026154	-0.00288166629174293	-0.0143157174588526	0.00135230109016952
9.9	-0.0140286776361179	-0.0121778599018587	0.000848622396689238	-0.00303177648297199	0.000841272164466026	-0.0030305581601625	-0.0139069901197606	0.00186685924687778
10	-0.0165367329068838	-0.00922230650959984	0.000416105134432983	-0.00312356727961346	0.000408608937222354	-0.00313605178731646	-0.0139571745291247	0.00196997332108252
10.1	-0.0188864669649813	-0.00600814013028946	-2.82836723186698E-05	-0.0031557842722842	-3.85468835563383E-05	-0.00315038578682927	-0.0142913415145675	0.00278166781780085
10.2	-0.0207258215154285	-0.00200413144819363	-0.000476650934611802	-0.00311976987085583	-0.000480069101981273	-0.00311698527448665	-0.0140511594020543	0.00371334129852901
10.3	-0.0216392272233326	0.00270479175714581	-0.000911816153169106	-0.00301423458930197	-0.00090369864633556	-0.00302333169755253	-0.0135148528148305	0.00451310331509156
10.4	-0.0211465403860798	0.00782541814671026	-0.00131200264334907	-0.00285876647590016	-0.00131030276692384	-0.00286498114904244	-0.0125622442905565	0.00482452365255155
10.5	-0.0190878048351239	0.012316366642269	-0.00170518284262141	-0.00265743963679107	-0.00170206410318007	-0.00264440688861255	-0.0120788480207762	0.00443062359235241
10.6	-0.0164447086136438	0.0160555519649156	-0.00205822631900012	-0.00238629270244448	-0.00205603619118135	-0.00239012591898712	-0.0121371538976152	0.00470117363545494
10.7	-0.0133455429014983	0.0194197654266044	-0.00237438295796562	-0.00208300478718997	-0.00237087650345054	-0.00207771299413641	-0.012008377576299	0.00510335757561762
10.8	-0.0096093728162561	0.0223579740371727	-0.00264411578801941	-0.00172118786914258	-0.00263891164837014	-0.00173013941117404	-0.0118196508868121	0.0056776307670452
10.9	-0.00516475005990751	0.0248349057766346	-0.00285201620004253	-0.00134500242767016	-0.00285721424250781	-0.00134426435423434	-0.0113966414580959	0.00616034940873596
11	0.00030336101342446	0.0260863330441395	-0.00301023065362031	-0.000927991100687406	-0.00301508964121242	-0.000934740337901857	-0.0112136430067304	0.00637721757678292
11.1	0.00549601625647195	0.0260349637682624	-0.00311913243066731	-0.000501920443923453	-0.00310824788329533	-0.000499064638143061	-0.0109389979229355	0.00734889041482422
11.2	0.0105559963083123	0.0251566579436255	-0.00314795204333617	-6.27464270306358E-05	-0.00315512422367354	-6.75849131972713E-05	-0.00983630520932298	0.00808448460216159
11.3	0.0155008145198939	0.0234659706036689	-0.00312022472253837	0.000387013080760551	-0.0031317989576138	0.000376970782290797	-0.00829626577496071	0.00836507777970421
11.4	0.0201421998134769	0.0210742853084482	-0.00304571346038566	0.000815040533063262	-0.00304078347904359	0.000822614134538148	-0.006807300815255	0.00801812649718671
11.5	0.0247017334024678	0.0173990245269182	-0.00290298301961983	0.00123146618072919	-0.00290575721430048	0.00124176546411866	-0.00611250214552541	0.00694522882795468
11.6	0.0280780614739524	0.0125914967472286	-0.00270738478896589	0.0016234359929828	-0.00270736200087125	0.00162638198282607	-0.00563212769828783	0.00645559170645112
11.7	0.0303968710268548	0.00750565211546487	-0.00244484057735001	0.00197871995807826	-0.00244539358956446	0.00198734199507374	-0.00475964937907215	0.00559549856550558
11.8	0.0319167244333384	0.00228800644886914	-0.00214849688545661	0.00231137075184887	-0.00215261745410358	0.00231307836571884	-0.00410974750814935	0.00438615131942593
11.9	0.0330024967975023	-0.00302371161126821	-0.00179839069494687	0.00258846146742057	-0.00181143330162647	0.00259279763728725	-0.00381435477085473	0.00304348023231981
12	0.0333586748303774	-0.0092240424990239	-0.00142226943200078	0.00281275948308298	-0.0014216691640635	0.00281417314283815	-0.00463623820233485	0.00168230622482222
