# GHZ S RI R 50
0.2	0.00576407741289241	0.00151664341853684	0.00304753665358147	-0.000898125846289382	0.00305790385204932	-0.000891319833513022	-0.0142057940674223	0.00514714239582377
0.3	0.00608214601769127	-0.00044370367458517	0.00290311786356996	-0.00132142788031587	0.00289587567342115	-0.00130849169702853	-0.01340417019119	0.0053352979210155
0.4	0.00585613132587664	-0.0020643447585055	0.00267136755366368	-0.00169296230606539	0.00267663185465314	-0.00170152083721641	-0.0128520324116405	0.00590717409121495
0.5	0.00521727855971564	-0.00338985224191904	0.00241252221148439	-0.0020494468074579	0.00242405356519808	-0.00206168401942141	-0.0122260348880691	0.00657045651696419
0.6	0.00432460673917428	-0.00447053459972481	0.00209990462044527	-0.00236371471674001	0.0020991171701423	-0.00237086112305991	-0.0116105088864086	0.00704988776135977
0.7	0.00309923597180348	-0.00522338838466713	0.00175276034674476	-0.00264112218795006	0.00175080525104389	-0.00264132057001531	-0.011229193228158	0.00753555472165338
0.8	0.00178617942347203	-0.00564083730440704	0.0013674956173536	-0.00285817467106379	0.00135490162571975	-0.00286271934559383	-0.0109141147673241	0.00817560288358184
0.9	0.000293477752467082	-0.00568046855216581	0.000950653750661871	-0.00302153426109196	0.000951686465951759	-0.00303222790977643	-0.0106475929086923	0.00890799448680737
1	-0.00122222115516435	-0.00518829858553638	0.000525756156700929	-0.00312468065972581	0.000515900060009423	-0.00312541787627039	-0.0102861461579943	0.00999043037341085
1.1	-0.00244076820780085	-0.00439478647855554	7.05726524146849E-05	-0.00315290774309946	6.70647791977039E-05	-0.00317054448644714	-0.00954123306461449	0.0111406424870312
1.2	-0.00350868397760794	-0.00353064388623386	-0.000371003194699109	-0.00314210589688346	-0.000371814052414686	-0.00314003100238284	-0.00833409544632055	0.0122966697680494
1.3	-0.00439002214695962	-0.00284565432806075	-0.000797636652011008	-0.00305881736097597	-0.000800874224368493	-0.00306082056043022	-0.00627956657729959	0.0131065449004921
1.4	-0.00526340778683173	-0.0024560067667848	-0.00121851084068057	-0.00291043915864381	-0.00121729956188259	-0.00291596751081335	-0.00428504405212268	0.0127254874159273
1.5	-0.00578360998215425	-0.00163302193902065	-0.001618380131863	-0.00271432964657705	-0.00161677007588535	-0.00272282070121061	-0.00291469027653651	0.0119159887058118
1.6	-0.00592722552757943	-0.000579133954227822	-0.0019781384317079	-0.00246271259048427	-0.00197834821048376	-0.00246794144472475	-0.00262264787621395	0.0112385822787507
1.7	-0.00565516690179285	0.000709846056202832	-0.00230628563027	-0.00216639289820406	-0.0023072516403973	-0.00216013793987977	-0.00242969016654883	0.0112263983827221
1.8	-0.00501511823079722	0.00203664167734305	-0.00257698381086306	-0.00181535412108971	-0.00258793678842663	-0.00182098758153214	-0.00207821137640333	0.0113621341312999
1.9	-0.00410747215342665	0.00315136236843334	-0.00280176126507403	-0.00144522122246551	-0.00281418869284587	-0.00143907950152064	-0.00170613015431562	0.0116404493891043
2	-0.00278235860392111	0.0041785700684951	-0.00297728135330623	-0.0010390666970793	-0.00298689560925461	-0.00103436976991993	-0.000982959261885749	0.0121784491560696
2.1	-0.00123994458255518	0.00442080317938219	-0.00309155424080269	-0.000611160073581252	-0.00308747348615117	-0.000613147554633223	-2.35448073882736E-05	0.012096116395841
2.2	9.45215604226061E-05	0.0044205102945778	-0.00314905538625965	-0.000173271529127449	-0.00316034669379435	-0.000176111422333979	0.000800590334949257	0.0119741555341904
2.3	0.00135364981341674	0.00402481570410964	-0.0031446089214879	0.000269477727924477	-0.00314430223869505	0.000262601711613068	0.00153339724012489	0.0116870101711676
2.4	0.00232175425863963	0.00341812273026515	-0.00307281695275361	0.000706997446416838	-0.00307535232450827	0.000702741866492633	0.00206726496292515	0.0115036272097557
2.5	0.00318583069200478	0.00292398881107089	-0.00293697968633766	0.00111958731093455	-0.00294786718622878	0.00112595560983902	0.00281579234598193	0.0117010174590308
2.6	0.00430872105418977	0.00196856826680611	-0.0027626591596026	0.00152279631045443	-0.0027590980198205	0.00151048459768523	0.00410546817223979	0.0113961968173656
2.7	0.00517375113798146	0.000663112382697999	-0.00251708708069618	0.00189362460468596	-0.00252236305184933	0.00189363214196701	0.00506179766177492	0.0107378264914327
2.8	0.00578626378410504	-0.00094796961173092	-0.00223481532619057	0.00222096537668437	-0.00222701410036451	0.00223075404489987	0.00570699320432026	0.0100762196927386
2.9	0.00604291583983859	-0.00268484361367921	-0.00190103031391069	0.00252158690586317	-0.00189732287383984	0.00252116275407929	0.00632436499203032	0.00970738314057741
3	0.0061456630453664	-0.00439505723150738	-0.00151386925875067	0.00275717844732632	-0.00152864280195595	0.00276326848533681	0.00743125984723408	0.00954478611436078
3.1	0.00588638583053513	-0.00658380655768098	-0.00112428321599789	0.00293317145029365	-0.00111963580152389	0.00294150984983099	0.00849445508458894	0.00865665333729219
3.2	0.00484813634289862	-0.00864052323318894	-0.000704575143130567	0.00307056447475012	-0.000706317846954429	0.0030699529127204	0.00901556912028111	0.00788631965868826
3.3	0.00330952937418772	-0.0105817014914122	-0.000266420326309736	0.00314071344116204	-0.000264769751095381	0.00313697698075885	0.00956159788472806	0.00708942054992944
3.4	0.00110447850981684	-0.0120774499335947	0.000180557406294281	0.00313455421912423	0.000174345983655673	0.00315110318072198	0.00994954346776467	0.00619527585316121
3.5	-0.00122345773748559	-0.0128879210707353	0.000600997822129468	0.00309071489704717	0.000606587458638719	0.00309079539680458	0.0103698925719848	0.00537813382470749
3.6	-0.00377317079297979	-0.013602925601471	0.00102828251384558	0.00297320375356053	0.0010364687243096	0.00297289706358998	0.0106141091490887	0.00412699035785361
3.7	-0.00668913315214007	-0.0135434270067928	0.0014391122565863	0.00279314015924324	0.00142951424113519	0.0028067964130277	0.0104622022927296	0.00318869296764046
3.8	-0.00954191346131618	-0.0127356876123352	0.00181729846488962	0.00256647371552607	0.00181969001437672	0.00257562181496864	0.0102522143736198	0.00251556757280877
3.9	-0.0120808109624172	-0.0112179292305984	0.00216262049110526	0.00229390879711388	0.00215536203459402	0.00229212026083578	0.0100522206410399	0.00216985610035282
4	-0.0138007840859222	-0.00908257316170799	0.0024474561735411	0.00197518894225522	0.0024519087218751	0.00197276372044773	0.0106105260185152	0.00219377296791426
4.1	-0.0150626032974269	-0.00745631595400546	0.00270183411950208	0.00161553044980246	0.00270058002416837	0.00161626442223044	0.0114616314653608	0.00116269244579342
4.2	-0.0164981978924329	-0.00549696098337965	0.00290182832425475	0.00121395402968356	0.0029063082541806	0.00120524250051783	0.0116808089961613	4.79843643768893E-05
4.3	-0.0176674607307485	-0.00322393967268709	0.00304545497526873	0.000802014959392412	0.00305189148178379	0.000794219550975733	0.0116659541689076	-0.00103927855457748
4.4	-0.0186441538543311	-0.000557635439394292	0.00312299477328715	0.000368464270302553	0.00312537436234147	0.000366210619748436	0.0113215662872247	-0.00186940985406246
4.5	-0.0188237307720915	0.00272900070554032	0.00314835216633862	-7.10155131235528E-05	0.00315372353734361	-7.43855564779159E-05	0.0114587253680536	-0.00218433031741655
4.6	-0.018274645547337	0.00539633251610273	0.00310335409274807	-0.000515750096690881	0.00310457269842137	-0.000502825026455628	0.0117649976330065	-0.00344949362948291
4.7	-0.0174580358316449	0.00810097457673355	0.0029979731429737	-0.000934621260827708	0.00301327844268109	-0.000944230490773051	0.0114212018592125	-0.00466933489597741
4.8	-0.0161742873369255	0.010628900297647	0.00283742235647741	-0.0013491049835172	0.00284591321302262	-0.00135519049640082	0.0108819871486347	-0.00570859741201477
4.9	-0.0143884871902751	0.0129340294216676	0.00261722470604716	-0.00173466042874873	0.00262139299427943	-0.00173174932648217	0.0101759329123332	-0.00641492408779115
5	-0.0118219369012078	0.0150347594981829	0.0023553492671652	-0.002091106036477	0.00235897314636782	-0.00208843959684019	0.010158730458014	-0.00664385706646434
5.1	-0.0088788756138196	0.0159780963258181	0.00204456693001305	-0.00240005015273592	0.00204686737653518	-0.00239869085284572	0.0101156910437628	-0.00778999995564011
5.2	-0.00613999232569981	0.0166680712217965	0.00168764805211583	-0.00265044451948637	0.0016893653354018	-0.002655588144176	0.0095514032495833	-0.00846763009562786
5.3	-0.00313110456846004	0.0169224852249541	0.00130066957163703	-0.00286661960185871	0.00130380242629435	-0.002864554324433	0.00921600720665216	-0.00878801683001003
5.4	-0.000173614180670372	0.0165809061638107	0.000874657697266423	-0.00301408712000187	0.000891830145265597	-0.00302529463853373	0.00908465055706739	-0.00924081302819602
5.5	0.00300327076333103	0.0158519196445312	0.000462013589357944	-0.00310981697586775	0.000472069064559327	-0.00311923510491101	0.00945826028421195	-0.0098313874549674
5.6	0.00547860197358585	0.0136658495167373	2.51626496256964E-05	-0.00314795295983974	1.66386581550711E-05	-0.00315118182697568	0.00896384710864913	-0.011663123524887
5.7	0.00692415248264409	0.0116787693021443	-0.000406732444128428	-0.00311857752844119	-0.000423349987077162	-0.00312225470604958	0.00743793499798629	-0.0125653443445614
5.8	0.00799134449066926	0.00964691284147095	-0.000853384448521881	-0.00302377037208493	-0.000856911578750943	-0.00303776879898766	0.00591446794191409	-0.0130493098468354
5.9	0.00838026257481475	0.00773426381610725	-0.00125791359707943	-0.00288347943134472	-0.00126614637479227	-0.00288340457903523	0.00409421786783927	-0.0129758574948372
6	0.00885134151246463	0.006592871602883	-0.00165572459470383	-0.00267998088846379	-0.00165216015413276	-0.00268014263986436	0.00305093607087573	-0.0115741020665654
6.1	0.00969514432556035	0.00431670749462927	-0.00201427696203277	-0.00242546143838848	-0.00201592111650981	-0.00242145268744406	0.00330334641733591	-0.0113244405265061
6.2	0.00956516404021693	0.00176554974033315	-0.00232779495609233	-0.00211077837409038	-0.00233150519035012	-0.00212266384259736	0.00322505953586069	-0.0115635120230788
6.3	0.00881130351569611	-0.000892937798494777	-0.00260554466649865	-0.00177566544787753	-0.00261468331208307	-0.0017699228643849	0.00294844629774532	-0.0122841167609623
6.4	0.00709367448807792	-0.00319791298169298	-0.0028322576948014	-0.00138554369759966	-0.00282251955360764	-0.00139044800256037	0.00215352545305248	-0.0128488516107253
6.5	0.00561988554976751	-0.00474159697960423	-0.00299186591098097	-0.000978895875143968	-0.00299974087261295	-0.000974404269852298	0.00213573813413274	-0.0131404753288239
6.6	0.00339653976963998	-0.00656090567222924	-0.00309816641238974	-0.000550970331268122	-0.00309980455373032	-0.000554950508791763	0.00137147275207053	-0.0145024660532343
6.7	0.000919565582491844	-0.00718957984815211	-0.0031477620515148	-0.0001133417846691	-0.00315662130787641	-0.000107052721137563	4.66360511530194E-06	-0.0149241222305871
6.8	-0.00150684430932964	-0.00737970268822102	-0.00312654942501733	0.000328241920888504	-0.00313765296331567	0.000333299613660519	-0.0013455022505485	-0.0150436447947252
6.9	-0.0042674374592057	-0.00683519750334558	-0.00305201988507282	0.000763282989308202	-0.00305500983372528	0.000765679238511701	-0.00288249980364429	-0.0146352058083715
7	-0.00594717458200609	-0.00507885638700771	-0.00291210681875372	0.00118658381561157	-0.00292495184605482	0.00118440622663147	-0.00313013454787334	-0.013563747517495
7.1	-0.00755747552945644	-0.0043557145312016	-0.00273311544244949	0.00157281188252593	-0.00272944153820709	0.00158147740689244	-0.00369013972485007	-0.0142574783886908
7.2	-0.00952307396622686	-0.00264168296055368	-0.00247719092357036	0.0019407686856684	-0.00248372294395388	0.00194285451788502	-0.00511140365176497	-0.0141056467508271
7.3	-0.0110818570174879	-0.000483376678024606	-0.00218123781801878	0.00226047543509803	-0.00219245410707896	0.00226554398282749	-0.00632224088287279	-0.013679173744813
7.4	-0.0125965558659337	0.0020264233733823	-0.00183766775318287	0.002543566909584	-0.00184453475309005	0.00255719086492152	-0.00791701575295844	-0.0130440653568908
7.5	-0.0131105975856641	0.00588076851534576	-0.00147248154307874	0.00277900182571083	-0.00146548731774465	0.00278638955176981	-0.00850682120185411	-0.011008897981971
7.6	-0.012083842404536	0.00855324276204039	-0.00106906693366303	0.00295923957636867	-0.00107044269810822	0.0029545408309453	-0.00796319599986013	-0.0107627860143168
7.7	-0.0111512630618701	0.0110721799587818	-0.000639848702530701	0.00308185386774656	-0.000641190225685122	0.00308079201175526	-0.00829734374096465	-0.0109666232610975
7.8	-0.0093160744412863	0.0132078109575482	-0.000213193938699205	0.00313081318432887	-0.00022100173165658	0.00313727944186233	-0.00876583778885968	-0.0109344692714438
7.9	-0.00705309919104805	0.0149676647067406	0.000227504574817683	0.00313673873293228	0.000235448440400794	0.00313823401974303	-0.00916651369024863	-0.0103910330517542
8	-0.00321985175784852	0.0161391178430345	0.000667497139121729	0.00306758272921956	0.000667577084263886	0.00307248747814154	-0.00844844861271024	-0.0100955054816271
8.1	-0.000236144084596011	0.0152868107206031	0.00108221049873112	0.00295056046396948	0.00110138908023031	0.00295163478705622	-0.00890007724947097	-0.0114422158499323
8.2	0.00216527900471241	0.0146216170827598	0.00148808692304179	0.00276750928969878	0.00149733651459651	0.00276029517561153	-0.010140022980178	-0.0115520733669598
8.3	0.00446067567136687	0.0135623792157098	0.00186419343480115	0.00252716626131609	0.00186256400172161	0.0025407306938339	-0.0112190375140996	-0.0113127238710965
8.4	0.00619474962929189	0.0123925036110702	0.00219965905457157	0.00225014394126313	0.00219662514722603	0.0022499216184877	-0.0125373050165014	-0.0106669533359847
8.5	0.00865985902313597	0.0115165823709904	0.00248945090501932	0.00191833038731807	0.00248855762501036	0.00192152174801072	-0.0126297111755566	-0.00918463269106878
8.6	0.0106063019398644	0.00863929376085842	0.00273361771374908	0.00155347231585726	0.00274310967943064	0.00154690295750849	-0.0128653569956499	-0.00971317891879445
8.7	0.0113486611710678	0.00604122163984107	0.00291721124607328	0.00115051312514075	0.00292277519542753	0.00115122497481199	-0.0142019064256616	-0.00952074187751738
8.8	0.0116738293790853	0.00342414635372482	0.00305315885468084	0.000739770384547215	0.00305891385805894	0.00073099501207258	-0.0156423458389758	-0.00890392770031469
8.9	0.011279148057555	0.00085072922527123	0.00313120416289187	0.000304539570749992	0.00313032741319464	0.000302292388513793	-0.0171434382999245	-0.00746991594333167
9	0.0111167218495895	-0.00100217420340649	0.00313690475462315	-0.000142126817103375	0.00314007461659311	-0.000138036226201275	-0.0170629568344087	-0.00480134032267396
9.1	0.0106554047563745	-0.00411095725387025	0.00308804031692972	-0.000579807346457534	0.00309095092926677	-0.000566926669473308	-0.0162484901765147	-0.0038704636328682
9.2	0.00919789430119402	-0.00672537321104195	0.00297908440337776	-0.000996620411757617	0.00298673283994812	-0.000999510936676278	-0.0157060256936218	-0.00276374613923673
9.3	0.00736966877169193	-0.00923739710025903	0.00280982862424835	-0.0014024712684113	0.00280908678805418	-0.00140745840575908	-0.0146981142212985	-0.00202513002856244
9.4	0.00454513743476668	-0.0114338523582856	0.0025842009714554	-0.0017929474363115	0.00259072869277496	-0.00178537521484096	-0.0140483995249486	-0.00171691402831129
9.5	0.00183459216081861	-0.0125250985114824	0.00230766723323825	-0.00212144150982643	0.00231506072037104	-0.00212280002678776	-0.0126863201734708	-0.00134780054961509
9.6	-0.00205499981157482	-0.0140638210477621	0.00199418847615559	-0.00242510403338402	0.00199451912979349	-0.00242412369644884	-0.0128451259914028	-0.00265092914070109
9.7	-0.00652094012156128	-0.0136926012508645	0.00162644664635324	-0.00267603838381332	0.00163196309446182	-0.00268334443760047	-0.0138823529734882	-0.00255943986522346
9.8	-0.0106922640560234	-0.0122902533630565	0.00124079278305976	-0.0028835269228003	0.00124649568033646	-0.00287505202489189	-0.0147944461811124	-0.00193438656843774
9.9	-0.0147700752636536	-0.00966145653576335	0.000836821087776	-0.00301979859281478	0.000829508360952167	-0.00301856696987026	-0.0159301771246987	-0.000566349183588394
10	-0.0172321790921915	-0.00557425993389503	0.000411481646701401	-0.00311117780482751	0.00040400444135957	-0.00312360422772106	-0.0153718451039827	0.00174513716849193
10.1	-0.019033155112533	-0.00249540275331663	-3.35133334166552E-05	-0.00314438822390603	-4.3730517565649E-05	-0.00313899181272497	-0.014624916829577	0.00189617679383044
10.2	-0.0206565433810147	0.00149206347275361	-0.000479453575879253	-0.00310575916584955	-0.000482852889018502	-0.00310298112372082	-0.0146185034992061	0.00253946309276053
10.3	-0.0214225953790728	0.00583732305638912	-0.000910000557154322	-0.00299964827551215	-0.0009019275736981	-0.00300870994117356	-0.0145305345523082	0.00330800142878948
10.4	-0.021620309465132	0.0106888834756822	-0.00130543241338502	-0.00284753580710921	-0.00130373699157335	-0.00285372420455208	-0.0145135091531709	0.00447588267064445
10.5	-0.0196697782667884	0.0163779460929677	-0.00170194878680662	-0.00265045327232808	-0.00169883324305793	-0.00263745304158452	-0.0128190292270292	0.00634375918170825
10.6	-0.0165085231267309	0.0203042091880864	-0.00205381345849123	-0.00237547695675696	-0.0020516355546644	-0.00237929929204486	-0.0109726129708097	0.0060796432332833
10.7	-0.0126493970028083	0.0237255224417417	-0.00236629226138413	-0.00207312515211485	-0.00236279628897918	-0.00206785678559297	-0.00955078018853171	0.0056807620890084
10.8	-0.00845945916536846	0.0258829519957298	-0.00263408031068475	-0.00171409371912145	-0.0026288977640838	-0.00172301119313263	-0.00884787684923879	0.00459119946491054
10.9	-0.00466656197979605	0.0277406448413098	-0.00284322545388913	-0.00133992971289189	-0.00284840662672333	-0.00133919262434491	-0.00931039932653273	0.00413106713242362
11	0.00073230881206972	0.0296927405678996	-0.00299852683919728	-0.000919451769670367	-0.00300337479116084	-0.000926164383738097	-0.00843781425779921	0.0047705486001227
11.1	0.00600663732602778	0.0291782856414375	-0.00310287768475261	-0.00049954809178567	-0.00309204994404227	-0.000496706305670297	-0.00806455830385997	0.00342997303051774
11.2	0.0109051867190376	0.0283834474643953	-0.00313314354229306	-6.45970890951007E-05	-0.0031402787839161	-6.94177668551934E-05	-0.00847793643021783	0.00307893372955539
11.3	0.0159210899410652	0.0265296907786675	-0.00310683358693254	0.000383299982591642	-0.00311835071400055	0.000373294092720421	-0.00860527547746252	0.00303628698586114
11.4	0.0201455815550309	0.02386869098739	-0.00303116480156097	0.000810965384009081	-0.00302625886518417	0.000818502969825744	-0.00897643561775531	0.00335794303113439
11.5	0.0248751049245341	0.0208901486602136	-0.00288634655000859	0.0012192772911098	-0.00288911851272215	0.00122950684994319	-0.00786110450612098	0.00409659416370083
11.6	0.0284116014687677	0.0153701505964317	-0.00269814747928263	0.00160815886328221	-0.00269813259908308	0.00161109018847817	-0.0075313317935123	0.00254509950325418
11.7	0.0301923282827902	0.0100446016886038	-0.00243831840495854	0.00196369410362591	-0.00243888963341588	0.00197227499728899	-0.00830320157662773	0.00201317730229981
11.8	0.0309908276912786	0.00483310291409368	-0.00214342976593154	0.00229492977451201	-0.00214753415493517	0.00229661923534548	-0.00907398862537894	0.00230062022943291
11.9	0.0309043637984311	0.000317293192691267	-0.00179623777663987	0.00256757391005912	-0.00180921828126761	0.00257184279007068	-0.00950964723338191	0.00404701207765359
12	0.0321337782693986	-0.00382956190962384	-0.00143085798135901	0.00279264381714505	-0.00143026790296711	0.00279405435234201	-0.00689337719991069	0.00602974128873735
