# GHZ S RI R 50
0.2	0.00560861232535968	0.000510623374585902	0.00305298482561235	-0.000896508188049121	0.00306336096138422	-0.00088968187109244	-0.0143210190598347	0.00419685568094082
0.3	0.00598367139272308	-0.00118329085247078	0.00291022385450842	-0.00132043775966532	0.00290295231744928	-0.00130748574032645	-0.0134830538867442	0.00465247239485593
0.4	0.00579148999663506	-0.00245565676746877	0.00268008626748744	-0.00169359878191795	0.00268537456876209	-0.00170217129034019	-0.0129456714642229	0.0055708458550303
0.5	0.0058658677319566	-0.0040158555134992	0.00242128260441055	-0.00205324329567736	0.00243285797364295	-0.00206550569870971	-0.0117384340107357	0.00605301474795592
0.6	0.00427401226939124	-0.00583782510470632	0.0021076781827218	-0.00236842848272386	0.00210689462817302	-0.00237559519127725	-0.0118670084969048	0.0059920097098073
0.7	0.00247719876916698	-0.00631000992218429	0.00176062421494046	-0.00264756676109227	0.00175866331226482	-0.00264776759482572	-0.0119757559431687	0.00691144340701191
0.8	0.000861400087283234	-0.00641794026843746	0.00137446598678447	-0.00286692348995015	0.00136183227108263	-0.00287149378334291	-0.0118321360135615	0.00794908887606429
0.9	-0.000928355633165333	-0.00588073342176249	0.000955352178934738	-0.00303227705599931	0.000956392940769301	-0.00304300965090589	-0.0116780930239679	0.00923295143169878
1	-0.00150415160255452	-0.00456103036409248	0.000528230680389088	-0.00313493884168177	0.000518342011904069	-0.00313568080336909	-0.0103368998457596	0.0108868040853105
1.1	-0.00221426754587683	-0.00503485894675775	7.27486405343078E-05	-0.00316463431548476	6.923837119243E-05	-0.00318233902237799	-0.00933412968204297	0.0107015635648863
1.2	-0.00392666907145191	-0.00486515147397694	-0.000371625490825216	-0.00315536990189578	-0.00037244035795402	-0.00315328656131701	-0.00892881045081117	0.0112335196990996
1.3	-0.00563953207587838	-0.00463632881487599	-0.000801374632643972	-0.00307208635327254	-0.000804626491750869	-0.00307409801152965	-0.0078288611978933	0.0117521405442237
1.4	-0.00719039225917433	-0.00390294791014394	-0.00122465323915972	-0.00292247471553892	-0.00122343857131196	-0.00292802706651344	-0.00648725819142966	0.0119321511033888
1.5	-0.00718281158745297	-0.00292475396082862	-0.00162559195734912	-0.00272680262305978	-0.0016239740423735	-0.00273533228790335	-0.00460293842728442	0.0114528449427938
1.6	-0.00780353736427834	-0.00169175034227512	-0.00199010476867764	-0.00247475060273365	-0.00199031863293725	-0.00248000727821019	-0.00455570342332554	0.0112744715010343
1.7	-0.00728989712418542	0.000352934947323948	-0.0023212201683911	-0.00217519606285082	-0.00232218381295629	-0.00216890650937573	-0.00381746946193207	0.0119978965258582
1.8	-0.00622244205455166	0.00212329876701759	-0.00259341758847868	-0.00182097880400413	-0.00260443720034023	-0.00182662515587988	-0.00287950233705591	0.0124248083181168
1.9	-0.00471859733843557	0.0036919876233398	-0.00281931355589902	-0.00144846934028731	-0.00283179829414639	-0.00144227398804869	-0.00188470179275095	0.0129255724243046
2	-0.00215304413310274	0.00424955319308088	-0.00299812865458761	-0.00103882790499083	-0.0030077921140561	-0.00103408014621591	-0.000203581879499928	0.0128389761900415
2.1	-0.0010784242909356	0.00352282545414377	-0.00311163855612639	-0.000604212644910504	-0.00310754078744242	-0.000606225571326095	0.00010483659585116	0.0120602467267039
2.2	-0.000166627579389035	0.00357932025862198	-0.00316688645406534	-0.000162461171060511	-0.00317824997935641	-0.000165274409165387	0.000636606848979733	0.0121997304466177
2.3	0.000874071688183663	0.00336996739104343	-0.0031604386216353	0.000283686740127254	-0.00316015818677106	0.000276772475477459	0.00138061593782921	0.0121387619329977
2.4	0.00180148054763482	0.00326061712029147	-0.00308653354491546	0.000725141175607916	-0.00308910264963237	0.000720873808383099	0.00212065631782498	0.0122543573119638
2.5	0.00374270677982608	0.00293359366804188	-0.0029450799042421	0.00114251323198475	-0.00295598435152126	0.00114897762166503	0.00384357831966284	0.0121616089722618
2.6	0.00489783401284679	0.000853382314154102	-0.00276490446755142	0.00154504507459882	-0.00276140079936268	0.00153266299775947	0.00474093444459335	0.0106971935947871
2.7	0.00525921573126862	-0.000783441055705974	-0.00251565112594966	0.00191593903849908	-0.00252094760033861	0.00191597791919727	0.00497512250178678	0.00988994731183404
2.8	0.00545631473491978	-0.0023619887337138	-0.00222890916121762	0.00224342280362485	-0.0022210166890419	0.00225319788951742	0.00513959701071554	0.00947280158572149
2.9	0.00563738248211365	-0.00375264324159285	-0.00188922184741014	0.00254297495833134	-0.00188550569846018	0.0025425232814023	0.0056992089500701	0.00955561285949615
3	0.00627089872523732	-0.00577098681006541	-0.00149746899610292	0.00277288384792375	-0.00151222765727624	0.00277908828071771	0.00712495156080683	0.00915503414640337
3.1	0.00530491276922988	-0.00839567181589765	-0.00110743834734121	0.00294646508684035	-0.00110272710574517	0.00295479012292361	0.00740709733835257	0.00825994656182172
3.2	0.00385665336283459	-0.0101273262498759	-0.000684552235489108	0.00308123870385556	-0.000686302469213436	0.00308063810767984	0.00777390959813338	0.00812819536762138
3.3	0.0021192762073203	-0.0116626505570966	-0.000243884322783043	0.00314685664996036	-0.000242258774358627	0.00314310316042619	0.00841472050705972	0.00783759753320706
3.4	3.9506215585666E-05	-0.0125161050140264	0.000203357918047009	0.00313487523356016	0.000197263147956374	0.00315147779082281	0.00918171951067652	0.00747488678259
3.5	-0.00137789077676857	-0.0134439258470097	0.000621350162838044	0.00308863291917384	0.000626943588749254	0.00308867729382884	0.0104177943907806	0.00637417051778651
3.6	-0.004334278924526	-0.0146937152929068	0.00105078120636462	0.0029682974921843	0.00105897225758899	0.00296793103616366	0.0102568288754987	0.00486152392154641
3.7	-0.00749718408331908	-0.0143625811054894	0.00146085055761338	0.00278257406755901	0.00145135584095031	0.00279630658312999	0.0102104623515581	0.00427102938140566
3.8	-0.0103184063960009	-0.0132441095971426	0.00183626315696507	0.00255136868326166	0.00183872408297183	0.00256049439420267	0.0103776599554934	0.00367964950811672
3.9	-0.012506010324678	-0.0113463569621574	0.00217817848941399	0.00227626938278943	0.00217091172452924	0.00227453599603138	0.0106612888480033	0.00320210726694696
4	-0.0133277916290352	-0.00973331418305792	0.00246271015131824	0.00195472455297233	0.00246714164226397	0.00195226397993245	0.0116570979082615	0.00219138536768908
4.1	-0.015244106906098	-0.00880443869163654	0.00271168047722241	0.00158902556161596	0.00271043491613882	0.0015897694085517	0.0113261899206642	0.000664114462133863
4.2	-0.0170881862480825	-0.00657381647890621	0.00290490267003918	0.00118610266748207	0.00290929688607464	0.00117737476876304	0.0110531716669655	7.60846220749887E-05
4.3	-0.0183254258755089	-0.00392446970987423	0.00304303446428212	0.000774261159948332	0.00304938683361081	0.000766435447588366	0.0110106780445928	-0.000569902462890672
4.4	-0.0190073306011187	-0.00069021503579565	0.00311611144561978	0.00034075901347267	0.00311846426494335	0.00033849237834123	0.0109655182296844	-0.000999397088607774
4.5	-0.0180001465398924	0.00230542467860087	0.00313350468146036	-9.98645606942596E-05	0.00313882062082348	-0.000103269180454318	0.0117744553231188	-0.00185787429719346
4.6	-0.0177914038083386	0.00401760926333885	0.00308112204444519	-0.000538117404275132	0.00308243920311921	-0.000525277332068311	0.0111939538953058	-0.00355624106926824
4.7	-0.0173575469732825	0.0066421128074542	0.00297265898014288	-0.000951654878313958	0.00298779838679882	-0.000961321647889903	0.0104447549877456	-0.00431830101815152
4.8	-0.0163179032067424	0.00928754026627944	0.00280910133640213	-0.00136131856131264	0.00281749232350762	-0.00136742736655799	0.00984173631617908	-0.00487516736015286
4.9	-0.0144686763371722	0.012008615917909	0.00258524646438902	-0.00174136069926142	0.00258940583855479	-0.00173850174515237	0.0094430550343894	-0.00503837274754046
5	-0.0111384726115506	0.0136525901643565	0.00232172283407659	-0.00208743349543197	0.00232533155065027	-0.00208481293461326	0.0100763294340333	-0.00566211911101215
5.1	-0.00888402590346482	0.0140935224426405	0.00201533248966482	-0.00239049845983815	0.00201762072246722	-0.00238916218619647	0.00951842108256208	-0.00677577645678283
5.2	-0.00637519511592812	0.014979334873286	0.00166032176848412	-0.00263627346019823	0.00166199922405528	-0.00264138192897739	0.00929192820807063	-0.00714311523964222
5.3	-0.00346078061243789	0.0153436534911002	0.00127598807618008	-0.0028466505016586	0.00127910201642156	-0.00284461800286352	0.00925810015333794	-0.00762722283534096
5.4	-0.000361217794199521	0.0153920749279599	0.000855274680894063	-0.00298789479624313	0.000872239525692756	-0.00299905511016847	0.0093292763641344	-0.00815835454840766
5.5	0.00358587758755354	0.0139496538577657	0.000451193762715297	-0.00308238926015308	0.000461137394891345	-0.0030917426933914	0.00986360346563409	-0.00970701996681852
5.6	0.00500290120043298	0.0113397517329725	1.68819106520108E-05	-0.00312037631784063	8.42449811130738E-06	-0.00312355500929007	0.00807521402558378	-0.0112426525794197
5.7	0.0060495511040607	0.00987243343392486	-0.000410039291092952	-0.00308842785802337	-0.000426509519771399	-0.00309203265175546	0.00667341549107121	-0.0112298773116332
5.8	0.00704915349066962	0.00834685808827046	-0.000849678414315375	-0.00299298133378437	-0.000853192519011504	-0.00300683787061418	0.00573971231552837	-0.0113077475094079
5.9	0.00778735149215573	0.00725116385316044	-0.00124737525948142	-0.00285528563521414	-0.0012555293450908	-0.00285520727329207	0.00482991441713302	-0.0111167310713592
6	0.00997032410748131	0.00576614103320512	-0.00164343236154605	-0.00265489841246863	-0.0016398995166596	-0.00265506182026836	0.00505172366818552	-0.0112603844865552
6.1	0.0103344099699498	0.00198109603434265	-0.0019958271872539	-0.0023996562368443	-0.00199745192743092	-0.00239568651851902	0.00374193760457857	-0.0125878700726108
6.2	0.00934216234807352	-0.000757083530733556	-0.00230289776229757	-0.00208984257865127	-0.00230656501886213	-0.00210160652648459	0.00224384768334767	-0.0126279024415795
6.3	0.00799944235048611	-0.00302249289992456	-0.00257695305870304	-0.00176096465181082	-0.00258600643207324	-0.0017552916348131	0.00119312265029148	-0.0124836528735646
6.4	0.00656519622694415	-0.00456633525585291	-0.00280287331256931	-0.00137644923444342	-0.00279322165935481	-0.0013812916169586	0.000714566640542307	-0.0120560290333827
6.5	0.0059188313363161	-0.0070075340371259	-0.00295894335249791	-0.000972378854078454	-0.00296674073779277	-0.000967944902397922	0.00109690345748742	-0.0129145530401428
6.6	0.00272357714957814	-0.00908131318373756	-0.00306258263592031	-0.000554377585307559	-0.00306419072644724	-0.000558319194076524	-0.000377441337710243	-0.0135438247008576
6.7	-6.21356861080879E-05	-0.00936316870755227	-0.00311471566747049	-0.00012439338986578	-0.00312350758119828	-0.000118203879990075	-0.00133078317647266	-0.0133356426588479
6.8	-0.00268026900206453	-0.00901708124816111	-0.00309651569471544	0.000311623012784387	-0.00310752915174443	0.000316582558812498	-0.00233527838675439	-0.0130375208752233
6.9	-0.00486320512277665	-0.00752307432573123	-0.00302377524017036	0.000741712824332921	-0.00302674489271003	0.000744070842266087	-0.00302021295153404	-0.012142755421412
7	-0.00501304407695288	-0.00674471547655775	-0.00288728168260089	0.00115502880196353	-0.00289997041279932	0.00115279427626718	-0.00243569121280256	-0.0124040036269221
7.1	-0.00768149968393415	-0.00684683251327139	-0.00271872173949758	0.00153710956340705	-0.00271514842435442	0.00154571955784892	-0.00433403960416592	-0.0129363288559284
7.2	-0.0101239358321604	-0.0048322467074588	-0.00247001151035686	0.00190395308079355	-0.00247650094542584	0.00190596915360031	-0.00549427101423592	-0.0118330237927091
7.3	-0.0119836122144474	-0.00223506938006609	-0.00218089888649005	0.00222234153722668	-0.00219205868426894	0.00222727174987079	-0.00595483508591067	-0.0108841065245155
7.4	-0.0133221771897303	0.00142640144087697	-0.00184597697294648	0.00250386959060804	-0.00185291438124918	0.00251730935311959	-0.0062116351981338	-0.00981078920971314
7.5	-0.0118366601208655	0.00511672918218116	-0.00149295694704141	0.00274400599938337	-0.00148609116143196	0.00275142027999984	-0.00475036649091155	-0.00961072365400526
7.6	-0.011175296453331	0.0064187754606816	-0.00109316307068767	0.00293128682526043	-0.00109448289316244	0.00292660105159672	-0.00517765194000118	-0.0112982670257745
7.7	-0.0104678078349184	0.00869236346966414	-0.000668561505497003	0.00305790500678324	-0.000669884395682611	0.00305683503524752	-0.00619474388561971	-0.0120364856483824
7.8	-0.00884473756532892	0.0107058813361053	-0.000247087576251235	0.00311252192325683	-0.00025492793337114	0.00311886809441415	-0.00735430502793832	-0.012411958433966
7.9	-0.00623750486325964	0.012474951505964	0.000189048774004822	0.00312752169055998	0.000196944473712791	0.00312910648041144	-0.0082834380090049	-0.0122264732552842
8	-0.00232434301206411	0.0120011954913868	0.000632478879519603	0.00306794123139675	0.000632505065510131	0.00307283576831906	-0.0087781196476464	-0.0129825038036128
8.1	-0.00106729416127673	0.0110921160929421	0.00104691936566142	0.00295393942887391	0.00106603142224457	0.00295521997380106	-0.011360348468158	-0.012742576282049
8.2	0.000668263661300787	0.0111547244432851	0.00145238374763469	0.0027787532700716	0.00146169713885875	0.00277166347855991	-0.012594465106811	-0.0113002813147637
8.3	0.0026167809956642	0.0109000088500651	0.00183180225241046	0.00254687199568034	0.00183001144856304	0.00256040227591921	-0.0133642231418894	-0.0100493978553734
8.4	0.00478689350103435	0.0109050355820283	0.00217429310239391	0.00227582018471241	0.00217126113841221	0.00227556302345146	-0.0138176759905588	-0.00857058501451031
8.5	0.0086492419070348	0.00931877947798213	0.00246791577956109	0.00194396206773277	0.00246698893683334	0.001947142486868	-0.0131448472973158	-0.00813161057014339
8.6	0.00959961975098123	0.00593795855106179	0.00271493972047338	0.00158627967516326	0.0027245104736944	0.00157982434691239	-0.0146738497474265	-0.00811810332122545
8.7	0.00997730640439801	0.00384041982418308	0.00290698328304819	0.00118729174674949	0.00291254567356816	0.00118807186268389	-0.0155813741581163	-0.0066788766362395
8.8	0.010175528490862	0.00182091440082008	0.00305104548220926	0.000777080853939061	0.00305691549933611	0.000768354016030224	-0.0160098397015279	-0.00539272022143767
8.9	0.0102888552380022	0.000260822903017134	0.00313466968028269	0.000340079732131016	0.00313381603809879	0.000337817863962213	-0.0159021482528599	-0.00378213341257998
9	0.0117832100140778	-0.00214863819886807	0.00314518077195454	-0.000102955934504047	0.00314830572708934	-9.88170036952149E-05	-0.0143839580936205	-0.00314278432632063
9.1	0.011012077983003	-0.00616125596624868	0.00310852893732053	-0.000543198585609068	0.00311128894499158	-0.000530226219622765	-0.0145879094839486	-0.00336855831302789
9.2	0.00940085436922796	-0.00914013069263303	0.0030060839244629	-0.000966127115841322	0.00301380563832689	-0.00096894103569814	-0.0145506696010721	-0.00284292714280614
9.3	0.00715769960297685	-0.0117959809937653	0.00284146381457283	-0.00137731763670479	0.00284077612229074	-0.00138234053886557	-0.0144675692991024	-0.00239602553476275
9.4	0.00450322085353642	-0.0133890206437021	0.00262116289170642	-0.00177160216022658	0.00262763543931667	-0.00176390599414611	-0.0142727729746763	-0.00162044356398792
9.5	0.00241991731291233	-0.0155871333904312	0.00235411215548534	-0.0021098272226487	0.00236158507900156	-0.00211110284396155	-0.0135845437335988	-0.00196399824543417
9.6	-0.00253256764544506	-0.0172202548361325	0.00203927057554479	-0.00242642721455528	0.00203959374371756	-0.00242543403947568	-0.0150239395930639	-0.00171751402208832
9.7	-0.00719224749117959	-0.0164713083811326	0.00166965211418112	-0.00268542209392571	0.00167529698681384	-0.00269274275669297	-0.0154161411182468	-0.000342266824733973
9.8	-0.0114407745172507	-0.0146690783462744	0.00128268859088532	-0.00290122069798598	0.00128836608300102	-0.00289260000669192	-0.0153929741090077	0.000857638972276784
9.9	-0.0149950425658128	-0.0113699035102375	0.000876380725929667	-0.00304802136235486	0.000868967853095967	-0.00304684627527786	-0.0151037643053996	0.00224388173720136
10	-0.0162720310351967	-0.00838633682418908	0.000439468531137054	-0.00315011101207305	0.000431980269473208	-0.00316275873881451	-0.0137989535833478	0.00250107823799221
10.1	-0.0191237849091883	-0.00602108933441261	-1.42197821916695E-05	-0.00318432484989867	-2.45998898921594E-05	-0.0031789243272537	-0.0145257605542884	0.00236802636724571
10.2	-0.0213597341082505	-0.00179988952431203	-0.00046759670951773	-0.00314946473125542	-0.000471057043035539	-0.00314666999288621	-0.0147036323092093	0.00345555295503588
10.3	-0.0224473417331689	0.00317090147410697	-0.000908195883732166	-0.00304598009458987	-0.000899966190846043	-0.00305512932617483	-0.0143819814334552	0.00451517615531941
10.4	-0.021906495389452	0.00893269583003735	-0.00131618994664632	-0.00289277888997765	-0.00131445190975503	-0.00289905247932679	-0.0133887033003941	0.00553300350375128
10.5	-0.0185788940741695	0.0132934627504011	-0.00172007470605176	-0.00268629091647802	-0.00171693661789728	-0.00267312173588594	-0.0116033950924443	0.00504590656649224
10.6	-0.0164868831272163	0.0161777460628627	-0.00207452758700453	-0.00241004233412664	-0.00207231370808582	-0.00241390817576691	-0.0120323463866851	0.00436345678027892
10.7	-0.013711808538985	0.0196110730637171	-0.00239479762431268	-0.0021046473434128	-0.00239126299085089	-0.00209930281186432	-0.0121990062079047	0.00472818052265209
10.8	-0.0102738827773699	0.0226957340350467	-0.00266952296131783	-0.0017384272233421	-0.00266426651960457	-0.00174746489569821	-0.0123434339895113	0.00533681544058136
10.9	-0.00584490556626479	0.0258128105595391	-0.00288094977558156	-0.00135460612557156	-0.00288619685509002	-0.00135385494190544	-0.0119727088882765	0.00645370808470759
11	0.000792953455401613	0.0268085859034753	-0.00303517822258761	-0.000931613239584172	-0.00304008396156913	-0.000938409845697668	-0.0105485291831904	0.00638561882047782
11.1	0.005202212305273	0.026009081322924	-0.00314664222798357	-0.000504471176114219	-0.0031356610347973	-0.000501596833436818	-0.0111110935988762	0.00637528685052665
11.2	0.00984377238614464	0.0254874286396884	-0.00317693599262875	-5.87217467517441E-05	-0.00318418107111218	-6.35941591240898E-05	-0.0106491094992841	0.00735714603209351
11.3	0.0145852605681054	0.0242193162292574	-0.00314727600077765	0.000397978255766156	-0.00315897814969955	0.000387873702852991	-0.00960283324180545	0.00811854747268831
11.4	0.0193116564304704	0.0225285070868752	-0.00306789892587598	0.000830295521993078	-0.00306290764488657	0.000837916002075761	-0.00817727332925238	0.00863647545329723
11.5	0.025157245179739	0.0186120994510552	-0.00292532170064998	0.00124691158880774	-0.00292810134588318	0.00125730257400365	-0.0061744621405327	0.00739246334084738
11.6	0.0279167290863183	0.0130232978114954	-0.00272786796814005	0.00164744903030961	-0.00272783557537892	0.00165042286568808	-0.00642004994827671	0.00620098260291442
11.7	0.0299094428931507	0.00827871651710547	-0.002458273866928	0.00200695625993147	-0.0024587948381958	0.00201565799021027	-0.00597150568569156	0.00584126539799181
11.8	0.0314531547328123	0.00344872013239231	-0.00215546901553264	0.00234087321688902	-0.00215961589247858	0.00234261465180456	-0.00533148608948556	0.00526712122420489
11.9	0.0330972296703724	-0.00120232537940637	-0.00180145945541799	0.00261781120075169	-0.00181458947667191	0.00262224180755117	-0.00443351502946864	0.00482565460457443
12	0.0350151719250148	-0.00824833651574689	-0.00142002130309969	0.00284772441530029	-0.0014194073096624	0.00284914822796822	-0.00341832083309827	0.00287082247975575
