# GHZ S RI R 50
0.2	0.00589775272449591	0.00149379538936977	0.0030470410941733	-0.000898177464933126	0.00305740719532352	-0.000891373057865817	-0.0140017633749214	0.00518836823188402
0.3	0.00621257160513485	-0.000525399208562554	0.00290248960355868	-0.00132140782406865	0.00289524971209982	-0.00130847344401349	-0.0132119063454282	0.00531714583812258
0.4	0.0059967874661194	-0.00228065233613079	0.00267049311899966	-0.00169276639328736	0.00267575519712098	-0.00170132314558726	-0.0126809546104903	0.00574515569403741
0.5	0.0050958512426068	-0.00367460493812019	0.0024116681820373	-0.0020485099310316	0.00242319557790615	-0.0020607416951868	-0.012434230958012	0.00636727849966285
0.6	0.00426634074151533	-0.00452367500589509	0.00209967286843461	-0.00236275498141899	0.002098886684268	-0.00236989953374943	-0.011805084546424	0.00725651480110173
0.7	0.00315355942278447	-0.00532094213854158	0.00175261689330255	-0.0026401901075351	0.00175066235028877	-0.0026403886802332	-0.011235383776691	0.00783066447762949
0.8	0.00189783184315263	-0.0057741541928586	0.00136749877149157	-0.002857047822216	0.00135490951641291	-0.00286159298515011	-0.0107452566292894	0.00850303302308027
0.9	0.000578042990204116	-0.00589955419369073	0.000951162011866418	-0.00302008001330744	0.00095219743480241	-0.00303076919341927	-0.0101486279580375	0.00911312489491085
1	-0.000998488379670061	-0.00590777887891592	0.000527299796724592	-0.00312388143970524	0.000517445739858598	-0.00312462367998555	-0.00982778062866475	0.00946507413903514
1.1	-0.00256630580426273	-0.00503754730747099	7.1582226271691E-05	-0.0031527868874524	6.80801219211254E-05	-0.0031704242071381	-0.00964893126580623	0.0106261696787348
1.2	-0.00366867126088349	-0.00432362567323308	-0.00036996701099783	-0.00314191990255473	-0.000370778450817862	-0.00313984546700573	-0.00863300800162822	0.0116919427147535
1.3	-0.00487977355564389	-0.00377035197175057	-0.000796340193541935	-0.0030588957686057	-0.000799576701074385	-0.00306090011395854	-0.00703713753842634	0.0125099573339605
1.4	-0.00591131983035669	-0.00321881453705925	-0.00121710723491242	-0.002911313611716	-0.00121589299440164	-0.00291684180075236	-0.00520022509606481	0.0124844607189289
1.5	-0.00661005765256104	-0.0022059971062972	-0.00161837044760308	-0.00271570726030089	-0.00161675787342249	-0.00272420111719792	-0.0040141548973651	0.0120450814377142
1.6	-0.00639401851202361	-0.000733511757746563	-0.00197803965116674	-0.00246296890398649	-0.00197824904600536	-0.0024681980023539	-0.00317132862811976	0.0120518937897232
1.7	-0.00585898933942995	0.000487645880977765	-0.00230577475249335	-0.00216694632342951	-0.00230674225349301	-0.00216069158202805	-0.00244871058954216	0.0119756588639706
1.8	-0.00507750627787247	0.00177456971165165	-0.00257672652964361	-0.00181634241488257	-0.00258767904533195	-0.00182197983874809	-0.00180398204191688	0.011945399839055
1.9	-0.003997208016626	0.00271335233825342	-0.00280235665591252	-0.00144609830086629	-0.002814788741405	-0.00143995676243982	-0.00123055327706498	0.0118407694080079
2	-0.00303932438616643	0.00348044110301507	-0.00297733888099642	-0.00103847188706114	-0.00298695184019799	-0.00103377340091228	-0.00113479595115209	0.0119698109727955
2.1	-0.00149155666253107	0.00420087739117074	-0.00309068423977456	-0.000611850700524276	-0.00308660388317361	-0.000613836631992723	-0.000344550790486554	0.0126191337481487
2.2	0.000118286939425256	0.00421816102683085	-0.00314895346465056	-0.000174395212992935	-0.00316024361352127	-0.000177239107140901	0.000872645705960318	0.0127050827583115
2.3	0.00156796358854616	0.00376839762168071	-0.00314492926581636	0.000268676578209241	-0.00314462076005466	0.000261800095785729	0.00200333787311594	0.0124010856979879
2.4	0.0028419108147905	0.00296596050612303	-0.00307264884832786	0.000706669027635404	-0.00307518364808012	0.00070241354117961	0.00307079538029108	0.0118416276708603
2.5	0.00355757807696118	0.00177870785485981	-0.00293629233855199	0.00111744572047482	-0.00294717852968237	0.00112380508898806	0.00356065268962219	0.0109288791861215
2.6	0.00420285751654372	0.000937703996398615	-0.00276427980662165	0.00152084376985838	-0.00276070840146198	0.00150853300985111	0.00397753956464029	0.0107100397519349
2.7	0.00492261876241386	-0.000234206221427118	-0.00251882799808691	0.00189278054250284	-0.00252410545362356	0.00189278519897059	0.0045830961736183	0.0103504704750129
2.8	0.00556229461869107	-0.00164373593614261	-0.00223627890569504	0.00222034207151312	-0.00222848077617104	0.00223013624895201	0.00518425802170127	0.0100821441497684
2.9	0.00604935427266774	-0.00343781516591233	-0.00190280374901937	0.00252031240154268	-0.00189909595716064	0.00251989080627036	0.00602943714954179	0.00975109634865091
3	0.00585828353535229	-0.00541076078644951	-0.00151804241799728	0.00275708922302796	-0.00153283219303376	0.00276316561556698	0.00663248329589221	0.0094175876989298
3.1	0.00559150553698932	-0.00722618385370358	-0.00112683234047975	0.00293537942989142	-0.001122184746606	0.00294372807638276	0.00763418958699069	0.00932104310172967
3.2	0.0047074825621614	-0.00928330019679647	-0.00070626809879249	0.00307255304521711	-0.00070801185025557	0.00307194036666324	0.00851511382326001	0.00882955119556349
3.3	0.00325178204990964	-0.0112221459057899	-0.000268176037714526	0.00314283490732776	-0.0002665224165844	0.00313909658735807	0.00939698927077464	0.00815410757257307
3.4	0.00124338322574466	-0.0128354119271627	0.000178554018439776	0.00313800118623926	0.000172324429046241	0.00315456332982767	0.0102133319417444	0.00708416338654563
3.5	-0.00143452558494765	-0.0139878183001138	0.000602127507706657	0.00309596028406428	0.000607726670554341	0.0030960407298004	0.0102298962060685	0.00579521771227625
3.6	-0.00402083608825371	-0.0141704043047795	0.00103069673614987	0.00297564488211452	0.00103889085846803	0.00297533402950079	0.0104336374259852	0.00532262567224648
3.7	-0.00657351446121931	-0.0141113348872214	0.00144109634667059	0.00279516874637432	0.00143149367434132	0.00280883933686821	0.0109704311515537	0.00449245902346604
3.8	-0.00917973484851113	-0.0135105007081098	0.00181984602883474	0.00256859718402836	0.00182224249430108	0.00257775395952737	0.0113502717900944	0.00343579966168968
3.9	-0.01157061716278	-0.0124748465336786	0.00216690559583877	0.00229535699081698	0.00215963674017142	0.0022935710804987	0.0114604203812011	0.00214722651330345
4	-0.0140579194292236	-0.0109121998152346	0.00245130538524996	0.00197269990498949	0.00245575660349115	0.00197026741420209	0.01082454909772	0.00112040701867303
4.1	-0.015762389648302	-0.00854566298427609	0.00270287096184478	0.00161408439200175	0.00270161722107986	0.00161481910530453	0.0107750148972532	0.0010679317096962
4.2	-0.0169673742657911	-0.00621804102733133	0.00290341503440416	0.00121306554391654	0.00290789259476343	0.0012043488709322	0.0112014702293076	0.000564166935511916
4.3	-0.0178148837681722	-0.00380839461777005	0.00304728089824897	0.000800261741083561	0.00305371475336517	0.000792458651727497	0.0115915984088998	-0.00032740040305245
4.4	-0.0183457695159568	-0.00132694600745583	0.00312339447468686	0.000365235614231444	0.00312577174637276	0.000362979488554613	0.0117245378063567	-0.00150810552550069
4.5	-0.0188480672869892	0.00129503980630803	0.00314589332000026	-7.14903771649553E-05	0.00315125994901241	-7.48587056577108E-05	0.0111128007690521	-0.00269018102853354
4.6	-0.0185858441195253	0.00444475132619178	0.00310404914102409	-0.00051500029000708	0.00310526445759975	-0.000502072577180564	0.0107182613883348	-0.00305703747872234
4.7	-0.017584521164758	0.00724771759902864	0.00299900405620517	-0.000935298875259292	0.00301431409502134	-0.000944913391482761	0.0105586250209551	-0.00375021175079197
4.8	-0.016175340910909	0.00983421487390622	0.00283763542035706	-0.00135013852474454	0.00284612636556217	-0.00135622754526216	0.0103181051108874	-0.00443212015535067
4.9	-0.0140969979799625	0.0120196568874799	0.00261697433611624	-0.00173422954497459	0.00262114182650685	-0.00173131856370934	0.010146068067019	-0.00517516170835736
5	-0.0119275016028693	0.0137407062198908	0.00235892765883693	-0.00209089978403476	0.00236255231752663	-0.00208822828398957	0.00967203580985295	-0.00580609991405864
5.1	-0.00880393136548999	0.0152520619799294	0.00204632932630729	-0.00240364270067846	0.00204863302811674	-0.00240228244997724	0.00991390959770419	-0.00597784040567805
5.2	-0.00560939320997244	0.0156407926334711	0.00168753874216782	-0.00265348023018745	0.00168925457283379	-0.0026586288920482	0.0102848952486627	-0.00687786762887977
5.3	-0.00259516869523806	0.0154241330686109	0.00130043597744892	-0.00286901389128841	0.00130357169460455	-0.00286694844293802	0.0102910183083368	-0.00794922791376433
5.4	0.00018050883918575	0.0146513991261226	0.000875339111693348	-0.00301745130094819	0.000892529266011241	-0.00302867258466293	0.0099998131535019	-0.00930891423105285
5.5	0.00225041436184788	0.0136839536627556	0.000458978530552216	-0.00311631113573097	0.000469041272372968	-0.00312575982571071	0.00861943878867901	-0.0103826768124175
5.6	0.00474091389887976	0.012730210041796	1.93956991105309E-05	-0.00315006077759265	1.08601932462529E-05	-0.00315327609911369	0.00788882604217645	-0.0102829378774777
5.7	0.0067858445332738	0.0108947732670728	-0.000411471742304308	-0.00311897935385091	-0.000428100063300329	-0.00312263315743828	0.00741949747580658	-0.010662763959909
5.8	0.00825335021417333	0.00882556049205405	-0.000857895450756908	-0.00302387048959152	-0.000861443286718192	-0.00303786996163504	0.00686615455673155	-0.0112725571049099
5.9	0.00928417080426371	0.00657926308148519	-0.00126416094392999	-0.00288315785823082	-0.00127239934868133	-0.00288306763141039	0.00615964000858923	-0.0121585000150838
6	0.00930190959632209	0.00408699299213897	-0.0016620644471643	-0.00267377470558151	-0.00165850265463082	-0.00267394615044328	0.0042359361632857	-0.0131483266572413
6.1	0.00927654634596339	0.00239577432652399	-0.00201532905974457	-0.00241973116736811	-0.00201696558202101	-0.00241572483574137	0.00264523912937369	-0.0123680473090067
6.2	0.00916530767848194	0.000125496540422905	-0.00232848940880122	-0.00210643550144453	-0.00233221073939398	-0.00211830753214809	0.00206340559365338	-0.0119631128451321
6.3	0.00852203583780441	-0.00231281994114175	-0.00260624636044319	-0.00177083763372404	-0.0026153708213271	-0.00176508623770059	0.0017151536058217	-0.0120021412209731
6.4	0.00719625574135355	-0.00483094776600103	-0.00283116297002986	-0.00137869519997269	-0.00282144598176938	-0.00138361080844059	0.00135634008920917	-0.0125379079186101
6.5	0.00492183937298109	-0.00671178151809527	-0.00298552861555227	-0.000975273403199667	-0.00299338359110984	-0.000970788315916728	0.00016669672926799	-0.0128527805817774
6.6	0.00307266652982823	-0.00780624877427167	-0.00309528988678735	-0.000550553797330979	-0.00309692639752049	-0.000554530348893904	2.74579506388875E-05	-0.0125920913501473
6.7	0.000773461933224788	-0.00871632940748673	-0.00314541609346675	-0.000111579339557015	-0.00315426522915066	-0.00010529036695311	-0.000489272964889155	-0.0130392254119523
6.8	-0.00166520717894476	-0.00882117257421622	-0.00312264910715605	0.000330069239025051	-0.00313373603980841	0.000335128855392867	-0.00135100257071576	-0.0131866680866494
6.9	-0.00396437382259911	-0.00848857113409979	-0.00304646477539377	0.000762176102975069	-0.00304944913822052	0.000764568303317926	-0.00217397942476653	-0.0134317850183877
7	-0.00667770443336673	-0.00745144649284879	-0.00291190190026476	0.00118284487793699	-0.00292473804490375	0.00118065456936352	-0.00408140066973691	-0.0134030762789081
7.1	-0.00829340441276664	-0.00533507233265171	-0.00273265010098256	0.00157361666777493	-0.00272897364430627	0.00158228110369341	-0.00489622979277075	-0.0118311446113303
7.2	-0.00953973115940902	-0.00352593867714546	-0.00247484671800332	0.00194076249062441	-0.00248137394516949	0.00194285008790345	-0.00493599759373241	-0.0110115763029212
7.3	-0.0106684219642458	-0.00142274792343247	-0.00217936977223668	0.00225892749984722	-0.00219057701774028	0.00226399311917694	-0.00476904653356967	-0.0105858079641982
7.4	-0.0113727999367859	0.00080628500693801	-0.00183859458218894	0.00254236092315118	-0.0018454669588282	0.00255597980128321	-0.00451814593696039	-0.010956786153144
7.5	-0.0122610788016662	0.00305606554774042	-0.00147085432433516	0.00278321448693705	-0.00146384550427133	0.00279060158346357	-0.00549384799436521	-0.0120838684826319
7.6	-0.0120077902861522	0.00631610090896587	-0.00106341084388175	0.00295885282427289	-0.00106479335681081	0.00295415976047038	-0.00636340638635919	-0.0116813157237557
7.7	-0.0108861194877193	0.00878589496706193	-0.000636009787219074	0.00307917625921613	-0.000637350944789677	0.00307811692095964	-0.00692748955676672	-0.0121930660759992
7.8	-0.00906006709067036	0.0107179551584971	-0.000210567302268194	0.00312824913992171	-0.000218363245427358	0.00313471584530704	-0.00789699297389969	-0.0125994592146651
7.9	-0.00675532872856349	0.0118937682995177	0.000231646923811737	0.00313502219570187	0.000239589245225631	0.00313650606163935	-0.00917831494853557	-0.0128416668005701
8	-0.00477900275934396	0.012871851357646	0.00067330470890563	0.00305923056969125	0.000673396118056092	0.00306412430754832	-0.0114497087131567	-0.012166032635248
8.1	-0.00151945585825928	0.0135881494523095	0.00108082072632006	0.00294156951823581	0.00109994548847149	0.00294262986120226	-0.0118893907917952	-0.0103580646075419
8.2	0.00144194526043859	0.0131736874040554	0.00148507424596176	0.00276111508236272	0.00149430219952071	0.00275391607042881	-0.0119536348201572	-0.0094491620686734
8.3	0.00416899668777026	0.0122576986360324	0.00186115863386207	0.00252146050112919	0.00185953659925282	0.00253499780910593	-0.0119916082320136	-0.0088305673202455
8.4	0.00665140733780929	0.0107137996132751	0.0021953041773734	0.00224233279078799	0.00219227842480059	0.00224211333985022	-0.0121237672053831	-0.00880714933041255
8.5	0.00806491097594938	0.00882270201336498	0.00247752134867685	0.00191371876615289	0.00247662786978297	0.00191689664173825	-0.013756325477773	-0.00864699133561622
8.6	0.00988491931175303	0.0073541043737379	0.00272509232246503	0.00155523836546158	0.00273457655481549	0.0015487000221106	-0.0143750204085789	-0.00681657423891167
8.7	0.0113660271439648	0.0048736596356996	0.00291061488568052	0.00115216553176226	0.00291616812472989	0.00115288314743321	-0.0142135123155217	-0.00580822229748566
8.8	0.0121635797152355	0.00215842826422082	0.00304595197731101	0.000741701523025851	0.00305170496585754	0.000732950992773886	-0.0140839809170318	-0.00523398294703439
8.9	0.01254385675375	-0.000883861422899854	0.00312222319666018	0.000309901883454298	0.00312135322675588	0.000307658985737367	-0.0137734706345835	-0.00507714398803603
9	0.0117684197718009	-0.00412108445249238	0.0031348388579651	-0.000131636849757421	0.00313799262804413	-0.000127539081711527	-0.0145237276544293	-0.00512441431724004
9.1	0.0109281254459541	-0.00680675148555547	0.00308808526993579	-0.000574917571566881	0.00309097535186576	-0.000562035952996145	-0.0146407437805738	-0.00398599958681941
9.2	0.00933083380923706	-0.00985330644960805	0.00297752670311183	-0.000991344850713572	0.00298517161676785	-0.000994221498383001	-0.0145012489695615	-0.00356622748136116
9.3	0.00687339461132068	-0.0124186892503055	0.00280942814938437	-0.00139505204780535	0.00280869743848741	-0.00140003488008978	-0.0145717245275803	-0.00309447666554561
9.4	0.00386484541673056	-0.0144688654517879	0.00258903630584682	-0.00178495029005306	0.00259554035673871	-0.0017773601217923	-0.0147204269680297	-0.00277572186841155
9.5	-8.98384845201357E-05	-0.0153827268280566	0.00231295358797193	-0.00212175683470695	0.00232035820833517	-0.00212310923939628	-0.0157345642405751	-0.00188473427594484
9.6	-0.00337055006065254	-0.0152328447907097	0.00199461910579523	-0.00242278907475823	0.0019949490379921	-0.00242180902146634	-0.01546424414786	-9.27864312410678E-05
9.7	-0.00692826876671998	-0.0148348214175571	0.001629090008074	-0.00267226865414842	0.00163461303817279	-0.00267956296821862	-0.0148703954585024	0.000797582178626374
9.8	-0.0105918293432609	-0.013527463637608	0.00124533490161609	-0.00288149245000514	0.00125102422982473	-0.00287300871098896	-0.0143908043182336	0.00145760980554207
9.9	-0.0139384696752735	-0.0113705178320083	0.000839602666825894	-0.0030215172495524	0.000832283466929433	-0.00302028986805699	-0.0140471568589374	0.00170931668549326
10	-0.0173942273813721	-0.00832749436391077	0.000409088806983346	-0.00310755493675981	0.000401613394611787	-0.00311996137537151	-0.0149584032841335	0.00209803396331745
10.1	-0.0192573960362682	-0.00400765947214206	-2.89410201319765E-05	-0.00313917559898611	-3.91488611865779E-05	-0.0031338028915252	-0.0147222411541322	0.00394264060696634
10.2	-0.02015870058948	3.59762286310412E-05	-0.000473874503410346	-0.00310396977719668	-0.000477275616307279	-0.00310119971989834	-0.0136250142488955	0.00487698947790683
10.3	-0.0203140053671189	0.00419938966606765	-0.00090589043068843	-0.0029989142118318	-0.000897811575974973	-0.0030079608165907	-0.0124451808719921	0.00520132499964693
10.4	-0.0196032988740301	0.00813112141944149	-0.00130185584396405	-0.00284356185442323	-0.00130016003281666	-0.00284973930643272	-0.0113325453359579	0.00455242861503252
10.5	-0.0187755937229463	0.0120984690807758	-0.00168876807796844	-0.00264736071292754	-0.00168570103014553	-0.00263439129855867	-0.0118998413920334	0.00389120252016197
10.6	-0.0164585514014597	0.016308676114657	-0.00204292101888181	-0.00238166884437853	-0.00204072984767543	-0.00238547968633281	-0.0119059615129929	0.00449729403445323
10.7	-0.0134860345082795	0.0198240693560214	-0.00235912478410927	-0.00208075423212217	-0.00235564673443742	-0.00207547484969164	-0.0117773251467838	0.00488579560307687
10.8	-0.00968575508082892	0.0229357727511351	-0.00262822633326635	-0.00172191013575472	-0.0026230171974075	-0.00173080971560023	-0.0114826658565709	0.00545839564008359
10.9	-0.00515421188172927	0.0251047757323279	-0.00283604519129801	-0.00135051274848551	-0.00284122605702583	-0.00134979695173548	-0.0110024906599337	0.00554310606599122
11	-0.000717887552319584	0.0265280896105696	-0.00299966253048834	-0.000937172825017533	-0.0030044846423408	-0.000943924556437079	-0.0117093074467634	0.00583954284426016
11.1	0.00487767773073713	0.027426697413504	-0.00310981726353947	-0.000509941294771015	-0.00309896850794086	-0.000507060268474383	-0.0110368726838622	0.00741461588376466
11.2	0.0104573787882675	0.0265952142691025	-0.00313931116144473	-7.26976817697614E-05	-0.00314644856039171	-7.75462524038455E-05	-0.00965074545134515	0.00796319169176813
11.3	0.0157474948302385	0.0246780792584289	-0.00311404551499481	0.000374817450936157	-0.00312555542289472	0.000364757779977367	-0.0080696750662109	0.00793727567640516
11.4	0.020568133113836	0.0216816533570562	-0.00304380372341763	0.000802475245192227	-0.00303890967725251	0.000810054820439591	-0.00671080029103181	0.00712164059778868
11.5	0.0241839212453747	0.01793284075129	-0.00290139346975006	0.00122221489196777	-0.00290418898757623	0.0012324906496031	-0.00696384737516382	0.00623151897633453
11.6	0.027894414465508	0.0138985122721495	-0.00270562151407032	0.00161139334985707	-0.00270560757376744	0.00161433221697049	-0.00616355170970551	0.00643656616509298
11.7	0.030741554819958	0.00866039267581019	-0.00244636428397974	0.00196578446395662	-0.00244694626482422	0.00197438550292413	-0.00498988274367124	0.00549378706378152
11.8	0.0325382429417428	0.00292894283218688	-0.00215294774049363	0.00229945375851692	-0.00215706702303902	0.00230114343809102	-0.00422615654771025	0.00403837974529411
11.9	0.033245853590591	-0.00334821832927037	-0.00180338622029575	0.00257839862993263	-0.00181641996783765	0.00258268661637509	-0.00428020629528859	0.0021780961691265
12	0.0317838463188903	-0.00937909071618453	-0.00142803658161161	0.00279953523649848	-0.0014274430502501	0.00280094688709321	-0.00637206384052685	0.00121826307733242
