# GHZ S RI R 50
0.2	0.00602656229120585	0.00146590381699801	0.00304629424242489	-0.00089844730896704	0.00305665926160088	-0.000891645806659859	-0.0138399922526812	0.00518947599822255
0.3	0.00633010288303439	-0.000577295744377759	0.00290145608655959	-0.00132159730059374	0.00289422058847638	-0.00130866505342543	-0.0130634950432279	0.00529404287059315
0.4	0.00609353214726419	-0.0024273027742029	0.00266913759035655	-0.00169267107281885	0.00267439593200237	-0.00170122566240726	-0.0125648321576073	0.00562235155715504
0.5	0.00500000179832078	-0.00375902113073628	0.00241039749963639	-0.00204776554093483	0.00242191862497364	-0.002059992628537	-0.0125602627081115	0.00631605094873253
0.6	0.00433760539864622	-0.00447710144878722	0.00209864490354987	-0.00236199342187888	0.00209785843743036	-0.00236913507879809	-0.0117847293158123	0.00741145008001472
0.7	0.00329788959003744	-0.00536027753221941	0.00175154390978657	-0.0026391625295217	0.00174959024040935	-0.00263936081055817	-0.0111092774024731	0.00795431958007809
0.8	0.00207166481648531	-0.00586298046489692	0.0013665884728866	-0.00285562151347903	0.00135400559863074	-0.0028601634503714	-0.0105401791361274	0.00860414242248784
0.9	0.000829459302799978	-0.0060910140117298	0.000950735819236276	-0.00301828086709194	0.000951771091342471	-0.00302896377799599	-0.00980080958863807	0.00909475363890968
1	-0.000923293322983569	-0.00633219914920791	0.000527443778195478	-0.00312239840219504	0.000517594286404987	-0.00312314151487586	-0.00964795846565333	0.0091172417546738
1.1	-0.00257944539020857	-0.00528078803396034	7.16114506273741E-05	-0.00315120916606182	6.81114608291001E-05	-0.00316883774014077	-0.00964764199546566	0.0104294978855809
1.2	-0.00363191589243985	-0.00465372417917919	-0.000369468344788646	-0.00314015304986524	-0.000370279508853542	-0.0031380798771875	-0.00864656080308033	0.011432544276883
1.3	-0.00495670279745598	-0.00415897552316939	-0.000795327516417787	-0.0030572907826135	-0.000798561807308534	-0.00305929457069989	-0.00721845254484843	0.0122470579667769
1.4	-0.00604443131997969	-0.0035680400594868	-0.00121577744141859	-0.00291019508977997	-0.0012145624018069	-0.00291572026618921	-0.00544118709706527	0.0123380515122823
1.5	-0.00684108342466036	-0.00240841522860102	-0.00161735474209503	-0.00271467394145906	-0.00161574196293747	-0.00272316384117414	-0.00436274599095137	0.0121286187963308
1.6	-0.00634897172825169	-0.00082993173467272	-0.00197633123192454	-0.00246178411536122	-0.00197653951778662	-0.00246700995287943	-0.0031680252875535	0.0123432730537313
1.7	-0.00572110168049192	0.000275918831032853	-0.00230368425608985	-0.00216639463247848	-0.00230465321109033	-0.00216014396392943	-0.00224140754298401	0.0121618309794246
1.8	-0.00489832674105024	0.00147714202355183	-0.00257467791309821	-0.00181638365044413	-0.00258562252323932	-0.00182202234021251	-0.00148772607791554	0.0119980907184071
1.9	-0.0038173447212383	0.00225740002139556	-0.00280060437192714	-0.00144639553231566	-0.00281303293524183	-0.00144026097023499	-0.000901262366576754	0.0116485676314463
2	-0.00313032093993783	0.00298124911410551	-0.00297514346666655	-0.00103873219489786	-0.00298475181122919	-0.00103403962324469	-0.00118636777402371	0.0116717724152576
2.1	-0.00152128882401301	0.00389441055958336	-0.00308858400941415	-0.000613191473216281	-0.0030845048976702	-0.000615174038602714	-0.00040814248423196	0.0126215140610697
2.2	0.00013664939070174	0.00388410525974594	-0.00314740933758206	-0.000176039202004095	-0.00315869273537016	-0.00017888796978406	0.000906742541097714	0.0127601644324396
2.3	0.00161130128057799	0.0034385182611114	-0.00314367859099885	0.000266913787228883	-0.00314336662715569	0.000260040507806383	0.00214945566711226	0.0124762859504892
2.4	0.00297003992637046	0.00257684675940195	-0.00307141018448254	0.000704676903967005	-0.00307394140906558	0.000700422311849731	0.00339538663775104	0.0117812093672632
2.5	0.00354208101525328	0.00123743514977681	-0.00293558896566718	0.00111442237660264	-0.0029464743659895	0.00112076931380145	0.00369352721477668	0.0105416737234275
2.6	0.00416620280952639	0.00055291267120578	-0.00276479816810331	0.00151819192308496	-0.00276121765496813	0.001505887291597	0.0039232523837295	0.0104681331912868
2.7	0.00494842066742581	-0.000640414460962324	-0.00251962760637896	0.0018904604918754	-0.00252490380157746	0.00189046123587695	0.00450529207475548	0.0101582791181634
2.8	0.00562412308431769	-0.0020960744723623	-0.00223739991144432	0.00221808434686472	-0.00222961118397081	0.00222788197180104	0.00511412641105679	0.00992433439535252
2.9	0.00610642117433575	-0.00399792216131165	-0.00190456239930599	0.00251798370826592	-0.00190085517069542	0.00251756551499759	0.00595568459306002	0.00952177409656459
3	0.00570785114872508	-0.00598426687958815	-0.00152081508327522	0.00275575373950583	-0.00153561157785072	0.00276181601515063	0.00626183570807752	0.00921427146447307
3.1	0.00551020021749393	-0.00764215253653258	-0.00112904464139303	0.00293467298123608	-0.00112440300667258	0.00294302540881381	0.00730729635352043	0.00945298181376945
3.2	0.00466458669815188	-0.00970112661849123	-0.000708759899014704	0.00307192932824959	-0.000710503123927787	0.00307131523886903	0.00830618316662789	0.00907690432529998
3.3	0.00325312929587959	-0.0116158068848865	-0.00027108371887236	0.00314275687873675	-0.000269426567426608	0.00313901988023229	0.00933856115917626	0.00847938091697927
3.4	0.00133096721622793	-0.0132693380731304	0.000175497673280258	0.00313902213739827	0.00016925002302683	0.0031555825743342	0.010338776339092	0.00734800104652323
3.5	-0.00145694936222354	-0.0144550302399614	0.000600273436548588	0.00309774322307572	0.000605875022905609	0.00309782753964179	0.01022168781208	0.00597146628789387
3.6	-0.00386728092272479	-0.0144964671744787	0.00102883043950774	0.00297706354485831	0.00103702668042291	0.00297675841715289	0.0105977977014516	0.00574900589197095
3.7	-0.00627418529540855	-0.0145813295834911	0.00143935546555091	0.00279729342874394	0.00142973850392032	0.0028109610628118	0.0114193548273222	0.00482664127520351
3.8	-0.00884396819340732	-0.0141360618424569	0.00181882410139859	0.00257125736291645	0.00182121487065471	0.00258042053936035	0.0119844213685927	0.00354381712166237
3.9	-0.0112545914807343	-0.0132978452201001	0.0021669762660166	0.00229794637909571	0.00215970393939275	0.00229615540117423	0.0121470654567987	0.00186505391268948
4	-0.0140287759494373	-0.0118369998257693	0.00245128046021359	0.00197425866187999	0.00245573398436163	0.00197182717061155	0.0110458540640641	0.000538975161917467
4.1	-0.0157176237134049	-0.00930680041246285	0.00270275926789243	0.00161647763151191	0.00270150458374306	0.00161721176769587	0.0108276996236024	0.000751918646780644
4.2	-0.0169058818958368	-0.00704713108650222	0.00290411359092688	0.00121545206275844	0.00290859873164536	0.00120673380585172	0.0112638934238862	0.000278427137566342
4.3	-0.0178047019911644	-0.00466963638547661	0.00304840965461871	0.000802262013254575	0.00305485085820849	0.000794458326959375	0.0116341759420278	-0.000613733751813362
4.4	-0.0183564875999427	-0.00225302884191676	0.00312439639594089	0.000366844676899929	0.00312677562431556	0.000364588823377203	0.0117671527586273	-0.00192321162820926
4.5	-0.0191356273833735	0.000308200047693287	0.00314697336187893	-6.88119693113422E-05	0.00315234462120473	-7.21767798615395E-05	0.0107137915564161	-0.00325366405302098
4.6	-0.018907512237973	0.00372645659279711	0.00310683636459976	-0.000512847995800907	0.00310804200908974	-0.000499909436823464	0.0101135143022834	-0.00319399974644438
4.7	-0.0178802183062073	0.00660815867100853	0.00300212695496993	-0.000934151028452075	0.00301745605692825	-0.000943763751371689	0.00998159982949834	-0.00362981582681779
4.8	-0.0164391448768179	0.00930908655152409	0.0028407976814847	-0.00134967591291719	0.00284929924730531	-0.00135576528153561	0.00985064866299994	-0.00407458457734084
4.9	-0.0142449379169851	0.0115391503240784	0.00262030406074636	-0.0017340366646376	0.00262447323961915	-0.00173112055347935	0.00989906555001595	-0.0047487653253284
5	-0.0121440436404393	0.0132986615510932	0.00236330205057344	-0.00209207997666746	0.00236692966302878	-0.0020894027179217	0.00932282424129597	-0.00535877825072895
5.1	-0.0087496270592042	0.0149523359788548	0.00204932050321412	-0.00240631743517645	0.00205162687205136	-0.00240495507458103	0.00987619939311096	-0.00521532627113933
5.2	-0.00540677380679461	0.0151665875710687	0.00168973317164376	-0.00265626841720893	0.00169145151051501	-0.00266142266527775	0.0105968751299476	-0.00625864801660597
5.3	-0.0023868450767259	0.0148341170292029	0.00130223342417588	-0.0028720987691319	0.00130537243861506	-0.00287003062996913	0.0107496156231727	-0.00756673456023259
5.4	0.000397837046933551	0.0139784838923381	0.000876739652135555	-0.00302129775063709	0.000893953129911737	-0.00303253212573625	0.0104720666870261	-0.00921451621551903
5.5	0.00228627640307091	0.0130792278069902	0.000458314707883476	-0.00312084574670231	0.000468387520258573	-0.0031303118124392	0.00863409377364153	-0.0103174970923191
5.6	0.0051717725356435	0.0123400381175883	1.7971111093408E-05	-0.00315311077017642	9.4258915743249E-06	-0.00315632528496752	0.00819351544194431	-0.00971530752919762
5.7	0.00755383273433712	0.0102347734293022	-0.000413041743408576	-0.00312175365922344	-0.000429687074078355	-0.00312540458658808	0.00824545997979814	-0.0102107552759777
5.8	0.00921215986894011	0.00780240143602849	-0.000860003337037542	-0.00302644216026842	-0.000863560520899717	-0.00304045371699955	0.0081170830195373	-0.0112176573279092
5.9	0.0103542276297379	0.00496268875040265	-0.00126719046486206	-0.00288518554414083	-0.00127543685717971	-0.0028850900990395	0.00772021296588061	-0.0129536445594686
6	0.00977239625000706	0.0016695911026414	-0.00166477996161124	-0.00267389592858768	-0.00166121655308191	-0.00267406999338096	0.00501982581907551	-0.0151864682032271
6.1	0.00896271384425627	-6.09033435649807E-05	-0.00201712329609398	-0.00242057927028572	-0.00201875969036392	-0.00241657021393168	0.00222673465114206	-0.0144620633020546
6.2	0.00806429902869361	-0.00208966567646417	-0.0023309744905925	-0.00210738073983078	-0.00233470240998216	-0.0021192609908886	0.000644559377657333	-0.0136554046634028
6.3	0.00700147041099172	-0.00377702694066558	-0.00260928399526246	-0.00177120075797816	-0.00261841375500644	-0.00176544032942649	-0.000198724981019307	-0.0127532616099198
6.4	0.00588240679793911	-0.00568366207842896	-0.00283404705589283	-0.00137796786198404	-0.00282432604090583	-0.00138289293515452	-0.000326796965137035	-0.0125791527632318
6.5	0.00381037260674577	-0.00716748348515869	-0.00298767891966835	-0.000975139906526048	-0.00299553776880661	-0.000970649972238685	-0.00147374706387258	-0.0123705290667853
6.6	0.00261299899222904	-0.00811773726760846	-0.0030988707773712	-0.00054970901302842	-0.0031005108914753	-0.00055368907741635	-0.000855551034484044	-0.0115865296094065
6.7	0.000541428197377876	-0.0092445325052874	-0.00314861796806127	-0.00010922847355737	-0.0031574709448149	-0.000102926349031892	-0.000861568929104061	-0.0121436681849089
6.8	-0.00178513129798392	-0.00938756098962941	-0.00312483900484438	0.00033317652654411	-0.0031359301718449	0.00033825027599872	-0.00140047400384326	-0.0123780625697852
6.9	-0.00389471939138921	-0.00916633047900931	-0.00304772567689874	0.000765056902538124	-0.0030507099708441	0.000767452932265101	-0.00193078888085531	-0.0129176516770486
7	-0.00682271408177081	-0.00815849760927071	-0.00291396182549234	0.00118617383772056	-0.00292681249030323	0.00118399075598787	-0.00432066312348807	-0.0130507307005099
7.1	-0.00803775898467651	-0.00575978974183445	-0.00273298061563196	0.00157831976988816	-0.00272929034334788	0.00158698688213462	-0.00483442359039807	-0.0108308132291112
7.2	-0.00897499264101254	-0.00417819042568807	-0.00247381904363005	0.00194489566588722	-0.00248034730602201	0.00194699248543599	-0.00428844448296698	-0.00999919144714935
7.3	-0.00993034646189713	-0.00227217260764341	-0.00217779519549068	0.00226246966863373	-0.00218900184150612	0.00226755046481128	-0.0035490515050376	-0.00974652847646451
7.4	-0.0103364189017113	-0.000367471626103675	-0.00183692154120748	0.00254593479649412	-0.00184378313845694	0.00255956954605781	-0.0025712383486407	-0.010751304374409
7.5	-0.0114564720652616	0.00124190921201864	-0.00146714125918431	0.00278751994186732	-0.00146011540247063	0.00279490011190433	-0.0037834178406429	-0.0131735579494814
7.6	-0.0114205430576027	0.00443348111700358	-0.00105849908789207	0.00296071275886026	-0.00105988947833987	0.00295602187121775	-0.00513376092886842	-0.0130425147543379
7.7	-0.0106649549059784	0.00666387877387216	-0.000631401871155361	0.00307975856871003	-0.000632744434449419	0.00307870132749335	-0.00626460512948878	-0.0138752263088514
7.8	-0.00920555628574159	0.00871277033467676	-0.00020617544564954	0.00312802517061733	-0.000213961092899241	0.00313450166494748	-0.00779592296986093	-0.0142510353661136
7.9	-0.00701919270372682	0.0100660242676997	0.000236303481374087	0.00313412681578916	0.000244246636887529	0.00313559852253528	-0.00957212801015588	-0.014398640985737
8	-0.00537629226375678	0.011305757454872	0.000677328519433798	0.00305589633594911	0.000677427117784074	0.00306078620219547	-0.0126679272749967	-0.0132149503075183
8.1	-0.00172609749433832	0.0122631572471211	0.00108257953001062	0.0029386878866808	0.00110169238218984	0.00293973137988289	-0.0128051114296176	-0.010537195097798
8.2	0.00126218087715639	0.0116749269764209	0.00148676825777921	0.00275885558999763	0.00149598683272233	0.00275165176331007	-0.0126025075066533	-0.0094751960599036
8.3	0.00385835246580794	0.0107694294998729	0.00186308847722941	0.0025189744276708	0.0018614799689822	0.00253250961395502	-0.0125236006055471	-0.00873845704896063
8.4	0.00630927576607883	0.00928011910894654	0.00219685215151913	0.00223873204447844	0.00219382758214282	0.00223851619311365	-0.012504431928801	-0.0087612652339405
8.5	0.00738622796467867	0.00755214462857556	0.00247728175846046	0.0019108491763719	0.00247639099096467	0.00191402568513586	-0.0146981139183831	-0.00856179217449427
8.6	0.00956675465587592	0.00657751314932569	0.00272597461908404	0.00155256820844337	0.00273545142325036	0.00154602269449266	-0.0150577697222199	-0.0058135723758046
8.7	0.0113737943121983	0.00400499198083255	0.00291099830866928	0.0011484096600181	0.00291655056072676	0.00114912059499523	-0.0142417284996813	-0.00460111785378049
8.8	0.0123435057959913	0.00115885448984295	0.00304509473430549	0.00073751177691593	0.00305083357871418	0.00072875924023241	-0.0134745030399999	-0.00413084239783119
8.9	0.0128992998962408	-0.00212756741169635	0.00311991521362011	0.000306415190835595	0.00311904365871762	0.000304175079857015	-0.0125577554638499	-0.00455228394873838
9	0.0118574550873538	-0.00571219737451471	0.00313326365141879	-0.000134488458923313	0.00313641976693733	-0.00013039552009164	-0.0136500985164158	-0.00547066424975023
9.1	0.0109251978228496	-0.00839774732732996	0.0030847888859691	-0.00057870277044233	0.00308769435853033	-0.000565835579375811	-0.0140534440109212	-0.00443492039117029
9.2	0.00904508851067684	-0.0115233830702307	0.00297274927460444	-0.000993590136739916	0.00298038153805149	-0.000996472145455232	-0.0143004641937618	-0.00421065431176075
9.3	0.00634515144158377	-0.01383537480704	0.00280451311267529	-0.00139548158058391	0.00280377929946493	-0.00140045712454927	-0.0147904240107726	-0.00358523478650217
9.4	0.00339353142166694	-0.0156151153776766	0.00258523871430963	-0.00178430696172532	0.00259173946796533	-0.00177672858421278	-0.0151260845925898	-0.00306079772090714
9.5	-0.000585218819633478	-0.0162261093501232	0.00230855369112246	-0.0021218177435589	0.00231594945872838	-0.00212317589182827	-0.0166466910064545	-0.00174210100281582
9.6	-0.00322296765151734	-0.0158113189428119	0.0019898540828146	-0.00242036882366795	0.00199018416867454	-0.00241939052490793	-0.0158237041591896	0.000890073269090671
9.7	-0.00638171996990363	-0.0156854451727761	0.00162587402042884	-0.0026688107391935	0.00163138668126326	-0.00267609593992409	-0.0145347258388274	0.00183314605978743
9.8	-0.00980833064185653	-0.0146479500026823	0.00124334509674808	-0.00287799700827844	0.00124902836770259	-0.00286952487175679	-0.0134459748992398	0.00227841329367237
9.9	-0.0129321853387934	-0.0129047674590444	0.000837835840309601	-0.00301852517072596	0.000830524825441398	-0.00301729699964893	-0.0125746598584997	0.00182311995422906
10	-0.016702161155146	-0.0103366603924292	0.000407411955506949	-0.00310281079251068	0.000399944153278172	-0.00311519525907563	-0.0140108924871564	0.00136558525411113
10.1	-0.0185963693506297	-0.00614936403804518	-2.8220083533239E-05	-0.00313512951193661	-3.84159172447835E-05	-0.00312976596303548	-0.0140053165642872	0.00326963643672376
10.2	-0.0198191060777331	-0.00244179752237714	-0.000473236128753383	-0.00310097048438895	-0.000476634083196101	-0.00309820332109175	-0.0130866052233985	0.0039751556211709
10.3	-0.0203749435103816	0.00174593211776925	-0.000905669655814067	-0.00299570513817114	-0.000897600957397222	-0.00300474453560396	-0.0121055591922316	0.00423028335396197
10.4	-0.019795784482918	0.00573629028794629	-0.00130112319473678	-0.00283887884452352	-0.00129943239285741	-0.00284504797941239	-0.0110337631817359	0.00327138941518715
10.5	-0.0193801786714808	0.00972125341429577	-0.00168478166630375	-0.00264324270279478	-0.00168172483794875	-0.00263029536238689	-0.0124870769840698	0.00228720246152503
10.6	-0.0171335104866188	0.0141530215253837	-0.00203917991025711	-0.00237944316909232	-0.00203698993079618	-0.00238324802913366	-0.0129825412803601	0.00335760575444578
10.7	-0.014445907641323	0.0178429192020433	-0.00235508758687217	-0.00207896282565926	-0.00235161642121606	-0.00207368904550981	-0.0133125904804109	0.00420275200512257
10.8	-0.0107140923977732	0.0214340323754189	-0.00262359022515062	-0.00172089901556177	-0.00261838363541692	-0.00172978323212838	-0.0131082612100705	0.00555582850003293
10.9	-0.0058904323057344	0.023890748093987	-0.00283067326132996	-0.00135113105776123	-0.00283584721891097	-0.0013504210359561	-0.0122575678865974	0.0060456283973342
11	-0.0014688120537474	0.0255135263603929	-0.00299646464801045	-0.000939721467814529	-0.00300127596725303	-0.000946473470923725	-0.0132511937473315	0.0066494846277926
11.1	0.00468283890071673	0.0266844820242808	-0.00310680689348828	-0.000511307543936403	-0.00309596928161046	-0.000508422713014176	-0.0119950373542042	0.00914400802495401
11.2	0.0105674096793664	0.0256383747150952	-0.00313584245711122	-7.496594505173E-05	-0.00314296846796843	-7.98145791293349E-05	-0.0098149797256282	0.00986609969458168
11.3	0.0159659418611584	0.0236216304063323	-0.00311115284669359	0.000371232391708787	-0.00312264033628732	0.000361171512788511	-0.00751967647715704	0.00975984432824226
11.4	0.0209617930396104	0.0204942659330508	-0.00304275236463096	0.000798092879111041	-0.00303787119424086	0.000805673487985525	-0.00549337104550875	0.0084825532672828
11.5	0.024408538027053	0.0166542603951105	-0.00290078152349961	0.00121966510992507	-0.00290358255573508	0.0012299339205759	-0.00595693302066633	0.00714239673583272
11.6	0.0284850998003454	0.0127627062999332	-0.00270446754939545	0.0016072832629128	-0.00270445636721347	0.00161021925508758	-0.0046807643984187	0.00754888674395393
11.7	0.0315773594979671	0.00724096084205398	-0.00244694781698874	0.00196109579426391	-0.00244754035610927	0.00196968928528275	-0.00290112903961986	0.00609668754700127
11.8	0.0335082030801616	0.00122116265391946	-0.00215511318458429	0.00229540667141348	-0.00215923287084958	0.00229708987590429	-0.00178817278770069	0.00381487920943312
11.9	0.0345175179117263	-0.00560311895786958	-0.00180601298761829	0.00257605300682987	-0.00181904977494355	0.00258032594024368	-0.00168815363883898	0.000577137215508802
12	0.0322878828295694	-0.0119460714616329	-0.00142979544374379	0.00279639670475585	-0.00142920363381747	0.00279780802380152	-0.00544219393187049	-0.00108712901150702
