# GHZ S RI R 50
0.2	0.00591206163510856	0.00154167361474315	0.00304666258323688	-0.000898525325000086	0.00305702876453135	-0.000891722922996555	-0.013999494154021	0.00522529164606456
0.3	0.00625926645523037	-0.000453930168077281	0.00290186322673741	-0.00132176000325234	0.0028946266507795	-0.00130882602661892	-0.0131737764324921	0.00537804044558774
0.4	0.00603449749721429	-0.0022191608554665	0.00266966099600817	-0.00169297067961625	0.00267492041386575	-0.00170152685445902	-0.0126433535907305	0.00579722781864033
0.5	0.00514094194603936	-0.00351545389529449	0.00241084056476053	-0.00204859753475245	0.00242236354007137	-0.00206082927493294	-0.0123643492343332	0.00650963632904673
0.6	0.0044187565298678	-0.00441770890008929	0.00209857897349486	-0.0023627992332911	0.00209779104719279	-0.00236994200728015	-0.0116166359542594	0.00730808931868535
0.7	0.0032860302326107	-0.00526361197791108	0.00175137870211861	-0.00263991445326401	0.00174942466804348	-0.00264011242642251	-0.0110819057032765	0.00780406349112759
0.8	0.00201351091731517	-0.00573681668999458	0.00136627534829272	-0.00285647345243827	0.00135368902403993	-0.00286101371355432	-0.0106333283508562	0.00844029990236331
0.9	0.000638618130979342	-0.00590261834859298	0.000950025342684021	-0.00301931330644914	0.000951057532328737	-0.00302999914428565	-0.0101258315307874	0.00901629255499581
1	-0.00108047085736797	-0.00577743246725783	0.000525966591347253	-0.00312289577658654	0.000516115978217932	-0.00312363415847764	-0.0099515131855967	0.00955027943742538
1.1	-0.00251222375190166	-0.00477565570077205	7.05051479881479E-05	-0.00315117984350518	6.69990366997145E-05	-0.00316880688568621	-0.00959066717704182	0.0108544827443088
1.2	-0.00355090983822745	-0.00398112730250574	-0.00037065080098094	-0.00314009083112819	-0.000371461209832736	-0.00313801730522692	-0.00847916622667378	0.0119862891775283
1.3	-0.00456506213777034	-0.00333748826271365	-0.000796714446054651	-0.00305691208649478	-0.000799949631058983	-0.00305891439175686	-0.00666038461746406	0.0128621019364077
1.4	-0.00544352051669408	-0.0029138517859064	-0.00121721088920556	-0.00290911199313459	-0.0012159990701965	-0.00291463705716578	-0.00467340294095235	0.012665788177005
1.5	-0.00611430109358272	-0.00199506281364449	-0.00161773446186102	-0.0027131109942324	-0.00161612529445988	-0.00272159838341558	-0.00345994619561291	0.0120973791859671
1.6	-0.00598637307650542	-0.000754530612139494	-0.00197671874572964	-0.00246087954886518	-0.00197692843859699	-0.00246610456303053	-0.00274996320187836	0.0118151728598416
1.7	-0.00562841128685987	0.000436563942450023	-0.00230422106353324	-0.00216510403220049	-0.00230518728210432	-0.00215885393759953	-0.00226049847443164	0.0117096222926205
1.8	-0.00496016075519914	0.0017354175695212	-0.00257481645908288	-0.00181465332453625	-0.00258576067083398	-0.00182028524343039	-0.00175999921613992	0.0117195322914949
1.9	-0.00401277647492743	0.00273426133167636	-0.00279985024851842	-0.00144466544054227	-0.00281227072128157	-0.00143852903102613	-0.00132579185620655	0.011718798144083
2	-0.00300979977601931	0.00372453818131497	-0.00297443318489435	-0.00103808254252359	-0.00298403826724501	-0.0010333901321495	-0.00113086294195212	0.0121029460368485
2.1	-0.00133362865163934	0.00432554055277505	-0.00308816911445172	-0.000611796667179049	-0.00308409169227136	-0.000613780472967486	-0.000174777225783292	0.0125798971916171
2.2	0.000205745717289735	0.00428803746506159	-0.00314622387105574	-0.00017466411777183	-0.0031575039382819	-0.000177507069225136	0.000947109854252278	0.0125705887439903
2.3	0.00158424113089083	0.00382349470775149	-0.00314209802540923	0.000267752705815452	-0.00314178832266286	0.000260882606872776	0.00196229823286283	0.0122436792598627
2.4	0.00271020773768274	0.0030425680905986	-0.00307012055563114	0.000704894922806768	-0.00307265148597659	0.00070064236427813	0.00283120233935515	0.011743373140054
2.5	0.00334590745964908	0.00217279006414991	-0.00293463670764011	0.00111561693693761	-0.00294551755097914	0.00112196797470776	0.0032629009814308	0.0112372609041229
2.6	0.00424733629695186	0.00142342081543362	-0.00276229211533767	0.00151885630552812	-0.00275872071013723	0.00150655696556902	0.00401995686783279	0.0111161495557251
2.7	0.00511265594251056	0.000207655589450491	-0.00251723108196427	0.00189004648344641	-0.00252250364985149	0.00189004908145308	0.00481456854939337	0.0106773092376014
2.8	0.0058057897423816	-0.00132405134341211	-0.00223542552271273	0.00221723383118331	-0.00222763929748353	0.00222702329041499	0.00548315488574786	0.010244954440048
2.9	0.00620081253751139	-0.00316446375760709	-0.00190272100641742	0.00251736233408101	-0.00189901580893331	0.00251694306932329	0.00623626938865719	0.00984533580514667
3	0.00608209918232029	-0.00499682838657803	-0.00151772881363339	0.0027542145035059	-0.00153250819097868	0.00276028051775646	0.00695560720160717	0.009631601239086
3.1	0.0059157753226281	-0.00698013034838661	-0.0011274743246421	0.00293168031853674	-0.00112283660665345	0.0029400232518326	0.00806351708260814	0.00928252074070033
3.2	0.00496829919124419	-0.00911422420804574	-0.00070794687235677	0.00306921795657718	-0.000709688570921365	0.00306860451842407	0.00883408618018311	0.00865256576471596
3.3	0.00345920771505532	-0.0111071955179163	-0.000270407255161919	0.00314002473126123	-0.000268752084530666	0.00313629079567572	0.0096054723906261	0.00790046336062757
3.4	0.00131792197577796	-0.0127345938636742	0.000176155063153311	0.00313545793581312	0.000169918917125562	0.00315200152080858	0.010238350338202	0.00683178484239002
3.5	-0.00132324147594521	-0.0136958969787363	0.000598556592499224	0.00309303581196289	0.000604149373683003	0.00309312139868907	0.0102980053388247	0.00576242552997773
3.6	-0.00383118714372468	-0.014077544917839	0.00102608628150631	0.00297439606855549	0.00103427379651223	0.00297409575372195	0.0105766963475855	0.00504780007804296
3.7	-0.00656754280267854	-0.0140706514015704	0.00143662174016029	0.00279499053996826	0.0014270088788155	0.00280863963347107	0.0108625688241055	0.00414979071024354
3.8	-0.00934270301099973	-0.0133889021496008	0.00181537208133196	0.0025691450151731	0.00181775537805065	0.00257829858773077	0.0110031445926074	0.00321695323650219
3.9	-0.011875292804209	-0.0121230515515023	0.00216206345721102	0.00229670257505693	0.0021548025173563	0.00229490775671829	0.010938659175597	0.00226025065853319
4	-0.014106479644411	-0.0101554508870132	0.0024465872752217	0.00197627409942663	0.00245104090309805	0.00197385084159927	0.0106504089120982	0.00174930400528409
4.1	-0.0154593413971946	-0.00801792396792798	0.0027000561298803	0.00161825926589635	0.00269880132577304	0.00161899191250387	0.0110582536987093	0.001421340549773
4.2	-0.0166853273670399	-0.0058930791514732	0.00290128650234547	0.00121739979101448	0.00290577699719872	0.00120869078836803	0.0114728252957379	0.000667022699835534
4.3	-0.0176397015187972	-0.00358598984504093	0.00304584369812809	0.000805159825243095	0.00305228989253169	0.000797367517139671	0.0117464351952462	-0.000333602829279042
4.4	-0.0183707941862956	-0.00108160979741363	0.00312323798193202	0.000370939502633637	0.00312561971448173	0.000368687309695979	0.0116819926268752	-0.00145287647645873
4.5	-0.018808069316528	0.00188781704005865	0.003148142784196	-6.65884939233433E-05	0.00315351835916317	-6.99506654339099E-05	0.0112417762464124	-0.00224872133802814
4.6	-0.0182869846142306	0.00487297900509336	0.0031061171377932	-0.000511309782993758	0.00310731665992811	-0.000498374632955123	0.0111997245468508	-0.00287864329971394
4.7	-0.0173057347949302	0.00755289419647574	0.00300155998352697	-0.000931562520588351	0.0030168897380383	-0.000941160007887551	0.0110240640352837	-0.00378859112163482
4.8	-0.0159391481856393	0.0100290804433362	0.00284120207262087	-0.00134678347703844	0.00284970666484711	-0.00135286361850994	0.0107064854613143	-0.00464803265281485
4.9	-0.0140317727877653	0.0121719273950579	0.00262153707522255	-0.00173215776052304	0.00262570415691736	-0.00172923867546633	0.0103201771717013	-0.00545860293762036
5	-0.0117916205688801	0.0140916914920845	0.00236245565947995	-0.00209015282834715	0.00236608032726554	-0.0020874761770253	0.00992836779705224	-0.00589865541374272
5.1	-0.00869187598938482	0.0153342446683802	0.00205038544031197	-0.00240220750540928	0.00205268853172102	-0.00240084365977611	0.0101229708611921	-0.00642566814185051
5.2	-0.00576694508946162	0.0158033262869649	0.00169242999202178	-0.00265313686352059	0.00169415415604991	-0.00265828699606971	0.0101272239782459	-0.007268849049796
5.3	-0.00282213629951127	0.0158193953426654	0.0013052701362599	-0.00287002111575708	0.0013084061389584	-0.00286794978819316	0.00999207116774603	-0.00805838108737894
5.4	-8.86822381943618E-06	0.0152621517371768	0.000879248096949545	-0.00301926994493939	0.000896465365069919	-0.00303048358819382	0.00972735361013554	-0.00910954017869275
5.5	0.00250996736483323	0.0145354454193199	0.000463337921664181	-0.00311739357490069	0.000473418577721706	-0.00312683410861441	0.00892931639632297	-0.00989122268839464
5.6	0.00515243080005377	0.0130164555616715	2.451785062142E-05	-0.00315340990339669	1.59783917525474E-05	-0.00315664249819526	0.00840285375727757	-0.0105125242009461
5.7	0.0068948672214771	0.0110160751879408	-0.000407603458496954	-0.00312376976100665	-0.000424249025879204	-0.00312745207472781	0.00752618161852037	-0.011140773910549
5.8	0.00808846598031043	0.00895316367132765	-0.000855309622936896	-0.003029232523784	-0.000858844886709144	-0.00304325628729959	0.00657113236551364	-0.011726201449687
5.9	0.00872058061557537	0.00689627853617923	-0.00126211447308889	-0.00288863475539736	-0.00127036397012097	-0.00288855506864551	0.00536126985883554	-0.0122894918521888
6	0.00878385771551768	0.00526170490317447	-0.00166061204313896	-0.00268144628994654	-0.0016570434592423	-0.00268161207049604	0.00357318166978723	-0.0122049171636816
6.1	0.00942438018709524	0.00359254815417945	-0.00201732498356108	-0.00242735611078222	-0.00201896947150823	-0.00242334243911415	0.00284273286021482	-0.0113948572722067
6.2	0.00960862879024204	0.001169566410312	-0.00233187854694775	-0.00211279046565994	-0.00233559868678574	-0.00212469100976021	0.00265802685258884	-0.0112136248868489
6.3	0.00910802168572121	-0.0015615947714782	-0.00261050059896822	-0.00177646559973852	-0.00261964854165866	-0.00177070856411627	0.00248425397301398	-0.0116373751000025
6.4	0.00758691571565154	-0.00423985719670123	-0.00283659225808911	-0.00138422514126911	-0.00282684868623546	-0.00138914414215972	0.00192026374126355	-0.0123775738896045
6.5	0.00555355371586939	-0.00598367331738125	-0.00299389610148226	-0.000978917260142323	-0.00300177503496172	-0.000974421363472133	0.00105056697809572	-0.0126182669102989
6.6	0.00356850067362882	-0.00752548144086021	-0.00310280518309741	-0.000551276319925496	-0.00310444637613744	-0.000555262075731515	0.000726698642439769	-0.0129896970386227
6.7	0.00108060459946905	-0.00838096153784152	-0.00315259331217185	-0.000111555959368327	-0.00316146205706331	-0.000105251875289129	-0.000115805378764118	-0.0134344241432653
6.8	-0.00141414003878151	-0.00854458759267162	-0.00313023249913294	0.00033115750750609	-0.00314134600362543	0.000336230466343538	-0.00113586015940651	-0.013618412826773
6.9	-0.0040144621743223	-0.00817350353986913	-0.00305460037252659	0.000765513260183873	-0.00305759204346643	0.000767913289641612	-0.00231107238564758	-0.0137329869999427
7	-0.0063890194647507	-0.00665695486096491	-0.00291741145508366	0.00118900428063982	-0.00293028044592671	0.00118682363709625	-0.00374531026310352	-0.0131624918036898
7.1	-0.00783796742046678	-0.00517378453398532	-0.00273689163241647	0.00157888327003568	-0.00273320110175197	0.00158756217368798	-0.00434498657064593	-0.0124094097268092
7.2	-0.00945787223445281	-0.00353090130005215	-0.0024787733816287	0.00194700245333565	-0.00248531336204162	0.0019490998192933	-0.00489694277191977	-0.0118803437353308
7.3	-0.0108998011958044	-0.00145160301897358	-0.00218194020212451	0.00226642360920966	-0.00219316766738094	0.00227151279342862	-0.00524390602304399	-0.0114993828366314
7.4	-0.0121388326744602	0.00087767469088694	-0.00183853096278189	0.00255032198891529	-0.00184539691394835	0.00256397903796199	-0.00574937113831248	-0.0116145737793897
7.5	-0.0131313785911348	0.00407974403008376	-0.00146975404944358	0.00278867491378674	-0.00146272735545131	0.00279606428645815	-0.00683158005360796	-0.0114464501715672
7.6	-0.0123881068150488	0.00737968602945181	-0.00106301635501457	0.0029655320882123	-0.00106440549922061	0.00296083099796718	-0.00711712440343572	-0.0109262913770108
7.7	-0.0112135731223918	0.00994845638139408	-0.000633647253449576	0.00308643669454128	-0.000634992514467417	0.00308537673505463	-0.00750918418441407	-0.0112904829779052
7.8	-0.00923596181406913	0.0119867515667921	-0.000206383315709104	0.00313473980984298	-0.00021418515350108	0.00314123075645909	-0.00824135017559047	-0.0115401216017467
7.9	-0.00686506380599544	0.0133679541254894	0.000236519140567909	0.00313987394883797	0.000244476718683915	0.00314134889516529	-0.0092233311849159	-0.0115188876606064
8	-0.0039420914455378	0.0145711110506243	0.00067773149953781	0.0030651962476692	0.000677827857384044	0.00307010048549005	-0.0103678799568206	-0.0107411472220104
8.1	-0.000587613234006962	0.0143794595139308	0.00108885407233406	0.00294690117866359	0.0011080282124628	0.00294792935727082	-0.0106469105509803	-0.010193507702071
8.2	0.00212469819144826	0.0136853690427833	0.0014942459571998	0.00276367353383483	0.00150347756543775	0.002756439164093	-0.0111098532186737	-0.00970467291401959
8.3	0.00464472943150466	0.0125957008196049	0.00187015207716241	0.00252189988494038	0.00186855722355696	0.00253546540034358	-0.0114869117289525	-0.00928982293678774
8.4	0.00672187957836786	0.0110960698046532	0.00220399153944792	0.00224212363031129	0.00220095962669279	0.00224190989138715	-0.0121150884570479	-0.00915749410529191
8.5	0.0085035450111925	0.0097481255198863	0.0024887722530103	0.00191148128953138	0.00248788540238721	0.00191466928347769	-0.0132835686365901	-0.00837711472476388
8.6	0.0105273487502076	0.0075562449376593	0.00273431958987452	0.00154876491869332	0.00274379710069291	0.00154218574254927	-0.0136352443408691	-0.00744752876506244
8.7	0.0115908690431623	0.00484292515398037	0.00291762578627116	0.00114463258838764	0.00292318786818552	0.00114533405985913	-0.0140395164837547	-0.0068053516723454
8.8	0.0120093476287167	0.00209121504256407	0.00305174554570915	0.000733441219580373	0.00305747904965032	0.000724663188414441	-0.0145097141961887	-0.00627270255459924
8.9	0.0118220713426489	-0.00074798947199321	0.00312749499000169	0.000300004992141661	0.00312661642410171	0.000297761918216311	-0.0149751733102417	-0.0057324376609867
9	0.0111103917445657	-0.00311317052310741	0.00313603297007235	-0.000144408835064068	0.00313920507832153	-0.000140321585200892	-0.0155891408634964	-0.00461814860643591
9.1	0.0105614897736668	-0.00580098337291663	0.00308626861260886	-0.000585298780329296	0.00308920201650698	-0.000572426389983925	-0.0152797124256726	-0.00344737995389762
9.2	0.00910614004097511	-0.00857098414158139	0.00297488310179532	-0.00100128512285457	0.00298252014396553	-0.00100418735931167	-0.0149316631569007	-0.00270935630214026
9.3	0.00705028656392355	-0.0110708675277258	0.0028049789596966	-0.00140523390291627	0.00280423049214208	-0.0014102150131514	-0.0145029799179759	-0.00213515409881322
9.4	0.00421203341088802	-0.0132453165917021	0.0025810242935883	-0.00179477648469637	0.00258755673945641	-0.00178721491352366	-0.0143331940203011	-0.00191277965815759
9.5	0.000872883653095631	-0.0141582777254161	0.00230287173214881	-0.00212672337754524	0.00231026223227401	-0.00212809873978378	-0.0144766712170609	-0.00111972040812307
9.6	-0.00250953281137709	-0.0149380641982102	0.00198599166236197	-0.00242687129319961	0.00198632423940203	-0.00242589294105891	-0.014280100145525	-0.000567061942471225
9.7	-0.00656066094615868	-0.0147197172774162	0.0016191069981677	-0.00267539795310166	0.00162460190991438	-0.00268270429994122	-0.0143331628136263	-2.93702975172966E-05
9.8	-0.0105856382799876	-0.0134290622449271	0.00123416068930449	-0.0028821907890437	0.00123987161495201	-0.0028737363903322	-0.0144051722365378	0.000574984158804233
9.9	-0.0144345674772275	-0.0110287331778478	0.000829013510191762	-0.00301855636391895	0.00082171126867259	-0.0030173092462276	-0.0147373677391859	0.00119227150244634
10	-0.0175502748968407	-0.00723827413719286	0.000401824325983556	-0.00310449759202506	0.000394331475356289	-0.00311687205413206	-0.0152256706390552	0.00251818684706502
10.1	-0.0191664999001142	-0.00338769026899471	-3.80382248464328E-05	-0.00313565982765254	-4.82192830647158E-05	-0.00313026330850182	-0.0146501394022663	0.00380013585097596
10.2	-0.0203111947965791	0.000590202826584086	-0.000482235425576203	-0.00309756551185837	-0.000485622903402671	-0.0030947899268968	-0.0138840161071347	0.00461779643725261
10.3	-0.0207046422068812	0.00478255157098046	-0.000911947255700258	-0.00299085190471405	-0.000903907263045183	-0.00299990224437002	-0.0130568161139172	0.00503188964404634
10.4	-0.020465052329293	0.00908597167645765	-0.00130553125070499	-0.00283621467997643	-0.00130385087422481	-0.00284238542932927	-0.0124621433105629	0.00495959575209187
10.5	-0.0191533443096701	0.0140275163935051	-0.00169479287932835	-0.00264017016601858	-0.00169169163735706	-0.00262722114597285	-0.0122951128316491	0.00544384442428011
10.6	-0.0162200654910719	0.0181286473172662	-0.00204678700999764	-0.00237035809393095	-0.00204461258415428	-0.0023741687580656	-0.0114884067297711	0.00581498968256905
10.7	-0.012687730430987	0.0215070260903416	-0.00235963135178182	-0.00206894572520016	-0.00235614609357024	-0.00206368897678612	-0.0107212336086605	0.00593975086218253
10.8	-0.00859785921043569	0.0239916136783273	-0.00262638842548846	-0.00171076521693837	-0.00262121551618265	-0.00171965692826663	-0.0101315612389338	0.00575452367318161
10.9	-0.004476892050681	0.0257951475699313	-0.00283348714419684	-0.00133947493929403	-0.00283865435358041	-0.00133874612732054	-0.0100986662267444	0.00543035503948381
11	0.000294566176020001	0.0274760513754522	-0.00299282681047787	-0.00092382827637468	-0.00299765579022068	-0.000930541023626561	-0.0103268803570862	0.00597085769760015
11.1	0.00581577228699357	0.0275528908276293	-0.00309892468586604	-0.000500963131038989	-0.003088111447496	-0.000498117692668337	-0.00969472074061437	0.00641316900756108
11.2	0.010921165461033	0.026552131674632	-0.00312802293586839	-6.65853138660724E-05	-0.00313514339429827	-7.14029456771831E-05	-0.00899899810182508	0.00659217312235443
11.3	0.0158734129195496	0.0245773660760936	-0.00310213793934088	0.000379264437203706	-0.00311362513827649	0.000369262402652327	-0.00803243270998489	0.00650105912244824
11.4	0.0201696521382874	0.0217381143210831	-0.00302967315584374	0.000805526893391477	-0.00302478336446956	0.000813065252778845	-0.00741780350870728	0.00601065064019833
11.5	0.0240980957280997	0.0185822732288408	-0.00288579273547069	0.00121869632600055	-0.00288856509045672	0.00122892319830576	-0.00727524073787759	0.0058681520666636
11.6	0.0277648818930371	0.0139368234204208	-0.00269412006115662	0.0016054723420078	-0.0026941054331867	0.00160839915621795	-0.00658163689221496	0.00537386501086221
11.7	0.0299909512830047	0.0087082090887921	-0.00243586193992093	0.00195893777649334	-0.00243643820508325	0.00196750485489086	-0.00621197124855489	0.00453364121699251
11.8	0.0311938512000742	0.00337527149822542	-0.00214300494271542	0.00229037827326419	-0.00214710610928589	0.00229206213390932	-0.00614422439650771	0.0037167390781545
11.9	0.0314357188803602	-0.001829662828668	-0.00179556183325878	0.00256539650196284	-0.00180853428731655	0.00256965954733706	-0.00654310133926619	0.00332334638123674
12	0.0313503994227904	-0.00651534139952922	-0.00142676403311846	0.00278665470907159	-0.00142617489785106	0.00278806183720171	-0.00685853494209085	0.00384248777828883
