# GHZ S RI R 50
0.2	0.00600065204014746	0.00154635408858833	0.00304613192811811	-0.0008986635636132	0.00305649718138833	-0.000891863090472293	-0.0138840311697465	0.00525343177718337
0.3	0.00629930983451246	-0.000513504624173131	0.00290118765525573	-0.00132188693011822	0.0028939539595383	-0.00130895433616037	-0.0131092721382718	0.00534200451751666
0.4	0.00606626405275049	-0.00235877032588388	0.00266872881927531	-0.00169301022082007	0.00267398552104123	-0.00170156520839055	-0.01259697381541	0.00567799711485788
0.5	0.00496451887722628	-0.00371529360173741	0.00240975724369472	-0.00204808275631761	0.00242127480261898	-0.0020603111422133	-0.012565992115033	0.00633812801139352
0.6	0.00426329744381831	-0.00438536833970242	0.00209787651787099	-0.00236216904704827	0.00209708858413202	-0.00236930967513981	-0.011815537038766	0.00743047913218771
0.7	0.003254087335411	-0.00522958781505568	0.00175063796304313	-0.00263922954115525	0.00174868451865542	-0.00263942730590128	-0.0111302845833491	0.00797456920502406
0.8	0.00205835602314651	-0.00572251697055912	0.0013655422499368	-0.00285550845588646	0.00135296029216612	-0.00286004604151848	-0.0105631338789899	0.00861396867219517
0.9	0.000845566047869459	-0.00595131978413875	0.000949589154394305	-0.00301791337842162	0.000950620879696876	-0.00302859426472142	-0.00983869191407546	0.00911241709965249
1	-0.000883053596039177	-0.00623907363155723	0.000526318957799473	-0.00312172574800388	0.000516471877790012	-0.00312246555980279	-0.00966916835922405	0.0091524183772358
1.1	-0.00262258532922241	-0.00518702765879779	7.05254340545644E-05	-0.00315031937636418	6.70205001999919E-05	-0.00316794165420085	-0.00968961405808592	0.0104844352360339
1.2	-0.00368759281521942	-0.00446314370350207	-0.00037049798104295	-0.00313892916430867	-0.000371308099861557	-0.00313685641070951	-0.00866028100387535	0.0115659633474452
1.3	-0.00496274494021038	-0.00388306491498517	-0.000796160104289689	-0.0030557290743673	-0.000799393822875232	-0.00305773080922748	-0.00714873029352643	0.0124264638483623
1.4	-0.00597989060153586	-0.00326373153515994	-0.00121628826988421	-0.00290835103331082	-0.00121507588092444	-0.00291387402930467	-0.00530160579822778	0.0124920944568243
1.5	-0.00676678926834883	-0.0021450460307653	-0.00161751180348102	-0.00271266973928052	-0.00161590298062933	-0.00272115582145556	-0.00420592240861727	0.0121874943294889
1.6	-0.00628274249043502	-0.000541744016734084	-0.00197610449031761	-0.00245957143160963	-0.00197631465326854	-0.0024647940982195	-0.00307342390457075	0.0123545731375789
1.7	-0.00561839482728339	0.000536858663416059	-0.00230291881487462	-0.00216411065667804	-0.00230388486732479	-0.00215786383394371	-0.00218746931044886	0.0121415999951645
1.8	-0.00478798963818201	0.00169106143558808	-0.00257338208851009	-0.00181419365676557	-0.00258432050125531	-0.00181982457138692	-0.00147161082960598	0.0119648840987711
1.9	-0.00372040909236437	0.00242059400677378	-0.00279880985998706	-0.0014443950890469	-0.00281122666040654	-0.0014382616552022	-0.00090659163826239	0.0116236790466219
2	-0.00310555356272151	0.0030919837902252	-0.00297284857467765	-0.00103696501697305	-0.00298244717896467	-0.00103227375849313	-0.00119020835402593	0.0116353964448354
2.1	-0.0015703830136012	0.00407422522004165	-0.0030857068840257	-0.00061190721123971	-0.00308163219235039	-0.000613888748404679	-0.000437647593783711	0.0125824280356447
2.2	0.000112353625750021	0.00411642284002981	-0.0031441898690442	-0.000175414252700571	-0.00315546203759289	-0.000178258494135856	0.000868662345189631	0.0127195966593231
2.3	0.00162326177623508	0.00367706510895622	-0.00314026362026338	0.000266856709907034	-0.00313995249886086	0.000259990831046563	0.00208896769398912	0.0124304287266897
2.4	0.00301177838473448	0.0027810453006199	-0.00306790816046627	0.000703898070459643	-0.00307043653579865	0.000699648341283512	0.00330236366900863	0.0117528934889791
2.5	0.00353857039422199	0.0013517919588163	-0.00293211413496472	0.00111280158807762	-0.00294298684923558	0.00111913981840903	0.00358517923010141	0.010539153624961
2.6	0.00402300267594095	0.000700113318001767	-0.00276171868281926	0.0015157054079089	-0.00275813987212096	0.00150341676682697	0.00378441049075816	0.0105050457795226
2.7	0.0047483086445934	-0.000379552174965165	-0.00251707573471033	0.00188732235677821	-0.00252234535649737	0.00188732146060184	0.00436535048890182	0.0102596939254496
2.8	0.00544161985877847	-0.00171269642695469	-0.00223547003239355	0.0022143441726168	-0.002227695237767	0.00222413255408297	0.00500819583923458	0.0100926561502714
2.9	0.00600531935397832	-0.00354985774447019	-0.00190346993308537	0.00251373234569788	-0.00189976723546207	0.0025133166772268	0.00592654895079007	0.00972812023562242
3	0.00564440633299307	-0.00553192941103371	-0.00152080370706087	0.00275129272517929	-0.00153558594740896	0.00275733738182442	0.00632423514464036	0.00940050220110185
3.1	0.00549381988166754	-0.00712035108754808	-0.00112991767690251	0.00293040520018117	-0.00112528769428567	0.00293875134484783	0.00743067838261224	0.00959616497904177
3.2	0.00474502593105184	-0.00918734358404271	-0.000710395847407666	0.00306781797002519	-0.000712136569989117	0.00306720319682647	0.00846838443458162	0.00912816579504627
3.3	0.00340067345017865	-0.0111504311815202	-0.000273545127738971	0.00313893235492526	-0.000271886572342357	0.0031352010808785	0.00948945296828924	0.00845012486010232
3.4	0.00151323552785238	-0.0128842608911673	0.000172236817880858	0.00313571777552331	0.000165979907600046	0.00315225377189509	0.010453293184105	0.00726106000076061
3.5	-0.00133270862986269	-0.0141610580005387	0.000596435802477049	0.0030951380160494	0.000602031464896048	0.00309522805329699	0.0102949303836838	0.00583732739304054
3.6	-0.0038123409811017	-0.0141486928929038	0.00102454645099531	0.00297504622637482	0.00103273441780272	0.00297475024039074	0.0106012800325085	0.00559770356920623
3.7	-0.00617297297219303	-0.0142021721382022	0.00143453976756936	0.00279606393641142	0.00142491672372603	0.00280970587739332	0.0113723842576062	0.00468226841488629
3.8	-0.00868929006288587	-0.013799163421772	0.00181367002238587	0.00257101345276171	0.00181604654887415	0.00258017047740305	0.0118926806547483	0.00341538181356253
3.9	-0.0110947247548571	-0.0130698950873655	0.00216174708560729	0.00229875189757269	0.00215448414041375	0.00229695258976272	0.0120181186880036	0.00176455264895205
4	-0.0140182284769364	-0.0117208579945745	0.00244615928469412	0.0019759604285441	0.0024506121811929	0.00197353761440933	0.0108872324531748	0.00046127801059312
4.1	-0.0158788705842808	-0.00908593377863512	0.00269771584998872	0.00161931248096239	0.00269646113995062	0.00162004394671304	0.0106226618811617	0.000725732642206791
4.2	-0.0170954580372823	-0.00669665793897142	0.00289965158084602	0.00121950586909941	0.00290414821358552	0.00121080245832197	0.0110454751531638	0.000324850858865506
4.3	-0.0179719419785697	-0.00423275444455804	0.00304482270023393	0.000807293040400971	0.0030512737368698	0.000799506579042093	0.0114251062653245	-0.000495106486022958
4.4	-0.018481807394645	-0.00177401075138677	0.0031218397447919	0.000372590099790203	0.00312422186510593	0.000370340127792992	0.0115961254633272	-0.00171501065160805
4.5	-0.019287490381614	0.000790586230776123	0.00314548619129118	-6.24073480716414E-05	0.00315086148453726	-6.57595488812952E-05	0.0106387760014579	-0.00297203023856972
4.6	-0.0190588682446571	0.00435606692155761	0.00310686109918942	-0.000506027654924841	0.00310803866096748	-0.000493090981860159	0.0101824712362788	-0.00287557224710915
4.7	-0.017893939508549	0.00730468913352971	0.00300358304496869	-0.000927415382278532	0.00301893015462755	-0.000936992771472145	0.0102005380989494	-0.00337361850831947
4.8	-0.0163302908032341	0.00996298941085774	0.00284362477068342	-0.00134322057195892	0.00285213938883266	-0.00134929048064359	0.0101479523334207	-0.00395033310292446
4.9	-0.0140676593657787	0.0120856591451934	0.00262450216653634	-0.00172805360337031	0.00262866482878477	-0.0017251276130002	0.0102063977132514	-0.00475520494273893
5	-0.0120486500389358	0.0137344255839189	0.00236903199158248	-0.00208692406876112	0.00237265411098736	-0.00208423726731964	0.00958804704646541	-0.00548000735213441
5.1	-0.00871150281152819	0.0154699710485296	0.00205615222801497	-0.00240262396323743	0.00205845650315276	-0.00240125536269045	0.0100557794934419	-0.00539254743251507
5.2	-0.0052995811469541	0.0156959671557843	0.00169719271374417	-0.00265403933697294	0.00169892447488481	-0.00265919297244879	0.0107082183999017	-0.00645658192377095
5.3	-0.00224691048486379	0.0152848309648415	0.00131016671002931	-0.00287143347496572	0.00131330346363987	-0.00286935611922327	0.0107988610323424	-0.00777440763301587
5.4	0.000483025316256145	0.0143070510959954	0.00088482195469352	-0.00302241909951888	0.000902080252727081	-0.00303362460252285	0.0104620980658295	-0.00942367304692793
5.5	0.00213562051414871	0.0133502393540118	0.000465982715014283	-0.00312385545154923	0.000476090049354368	-0.00313331096681981	0.00855788056507802	-0.0105355726062732
5.6	0.00487115741317885	0.0128354276767033	2.47321061493491E-05	-0.00315752695197386	1.61816811873775E-05	-0.00316076426226884	0.00802516084339291	-0.00990291529481975
5.7	0.00730756662724137	0.0108972767271033	-0.000407196441317073	-0.00312742463262357	-0.000423859855753181	-0.0031311157524461	0.0079972758157243	-0.0103366941807013
5.8	0.00903676056576689	0.00854549277495331	-0.000855441138610214	-0.00303331983619913	-0.000858976476541994	-0.0030473623891859	0.00777376538856128	-0.0112433666301791
5.9	0.0102558503664539	0.00573330725329699	-0.00126421922519198	-0.00289290475931554	-0.00127248116224572	-0.00289282437875084	0.00731010666697275	-0.0127793083394817
6	0.00964242495323918	0.00241817442891191	-0.0016635033038803	-0.00268178547448233	-0.00165993279131371	-0.0026819539287972	0.00468795058594806	-0.0147311673403934
6.1	0.00884694823456875	0.000915811879497851	-0.00201707302767575	-0.00242856308927698	-0.00201871914290202	-0.00242454894463975	0.00218709670590199	-0.0137630466439538
6.2	0.00824914892654478	-0.00102949716020278	-0.00233242257848263	-0.00211541933178055	-0.00233613929546721	-0.0021273299473872	0.00104690030438314	-0.0129763066850299
6.3	0.00742400194879845	-0.00288100876413187	-0.00261230979522909	-0.00177895614983071	-0.00262146802885933	-0.00177319684885002	0.000479280084881489	-0.0123647191449769
6.4	0.00635208127640953	-0.00508739509073479	-0.00283854431166344	-0.00138501641356645	-0.00282879447900958	-0.00138993913677492	0.000382638655125946	-0.0125489975542725
6.5	0.00401525338717484	-0.00675381877858356	-0.00299330244368051	-0.000981474295913092	-0.00300118568589223	-0.00097698461100221	-0.000920491851884345	-0.012602528818386
6.6	0.00268644608448232	-0.00755756594033948	-0.00310601297056446	-0.000555172833547708	-0.0031076520209143	-0.000559165151550143	-0.000503392241503673	-0.0119226565179462
6.7	0.000633575923964907	-0.0086505760205588	-0.00315703439018198	-0.000113146281238207	-0.00316591863320488	-0.00010683724182785	-0.000676363682485798	-0.0125154986187907
6.8	-0.00169615345439405	-0.00881847355222095	-0.00313401051636496	0.000331054280736371	-0.00314513805330703	0.00033613151140255	-0.00135523263669801	-0.0127419349024093
6.9	-0.00384331295496937	-0.00869492688444826	-0.00305730708585974	0.000764715877479992	-0.00306030215771439	0.000767116400360924	-0.00198789998695284	-0.0132611475617606
7	-0.0070437423125574	-0.00775223673470353	-0.0029239199117773	0.00118777468503483	-0.00293680913842901	0.00118557550540031	-0.00446667323092937	-0.0133714139632152
7.1	-0.00842578027189118	-0.0050505091656912	-0.00274265826105738	0.00158234524240336	-0.00273895955366236	0.00159104248121995	-0.00507536275024055	-0.011100464370628
7.2	-0.00926523921625141	-0.00324926482001236	-0.0024823804163284	0.00195101916936922	-0.0024889308110552	0.00195312200486388	-0.00461546057196926	-0.0102182459499435
7.3	-0.0100757263955978	-0.0012412954291448	-0.0021849494834381	0.00227027767677373	-0.00219619348866094	0.00227537653111218	-0.00399842293910794	-0.00989062855444282
7.4	-0.0103380944785728	0.000659899446921673	-0.00184244374913121	0.0025552074711911	-0.0018493247293172	0.00256889098256766	-0.00316538093461885	-0.010710084356327
7.5	-0.0114600892225912	0.00217965667949821	-0.00147057160728131	0.00279814394057526	-0.00146351673728765	0.00280554561419747	-0.00438784805013698	-0.0128002582949557
7.6	-0.0114228294534677	0.00562954154219976	-0.00105944117983582	0.00297173742672892	-0.00106084051469954	0.00296703182715559	-0.00560272743615885	-0.0122756411463463
7.7	-0.0103117688103571	0.00787876890880958	-0.000630112101464429	0.00309080077123014	-0.000631460344338753	0.00308974146601209	-0.00622986188136394	-0.0130338500941837
7.8	-0.00863022553059132	0.00965650333609613	-0.000202622836375364	0.00313877596410964	-0.000210425761705654	0.00314528469896515	-0.00742211277636924	-0.0136235922657876
7.9	-0.00651395070499907	0.010665463043143	0.00024232477856015	0.00314406849572374	0.000250296593486241	0.00314553177125002	-0.00911433807164043	-0.014056990672909
8	-0.00531497251165473	0.0117500897503464	0.000685556723532467	0.0030639930298824	0.000685665439589104	0.00306889782905249	-0.0122593123622548	-0.0131770530202539
8.1	-0.001793358342754	0.0129987908039147	0.0010920114856028	0.00294480221185056	0.00111118149556232	0.00294580758821943	-0.0124827358706461	-0.0105887070001482
8.2	0.00126955745300292	0.0125398397075132	0.00149722931543314	0.00276299779229423	0.00150645656334531	0.00275575286847323	-0.0123734622369377	-0.00961166254629482
8.3	0.00396061244337227	0.0116380445202521	0.00187423996685381	0.00252083688082359	0.00187266123314845	0.00253441121737388	-0.0123758682524521	-0.00892811043411829
8.4	0.00645938967733354	0.0100149113847067	0.00220809210072608	0.00223812989030292	0.00220505977334115	0.00223792166949366	-0.0124348176648191	-0.00899193769749385
8.5	0.00727983033914231	0.00815072798737442	0.00248776771143161	0.00190815654645087	0.00248688371535563	0.0019113422459637	-0.0147220474094142	-0.00882511465554046
8.6	0.0092851236206408	0.00745287514533182	0.00273592440360027	0.00154818393374504	0.00274540254792466	0.00154159852358366	-0.0151842279842234	-0.00606851906401329
8.7	0.0112017900044975	0.00509080173710469	0.00292003331537118	0.00114208548795476	0.00292559845136618	0.00114278148436857	-0.014468298292897	-0.00483207002040739
8.8	0.0123536919552036	0.00232270716502227	0.00305271553843919	0.000729488857522133	0.00305843769638633	0.000720703337563511	-0.0138116487502161	-0.00428977823889038
8.9	0.0130880644150834	-0.00104289665126818	0.00312581934476495	0.000297240143867453	0.00312493946845303	0.000294999174084647	-0.0129880383713109	-0.00456542879663569
9	0.0119903054702043	-0.00476230537103991	0.00313779430947124	-0.000144502144947901	0.00314096821570109	-0.00014041261094319	-0.0140808477878894	-0.00525864278702554
9.1	0.0110777897458741	-0.00730563844249805	0.003087580892019	-0.00059001115274079	0.00309053429020303	-0.000577133976119643	-0.014304290119138	-0.00399669485091286
9.2	0.00938695380096983	-0.0104972162004277	0.00297316970919411	-0.00100565561537441	0.00298080185734059	-0.00100856904728944	-0.0142644582877887	-0.0037652783163593
9.3	0.00672926972677535	-0.0130284909210093	0.00280239918538996	-0.00140763321829539	0.00280164577137543	-0.0014126115852802	-0.0145710600961007	-0.00330763319851107
9.4	0.00364671534209234	-0.0150526989003979	0.00258065913553145	-0.00179605412304143	0.00258719549894881	-0.00178849413143225	-0.0148855206772468	-0.00299093375487835
9.5	-0.000723050539069036	-0.015679910179536	0.00230141233152162	-0.00213298679735464	0.00230880786956726	-0.00213437673674987	-0.0164451515835119	-0.0017839329226306
9.6	-0.00352321969059999	-0.0149290554052082	0.00197996418349391	-0.00242981967127192	0.00198029863594425	-0.00242884249118586	-0.0157068843069373	0.000775837741562933
9.7	-0.0065752987420615	-0.014605945285602	0.00161407887809692	-0.00267585576966335	0.00161955929971687	-0.00268316492496031	-0.0145100660023493	0.00167731549381845
9.8	-0.00985661267763417	-0.0135157070450845	0.00123015256509411	-0.00288250851494125	0.00123587142172125	-0.00287406452295043	-0.0135300787029881	0.00212108180758568
9.9	-0.0128912031211283	-0.0118669882086911	0.000823645275251494	-0.00302029444545602	0.00081634468543589	-0.00301903407782384	-0.0127853658784691	0.00172318171730181
10	-0.0168530514720796	-0.00941410655783601	0.000392727310041533	-0.0031011161013045	0.000385211334274894	-0.00311345213535753	-0.0142986501213182	0.00138376076548918
10.1	-0.0188536293434955	-0.00494656586425063	-4.19423743466206E-05	-0.00313001422219956	-5.20984226437652E-05	-0.00312461443975548	-0.0142941886419849	0.00344101523409874
10.2	-0.0198888241013182	-0.00105295958953711	-0.000485417925105565	-0.00309312883818859	-0.00048879780652218	-0.00309035256581358	-0.0133071462520183	0.00426671745885323
10.3	-0.0202021313807685	0.00313900268747554	-0.000915930543326448	-0.00298552976646443	-0.000907916174642954	-0.00299458252217996	-0.0122406937176527	0.00460025540462954
10.4	-0.0194484751838564	0.0069378229361131	-0.00130908174620986	-0.00282671126947375	-0.00130741944502716	-0.00283287176569439	-0.0110796780036477	0.00371595628618818
10.5	-0.0191871923465313	0.0107374623745613	-0.00168975241933722	-0.00262974904116817	-0.00168665681007621	-0.00261684882646861	-0.0123837337437879	0.00282061140292754
10.6	-0.0169735571955369	0.0153068138422641	-0.00204154522458789	-0.00236555856872965	-0.00203937468785674	-0.00236936006648362	-0.0126112107388222	0.0038968330167063
10.7	-0.0141617461193883	0.0189686227704347	-0.00235482167575118	-0.00206461573211982	-0.00235134346048946	-0.00205936991735548	-0.0126850917851556	0.00454179571505088
10.8	-0.0103795342361128	0.0224315413270784	-0.00262023640789879	-0.00170669800312164	-0.00261507581102817	-0.00171556887733878	-0.0123965096556525	0.00558067235924671
10.9	-0.00562429639183939	0.0247076241832084	-0.00282432691145987	-0.00133800072217006	-0.00282948002837064	-0.00133727824028949	-0.0116569364065416	0.00579435796456744
11	-0.00155634032882126	0.0262052000077337	-0.00298788044183091	-0.000928472418041953	-0.00299269161006733	-0.000935187063428496	-0.0128111575637929	0.00621062522657466
11.1	0.00441711046068665	0.0276908873662782	-0.0030963538088845	-0.000501595763536403	-0.00308554990314155	-0.000498748969539202	-0.0117327047693809	0.00861155481568363
11.2	0.0104152436854146	0.0268427450645235	-0.00312352436833602	-6.73536508455193E-05	-0.00313063329810304	-7.2166348550544E-05	-0.00972746195606199	0.0092835206852152
11.3	0.0160042604041641	0.0248026020919631	-0.00309745418783128	0.000376153371849994	-0.00310891484658797	0.00036615816335721	-0.0075844673165282	0.00913429264598161
11.4	0.0211070727413907	0.0215244689801211	-0.00302844546667507	0.000800291288542811	-0.00302357103273294	0.000807830960099715	-0.00576612755716559	0.00789810127442002
11.5	0.0243337319370985	0.0175740449890564	-0.00288619885991437	0.00121952480685892	-0.00288896985539012	0.00122975448845856	-0.00642618674084633	0.00669355637692194
11.6	0.0282990016063155	0.013905896408081	-0.00268953653093431	0.00160427411719436	-0.00268952069506486	0.0016071966783006	-0.00528406571836765	0.00725844720908651
11.7	0.0315189318224354	0.00848949812401728	-0.0024327293901652	0.00195495365202575	-0.00243330787366887	0.0019635069865011	-0.00359910684602724	0.00601230530742311
11.8	0.0335730386992993	0.00240816308932726	-0.00214224026812763	0.00228645934769452	-0.00214633814758129	0.00228813862087662	-0.00251064366111542	0.00397486519851959
11.9	0.0341945888558344	-0.00463481004558113	-0.00179468091424585	0.00256424002798304	-0.00180764727080041	0.00256850133851072	-0.0026836659916609	0.00104629144306576
12	0.0319472392421234	-0.0110078836887882	-0.00142035147420517	0.00278250037915896	-0.00141976187010462	0.00278390381405121	-0.00586403393911312	-0.000384247127548493
