# GHZ S RI R 50
0.2	0.00567711534182841	0.000872488368800342	0.00305136562791982	-0.000897071362491425	0.00306173935286598	-0.000890251287968886	-0.0143478724292433	0.00446453027839666
0.3	0.00610334128721037	-0.000852504566635848	0.00290802707160772	-0.00132082498715998	0.00290076483017583	-0.00130787755947505	-0.0134405693270584	0.00488920617853374
0.4	0.00592536884073418	-0.00228336036507531	0.00267727666059283	-0.00169343839517048	0.00268255716539524	-0.00170200652707076	-0.0128325869341802	0.00565981902107921
0.5	0.00562163046240048	-0.00373600125834351	0.00241850750599573	-0.00205187281909561	0.00243006903071404	-0.00206412635615744	-0.0118188161579558	0.00619252656596806
0.6	0.00429625076558019	-0.0051344245480501	0.00210535504985817	-0.00236684112214882	0.00210457063247701	-0.00237400149105166	-0.0116118399078045	0.00627444868466144
0.7	0.00278181150662015	-0.0056227416104294	0.00175827346434111	-0.00264544354223872	0.00175631440542039	-0.00264564369993398	-0.011556836518331	0.00696818815342567
0.8	0.00139100549949588	-0.00578354655168047	0.00137243295521732	-0.00286403305882665	0.00135981224970726	-0.0028685960228123	-0.0113737529451404	0.00784078052199869
0.9	-8.93089494764929E-05	-0.00549128545749596	0.000954199699469922	-0.00302868007107015	0.000955239162946893	-0.0030393999210977	-0.0111639864882407	0.00892841473789338
1	-0.000961936494999942	-0.00479849945318653	0.000528078452173954	-0.00313181171590603	0.000518199540230997	-0.0031325541012251	-0.0101678839232454	0.0103204490747662
1.1	-0.00210404589176993	-0.00487596915263083	7.243189025532E-05	-0.00316125578076317	6.8924037641767E-05	-0.00317894129037168	-0.00924623413915832	0.0106392747828649
1.2	-0.00374657185040346	-0.00444941404779521	-0.000371085002317037	-0.0031515216060442	-0.000371898929807642	-0.0031494408351376	-0.0085396063695252	0.0113366733681327
1.3	-0.00537208771266145	-0.00388468532901218	-0.000799837647939021	-0.00306834593161216	-0.000803085058460107	-0.00307035560702735	-0.00715802425105261	0.0119745008377094
1.4	-0.00663678915729648	-0.00300208249186182	-0.00122240424092931	-0.00291941840462115	-0.00122118942195903	-0.00292496395092589	-0.00553888841586095	0.0119989317441109
1.5	-0.00680845485272823	-0.00198006423470801	-0.00162363340283772	-0.00272374639192292	-0.00162201702160348	-0.0027322662489413	-0.00381041321425637	0.0112926716400907
1.6	-0.00704330688170365	-0.000594932970878365	-0.00198669612129111	-0.00247139607480891	-0.00198690874832262	-0.00247664492461125	-0.00368178962682869	0.0108275732233179
1.7	-0.00640053246352161	0.00109782655743409	-0.00231685130076787	-0.00217288279102933	-0.00231781606946973	-0.00216660306157817	-0.00324007832125082	0.0112095282921683
1.8	-0.0053837724602726	0.00259249866105288	-0.00258874363293454	-0.00181969178638517	-0.00259974446206009	-0.00182533568192338	-0.00258344068195778	0.0115649975855245
1.9	-0.00403494070872967	0.00379859197249984	-0.00281464788276702	-0.00144774252251171	-0.00282711787025528	-0.00144156178282166	-0.00178178395893603	0.012028951560264
2	-0.0022290411522686	0.00431657282859117	-0.00299221132691555	-0.00103847847822814	-0.00300185981446206	-0.00103374415133477	-0.000452178548726961	0.0121230085953063
2.1	-0.00113730717746489	0.00428710730322764	-0.00310556015974578	-0.000606302006881108	-0.00310146755169052	-0.000608307247652507	0.000135799648602155	0.0116458660560839
2.2	0.000107277780221747	0.00448919753340693	-0.0031617061316491	-0.000165808391280455	-0.0031730485309613	-0.000168630122004589	0.000813980790114678	0.0116370472664741
2.3	0.00146101730921484	0.0042342155061576	-0.00315595281635082	0.00027948955953937	-0.00315566457439713	0.000272586181901818	0.00154597955896925	0.0114741814193638
2.4	0.00270395234987257	0.00374765545695185	-0.00308240088124899	0.000720001876933795	-0.00308496031197752	0.000715738218498336	0.00225817533993525	0.0114985606490119
2.5	0.00416456923288386	0.00275608245003907	-0.00294231708218272	0.00113524391210495	-0.00295321538623095	0.00114167770527483	0.00366566921665936	0.0113897565074388
2.6	0.00478157867803724	0.00104637480511049	-0.0027646587323379	0.001538057363834	-0.00276113569406794	0.00152569606636144	0.00463728942999074	0.0103373077771079
2.7	0.00504975180791583	-0.000261557322370288	-0.00251642556613135	0.00190928752529088	-0.00252171639302691	0.00190931671495097	0.00509210018702742	0.00959275470669626
2.8	0.00534497542468684	-0.00156391569368824	-0.00223081474290289	0.00223672137661225	-0.00222294956122574	0.00224650108083091	0.00545159495073273	0.00914942030300672
2.9	0.00568605084439495	-0.00298948560226802	-0.00189292972143625	0.00253619828231542	-0.0018892163591469	0.0025357552977948	0.00615537432231771	0.00906290960990207
3	0.00591240433882693	-0.00496221049405884	-0.00150349033265133	0.00276813285618319	-0.00151825769143365	0.00277429930699508	0.00749110119714752	0.00859458374140352
3.1	0.00512997178560927	-0.00699322034531531	-0.00111296230456078	0.00294317448099979	-0.00110826950194301	0.00295150598257266	0.00806763369331609	0.00763423217000243
3.2	0.00405545894247381	-0.0086281499092329	-0.000690762773600888	0.00307851958062292	-0.000692511016487529	0.00307791554439415	0.00846602104993829	0.00717261568122569
3.3	0.00262310082991886	-0.0102217206062964	-0.000250959726013637	0.00314543548905777	-0.000249326106197398	0.00314168672399629	0.00900869942042444	0.00665526752388967
3.4	0.00077132243678517	-0.0114036972143296	0.000195968415648993	0.00313563346562212	0.000189833874818492	0.00315222309209208	0.00964234442661865	0.00609047466803144
3.5	-0.00113897790289129	-0.0125632485897856	0.00061580080497713	0.00309077700872139	0.000621395937062248	0.00309083180715323	0.0105259090966017	0.00497278193044672
3.6	-0.00401785004221642	-0.0132402337462003	0.00104494650244022	0.00297019831662649	0.00105313786381033	0.00296984783664804	0.0104474713152651	0.00361452785253213
3.7	-0.00671990215518555	-0.0128946172158985	0.00145496109760078	0.00278602610323969	0.0014454356208481	0.00279973941014785	0.0103459302532493	0.00288700773162514
3.8	-0.00918464892352284	-0.0120746856369769	0.00183128593150755	0.00255626366712872	0.00183372766289708	0.00256539787250107	0.0103521392006085	0.00229215332111816
3.9	-0.0112924186160056	-0.0108323922550871	0.00217479871295587	0.00228177694682034	0.00216753159796	0.00228002824140843	0.0105052102270701	0.0018715736598337
4	-0.0130192741865847	-0.00963229856241749	0.0024592166477235	0.00195964827475847	0.00246365331409875	0.00195719594422766	0.0112518484925386	0.00113460764348434
4.1	-0.0152361790815642	-0.00799739479930733	0.00270871124485563	0.00159627392764783	0.00270746341135295	0.00159701496230433	0.0113092730977777	-2.27913842601131E-05
4.2	-0.0168358034003234	-0.00551589731545389	0.00290421001444101	0.00119403996763033	0.00290862870285672	0.00118531616434443	0.0113401387644153	-0.000731895289000114
4.3	-0.0178137498322147	-0.00292440765325043	0.0030441218440276	0.000781853877329749	0.00305049780341258	0.000774035216251182	0.0114449234050355	-0.00152977260060466
4.4	-0.0183546537206401	-0.000128755514236995	0.00311797770293483	0.000347734898166616	0.00312033735142249	0.000345471425860151	0.0114848238590217	-0.00216410822555895
4.5	-0.0181794514359039	0.00242164440741792	0.00313653548766865	-9.14472849380301E-05	0.00314186534997943	-9.48404742622885E-05	0.0121026101158174	-0.00310127967044925
4.6	-0.0183991150727242	0.00489817501983184	0.00308755191641212	-0.00053108825571478	0.00308883826605879	-0.000518223763952781	0.0118057949362474	-0.0047039522632754
4.7	-0.0178440043406056	0.00793213147928017	0.00298008421278493	-0.00094668025678645	0.00299527224773472	-0.000956330269573113	0.0111792654147542	-0.00576855316592015
4.8	-0.0165915509542077	0.0108234619286157	0.0028170668726073	-0.00135779795536615	0.00282548599915433	-0.00136389992986	0.0105121007742984	-0.00654460750903352
4.9	-0.0144697525940523	0.0134571243310255	0.00259408628704133	-0.00173872162078258	0.00259824694009058	-0.00173584778353369	0.0100033656045298	-0.00690630881060679
5	-0.0116260212656366	0.0150829512981826	0.00233267817655761	-0.00208770712342001	0.00233629054383439	-0.00208507134015036	0.0103235765356533	-0.0075289706728252
5.1	-0.00901057775597488	0.0162868544167323	0.00202444552699546	-0.00239385597013198	0.0020267378844076	-0.00239251257377177	0.00992877637321404	-0.00860499361671804
5.2	-0.00586337132494259	0.017077548205235	0.00166837738603476	-0.00264066973283909	0.00167006649107692	-0.00264578893158321	0.00955158865323196	-0.00919050366264249
5.3	-0.00265463430792864	0.0170246721131724	0.0012834944643818	-0.00285246574041645	0.00128661385333559	-0.00285042332065761	0.00927850406343318	-0.00965604793216981
5.4	0.000359623856762441	0.0164396567007186	0.000861916381261776	-0.00299599335764237	0.000878948629384776	-0.00300716550439509	0.00923070974520691	-0.0101067470924984
5.5	0.00314673581692571	0.0149353403636909	0.000454083107220156	-0.00309231619795098	0.000464063694124363	-0.00310169584261939	0.00954218230002352	-0.0113809912426872
5.6	0.0047011876877908	0.0134811483016948	1.81290292472528E-05	-0.00312882578680137	9.64992178663525E-06	-0.00313201634829865	0.00823695232762823	-0.0127787078081846
5.7	0.00643695887116835	0.0122160780521647	-0.000409701206798701	-0.00309724778087313	-0.000426215690000883	-0.00310087054755371	0.00681620255166795	-0.0131093464842798
5.8	0.00804266804473043	0.0105106360637706	-0.000851239804522722	-0.00300222049672402	-0.00085475988129578	-0.00301611967004878	0.00560488850770318	-0.0132248197048689
5.9	0.00933837655241575	0.00864732393127157	-0.00125169793079817	-0.00286401111051649	-0.00125987745745028	-0.00286393127888028	0.00450019953103309	-0.0128268432354619
6	0.0106077499866814	0.0059647628854397	-0.0016485902371327	-0.00266071016903022	-0.00164504879825638	-0.00266087547835147	0.00444949610199383	-0.012482144668617
6.1	0.0101336157616531	0.00286996851190579	-0.00200104368559759	-0.00240604218497251	-0.00200267280985766	-0.00240206201755215	0.0038769993403825	-0.0130254438926447
6.2	0.00918854215114146	0.000535485429195755	-0.00231021177750978	-0.00209534713145984	-0.00231389295635411	-0.00210714457294587	0.00324410414239578	-0.0132459735244043
6.3	0.0080326813385833	-0.00158127513325868	-0.00258559945409938	-0.00176433215044741	-0.00259467523203768	-0.00175863661960224	0.00265972462277654	-0.0136553523264271
6.4	0.00668060808863509	-0.00342445315942619	-0.00281120778899681	-0.00137720886064625	-0.00280153661747474	-0.00138207261181431	0.00220400017252789	-0.013881799613311
6.5	0.0050381704591704	-0.00561940195427836	-0.00296621163250762	-0.000973518945212035	-0.00297402550686549	-0.000969071687786835	0.0021954924377559	-0.0149629974317225
6.6	0.00234121396755536	-0.00662537678462582	-0.00307203553696741	-0.000553902637315183	-0.00307365111395601	-0.000557854807708757	0.000839924835910866	-0.0159457646142536
6.7	0.000154904300165444	-0.00690677676203938	-0.00312370656576926	-0.000121143933455329	-0.00313251629249671	-0.000114926673484603	-0.000555516788188374	-0.0161449653006177
6.8	-0.00207725797365622	-0.0067463250724497	-0.00310408884215266	0.000316549965640945	-0.00311512410678199	0.000321536970282132	-0.00194803362803938	-0.0158616066749829
6.9	-0.00404833938637703	-0.00594524363042154	-0.00303021618031398	0.00074691989616062	-0.00303319031460801	0.00074928695132096	-0.00283440317784832	-0.0149956621698073
7	-0.00562579694609933	-0.00548702968250909	-0.00289503562426531	0.00116201833612729	-0.00290776691602186	0.00115979149987035	-0.00267616307844703	-0.015042260452456
7.1	-0.00826358179936607	-0.00405306778021803	-0.00272352957393793	0.00154721390581659	-0.00271992805532769	0.00155584179131394	-0.00413325967252501	-0.0154371819937296
7.2	-0.00979975691463783	-0.00160647846462855	-0.00247215980833917	0.00191419672139696	-0.00247866140027721	0.00191623208985661	-0.00542752512369017	-0.014808552797676
7.3	-0.0106946063025298	0.000918633776232484	-0.00218140849809396	0.00223255150415214	-0.00219258494575956	0.00223751814767032	-0.00640230200043227	-0.0140192753989208
7.4	-0.010945195349878	0.00362903374172804	-0.00184525670572923	0.00251495207761384	-0.00185218213653424	0.00252844449168298	-0.00723137848471092	-0.0128663484046704
7.5	-0.0102504876488365	0.00554407979609005	-0.00148769177312083	0.00275626496092243	-0.00148078296834085	0.00276367578529828	-0.00660176428919589	-0.0121190363011239
7.6	-0.0104370388214706	0.00719008580154707	-0.00108507567854115	0.00294007873445171	-0.00108641373494922	0.00293538934793326	-0.00681884889384843	-0.0126676582897571
7.7	-0.00991009855927844	0.00942929549930441	-0.000659634573226702	0.0030649156823806	-0.000660963045053645	0.00306384834003229	-0.00746868130421474	-0.0129846250046849
7.8	-0.00857879367873199	0.0113535427319893	-0.000236848028626964	0.00311817004917391	-0.000244678834031887	0.0031245527712606	-0.00815239532183637	-0.0130573924882692
7.9	-0.00654169165136747	0.0128055169979803	0.000201626571001813	0.00313102821896777	0.00020953924671472	0.00313258405805732	-0.00849638250757531	-0.0128819897135784
8	-0.00434377494465449	0.0132013568444029	0.000645214572711653	0.00306588822500279	0.000645260901062503	0.00307078353037568	-0.00864511799002541	-0.0135376386365147
8.1	-0.0025738471705493	0.0141767031740276	0.00105714636395785	0.00295062140628869	0.00107626457435199	0.0029518365249073	-0.0102680910578623	-0.0137791386598238
8.2	0.000196245322403581	0.014759737631756	0.00146231708798892	0.00277394947400358	0.00147160656320376	0.00276682614571942	-0.0113766380627103	-0.0130665198303769
8.3	0.00306509578754129	0.0144695307713567	0.00184090267933532	0.00253963797666079	0.00183916227495217	0.00255317247408324	-0.0121731340097076	-0.0122300241270831
8.4	0.00590764831735446	0.0136357612078326	0.00218094908655953	0.00226573925905213	0.0021779187527087	0.00226549366176431	-0.0126220274252618	-0.0111498645414654
8.5	0.00853646367292113	0.0113778886315333	0.00247029067127965	0.00193485827423403	0.00246937366787615	0.00193803742262938	-0.0122680752190595	-0.0108936513587897
8.6	0.00947313532294362	0.00939120710008235	0.00271780911162018	0.00157760644736639	0.00272735574210344	0.00157112781584436	-0.0134007015295432	-0.0110879552362036
8.7	0.0108221534969228	0.00765888584942726	0.00290818184413614	0.00117730490671675	0.00291374192066527	0.00117806717998224	-0.0145551728801076	-0.0104037524253264
8.8	0.0120507604037676	0.00542668812212858	0.00304965828693372	0.000766890603257507	0.00305549468617804	0.000758156689967813	-0.0156559371933223	-0.00944078412967361
8.9	0.0131197566410307	0.00273012462934971	0.00313085408419073	0.000331612690326769	0.00312999597300501	0.000329356365976994	-0.0162117752137676	-0.00775401210989095
9	0.0136788656820038	-0.00118614697063219	0.00314278964011669	-0.000110452833615874	0.00314592242355566	-0.000106324241884557	-0.0153686002221193	-0.00657248893312194
9.1	0.0123264927627777	-0.00496839248412569	0.00310337190394025	-0.000552470480563414	0.0031061700601693	-0.000539521201705548	-0.0152670627543134	-0.00617959004451053
9.2	0.0103935026009139	-0.00821982015493674	0.00299822010174686	-0.000973625853989404	0.00300592061156316	-0.000976458489437734	-0.0150955038747635	-0.00555330408976659
9.3	0.00757869177175526	-0.0109621613103212	0.00283251695137482	-0.00138249577308992	0.0028318169010985	-0.00138750759673933	-0.0148911726947854	-0.00493498014917385
9.4	0.00432285226540346	-0.012761631896732	0.00261260413428607	-0.00177544782332227	0.00261908599021786	-0.00176777999215841	-0.0144605269482711	-0.00412012462269782
9.5	0.000568545920346207	-0.0143196795252012	0.00234279106981989	-0.00211434867999652	0.00235024679001885	-0.00211564793840552	-0.0136554373786805	-0.00429194807551235
9.6	-0.004082833681953	-0.0140524985692545	0.00202611088370832	-0.00242608207574973	0.00202643624882802	-0.00242509264124244	-0.0144387757476411	-0.00439039673418626
9.7	-0.00781695718861985	-0.0127054520440348	0.00165770127180935	-0.00268208518850201	0.0016633104041713	-0.00268939965437708	-0.0150603683936122	-0.00365345350791231
9.8	-0.0111954803231976	-0.0108283997699976	0.00127165613803317	-0.00289605540735676	0.00127733893586119	-0.00288747399963541	-0.015570974143987	-0.00258505021149068
9.9	-0.0140037220989551	-0.0082506394957195	0.00086508604970089	-0.00304120704299252	0.000857699103224179	-0.00304001456836825	-0.0157453326705173	-0.000960942913623595
10	-0.0163709516700677	-0.00590926571168731	0.000429126842577106	-0.00313767422674397	0.000421637048638254	-0.00315024722184461	-0.0148198107082146	1.22546150309612E-05
10.1	-0.0191645418694218	-0.0022768152135918	-1.92175934945458E-05	-0.00317048119840523	-2.95440667574686E-05	-0.00316508762303419	-0.0148345922990831	0.000492403918760811
10.2	-0.0203873466937546	0.00218464939079506	-0.000469839506288173	-0.00313554662365399	-0.000473281494130058	-0.00313275904798517	-0.0145697715218264	0.00148712988958416
10.3	-0.0204844682606011	0.00664232582880426	-0.000907848936362634	-0.00303155011970094	-0.000899666215510138	-0.00304066907588018	-0.0140184098093522	0.00245966457399576
10.4	-0.0194329535005434	0.0108764689860706	-0.00131226755633292	-0.00287727640333513	-0.0013105437503206	-0.00288352049067032	-0.0128483007485676	0.00339274135330333
10.5	-0.0178306902903225	0.0139559228262962	-0.00170989044888125	-0.00267373299701049	-0.0017067756193868	-0.00266062837569492	-0.0109647722345001	0.00306902457125085
10.6	-0.0167056093960115	0.0176676621219329	-0.00206443563892941	-0.00240167670553434	-0.00206222809415552	-0.00240552530993667	-0.01065181370964	0.00226154961705209
10.7	-0.0143469920907696	0.0216434558986155	-0.00238388686544722	-0.00209761073690701	-0.00238036968153145	-0.00209228560527489	-0.0105544975247711	0.0020409304381392
10.8	-0.0108934447249349	0.0253728948266679	-0.00265695748500325	-0.00173336543895693	-0.00265171555527777	-0.00174236108721144	-0.0105916487205219	0.00215758645081636
10.9	-0.00617260614546883	0.0283727009279959	-0.00286681016210403	-0.0013533816569234	-0.0028720364509392	-0.00135264170538382	-0.0102514764026708	0.00271218060232298
11	-0.000881930424003658	0.0294922594794033	-0.0030244698932971	-0.000934203111605592	-0.0030293489620046	-0.000940988110552905	-0.00918238726478949	0.00237040129768832
11.1	0.00384014254033403	0.030555313100404	-0.00313596054789856	-0.000506204939826636	-0.00312501782072205	-0.000503328137285824	-0.00947060489802492	0.00186060550601246
11.2	0.00966080059155169	0.0306717851223931	-0.00316566841880666	-6.28465755582291E-05	-0.00317288134053663	-6.77117084364229E-05	-0.00954815791130727	0.00201636371710586
11.3	0.0157494002900313	0.0293316045089708	-0.00313713938902422	0.000390900434370845	-0.00314878285031404	0.000380809530239949	-0.00943630975279277	0.00244994165527094
11.4	0.02151418095323	0.026590674749304	-0.00306092989432848	0.000821494610755892	-0.00305596879220549	0.000829103931121189	-0.00886962556652162	0.00309505965770706
11.5	0.0263625429450866	0.0218789967583036	-0.00291859759246039	0.00124020342838517	-0.00292138108049708	0.00125056251690484	-0.00764077650475787	0.00252408999044629
11.6	0.0295481004764557	0.017135262748006	-0.00272063222600558	0.00163700878715736	-0.00272060480014952	0.00163997185865393	-0.00775171945387972	0.00181493364453487
11.7	0.0326017452828994	0.0118835032186185	-0.00245420646253896	0.00199446186635592	-0.00245474510486594	0.00200313212429202	-0.00764313603329896	0.00165544726545507
11.8	0.0347517599724175	0.00574251717226119	-0.00215452917387556	0.00232815782381538	-0.00215866736646378	0.00232988346784146	-0.00731195397032538	0.00167403929478682
11.9	0.0358289636476104	-0.00112108407616321	-0.00180194519597232	0.00260601604377308	-0.00181504608772299	0.00261040420554493	-0.00650671964281063	0.00204192537983395
12	0.0345283772247431	-0.00896685382068149	-0.00142152646163889	0.00283278313066074	-0.00142091850454914	0.00283420280752547	-0.00521416039082431	0.00101724571243641
