# GHZ S RI R 50
0.2	0.00554699174978064	0.000166324687307093	0.00305520538401808	-0.000896025120745044	0.00306558568719914	-0.000889190973182684	-0.0144927365484628	0.00375801138575148
0.3	0.00599366274283307	-0.00134791954724517	0.00291300195010901	-0.00132020091459585	0.00290571935309643	-0.00130724214122295	-0.0135732777516347	0.00439433579117757
0.4	0.00579197676849607	-0.00244572900512866	0.00268349747237319	-0.00169392407267078	0.00268879505740384	-0.00170250226741226	-0.0130024819377346	0.00550170479063439
0.5	0.00618122769263836	-0.0039453610425863	0.00242485353993231	-0.00205502355559477	0.00243644671412183	-0.00206729745562299	-0.011314742209673	0.00600745022319794
0.6	0.00438071561127791	-0.00609574160217516	0.0021104495172098	-0.00237064403803052	0.00210966644872176	-0.00237781880007651	-0.0115817624161388	0.00536525564548376
0.7	0.0023385564225689	-0.00640387631231625	0.00176335126969257	-0.00265024462884253	0.00176138811031198	-0.00265044618475471	-0.0120453457461623	0.00626105704984916
0.8	0.00064666352023392	-0.00634312391315948	0.00137687629052738	-0.00287044348420142	0.001364226758526	-0.0028750224277988	-0.012146448189241	0.00737302426288113
0.9	-0.00125637544085454	-0.00560711347223538	0.000956799111093378	-0.00303670042359003	0.000957841568052628	-0.0030474487122108	-0.0123301597917633	0.00890985644761417
1	-0.00153656214083654	-0.0038092614992973	0.00052821975292553	-0.00313890463900519	0.000518318769742827	-0.00313964542975143	-0.0107250498188104	0.0113742915176706
1.1	-0.001898863954121	-0.00478433350469998	7.30409494917226E-05	-0.00316854976447457	6.95274632380672E-05	-0.00318627662691575	-0.0090610958270688	0.0107865583612772
1.2	-0.00392077514725991	-0.00478243008383408	-0.000372181838451898	-0.00315994759561155	-0.000372997877044558	-0.00315786122700849	-0.00873891215058161	0.0110709892029411
1.3	-0.00580934528479222	-0.00454819466920571	-0.000803139549990031	-0.00307663396434903	-0.00080639672723681	-0.00307864811959152	-0.00762572689117641	0.0114002086036736
1.4	-0.00747672502866545	-0.00370202303871603	-0.00122738796409568	-0.0029262052767193	-0.00122617346538223	-0.00293176592277602	-0.0063978983810954	0.0114152135321219
1.5	-0.00718225162648164	-0.00268530611515744	-0.00162781452611041	-0.00273028202063582	-0.00162619485030832	-0.00273882283828282	-0.00421734288957946	0.0107167556215884
1.6	-0.00808128745473241	-0.00155514471229273	-0.00199394314518873	-0.00247899850079921	-0.00199415793922921	-0.00248426461523967	-0.00471346290060281	0.0100465838138519
1.7	-0.00757574272640858	0.000810153555623511	-0.00232649861821519	-0.00217822052428095	-0.00232746128324635	-0.00217191884184567	-0.0043674521725504	0.0110912991524191
1.8	-0.00640758383386685	0.00273901937814586	-0.00259915016940296	-0.00182260455750803	-0.00261019284358579	-0.00182825410489788	-0.00354109253333684	0.0118569654644683
1.9	-0.00482106965761108	0.00451671532706219	-0.00282488924455504	-0.00144927901736664	-0.00283739140211002	-0.00144306604876712	-0.00250137065208304	0.0128616078591571
2	-0.00172448639338087	0.00512617069385904	-0.0030050855015058	-0.00103954590870255	-0.00301476730358169	-0.00103478309196895	8.62242161360951E-05	0.0130328517462879
2.1	-0.000785572629811387	0.00390897214582654	-0.00311920820723594	-0.000601839763294118	-0.00311510381253079	-0.00060386199803299	0.000503920122027442	0.011397537883527
2.2	-8.99144842010071E-05	0.00405092453898727	-0.00317323502087975	-0.000158382864866515	-0.00318462441968675	-0.00016118578133203	0.000648167718358566	0.0113507631059717
2.3	0.000901842896835051	0.00393476749636575	-0.00316585456685311	0.00028874187695383	-0.00316558353123288	0.000281814471293197	0.00104587352550703	0.0113325431425321
2.4	0.00174802119671144	0.00397208863717135	-0.00309159621886949	0.000731205727141183	-0.00309417682873137	0.000726933705239095	0.00139121739931316	0.0118535278339706
2.5	0.00405735351868305	0.00394039474954289	-0.00294884129363177	0.00115149249395668	-0.00295975470937636	0.00115799490720471	0.00364238025174423	0.0126508809487149
2.6	0.00539448350441669	0.00138393258413352	-0.00276499381849362	0.00155394590800744	-0.00276151546609549	0.00154153800534635	0.00528922200707768	0.0107458629795633
2.7	0.00559974294114107	-0.000413727830867	-0.0025143401546616	0.00192410728549387	-0.00251964308202014	0.00192415842884891	0.00565847528337073	0.0095362378762542
2.8	0.00560545915347953	-0.00208922782303008	-0.00222626746463666	0.00225153133325024	-0.00221834182597541	0.0022612995042878	0.00572990004868617	0.00874579724719598
2.9	0.00554041162262304	-0.00335377849715791	-0.00188438156617204	0.00255125679839583	-0.0018806622629627	0.00255079423385774	0.00603989365738326	0.00883017833252421
3	0.00635440342197626	-0.0052312190762122	-0.00148915296238695	0.00277857366937745	-0.00150389683461545	0.00278482710879013	0.00794598004178602	0.00844913329103903
3.1	0.00508000759172379	-0.00803219077128858	-0.00110005146464575	0.00294948054211173	-0.00109531879451187	0.00295779423293925	0.00801187613944012	0.00674695822558296
3.2	0.00343505914570748	-0.00946784967369155	-0.000676825534796551	0.00308350245507929	-0.000678577593357444	0.00308290621206258	0.00787740440531146	0.00653355710388212
3.3	0.00168521300256228	-0.0107516085139796	-0.000235315922827252	0.00314757062182506	-0.000233700573527791	0.00314381264501024	0.00814667549478722	0.00632570856238896
3.4	-0.000378795135481409	-0.0113065746400684	0.000212241322502469	0.0031327971808567	0.00020619702095734	0.00314940927741375	0.0085980245743767	0.00635085113159523
3.5	-0.00130309816029007	-0.0120319557393941	0.000627252347347909	0.00308438428743041	0.000632840538354602	0.00308441685921759	0.0104353366193765	0.00563700583716627
3.6	-0.00432448201956255	-0.0136577009637944	0.00105638468165517	0.00296519091740306	0.0010645722437666	0.00296480814693233	0.0102156360011732	0.00337097476728704
3.7	-0.00763848011392756	-0.0131584351133382	0.00146660265890826	0.00277795474120426	0.00145714385716202	0.00279170294223674	0.00954324405541402	0.00278551283158797
3.8	-0.0104253515343321	-0.0118573900423869	0.00184077901278041	0.00254517755058824	0.00184325920977913	0.00255429063102899	0.0092531240731546	0.00262717535278335
3.9	-0.0125070702169289	-0.00970658918464734	0.00218039860968085	0.00226967237595464	0.00217313590624946	0.0022679549867876	0.00942178869413809	0.00305321834724777
4	-0.0126817565937916	-0.0080152243508503	0.00246507091431786	0.00195001437408982	0.00246949684846889	0.00194754737725437	0.0116718247043051	0.00276544344141331
4.1	-0.0145879458289217	-0.00769950072200536	0.00271449228085385	0.00158165562742773	0.00271324907637749	0.00158240224995825	0.011976440590105	0.000276348660822821
4.2	-0.0166291691769666	-0.00557077751798239	0.00290521862660821	0.00117769573409124	0.00290958681991068	0.00116896479433459	0.0115249171033502	-0.000765786865480805
4.3	-0.0179829102565182	-0.00297226641531021	0.00304134746905629	0.000766284822454536	0.00304767432325698	0.000758453289813662	0.0112322097777089	-0.00154163274585112
4.4	-0.0188357802409267	0.000323688285457487	0.00311378866624159	0.000333738748129284	0.00311613431610153	0.000331469285941382	0.0109558618892121	-0.00168609073422667
4.5	-0.0175281306812734	0.00344098461915637	0.00313066627472376	-0.000109122839817391	0.0031359677563982	-0.000112540542854364	0.01262635339223	-0.00212326696949869
4.6	-0.017563966595369	0.00461858257046328	0.00307345478841221	-0.000546343174080533	0.0030748080424995	-0.000533532266265584	0.0123797506123865	-0.00493699585888889
4.7	-0.0175552181370143	0.00737436755805873	0.0029635906926356	-0.000957061569510907	0.00297867169400716	-0.000966745083249248	0.0111871532808147	-0.0061712902397328
4.8	-0.0167126336486385	0.0102515555070404	0.00279954523916515	-0.00136484271282564	0.00280790287975795	-0.00137095742388592	0.010131393913273	-0.00689046763793354
4.9	-0.0149729702436036	0.0133228498022083	0.00257481534846366	-0.00174404912494899	0.0025789725722896	-0.00174120748011565	0.00925907475456895	-0.00678887871511289
5	-0.011159763434145	0.0151963643751481	0.00230787196372416	-0.00208671583887332	0.00231147554543864	-0.00208411441294282	0.0104839958734772	-0.00709854679791316
5.1	-0.00914441306908502	0.0153409110890858	0.00200405420733518	-0.00238481423945319	0.00200633605881488	-0.00238348655923575	0.00956100260431763	-0.00910335905489868
5.2	-0.00675080628602424	0.0165761209823151	0.00165109695893448	-0.00262932296309475	0.00165276187558519	-0.00263441593620737	0.00852956869959632	-0.0092214159751971
5.3	-0.00365720094475336	0.0171897757430918	0.00126779503861411	-0.00283817402794444	0.00127090052473956	-0.00283615275417718	0.00820560394113188	-0.00904137777763567
5.4	-0.000341186083994885	0.0174346902558588	0.000848207896187495	-0.00297666037089046	0.000865089873906205	-0.0029877951260568	0.00847441509816928	-0.00869082321667204
5.5	0.00436318096021107	0.015859950915936	0.000449608218351549	-0.00306832676040148	0.000459508109098799	-0.00307763623346389	0.0106955848120426	-0.0100249861831229
5.6	0.00537682928489762	0.0125365863471095	1.83187727235067E-05	-0.00310936130224762	9.89271743581854E-06	-0.00311253283697689	0.00885490997525171	-0.0132529710830498
5.7	0.00609159876346037	0.0112684951443957	-0.000407578388725793	-0.0030778635149337	-0.000423990328921433	-0.0030814613629559	0.00648290730790521	-0.0135409010029079
5.8	0.00708075679737426	0.00989209613346031	-0.000844977571322889	-0.00298248663344205	-0.000848471447556942	-0.00299629435977644	0.00475803108194643	-0.0133410122140912
5.9	0.00775135768871871	0.00896564061610332	-0.00123912005710841	-0.00284601352026	-0.00124724335560662	-0.0028459455380406	0.00313044190989113	-0.0121061210747291
6	0.0105938609132392	0.00777553609485426	-0.00163434830135276	-0.00265105563725809	-0.00163082426490554	-0.00265121217312618	0.00460632109318296	-0.010471694432469
6.1	0.0109828916344599	0.0030045948616057	-0.00198884825075947	-0.00239554645670867	-0.00199047250531412	-0.00239158785814613	0.00473885002178272	-0.0126987941432486
6.2	0.00940149012257416	9.63683947319712E-05	-0.0022943423850865	-0.00208611422402691	-0.00229798791102681	-0.00209784825110024	0.00340782721822896	-0.0134504629076707
6.3	0.00763243448426622	-0.00203880379626417	-0.00256716503525113	-0.00175932524456541	-0.00257619986182074	-0.00175368068946539	0.00219383719506747	-0.0138291269336517
6.4	0.00591660605791223	-0.00307697321024347	-0.00279383050297548	-0.00137788986297054	-0.00278419378836223	-0.00138270432565383	0.00137435822482104	-0.0132403088556129
6.5	0.00582462752682982	-0.00529348201634079	-0.00295235960172225	-0.000972526086647036	-0.00296014456885488	-0.000968106469624283	0.00283991858087636	-0.0143027735111599
6.6	0.00220660680010484	-0.00743746587062845	-0.00305244684348441	-0.000555258353194902	-0.00305404647778773	-0.000559188910229307	0.000609972907293695	-0.0162881739809973
6.7	-0.000445551886071242	-0.00720051938168042	-0.00310465630292455	-0.000128934327255105	-0.00311343018473693	-0.00012277834514904	-0.00115991570611052	-0.0159426701878525
6.8	-0.00278990724291997	-0.00675867959302307	-0.0030883746255302	0.00030486415974154	-0.00309936644012577	0.000309788805122	-0.00260318732117899	-0.0154006318149678
6.9	-0.00492263751267497	-0.00505476966618775	-0.00301746587289877	0.000735039316539827	-0.00302043193473989	0.000737386740911222	-0.00364103725772084	-0.0136837305950065
7	-0.00413568835207057	-0.00420552911046887	-0.00287827897255287	0.00114696496613637	-0.00289091839871677	0.00114472169321274	-0.0012274010671369	-0.0133464805222379
7.1	-0.00718630199062857	-0.00520215193309393	-0.0027132804193604	0.00152387930239282	-0.00270974434109408	0.00153246840075641	-0.00309435885370324	-0.0160333510854838
7.2	-0.00995124443910128	-0.00292436967707844	-0.00246866440138524	0.00189061774303709	-0.00247514097163127	0.00189260759711308	-0.00551170072291335	-0.015500012906638
7.3	-0.0116976680944201	-0.000184670396840799	-0.00218186534181436	0.00220959209942565	-0.00219301018355002	0.00221447449740247	-0.007203914559228	-0.0144901504555941
7.4	-0.0129686245575316	0.00356970890949403	-0.0018480688522581	0.00249047657759835	-0.00185502659917606	0.00250385365052773	-0.0089275466717528	-0.0123259824823671
7.5	-0.0106497899891726	0.00737587534801018	-0.00150099141227239	0.00272845999134262	-0.00149418158501415	0.00273588281565134	-0.00661400006050562	-0.00986545548161299
7.6	-0.0101506605078944	0.00741986745432474	-0.00110555398797204	0.00292123394644554	-0.00110684901313775	0.00291654941597888	-0.00616232141474266	-0.0121562673819309
7.7	-0.0102042682137519	0.00951355642973334	-0.000681262006784453	0.00305091142987847	-0.000682578404120318	0.00304983699145567	-0.00746291407908905	-0.0126618822628442
7.8	-0.00912609519183113	0.0117884584175067	-0.000260722646809261	0.00310733929024408	-0.000268581200550363	0.00311364199261479	-0.00843512735293674	-0.0124310654425245
7.9	-0.00682259163070427	0.0142104952757556	0.000172656063747578	0.00312466851835951	0.000180533904868664	0.00312629216775503	-0.00846272846183082	-0.0113584666237366
8	-0.00218153236240292	0.0138879719402137	0.000615674755813696	0.00307310776770187	0.000615673609712011	0.0030780050559246	-0.00646786644389388	-0.0126525928083497
8.1	-0.00149833701428895	0.012707774277904	0.00103507373283004	0.00296081264333178	0.0010541956648175	0.00296217630932342	-0.00919817369495252	-0.0149808480628618
8.2	8.5761745514682E-05	0.0133017604926962	0.00144147069279765	0.00278638142373693	0.0014508190086874	0.00277932700043636	-0.01142523756148	-0.0141744195589333
8.3	0.00213422943781248	0.0133368355153829	0.00182169475520239	0.00255689515867552	0.00181984204519987	0.00257042705494655	-0.01297052040461	-0.0130256705366749
8.4	0.00430329391280896	0.0137456509221681	0.00216703186695829	0.00228966389906141	0.00216399630292661	0.00228939206026739	-0.0140819809143968	-0.010813203182064
8.5	0.00917857192643113	0.0124369884503375	0.00246747927737882	0.00195628417625827	0.00246654021369731	0.00195946903150534	-0.0116825815814478	-0.00962249024888492
8.6	0.00990327946773718	0.00818817275074873	0.00271307064013933	0.00159642572575776	0.00272267198107065	0.00158999273698888	-0.0130148722678281	-0.0118905148350684
8.7	0.0100090351644134	0.00637056759482864	0.00290650817257753	0.00119932720690182	0.00291207503238244	0.0012001283993303	-0.0153138667680468	-0.0112485781522048
8.8	0.0103615007557616	0.00451962432304911	0.00305394665581432	0.000789554570243573	0.00305985917468412	0.000780832607899596	-0.0172009124195034	-0.00992310942733566
8.9	0.0105740758526873	0.00306268243064671	0.00314120722394387	0.000349818939861096	0.00314035797764562	0.000347549225303325	-0.018558658599125	-0.00707764360522003
9	0.0128470816942701	0.000662966726634499	0.00314847339994692	-9.60331969406822E-05	0.0031515921561024	-9.18832580360853E-05	-0.0160010606631043	-0.0044645300100326
9.1	0.0117255134983256	-0.00420313485715071	0.00311434918106976	-0.000532503270534248	0.00311706516397047	-0.000519504812637179	-0.0157549316345031	-0.00523968327091624
9.2	0.00972615032324166	-0.00703473182521029	0.00301573604634736	-0.000957380877228418	0.00302348374060145	-0.000960173016080164	-0.0157456443206762	-0.00419393809793056
9.3	0.00742827158102407	-0.00957912245684952	0.00285242633376714	-0.00137182483950305	0.00285175248336432	-0.00137686174050318	-0.0150908962651842	-0.00334407398815766
9.4	0.00465608305964473	-0.0109466323070904	0.00263058995451849	-0.00176795594088104	0.00263705411309792	-0.00176022876177567	-0.0142444824595522	-0.00208495552090659
9.5	0.00318534890363572	-0.0133158908665084	0.00236665247242937	-0.00210322305263527	0.00237414241262584	-0.00210446925221063	-0.0113286869839909	-0.00303511177147946
9.6	-0.00260422822421057	-0.0154574573871901	0.00205564766538759	-0.00242627724387109	0.00205596793799004	-0.00242527951335343	-0.0132931791108653	-0.0052958812226543
9.7	-0.00760877563920799	-0.0141608972751948	0.00168420392595584	-0.0026895409770504	0.00168989233475702	-0.00269686934712917	-0.0150526195986541	-0.00446768141043095
9.8	-0.0117927075506464	-0.0120194761397746	0.00129561893202895	-0.0029073298866103	0.00130129035783347	-0.00289866305661796	-0.0162117675442841	-0.00310412629404318
9.9	-0.0153192028008479	-0.00836944156343506	0.0008898755805783	-0.00305523524319811	0.000882433720349132	-0.00305408186043479	-0.0169729587830979	-0.000511595373921842
10	-0.0156620605861264	-0.00524433389611057	0.000453087616497348	-0.00316516989815245	0.000445605173992191	-0.00317791127272748	-0.0140668865605392	0.00116789909120356
10.1	-0.0187732885241456	-0.00369740923480819	-8.60737975497102E-06	-0.00320135231197085	-1.90525573205674E-05	-0.00319594149673974	-0.0143869843521477	-0.000395451586717259
10.2	-0.0212788316724829	0.000626319797684174	-0.000465205325736872	-0.00316551586192922	-0.000468686677760771	-0.00316271262831027	-0.0153232651387539	0.000452165998696942
10.3	-0.0224340703398489	0.00558775142072761	-0.0009079900170321	-0.00306248031589875	-0.000899705396484508	-0.00307166217603798	-0.0157434078612291	0.0018501956319252
10.4	-0.0221491825105523	0.0115053921048798	-0.00131964231040617	-0.00291174307670789	-0.00131788475171417	-0.00291805098581756	-0.0152993521045874	0.0042826261972712
10.5	-0.0182943522234061	0.0159907040563357	-0.00173325028397983	-0.00270242440198798	-0.00173008194786609	-0.00268917215244602	-0.0113769429376278	0.00515552451096299
10.6	-0.0167344190208613	0.018440341932654	-0.00208733763944399	-0.00241911896665557	-0.00208511775728509	-0.0024230059675745	-0.0107848676911336	0.0031726970602981
10.7	-0.0141675654589958	0.0222341523739197	-0.0024077773327879	-0.00211218477240984	-0.0024042215013997	-0.00210681877858635	-0.010553688185691	0.00292494351660239
10.8	-0.0109132700991202	0.0255380972008719	-0.00268448221858951	-0.00174390501914483	-0.00267921029740087	-0.00175299263056825	-0.0108961853951038	0.00257485353991585
10.9	-0.00664690282925846	0.0291765099568365	-0.00289849992858086	-0.00135498117927797	-0.00290377176613563	-0.00135421446156708	-0.0110536374991109	0.00388500310973754
11	0.000853088178547133	0.0305125349635309	-0.00304683420849876	-0.000925408714196889	-0.00305177437083732	-0.000932210827504358	-0.00791471152273415	0.00393440328183615
11.1	0.00485633757616885	0.0293664089748909	-0.0031567955405307	-0.000501375969806877	-0.0031457772850785	-0.000498509095629316	-0.00884769421163334	0.00141092636030063
11.2	0.00954554627425044	0.0294513065751264	-0.00318825409259451	-5.34679297656349E-05	-0.00319553312759871	-5.83450909113976E-05	-0.00994094382108737	0.00164702999241357
11.3	0.0148006554306449	0.0285337792338585	-0.00315716421426601	0.000406805472580145	-0.00316893057857141	0.000396693873800082	-0.010645310586288	0.0025013584595078
11.4	0.0199363979876907	0.0269821933834315	-0.00307283090346466	0.000841250238575179	-0.00306780538752301	0.000848874412108164	-0.0105626617680527	0.00434634182918725
11.5	0.0269877604269975	0.0228360777069204	-0.00292924106679008	0.0012523025765939	-0.00293201452815622	0.00126271524208172	-0.00691853452978284	0.00420392643280077
11.6	0.0295313638175489	0.0161059892200312	-0.00273460518328258	0.00165693801053645	-0.00273456835234391	0.00165992175829256	-0.00777218796210443	0.00156122538537373
11.7	0.0312890060334982	0.0111327526304438	-0.00246141025462904	0.0020189845656376	-0.00246191276361326	0.00202771501982789	-0.00882350305372617	0.00169373547370858
11.8	0.0326020227647466	0.00600810657042119	-0.00215500024157717	0.00235228465759403	-0.00215915322581918	0.00235404103554883	-0.00920372207901909	0.00261902256787587
11.9	0.03410822806684	0.00146074189093952	-0.00180064492725854	0.00262656454249075	-0.00181379498098374	0.00263102783508625	-0.00801804096487908	0.00504660775255926
12	0.0366612756758956	-0.00579364972312347	-0.00142146263527451	0.00286121328203032	-0.00142084407241231	0.0028626418711238	-0.00326144515574024	0.00451506514285144
