# GHZ S RI R 50
0.2	0.00599661166821739	0.00164651002840103	0.0030461816820075	-0.000898451765315741	0.00305654643030288	-0.000891650609377764	-0.0139903183862563	0.00525576699583637
0.3	0.00622869645241389	-0.000463822590738573	0.00290140454268971	-0.00132164713195072	0.00289416937479079	-0.00130871483985913	-0.0132689692515808	0.00529405563651141
0.4	0.00596056583277594	-0.00226500101481535	0.00266914722779128	-0.00169287328984197	0.00267440531491078	-0.00170142847011165	-0.0127429066756601	0.00568743174805919
0.5	0.00486822847213315	-0.0036636200037193	0.0024101155788184	-0.00204820652630078	0.00242163495668218	-0.00206043577620688	-0.0125237030710689	0.00625888807138136
0.6	0.0040294074676142	-0.00425216113431622	0.00209823499596319	-0.00236222484733412	0.00209744751451393	-0.00236936616536792	-0.0118415563586676	0.00716116814522667
0.7	0.00305658040273943	-0.00497451248174666	0.00175108167788338	-0.00263943085282889	0.00174912799487812	-0.00263962880280349	-0.0112361813173188	0.00762691745092015
0.8	0.0019182318014638	-0.00542190559839555	0.0013659564689062	-0.00285590647188388	0.00135337266299951	-0.00286044563132238	-0.0107909641783296	0.00820805291265158
0.9	0.000746909952798376	-0.00562729457183294	0.000949804013751993	-0.00301850690611677	0.000950836035218054	-0.00302918991274619	-0.0102661600695408	0.00878289362602033
1	-0.000878875657604503	-0.00594201269740627	0.000526302437802992	-0.00312215045289477	0.000516454043372827	-0.00312289009161968	-0.0100326720723597	0.00914617168749929
1.1	-0.00272171403827354	-0.00500374108944387	7.05923964434056E-05	-0.00315080960774365	6.70872288090959E-05	-0.00316843469710222	-0.00982414598064432	0.0104705105672966
1.2	-0.00384691387064777	-0.00420736270404672	-0.000370598562889031	-0.00313948572499727	-0.000371408803675063	-0.00313741259231386	-0.00862400214741182	0.0115367884485684
1.3	-0.00512677428721252	-0.0036069842237869	-0.000796427758950492	-0.00305622748247339	-0.000799662125078995	-0.00305822942929625	-0.00692260916408033	0.0122118240817919
1.4	-0.00620292875796613	-0.0029382465736625	-0.00121663727981328	-0.00290864666115958	-0.00121542509844833	-0.00291417045086331	-0.00513243251120112	0.012033687079383
1.5	-0.00701425101333163	-0.0017191667178806	-0.00161760598596134	-0.00271298512761241	-0.00161599678388962	-0.00272147202616483	-0.00404407688213435	0.0115569500395577
1.6	-0.00652731113630743	6.82118094597364E-05	-0.00197645458987187	-0.00246006572839607	-0.00197666473238532	-0.00246528939827939	-0.00319352374188923	0.0115003337567315
1.7	-0.00571006821370653	0.00122035653975001	-0.00230340912540624	-0.00216445604077259	-0.0023043751931763	-0.00215820801851883	-0.0025613627274774	0.0113561707741301
1.8	-0.00479122357221955	0.00233764518461167	-0.00257386373518701	-0.00181441242458478	-0.00258480412997316	-0.00182004392569999	-0.00198840711783136	0.0113348917006626
1.9	-0.00370307298273435	0.00301776526230317	-0.00279917926807934	-0.00144466773458419	-0.00281159799752521	-0.00143853370527089	-0.00144320601851834	0.0112589928353426
2	-0.0031019580112071	0.00362701763286893	-0.00297357914095903	-0.00103748128657853	-0.00298318073438433	-0.00103278949950463	-0.00134515952878243	0.0114289254474609
2.1	-0.00168762588243737	0.00465839631340961	-0.00308664568654337	-0.000612004689029376	-0.00308256983231323	-0.000613986930880483	-0.000453714751670087	0.0120414881625246
2.2	4.04455429410294E-05	0.0048112544847745	-0.00314509850526541	-0.000175367880687308	-0.00315637399951975	-0.000178212592289946	0.000719963875507753	0.0120028617819721
2.3	0.00164782604708099	0.00438567955469994	-0.00314124380640944	0.000266990691072048	-0.00314093269748932	0.000260122654793917	0.00172380218934121	0.0116708925339792
2.4	0.00311002625560101	0.00342284641852923	-0.00306913896115633	0.000704197960874414	-0.0030716683769917	0.000699946535179207	0.00267019561515138	0.0112028569108972
2.5	0.003651656119434	0.00187042583385753	-0.00293336987915807	0.00111384076525756	-0.00294424687896616	0.00112018393701896	0.0031348835420752	0.010494800040688
2.6	0.00398601005839631	0.00113727428498568	-0.00276247696612743	0.00151687261735735	-0.00275889933057734	0.001504578444722	0.0037783037191352	0.010421105921934
2.7	0.00461630076455987	0.000104298631398006	-0.00251773151637989	0.00188860285314595	-0.00252300330382086	0.00188860301368939	0.0045720968626563	0.00996879099085974
2.8	0.00523859641916238	-0.00117664602561066	-0.00223596639367001	0.00221589925923755	-0.00222818567325238	0.00222569027537066	0.00524418563815673	0.00956561020606611
2.9	0.0057354512643968	-0.00294829165854541	-0.00190353175567249	0.00251569869680542	-0.00189982732331098	0.00251528148065572	0.00609866911003532	0.0091362024521018
3	0.00530005131799883	-0.00485562095787333	-0.00151998546341494	0.00275302597650096	-0.00153476998614745	0.00275908009903103	0.00674110884584643	0.00875611750581813
3.1	0.00505707480508497	-0.00626054741557874	-0.00112910507665305	0.00293182174488097	-0.00112447020745884	0.00294016875594816	0.00785021572417589	0.00850481623449596
3.2	0.00438117364705481	-0.00813707115521672	-0.000709260669370575	0.00306923960565397	-0.000711002294508066	0.00306862540067764	0.00865414768966162	0.0078027149791201
3.3	0.00314900262907812	-0.0100150729470234	-0.000271957585010144	0.00314013595722092	-0.00027030046763804	0.00313640253892968	0.00940527373663841	0.00703099993529062
3.4	0.00134086730808381	-0.0117328532097815	0.000174211423700673	0.00313630841159912	0.000167963333725314	0.00315285194719146	0.0101020956673678	0.00595590507405873
3.5	-0.00147553395405317	-0.013007946746911	0.000597935385625785	0.00309513232233853	0.000603531583933912	0.00309521975160667	0.0100840279834313	0.00472991847288027
3.6	-0.00398663285097959	-0.0129062307119427	0.0010261099929291	0.00297525695702975	0.00103429967043022	0.00297495723600544	0.0103697878481189	0.00418311586653008
3.7	-0.00620494632907288	-0.0128448337163815	0.00143629366738212	0.00279589727152868	0.00142667573036111	0.00280954705573644	0.0107884023698223	0.00321541068099924
3.8	-0.00854070301682829	-0.0124786975515051	0.00181531233606808	0.00257041423897187	0.00181769411876283	0.00257957131923582	0.0109763264961048	0.00217723653628952
3.9	-0.0108517858374393	-0.0119028779637726	0.00216296819971217	0.0022979556530714	0.00215570384589378	0.0022961595019672	0.0109681683571414	0.00105805363202639
4	-0.0138312466364262	-0.0107284090676183	0.00244753234003074	0.00197563170343631	0.00245198559474183	0.00197320664159312	0.0104205204958776	0.000259541221519726
4.1	-0.0158806640953196	-0.008098078957689	0.00269947430061712	0.00161828238352051	0.00269821961647184	0.00161901478962037	0.0106316699457729	0.000168228567589024
4.2	-0.0171238450972394	-0.00561766714404214	0.00290108030539347	0.00121802393050101	0.00290557268741845	0.00120931572096309	0.0110666322032479	-0.000507392394201003
4.3	-0.0179709585091866	-0.00315507451344246	0.00304596492296903	0.000805644910598997	0.00305241269416157	0.000797852902170308	0.0113516262947759	-0.00143251710785886
4.4	-0.0185123178333415	-0.000779900462486927	0.00312299816062259	0.000370909232922931	0.00312537970885751	0.000368657211725791	0.0114201192477311	-0.00250393278613318
4.5	-0.0194660474824826	0.00171784258244322	0.0031467454463003	-6.50837024060008E-05	0.00315212015683013	-6.84418303824564E-05	0.0109277850847969	-0.00348424494809172
4.6	-0.019487192117538	0.00538580793397842	0.00310691580289427	-0.0005090447280578	0.0031081057683153	-0.000496106950506104	0.0108775785844252	-0.00390286122374849
4.7	-0.0183826690004894	0.00856432397183481	0.0030030516657044	-0.000930241378370154	0.0030183916625921	-0.00093983370909649	0.0108341393213861	-0.00483951437247646
4.8	-0.0167670873160759	0.0113784732526479	0.00284266864644978	-0.00134598804921829	0.00285117850626419	-0.00135206645125873	0.0105603118506413	-0.00571661342297262
4.9	-0.014448412005062	0.0135760026882851	0.00262297108707338	-0.00173103136423831	0.00262713732446676	-0.00172810944980435	0.0102983539839903	-0.00655067725742962
5	-0.0124177955508689	0.0152962281028705	0.00236603530743495	-0.00208942429360244	0.00236966002547548	-0.0020867424243265	0.00983088308481523	-0.00717836967288094
5.1	-0.00906433095837058	0.0172185204414457	0.00205310851885459	-0.00240395120634795	0.00205541346100822	-0.00240258533971761	0.0101241062139074	-0.00756543193429753
5.2	-0.0054137774553238	0.0175680671819917	0.00169407448554375	-0.00265494677780342	0.00169580064610724	-0.00266010062857344	0.0102613632293143	-0.00861361760644553
5.3	-0.00213839570133635	0.0170582009222473	0.00130673627117076	-0.00287180129266051	0.0013098740967349	-0.00286972790734446	0.0100581495112806	-0.00959315569667378
5.4	0.000622728112124908	0.0158578466016349	0.000881063005938658	-0.00302179301080943	0.00089830001336936	-0.00303301142368483	0.00973084530996531	-0.0107452703213193
5.5	0.00209153040259945	0.0147793149345449	0.000463114733608253	-0.00312193223743559	0.000473206984073087	-0.0031313889607865	0.00858639545145192	-0.0116423275263635
5.6	0.00459918394937169	0.0144541403705493	2.24683257463954E-05	-0.00315583527167959	1.39202222345629E-05	-0.0031590647355091	0.00817892937286866	-0.0118208699844872
5.7	0.00715986180644508	0.0127664967350977	-0.000409366275180004	-0.0031253766576373	-0.000426023267473314	-0.00312905296295193	0.0076031656631028	-0.0125447438829325
5.8	0.00914383407702475	0.0104355030285017	-0.000857171619169882	-0.00303071713202709	-0.000860715242588771	-0.00304474795573591	0.00677786459834003	-0.0132960325684606
5.9	0.0105475009580947	0.00740452366607915	-0.00126499044871275	-0.00288996499192057	-0.00127324609643785	-0.00288987974205986	0.0057737096704143	-0.0140979908516556
6	0.0098915916306065	0.00377107726028707	-0.00166377029009083	-0.00267980569015616	-0.00166020158960112	-0.00267997549966552	0.00375390413708816	-0.0147428555709417
6.1	0.00875532050951612	0.00210202569711617	-0.00201779202354122	-0.00242611496412078	-0.00201943470417533	-0.00242210152599659	0.00243818288475666	-0.0138666954771874
6.2	0.00793446104331351	0.000250404871431879	-0.0023324858319186	-0.00211255891513481	-0.00233620851108778	-0.0021244598881936	0.00186987247425911	-0.0135552487215065
6.3	0.00698082309989606	-0.00149846654581892	-0.00261163536649247	-0.00177618119292677	-0.00262078397090596	-0.00177042020778545	0.00145782728086631	-0.0135452984370544
6.4	0.00577638832438503	-0.00357590488894134	-0.00283753923843852	-0.00138282998854363	-0.00282779752953001	-0.00138775451480067	0.00115579983942478	-0.01396186800794
6.5	0.00329559930511209	-0.00499422232096693	-0.00299267253195333	-0.000978773667155268	-0.00300054879274671	-0.000974280103769452	0.000291626032427505	-0.0142401424243004
6.6	0.00200054418490915	-0.00532283243830502	-0.00310394569389039	-0.000552344771688129	-0.00310558649085786	-0.00055633262798134	0.00034516257622109	-0.0144673916067691
6.7	0.000355284352578548	-0.00618020749599853	-0.00315437398043469	-0.000111174955786257	-0.00316324680362967	-0.000104866094764254	-0.000449725806940643	-0.0152065112468615
6.8	-0.001660498987858	-0.00645280765650782	-0.00313130423315012	0.000332384101281179	-0.0031424201719093	0.000337462894379735	-0.00157456341332081	-0.015355829852335
6.9	-0.0037589050528704	-0.00654828300026881	-0.00305463688513097	0.000766024285024002	-0.00305762833651257	0.000768424898639417	-0.00253216183069853	-0.0154305016564567
7	-0.00713090347955043	-0.00568838462420618	-0.00291987179119681	0.00118873300399089	-0.00293274885392748	0.00118654603485794	-0.004209435305169	-0.0151501886664514
7.1	-0.00870918053280392	-0.00271571207203254	-0.00273879198921605	0.00158158560331909	-0.00273509413745345	0.00159027111255818	-0.00466833600455062	-0.0139441352800801
7.2	-0.00927758297752847	-0.000572493069242127	-0.00247907277036255	0.00194967545999258	-0.00248561538946132	0.00195177805904721	-0.00495408238908259	-0.0135680358360637
7.3	-0.00959877490768935	0.00146004512238451	-0.00218185275524383	0.00226852866851015	-0.00219308295247217	0.00227362564286254	-0.005285579117963	-0.0132704953391271
7.4	-0.0094371010450458	0.00301746329272864	-0.00183923576568978	0.00255266858575646	-0.00184610329659987	0.00256633744223752	-0.00558207465739871	-0.0134033683111536
7.5	-0.0104619608242357	0.00394971175990611	-0.00146857656085846	0.00279393038541606	-0.00146153254125629	0.00280132158569757	-0.00675072728037325	-0.0137722221342338
7.6	-0.0107219056786832	0.00695693136352893	-0.00105893211451538	0.00296815991625513	-0.00106032880232307	0.00296345927750365	-0.00719505443274681	-0.0129168674294661
7.7	-0.00986718296663356	0.00908854680843588	-0.000630006344308637	0.00308739077751663	-0.000631352956072489	0.0030863323546044	-0.00750744312432051	-0.0133860794606716
7.8	-0.00848692076777693	0.0107780469674578	-0.000203089438539613	0.00313522493710029	-0.000210885084225485	0.00314172467845277	-0.00823268563249441	-0.0137051708783029
7.9	-0.0068478096554711	0.0117844993291219	0.000240647065990789	0.00314039451909068	0.000248608649419368	0.00314185954997961	-0.0091722553024018	-0.0138884801642582
8	-0.00603215069015002	0.0132820579615283	0.000682764426217291	0.00306199980117248	0.00068286947693864	0.00306690068855245	-0.0107349807472608	-0.0134337998701031
8.1	-0.00274427864951653	0.0151546485960886	0.00108996984962331	0.00294321488452777	0.00110912600678734	0.00294422787256318	-0.0108804227366064	-0.0125140534563509
8.2	0.000618029164832952	0.0151619648333694	0.0014947426665616	0.00276143696158788	0.00150396573247123	0.00275420216864656	-0.0113531367277894	-0.0122587740293731
8.3	0.00364572728785324	0.0143687432628642	0.00187113161530811	0.00251992662232688	0.00186954574847545	0.00253348880711988	-0.0119271133792656	-0.0118390737836512
8.4	0.00628670942987128	0.0126271412873109	0.0022049299250726	0.00223861853688487	0.00220189957594004	0.00223840793805248	-0.012485538798279	-0.0116185857923322
8.5	0.00699947265474075	0.0107300255900318	0.00248608535230306	0.00190874064549921	0.00248520012110568	0.00191192493047904	-0.014013777067356	-0.0110603998019805
8.6	0.00885395874638513	0.01034185815637	0.00273344989430262	0.00154847830764286	0.00274292507210824	0.00154190155214025	-0.0142998669842153	-0.00955079971060653
8.7	0.0110945711760503	0.00836358454089671	0.00291749835755702	0.00114337479525142	0.00292305966536919	0.00114407414195302	-0.0144563104797181	-0.00896688285342878
8.8	0.0127893936940383	0.00562359136236667	0.00305083766655181	0.000731528680167385	0.00305656413405081	0.000722751358312484	-0.0149120535865918	-0.00846878738488991
8.9	0.013940922137658	0.00187922883860604	0.00312497631647656	0.000299147885733825	0.00312409803710633	0.000296906831511311	-0.0151939433419368	-0.00791971139490111
9	0.0128521006546814	-0.00231539029022462	0.00313619125982729	-0.000143064879503807	0.00313936170803143	-0.000138976140311478	-0.0160012773541792	-0.00718642648039414
9.1	0.0116971461496911	-0.00507186913291775	0.00308652223241616	-0.000587159231283755	0.00308946348937763	-0.000574286062120644	-0.0157045291334156	-0.00575993562050247
9.2	0.00990619445780453	-0.00832452731748845	0.0029732359590886	-0.00100285940615861	0.00298086855955799	-0.00100576557213158	-0.0153509866721735	-0.00520542673323777
9.3	0.00712073611458258	-0.0110008761968907	0.0028029636081222	-0.00140535520321607	0.00280221395214366	-0.00141033329757356	-0.0151297071467592	-0.0045936450575512
9.4	0.00370417528973286	-0.0131520785111069	0.00258083595201033	-0.00179398298016061	0.00258736582708255	-0.001786421740205	-0.0148753861160713	-0.00419893810159564
9.5	-0.00112814972794541	-0.0136896866093605	0.00230237245104821	-0.00212944906012778	0.00230976541941905	-0.00213083059247931	-0.0152139098727691	-0.00335456313645578
9.6	-0.00425437645357954	-0.0123942906349443	0.00198259034861673	-0.00242735210691286	0.00198292365335228	-0.00242637462235315	-0.0144963703320131	-0.00237909832422251
9.7	-0.00707256354942346	-0.0115711777635658	0.00161683082978105	-0.0026742824149265	0.00162231879391727	-0.00268158618576994	-0.0141764924249498	-0.00214701396596054
9.8	-0.0099475983413609	-0.0103480209860865	0.00123299866708596	-0.00288126697868539	0.00123870911286618	-0.00287281738729099	-0.0141466066906116	-0.00175224519204123
9.9	-0.0126858857958436	-0.00895689521852581	0.000827245176615623	-0.00301908699430034	0.000819943568956623	-0.00301783555421842	-0.0142397381982875	-0.00135389886469945
10	-0.0167239761216026	-0.0067537797216327	0.000397497586102643	-0.00310200288917229	0.000389996290705095	-0.0031143558715649	-0.0150668486994445	-0.00063361498037882
10.1	-0.0189404308086829	-0.00217957557211838	-3.86235322054077E-05	-0.00313203425964526	-4.87917606252997E-05	-0.00312664192431418	-0.014611995144326	0.000847456728088995
10.2	-0.0197813229785376	0.00186657717688235	-0.000482400195333093	-0.00309540792270565	-0.000485784958926229	-0.00309263366842443	-0.0139749004661925	0.00148367788263965
10.3	-0.0198396405285664	0.00587027204596024	-0.000912972485952763	-0.00298863429508536	-0.000904941889367668	-0.00299768354526489	-0.0133708737631223	0.00202501131729056
10.4	-0.0191346313361432	0.00922993851722106	-0.00130674173116209	-0.00283150661613725	-0.00130506944813093	-0.00283767156463461	-0.0125450904584573	0.00206613525665054
10.5	-0.0193622124957981	0.0127880304250997	-0.0016904635864579	-0.0026349614900118	-0.00168737241296514	-0.00262203939375359	-0.0125836747745275	0.00217814691998187
10.6	-0.0177849172060751	0.0175743420533228	-0.00204281800279592	-0.00236936873834767	-0.00204064302889385	-0.00237317369772884	-0.0118347489917562	0.00255186004762437
10.7	-0.0151060326858178	0.0216932064113205	-0.00235658322261996	-0.00206832830083092	-0.00235310354955423	-0.00206307435702299	-0.0113909875437415	0.00258063146633474
10.8	-0.0112782432460843	0.0254663750119107	-0.00262301369927067	-0.00171020298393625	-0.00261784207383331	-0.00171908354085842	-0.010998713471806	0.00280782735704712
10.9	-0.00645500615795756	0.0278401102263222	-0.00282842057912862	-0.00134044996510452	-0.002833581631651	-0.00133972714478474	-0.010519481823097	0.0027752380537075
11	-0.00259243645750947	0.0296228308034536	-0.00299109450754168	-0.000928898648803793	-0.00299591176255323	-0.000935619311362792	-0.0109011011002509	0.00303547302763694
11.1	0.00334498609373697	0.0318148018897119	-0.00309937806425066	-0.000502758454612589	-0.00308856383817752	-0.000499906495227854	-0.00997342736653457	0.00382043486077082
11.2	0.00995363242555689	0.0315598183848167	-0.003127369795022	-6.79346908368357E-05	-0.00313448673400975	-7.27544633276875E-05	-0.00909707627387964	0.00368648841840482
11.3	0.0163910663146873	0.0295501724320228	-0.00310146784619444	0.000376839962324242	-0.00311294407716805	0.000366832451418366	-0.00826677824202178	0.00350360698621554
11.4	0.0220928175435661	0.0258487623591252	-0.00303143920526498	0.000802118754726	-0.00302655712904004	0.000809664957683644	-0.00760205917450388	0.00300265507649555
11.5	0.0254932722024477	0.0214810988527178	-0.00288872578272405	0.00122016020880787	-0.00289150035559852	0.00123039794513036	-0.00796175186410764	0.00266895160314379
11.6	0.0295401193274813	0.0176430085119235	-0.00269324302617357	0.00160601343667862	-0.00269322754766492	0.00160893980201029	-0.00711115501819508	0.00279579208393424
11.7	0.0331031784395436	0.011906600877882	-0.00243576194423245	0.00195790245861408	-0.00243634011486253	0.0019664674080171	-0.00642273503716749	0.00199107375222037
11.8	0.0353000838729673	0.00514461217304357	-0.0021442960428723	0.00228977019158193	-0.00214839851139665	0.00229145251154884	-0.00604675716521933	0.00118027389829039
11.9	0.0357345556397288	-0.00270089770004943	-0.00179664363393789	0.0025675006410481	-0.00180962536331976	0.0025717682046887	-0.00586845908897183	0.000382989110143532
12	0.0324637786497576	-0.00938615247149484	-0.00142343103816213	0.00278671646334098	-0.00142284083215871	0.00278812236994313	-0.00682612071108647	0.000210434668414177
