# GHZ S RI R 50
0.2	0.00589844402252784	0.00142464483253111	0.00304752886385274	-0.000898066029870716	0.00305789586456772	-0.000891259889285616	-0.0140913990741895	0.00503585605285093
0.3	0.00614388227390931	-0.000594969603944767	0.00290315587165166	-0.00132139623384722	0.00289591345205332	-0.00130846006458664	-0.0133599587677112	0.00516500473394217
0.4	0.00587506581264466	-0.00225078791359246	0.00267137574336911	-0.00169300053599714	0.00267664001441205	-0.0017015591877097	-0.0128407079155976	0.00570468718959874
0.5	0.00509625888693872	-0.00364210576803547	0.00241240989065444	-0.00204935997122127	0.00242394070244593	-0.00206159665876905	-0.012318845905062	0.0062920895952302
0.6	0.00411197247045703	-0.00456133850727462	0.0020999958344412	-0.00236358868074869	0.00209920873582656	-0.00237073504888751	-0.0117826522113941	0.00687949046393673
0.7	0.00293544767411611	-0.00524187805968818	0.00175284954024259	-0.00264110046653694	0.00175089443064739	-0.00264129890384144	-0.0113752230816547	0.00739889889616783
0.8	0.00167226299021976	-0.00562436275978563	0.00136752770119209	-0.00285814720408875	0.00135493381145287	-0.00286269202514116	-0.0110450313594051	0.00805356630271813
0.9	0.000300045267986301	-0.00566596695609408	0.000950705101351796	-0.00302137403779644	0.000951738099453307	-0.0030320671909133	-0.0107053542710479	0.00879339570960129
1	-0.00113194182872877	-0.00546176533372174	0.000526164866818469	-0.00312461248670705	0.000516308864614547	-0.00312535099226719	-0.0102703403193811	0.00965640833789853
1.1	-0.00258609596055686	-0.00480134216700036	7.07518215903866E-05	-0.0031531578500255	6.72446361450642E-05	-0.00317079620715423	-0.00969409881469246	0.0106963469526329
1.2	-0.00377932244775632	-0.00412146268017199	-0.000370934922687735	-0.00314225983097751	-0.000371745873895041	-0.00314018486346211	-0.00856692736960837	0.0116527995471624
1.3	-0.00502198659342729	-0.0036182950915111	-0.000797518390994481	-0.00305895847333558	-0.000800755977604519	-0.00306096189406993	-0.00683427303625271	0.012241281019726
1.4	-0.00618601941892726	-0.00304724350362289	-0.0012183113512627	-0.00291076862615131	-0.00121709944008034	-0.00291629725632743	-0.00513016491949387	0.0119812439648558
1.5	-0.00681147385798481	-0.00190520632082509	-0.00161869800144555	-0.00271491947764317	-0.00161708752647334	-0.0027234123160673	-0.00386371793019761	0.0114393823430717
1.6	-0.00666862243950326	-0.000367119120659397	-0.00197854723795912	-0.00246270292767734	-0.00197875757093939	-0.00246793217160247	-0.003337404769055	0.0111589912874392
1.7	-0.00603086090468452	0.00100406683668268	-0.00230643205607386	-0.00216635705151941	-0.00230739784155428	-0.00216010189206591	-0.00286043549758578	0.0112311634284737
1.8	-0.00514597886929982	0.00229681550602751	-0.00257711871563177	-0.00181546108846137	-0.00258807227309093	-0.00182109488988602	-0.00230958086365579	0.0113730419806693
1.9	-0.00404551374579546	0.00324994251469578	-0.00280220593811555	-0.00144533614691214	-0.00281463493330531	-0.00143919315233692	-0.00175148340778897	0.0115519835239713
2	-0.00289352297969261	0.00400620907214214	-0.00297764003658615	-0.00103844875298186	-0.00298725365915457	-0.00103374948546228	-0.00112308013127426	0.0118599473640593
2.1	-0.00148207917092763	0.00449339375724973	-0.00309131863668845	-0.000610895580125599	-0.00308723838256091	-0.0006128831598441	-0.000245515068003381	0.0119470302857528
2.2	-1.44962263167711E-05	0.00458860721371739	-0.00314899100028842	-0.000173183106289696	-0.00316028213656473	-0.000176022633773727	0.00067674726136987	0.0118645980238469
2.3	0.00139864857265557	0.0042132147481564	-0.00314459832044389	0.000269696830050521	-0.00314429211441362	0.000262820774708702	0.00150257695758621	0.0115861694717213
2.4	0.00261812229141419	0.00349957857252139	-0.00307249788429264	0.000707440475994348	-0.00307503376515638	0.00070318558636783	0.0022230202427714	0.0113502841844649
2.5	0.00349592548634594	0.00251540519158475	-0.00293611980466967	0.00111926015777655	-0.00294700411648388	0.00112562659472384	0.0030173729158292	0.0111784356548698
2.6	0.0042752309383328	0.0014818291654644	-0.00276269669983784	0.00152225254690932	-0.00275913388991482	0.00150994228830348	0.0040769704664921	0.0108024683542303
2.7	0.00497106016206614	0.000203974554459707	-0.00251716404742337	0.00189345540974278	-0.00252243995162417	0.00189346264289285	0.0049217519413721	0.0101210556460799
2.8	0.00549749951852586	-0.00130995171477155	-0.00223469260048226	0.00222080473090834	-0.00222689195579828	0.00223059284471105	0.00549743662859839	0.00950104060633261
2.9	0.00578157816886763	-0.00304633990157179	-0.00190086245868366	0.00252097120195449	-0.00189715568267518	0.00252054740748263	0.00614500343647945	0.00910985802780119
3	0.00561742495317214	-0.00486739726025081	-0.00151476621419354	0.00275661550773534	-0.00152954151420657	0.00276270046078155	0.00704478821516955	0.00881464583121858
3.1	0.00521016886460053	-0.00668062050871151	-0.00112467575145599	0.00293347491935318	-0.00112002839455231	0.00294181482555954	0.00798069706285416	0.0081778435138523
3.2	0.00426570635170462	-0.0085275451914521	-0.000704724842107737	0.00307055888917724	-0.000706467532883032	0.00306994724028106	0.00853470062472459	0.00753386452319465
3.3	0.00285950316123744	-0.0103103506000301	-0.000266825197078976	0.00314056848459266	-0.00026517418683121	0.00313683237250226	0.0091355910739742	0.00686155063176722
3.4	0.000889722076227667	-0.0117708944515507	0.000179681434668151	0.00313484392768998	0.000173464842264387	0.00315139238518836	0.00968860284558119	0.00602747213991242
3.5	-0.00150178072006899	-0.0127661434605517	0.000601090139987815	0.00309201972850282	0.000606682077570506	0.00309210054273348	0.0100773462719011	0.00506759680964499
3.6	-0.00402778348486701	-0.0131470000216347	0.00102891164979589	0.00297339679711884	0.0010370988182644	0.00297308868633935	0.0103480930980179	0.00406514329621533
3.7	-0.00658617910027639	-0.0130524949476549	0.00143936653861973	0.00279321673144782	0.00142976878949339	0.00280687437060617	0.0104536809015625	0.00313065623123295
3.8	-0.00913916225529046	-0.0124393825706131	0.00181763311628212	0.00256673766633214	0.0018200253274287	0.00257588686328788	0.0104442486970351	0.00231776688230485
3.9	-0.0114931038315664	-0.0113576138902323	0.00216362610354687	0.00229410839662737	0.00215636538696757	0.00229232075601471	0.0103914681319686	0.00166964011438836
4	-0.0136662191722496	-0.00978407946366661	0.0024484300335981	0.00197368619869841	0.00245288094532739	0.00197125859882523	0.0106202039235861	0.00124997889525949
4.1	-0.0153852111109912	-0.00783709277505051	0.00270126514242476	0.00161441380208437	0.00270001162530429	0.00161514779252353	0.0111330585066274	0.00047728502007188
4.2	-0.0168067428854713	-0.00564403596871003	0.00290125555816386	0.00121333894572889	0.00290573343814539	0.00120462904404513	0.0113749798883068	-0.000472332970134818
4.3	-0.0178663057136581	-0.0032733524894123	0.00304486963889522	0.000801352573567547	0.00305130342722523	0.000793557979316482	0.0114447553042387	-0.00148193486586421
4.4	-0.0186548466106531	-0.000711404295005828	0.00312183013982392	0.000367461353995038	0.00312420814873962	0.000365207966126087	0.011269546169369	-0.00237330691708781
4.5	-0.0191226979181374	0.00214947955092434	0.00314579235597713	-7.05494577593745E-05	0.00315115978086444	-7.39160549363112E-05	0.0112273407964174	-0.00302923553790871
4.6	-0.0189938563795296	0.0051736892085743	0.00310242121454348	-0.000514111668342658	0.00310363334762192	-0.000501190915753589	0.011259701788108	-0.00405161127957967
4.7	-0.0181871428038467	0.00817307712484964	0.00299765359929569	-0.000933365411426767	0.00301295896819463	-0.000942967184216264	0.0109112638536965	-0.00511249433324225
4.8	-0.0168196570365268	0.0109651245647754	0.00283714548737278	-0.00134796406206537	0.00284563610966622	-0.00135404567837537	0.010404055952588	-0.00597656281933068
4.9	-0.0147647702881812	0.0133835674159773	0.00261696485144797	-0.00173290020831256	0.00262113033396421	-0.00172998845126771	0.00989339388659472	-0.00658412326979664
5	-0.0122941389213928	0.0153427691244044	0.00235711864879161	-0.00208918500993823	0.00236074037229918	-0.00208651552543204	0.00982883087767961	-0.00694915358079172
5.1	-0.00916574795907843	0.0167336177577852	0.00204603149511284	-0.0024000267572599	0.00204833213440247	-0.00239866623106745	0.00993029661477238	-0.00779829692965091
5.2	-0.00593666940336766	0.01731188707398	0.00168850441699346	-0.00265035548293858	0.00169022317136466	-0.00265549931669229	0.00970126835800141	-0.00860862793451023
5.3	-0.00272850836758919	0.0172088871764093	0.00130170689741211	-0.00286637594340491	0.00130483927196731	-0.00286430949002709	0.00946460854887317	-0.00919943093834073
5.4	0.00021584928880298	0.0164807856240225	0.000876427515684003	-0.00301439414252698	0.000893610039987905	-0.0030255956433921	0.00932251027532897	-0.00990297970299082
5.5	0.00274286869739855	0.0154741121944334	0.0004625164749873	-0.00311202498138645	0.00047257968988058	-0.00312144932123179	0.00922003654672526	-0.0107215875548419
5.6	0.00515339841529071	0.0140773770605404	2.43288690145778E-05	-0.00314854827223122	1.58024234993237E-05	-0.00315177547275599	0.00871851547357446	-0.0119451045892444
5.7	0.00716538205848144	0.0122522648870641	-0.000407048758141356	-0.00311860610033745	-0.000423667029776348	-0.00312228172123107	0.00763004750614373	-0.0127851836113197
5.8	0.00876365570573983	0.010021989262643	-0.000853453475292588	-0.00302394838129138	-0.000856980900142175	-0.00303794763466255	0.00647321474478252	-0.0134433645741613
5.9	0.00972493711440337	0.00744539011066886	-0.00125860978473538	-0.00288395207404412	-0.00126684441471213	-0.00288387602903837	0.00508105493712915	-0.0138482303356813
6	0.00977944530073158	0.00478050525601274	-0.00165673562190197	-0.0026783000077167	-0.00165317228797366	-0.0026784636853279	0.00374191241570598	-0.0136397586506238
6.1	0.00927022681906461	0.00232487934353422	-0.00201291238265229	-0.00242432565062854	-0.00201455603928003	-0.0024203192878475	0.00295638429880229	-0.0135527934877776
6.2	0.00820728689838543	0.000127616936837228	-0.00232653018739332	-0.00211086976176167	-0.00233023591851592	-0.0021227530013785	0.00210603103797748	-0.0135573470946402
6.3	0.00696348490065415	-0.00171377020805241	-0.00260484174248245	-0.00177605973725889	-0.00261398066263033	-0.00177031989876594	0.00139153187136812	-0.0136045357492351
6.4	0.00548323568435015	-0.00340951584626133	-0.00283158140615865	-0.00138521387791898	-0.00282184558765916	-0.00139011700949264	0.000815916310000724	-0.0136296101440149
6.5	0.00381895456302912	-0.00470778790950245	-0.00298932788312232	-0.000979760435538514	-0.00299719978144386	-0.00097527591814295	0.000724235093492347	-0.0137637483070952
6.6	0.00212397507572095	-0.00571479135697552	-0.00309773997694036	-0.000553322116164243	-0.00309937509093005	-0.000557303527538393	0.000407232323786965	-0.0145876221633569
6.7	0.000215645368580577	-0.00635193860706644	-0.00314819923519366	-0.000114755618147787	-0.00315706265311182	-0.000108469510337741	-0.000593798833808237	-0.0150916126325681
6.8	-0.00187573383694705	-0.00653692975433423	-0.00312669760592703	0.000327368798132487	-0.00313780276457039	0.000332423459773045	-0.00175689216571085	-0.0151684312306805
6.9	-0.00415767279761579	-0.0062110283653445	-0.00305152687121496	0.000761631467024363	-0.00305451711365489	0.000764025637742793	-0.00288942587967923	-0.0148527521480723
7	-0.00635040993281405	-0.00501199284553028	-0.0029141158051413	0.00118384422535653	-0.002926961927459	0.00118165260380498	-0.00345277513955878	-0.014243237344477
7.1	-0.00800435982404234	-0.00335461995939096	-0.00273536668893132	0.00157265251595387	-0.00273169406919462	0.0015813246530106	-0.00398754386042439	-0.0142702546391829
7.2	-0.00925313236229336	-0.00140915297819022	-0.00247858660138892	0.00194077457380849	-0.00248512147724356	0.0019428593595652	-0.00489142714139279	-0.0140509274135016
7.3	-0.0100981670867792	0.00067158525502847	-0.00218277500528866	0.0022602253714276	-0.0021939965281663	0.00226529078133309	-0.0056672397010427	-0.0137060339948034
7.4	-0.0106312404133469	0.00269579551949128	-0.00184040617759473	0.00254383540161038	-0.00184728611790179	0.00255746275112532	-0.00658803715908002	-0.0133960602629473
7.5	-0.0110528096601152	0.00485372050853288	-0.00147402053040903	0.002782456821983	-0.00146701730775405	0.00278985283887534	-0.00711657163533069	-0.012634335156189
7.6	-0.0108642840827185	0.00712155629075852	-0.0010680597157558	0.00296106656010645	-0.00106943842354574	0.00295636644534536	-0.00714427099233368	-0.01261693916016
7.7	-0.0103491976010928	0.00926979205272391	-0.000639183598528772	0.0030826800870124	-0.000640525685190629	0.00308161835285778	-0.00783431521130395	-0.0130901551089053
7.8	-0.00908643197791902	0.0112974412182102	-0.000212825868919707	0.00313166111691752	-0.000220634829116034	0.00313813012312347	-0.00871137470739967	-0.0130972310600561
7.9	-0.00723267524076651	0.0129318953589264	0.000228684471571816	0.0031382302442241	0.000236632818492886	0.00313972357893175	-0.00941937248431146	-0.012658823593998
8	-0.0047896148307442	0.0142729600764965	0.000669997260518488	0.00306630610438517	0.000670081428233701	0.00307120966575853	-0.00953578717982566	-0.0123386367623284
8.1	-0.00189042846946888	0.0148219810278042	0.00108165029866366	0.0029489822526845	0.00110081866701444	0.00295005589640951	-0.0100756381144226	-0.0126796788577358
8.2	0.000918165613068514	0.0146548187373966	0.00148725628507523	0.00276743375493337	0.0014965061203305	0.00276022274493914	-0.0110635098853236	-0.0125404776473201
8.3	0.00352795928284273	0.013882008243057	0.00186418970171131	0.00252755019426097	0.00186255911203556	0.00254111583193516	-0.0120102922386727	-0.0120961976468037
8.4	0.00573423769797691	0.0126724807240754	0.00220014242859893	0.00224925561796776	0.00219710873961952	0.0022490342481822	-0.0129880213582282	-0.0113994354131194
8.5	0.00760490786274318	0.0113493347935591	0.00248705829440738	0.00191786801498455	0.00248616452222429	0.00192105685363455	-0.0134738674998424	-0.0102775096694379
8.6	0.0094615528309902	0.00965467598311689	0.00273304503702545	0.00155531208248414	0.00274254217691229	0.00154874754819374	-0.0137489400321433	-0.00995464603207555
8.7	0.0109986053014143	0.00746496653121506	0.00291777906546911	0.00115142973287365	0.0029233444024398	0.00115214292207187	-0.0145392826716605	-0.00954803118119402
8.8	0.0121203584388491	0.00482495610291192	0.00305344236745361	0.000739827778222109	0.00305919786967499	0.000731051578189861	-0.015502422803552	-0.00895581876104992
8.9	0.0126371828164911	0.00167876063682401	0.00313019860342345	0.000305109345514017	0.00312932259187342	0.000302862653611	-0.0163737465708231	-0.00785787647079278
9	0.0122517199302752	-0.00155355780993945	0.00313825969102137	-0.00013958143578973	0.00314142741078934	-0.000135486602948207	-0.0164717268973339	-0.00621567225516137
9.1	0.0112674152039121	-0.00477806064004129	0.00308983352113821	-0.000580359910359177	0.00309274673031915	-0.000567471786888094	-0.0160399134500934	-0.00531200138509497
9.2	0.00941608839882035	-0.00772331063915975	0.00297928869336212	-0.000997192356758273	0.00298693760397332	-0.00100008438969444	-0.0157952504382466	-0.0044610826546
9.3	0.0069608590337358	-0.0101909619860408	0.00280979501826715	-0.00140194876316871	0.00280905396282905	-0.00140693558904342	-0.0152805125480995	-0.00363260837855103
9.4	0.00386066147758728	-0.0121408039617546	0.00258603165567112	-0.00179174701013287	0.00259255619158485	-0.00178416860183854	-0.0147521049930755	-0.00303319119055769
9.5	0.000302526923146823	-0.0129738853047354	0.00230966519089968	-0.00212393858551149	0.002317065923185	-0.00212529961841649	-0.0139122136986332	-0.00247559199208397
9.6	-0.00327158126652813	-0.0131077811643269	0.00199340675099776	-0.0024263233182468	0.00199373788293267	-0.00242534298776559	-0.0136728852137171	-0.00279545936696679
9.7	-0.0068405153588435	-0.012426079026439	0.0016263698811596	-0.00267626612099774	0.00163188617342222	-0.00268357286062807	-0.0140321299813887	-0.00262820185094891
9.8	-0.0102411834069203	-0.0110990141557234	0.00124143333026667	-0.00288429403122196	0.00124713719759419	-0.0028758160303845	-0.0144415686302621	-0.00211575778016892
9.9	-0.0134897490196495	-0.00909857983972542	0.000836596805239178	-0.0030222968122804	0.000829278946442778	-0.00302106220558682	-0.0149748698187658	-0.00117668786797616
10	-0.0164733325710622	-0.00621912473641425	0.000408208751604252	-0.00311130729307143	0.000400719348025515	-0.00312372475398336	-0.0147870187643997	0.000172872700208857
10.1	-0.0186631989954363	-0.00274647996663812	-3.40518310454607E-05	-0.00314333181309644	-4.42646582847781E-05	-0.00313793541907986	-0.0143125957072597	0.000585579301889721
10.2	-0.020131805859714	0.00116597322459204	-0.000480061193454265	-0.00310585458925026	-0.000483460191336753	-0.00310307574811983	-0.0142595215840229	0.00109262996756367
10.3	-0.020750035504322	0.00536002655121012	-0.000911827427314048	-0.00299945373189263	-0.000903758774874115	-0.00300852103998967	-0.0141668243599707	0.00178803945785132
10.4	-0.0205815228013372	0.00958687379116391	-0.00130786643098191	-0.00284469590988228	-0.00130617856636867	-0.00285088304849026	-0.0138523715338154	0.00259994154995866
10.5	-0.0196332551597283	0.0140933271695734	-0.00169943811239134	-0.00264634979384644	-0.00169632689328197	-0.00263336951664835	-0.012826855743558	0.00356281685771796
10.6	-0.0175499574426722	0.0183738063145884	-0.00205117839152507	-0.00237506939673268	-0.00204899979474833	-0.00237888806153124	-0.0117281959642905	0.00348866504955811
10.7	-0.0146053593164642	0.0222962698127679	-0.00236456216769213	-0.00207309028849243	-0.0023610695320679	-0.00206782290187015	-0.0110363341746667	0.00337329477451512
10.8	-0.010718390504565	0.0255930226225035	-0.00263223023445652	-0.00171392122200164	-0.00262704794695129	-0.00172283260329702	-0.0106509366035979	0.0032196573235828
10.9	-0.00638301703484228	0.0281112781980238	-0.00283983153479303	-0.00134072887616548	-0.00284500871708469	-0.00133999600424887	-0.0106183514249794	0.00331503840834415
11	-0.00141549639845736	0.0300973953470246	-0.00299781926335379	-0.000924001608993141	-0.00300265847722404	-0.000930722674476697	-0.00997276531976139	0.00387161625568442
11.1	0.00422471962558994	0.0309820416300211	-0.00310436304615655	-0.000500987275942431	-0.00309353053619796	-0.000498139875160907	-0.0092862493287034	0.00347557217533857
11.2	0.0101282210372019	0.0305920893454027	-0.00313352195288058	-6.53282644981701E-05	-0.00314065697770054	-7.0151194132162E-05	-0.00903144857556855	0.00326649367874418
11.3	0.0160442812403312	0.0287599182952733	-0.00310695351707617	0.000381786881552835	-0.0031184655534705	0.000371775624382205	-0.00866903089653067	0.00322719420050111
11.4	0.0212491101088609	0.0256375168835955	-0.00303323460294482	0.000808458129674863	-0.00302833365687072	0.000816003585432626	-0.00841391485896987	0.00329214689207973
11.5	0.0256616548951856	0.0217570000625119	-0.00288972161975582	0.00122128493627406	-0.00289249527399189	0.00123152767019115	-0.00765705942154194	0.00339887848564694
11.6	0.0294727692845504	0.0168554347808285	-0.00269773215865836	0.00160966547580761	-0.00269771587027715	0.00161259718077556	-0.00706847703293525	0.00244908274309758
11.7	0.032214720033196	0.0112083642639727	-0.00243826110713208	0.00196374082725688	-0.00243883213451914	0.00197232169219519	-0.00713079535513299	0.00171791291431426
11.8	0.0337845968761704	0.00506723003454723	-0.00214444245557139	0.00229522568106993	-0.0021485483200254	0.00229691492699657	-0.00731342540670226	0.00143420288160476
11.9	0.0341781120636654	-0.00131057395800334	-0.00179702686968797	0.00257030908297305	-0.00181001727650715	0.00257458544895773	-0.00721253620216268	0.00192104375347722
12	0.0331450558696092	-0.00721228786020066	-0.00142727553566765	0.00279359733087448	-0.00142668397617007	0.00279500683164927	-0.00617236879915642	0.00246512365500632
