# GHZ S RI R 50
0.2	0.00502549038567767	-0.000229583261963165	0.00305921202784577	-0.000894876376652385	0.0030695990253683	-0.00088802740043246	-0.0150359498673201	0.00335524398517721
0.3	0.00558300712951665	-0.00147368099725588	0.00291827383783927	-0.00131951962622832	0.00291096961506494	-0.00130654890456595	-0.0140139421739201	0.00426277613802976
0.4	0.00550211279397001	-0.002178481849461	0.00269009916478046	-0.00169451730066342	0.00269541476727221	-0.00170310639643962	-0.013333715648415	0.00576852837024255
0.5	0.00670037533566363	-0.00382477626554068	0.00243140847187349	-0.00205840105568067	0.00244303426512456	-0.00207069663851941	-0.0108446037138581	0.00614572923627893
0.6	0.0044156854190034	-0.00666770982674307	0.00211586448293953	-0.00237461151528849	0.00211508297428092	-0.00238180146216224	-0.0115912346168584	0.00482242802942225
0.7	0.00198263453304862	-0.00676611888112631	0.00176877281909855	-0.00265542458574352	0.00176680525216317	-0.0026556276190312	-0.0124437342892392	0.00593919200081549
0.8	9.42804629967788E-05	-0.00650870756011808	0.00138152803224879	-0.00287739008688928	0.00136884733147746	-0.00288198566038615	-0.0127342728569458	0.00726046897120292
0.9	-0.00212741831681739	-0.00531734255527774	0.000959421760639353	-0.00304525588556937	0.000960466912398538	-0.00305603440477354	-0.0132207689714763	0.00926118336464204
1	-0.00165127310758496	-0.00251988064746331	0.000528556685210245	-0.00314652187408634	0.000518631946272363	-0.0031472615277008	-0.0108470289779424	0.0127124135926423
1.1	-0.00140576582511408	-0.00432289590766602	7.35466604112566E-05	-0.00317680141801964	7.00257801812792E-05	-0.00319457483636421	-0.00859220603358356	0.0112964782014352
1.2	-0.0036917343029135	-0.00430470837883427	-0.000373754321594564	-0.00316920952432647	-0.000374572453250502	-0.00316711688109043	-0.0085355119402267	0.0115966902723088
1.3	-0.00553245337753426	-0.00392211441924686	-0.000807104385664724	-0.00308555828642947	-0.000810372436513292	-0.00308757692487689	-0.00737082657133383	0.0120909279823367
1.4	-0.00715268587864044	-0.00294758429175503	-0.00123305940124975	-0.00293351703990132	-0.00123184569112987	-0.00293909426486929	-0.00607992690468919	0.0122509835518487
1.5	-0.00629142395457326	-0.0023910702090658	-0.00163311516664586	-0.00273756788158652	-0.00163149312700442	-0.00274613322575383	-0.00332915077410982	0.0110862991906509
1.6	-0.00800813451732908	-0.00188476888850755	-0.00200269731274411	-0.00248662366288571	-0.00200291625877749	-0.00249190855651831	-0.00462381656916298	0.00982175809290151
1.7	-0.00778648587577425	0.000790132860423095	-0.0023374606043821	-0.00218322168524398	-0.00233841912339867	-0.00217689626155596	-0.00454298351224859	0.0111602556526143
1.8	-0.00667280681892429	0.00290484064914136	-0.00261080551484082	-0.00182500670097268	-0.00262189459082842	-0.00183065924984805	-0.00376594938112202	0.0120956511995191
1.9	-0.00499431817802752	0.00509678797155861	-0.00283652852677296	-0.00145010941006337	-0.0028490640047098	-0.00144385742286469	-0.00263584046068663	0.0135019409128986
2	-0.000890533711325976	0.00554698686905785	-0.00301930331650641	-0.00103897436805735	-0.00302901768988029	-0.00103417590851852	0.000950543344071632	0.013511145662017
2.1	-0.000398267336762419	0.00336390368858902	-0.00313325538542535	-0.000595718806757718	-0.00312914018852446	-0.000597760286906796	0.00091769401793739	0.010916186778315
2.2	-0.000224847834149414	0.00357790950519037	-0.00318501852301109	-0.000149472645095301	-0.00319645688688753	-0.000152251545292725	0.000543640189117935	0.0109477162546927
2.3	0.000443986637863234	0.00365365705562393	-0.00317589212564903	0.00029962736567413	-0.00317564178946155	0.000292675176356872	0.000628169371880648	0.0111243690331497
2.4	0.000992885199388255	0.00421001116884323	-0.0031004786703213	0.000744379317176383	-0.00310308325478431	0.000740100347191824	0.000685889504933456	0.0121567727920434
2.5	0.00410602206691615	0.00484451906260551	-0.00295408666071741	0.00116918649464064	-0.00296500917289805	0.00117576240625289	0.00374927281364518	0.0136036068723411
2.6	0.0057195794108607	0.00154110567031083	-0.00276446230901035	0.00157075870769471	-0.00276103378730321	0.00155830403453711	0.00566397949534289	0.0109465447506287
2.7	0.00566368761240713	-0.00037834738457627	-0.00251124183660924	0.00194000687490666	-0.00251655659246477	0.0019400824368882	0.00576889145234782	0.00962035599951348
2.8	0.00544543102352751	-0.00197610050924912	-0.00222031711602906	0.00226720967120819	-0.00221232698255651	0.00227696114503893	0.00562205716639805	0.00891231832594844
2.9	0.0053464837231939	-0.00281012381570728	-0.00187423823237345	0.00256652629020335	-0.00187051410597155	0.00256604260756493	0.00590134268544168	0.00943478456324728
3	0.00699040891624445	-0.00472208982423572	-0.00147423621088334	0.00278882238690596	-0.00148895369165286	0.00279516390014371	0.00863909575145001	0.00900769326587601
3.1	0.0053913120664273	-0.00822207174285209	-0.00108629284318855	0.0029565911770981	-0.00108151677720268	0.00296488664879616	0.00836967483659059	0.00659615167949892
3.2	0.00349392065754414	-0.00957139626573192	-0.000661425916531421	0.0030890229014439	-0.00066318219970435	0.00308843526839562	0.00800678153694164	0.00649422974765727
3.3	0.00159929405972689	-0.0107937349284743	-0.000218132641646059	0.00314976413519547	-0.000216537424796938	0.00314599622605862	0.00815449620403794	0.00633424276578151
3.4	-0.000558459360798478	-0.011006728357285	0.000229679296143182	0.00312988706154622	0.000223731400202259	0.0031465239022654	0.00852161066697672	0.00666922937900593
3.5	-0.000694351645247864	-0.0117428353597552	0.000640521513290772	0.00307860870819526	0.000646104497158476	0.00307861611934668	0.0111267472387127	0.00592338775992608
3.6	-0.00413984651231375	-0.0141576121907921	0.00107028204915051	0.00295936692454089	0.00107846564298173	0.00295894511846626	0.0104856886974524	0.00287735545354573
3.7	-0.0079689104767515	-0.0134348575718112	0.00148000848920244	0.00276840995316774	0.00147062764459839	0.00278219771975695	0.00930463056753019	0.00249268370536163
3.8	-0.01095037062037	-0.0117352813904509	0.00185158050599529	0.00253253758771199	0.0018541044976333	0.00254162655880643	0.00881357617499277	0.00270514677923905
3.9	-0.0129065485130478	-0.00895826564224407	0.0021874352239358	0.00225602147819111	0.00218017605863353	0.00225434033356351	0.00908702007201351	0.00373531828997626
4	-0.0119501659676443	-0.00724777971791414	0.00247220866639732	0.00193734716890947	0.00247662014361754	0.00193486172161849	0.0124548851876598	0.00344936818203165
4.1	-0.0140573002999842	-0.00789469801782636	0.00271972661352379	0.00156438911596757	0.00271848923093929	0.00156514169381485	0.0125184571978367	-3.12938448236791E-05
4.2	-0.0165533395132504	-0.0057963426274894	0.00290556803511048	0.00115947268038003	0.00290987973880108	0.00115073619030125	0.0115723418506067	-0.00109991442535384
4.3	-0.0181697778029749	-0.00300312040960234	0.00303803831503758	0.000748883725316953	0.00304431000535567	0.000741038413512754	0.0109875032800725	-0.00166863656796188
4.4	-0.019125058854218	0.000826112120771696	0.00310865470443509	0.000317385738082924	0.00311098383849225	0.000315109469022907	0.010596728378817	-0.0012817094048626
4.5	-0.016784358158279	0.00422723749809585	0.00312226275672089	-0.000128252882032919	0.00312752997487245	-0.000131695000241389	0.0132443775337783	-0.00147194355005776
4.6	-0.0168034502908374	0.00446850603641843	0.00305780861096979	-0.000561917804476241	0.00305923053703276	-0.00054916676403935	0.0129286476124554	-0.00516092222708711
4.7	-0.0170829976370017	0.00708477423028898	0.0029456912273733	-0.000968071395188672	0.00296065644848127	-0.000977789839007474	0.0114287419483812	-0.00646890178012845
4.8	-0.0164282834491106	0.00990931459308745	0.00278016703894298	-0.00137233013227068	0.00278845685746299	-0.00137845793532958	0.0101861764167669	-0.00719490813430644
4.9	-0.0148597596728856	0.0132450647590006	0.00255336327470172	-0.00174877249129774	0.00255751486300517	-0.00174596596503558	0.00913783236281145	-0.00679805480780662
5	-0.0103011547835155	0.0149958421295518	0.00228271958482732	-0.00208428543219044	0.00228631226730729	-0.00208171841782248	0.0110727716865318	-0.00715891018790413
5.1	-0.00903672757457833	0.0143981649343902	0.0019833735267241	-0.00237587864665057	0.00198564491891121	-0.00237456693959189	0.00945891701746385	-0.00983197887127509
5.2	-0.00718380825394709	0.0160436678260286	0.00163298364845158	-0.00261784725136983	0.00163462303607625	-0.00262291343458672	0.00793642460355773	-0.00952136694129904
5.3	-0.00419415677630913	0.0170934462164058	0.00125153959212212	-0.00282333815098674	0.00125463063829622	-0.0028213387791373	0.00754279786562045	-0.00889823308169682
5.4	-0.00071077999520857	0.0179241559412987	0.000834892648400032	-0.00295707237672505	0.000851625217848994	-0.00296816680169886	0.0079991002072898	-0.00795012127804741
5.5	0.00524686963380437	0.0160451915880651	0.000444693225016036	-0.00304606746002289	0.000454515620661413	-0.00305531389970832	0.0115126262670113	-0.00957673919991174
5.6	0.00541896054384313	0.0116307399094216	1.65565288098085E-05	-0.00309016809965467	8.18082935212735E-06	-0.00309331557837143	0.00884322134398817	-0.0138990989695727
5.7	0.00536434872135585	0.0107095391475283	-0.000406833992954352	-0.00305812436394515	-0.000423144123822624	-0.00306168962513808	0.00573990478324063	-0.0138240284134621
5.8	0.00594596051095866	0.00985003048296625	-0.000839911021655932	-0.00296258804178905	-0.000843384209350306	-0.002976303719434	0.00366136453157977	-0.0131119888361801
5.9	0.00637188481010948	0.0100048659614603	-0.00122861734723749	-0.00282814934080361	-0.00123668686427696	-0.00282808834724411	0.00184474510259093	-0.0108424282419368
6	0.0108548636657948	0.00993986915565633	-0.00162305948615634	-0.00263906216724824	-0.00161955353881087	-0.00263921414035325	0.00494470966631853	-0.00817643902503733
6.1	0.012073129893038	0.00411886454824001	-0.00197722102521409	-0.00238231057212898	-0.00197883671721027	-0.00237837461950991	0.00584813745435872	-0.0114551794841831
6.2	0.0106629098664632	0.000791032104419575	-0.00227866717971262	-0.00207479440137869	-0.00228228190699506	-0.00208645827602018	0.00467236902218749	-0.0126184294311898
6.3	0.00890184285573152	-0.00177526576852087	-0.00254893686342423	-0.0017521342753575	-0.00255792416796523	-0.00174653705810183	0.00346608061815749	-0.0134222955888465
6.4	0.00712112185936136	-0.00277846335671067	-0.00277608424893524	-0.00137548472019322	-0.00276649126253262	-0.00138025533149187	0.00257990662992699	-0.0128053609309167
6.5	0.00782705280408535	-0.00578459781550114	-0.00293551206497552	-0.000969533858695009	-0.00294325806511384	-0.000965144408083078	0.00481332807147049	-0.0146428160437236
6.6	0.00291146720826914	-0.00876877026223545	-0.00303124388715279	-0.000556690378287942	-0.00303282630562089	-0.00056059751490514	0.00130690759289835	-0.0174257228018625
6.7	-0.00038618541394636	-0.00816241147480769	-0.00308470423581225	-0.000136367810101946	-0.00309343905419261	-0.000130274019017103	-0.00108078267073193	-0.0167085490168993
6.8	-0.00312642673504294	-0.00743664569107429	-0.00307139069112626	0.000293750055638908	-0.00308233367819602	0.00029861288264794	-0.00290470431468661	-0.0158948050603396
6.9	-0.00544139698962603	-0.00492411985624867	-0.0030027238269538	0.000722712674018168	-0.00300567983846792	0.000725038961434566	-0.00412897383589014	-0.0133793112159316
7	-0.0030785389044383	-0.00412229391063166	-0.0028618070561502	0.00112999263263897	-0.0028743514308064	0.00112772554388027	-0.000181339785365796	-0.0130722804744056
7.1	-0.00705626574789166	-0.00660991706434799	-0.00270387022871535	0.00150097454583706	-0.00270039861970097	0.00150952749816225	-0.00296037562006714	-0.0172016438517263
7.2	-0.0108211908635044	-0.00405072563320587	-0.00246504448844422	0.00186765481868382	-0.00247149624956497	0.0018696005111987	-0.00633784980767393	-0.0163640382632839
7.3	-0.0132515059186801	-0.000817298434647404	-0.00218211107073522	0.00218675011558331	-0.00219322370804306	0.00219154900118469	-0.00866630821916943	-0.0148617627040321
7.4	-0.0151490397746795	0.00415903897821843	-0.00185182435229709	0.00246608162314139	-0.0018588188824228	0.00247934446703769	-0.0109694650152621	-0.0114214662147776
7.5	-0.011376135035253	0.0093792522595042	-0.00151457464876278	0.00270350434040527	-0.00150785535961866	0.00271094298155746	-0.00715174539360153	-0.00761016121356711
7.6	-0.0103934492290695	0.00882331103681971	-0.0011241502741812	0.00290401032861407	-0.00112540612115571	0.00289933034688261	-0.00623966909717554	-0.0105953467861303
7.7	-0.0102431601598643	0.0111263191702061	-0.00070162276123887	0.00303761471080379	-0.000702927736556609	0.0030365336193667	-0.00733002452356935	-0.0108995586278921
7.8	-0.00875417604229806	0.0133960995432207	-0.000283527447044499	0.00309765408635166	-0.000291414052228739	0.00310388182362021	-0.00788812341549455	-0.0106997902310083
7.9	-0.00594712470275191	0.0159361382835958	0.000146013275456713	0.0031202794784638	0.000153862707977482	0.00312196644866291	-0.00730118406970369	-0.00958952449279239
8	3.14466287933464E-06	0.0144647839259899	0.000590686842445718	0.00307935298056623	0.000590645494970581	0.00308425215778155	-0.00418627722043164	-0.011976230587941
8.1	-0.000493341602902825	0.0118607455216751	0.00101483063795201	0.00296879972480465	0.0010339483545608	0.00297029633253695	-0.00807839738136136	-0.0157695002522946
8.2	0.000306933740902263	0.0126500164337929	0.00142189986086661	0.00279717594125157	0.00143130019074498	0.00279018675736686	-0.0110684957819495	-0.0147576675798445
8.3	0.00192089859001092	0.0129440932715695	0.00180389601411526	0.00257234402226399	0.00180194085458009	0.00258587179037526	-0.0130295233302202	-0.0133817510700706
8.4	0.00389737814443947	0.0141449245564432	0.00215421371482344	0.00231031526146027	0.00215117421943573	0.00231002025615098	-0.0143562342367899	-0.0104452340581565
8.5	0.0103849977377883	0.0128453617250331	0.00246208208286635	0.00197482038290173	0.00246112276360188	0.00197800727605171	-0.0104451813254057	-0.00923060618111306
8.6	0.0103520683467071	0.007025842176611	0.00270668118846675	0.00161537186741629	0.00271633503143379	0.00160899018495023	-0.0125114692438178	-0.0130148977298224
8.7	0.00946719764782309	0.00543849820153022	0.0029042184518086	0.00122133034423579	0.00290979101821325	0.00122217069317476	-0.0157845291120157	-0.0121645400748539
8.8	0.00922388260415483	0.00412015843870788	0.00305742123752845	0.000811974435273353	0.00306340819430291	0.000803266710396767	-0.0182770907848922	-0.0103306109452704
8.9	0.00910231881003554	0.00384406476814411	0.00314979503002419	0.000368864677848079	0.00314895583483604	0.000366582488839013	-0.0199990262214923	-0.00632139968212023
9	0.0130248183660275	0.0023098769422935	0.00315518054472465	-7.81207253905813E-05	0.00315828154187043	-7.3944744367241E-05	-0.0157991229296859	-0.00284561625362526
9.1	0.0120853562959294	-0.00335921362485662	0.00312841940771021	-0.000512122425979157	0.00313105195570758	-0.000499061734694099	-0.0154291272425781	-0.00445213390399129
9.2	0.0103422489952679	-0.00618750963327867	0.00303549930054194	-0.00094196049131456	0.00304329994173025	-0.000944714502862788	-0.0152191204676736	-0.00336897412727248
9.3	0.00828092315983623	-0.00908998479598223	0.00287421830843715	-0.00136203438538524	0.00287357025200518	-0.00136709967562226	-0.0143524253796596	-0.00283591683228082
9.4	0.00553977308826204	-0.0103682303568003	0.0026516830637713	-0.00176140801716197	0.00265813354386282	-0.00175361198238898	-0.0134986760322295	-0.00146725462303907
9.5	0.0051827910357929	-0.0137724923794589	0.00239368516504825	-0.00209720444448104	0.00240122228323888	-0.00209840390258386	-0.00954197615208633	-0.0034243874616795
9.6	-0.00210686839665174	-0.0171464106326989	0.00208449502046112	-0.00243114083643459	0.00208481162579713	-0.00243013418780919	-0.0130116738621277	-0.00679806878817997
9.7	-0.00810230149385154	-0.0154749683560436	0.00170958472107824	-0.00270056652317756	0.00171535019170138	-0.00270791950933647	-0.0156936749586336	-0.00552862937367016
9.8	-0.0128889339474884	-0.0128171225137483	0.00131829829894493	-0.00292232907516056	0.00132397080449329	-0.00291357377182723	-0.0173811498533967	-0.00362901080820015
9.9	-0.0167696214157031	-0.00809212681463572	0.000911949601032848	-0.00307414683053653	0.000904445078121739	-0.00307302182454705	-0.0184307808308587	5.57806035892266E-07
10	-0.0156496802656209	-0.00459736051895315	0.000470501924631307	-0.00319463022676462	0.000462997520294918	-0.00320752821724548	-0.0140503073679849	0.00203095680558072
10.1	-0.0192827513695864	-0.0039703673561434	-1.86586861556926E-06	-0.00323150181042006	-1.2420888789904E-05	-0.00322606232744719	-0.0148565355449373	-0.000462891438274506
10.2	-0.0223349313095306	0.000792349623530761	-0.000463599086901806	-0.00319524456417419	-0.00046711736681579	-0.00319242219716784	-0.0163056464510147	0.000796627210893482
10.3	-0.0237125887499409	0.00640337415433644	-0.000911580474271551	-0.00309317319901094	-0.000903201700604038	-0.00310242888053821	-0.0169145829857455	0.00279463217899943
10.4	-0.0232110248006777	0.0135447727553673	-0.00133116651434209	-0.00294422122008813	-0.00132938433516533	-0.00295059528614352	-0.0162426685337073	0.00635765368039753
10.5	-0.0172909183376093	0.0182852893387803	-0.00175691954937214	-0.0027279695423177	-0.00175369206864234	-0.0027145818402108	-0.0103434659861573	0.00739048532374249
10.6	-0.0154826404505455	0.0195879915394627	-0.00211116045039553	-0.00243679667240301	-0.00210892834998476	-0.00244072339582852	-0.00960618184758919	0.00437192934706309
10.7	-0.0127663243488598	0.0229554804455403	-0.0024342498835738	-0.0021263350377188	-0.00243065017325444	-0.00212092764175354	-0.00928422190097626	0.00349433327004444
10.8	-0.00962573973999272	0.0256883888781319	-0.0027145551759004	-0.00175251161036198	-0.00270926002019484	-0.0017616992175545	-0.00979120320673672	0.0027017795359612
10.9	-0.00558135162893027	0.0294403276501018	-0.00293072888430636	-0.00135454762380611	-0.00293604516034107	-0.00135375081832261	-0.0101990108209921	0.00417611743345034
11	0.00316173522085534	0.0301353810194068	-0.00307149369577446	-0.000917784008027022	-0.00307649791920574	-0.000924609354300161	-0.00586961110497946	0.0036960645625368
11.1	0.0059214203733166	0.0275613511476768	-0.00318208984516763	-0.000494208751156579	-0.00317097944575644	-0.000491358555280977	-0.0080297649381502	-0.000211772017420146
11.2	0.00959922137322485	0.0278039092920603	-0.00321356857733939	-4.01927572236774E-05	-0.00322092583280688	-4.50770217132833E-05	-0.0101311145925931	0.000234446866105932
11.3	0.0141815574507642	0.0274193541672287	-0.00317874654359505	0.000426308016655252	-0.00319065392146633	0.000416181807879016	-0.0116095469749283	0.00169216381178091
11.4	0.0189731670380949	0.0269096260039743	-0.00308726735410203	0.000863833444902689	-0.00308216746610231	0.000871476865825366	-0.0118175744283445	0.00464696917405425
11.5	0.027378394842464	0.022726605025618	-0.00294338996864719	0.00127181960113408	-0.0029461409584076	0.001282310648194	-0.00666812298519782	0.00433625948144123
11.6	0.0289142727985858	0.0150449971906557	-0.00274697275579064	0.00168451971473533	-0.00274691960615191	0.00168752647309907	-0.00863400457840289	0.000844251135449626
11.7	0.0298968700427689	0.0107298069566718	-0.00246591742672143	0.00204937425869321	-0.00246636693071097	0.00205817038132064	-0.0103884306824162	0.00170492245513936
11.8	0.0309258140465749	0.0065549382328586	-0.0021526566806602	0.0023820104747874	-0.00215682413103774	0.00238380643839037	-0.0109721499001287	0.00359323745018908
11.9	0.032852681895047	0.00358996233370231	-0.0017949816091482	0.00265398209456125	-0.00180818354501185	0.00265855589952451	-0.00935784131431386	0.00749829509421792
12	0.0381659360269959	-0.00399765256343939	-0.00141110669229921	0.00289412749016175	-0.00141047261907892	0.00289556256869568	-0.00189422630266525	0.00673196960530692
