# GHZ S RI R 50
0.2	0.00544147135773842	0.000324286737493287	0.00305443581133565	-0.00089605502877842	0.00306481426083716	-0.000889223247920165	-0.0144965208531414	0.00400720923506966
0.3	0.00583246989691958	-0.00127277389465226	0.0029121467763569	-0.00132012648671327	0.00290486717864394	-0.0013071703444263	-0.0136456893671776	0.00455987764982166
0.4	0.00565958568231028	-0.00237725621605512	0.00268255435276159	-0.00169372233680613	0.00268784952698598	-0.00170229864027404	-0.0130933644520332	0.00564798048207552
0.5	0.00608699211169861	-0.0039555925641263	0.00242380080419549	-0.002054494655569	0.002435388731758	-0.00206676514474603	-0.0115355436591851	0.00611910820679461
0.6	0.00432807875829055	-0.00611513732161967	0.00210966261315694	-0.00236990470477765	0.00210887959266124	-0.00237707701205184	-0.0118285926508838	0.00572373133961237
0.7	0.00233943015540994	-0.00653423545293903	0.00176262469693199	-0.00264942973522382	0.00176066219443054	-0.00264963112804211	-0.0121289633957511	0.0066992291379081
0.8	0.000609643694533185	-0.00657806592693092	0.00137622826106096	-0.0028694461996718	0.00136358319541693	-0.0028740228390703	-0.012097801018632	0.00780525029473827
0.9	-0.00137486495091684	-0.00586391764701674	0.00095634352894484	-0.00303548717486609	0.000957385326114172	-0.00304623111777205	-0.0121335858689767	0.00927021201298532
1	-0.00169572205742114	-0.00401174380077821	0.000528134561604316	-0.00313768504109876	0.000518237390918337	-0.00313842591694518	-0.0105309523698167	0.0114530770544242
1.1	-0.00200567222687812	-0.00481155557337681	7.29433072808446E-05	-0.00316737510501109	6.94307306604277E-05	-0.00318509530835813	-0.00913500420924829	0.0109409012253972
1.2	-0.00377381385216436	-0.00473878805253541	-0.000372059051984352	-0.00315857089068265	-0.000372874710663128	-0.00315648541794358	-0.00877824619018005	0.0113813442533553
1.3	-0.00544271358154645	-0.00460925767705219	-0.000802678937531409	-0.00307522528183747	-0.000805934542476226	-0.00307723859200497	-0.00762867395131483	0.0118031523783443
1.4	-0.00709623076964772	-0.00395361478606762	-0.0012266232548749	-0.0029249332177195	-0.00122540894477096	-0.00293049120820391	-0.0063849838440811	0.0119049847449878
1.5	-0.00690764518879791	-0.00309573624007008	-0.00162702661426394	-0.00272911662225539	-0.001625407439217	-0.00273765362547148	-0.00433357520168892	0.011304147249302
1.6	-0.0079216977991093	-0.00212270423589755	-0.00199274685966287	-0.00247766001756059	-0.00199296137821983	-0.00248292317078287	-0.0046671406742768	0.0108711126304017
1.7	-0.00761791474345721	0.000137440012496981	-0.00232483475876025	-0.0021771867222746	-0.00232579759979339	-0.00217088895405339	-0.00413420629827343	0.0118065989548637
1.8	-0.00661794387236324	0.00209618460855	-0.00259723894959401	-0.00182198585040048	-0.0026082738934232	-0.00182763403565217	-0.00326338660986832	0.0124195400275746
1.9	-0.00510112629691378	0.00397584275460302	-0.00282287574385253	-0.00144903673609004	-0.00283537178821534	-0.00144283025995207	-0.00225685860220515	0.013227073302829
2	-0.00195198952398014	0.00467230847266386	-0.00300279094472677	-0.00103958370021967	-0.00301246735896249	-0.00103482650571154	5.62063704710754E-06	0.0132808659653129
2.1	-0.000888340935829717	0.00341541961191138	-0.00311681498256758	-0.000602755430147623	-0.00311271253880044	-0.000604774532012928	0.000304297758505864	0.0119729143118593
2.2	-0.000205185535037334	0.00342491024796274	-0.00317124226963938	-0.00015988464501364	-0.00318262339131363	-0.000162691604631268	0.000608568908276974	0.0120658109580598
2.3	0.000667774995043083	0.0032592446887132	-0.00316425168274226	0.000286869271914787	-0.0031639770512063	0.000279945861903922	0.00118678276828233	0.0120488631081551
2.4	0.00138410866590621	0.00339027619162233	-0.00309033200565171	0.000729013971996403	-0.00309290872948343	0.000724742786613015	0.0017150580760309	0.0124007375934667
2.5	0.00370189761510052	0.00358724038837258	-0.00294809526092934	0.00114873548325936	-0.0029590075414574	0.00115522649127154	0.00381761425879064	0.0128294466626435
2.6	0.00527966005306302	0.00115942554444561	-0.00276523268783373	0.00155124318657216	-0.00276174588421853	0.0015388423616426	0.00513656735183383	0.0110164832436116
2.7	0.00568183006061562	-0.000733426464053753	-0.0025150636379436	0.00192168907719379	-0.00252036510429528	0.00192173625313158	0.00541111176675639	0.00995621850455777
2.8	0.00576400699497007	-0.00254782144099827	-0.00222740994454504	0.00224929437383325	-0.00221949363522683	0.00225906608623135	0.00546296134449081	0.00930614584971755
2.9	0.00571654100112115	-0.00390879922498769	-0.00188604112994375	0.00254920575027371	-0.00188232223278552	0.00254874627690261	0.00580271984453975	0.00942041931755669
3	0.00660198536583273	-0.00586231770441527	-0.00149146454058309	0.00277719223196402	-0.00150621316113002	0.00278343284129302	0.00748606183764198	0.00907474783308274
3.1	0.00542025808144831	-0.00889517118526159	-0.0011021696010137	0.00294871935298345	-0.00109744283411461	0.00295703649867169	0.00754415840461848	0.00776724299838337
3.2	0.00367566175722368	-0.0105602853756274	-0.000679036004583079	0.00308298067943327	-0.000680787614403046	0.00308238318281858	0.0076218544719944	0.00770888267429128
3.3	0.00175310703520953	-0.0119711025414652	-0.000237698428841935	0.00314747594655877	-0.000236080199818573	0.00314371909020287	0.00808585495550814	0.00753720492364528
3.4	-0.000484975663929129	-0.0125331253732511	0.000209846141310952	0.00313334580002796	0.000203788258818135	0.0031499552644575	0.00869853140787318	0.00745134334583433
3.5	-0.00145980579505529	-0.0131884926973259	0.000625406399944001	0.00308540234173382	0.000630995688207376	0.00308543849185409	0.0103608612526473	0.00661404538868751
3.6	-0.00446574194083597	-0.0148812069028796	0.00105458373967086	0.00296612745098222	0.00106277226897414	0.00296574987699349	0.0101503424096244	0.00466853916294586
3.7	-0.00794307419720124	-0.0144588592557332	0.00146480195582629	0.0027793525402593	0.00145533213811959	0.00279309571192583	0.00979433200816885	0.0041602882678399
3.8	-0.0109306960875515	-0.0130591193524594	0.00183929476833389	0.00254703221081623	0.00184176882255122	0.00255614893555079	0.00979120791838424	0.00383961274612279
3.9	-0.0130928131715984	-0.0106478467674348	0.00217942302017352	0.00227175628335409	0.00217215958020073	0.0022700334880097	0.0100877946849153	0.00387101256211297
4	-0.0130657402485286	-0.00868583691188961	0.00246422371848342	0.00195198691369958	0.0024686520670559	0.00194952239639362	0.0119339097999047	0.00321668324306954
4.1	-0.0146407695992829	-0.00843456480333404	0.00271387925916311	0.00158426385398711	0.00271263513575541	0.00158500964880541	0.0119402266015485	0.000992909214003026
4.2	-0.0165950304415233	-0.0065063145198817	0.00290539878091264	0.00118049321460293	0.00290977570341868	0.00117176240106611	0.0115403467393101	0.000101361573161988
4.3	-0.0179812736446808	-0.00401764721939475	0.00304216524360639	0.000768929094773478	0.00304850090441369	0.000761098738299725	0.0113409431380524	-0.000699400999589134
4.4	-0.0188698575621059	-0.000716982434727532	0.00311497496173565	0.000336119211547197	0.00311732330877968	0.000333850388874952	0.0110873324299255	-0.00105846112786055
4.5	-0.0174423886344942	0.00247161779191471	0.00313224008218626	-0.00010651072236057	0.00313754697969796	-0.000109925531359725	0.0123109147819401	-0.00174399561638861
4.6	-0.0172413606503815	0.00347166105781601	0.00307610315775402	-0.000544191091209094	0.00307744678109059	-0.000531369908766764	0.0116794037522258	-0.00414301411591587
4.7	-0.0172452769396335	0.00594569930779584	0.00296663369560569	-0.000955702301697069	0.00298173362654316	-0.000965382728331625	0.0104855967157459	-0.00502979083060051
4.8	-0.0165493440549014	0.00865441642888412	0.00280278761339853	-0.00136415467468455	0.00281115626950566	-0.00137026904332333	0.0095421041131381	-0.00550940504543796
4.9	-0.0149904031546911	0.0116976994329593	0.00257824712533016	-0.00174393641402207	0.00258240621904364	-0.00174108953323705	0.00885098836780649	-0.00534700600231814
5	-0.0112097341313139	0.0136498710373436	0.00231171741756006	-0.00208766408105194	0.0023153234711922	-0.00208505756611102	0.00990921012320294	-0.00564466527619063
5.1	-0.00917608636868851	0.0136426918336761	0.00200714065859369	-0.00238690187810605	0.00200942470069154	-0.00238557192331126	0.00914744315413599	-0.0071676411763293
5.2	-0.00702022842009891	0.0148111657506151	0.00165353595938836	-0.00263181189722791	0.00165520391891511	-0.00263691005776305	0.0085885732593431	-0.00724620572940014
5.3	-0.0041106086268112	0.0155773687206246	0.00126972616436413	-0.00284107891239188	0.00127283471098163	-0.00283905482393021	0.00855873608762753	-0.00732624760101368
5.4	-0.000801755911729059	0.0160716959906077	0.000849530155332323	-0.00298007567417934	0.00086643323218613	-0.00299122171804817	0.00884282535718429	-0.00739929963596632
5.5	0.00419350909510854	0.0146719596901121	0.00044967152831905	-0.00307203066323998	0.000459581723689734	-0.00308135267982305	0.0104513266170445	-0.00889195564540536
5.6	0.00547985074896707	0.0110426905629819	1.77588433552569E-05	-0.00311242668644006	9.3239008862518E-06	-0.00311559977807336	0.00854507499983395	-0.011460424712644
5.7	0.00600720143587798	0.00948382917706389	-0.000408474580126184	-0.0030808078531339	-0.000424903153189686	-0.00308440656666283	0.0066349125429237	-0.0115421456387765
5.8	0.00668133015828573	0.0080922446052063	-0.000846460427625799	-0.00298530581992283	-0.000849960748488141	-0.00299912668660548	0.00538861698828818	-0.0114866535826132
5.9	0.00708575667154872	0.0074639811917741	-0.00124133199212993	-0.00284846315015037	-0.00124946345598555	-0.00284839235100476	0.00416372647597704	-0.010838132181278
6	0.0100665788861595	0.00683755912588668	-0.00163677082371255	-0.00265254275800025	-0.00163324398069906	-0.00265270087154569	0.00518836607561452	-0.010158668645661
6.1	0.0110751968944357	0.00220612165342957	-0.00199118960668815	-0.0023970162907246	-0.00199281413450894	-0.00239305390256377	0.00449795917910579	-0.0123427274888381
6.2	0.0098495614613937	-0.000980069819262711	-0.00229719590317424	-0.00208724234321101	-0.00230084890861347	-0.00209898595549301	0.00275411076551467	-0.0128272415575532
6.3	0.00814670884930379	-0.00342384354780426	-0.0025703274227361	-0.00175976127774926	-0.00257936794746774	-0.00175410739867804	0.00135248581062213	-0.0128564936204419
6.4	0.0063577383864127	-0.00460035518095049	-0.00279686239471104	-0.00137754343757444	-0.00278722029501359	-0.00138236697585596	0.000511985267784071	-0.0120658710326604
6.5	0.00640378329758689	-0.00688994272364904	-0.00295507936079797	-0.000972128302001756	-0.00296286873878858	-0.000967702111739018	0.00157743840225207	-0.0127704557366229
6.6	0.00280387774890643	-0.00951904448520042	-0.00305569756048255	-0.000554290203342165	-0.00305730069816807	-0.000558223801643763	-0.00029789009463751	-0.013942618387345
6.7	-0.000212682320464522	-0.0095510341427791	-0.00310766707222764	-0.000127022996150735	-0.00311644519320992	-0.000120855466720687	-0.00147684189923155	-0.0134811076797054
6.8	-0.00288559228161274	-0.00910766004947811	-0.00309082879540198	0.000307381770232884	-0.00310182654310996	0.000312318703681168	-0.00253271261258468	-0.0130867148450986
6.9	-0.0052268173126366	-0.00720479171156417	-0.00301940458511846	0.000737809579345105	-0.00302237138449998	0.000740161055333689	-0.00337593355653474	-0.0117857061991896
7	-0.00422178122004871	-0.00609954391673879	-0.00288024649528044	0.00115032053634564	-0.00289290017428806	0.00114808478571925	-0.00164672788654754	-0.0117268610324617
7.1	-0.0069669559646113	-0.00749781078892447	-0.00271408099097175	0.00152811836998559	-0.00271053264161956	0.00153671136997611	-0.00363382013323715	-0.0135371166097957
7.2	-0.0100527276291473	-0.00567494708946174	-0.00246836302589763	0.00189475457821003	-0.00247484211779305	0.00189675311128015	-0.00542790774234331	-0.012608530311882
7.3	-0.0123890739264222	-0.00305529845063769	-0.0021808066016055	0.00221351173867509	-0.00219195326870178	0.00221840994027276	-0.00635339954535492	-0.011626299368289
7.4	-0.0143621532601147	0.00103372080995844	-0.00184636449940301	0.00249432372496059	-0.00185331110649075	0.0025077179571954	-0.00722453656624369	-0.0101253859339128
7.5	-0.0122357699876461	0.00568828742920188	-0.00149791731091315	0.00273215972667064	-0.00149109296430718	0.00273957695622185	-0.00512056575498689	-0.0089635530207427
7.6	-0.0113660205661987	0.00618604945997964	-0.00110168457783443	0.00292357661960398	-0.0011029866148452	0.00291889270144826	-0.00529246108070982	-0.0114767177807934
7.7	-0.011262343791399	0.00851816888330548	-0.000677219950228081	0.00305242381335803	-0.000678538067343828	0.00305135097040005	-0.0069472821246229	-0.0121606050301371
7.8	-0.00990030767939301	0.0110662516303928	-0.00025647092124212	0.00310811503383598	-0.000264321832539327	0.00311442942117151	-0.00835910238825148	-0.0119981140734528
7.9	-0.00706014666217486	0.0136775258983075	0.000177249075680737	0.00312454317610144	0.000185129622609209	0.00312615533009203	-0.00894184187645082	-0.0109828537184679
8	-0.00162071052700718	0.0132322350096717	0.000620000429838053	0.00307136638950666	0.000620006445924185	0.00307626233919463	-0.00801269774790289	-0.0117404207601284
8.1	-0.000474821335921378	0.0111321129835819	0.0010385040658245	0.00295865595121544	0.00105762220481432	0.00295999514365406	-0.0107148026425092	-0.0127372569083766
8.2	0.000888891054509696	0.0110803185680196	0.00144457821643832	0.00278374658703673	0.00145391488474916	0.00277668238313298	-0.0123297448212672	-0.0113906856314148
8.3	0.00261457514758632	0.0108316438564771	0.0018242932970667	0.00255357645587551	0.00182245871448243	0.0025671055865344	-0.0133150666295121	-0.0101380480406341
8.4	0.00452695651204328	0.0112537713579825	0.002168696265646	0.00228567174974095	0.00216566205097817	0.00228540386861236	-0.0140316576052458	-0.0082702813025304
8.5	0.00957406044979101	0.0100854792671713	0.00246784490907855	0.00195269738928898	0.00246690949687584	0.00195588118657162	-0.0122192942181266	-0.00741570474451502
8.6	0.0105746333695639	0.00531167710506126	0.0027135280441261	0.00159303617558113	0.0027231189005361	0.00158659627621684	-0.0137011317647425	-0.00877176645934914
8.7	0.0102679696808327	0.00290594325714559	0.00290639936574833	0.00119555444280447	0.00291196437769649	0.00119634914170759	-0.0152921061009862	-0.0076334371327709
8.8	0.00990744005591586	0.000892916912559038	0.0030529806662566	0.000785745289836429	0.00305888011592056	0.000777022090309775	-0.016290224255285	-0.00633762626634854
8.9	0.00939748590031238	-0.000186254081916123	0.00313942251503756	0.000346464512816877	0.0031385715928726	0.00034419718134584	-0.0168099596224882	-0.0042280115653011
9	0.0115727324413524	-0.00177806933846534	0.00314675534853585	-9.91100054515088E-05	0.00314987661803154	-9.49653020716842E-05	-0.0145837906595546	-0.0027711004832656
9.1	0.0107940890596398	-0.00640706800282837	0.00311149718505731	-0.000535834319561588	0.00311422671944883	-0.000522848353098067	-0.0148202595481232	-0.00363919685374977
9.2	0.00890124196568916	-0.00908446302321593	0.00301193341685508	-0.000959820590193574	0.00301967097636135	-0.000962618693522236	-0.0150846415922699	-0.00280810878603678
9.3	0.00681984484069701	-0.0114524756664795	0.00284829345514061	-0.00137322708541953	0.00284761540671598	-0.00137825837592864	-0.0148568579289329	-0.00205346825616562
9.4	0.00433519677772211	-0.0126679165496273	0.00262659082803148	-0.00176864895011323	0.0026330558464537	-0.0017609346430456	-0.0144513864004732	-0.000906962468301582
9.5	0.00348620354069799	-0.0150703639494917	0.00236200522771071	-0.00210368066680544	0.00236948632038945	-0.0021049337306967	-0.0125627858771221	-0.00146588253893933
9.6	-0.00194120671259158	-0.0179825540713843	0.00205074625277337	-0.00242507192544052	0.00205106704245784	-0.00242407577619563	-0.014509716093918	-0.00246083614072673
9.7	-0.00730852943640197	-0.0172659425594138	0.00167992896045879	-0.00268726842615143	0.00168560426740874	-0.00269459144149273	-0.0155963386533087	-0.00109129133135796
9.8	-0.0120484975350649	-0.0152653942293516	0.00129190564130387	-0.00290434222157722	0.00129757543520133	-0.0028956908142023	-0.0160451768477455	0.000316311826880318
9.9	-0.0160766147899325	-0.0112942021777836	0.000886511789987778	-0.00305158818477204	0.000879081119234032	-0.00305043124437692	-0.0162097684000439	0.00240095804220075
10	-0.016265063933553	-0.00753055595923497	0.000450588035879747	-0.00316002935229519	0.000443111373110088	-0.00317274495205965	-0.0138007006573935	0.00344651758548067
10.1	-0.0189281463444544	-0.00608327497200248	-9.26210996497319E-06	-0.00319611426625417	-1.96890727216897E-05	-0.00319071011902959	-0.0143041559453757	0.00238475216922446
10.2	-0.0214968118942933	-0.00197266936723688	-0.000464872829644498	-0.00316053085560629	-0.00046834841592111	-0.00315773155469239	-0.0148017979995172	0.00334294292969395
10.3	-0.0228855148666153	0.0030343477601785	-0.000906753810119471	-0.00305760567049163	-0.000898482798500079	-0.00306677360609198	-0.014770356156717	0.00442359321108668
10.4	-0.0227423769080966	0.00937543478066257	-0.00131724339697367	-0.00290689587267261	-0.00131548844658669	-0.00291319301514893	-0.0141579848115892	0.00599634045635265
10.5	-0.0183346380361215	0.014414935830669	-0.00172910936117706	-0.00269872078477506	-0.00172595244232568	-0.00268548916498038	-0.0112949512538005	0.00611452597258977
10.6	-0.0160062007682109	0.0164889185757933	-0.00208319707559009	-0.00241689467811617	-0.00208097819671732	-0.0024207751712697	-0.0115112765189016	0.00471217166885396
10.7	-0.0131987872061567	0.0197576918000195	-0.00240345670847529	-0.00211066968297509	-0.00239990845747613	-0.00210530890580326	-0.0116386106003449	0.00489634417775573
10.8	-0.00993933681521181	0.0225401258379444	-0.00267990686133591	-0.00174331246131495	-0.00267463612527817	-0.00175238497781291	-0.0120695240597509	0.00514086461101661
10.9	-0.0058789779392265	0.0259605783543615	-0.00289389982171502	-0.00135565198782538	-0.00289916587348646	-0.00135489041174714	-0.0120679501605992	0.0066100296965162
11	0.00185821701557182	0.0272381324611183	-0.00304349282605393	-0.000927037183128078	-0.00304842335950908	-0.000933837401599847	-0.00954704734433414	0.00685675832225434
11.1	0.00601454095060543	0.0252043704768675	-0.0031535250223509	-0.000502748211392934	-0.00314251883471188	-0.000499877601307343	-0.0103550260417722	0.00560131234706364
11.2	0.0100191490407496	0.0245686087857352	-0.00318497382810031	-5.55705588601665E-05	-0.00319224215700514	-6.04476822290521E-05	-0.0105463975493679	0.00647447957449758
11.3	0.014225697473652	0.0234493210351098	-0.0031544188143128	0.000403887962148146	-0.00316616565885555	0.000393776798194296	-0.010070344715425	0.00740721568710538
11.4	0.0184795475095471	0.0223567995819928	-0.00307104756641317	0.000837909408497136	-0.00306603273944414	0.00084553169475288	-0.00908548675774221	0.00856817492921497
11.5	0.0254747733519184	0.0189271481962334	-0.00292764823673999	0.00124937982956719	-0.00293042616028111	0.00125978215798887	-0.0058537378234151	0.00774613271253336
11.6	0.0280048935690195	0.012195341250053	-0.00273324111817232	0.0016529727944646	-0.00273320682934188	0.00165595356698824	-0.00641972208430085	0.00543418909612342
11.7	0.0292184578180225	0.00748850281672192	-0.00246118546333364	0.00201463632418314	-0.0024616963383293	0.00202335823107518	-0.00673032391133396	0.00515537432126409
11.8	0.0301572783150825	0.00314069859088548	-0.00215579173616757	0.00234806386918662	-0.00215994325594143	0.00234981435661432	-0.00666022295281269	0.00509172712104673
11.9	0.0318756588237312	-0.00018970509998036	-0.00180198551430604	0.00262276640494492	-0.00181513032192584	0.0026272129351239	-0.00567689107991916	0.00591845121330432
12	0.0356055476118057	-0.00661779771839299	-0.00142341982430923	0.00285672589468584	-0.00142280354745967	0.00285815380207172	-0.00291482479848317	0.00455403029296131
