# GHZ S RI R 50
0.2	0.00594506709994438	0.00131829693452737	0.00304794920306189	-0.000897987278150366	0.00305831703042528	-0.000891179687310962	-0.0140611245675671	0.0049158707304177
0.3	0.00621309991001914	-0.000672087375520463	0.00290366215252707	-0.00132137459484286	0.00289641777656171	-0.00130843711408501	-0.0133056573024164	0.00507449928640585
0.4	0.0059442655083527	-0.00233870028912951	0.0026719386174045	-0.0016930743896462	0.00267720439218942	-0.00170163403724636	-0.0127800463407821	0.00560555074241379
0.5	0.00513223339732285	-0.00373610738795782	0.00241300861655257	-0.00204954214066506	0.00242454248199771	-0.00206178014181248	-0.0122675141746308	0.00618082693774979
0.6	0.00411660898986032	-0.00463756840178358	0.00210059828992027	-0.0023638906037843	0.0020998116001951	-0.00237103844871909	-0.0117533718855121	0.00674986475898151
0.7	0.00292291299878049	-0.00528250330320022	0.00175344735888615	-0.00264153405810246	0.00175149183872989	-0.00264173269805922	-0.0113788351975919	0.00727819701845289
0.8	0.00167056360607137	-0.00562668822515539	0.00136807379861684	-0.00285872251244082	0.00135547725968341	-0.00286326938704669	-0.0110620031475715	0.00795757462583728
0.9	0.000352174967315419	-0.00565142824748524	0.000951170541480262	-0.00302204930137664	0.000952204609811353	-0.00303274502200231	-0.0107010745808686	0.008721564830041
1	-0.00102835009470435	-0.00554360853287787	0.000526622353505092	-0.00312542214544084	0.000516763705294401	-0.00312616183985368	-0.010220529774314	0.0095361009761975
1.1	-0.00255321638850364	-0.00498384700997062	7.1043698573345E-05	-0.00315417666465755	6.75368772811188E-05	-0.00317182105371992	-0.00966928342986447	0.0104909511420916
1.2	-0.00385969060313218	-0.00440377154669136	-0.000370859254038217	-0.00314339619503178	-0.000371670628871086	-0.00314132054665803	-0.00862482827645788	0.0113356436208335
1.3	-0.00529649150057706	-0.00392515111986005	-0.000797665028214009	-0.00306015928408808	-0.000800903740698742	-0.00306216362960326	-0.00705777328701708	0.0118728065636584
1.4	-0.00654234060294008	-0.00323302273611516	-0.00121866762082632	-0.00291203685465844	-0.00121745492539345	-0.00291756771374635	-0.00543296306115165	0.0116930762760711
1.5	-0.00715190132748828	-0.0019899016412424	-0.00161946823084484	-0.00271627986856498	-0.00161785686526383	-0.00272477688845131	-0.00414704844505095	0.0112152292343038
1.6	-0.00691115176806489	-0.00030145878545512	-0.00197967901213296	-0.00246380649674596	-0.0019798897659791	-0.0024690383253937	-0.00356082373704901	0.01102891174633
1.7	-0.00614397976474765	0.00111719255014528	-0.00230778061904677	-0.00216725013817612	-0.0023087463529046	-0.00216099174380684	-0.00301004768238412	0.0111484097080267
1.8	-0.00516013140507377	0.00241683755244511	-0.00257868973302589	-0.00181613810501019	-0.00258964973576055	-0.00182177367793552	-0.00239121191182219	0.0113239722775811
1.9	-0.00396506160516333	0.00332632698006727	-0.00280407707884055	-0.00144572995710066	-0.00281651235180252	-0.00143958136932889	-0.00174367887203833	0.0115021967018921
2	-0.00284805001506808	0.00396967120404795	-0.00297966202593601	-0.00103819657042926	-0.00298927986860935	-0.00103349182585413	-0.00109638426630078	0.0117263790781917
2.1	-0.00149101001480751	0.0045352410416661	-0.0030931274862145	-0.000610294671771517	-0.0030890456781787	-0.000612284514709428	-0.000238721221001574	0.0118399716154357
2.2	3.15435232440651E-05	0.0046733376683323	-0.0031507563575324	-0.000172250182667647	-0.00316205454722157	-0.000175087568979619	0.000714577978947993	0.011762014287686
2.3	0.00151870458042849	0.00430544330559105	-0.00314624404593745	0.000271059934747331	-0.00314594032198044	0.000264179935212689	0.0015725316050691	0.0114836382799467
2.4	0.00285751938529242	0.003538866410024	-0.00307380699332429	0.000709302582994536	-0.0030763462887984	0.000705046631149945	0.00236733432517285	0.0112329417495608
2.5	0.00376128378952811	0.00231556814265686	-0.00293680168916624	0.00112120326564024	-0.00294768741893786	0.00112757784379249	0.00321138226224662	0.0109067441684725
2.6	0.00435324474257191	0.0012002587814737	-0.00276324998931047	0.00152427265200265	-0.00275969139380513	0.00151195500068867	0.00416469932049452	0.0104543164347135
2.7	0.00492294191555308	-4.6035177785214E-05	-0.00251729785439895	0.0018957132722208	-0.00252257620717711	0.00189572339629069	0.00492549741711055	0.0097693923943134
2.8	0.00540213363538432	-0.00147596987347482	-0.00223428091943584	0.00222310587164921	-0.0022264710089738	0.00223289335784711	0.00546804957760594	0.00919442518998576
2.9	0.00571901204315625	-0.00318422405621429	-0.00189990432610191	0.00252300901419715	-0.00189619658444366	0.00252258274018767	0.00615175244971547	0.00881483446911208
3	0.00547171448854917	-0.00506511582103527	-0.00151380464156315	0.002758377866229	-0.00152858174945845	0.00276447285690086	0.00701292905084882	0.00844204291277913
3.1	0.00498672234406789	-0.00673515243032813	-0.00112323926398889	0.0029353772813858	-0.00111858467179678	0.00294371754630724	0.00788613646219024	0.0078587033724168
3.2	0.0040777376483375	-0.00848282143502395	-0.000702816942027833	0.00307209195172068	-0.000704560650886569	0.00307148131392578	0.00843389989862405	0.00725667282054783
3.3	0.00272947185399454	-0.0101914136377816	-0.000264688824823776	0.00314165554960868	-0.000263039974295692	0.00313791720470479	0.009040792090907	0.00663238006730963
3.4	0.000869961450013408	-0.0116308275279525	0.000181802909241896	0.00313561773569975	0.000175595475973641	0.00315217501003173	0.00965635441940998	0.00583222575339232
3.5	-0.00153664569607804	-0.0127290499332529	0.000603663979281481	0.00309284561256754	0.00060925828881215	0.00309292225468647	0.0100494404005776	0.00479360399737121
3.6	-0.00409268908465688	-0.0129804166511048	0.0010318698725065	0.00297333610459266	0.00104005913323416	0.00297302057871876	0.0102917951882927	0.00386191549239967
3.7	-0.00651984599333073	-0.0128412591788843	0.0014421700451453	0.00279253691434145	0.00143258240452594	0.00280620607158294	0.0104596532180461	0.0029466959800666
3.8	-0.00894100817552384	-0.0122832711417937	0.0018203039327452	0.00256561267298711	0.00182270485142647	0.00257476153689815	0.010511747474704	0.00211258155918975
3.9	-0.0111995086378064	-0.0113711722476588	0.00216634088713976	0.00229255384646328	0.0021590767615428	0.0022907727942107	0.0105248024916419	0.00138412342186594
4	-0.0135564332604267	-0.0100501380645554	0.00245098092380659	0.00197101839915286	0.00245542943762888	0.00196858535335501	0.0106535613815118	0.000793407899711559
4.1	-0.0154985487475544	-0.00794125310757281	0.00270278896103193	0.00161139137298165	0.0027015363279669	0.00161212665166969	0.0110235100403044	0.00013421526427478
4.2	-0.0168873228666523	-0.00559989135550223	0.00290228445992239	0.00121018809609061	0.00290675280991689	0.00120147422796641	0.0112991635631791	-0.000716415722651752
4.3	-0.017848557386196	-0.00317149521590567	0.00304540389122372	0.000797913912758712	0.00305182837786051	0.000790113133033554	0.0114464628755402	-0.00168250733484613
4.4	-0.0184956360078746	-0.000662859916917305	0.00312157814661671	0.000363616007231286	0.00312395290954958	0.000361360254192563	0.0113968007306981	-0.00259872114911404
4.5	-0.0190323680415632	0.00195101219534701	0.00314414385978595	-7.39971809402138E-05	0.00314950487783381	-7.73680401822928E-05	0.0113564037793297	-0.00344920791127264
4.6	-0.0191051371104888	0.00507225508044962	0.00310061517591037	-0.000516861656550224	0.00310183915549334	-0.000503947536943834	0.0112759170942164	-0.00445165586060732
4.7	-0.0183154660236666	0.00817528034264227	0.00299542609862468	-0.00093595776217614	0.00301071526163501	-0.000945570681999189	0.0109068763777516	-0.00549783340773374
4.8	-0.0169201220494523	0.011060208519418	0.00283428004597204	-0.00135017139956031	0.00284275999166399	-0.00135625855200609	0.0103870867180408	-0.00632587463547827
4.9	-0.0147497323321161	0.0135113422933357	0.00261348292711761	-0.00173423327483015	0.00261764834804269	-0.00173132755458392	0.00993674628501309	-0.00690547173943291
5	-0.012328008537579	0.0153544399485186	0.00235410953689081	-0.00208953986934281	0.00235773085836609	-0.00208687469428403	0.00985088755219948	-0.00737449401541925
5.1	-0.00918391732637965	0.0169239136796007	0.00204286452447613	-0.00240043024426299	0.00204516504157538	-0.00239907242099806	0.00994252557286097	-0.00813790566842785
5.2	-0.00577302422403885	0.0174653592598812	0.00168508596316385	-0.0026500175825908	0.00168679913509505	-0.00265515942091481	0.00979216764161674	-0.00899453431904268
5.3	-0.00250580576020031	0.0172124595567784	0.00129848842789489	-0.00286520380975273	0.00130162002182504	-0.00286314136403351	0.00954745116438462	-0.00967139584492784
5.4	0.000413206181288994	0.0163292927164822	0.000873902488101833	-0.00301269293593342	0.000891065255628319	-0.00302389676392809	0.00938288535166611	-0.0104307045746005
5.5	0.00262700034944429	0.0151732148240371	0.000460018663345277	-0.0031106947512187	0.000470069680155648	-0.00312012132678977	0.0090940382633868	-0.0113590265554704
5.6	0.00491102669210462	0.0141552804249178	2.16315472862333E-05	-0.00314616633387271	1.3108862547758E-05	-0.00314938381751685	0.00851122795125756	-0.0123306621414589
5.7	0.00711235453151105	0.0124895523931427	-0.000408996852593833	-0.0031155888118202	-0.000425603361461233	-0.00311924896029197	0.00752517186067088	-0.0130797964064476
5.8	0.00891287822444186	0.0102879959188008	-0.000854641881670859	-0.00302075387873913	-0.000858175179271895	-0.00303473861445591	0.00646009200142179	-0.0136915561281639
5.9	0.010158156436805	0.00758755527688908	-0.00125947178987559	-0.00288087790175076	-0.00126769990007579	-0.0028807966310405	0.0052559544819302	-0.0140941859740167
6	0.0101819325592642	0.00437425905168496	-0.00165738899603381	-0.00267427768898705	-0.00165382928263055	-0.0026744442294739	0.00397024971332362	-0.0142111471216613
6.1	0.00924729141089148	0.00191189426917208	-0.00201195748362686	-0.00242034934914669	-0.00201359693090408	-0.00241634670977022	0.00297325531701814	-0.0141197640410597
6.2	0.0080197043483024	-0.000168582068708474	-0.00232494047728402	-0.00210749489675346	-0.00232864755849465	-0.00211936341614606	0.0020688536728362	-0.0140888087762762
6.3	0.00671741405119202	-0.00185220807393395	-0.00260286405609421	-0.00177300574795668	-0.00261199068705826	-0.00176726793178122	0.001337139151731	-0.0140760814190225
6.4	0.00535550893900972	-0.00349771913163104	-0.00282905166866383	-0.00138212036653365	-0.00281932966033739	-0.00138702299810292	0.000869978887213429	-0.0141013168020754
6.5	0.00349020287522576	-0.00489162111284293	-0.00298525486121158	-0.00097748108181448	-0.00299311401856235	-0.000973000848172267	0.000657559429849042	-0.0143935478332443
6.6	0.00184067420738044	-0.00556993680090067	-0.00309396473153635	-0.000552487044255035	-0.00309559803831479	-0.000556463485377984	0.000331597825601919	-0.0150781822668256
6.7	8.0900146171E-05	-0.00618165211978941	-0.00314451534577627	-0.000114325966569454	-0.00315336777281349	-0.000108046405400072	-0.000660919998239549	-0.0156084754884672
6.8	-0.00191937960124432	-0.00632115988901635	-0.00312275558289082	0.000327245835506578	-0.00313384638374277	0.000332295191024819	-0.00183594507470438	-0.0156146110731879
6.9	-0.00397994277674926	-0.00606127756880625	-0.00304721233598174	0.000760350839225044	-0.00305019845406882	0.000762741399356083	-0.00280175756790519	-0.0152738713811555
7	-0.00641535882383943	-0.00518801249453474	-0.00291107022821936	0.00118099543474254	-0.00292389940737566	0.00117880042857325	-0.0034730458412032	-0.0149203691004198
7.1	-0.00821297779874041	-0.00311190519752223	-0.00273303718553438	0.00157016615804134	-0.00272937109208947	0.00157883049577742	-0.00410174021727555	-0.0147103101579538
7.2	-0.00921241267517945	-0.00100708037933911	-0.00247649697971626	0.00193778841930652	-0.00248302532246736	0.00193986868986338	-0.00489193383369244	-0.0144449055072403
7.3	-0.00979341193254274	0.00110812620663	-0.00218142023184185	0.00225662360620066	-0.00219263160359883	0.00226167786701782	-0.00559535320033959	-0.0140705260606079
7.4	-0.0098994021545064	0.00301362802670061	-0.00184046037368561	0.00254001492914598	-0.00184734351115427	0.00255362397883905	-0.00630747624129993	-0.0137467425822863
7.5	-0.0102465811779763	0.00445172039948329	-0.00147468234653534	0.00278004263964052	-0.00146768720776064	0.00278743818763988	-0.00677093103617093	-0.0134083951855524
7.6	-0.010444236678207	0.00660364922016246	-0.00106832993605111	0.00295823539993291	-0.00106970570365304	0.00295353859274402	-0.00700841751134128	-0.0133957607814686
7.7	-0.0100407516765272	0.00867312872551354	-0.000640321587444571	0.00307969675641934	-0.000641661947238493	0.00307863519628494	-0.00775421267661975	-0.0138777590350371
7.8	-0.00893157123463575	0.0106356378511212	-0.000214740414745515	0.00312916994882362	-0.00022254779934598	0.0031356289279756	-0.00867230687075662	-0.0139002916161171
7.9	-0.00722245347132298	0.0121463640175836	0.000226614043827173	0.00313669482329811	0.000234557215298493	0.00313819229409981	-0.0093665376433836	-0.0135862987177145
8	-0.00543312176307835	0.0134619711189837	0.000668513461436016	0.00306421597997746	0.000668595998232643	0.00306911588323721	-0.00985929442676443	-0.0133674004366755
8.1	-0.00264263389897936	0.0147084539729224	0.00107862930431072	0.00294707309780118	0.00109777964161235	0.00294815906933149	-0.0104559981711504	-0.0133265855941777
8.2	0.000394138305712492	0.0148440164769482	0.00148387712494627	0.00276671332209843	0.0014931264313127	0.0027595151995424	-0.0113286634435701	-0.0130591233703982
8.3	0.00324275909555908	0.014231316759074	0.00186107290219095	0.00252767077629832	0.00185943207900061	0.00254122750271401	-0.0121633772191363	-0.012514945059802
8.4	0.00578996729030645	0.0129672130681772	0.00219736350931724	0.00224941290145743	0.00219433173301439	0.00224918963903303	-0.0128939433245304	-0.0118169998357281
8.5	0.00744980515897491	0.0112617906260525	0.00248299497987569	0.00191861904182753	0.00248209886964607	0.00192180420366972	-0.0134592306352253	-0.0110165116247163
8.6	0.00915919120266033	0.0100234657881433	0.00272989189916784	0.00155791864343347	0.00273939264083655	0.00155136869062999	-0.0138400104956232	-0.0104677691767263
8.7	0.0109923589542096	0.0080197042151167	0.00291564476386308	0.00115431667300949	0.00292120766994288	0.00115503580632616	-0.014502551434148	-0.0100202328036582
8.8	0.0124305158820556	0.00540373629943068	0.00305180250490109	0.000742800594029579	0.00305756551925485	0.000734032890671149	-0.0153779652914972	-0.0094196317947807
8.9	0.0133759123583731	0.00205656056198535	0.00312856565501408	0.000308619393827065	0.0031276926100806	0.000306372602483349	-0.0160309993651565	-0.00836663210486906
9	0.0129429522845672	-0.00182156264851668	0.00313838747895654	-0.00013469480148047	0.00314154873755171	-0.000130595156755212	-0.0161561812283905	-0.00712492833306612
9.1	0.0117167007679132	-0.00510482593137677	0.0030912811367648	-0.000576796730885029	0.0030941796032449	-0.000563901978790744	-0.0158734702947224	-0.00621333061346842
9.2	0.00973105612853056	-0.00823297877819358	0.00298090468141327	-0.000993958181068837	0.0029885581190222	-0.000996841964096291	-0.0157084682553987	-0.00548873799760999
9.3	0.00698905082013541	-0.0107489988230512	0.00281201888559563	-0.00139864221713664	0.00281128398448607	-0.00140363079126215	-0.0153970439141176	-0.004668180995804
9.4	0.00373953502114877	-0.0126345139870416	0.00258978566333085	-0.00178855244690579	0.00259630135040032	-0.0017809611085959	-0.0149127672904796	-0.00397003812284778
9.5	-0.000294578973390959	-0.0134629463966915	0.00231432461130733	-0.00212322861007852	0.00232173389433727	-0.0021245822508183	-0.0143224119892441	-0.00345254123542851
9.6	-0.00388416534839842	-0.0129319164395466	0.00199702836319024	-0.00242609985449614	0.00199735880161332	-0.00242511855032262	-0.0140438411454572	-0.00338897419672126
9.7	-0.0071390839533596	-0.0120344570343488	0.00163034436462267	-0.00267646628259417	0.00163587227599327	-0.0026837724376636	-0.0142358339608014	-0.00316213516732654
9.8	-0.0102611391425466	-0.0106378125970476	0.00124569811062803	-0.002885597370182	0.00125139802987936	-0.00287710540541522	-0.0145473317614819	-0.00260153424034578
9.9	-0.0131352873978001	-0.00879741753141352	0.000840293515517146	-0.00302534070113891	0.000832965426668542	-0.00302411097017685	-0.0148506287835137	-0.00168042681630483
10	-0.0163363383818221	-0.00640359446769193	0.000409784652879306	-0.00311420165419453	0.000402292603899207	-0.00312663411302375	-0.0147710420491605	-0.000643242054014102
10.1	-0.0187018846579283	-0.00259430552467443	-3.1866294512292E-05	-0.0031460417936143	-4.20916507007452E-05	-0.00314064798385796	-0.0143814758760813	1.33302253913222E-05
10.2	-0.0199523546133075	0.00141025509710705	-0.000478431970202825	-0.00310957227727264	-0.000481836598438475	-0.00310679276315672	-0.0141791091845057	0.000564018701553717
10.3	-0.0203264086643995	0.00555200823706139	-0.00091146098938256	-0.00300357682489042	-0.00090337797578937	-0.00301265124550594	-0.013937319250776	0.00125433689643921
10.4	-0.0198297438297614	0.00943003560149472	-0.00130882372045572	-0.00284800431820729	-0.00130713300762767	-0.00285419791092909	-0.0133390138196841	0.00189580921268016
10.5	-0.0192794256997295	0.0132299126673086	-0.00169915660530194	-0.00264893124182072	-0.00169605012259652	-0.00263594101323265	-0.0124761009881767	0.00233036568553268
10.6	-0.0177172431742919	0.0176137900405089	-0.00205174716104439	-0.00237926916850947	-0.00204956328313257	-0.00238309054639088	-0.0116806432999184	0.00223190855651653
10.7	-0.0151226070026496	0.0217464118955453	-0.00236659186030025	-0.00207711074862862	-0.00236309740825259	-0.00207183449429949	-0.0113033793507717	0.00218838564321201
10.8	-0.0114265144056137	0.0254927987217814	-0.00263512787486322	-0.00171711426137929	-0.00262993560064527	-0.00172603566861587	-0.0110508385456356	0.00232247439846937
10.9	-0.00679757440151707	0.0282533347152812	-0.00284255219470889	-0.00134342837893403	-0.00284773563134591	-0.00134269677331951	-0.0107696203853269	0.00259155663384715
11	-0.00206529860502115	0.0300791279310111	-0.00300204645613872	-0.000927768105463973	-0.00300688856888059	-0.000934503834707704	-0.0102274654149642	0.00291562947075802
11.1	0.00359579281842042	0.0315721095012153	-0.00311015322289932	-0.00050245991403355	-0.00309930069409732	-0.000499605294352677	-0.00955789335410615	0.00281445012768302
11.2	0.00987564931380202	0.0313830998873114	-0.00313896587135902	-6.53587555243135E-05	-0.00314611341571467	-7.01898725544395E-05	-0.00916591547441981	0.00262720498477396
11.3	0.0161571272405354	0.0296035284895124	-0.0031121275579655	0.000382484113242824	-0.00312365898805707	0.000372456384510639	-0.00875117282880281	0.00263166515028846
11.4	0.0218015933459091	0.0263091210435688	-0.00303903435343424	0.000809540693114304	-0.00303412529866883	0.000817100988396694	-0.00830685484703876	0.00267965296388709
11.5	0.0260282639677367	0.0219751861448413	-0.00289601995111497	0.00122543340814264	-0.00289879569157588	0.00123570156688357	-0.00774680467046209	0.00251116749030238
11.6	0.0298753162409458	0.0174230025204362	-0.00270157367548518	0.00161476193369693	-0.0027015551090383	0.0016176991418407	-0.00715788991990701	0.00190630602773658
11.7	0.0330651466077499	0.0117069657248889	-0.00244130795040159	0.00196891908450852	-0.00244187418749332	0.00197751574284249	-0.00695260033146629	0.00121689062671151
11.8	0.0350281966279079	0.00517853256103729	-0.0021470207889137	0.00230110179444581	-0.00215113342238881	0.00230279707718663	-0.00686285538635231	0.000817707729267536
11.9	0.035648412870826	-0.00206428673296862	-0.00179847403208803	0.00257781732338609	-0.00181148911256576	0.00258211611790141	-0.00647752010898798	0.000857581150574395
12	0.0335142527280856	-0.00883589085474073	-0.00142523382182377	0.00280077048007355	-0.00142463894963969	0.00280218147525159	-0.0060580155425207	0.000784380293691508
