# GHZ S RI R 50
0.2	0.005406797655696	0.000671156773015587	0.00305289795327169	-0.000896530606175644	0.00306327393648594	-0.00088970460445187	-0.0145099466974783	0.00436920959297132
0.3	0.00583240922268764	-0.000986634223962721	0.0029101236686851	-0.00132047171217904	0.0029028526003747	-0.00130751984120483	-0.0136230958618884	0.00486098874651746
0.4	0.0057203882349679	-0.00224059707074831	0.00267994250898682	-0.00169365193422273	0.00268523032575914	-0.00170222439387043	-0.013011414128724	0.00579645737702418
0.5	0.00583801811052522	-0.00383351892347164	0.00242105084651396	-0.00205320931035756	0.00243262501223225	-0.00206547139777191	-0.0117819132624275	0.00625124600975531
0.6	0.00429605459588066	-0.00561906919110443	0.00210753547544992	-0.00236834117238546	0.00210675185065651	-0.00237550750704815	-0.0118695996874497	0.00625916893207781
0.7	0.00258511504405982	-0.00611296504940244	0.00176047104543362	-0.00264750145007907	0.00175851022278903	-0.00264770221865078	-0.0118784670714037	0.00718151517388632
0.8	0.00102435172985404	-0.00625554749140051	0.00137427812701714	-0.00286682081032528	0.00136164492218944	-0.00287139035710432	-0.0116577476045993	0.00819719661982802
0.9	-0.00070604362185539	-0.00573553468551044	0.000955178400923944	-0.00303206805929042	0.00095621873283366	-0.00304279983862873	-0.0114148464465377	0.00945714203990458
1	-0.00123757658271945	-0.00449419483479676	0.00052824720145077	-0.00313475748574043	0.000518359091428483	-0.00313549955070793	-0.0100256217222834	0.0109896763453339
1.1	-0.00200763595846012	-0.00487420063425886	7.26302301052295E-05	-0.00316456306303627	6.91193897231676E-05	-0.00318226722669328	-0.00912244220167152	0.0108861647467579
1.2	-0.00361445387838595	-0.00451726772075485	-0.000371764055395126	-0.0031551814965722	-0.000372578774009623	-0.00315309822695934	-0.00864126753123606	0.0116146223480386
1.3	-0.00516581146860085	-0.00408510949240521	-0.000801444418905369	-0.00307182341468706	-0.00080469612022951	-0.00307383478565315	-0.00740364982331637	0.0123617018070563
1.4	-0.00651369108789009	-0.00329235798872676	-0.00122462113336589	-0.00292225348582482	-0.00122340664631766	-0.00292780547892775	-0.0058598719717545	0.0126371667365061
1.5	-0.00648356808547863	-0.0025358530730998	-0.00162577723520479	-0.00272667221995957	-0.00162415993586022	-0.00273520195388875	-0.00395246980264178	0.0119700039562833
1.6	-0.00716009067923222	-0.00150401707761591	-0.00199024545270553	-0.00247426581078143	-0.00199045998167038	-0.00247952197902161	-0.00392636702419388	0.0116384019557339
1.7	-0.0067682737979182	0.000314148013778949	-0.00232113186565542	-0.00217468338859098	-0.00232209476411498	-0.00216839456063291	-0.00326117912605865	0.0121357351358337
1.8	-0.00585110070736168	0.00197105901755796	-0.00259321244508626	-0.00182053381057006	-0.00260423102263405	-0.001826178551234	-0.0024452877925911	0.0124265840129354
1.9	-0.0044403947963589	0.00347862310006997	-0.00281913385857754	-0.00144805696845739	-0.00283161666849451	-0.00144186117571781	-0.00153828691166144	0.0128280810796928
2	-0.00203219409524697	0.00395917073803745	-0.00299775611393712	-0.00103811529291495	-0.00300741696572409	-0.00103336673072339	-6.20724868009673E-05	0.0126372413793228
2.1	-0.00104010040488559	0.00336100978491372	-0.00311084458483598	-0.000603853457162048	-0.00310674803997132	-0.000605866105370317	0.000131704455068225	0.0120335628745732
2.2	-9.72404365986211E-05	0.00345274309916225	-0.00316615990558078	-0.000162377459144617	-0.00317752085643328	-0.000165189883585019	0.000716296781666149	0.0122434193310035
2.3	0.00096107605483031	0.00325736375768619	-0.00315977420588607	0.000283683925377779	-0.00315949395285875	0.000276771098200964	0.00151626326705642	0.0122030841738656
2.4	0.00193951282148357	0.00314770477950878	-0.00308576551275484	0.000725143163951205	-0.00308833425104021	0.000720876946344696	0.00234821689944364	0.0122851199259621
2.5	0.00385659085764194	0.00269184914375453	-0.00294407919622858	0.00114201088095024	-0.00295498001353799	0.00114847262230375	0.00402691538091533	0.0119861715713909
2.6	0.00485704118695137	0.000679545901320795	-0.00276444353972219	0.00154434301647669	-0.00276093917858325	0.00153196428069825	0.00469616706831043	0.0105846520073464
2.7	0.00516436007901015	-0.000833724116913729	-0.00251527216463667	0.00191534856827181	-0.00252056753776431	0.00191538703868701	0.00483841307174025	0.00993153797925981
2.8	0.00539455601491638	-0.00225551159485378	-0.00222851320960107	0.00224274412659334	-0.00222062324574667	0.00225251735453147	0.0050235134098581	0.00970638230383849
2.9	0.00572360375884214	-0.00357597030775746	-0.00188892943793654	0.00254197948256864	-0.00188521437969927	0.002541528365522	0.00573195788325332	0.00987430957736543
3	0.00640938332362441	-0.00566720624575396	-0.00149792089489514	0.00277190171975815	-0.00151267821624149	0.00277810082625171	0.0071695132592066	0.00941636070248417
3.1	0.0055177354371953	-0.0082560234098794	-0.0011077305190778	0.00294596908275126	-0.00110302100339504	0.0029542938332915	0.00751487361807113	0.0086374094630388
3.2	0.00418454341307496	-0.0100585237530676	-0.000684816625650578	0.00308061285843934	-0.000686566477452412	0.00308001214923156	0.00803534800205267	0.00848320260833744
3.3	0.00249672604249021	-0.0116906252340403	-0.000244386066167423	0.00314617955634968	-0.000242760188338714	0.00314242710809149	0.00877110071054295	0.00811721197303773
3.4	0.000463127753575013	-0.0126549712722477	0.000202490686189712	0.00313445647730162	0.000196392405319018	0.00315105490299712	0.00962493187695161	0.00763253314989798
3.5	-0.00105357539123181	-0.0137500380849525	0.00062086614168537	0.00308877681750966	0.000626459641494165	0.00308882208565603	0.0107490605200634	0.00634244576432876
3.6	-0.00409367989600418	-0.0149073431610925	0.00105041598721265	0.00296792536584214	0.00105860583449587	0.00296755953736688	0.0105045654315056	0.00496757548076621
3.7	-0.00720255044405078	-0.0145639312010476	0.00146011893167882	0.00278228129986214	0.0014506237897011	0.00279600965081368	0.0105703179696691	0.00441005630828784
3.8	-0.00996865833610362	-0.013475281838589	0.00183542179859988	0.00255138221813127	0.00183788034301524	0.00256050707495371	0.0108538996372193	0.00375827785019273
3.9	-0.0120956243670144	-0.0116838516808384	0.00217759318653059	0.00227654496660998	0.00217032723324697	0.00227481027810122	0.011227254691425	0.00309296905977472
4	-0.0130731974566182	-0.0102536473398032	0.00246213404707268	0.00195446501744211	0.00246656479582121	0.00195200514209055	0.0119898008980409	0.00181346091584993
4.1	-0.0151212944500834	-0.00917560351823084	0.00271049912973666	0.00158932196129388	0.00270925371132135	0.00159006526442583	0.0114432610696568	0.000482067728510193
4.2	-0.0169125206764927	-0.00688284075424427	0.00290405794386082	0.00118687965790096	0.00290845436513845	0.0011781545721014	0.0112209925421977	2.67920365160213E-06
4.3	-0.0180894591540794	-0.00424900975967246	0.00304254536728165	0.00077507933702648	0.00304889946255733	0.000767256151253882	0.0112553059934068	-0.000648035442133098
4.4	-0.0186999192700908	-0.00109435005757184	0.00311563788141086	0.000341325521064196	0.00311799083802849	0.000339059643106632	0.0112882874797987	-0.00118671188690367
4.5	-0.0178077686325653	0.00169188200736656	0.00313251387892291	-9.86696020850735E-05	0.00313782933731285	-0.000102071133439681	0.0119045037332181	-0.00228974400592773
4.6	-0.0177548496904312	0.00351946208397991	0.00308113624192269	-0.00053648143300946	0.00308244666206125	-0.000523641779171096	0.0110966858182093	-0.00379263767838187
4.7	-0.017327974166964	0.00619742144575076	0.0029730499660425	-0.0009503606078612	0.00298819345155788	-0.000960020751520137	0.0103444766317037	-0.00442375913081166
4.8	-0.0162947817588715	0.00889499267611774	0.00280956914355719	-0.0013601698411488	0.00281796233788398	-0.00136627516274799	0.00976813687163875	-0.00487623930007252
4.9	-0.0143888394336061	0.0116385304496314	0.00258579099886545	-0.00173996166930146	0.00258994858944421	-0.00173710106350241	0.00947311000518841	-0.00500316473236569
5	-0.0111590659408076	0.0132068623905568	0.00232344627102392	-0.00208603198929113	0.0023270535439345	-0.00208340860278248	0.00999741463790081	-0.00570883532886533
5.1	-0.00889415103012098	0.0138430186612187	0.00201697063916444	-0.0023902305572816	0.00201925888573441	-0.0023888928769187	0.00946958451568917	-0.00655538387346978
5.2	-0.00626621954087964	0.014713376521293	0.00166171954503715	-0.0026361068481219	0.00166339941068796	-0.00264121562247726	0.00944980636451522	-0.00692429657512111
5.3	-0.00333246219313927	0.0150072529923118	0.00127754877941824	-0.00284657650228105	0.00128066234188303	-0.0028445421796708	0.00949846399551924	-0.00752963100777738
5.4	-0.00023794402494013	0.0149876144868876	0.000857258319565669	-0.00298831423091287	0.000874234779014858	-0.00299946817322696	0.00957296606044919	-0.00821786732646225
5.5	0.00347841685372906	0.0134611346333408	0.000452500663615744	-0.00308402436595906	0.000462453235734074	-0.00309337985337943	0.00975831278880916	-0.00990196843576787
5.6	0.00489378934728077	0.0111639292672986	1.74814838026142E-05	-0.00312140641206903	9.0218759293912E-06	-0.00312458776585967	0.00792092272752623	-0.0109992532243516
5.7	0.00609476272068619	0.00974612023635496	-0.000409239426478054	-0.00308948177218366	-0.0004257135433519	-0.00309309257772008	0.00675788853466248	-0.0108723349003021
5.8	0.0071971585524214	0.00823366523709202	-0.000848988572471467	-0.00299443805492636	-0.000852499319295903	-0.00300830119260946	0.00602911763897377	-0.0109556221542372
5.9	0.00812523844689243	0.00713482536532795	-0.00124739503879885	-0.00285716289012139	-0.00125555366491468	-0.00285708640389917	0.00539241560100394	-0.0108860106825255
6	0.0103268911954636	0.00537405319896874	-0.00164414183790391	-0.00265573699795326	-0.00164060777167722	-0.0026559006453969	0.00555122183202418	-0.0114957790888926
6.1	0.0106143299145458	0.00175781120006401	-0.0019957948050056	-0.00240065805567162	-0.00199742078086548	-0.00239668773025536	0.00398454634577972	-0.0126659897949926
6.2	0.00981203059272049	-0.000968764999417446	-0.00230332925013639	-0.00209118504277794	-0.00230699528277896	-0.00210295444264165	0.00257516606667404	-0.0126293506037937
6.3	0.00858991396891028	-0.00333708588090929	-0.00257791867156792	-0.00176205965664088	-0.00258697680194519	-0.00175638511009605	0.0016094627578687	-0.012504140995076
6.4	0.00724196373844951	-0.00506374112389651	-0.00280394522682525	-0.00137679784914359	-0.00279429037201834	-0.00138164245560321	0.00122341967081711	-0.0122131391382008
6.5	0.00631297856566991	-0.00772230283486319	-0.00295901314121163	-0.000973043360240091	-0.00296681207945153	-0.000968610544816148	0.00125550223724151	-0.0132308041830031
6.6	0.00307242779630775	-0.00965751983674137	-0.00306373499566195	-0.000555616228092149	-0.00306534250228413	-0.000559560076114772	-0.000221522527344116	-0.0135546335154102
6.7	0.000225518750238677	-0.0100483737808965	-0.00311629860129597	-0.00012492364119483	-0.00312509596221015	-0.000118732265011807	-0.00111342043132963	-0.0134059712123691
6.8	-0.00251473063139753	-0.00969505346514044	-0.00309790546425239	0.000311596130516318	-0.00310892406948622	0.000316557288679314	-0.00214748361059343	-0.0131187408078195
6.9	-0.00466338690425239	-0.00822540811897435	-0.00302475876537901	0.000741509181520682	-0.00302772960990359	0.000743867473976065	-0.00274465109367613	-0.0123267598622548
7	-0.00513399358011669	-0.00766605618803341	-0.00288949227520541	0.00115446699735975	-0.00290218756372485	0.00115222566822521	-0.00259719257008857	-0.0128719735159585
7.1	-0.00793163889547484	-0.00737329664554401	-0.0027208956625322	0.00153815165974392	-0.0027173200441162	0.00154676847128306	-0.00467289411261745	-0.0128481822056772
7.2	-0.0102578116136796	-0.00527130253021605	-0.00247151577937489	0.00190527068784075	-0.00247800928647896	0.0019072883113447	-0.0055971112240334	-0.0115518664336441
7.3	-0.0120754878577874	-0.00261773265330602	-0.00218222004455482	0.00222365932034691	-0.00219338656151804	0.00222859241598059	-0.00584259228456283	-0.0105353297881151
7.4	-0.0132586617619941	0.00107390677737314	-0.00184767661503581	0.00250552443809964	-0.00185462091087924	0.00251897345185965	-0.00574431316809667	-0.00955850216286171
7.5	-0.0118933150907921	0.0044465341741525	-0.00149381852456078	0.00274729835734758	-0.00148694353939238	0.00275471868435233	-0.00440083342277912	-0.00996076478929643
7.6	-0.0114676314334247	0.00608428606495673	-0.00109251686547423	0.00293387191642892	-0.00109383987430313	0.00292918348963767	-0.00519333723403941	-0.0114106417247552
7.7	-0.0106822931960145	0.0085228857546275	-0.000667805293818868	0.00306011112560802	-0.00066912944019818	0.00305904098393578	-0.00620249111168889	-0.0120264007901166
7.8	-0.00894298011767249	0.0106332395253518	-0.00024605900284977	0.00311482892683163	-0.000253902475345921	0.00312118264003866	-0.00734293530138859	-0.0123549097478004
7.9	-0.00617503367188763	0.0122901982707285	0.000191077784099892	0.00313005152179581	0.000198981103043569	0.00313163293172113	-0.00826567437072633	-0.0123183280186348
8	-0.0025552797802104	0.0117530877935897	0.000635786611966833	0.00306862003992249	0.00063581765689994	0.00307351663327677	-0.00930255204236689	-0.0130351626729774
8.1	-0.00115010093522505	0.0112010921538312	0.00104904884842653	0.00295393331315887	0.00106816602895482	0.00295520189363665	-0.0117768533904994	-0.0121306174437898
8.2	0.000874338861938764	0.0112654280630835	0.00145451978236702	0.00277877515071737	0.00146383191259783	0.00277167748506537	-0.0126100872894153	-0.0105450318935281
8.3	0.0030587068283422	0.0109333310409534	0.00183418794033632	0.00254643324204148	0.00183240600253033	0.00255996924564573	-0.0130338252013109	-0.00932503109017647
8.4	0.00552346782300775	0.0107011607603983	0.00217658457317118	0.0022742141334561	0.00217355197697792	0.00227395960248484	-0.0131119002294154	-0.00812516420145363
8.5	0.00916362903585693	0.0086170976601239	0.00246821536681949	0.00194227807764738	0.00246729028908007	0.00194545812517062	-0.0127511940663976	-0.00824221728668032
8.6	0.00997100095794412	0.00546813038004027	0.00271589671671162	0.00158572314686782	0.00272546715277446	0.00157926376648825	-0.0144782080178512	-0.00781817958500425
8.7	0.0104718058821035	0.00334175898339939	0.002908254938243	0.00118610959085954	0.00291381901368648	0.00118688709785326	-0.0151210636929639	-0.00626809170264156
8.8	0.010733017198008	0.00127977723245591	0.00305188471337745	0.000775347332108701	0.00305775021862838	0.000766615907725748	-0.0152793624761576	-0.00500632190640708
8.9	0.0110334821935739	-0.000378552094307565	0.00313452655184269	0.000338567098400068	0.00313367192465894	0.000336305852294235	-0.0147830909356237	-0.00364230132681899
9	0.012394414980362	-0.00320053087715918	0.00314610701630615	-0.000103401044035072	0.00314923345047495	-9.92612881680742E-05	-0.0134429451604127	-0.00366511529990494
9.1	0.0114764437332232	-0.00715195191595402	0.0031094540088999	-0.000545388567803826	0.0031122233569841	-0.000532412653570937	-0.0138921462168616	-0.00385931928236657
9.2	0.00976921642504396	-0.010302660687434	0.00300586738722257	-0.000968427782838307	0.00301358830743073	-0.000971247664683165	-0.0139930177517235	-0.00354736702221269
9.3	0.00724416382208633	-0.0130057222864494	0.00284072594415387	-0.00137907036469109	0.00284003520929618	-0.00138409301304473	-0.0142622090667585	-0.00318651084597208
9.4	0.00443063841274977	-0.0145475422696105	0.00262095666815765	-0.00177292778239965	0.00262743333777984	-0.00176523270929097	-0.0143330301096093	-0.00239771984195534
9.5	0.00190098987330873	-0.0167059175464461	0.00235355369304089	-0.00211299285152307	0.00236102952674833	-0.00211427561154395	-0.0143013614176353	-0.00263614843646192
9.6	-0.00303132839275744	-0.0178069671088735	0.00203675783442602	-0.0024285934313551	0.00203708204639556	-0.00242760058175335	-0.0157492859437809	-0.00160305350224588
9.7	-0.00753399406899479	-0.0169408330231843	0.00166711566254446	-0.00268660761357919	0.00167275350562593	-0.0026939324694124	-0.0158526798667813	2.69123737458002E-05
9.8	-0.0117146898024696	-0.0150290719967535	0.00128021319464384	-0.00290211426497644	0.00128589749257055	-0.00289349877171466	-0.0155996809893074	0.00135950758682991
9.9	-0.0150887139709	-0.0116709647490995	0.000873295863091321	-0.0030491452991922	0.000865883671433541	-0.00304796247216004	-0.0149868580311805	0.00269234987938257
10	-0.016562223396055	-0.00880756650716699	0.000434822903021772	-0.00314914264188371	0.000427320646192718	-0.00316177348471299	-0.013960540833779	0.00265819466945526
10.1	-0.0193425202153715	-0.00592125140305395	-1.70027114728566E-05	-0.00318192967890477	-2.73703142473875E-05	-0.00317652409065908	-0.014704064325254	0.00312400429451963
10.2	-0.0211684186519768	-0.00154914701443999	-0.000469698575602901	-0.00314712545036694	-0.00047315460333598	-0.00314432983912668	-0.0144055728710292	0.00440255256978807
10.3	-0.0218589944675231	0.00339013023383253	-0.000910122939622876	-0.00304335147416234	-0.000901905820996748	-0.00305250176580578	-0.0136006063305865	0.00537739726254764
10.4	-0.0208674898203673	0.00885504750157525	-0.00131785681105363	-0.00288895685648604	-0.0013161264185846	-0.00289522663651948	-0.0121278523595286	0.00592679304738056
10.5	-0.0176754624413546	0.0125921528271638	-0.00171878105444873	-0.00268203503620546	-0.00171564220154743	-0.0026688847185056	-0.010704183168197	0.00467094215271573
10.6	-0.0157248643559577	0.0153448253432506	-0.00207312397622458	-0.00240790312341797	-0.00207091226670299	-0.00241176611157569	-0.0113632006166444	0.00401848422232404
10.7	-0.0131358079839229	0.0187012689530712	-0.00239373033948855	-0.00210257818983992	-0.00239019668431475	-0.00209723823385775	-0.0118854279226468	0.00440231846331119
10.8	-0.00981017329808691	0.0218463742940052	-0.00266803170947477	-0.00173616123701196	-0.00266278244787722	-0.00174519364670627	-0.0121425954417014	0.00520576620006167
10.9	-0.00525272912023993	0.024873824034022	-0.00287821063217899	-0.00135292057923618	-0.00288345235888787	-0.00135216955682361	-0.0116032826311695	0.00627479332337788
11	0.00103220464384424	0.0255367872525003	-0.00303354168258861	-0.000932102947156852	-0.00303844319572046	-0.000938897976957455	-0.0106464842574935	0.00590073634033313
11.1	0.00534345996372934	0.0250387340362474	-0.00314569442478921	-0.000503445104227287	-0.00313471623724772	-0.000500574726538436	-0.0113163269813918	0.00647996397648422
11.2	0.010022452212425	0.0244880038852789	-0.00317500764933863	-5.77062522719388E-05	-0.00318224979115797	-6.25734458597077E-05	-0.0106091131429402	0.00761460542227356
11.3	0.0147570476352118	0.0232344414407097	-0.00314491216389704	0.000398106467280164	-0.00315660707113083	0.000388010896036247	-0.00927131530554481	0.00841917419653973
11.4	0.0195727293333377	0.0214959420831645	-0.00306640848976303	0.000829356669326032	-0.00306142109262503	0.000836973923635882	-0.00753207065324339	0.00873304580919799
11.5	0.025016729926962	0.0173699672686776	-0.00292442991330815	0.00124791176825855	-0.00292720503515072	0.0012583024642084	-0.00599262099722673	0.00712940686147593
11.6	0.0277194742678859	0.0122406342525143	-0.00272498789586853	0.00164752337580372	-0.00272495407895882	0.00165049493062544	-0.00622038524802957	0.00643919952908928
11.7	0.0299273149135857	0.0075856866184989	-0.00245578186198654	0.0020056842339101	-0.00245630076478391	0.00201437856221475	-0.00538748150010812	0.00606867985400472
11.8	0.0316716226836664	0.00270242814952611	-0.00215383842649693	0.00233918880637352	-0.00215798221719258	0.00234092903502444	-0.00443896586666789	0.00520135836545857
11.9	0.0334316201795522	-0.00230108662171943	-0.00180005289284543	0.00261683638818057	-0.00181317545637815	0.00262126726789653	-0.00349079799504528	0.00405801538891177
12	0.0346322532097694	-0.0098240872758699	-0.0014168673720722	0.00284528865703888	-0.00141625329425882	0.00284671052978756	-0.00358160873757489	0.00141903392005426
