# GHZ S RI R 50
0.2	0.00607386049132704	0.00113337243709104	0.00304813183485892	-0.000898290106827006	0.00305850102485545	-0.000891482736714983	-0.0138400364572237	0.00482104393107084
0.3	0.00643625616707306	-0.000810141139128662	0.00290365429189001	-0.00132174935089159	0.00289641097617415	-0.00130881048768548	-0.0130021668810337	0.00502663083102238
0.4	0.0061715765149726	-0.0025472433811919	0.00267173282229836	-0.00169337449148017	0.00267699759106124	-0.00170193470870681	-0.0125174047345984	0.00547510204581015
0.5	0.00534752933614008	-0.00388918503345671	0.00241288597604608	-0.00204973653410621	0.00242441907979839	-0.00206197548939678	-0.0121814202078128	0.00614948389089639
0.6	0.00441956708261937	-0.00495173508950687	0.00210028292071488	-0.00236420123905652	0.00209949522609861	-0.0023713490253738	-0.0116423489825297	0.00680746939895559
0.7	0.00308951412430458	-0.00570412536096979	0.00175300162442365	-0.00264167360754558	0.00175104615648916	-0.00264187196270197	-0.0112970835021536	0.00741213629253644
0.8	0.00171707349131458	-0.00605921477472567	0.00136761544957553	-0.00285870411020109	0.00135501918125476	-0.00286324906541566	-0.0109355934191365	0.00817618754378672
0.9	0.000288055756778752	-0.00608220483736976	0.000950808574387192	-0.00302191611556196	0.000951841535145684	-0.00303261114008965	-0.0104636250540432	0.00889382023313432
1	-0.00124330148505421	-0.00584938965240171	0.000526221189390718	-0.00312538389530583	0.000516362774977665	-0.00312612235467347	-0.0100967541931518	0.00951142647124613
1.1	-0.00263194069661178	-0.00523884974167177	7.06134867916805E-05	-0.00315391278538911	6.71045973408815E-05	-0.00317155517343787	-0.00971686075720017	0.010419368031237
1.2	-0.00397719776990644	-0.00479585154766504	-0.000371203168086049	-0.00314309148664074	-0.000372014228303812	-0.00314101591359096	-0.00892910369032269	0.0112051652681881
1.3	-0.00544056216486421	-0.00439100381978159	-0.00079798459227585	-0.00305982382190431	-0.000801223304500466	-0.00306182760942265	-0.00757039358303932	0.0118608790184828
1.4	-0.00663103781852618	-0.00384035466760074	-0.00121899885612511	-0.00291168061708142	-0.00121778701415344	-0.00291721129466044	-0.00588931494487514	0.0118142452772999
1.5	-0.00719607647613036	-0.00267812095611186	-0.00161981542711803	-0.00271568807570012	-0.00161820584553209	-0.00272418451391069	-0.0045652752538808	0.0115012830874606
1.6	-0.00704494761971493	-0.00113381805769996	-0.00197980104270634	-0.00246321573123425	-0.00198001254097412	-0.00246844689305871	-0.0038090323329327	0.011558162667436
1.7	-0.00645045451940602	0.000410399052507164	-0.00230789865633005	-0.0021666337095862	-0.00230886323974196	-0.00216037581757762	-0.00305226001838879	0.0117986672345591
1.8	-0.0055071948823753	0.00190383458129397	-0.00257876679074114	-0.00181539746168197	-0.00258972669173371	-0.00182103012678602	-0.00226251921672989	0.0119850796246031
1.9	-0.00427500442936291	0.0030108210638235	-0.00280401575138046	-0.00144477031261974	-0.00281644746854155	-0.00143861943688968	-0.00154126596704476	0.0120705284867432
2	-0.00294967066289028	0.00385283646593931	-0.00297915316746471	-0.00103718295948686	-0.00298876735137818	-0.00103247702143988	-0.001049496331706	0.0122918078497129
2.1	-0.001337990728298	0.00426864408201921	-0.00309242842319402	-0.000609412824361934	-0.00308834818477783	-0.000611403071617749	-0.000174766749450077	0.01260773814776
2.2	0.000174069571275987	0.00423757140790865	-0.00314978482066598	-0.000171467282290501	-0.00316108003919208	-0.000174301148756259	0.000931898000119711	0.0126232492496831
2.3	0.00156679986202036	0.00378193774383944	-0.00314502117575838	0.000271654033205096	-0.00314471908235769	0.000264776509933896	0.00198295120546213	0.0123086098592826
2.4	0.00275494149620837	0.00303336280952556	-0.00307231406030037	0.00070960645657478	-0.00307485309218302	0.000705352883692234	0.00293841965241444	0.0118233318610468
2.5	0.00361668200229176	0.00202521650508666	-0.00293528776455243	0.00112105534340936	-0.00294616759918533	0.00112742833779793	0.00358882912980729	0.0111351549624654
2.6	0.00440171464460716	0.000956931430249209	-0.00276165817380139	0.00152384443901874	-0.00275810292083264	0.00151153259116326	0.00419040766974625	0.0106905686956666
2.7	0.00506980935479896	-0.000331748462482258	-0.00251574038637098	0.00189479760419205	-0.00252101573200035	0.00189480806667308	0.00476761009266105	0.0101946344413556
2.8	0.00564032979598939	-0.0018288470803893	-0.00223294546752491	0.00222169379764219	-0.00222514055416619	0.00223147539766163	0.005308497701768	0.0098158010888265
2.9	0.00602268767216122	-0.00360402155776268	-0.00189907304647278	0.00252116570879484	-0.00189536756051597	0.00252074022320535	0.00604951070742801	0.0094907059180644
3	0.0059387261741492	-0.00554222508109035	-0.00151356072633265	0.00275654641266338	-0.0015283310353905	0.00276263493198744	0.0067829056209732	0.00917605487421149
3.1	0.00554937805914266	-0.00753458571454131	-0.00112338957689686	0.00293355776367826	-0.00111873951995724	0.00294189483261558	0.0076611154239193	0.00885415567293965
3.2	0.00449490934012449	-0.00952201040652333	-0.000703322128188981	0.00307040908610445	-0.000705064823565839	0.00306979826421442	0.00835222467600221	0.00840023876071716
3.3	0.00295132143615058	-0.0113542638182108	-0.000265497497547366	0.00314013900098015	-0.000263848295394294	0.00313640285545621	0.00911648319663382	0.00781432283873112
3.4	0.000884080809824195	-0.012803148202421	0.000180759614001181	0.00313437212185491	0.000174549647232039	0.00315092060660989	0.00984486366534594	0.00691013785674192
3.5	-0.001580976861609	-0.0138152744469985	0.000602573666331312	0.00309169881651536	0.00060816558618695	0.00309177693594537	0.0100707364438923	0.00577464554386359
3.6	-0.0041980793907452	-0.0142249078040037	0.00103048020166192	0.00297232339497289	0.00103866588579002	0.00297201056281658	0.0102413114035958	0.0050532082664762
3.7	-0.00692597625543577	-0.0141237419542068	0.00144056210043616	0.00279175924317745	0.00143097415681046	0.00280541891675126	0.0105648303822705	0.00425226642717366
3.8	-0.00963965255354635	-0.0133993913523702	0.00181849216117542	0.00256513671696463	0.00182088848700924	0.00257428232047742	0.0107939150827208	0.00333883155084347
3.9	-0.0120806068391111	-0.0121332028626253	0.00216440720214685	0.00229239400423883	0.00215714713434111	0.00229061078353812	0.010829895633113	0.00233587885755401
4	-0.0142642117764068	-0.0103665212727398	0.00244879900373845	0.00197126276412447	0.00245324653430866	0.00196883311850839	0.0105463902233765	0.00157332428578953
4.1	-0.0158973842242425	-0.00821014000079649	0.0027006999644299	0.0016122651410069	0.0026994474421844	0.00161299938036962	0.01061759158052	0.00128041000682936
4.2	-0.0171701678044057	-0.00584984962650474	0.0029004615946928	0.00121154870217686	0.00290493372212895	0.00120284082673299	0.0109720881177381	0.000786297593247877
4.3	-0.0180213998179403	-0.00334593638178067	0.00304395493051356	0.000799618131363151	0.00305038243316143	0.000791823868096653	0.011346268179677	-1.17302673110088E-05
4.4	-0.0185204415702465	-0.0006887167837336	0.00312045176699887	0.000365512117045257	0.00312282729566621	0.000363258531254257	0.0115091515588463	-0.000993420205405564
4.5	-0.0186277493304402	0.0021164928301595	0.00314342353773117	-7.18337487020889E-05	0.00314878554145611	-7.52001236469661E-05	0.0113391094134307	-0.00197368113379209
4.6	-0.0181535315047077	0.00493626804918178	0.00310025842557912	-0.000514703199924467	0.00310147362397192	-0.000501791177909309	0.0111983786773408	-0.00270581392657681
4.7	-0.0171411715989344	0.00756942237230674	0.00299532417501941	-0.000933695788441192	0.00301061609772932	-0.000943295973356335	0.0110510849563575	-0.00360624849793881
4.8	-0.0157465906363877	0.00998219727506168	0.00283452569363024	-0.00134769666388539	0.00284300790030468	-0.00135377586260692	0.0107756458526284	-0.00449015937835412
4.9	-0.0137660082481624	0.0120883429768784	0.00261433313713528	-0.00173152597245284	0.00261849498560814	-0.00172861736254296	0.0104843272955346	-0.00531593985851892
5	-0.0114476126545717	0.0137319082792508	0.00235578740973767	-0.00208702285075709	0.00235940571563925	-0.00208435458084753	0.010166093282391	-0.00601337033047736
5.1	-0.00855997105604161	0.0148914338150862	0.00204514916523346	-0.00239826683935635	0.00204744820707256	-0.00239690679478194	0.0101740358007322	-0.00657179867730956
5.2	-0.00565835309033887	0.0153371167462227	0.00168792147933262	-0.00264838678134567	0.0016896400809942	-0.00265352707496884	0.0102115019779007	-0.00742447857643404
5.3	-0.0027800218379462	0.0152629850575658	0.00130178232038382	-0.00286425373546439	0.001304912182244	-0.00286218758853457	0.0100530358124789	-0.00832501718734314
5.4	-4.32066966530976E-05	0.0146865292971437	0.000877456844636513	-0.00301266938668747	0.00089463712186523	-0.00302385795768837	0.00972790253695591	-0.00943672538108799
5.5	0.00234934709036715	0.0137402189193695	0.00046339674759772	-0.00311152506743134	0.00047346162307567	-0.0031209452936701	0.00875578960836414	-0.0104678474798872
5.6	0.0045733200621475	0.0124011984304056	2.48192454972531E-05	-0.00314775765596757	1.62954394407416E-05	-0.00315098539451835	0.00778924283722194	-0.010845013674744
5.7	0.00623533989550873	0.0107197796698601	-0.00040621476754166	-0.00311793489890196	-0.00042282808720221	-0.00312161352654958	0.00688367719905616	-0.0111184203502367
5.8	0.00744813280244026	0.0089339861119304	-0.000852561631788564	-0.00302382654773909	-0.000856084976481903	-0.00303782512593939	0.00601358569421161	-0.0114399788419154
5.9	0.00827745951697394	0.00718601800890352	-0.00125841742228622	-0.00288433469518299	-0.00126665277678714	-0.00288425950559166	0.00505562370968207	-0.0117637597362551
6	0.00875539309717991	0.00542889667498594	-0.00165719943625253	-0.00267755858464046	-0.00165363658069518	-0.00267772312992086	0.00363790690210926	-0.0119173878958331
6.1	0.00929779779542256	0.00364384564849644	-0.00201240330217197	-0.00242341149160582	-0.00201404617808976	-0.00241940633638268	0.00271164646767884	-0.0112291731476654
6.2	0.00956292761972558	0.00124131990888889	-0.00232588531261806	-0.00211024804973578	-0.00232959009046369	-0.00212212787056324	0.00255772805957313	-0.010996019723066
6.3	0.00914478053513271	-0.00156187050527093	-0.0026042013760141	-0.00177540420250835	-0.00261333736299699	-0.0017696654753023	0.00244444462332831	-0.0114555723158778
6.4	0.00778017777675576	-0.00436972615210804	-0.00283053957387314	-0.00138413900394342	-0.00282080889461044	-0.00138904151316978	0.00203745506850952	-0.0123043963378677
6.5	0.00567484804116346	-0.00657047073197909	-0.00298686963363276	-0.000979502314173998	-0.00299473622734268	-0.000975022543349003	0.00105494647168607	-0.0129700886914237
6.6	0.00335184997241447	-0.00803455324513781	-0.00309599627437194	-0.000554384966295898	-0.00309762888197475	-0.000558365145045673	0.00041548195849812	-0.0131723606461634
6.7	0.000797668304269707	-0.00877429138925326	-0.00314697250215623	-0.000115957787746585	-0.00315583508064508	-0.000109677544294202	-0.000427699853017124	-0.0134744990798163
6.8	-0.00171354498912026	-0.00876694725165509	-0.00312555891567772	0.000325978925934872	-0.00313666159455879	0.000331027070216737	-0.00141475846734403	-0.013497641618962
6.9	-0.00406758021259295	-0.00823599912550237	-0.00305039845299391	0.000759414370075692	-0.00305338857356116	0.00076180551354086	-0.00231468468905745	-0.0134930813037527
7	-0.00629304137156132	-0.00713039309429206	-0.00291483223745423	0.0011807615524462	-0.00292767415419702	0.00117855751154862	-0.00366531800261376	-0.0133638094460372
7.1	-0.00811096761152075	-0.00557900283833358	-0.00273694480964951	0.00157088332841267	-0.00273327800128298	0.00157955950299089	-0.00465600950907362	-0.0124505730022651
7.2	-0.00975216471381891	-0.00375074648215681	-0.00248021762307059	0.00193944272021992	-0.00248675482058766	0.00194152354848224	-0.0051595123911465	-0.0116767116386031
7.3	-0.0111753310860558	-0.00150914573421633	-0.00218476159191314	0.00225905498300338	-0.00219598865099267	0.00226411325347236	-0.00538876630159095	-0.0111264449707045
7.4	-0.0122050971622732	0.00107119777469284	-0.00184336219011265	0.00254318873497431	-0.00185025681888906	0.00255681525234542	-0.00557125644359274	-0.0110377868251871
7.5	-0.012760918073764	0.00402120897549527	-0.00147685060519885	0.00278386280096517	-0.00146984600086902	0.00279126894618569	-0.0061983622517362	-0.0112839365756729
7.6	-0.0121034419234009	0.00712257099093311	-0.00106984947646798	0.00296247870658005	-0.00107122723365542	0.00295777517409695	-0.00663678917486569	-0.0110397165658076
7.7	-0.0107402147557974	0.00959239678879835	-0.000641014815643418	0.00308449025724204	-0.00064235733563908	0.00308342719223995	-0.00686803260806577	-0.0115238683198011
7.8	-0.00868335027564383	0.0113043018827775	-0.000214258095600766	0.00313442933818909	-0.000222076726468994	0.00314090114854852	-0.00756469335848907	-0.0121386878230428
7.9	-0.00634389119156004	0.0123106048774737	0.000228731223419358	0.00314191382045489	0.000236688754273535	0.00314340945885311	-0.00868708295941296	-0.0125604646830555
8	-0.00394739678050066	0.0129936453516322	0.000672133856336065	0.00306852025516356	0.00067222061694887	0.00307342786528645	-0.0104619783969911	-0.0122289036908418
8.1	-0.0012208819755807	0.0131757838676192	0.00108326871465622	0.0029502461972455	0.00110244809595946	0.00295131382087665	-0.011426516379282	-0.0111401923099529
8.2	0.00136430261240174	0.0128833853852978	0.00148907944783947	0.0027684609036411	0.00149833191788987	0.00276124253950403	-0.0119477833564796	-0.0101817636536048
8.3	0.00389658204144957	0.012135348669017	0.00186633427017926	0.00252792579572508	0.00186470935454729	0.00254149901769083	-0.0122558700400145	-0.00941360988343617
8.4	0.00624250635654048	0.0108988499899115	0.00220209326222382	0.00224832308506816	0.00219905875672848	0.00224810363956792	-0.0125844496439242	-0.00905042910343132
8.5	0.00815401368429692	0.00919406161314916	0.00248685417759116	0.00191693217531036	0.00248596123993288	0.00192012044502201	-0.0136816284787435	-0.00865151738453255
8.6	0.00980922420872646	0.00719997391864683	0.00273329528866235	0.00155584738775005	0.00274279459787898	0.00154928287800987	-0.0144328524665954	-0.00743225150063283
8.7	0.0109119852704002	0.00475847992241148	0.00291857148697929	0.00115181028076849	0.00292413836523823	0.0011525237812792	-0.0147299921849291	-0.00645025810654236
8.8	0.0114289741934872	0.0022248559348572	0.00305412018697716	0.000739987496544072	0.00305987695264195	0.000731209343256926	-0.0149994777985948	-0.00568888194691551
8.9	0.011552302864028	-0.000402389155453996	0.00313035618436013	0.000305900924021601	0.00312948065961936	0.000303653850024392	-0.0150512320395682	-0.0050139811892469
9	0.0111698054191069	-0.00308715403794312	0.00314028709088577	-0.000137416589974489	0.00314345381947362	-0.00013331697067864	-0.0153684420013474	-0.0043630794267685
9.1	0.0105759728512597	-0.00581493086670213	0.00309318589454236	-0.000580098285895036	0.00309609852096237	-0.000567196041998736	-0.0151805422165311	-0.00324278676954687
9.2	0.00929172420844967	-0.00874487450993707	0.00298239908117856	-0.000998045239487997	0.00299005599612049	-0.00100093980226443	-0.0146943991652714	-0.00267124012260841
9.3	0.00720291005114091	-0.0114551088975792	0.0028127281144214	-0.0014033347243815	0.00281198640368782	-0.00140832671736253	-0.0143386022580122	-0.00231325024285605
9.4	0.00440301549341253	-0.0136877207426574	0.00258957198265787	-0.00179371572827741	0.00259610392001453	-0.00178612678391976	-0.0141995039187345	-0.00216108606176447
9.5	0.000872943784504581	-0.0149906582266632	0.00231277741846365	-0.00212886690120001	0.00232019076214262	-0.00213023396227266	-0.01465470497459	-0.0017072594309492
9.6	-0.00284168595141137	-0.0155080790339877	0.00199387307714153	-0.00243144951888796	0.00199420556106046	-0.00243046816477605	-0.0147937121711665	-0.000731074410577585
9.7	-0.00684700452800812	-0.0151222583204817	0.00162582127707163	-0.0026810067212787	0.00163133736506172	-0.00268832741074887	-0.0147137957124508	5.79088345201826E-05
9.8	-0.0108116001431473	-0.0137158596209436	0.00124002194210333	-0.00288911019391784	0.00124574147186235	-0.00288062756927799	-0.0146258218213485	0.000792777139086425
9.9	-0.0144164009438374	-0.011259215482984	0.000833546931811225	-0.00302748185872361	0.000826221011890213	-0.00302623551793173	-0.0146185456145989	0.00140255247465213
10	-0.0174902043730086	-0.00795337616219196	0.000402474745458533	-0.0031142204847907	0.000394956230973561	-0.0031266319502103	-0.0150965679121497	0.00214681621141613
10.1	-0.0194949027557301	-0.0039847500660539	-3.87227234592546E-05	-0.00314401874130924	-4.89299416329023E-05	-0.00313860593127468	-0.0149505504306707	0.00357640000784789
10.2	-0.020647167664183	0.000172584493709377	-0.00048423094055421	-0.00310599135604665	-0.000487627148437088	-0.00310320739794677	-0.0141535851146572	0.00458636381652643
10.3	-0.0209547148596718	0.00450978588803021	-0.000915970248307846	-0.00299901918810354	-0.000907911394555283	-0.00300809930559611	-0.0131919870643925	0.00510606828931561
10.4	-0.0203713979312607	0.00884464593118905	-0.00131205311929683	-0.00284288866249511	-0.00131037420598113	-0.00284907846974561	-0.0122417726542446	0.00495522342682264
10.5	-0.0189900959646773	0.0131825389105812	-0.00170117390162473	-0.00264380555745882	-0.00169805217020728	-0.00263083304952142	-0.0121466297916776	0.00474670806114299
10.6	-0.0164762958006543	0.0172210946696101	-0.00205317751153311	-0.00237414290835804	-0.00205100107226176	-0.00237796378070861	-0.0118694509731623	0.00512968932251605
10.7	-0.013225553114452	0.0206977332246619	-0.00236729829864988	-0.00207152027507844	-0.00236379952875921	-0.00206625449066024	-0.0114269638933411	0.00542280446855849
10.8	-0.00927188740705118	0.0235233358262888	-0.00263452832244488	-0.0017112282261481	-0.00262935524231032	-0.00172014669457839	-0.0109839951953038	0.00564946781117291
10.9	-0.00483572090106212	0.0256020469875982	-0.00284054242534504	-0.0013379501454266	-0.00284571805469608	-0.00133721275760078	-0.0106190653476534	0.00562401851311842
11	-3.67414777286527E-06	0.0268717645562699	-0.00299925865815804	-0.000923053818387056	-0.00300410241243535	-0.00092977518163708	-0.0108534807901505	0.00577542747174715
11.1	0.00524639680802335	0.0271844985082744	-0.00310664108268096	-0.000498218253286875	-0.0030957995413223	-0.000495379882908984	-0.0105107034778611	0.00661262105961433
11.2	0.0104287807309975	0.0263468527123721	-0.0031346738299824	-6.18045277182603E-05	-0.00314181676747989	-6.66210416874293E-05	-0.00963412227472488	0.00706699530233198
11.3	0.0154333995306219	0.0245169014783183	-0.00310728446964105	0.000385053566692124	-0.00311880941956904	0.000375051760211736	-0.00847855604265748	0.00716174067365984
11.4	0.0199949871559334	0.0217934679879375	-0.00303404687012813	0.000811216245197336	-0.00302913768652157	0.000818761460726123	-0.00747279151657689	0.00671165502777101
11.5	0.0239403098450774	0.018231271882654	-0.00289076712587997	0.00122657191115155	-0.00289352888013767	0.00123682845482709	-0.00735364234345214	0.00606818003652466
11.6	0.0273782261008455	0.0138938096204002	-0.00269585042396461	0.00161502305456766	-0.00269582893628025	0.00161795578454904	-0.00685196571653089	0.00594534976659276
11.7	0.0298872628393808	0.00889720303561272	-0.00243545161189797	0.0019680492897355	-0.00243600870599887	0.00197663249805131	-0.00608970658393224	0.0053002815512235
11.8	0.0315115548245872	0.00355989925032629	-0.00214126265429735	0.00229920893976552	-0.00214536677366381	0.00230090517523166	-0.00553230066346753	0.00436014733307137
11.9	0.0322266510254207	-0.00202006264304492	-0.00179262709239999	0.00257505782256211	-0.00180561455020965	0.00257936226422687	-0.00549158846938073	0.00341702481432589
12	0.0318635107716201	-0.00772105290200844	-0.00141925469363934	0.00279597669785519	-0.00141865972703043	0.00279738396004748	-0.00627568020563489	0.0028426639050976
