# GHZ S RI R 50
0.2	0.00607445885676088	0.00135241014469852	0.00304712228394104	-0.000898478429907947	0.00305748948609228	-0.00089167454088133	-0.0138862059101071	0.00499189624004382
0.3	0.00640494313435987	-0.000629903468587533	0.00290240015649884	-0.00132174958540744	0.00289516154020524	-0.00130881417093499	-0.0130712583020555	0.00515817351188423
0.4	0.00610506698822383	-0.00237212823007123	0.00267034713210718	-0.0016930267206233	0.00267560843040074	-0.0017015840124315	-0.0125942712242503	0.00560636137572105
0.5	0.00525932573707649	-0.00359772320727186	0.00241164684587099	-0.00204906519992082	0.0024231738027221	-0.00206129988286053	-0.0121876946262979	0.00636999986987288
0.6	0.00447232764268662	-0.00463449670645942	0.00209902811035241	-0.00236338714123521	0.00209823987664926	-0.00237053156926973	-0.01147135075854	0.00691219546549055
0.7	0.00319650193111889	-0.00543885616645868	0.00175180216083266	-0.00264049173736182	0.00174984768771851	-0.00264068977603511	-0.011131930332159	0.00735850168110036
0.8	0.00184700650850018	-0.00585018157737498	0.0013666755864151	-0.00285720529926157	0.00135408601624014	-0.00286174693467066	-0.0108416802878607	0.00800999297577091
0.9	0.000362667984908466	-0.00596401114885412	0.000950212907390573	-0.00302032434006247	0.000951245009372875	-0.0030310136644496	-0.0105523286972792	0.00866316762747944
1	-0.00138143802379213	-0.00559417482477712	0.000525533971951812	-0.00312371720779187	0.000515680931356966	-0.00312445401044749	-0.0104176740620526	0.00960080613170843
1.1	-0.00263664467783489	-0.00472960651789635	7.03426061903825E-05	-0.00315165104107072	6.68350071618519E-05	-0.00316928050487048	-0.00973122670974556	0.0108141039798832
1.2	-0.00380313108949459	-0.00408468808631099	-0.000370837920385621	-0.00314074568529099	-0.000371648430068311	-0.00313867169054416	-0.00864181504002623	0.0117565370739897
1.3	-0.00489354901831505	-0.00356241278605712	-0.00079714060475673	-0.0030575719195085	-0.000800376709668005	-0.00305957444567954	-0.00681099817469127	0.0124173236786951
1.4	-0.00589169347936956	-0.00322392164217394	-0.0012178534984703	-0.00290945707256303	-0.00121664226712273	-0.00291498330550727	-0.00494249620341293	0.0120041178689062
1.5	-0.00649261596129469	-0.00215423062626995	-0.00161775896118919	-0.00271318722844903	-0.00161614970574069	-0.0027216748180687	-0.00365275481289188	0.0114613524407071
1.6	-0.00642886154639186	-0.000878362425616656	-0.00197691516899429	-0.00246171834731675	-0.00197712429750741	-0.00246694467227739	-0.00313705550148313	0.0110346348907941
1.7	-0.00604346607618351	0.000566636783095128	-0.00230492953732418	-0.00216582206424442	-0.00230589613938818	-0.00215956998869975	-0.00280218285035562	0.0111796213087945
1.8	-0.00526772882467502	0.00200271307016004	-0.00257566171220984	-0.00181505716688114	-0.00258660941314407	-0.00182069019204123	-0.00229814936853305	0.0114115532606543
1.9	-0.00427631479981895	0.00312495098483002	-0.00280046160011195	-0.00144496646804279	-0.00281288473394697	-0.00143882868093761	-0.00183889883810508	0.0116760426133148
2	-0.00298835352743036	0.00427581682298036	-0.00297549860038608	-0.00103904459860721	-0.00298510854622178	-0.00103435191671309	-0.00118040765436467	0.0123219991787845
2.1	-0.00123208184869849	0.00458837256102936	-0.00308998975855679	-0.000611777356194991	-0.00308591026305323	-0.000613762767736527	-2.47448521136503E-05	0.0123366011969047
2.2	0.000190333516929075	0.00451388502794712	-0.00314767177023235	-0.000174061647165372	-0.00315895750820894	-0.000176903432086191	0.000899713904909385	0.0121595461167592
2.3	0.0014991855823673	0.00405030335308526	-0.00314328617029233	0.000268476187229495	-0.00314297769592954	0.00026160331447255	0.00170322061783357	0.0118079070769666
2.4	0.00248430436570115	0.00332040261943787	-0.0030714984143277	0.000705616152208614	-0.00307403108605346	0.000701361879879669	0.00227689420260678	0.0114824403973481
2.5	0.00319152940630766	0.00277369140417517	-0.0029362524579756	0.00111761162631946	-0.00294713838191525	0.00112397162516768	0.00285545642480532	0.011584628477229
2.6	0.00436201610854681	0.00189820956809715	-0.00276237897015027	0.00152104480537639	-0.00275881360314564	0.00150873892906739	0.00415206249720231	0.0113568879232327
2.7	0.00529035482647224	0.000539316544604553	-0.00251701224527976	0.00189174901108711	-0.00252228623111723	0.00189175411035304	0.00515005017326682	0.0106620678196458
2.8	0.00593880771571713	-0.0011760585666796	-0.00223514634397513	0.0022189296312636	-0.00222735330095293	0.00222871872359828	0.00582318630018258	0.0099157462304612
2.9	0.00613316527063016	-0.00304839350385382	-0.00190204350619884	0.00251952861179678	-0.0018983370045803	0.00251910700332539	0.00637588679623447	0.0094200778381953
3	0.00607004547263647	-0.00472855026339341	-0.00151538501156192	0.0027558302164456	-0.00153016025928796	0.00276191009059592	0.00729447175566145	0.00929848297900154
3.1	0.00582816432865207	-0.00687532642122204	-0.00112576100145759	0.00293194286385381	-0.00112111933187951	0.00294028231420078	0.00836699746414564	0.00849600213416921
3.2	0.00472583301601241	-0.0089221408511704	-0.000706447469571038	0.00306958880743829	-0.000708189482387673	0.00306897621850646	0.00884426825611533	0.00776597911056644
3.3	0.00314896968805895	-0.0108188935540271	-0.000268556251838983	0.00314025441238414	-0.000266903252685369	0.00313651941496637	0.0093771437289299	0.00702833144129934
3.4	0.000907691361762426	-0.012303114668048	0.000178474237631742	0.00313479232519682	0.000172251547773753	0.00315133776685294	0.00975384745469192	0.00614238596530832
3.5	-0.00152131497761385	-0.0130036660862128	0.000599394645874129	0.00309107302338837	0.000604984321230875	0.00309115643940967	0.0100671940389693	0.00542214543568781
3.6	-0.00396056429381299	-0.0136514027920846	0.0010263727247674	0.00297378800237739	0.00103455894228432	0.00297348651285587	0.0104192967394106	0.00426768118368999
3.7	-0.00687448185790049	-0.013640327955646	0.00143739053658594	0.00279429089917167	0.00142778286249631	0.00280794188641646	0.0103052047056618	0.00329608854254792
3.8	-0.00977809925254382	-0.012854167157855	0.00181596953574224	0.00256797409307842	0.00181835575512613	0.00257712500470956	0.0100824537506035	0.00258527171890426
3.9	-0.0124158367603478	-0.0113322579972536	0.00216171490005618	0.00229543727708112	0.00215445628185992	0.00229364453115108	0.00980229562868625	0.00219653505700436
4	-0.0142642642703041	-0.00900606116384705	0.00244635280119393	0.00197681945897467	0.00245080709643542	0.00197439688703956	0.0101875854573651	0.00236697121856885
4.1	-0.0153701124733466	-0.00722069989539744	0.0027013025758543	0.00161777025690382	0.00270004769253496	0.00161850351646846	0.0111549412104736	0.00152217871740805
4.2	-0.0167046366955287	-0.00523422231637434	0.00290189599210311	0.0012161511279575	0.00290638275971565	0.00120743992710911	0.0114766730859735	0.000458876077023544
4.3	-0.0177872493377219	-0.00294147099641557	0.00304591173980104	0.000804088328739969	0.00305235490327585	0.000796294380075406	0.0115608492679801	-0.000603060410238681
4.4	-0.0186959802594745	-0.000298593691123527	0.00312365720970498	0.000370505236233324	0.00312603887451675	0.00036825241786933	0.0112910227158204	-0.00147292704325555
4.5	-0.0188874665490253	0.0030652247340396	0.00314977753427063	-6.87115886872978E-05	0.00315515374652265	-7.20791178689512E-05	0.0113825216895603	-0.00173335022187117
4.6	-0.0181190731070237	0.00576764786987283	0.00310539355135192	-0.00051426061051349	0.00310660543125916	-0.000501327579065893	0.0118675142042724	-0.00292988052080992
4.7	-0.0171751033969135	0.00835021588197411	0.00300007031404478	-0.000933589866708356	0.00301538879874008	-0.000943196442659462	0.0116506294086247	-0.0042310392682312
4.8	-0.0158312816677662	0.0107332070837161	0.00283965614400733	-0.00134837367075043	0.00284815474101678	-0.00135445810573527	0.0111895184896801	-0.00538714983073427
4.9	-0.0140691100854911	0.0128627462760483	0.00261982322453503	-0.00173423778012533	0.00262399242057369	-0.00173132251274801	0.0104880625788628	-0.00626437480306662
5	-0.0116199697911774	0.0149326684809968	0.00235816631258297	-0.00209174799525302	0.00236179192901346	-0.00208907781186578	0.0103453353694231	-0.00653614156819052
5.1	-0.00862817333860459	0.0157940567297358	0.00204683177895143	-0.00240107382760262	0.00204913340856082	-0.00239971278495637	0.0103569678418345	-0.0077213871400252
5.2	-0.00598518708873446	0.0163751608561692	0.00168983833706773	-0.00265180027885511	0.00169155872067132	-0.00265694708960094	0.00974672509770085	-0.00850244490602942
5.3	-0.00308289217722235	0.0166072038476769	0.00130269237848609	-0.0028685288519944	0.00130582710428014	-0.00286646083736749	0.00933764807048914	-0.00887840765734379
5.4	-0.000228753951593265	0.016253139253281	0.000876184130448011	-0.00301669621887649	0.000893375254931537	-0.00302791016209819	0.00910057460984507	-0.00939673739010392
5.5	0.00282353619571237	0.0156712035121745	0.000462509344234238	-0.00311244924456231	0.000472573690052162	-0.00312187506040109	0.00927794437032119	-0.00986235734409938
5.6	0.00539285438243802	0.0134929674429711	2.55628089212926E-05	-0.00315052036321226	1.70322463718949E-05	-0.00315375289487974	0.00885294948792701	-0.0116161782757612
5.7	0.00674761594796614	0.0114690156148373	-0.000406869935849153	-0.00312142456203469	-0.000423502219010153	-0.0031251062865208	0.00727893822246012	-0.0125198770944636
5.8	0.00770023255384928	0.00948926031366845	-0.000854297278021275	-0.00302664109014027	-0.000857828228982207	-0.00304065282023051	0.0056942997752492	-0.0129611251128618
5.9	0.00796503090825064	0.00764595531145276	-0.0012596250575916	-0.00288591628448515	-0.00126786545801078	-0.0028858398072299	0.0037946580890619	-0.0128782672235243
6	0.0082349695582333	0.00679916315443789	-0.00165738926467511	-0.00268184204505586	-0.00165382206559805	-0.00268200441797262	0.00250923268538026	-0.0112882607801123
6.1	0.00933647982676146	0.00485155287358919	-0.00201648445369444	-0.00242741121988676	-0.00201812955103173	-0.0024233985323243	0.00291487363604465	-0.0107173669899151
6.2	0.00950730152944297	0.00231681144113739	-0.00233052571387024	-0.00211211249314346	-0.00233424259535968	-0.0021240080037386	0.00308177517942495	-0.0108987666228174
6.3	0.00897619676725505	-0.000519724726449882	-0.00260846660738865	-0.00177630882423847	-0.00261761127307094	-0.00177055795479208	0.00300557728554229	-0.0117470372604585
6.4	0.00726202497602348	-0.00310886331954023	-0.00283497279863402	-0.00138560727850123	-0.00282522880587112	-0.00139051892869771	0.00221990252836626	-0.0125671616056003
6.5	0.00567228569432724	-0.00466537566126327	-0.00299481754136687	-0.000978948483464158	-0.00300269832348658	-0.000974450680692381	0.00204893033006983	-0.012840438779769
6.6	0.00349559233495616	-0.00657893589441903	-0.00310130941124836	-0.00054997073325953	-0.00310295101325671	-0.000553953804298583	0.00135783171936744	-0.0142036032191174
6.7	0.000963531415571063	-0.00721836516978378	-0.00315044875607408	-0.000111698918541104	-0.00315931192683247	-0.000105399722170099	6.1877278563038E-06	-0.0146086735198845
6.8	-0.00143269060611014	-0.00739951719485343	-0.00312881681680602	0.000330228792226721	-0.00313992625420979	0.000335296589798952	-0.00126124128040884	-0.0147310696445072
6.9	-0.00421010895695082	-0.00693178430467325	-0.0030541294638385	0.000765485106415806	-0.00305712062794584	0.000767884865372444	-0.00278564023018895	-0.0144460125621096
7	-0.00597468777613496	-0.0050322387541696	-0.00291403149783651	0.0011897711598898	-0.00292689025993716	0.00118760059434647	-0.00318245088932591	-0.0132690554160923
7.1	-0.0073845614768568	-0.00435178771149533	-0.00273391937710148	0.00157625950392153	-0.00273023554796681	0.00158492865433174	-0.00357070878422265	-0.0139160067122252
7.2	-0.00938039652735442	-0.0027738701522692	-0.00247740022856313	0.00194418181658707	-0.00248393526491326	0.00194627446215864	-0.00495509098499578	-0.0138431346586525
7.3	-0.0110176882635493	-0.000685292526042574	-0.0021808979566059	0.00226395790682472	-0.00219211805463286	0.00226903962492162	-0.00614887771950602	-0.0134844364954818
7.4	-0.0126721831655382	0.00173059754281275	-0.00183659166205291	0.00254724914400236	-0.00184345066514288	0.00256088994988635	-0.00777383752380185	-0.013017056389111
7.5	-0.0134658449675273	0.00576905274314882	-0.00147010781888784	0.00278214690281821	-0.00146310149870559	0.0027895306070294	-0.00864200728926871	-0.0109452968064666
7.6	-0.0121488984872303	0.00861597027018062	-0.001066589114607	0.00296158729005145	-0.0010679701477625	0.00295688787221953	-0.00791168710082858	-0.0105623275276989
7.7	-0.0110799504475414	0.0110982793203771	-0.000637019811179895	0.00308393367171723	-0.000638363034209005	0.00308287268346358	-0.008124322507099	-0.0108477441567586
7.8	-0.0091316414465478	0.0130560649709568	-0.000209851266395439	0.00313246723818152	-0.000217655496735743	0.00313894500547737	-0.00854118445329826	-0.0110171585796011
7.9	-0.00696056726709432	0.0146490366629766	0.000231438026765737	0.0031375426062107	0.000239386473863179	0.003139028646959	-0.00912008596533829	-0.0106451912535196
8	-0.00319348037859426	0.0159140538949381	0.000670992055346244	0.00306732749031605	0.000671077433229121	0.00307223292220074	-0.00859976353757715	-0.0102040500108551
8.1	-0.000150272852129184	0.0149686917088738	0.00108579301629683	0.00295012573808917	0.00110497783627934	0.00295117890475488	-0.00901475268567513	-0.0114845027602802
8.2	0.00213661109813981	0.0142610413741957	0.00149178937165453	0.00276621510518696	0.0015010318754513	0.00275898817923657	-0.0103143938830981	-0.0115461021230079
8.3	0.00435427770322438	0.0132316588761235	0.00186755965126189	0.00252490281469375	0.00186594763114596	0.00253847011357861	-0.0114078249815125	-0.0112417916525846
8.4	0.00598720190976265	0.0120627629671291	0.00220214980364127	0.00224716260032584	0.00219911599996892	0.00224694403179627	-0.0127759835744726	-0.0106144170531707
8.5	0.00833459468499044	0.0114059984985972	0.00249145131322761	0.00191554312098692	0.0024905615481866	0.00191873533767942	-0.0130384220224071	-0.0089453259812312
8.6	0.0104538282551655	0.00853970675453816	0.00273532975390877	0.00154988625464823	0.00274481258275894	0.00154330552236122	-0.0131253973271577	-0.00935301661464989
8.7	0.0111531185574842	0.00584806337439691	0.00291791974906905	0.00114658848226452	0.00292348320083643	0.00114729321565976	-0.0144187440784749	-0.0091775523586995
8.8	0.0113629126563775	0.00320144964637452	0.00305294215682914	0.000735952144294646	0.00305868490398636	0.000727173167167294	-0.0158551324035124	-0.00858339387962648
8.9	0.0107851309755045	0.000639164274883328	0.00313044142742727	0.000301190668644807	0.00312956265147431	0.00029894516857369	-0.0174282031612965	-0.00722112014233027
9	0.0104319556425025	-0.000917212479553901	0.00313593079406385	-0.000145761554552991	0.00313910462744023	-0.000141675726698029	-0.0175524681304507	-0.00438779799757127
9.1	0.0101614853836939	-0.00378431482799806	0.00308591280944573	-0.000583110004899395	0.00308883696561137	-0.000570238771995259	-0.0165923801005516	-0.0032441764877336
9.2	0.00890342773718081	-0.00628457617680116	0.00297653967785573	-0.000999287151136719	0.00298418122872782	-0.00100218435704024	-0.0158744111844215	-0.0020569381667173
9.3	0.00733690751712672	-0.00878808812430007	0.00280703141035228	-0.00140469636805559	0.00280628478520114	-0.0014096803434919	-0.0146505714410175	-0.0013358233785849
9.4	0.00470381900416599	-0.0111465985243415	0.0025810559784115	-0.00179503056802388	0.00258758923816575	-0.00178746898158309	-0.0138664140888616	-0.00120555185547408
9.5	0.0020806753008355	-0.0122318662081024	0.00230343723954002	-0.0021228060175087	0.00231082388381642	-0.00212417270702909	-0.0125234340042705	-0.000805791033154775
9.6	-0.00162892014300798	-0.0140285038558673	0.00199013666517206	-0.00242524358062104	0.00199046806361432	-0.00242426435281262	-0.0125282819828376	-0.00222993389548775
9.7	-0.00617599012887288	-0.013874302676372	0.00162253136095116	-0.00267557476806915	0.00162803628445049	-0.00268288062308115	-0.0135750219187712	-0.00227958940249501
9.8	-0.010460487417473	-0.0125981130837082	0.00123687381387427	-0.00288241767954886	0.00124258058057685	-0.00287395545777984	-0.0145128432591516	-0.0017713443531207
9.9	-0.0147218394672781	-0.0100561500380299	0.000832846870531896	-0.00301773028562494	0.000825542559832647	-0.00301649221454341	-0.0157642095793552	-0.000560793752296176
10	-0.0173573521809028	-0.00580376203959522	0.00040855825285999	-0.0031078935737814	0.000401079947566654	-0.00312029970776781	-0.0154359642422101	0.00182726230504772
10.1	-0.0190603701092712	-0.00273459412973014	-3.57194743904449E-05	-0.00314110609603006	-4.59222257910418E-05	-0.00313570799553078	-0.0146400226381657	0.00201722448375318
10.2	-0.0207472792154793	0.00118047197005683	-0.000481125340736622	-0.0031020116411215	-0.00048451895784352	-0.00309923424195502	-0.0146645149650743	0.00261357100960361
10.3	-0.0216103465911162	0.00548348149898284	-0.000910801781759085	-0.00299548845704407	-0.000902744158822392	-0.00300454437224083	-0.0146297613020294	0.00331861954652418
10.4	-0.0220014609303795	0.0103286226454185	-0.00130497506319851	-0.00284329840778861	-0.00130328449659588	-0.0028494795494451	-0.0147873931957323	0.00439730351420696
10.5	-0.0202097341655827	0.0163284564113535	-0.00170075353182937	-0.00264725591349251	-0.00169763830842163	-0.0026342701661833	-0.0133626165608739	0.00649063225377537
10.6	-0.0168662245954619	0.0204369422214875	-0.00205259075327435	-0.00237223736023039	-0.0020504165567422	-0.00237605656718939	-0.0114454612026855	0.00647082818677313
10.7	-0.0128236632184855	0.0239264954105271	-0.0023643057029787	-0.00206995352426187	-0.00236081191082785	-0.00206469235629479	-0.00988136910634516	0.00621956845478413
10.8	-0.00845759934039191	0.0259988795338452	-0.00263129080358379	-0.00171146802583019	-0.002626116401827	-0.00172037592206767	-0.00900268752069753	0.00512625710354747
10.9	-0.00466502132767178	0.0277128645669214	-0.00284011267545078	-0.00133828450630767	-0.00284528801287517	-0.00133754797673247	-0.0094264766998539	0.00454567592150969
11	0.000698771466515221	0.0297619722086678	-0.00299562684489845	-0.000917949044220297	-0.00300047108557375	-0.000924653874703	-0.00865249491415568	0.00530641317187032
11.1	0.00611680470155047	0.0291151380289097	-0.00309914835236698	-0.00049867058469531	-0.00308833352989759	-0.000495833196509688	-0.00812140547824671	0.00399176255129443
11.2	0.0109418996334091	0.0281814395933935	-0.003129415216595	-6.47603963437021E-05	-0.00313654160951293	-6.95758919916413E-05	-0.00848339484665259	0.00359112005122668
11.3	0.0158277787842301	0.0262628261873384	-0.00310349753855268	0.0003823519486081	-0.00311500035535145	0.000372355054007362	-0.00859253027826335	0.00350421373364777
11.4	0.0198764851467042	0.0235652744958358	-0.00302829531808526	0.000809765563291541	-0.00302339520326839	0.000817296398069656	-0.00901555674429779	0.00370305342046959
11.5	0.024474596362348	0.0207970492493238	-0.0028830282341534	0.00121756125074229	-0.00288579784702892	0.0012277783935988	-0.00803951528889892	0.00454766456841879
11.6	0.0280956197423107	0.0152992460420888	-0.00269563898426802	0.00160538442642947	-0.00269562514653711	0.00160831242029911	-0.00760026003373155	0.00302258107528715
11.7	0.029803161946779	0.00999220626986078	-0.00243660366178708	0.00196074483123565	-0.00243717765680383	0.00196931677141076	-0.0083600678991401	0.00245333320457718
11.8	0.0305320762380127	0.00486886597116128	-0.00214221067741197	0.0022919390241312	-0.00214631174086804	0.00229362535764685	-0.00914412524832838	0.00269649473040598
11.9	0.0303586424765799	0.00053473870607577	-0.00179513846133725	0.00256433633705972	-0.0018081066673649	0.0025685967878944	-0.0096941057376365	0.0044399964031039
12	0.0317373277605655	-0.00317100645890877	-0.00143092306650954	0.00278856821169953	-0.00143033452609142	0.00278997749015068	-0.00714816704139547	0.00671750335657804
