# GHZ S RI R 50
0.2	0.00583886036672724	0.00141530839312999	0.00304750903265693	-0.00089811855380468	0.00305787613968657	-0.000891312604853779	-0.0140485754338904	0.00512331684548678
0.3	0.00615214801098562	-0.00058161197466445	0.00290307905121508	-0.00132146612428986	0.00289583711167524	-0.00130852990447564	-0.0132631923253229	0.00527482084153731
0.4	0.00595506914486865	-0.00229816007822731	0.00267115773278103	-0.00169303919559313	0.00267642132758428	-0.0017015976535874	-0.0127216679212202	0.00574086456533724
0.5	0.00512139876427509	-0.00374401154358612	0.00241218725420097	-0.00204905604387366	0.00242371706931663	-0.00206129099609668	-0.0124332738004271	0.00631994373525566
0.6	0.00421657515642292	-0.00463315205062329	0.00210007014519722	-0.00236333419861427	0.00209928358927005	-0.00237048030421401	-0.011888952187518	0.0072091323245539
0.7	0.00307908493728607	-0.00540148913448699	0.00175292634660255	-0.0026409151258155	0.00175097131649653	-0.00264111365878356	-0.0113266894281517	0.00784254577413552
0.8	0.00181042942303865	-0.00583183612722615	0.00136761272071681	-0.00285790216444538	0.00135501982544336	-0.00286244744626863	-0.0108222962216485	0.00855409518306402
0.9	0.000488148780888348	-0.00589753975968063	0.000950987741413526	-0.00302095236884439	0.000952021973504834	-0.00303164432123025	-0.0101911162842278	0.00921673020365211
1	-0.000964446891016841	-0.00588034481430368	0.000527002924572593	-0.00312457026988025	0.000517146813287472	-0.00312531139056783	-0.00973983889702309	0.00954153376658141
1.1	-0.00253783754623203	-0.00511545822578596	7.11927160969263E-05	-0.00315355860007064	6.76874889608699E-05	-0.00317119973329316	-0.00961557983570404	0.0105824598062699
1.2	-0.00368654532979993	-0.00442400065559877	-0.000370614144713689	-0.00314262342936209	-0.000371425415668394	-0.00314054834229596	-0.00868066868252517	0.0116366164598584
1.3	-0.00498044214319802	-0.00386462372747247	-0.00079716425440611	-0.00305941154530796	-0.000800401908893038	-0.00306141565531132	-0.00719593599700598	0.0124921296726001
1.4	-0.00604867110413043	-0.00321732020481751	-0.00121796129600805	-0.00291161164352797	-0.00121674800200506	-0.00291714115039924	-0.00539406492151742	0.0126067002862299
1.5	-0.00667434599147616	-0.0022157080986459	-0.00161928538473668	-0.00271604040228575	-0.00161767407915559	-0.00272453660042788	-0.00413490610339602	0.0121938649541599
1.6	-0.00645722731825874	-0.000735568416019567	-0.00197921994389419	-0.00246300614145854	-0.00197943087439099	-0.00246823645184225	-0.00324797784357193	0.0122696112756446
1.7	-0.00585879438501788	0.000472536336405297	-0.00230691388690283	-0.00216667047887283	-0.00230787964457332	-0.00216041417004101	-0.00240199486158954	0.0121785789487134
1.8	-0.00502989474784284	0.00172306703275076	-0.0025777801397687	-0.00181587238537834	-0.00258873647896335	-0.00182150742127287	-0.00167662931492709	0.0120829086148707
1.9	-0.00389081243923554	0.00261839025017866	-0.00280341908582805	-0.00144550775110906	-0.00281585185490933	-0.0014393609116816	-0.00103868903867537	0.0118887496169612
2	-0.00290702083140825	0.00322329782980698	-0.0029785156551548	-0.00103741407948262	-0.00298812887394822	-0.00103271023034404	-0.00097429941120719	0.0118233758703647
2.1	-0.00150098941761087	0.00389793572096138	-0.00309139136408543	-0.00061042646385131	-0.00308731143450819	-0.000612414645421976	-0.000363828395020279	0.0124825873115049
2.2	4.51163454698611E-05	0.00394695365538829	-0.00314934034163061	-0.000172867134769564	-0.003160632965961	-0.000175705762489813	0.000815935991993839	0.0126419959474876
2.3	0.00146085458481974	0.00354642275717219	-0.00314501490051722	0.000270322515712401	-0.00314470992964515	0.000263445382597572	0.00195910369490159	0.0123950186902729
2.4	0.00276370524131941	0.00281526855122406	-0.00307235741382097	0.000708485362090735	-0.00307489478986162	0.00070423118514384	0.00310526181739022	0.0118674139305228
2.5	0.00358249997256888	0.00155917835708833	-0.00293524136393599	0.00111914789390085	-0.0029461222725475	0.00112551330733085	0.00367563257029887	0.0107921911711446
2.6	0.00413127913079527	0.000635625515654731	-0.00276303215383794	0.00152206197505395	-0.00275946783267864	0.00150975130011539	0.00390850486767773	0.0104835692757625
2.7	0.00475719372535374	-0.000506484960179285	-0.00251737648398631	0.00189380367241366	-0.00252265302284345	0.00189381115866039	0.00437491448284785	0.0101901948437127
2.8	0.00536083913403252	-0.0018195884702907	-0.00223454558467621	0.00222107600787472	-0.00222674380497067	0.00223086365874727	0.00492575637265377	0.010060299000753
2.9	0.00591959137879541	-0.00353001673599129	-0.00190078642591306	0.00252052439953961	-0.00189708009456053	0.00252010090363983	0.00584340759505741	0.00983134852169239
3	0.00580189977748017	-0.00556527654944738	-0.00151634685857494	0.00275660304167928	-0.00153112837456231	0.00276268291075014	0.00647191788275643	0.00945216788074753
3.1	0.00551156083879115	-0.00736226250004731	-0.00112529905789648	0.00293490410761801	-0.00112064958369931	0.00294324825275231	0.00743417426387319	0.00946708945765854
3.2	0.00466683624862431	-0.00940992366008406	-0.000704718749321138	0.00307172154701648	-0.00070646211783691	0.00307110982553496	0.00840217342400972	0.00904481430967143
3.3	0.00324550664535071	-0.0113397539665524	-0.000266852182263416	0.00314158485504533	-0.000265200710457085	0.00313784750882598	0.00937361927869866	0.00840209732888397
3.4	0.00131899554414099	-0.0129398105321693	0.000179354739342199	0.00313648331666771	0.000173132730235842	0.00315303946997111	0.0103197875892256	0.00732903724677473
3.5	-0.00128721383478278	-0.0142189035011609	0.000602665175515559	0.00309479500170638	0.000608262509076631	0.00309487408899511	0.0103899796742896	0.00588500980680307
3.6	-0.0039261806031006	-0.0144209658277832	0.00103132879473847	0.00297413874139549	0.00103951964453029	0.00297382517207351	0.0105402632348657	0.00544964316664809
3.7	-0.00644344135169199	-0.0143765355087448	0.00144129249867748	0.00279346993008538	0.00143169830450961	0.00280713725695126	0.0111816788384624	0.0046277961784907
3.8	-0.00901241389619056	-0.0138222034805033	0.0018196572252937	0.00256695879258316	0.00182205489694565	0.00257611075812241	0.0116705002319868	0.00348602650962898
3.9	-0.0113526930460746	-0.0128721357073539	0.00216656674352808	0.00229392118082569	0.00215930040948168	0.00229213769508639	0.0118630747852005	0.00201363802358209
4	-0.0139000528279051	-0.0115326965119385	0.00245100230412433	0.00197084771403432	0.00245545057696156	0.00196841453101277	0.0110743696263397	0.000661581063262573
4.1	-0.015835141929363	-0.00916548890410759	0.00270163010535909	0.00161222942783872	0.00270037739082482	0.00161296405143885	0.0106908403655964	0.000661512121701599
4.2	-0.0171460794506776	-0.00675440452337954	0.00290175376247232	0.0012117042968453	0.00290622668961162	0.00120299244786973	0.0110036451945522	0.000297159885478169
4.3	-0.0180508622330655	-0.00423781267875245	0.00304543715446048	0.00079930799717364	0.00305186574845766	0.000791508997008497	0.0113491327319488	-0.000471824323549452
4.4	-0.0185365696260752	-0.00162697671852119	0.00312140976733724	0.000364464631662347	0.00312378509709865	0.000362209579869012	0.0115358374268633	-0.00155487511490387
4.5	-0.0189589491541805	0.000943465462947572	0.00314315551360976	-7.17057498408322E-05	0.00314851718585204	-7.50716270032913E-05	0.0109079196961112	-0.00283382962966109
4.6	-0.0187532019477761	0.00415974733331635	0.0031017032311326	-0.00051415581750296	0.0031029157551932	-0.000501238007587071	0.0103671542454389	-0.00303374098809575
4.7	-0.0176946738154548	0.00702009433648229	0.00299705410519713	-0.000934137761983804	0.00301235500273734	-0.000943742950219871	0.0102679735947399	-0.00356891532225093
4.8	-0.0162263844614391	0.00963598441313056	0.00283589250477313	-0.00134868701023245	0.00284437860110388	-0.00135477025456694	0.0101267514311713	-0.00415433335324602
4.9	-0.0140373424954886	0.0118401038887001	0.00261532998698129	-0.001732258838887	0.00261949353177371	-0.00172934916308468	0.0101212686468875	-0.00485933022643419
5	-0.0118152996194117	0.0134080514079307	0.00235828451826571	-0.00208816279271268	0.00236190516163228	-0.00208549137453088	0.00968533761423428	-0.0056412603429271
5.1	-0.00873670792251284	0.0149395538269672	0.00204636941588699	-0.00240142674690726	0.00204867127317807	-0.00240006614149433	0.00991510274270916	-0.00569882560695829
5.2	-0.00549084039463194	0.0152838764473139	0.00168782619816613	-0.00265129277270916	0.00168954342497325	-0.00265643789217564	0.0104486588360036	-0.00662659307255579
5.3	-0.00249113458304398	0.0149951891711483	0.00130122128428664	-0.00286677722083445	0.00130435422178066	-0.00286471126443843	0.01051956317942	-0.00783146368421123
5.4	0.000279112614224441	0.0142003452818837	0.00087694847123036	-0.00301540569623608	0.000894137885556108	-0.00302660998970669	0.0102340300392091	-0.00931859957183103
5.5	0.0022670739156176	0.0131021001974879	0.000460928027860407	-0.00311543926294273	0.000470995088105335	-0.00312487965038126	0.0086374948864788	-0.0105818120405352
5.6	0.00467071999501315	0.0123136869734792	2.09044550596219E-05	-0.00314924068050371	1.23726912340068E-05	-0.00315245927618766	0.00776499699193154	-0.0101718064677265
5.7	0.00684008192486411	0.0105367845044162	-0.00040966582903416	-0.00311828205407745	-0.000426287274216992	-0.00312194376167242	0.00751823418437462	-0.0104136463174987
5.8	0.00841543979387941	0.00843153914674274	-0.000855842351456154	-0.00302364538075011	-0.000859380787169998	-0.00303764355253744	0.00719993082619684	-0.0110806673136561
5.9	0.00959646492541083	0.0060954837037682	-0.00126225003174455	-0.00288363573776156	-0.00127048762957161	-0.00288355060231769	0.00675075792391971	-0.0121974077315227
6	0.00964704326062236	0.00317910018511091	-0.00166076099852866	-0.00267397914122499	-0.00165719972201701	-0.00267414918328626	0.00476362926432608	-0.0138507246177993
6.1	0.00920739226594823	0.00136360267527332	-0.00201318657615399	-0.0024201430013646	-0.00201482498002908	-0.00241613900386969	0.00253782585333243	-0.0132039159250726
6.2	0.00880636660579105	-0.000772612506775175	-0.00232640517057289	-0.00210777936910895	-0.00233011668283177	-0.00211965180269629	0.00155353104310109	-0.0125841171668838
6.3	0.00803920637809518	-0.00290169854593475	-0.00260471753775293	-0.0017728310958269	-0.00261384615895035	-0.00176708722584641	0.00103447658109714	-0.0122195837591454
6.4	0.0069221340081606	-0.00519698527656357	-0.00283036911536966	-0.00138070951628878	-0.00282064823862731	-0.00138561872653882	0.000893088064886456	-0.0124816628949961
6.5	0.00474789177948689	-0.00722350482596714	-0.00298440726033085	-0.000977451669989713	-0.00299226471574785	-0.000972973188194496	-0.000283070340234439	-0.0128733251687803
6.6	0.0029328014146349	-0.0082617982580568	-0.0030952551904589	-0.000553580550817008	-0.00309688818233482	-0.000557559283902177	-0.000334744338109311	-0.0123535315942646
6.7	0.000648330001760608	-0.00924668154403678	-0.00314635777100793	-0.000114216379110834	-0.00315521501458498	-0.000107932654906174	-0.000687724383727736	-0.012817519322733
6.8	-0.00184058805933453	-0.00930604864776385	-0.00312400230046547	0.000327978773536379	-0.00313509678748792	0.000333032361846544	-0.00148818493639729	-0.0129438160703104
6.9	-0.00400787899644133	-0.00889926980885219	-0.00304776323942283	0.0007602608606436	-0.0030507500128314	0.00076265160130351	-0.00212039411034583	-0.0132096793819042
7	-0.00674104274259577	-0.0081062997117119	-0.00291423905623219	0.00118047012846057	-0.00292707824779577	0.00117826635581198	-0.0041897311684569	-0.0134962639692145
7.1	-0.0084937888877606	-0.00580339670405099	-0.00273570065528694	0.0015726012810635	-0.00273202830782218	0.0015812743890846	-0.00519187720175872	-0.0115426186145501
7.2	-0.00965474979682727	-0.00391030948514141	-0.00247770849378854	0.00194043926030016	-0.00248424132161536	0.0019425240270147	-0.00499783692349396	-0.0105144841439693
7.3	-0.0107244518099115	-0.0017320211180995	-0.00218221332329881	0.00225896087082601	-0.00219343096907476	0.00226402249122278	-0.00456052319470913	-0.0100042454732727
7.4	-0.0112198632802228	0.000615326455628324	-0.00184188534573793	0.00254279438379416	-0.00184877318758785	0.00255641787264921	-0.0038664025452001	-0.0104023362713512
7.5	-0.0118700756067813	0.00259452091204144	-0.00147418412494625	0.00278544032931848	-0.00146717192734375	0.00279283993389583	-0.00459099282410131	-0.0121471042309433
7.6	-0.011711349048185	0.00583711914387151	-0.00106537082965832	0.00296133648107929	-0.00106675316251055	0.00295663849741588	-0.00572164810790651	-0.011887186498414
7.7	-0.0104874188527689	0.00820672803686373	-0.000637679962847922	0.00308172898137263	-0.000639021953778783	0.00308066820957354	-0.00625822443829216	-0.012553922647734
7.8	-0.00864957656712814	0.00998814118275499	-0.0002119730534477	0.00313122863937661	-0.000219779103244983	0.00313769868098092	-0.00732421590101042	-0.0131698065070282
7.9	-0.00634357342312119	0.0109947585538475	0.000230964575725518	0.00313882447773966	0.00023891589709281	0.00314031253705307	-0.00882460233315026	-0.0136541379704473
8	-0.00470694038839432	0.0116104125259005	0.000674298081284416	0.00306252127516833	0.000674390001064209	0.0030674203597518	-0.0116935049021799	-0.0131993741688989
8.1	-0.00166640039914756	0.0125684014893563	0.00108142152282785	0.00294440858631511	0.00110056367178477	0.00294547243500268	-0.0124219391895275	-0.0107980587202695
8.2	0.00122189239064686	0.0122094276324322	0.00148623140454612	0.0027644633867544	0.0014954709528006	0.00275725801372981	-0.0124295703064369	-0.00966378175899745
8.3	0.00384547175336433	0.0114037924108123	0.00186349304955642	0.0025248142615041	0.00186186841054256	0.00253836915459712	-0.0124453001626709	-0.00888161228573758
8.4	0.00639703523546043	0.0100089479599621	0.00219888632243417	0.002244658866443	0.00219585648573811	0.00224444002304578	-0.0124224758849864	-0.00876197047131604
8.5	0.00773196802279275	0.00795003040474443	0.00248045560352435	0.00191491315837762	0.00247956211476865	0.00191809437454036	-0.0142581221652534	-0.00882428703321847
8.6	0.0094082490706782	0.00680045913767604	0.00272874181857474	0.00155667993040801	0.00273823663110982	0.00155013180968891	-0.0150762413262864	-0.00644681285164312
8.7	0.0110227391583337	0.00449040901111484	0.0029148944746912	0.0011524615367058	0.00292045526402915	0.00115317778349202	-0.0146115320322598	-0.00510760089004525
8.8	0.0119532466586845	0.00188916207971411	0.00305011022761927	0.000740732482051397	0.0030558648355018	0.000731967781240999	-0.0141025460721481	-0.00439684773844587
8.9	0.0126055190003093	-0.00107450522468268	0.00312544727176433	0.000308151676419262	0.00312457498754501	0.000305907180021451	-0.0132851523365881	-0.00433301063057986
9	0.0119934601326653	-0.00461404339845232	0.00313829749270592	-0.000132901813142279	0.00314145625059968	-0.000128800587204092	-0.0139140119691056	-0.00496907581972433
9.1	0.011132166216667	-0.0073427395978673	0.0030916780726673	-0.000577912202446942	0.00309458128531111	-0.000565015954891284	-0.0141654065147443	-0.00391704573090858
9.2	0.00955385716176701	-0.0105712094722077	0.00297996047034699	-0.000995113540590212	0.00298761133648377	-0.000998000233965294	-0.0140597553442203	-0.00372837379113529
9.3	0.00694935123495099	-0.013236622671381	0.00281090924114613	-0.00139887701813415	0.00281017342929188	-0.00140386401543117	-0.014361702607027	-0.00339974720213042
9.4	0.00390960405801275	-0.0152547467264299	0.00259034255808232	-0.00178852027840136	0.00259685832891215	-0.00178092716910244	-0.0146780837067804	-0.00308516552264789
9.5	-0.000222056259650931	-0.0162763375712202	0.00231405988240542	-0.00212691640583171	0.00232147333825671	-0.0021282778701403	-0.016115798916466	-0.00223214922936386
9.6	-0.00351639103392634	-0.0158329203351232	0.00199359339987246	-0.00242782649498362	0.00199392491964427	-0.00242684585071358	-0.0158938346350025	0.000167201453308233
9.7	-0.00689781565891121	-0.0153956823588702	0.00162735717938432	-0.00267662739635411	0.00163287644919384	-0.00268393489730027	-0.0149576757050696	0.00126661789964503
9.8	-0.0104241037064587	-0.0141050970640341	0.00124317575293002	-0.0028856406831173	0.00124888023423761	-0.00287715554303308	-0.0141397176742058	0.00193659588051906
9.9	-0.013541547664679	-0.0120453614579074	0.000836658940257118	-0.00302606041172982	0.000829332949423407	-0.00302482216734459	-0.0133926473046891	0.00192653735901263
10	-0.0170621010044331	-0.00948607913749696	0.000403875970302578	-0.00311107055812253	0.000396371594297798	-0.00312347467944276	-0.0144757615834595	0.00162734118760448
10.1	-0.0192158223074204	-0.00515986352706408	-3.3906546052325E-05	-0.0031411397098942	-4.41124554562496E-05	-0.00313574747634912	-0.0146390008438641	0.00356917155643605
10.2	-0.020295266700269	-0.0010900309120118	-0.000479278075513777	-0.00310548824653684	-0.00048267718744869	-0.0031027106077843	-0.0136484414475716	0.00457923977375921
10.3	-0.0205791120230466	0.00327191079636265	-0.000912156851666592	-0.00299941173050327	-0.000904089003172116	-0.00300848004203576	-0.012496805857073	0.0050437928386456
10.4	-0.0196613729972498	0.00738576345202646	-0.00130885545974806	-0.00284195619576477	-0.00130717275189179	-0.0028481403328781	-0.0111421961797215	0.00437265661482939
10.5	-0.0187863666531834	0.0110735247219718	-0.00169378374137716	-0.00264338798081981	-0.00169069104130756	-0.00263042747536575	-0.0119369034958691	0.00325699344096234
10.6	-0.0165728817596891	0.0153070881328622	-0.00204705885970189	-0.00237799079354336	-0.00204487447901553	-0.0023818053816248	-0.0122709759858316	0.00403657193881431
10.7	-0.013879489499458	0.0187581437689111	-0.0023629269409533	-0.00207623160959824	-0.00235943913151918	-0.00207095899340334	-0.0124535659763894	0.00442173148722058
10.8	-0.0100340391388892	0.0221194860765956	-0.00263090852525133	-0.00171628654041451	-0.00262571826544884	-0.00172519398169033	-0.0121809592669578	0.00550305481390261
10.9	-0.00529610665058009	0.024456788886121	-0.00283674717354285	-0.00134442803040031	-0.00284192344898289	-0.00134370312702596	-0.0114543330858326	0.0058098082419945
11	-0.000881080715717992	0.0256254136534557	-0.00299963945708247	-0.000932676731595804	-0.00300446868305514	-0.000939418961228558	-0.0123239525987373	0.00591367070502661
11.1	0.00467216936667907	0.0267266032608669	-0.00310972007894206	-0.000504470295437477	-0.00309886977991944	-0.000501608698163156	-0.0116879433463766	0.00804415731659864
11.2	0.0103472847235381	0.025905402244372	-0.00313762678795176	-6.71275366884966E-05	-0.00314476860444904	-7.19607395189237E-05	-0.00994731534165963	0.00882633157770158
11.3	0.0156951977009146	0.0240197517160673	-0.00311100316112558	0.000379561537680931	-0.00312252033766835	0.000369528354670345	-0.00796936397310561	0.008871393403223
11.4	0.0206933013818751	0.021059254477678	-0.00304048023358038	0.000805794160238856	-0.00303558010076723	0.000813361727753837	-0.00615781997994583	0.00791382837850645
11.5	0.024220504946891	0.0170600270596212	-0.00289844946101556	0.00122630897418836	-0.00290122793612274	0.00123658542908637	-0.00653647446498963	0.00657835303348212
11.6	0.0278720291430796	0.0132610710582692	-0.00270058520823892	0.00161482237224624	-0.00270056612492649	0.00161775881425119	-0.00571679057519866	0.00707049028065629
11.7	0.0309124131601949	0.00808969314740165	-0.00244095871536336	0.00196761928491574	-0.00244152692830229	0.00197621281848268	-0.00413487866874772	0.00607380493711112
11.8	0.0329520976926963	0.00232427811248733	-0.00214779128765324	0.00230028834268978	-0.00215190443315542	0.00230198212686445	-0.00299744756284855	0.00428801724552567
11.9	0.0339957070048402	-0.00426394234463499	-0.00179844971801027	0.00257941783960837	-0.00181146889635435	0.00258372228493046	-0.00279183647714317	0.00169411579635357
12	0.032231847625442	-0.0109455045131984	-0.00142088995834472	0.002799460660219	-0.00142029420853656	0.00280086962647338	-0.00565425050063589	-0.00013707556822794
