# GHZ S RI R 50
0.2	0.00608220124074603	0.00141487830255268	0.00304637015969911	-0.000898451324122313	0.00305673538247497	-0.00089164960592713	-0.0137907691746871	0.00513283283351844
0.3	0.00636413299104814	-0.000644057702520233	0.00290154946978074	-0.00132162065899715	0.00289431368607197	-0.00130868806745554	-0.0130351666982924	0.0052217630993955
0.4	0.0061007326789584	-0.00248912084363829	0.00266925792302871	-0.00169273121133562	0.00267451652428621	-0.00170128614042788	-0.0125606495140825	0.00555594588710391
0.5	0.00501598971959666	-0.00382279777824069	0.00241049231032705	-0.00204793240605833	0.00242201383809304	-0.00206016043028438	-0.0125368179505195	0.00624558365972647
0.6	0.00431090029807259	-0.00456913251850683	0.00209864861972469	-0.00236215356304657	0.00209786188904254	-0.00236929547034937	-0.011799361403893	0.00729697156582719
0.7	0.00323231953101375	-0.00543546960037032	0.00175152592928936	-0.00263932090226253	0.00174957217821901	-0.00263951912768467	-0.0111693656726493	0.00784492349338557
0.8	0.00198027786228946	-0.00592199458137813	0.00136653504512838	-0.00285580069700161	0.00135395143998526	-0.00286034233370851	-0.0106363913725398	0.00850493044979193
0.9	0.000703365375192689	-0.00612933091492493	0.000950601317831421	-0.00301848845652472	0.000951635997834108	-0.00302917196180963	-0.00994545682388602	0.00901947569397102
1	-0.00104340935247766	-0.00631236657803527	0.000527174856939962	-0.00312250246790317	0.000517325118976486	-0.0031232447154603	-0.00978815460835093	0.00912019003921286
1.1	-0.00267300128756287	-0.0053105501137069	7.1402747414221E-05	-0.0031512233337695	6.7901578407093E-05	-0.00316885172849074	-0.00974234092973903	0.0103886362939178
1.2	-0.00376030997963635	-0.00473284778161155	-0.00036969535488712	-0.00314015235543486	-0.000370506377709943	-0.00313807910794462	-0.00876263429685109	0.0113368346781513
1.3	-0.00512104703894937	-0.00430180373014177	-0.000795588983138484	-0.00305722790746372	-0.000798823449680321	-0.0030592314234205	-0.00735923007213822	0.0120755406491043
1.4	-0.00627043722638322	-0.00373959472374433	-0.00121603633659364	-0.00291000333289755	-0.00121482187469054	-0.00291552849467295	-0.00564324693634131	0.0121211024578717
1.5	-0.00706220560670134	-0.00252207681654893	-0.00161741808445769	-0.0027144101570559	-0.00161580591337279	-0.00272289963170037	-0.00455848559561027	0.011952169884056
1.6	-0.00657998101236568	-0.000888721518952537	-0.00197639359082154	-0.00246163984144285	-0.00197660210186442	-0.00246686554817239	-0.00339059753058759	0.0122006993739335
1.7	-0.00591726973053037	0.000303860948460471	-0.00230376808190666	-0.0021661997301205	-0.00230473662058109	-0.00215994914367877	-0.00245243022530695	0.0121039338970108
1.8	-0.005044815254894	0.00154991737214856	-0.00257470432865691	-0.00181613394991758	-0.00258564890620276	-0.00182177165910117	-0.00166349280483378	0.0119952282684407
1.9	-0.00393037555903302	0.00236305566519176	-0.00280050626569581	-0.00144615991914278	-0.002812933739231	-0.0014400250891829	-0.00104640430051891	0.0116969946812772
2	-0.00315836135690522	0.0031078244143204	-0.00297509699452571	-0.00103866206728313	-0.00298470505908233	-0.00103396944018418	-0.00122367436425064	0.0117546206219739
2.1	-0.00153718600805992	0.00394693559895853	-0.00308859502269748	-0.000612953966601718	-0.00308451610490507	-0.000614936814205053	-0.000417648693406945	0.0126079704715841
2.2	9.41544593177399E-05	0.00392511711613739	-0.00314728046361802	-0.000175771803717675	-0.00315856358215709	-0.000178619511838706	0.000860322662367964	0.0127181535901575
2.3	0.00154883253843039	0.00347664899235972	-0.00314345939746479	0.000267112060341375	-0.00314314792435416	0.000260239198825973	0.00206474347974825	0.0124279177771681
2.4	0.00287168240226122	0.0026310729982308	-0.00307121643918425	0.000704777742643971	-0.00307374772138465	0.000700523488791506	0.00325471184417056	0.0117652205711201
2.5	0.0034691162965217	0.00136396296748828	-0.0029354193325436	0.00111468875275228	-0.002946303885754	0.00112103663249493	0.00358824760804751	0.0106348304448951
2.6	0.00415003813168555	0.000644161925558665	-0.00276435350885343	0.0015183447696234	-0.00276077471223685	0.00150604097657496	0.0039098509625907	0.0105283297927863
2.7	0.00494571855707553	-0.000584700866626372	-0.00251919952925364	0.00189041866740601	-0.00252447510883992	0.00189041978560666	0.00452354554646231	0.0101679285593296
2.8	0.00560881444983255	-0.00208176965488759	-0.00223704342488647	0.00221795822023207	-0.00222925504087866	0.00222775438269136	0.00512563636547713	0.0098755008254696
2.9	0.00605119842996701	-0.00398873737008477	-0.00190422675840151	0.00251788851231137	-0.0019005198845638	0.00251747010901827	0.00592725135542078	0.00945971482695865
3	0.00567264833511263	-0.00595106858191753	-0.00152027923147191	0.00275548342972124	-0.00153507274434634	0.00276154634235417	0.00627224751132796	0.00916724774574746
3.1	0.00545303596590611	-0.00764833105390055	-0.00112877835954844	0.00293416920917108	-0.00112413738037996	0.00294252003399002	0.00729979553128214	0.00933017339961872
3.2	0.00456882634209514	-0.00969369253443459	-0.00070862022182463	0.00307147185586923	-0.000710363189374046	0.00307085787781926	0.00824262822673118	0.00894209064932703
3.3	0.00313432781243139	-0.0115871241645287	-0.000270967600982832	0.00314229812316351	-0.000269310785240226	0.00313856163788478	0.0092287137078384	0.00835484019972444
3.4	0.00118521235510308	-0.0132031702397103	0.000175607348943309	0.00313842332472969	0.000169361627519508	0.0031549809286561	0.0101809313613496	0.0072658066875737
3.5	-0.00155228510654697	-0.0143335101415983	0.000599979436837668	0.00309697147479277	0.000605579575085357	0.0030970560213716	0.0101178149779615	0.00595596357077165
3.6	-0.0039567434033156	-0.0144342899353887	0.00102838659835225	0.0029766489965876	0.00103658147000988	0.00297634466012714	0.0104994081699493	0.00565387201403083
3.7	-0.00640586599786106	-0.0145171923364081	0.00143893911845242	0.00279694052876505	0.00142932279150576	0.00281060533375322	0.0112500830623168	0.00472419969264344
3.8	-0.00900983760824526	-0.0140492891842298	0.00181831766449628	0.00257092120866742	0.00182070736531942	0.00258008290227316	0.0117503073140765	0.00347974833872898
3.9	-0.011449199536381	-0.0131513048956734	0.00216624690010438	0.00229772182651773	0.00215897631529139	0.00229593035791669	0.0118691493525067	0.00190191208880708
4	-0.0141416501098344	-0.0116163384227424	0.00245059815612769	0.00197452435769406	0.00245505165468154	0.00197209404655893	0.0108872977691734	0.000693682409191354
4.1	-0.0157987248617844	-0.00915828060890993	0.00270236036326292	0.00161664032914037	0.00270110570195689	0.00161737426778184	0.0107415298449845	0.000813692991548393
4.2	-0.0170232317465133	-0.00690643608997424	0.00290361658351597	0.00121563134704324	0.00290810215905127	0.00120691467707858	0.0111433471954801	0.000312224940286681
4.3	-0.017951151150299	-0.00450496255807734	0.00304789320206485	0.000802635969539906	0.00305433480026322	0.000794834291633267	0.0114783567427945	-0.000561254195407933
4.4	-0.0185299784072956	-0.00202424034793239	0.00312409574527331	0.000367471144184206	0.0031264752743794	0.000365215949482977	0.0115820216928648	-0.00179161769289425
4.5	-0.0192180692311773	0.000645156792942995	0.00314705558254499	-6.84659592972804E-05	0.00315242734094281	-7.18302562741911E-05	0.0106582530343188	-0.0029963258572954
4.6	-0.0188993632777274	0.00400656054684372	0.00310661812144816	-0.000512572458740876	0.0031078226953173	-0.000499634878448503	0.0101871356927251	-0.00302956406403438
4.7	-0.0178412378404473	0.00685138727221258	0.00300195893081961	-0.000933682113646286	0.00301728778759621	-0.000943291980531992	0.0100863493938144	-0.00354014380229338
4.8	-0.0163841098345181	0.00949851699008635	0.00284081375317666	-0.00134915228128168	0.00284931567990978	-0.00135523994582475	0.00995512717267067	-0.00406546155656473
4.9	-0.0142176439258443	0.0116945246319852	0.00262046697532236	-0.00173368881095537	0.00262463572708741	-0.00173077224767171	0.00995526611926147	-0.00478044299725096
5	-0.0120745263301859	0.0134537795181549	0.00236312051973197	-0.00209170873180819	0.00236674755940771	-0.00208903161590714	0.00942743061387746	-0.00538937648605998
5.1	-0.00872450959717849	0.0150055423558356	0.00204947726385284	-0.00240558910366658	0.00205178304724969	-0.00240422650659249	0.00992758617986387	-0.00538358139281878
5.2	-0.00545669709346613	0.0152336647330835	0.00169016301112002	-0.00265571119997939	0.00169188230273487	-0.00266086469483047	0.0105320931474333	-0.00642089756686546
5.3	-0.00246234100921207	0.0149386483404174	0.00130271474497741	-0.00287172085775332	0.00130585322481805	-0.00286965222228711	0.0106294859209973	-0.00766825773123803
5.4	0.000312550853297473	0.0141256222026229	0.000877126904526702	-0.00302092101859128	0.000894340696172437	-0.00303215187763022	0.0103396136412186	-0.00923169759179064
5.5	0.00230201332026539	0.0132511059981302	0.000459122980175313	-0.00312023443573114	0.000469196902545002	-0.00312969620153661	0.0086602830104457	-0.0102891377296806
5.6	0.00514200733188712	0.0123780613474767	1.90134567691988E-05	-0.00315311413666319	1.04692745454079E-05	-0.00315633148566902	0.00819594856234567	-0.00988310873035705
5.7	0.00742409441090037	0.0102888668089641	-0.000412203246175247	-0.00312200923769703	-0.00042884833223275	-0.00312566490253096	0.00810592462154063	-0.0103956735027342
5.8	0.00901396615112926	0.00789471662115065	-0.000859276805132944	-0.00302677663293209	-0.000862830608849011	-0.00304078963164872	0.00785855705093735	-0.0113565360514568
5.9	0.0100637302292093	0.00513543542902153	-0.00126634881458939	-0.00288558294612917	-0.00127459530170676	-0.0028854899351799	0.00732759114888034	-0.0129560900898652
6	0.00954247897314023	0.00205195965892153	-0.00166401986336962	-0.00267495527917133	-0.00166045582567479	-0.00267512800813576	0.00472640931072721	-0.0148880076945192
6.1	0.00885818271488684	0.000288295964069036	-0.00201697660768014	-0.00242151989665232	-0.00201861423826871	-0.00241751041157009	0.00214420842529848	-0.014192760267661
6.2	0.00800369106020808	-0.00175919168061765	-0.00233085154404874	-0.00210819583789655	-0.00233457740628259	-0.00212007862582265	0.000652206123154355	-0.0134363369874773
6.3	0.00696452634640466	-0.00349541842152379	-0.00260919856380579	-0.00177213655896459	-0.00261833114244562	-0.00176637767981995	-0.000153868803020271	-0.0126241680767165
6.4	0.0058153509660185	-0.0054190327519719	-0.00283425481983356	-0.00137918099966032	-0.00282453002898947	-0.00138410410859044	-0.0003166754438921	-0.0124877785318355
6.5	0.00383579126143899	-0.00690007337346196	-0.00298858798818918	-0.000975970021637567	-0.00299645036691092	-0.000971479752693166	-0.00133851447289999	-0.0123034398895683
6.6	0.00257360537549183	-0.00794571657034461	-0.00309947534885936	-0.000550183539072493	-0.00310111535906292	-0.000554164649469849	-0.000807264719718515	-0.0116934471406965
6.7	0.000479788760961368	-0.00903002753207685	-0.00314929829036037	-0.000109805118998386	-0.00315815433949491	-0.000103503147492225	-0.000894182022224644	-0.0122299091985819
6.8	-0.00183833994183098	-0.0091754474528549	-0.00312579942112331	0.000332694838852821	-0.00313689471615754	0.000337767997952099	-0.00146829805410962	-0.0124567824724646
6.9	-0.0039934525321011	-0.0089245192802217	-0.00304894463564336	0.000765038083917845	-0.00305193028829704	0.000767434712503421	-0.00206606032180551	-0.0129282372769339
7	-0.00678304716624953	-0.00783742850851086	-0.00291459653547166	0.00118656942892587	-0.00292745029887491	0.00118438635495813	-0.00426057136961563	-0.0129554729814597
7.1	-0.0080062900260067	-0.00560934624618561	-0.00273369234303488	0.00157836053332888	-0.00273000220677647	0.00158702976908233	-0.00476255977251912	-0.0109828721369451
7.2	-0.00903363114899197	-0.0040349671539898	-0.00247468708325029	0.00194520628354946	-0.00248121735436001	0.00194730307931337	-0.0043639886560099	-0.0102091581326546
7.3	-0.0100483448684611	-0.00211630570650434	-0.0021785063535556	0.00226308452470156	-0.00218971647948111	0.00226816652876437	-0.00376731512703494	-0.00995094545595685
7.4	-0.0105717526194951	-0.000144930796524551	-0.00183719601383165	0.00254659142111733	-0.00184405842400542	0.0025602295340436	-0.00299905470706734	-0.0108234785091483
7.5	-0.0116089173300842	0.00171099459836697	-0.00146759254263232	0.00278760213950219	-0.00146056690072263	0.00279498377770079	-0.00412764368063317	-0.0128563498551556
7.6	-0.0114171824284583	0.00483320838568247	-0.0010593002120051	0.00296137827645988	-0.00106069020765181	0.0029566858169893	-0.00527489689187797	-0.0127555092987503
7.7	-0.0105676282396852	0.00702393165285112	-0.000631871170352703	0.00308071872702749	-0.000633214085847019	0.00307966102381363	-0.00626120357167452	-0.0136123163777688
7.8	-0.00906309582935087	0.00897822448203905	-0.000206375977266202	0.00312897946327814	-0.000214164305978941	0.00313545761108034	-0.00770660837687126	-0.0140640899534987
7.9	-0.00690867709951295	0.0102846584750725	0.000236074319672456	0.00313496986190861	0.000244019419505246	0.0031364426919289	-0.00944021512494617	-0.0142457749425097
8	-0.00512332523653662	0.0114918763889639	0.000677055867270893	0.00305743817316039	0.000677153574101426	0.00306233031776904	-0.0122832910843063	-0.0131453909906009
8.1	-0.00161176224868382	0.0122392583299177	0.00108323374806622	0.00294018897003086	0.00110235660832592	0.00294123242816322	-0.0125488734287291	-0.0108150670520304
8.2	0.0012332458919335	0.011648434825821	0.00148767692980108	0.00275997338123431	0.00149689904742738	0.00275276550870739	-0.0125452194489331	-0.00981981166416525
8.3	0.0037170147133524	0.0107687449777973	0.00186408639795492	0.00251990919191895	0.00186247826394831	0.00253345031499157	-0.0126329612181501	-0.00907590804443743
8.4	0.00603656645799687	0.0093808769612189	0.00219806885843661	0.00223976876307845	0.0021950427439766	0.00223955293937885	-0.0127848241286689	-0.00897304029783405
8.5	0.0072235922719469	0.00782571483845449	0.00247937778181901	0.00191132840212052	0.00247848737296662	0.00191450714956497	-0.0148246843801008	-0.00857070204668347
8.6	0.00939867161254418	0.00673133635469085	0.00272762621557959	0.00155220834614738	0.00273710445924231	0.00154565679552643	-0.0151667612163871	-0.00602462754424206
8.7	0.0111174028579399	0.00419160843037603	0.00291239743889584	0.0011479407310694	0.00291795191058824	0.00114865023768048	-0.0145053118956548	-0.00483824088161403
8.8	0.0120296658188945	0.00139626370663317	0.00304649214552855	0.000736900068143202	0.00305223063414083	0.000728142448201421	-0.0138902236555434	-0.00432003650700009
8.9	0.0124913135827923	-0.00178588979213515	0.00312143471582159	0.000305333315609072	0.00312056189438347	0.000303092540249684	-0.013154533227766	-0.00456373248091502
9	0.0115470202909275	-0.00514394559699284	0.00313392882265732	-0.000136183509028434	0.00313708785309604	-0.000132091283670606	-0.0141250177761724	-0.00514465696513027
9.1	0.0107280064234529	-0.00782288045308146	0.0030852159131202	-0.000579882454461359	0.00308812640610535	-0.00056701365154095	-0.01437094574894	-0.00408483046154458
9.2	0.00896957149796186	-0.0108941292686439	0.00297324263305765	-0.000994971404543293	0.00298087604116768	-0.000997857055220536	-0.0144729902378065	-0.00378510774498276
9.3	0.00642521846910946	-0.0132533054728629	0.00280468597675464	-0.00139720330644687	0.00280394962145731	-0.00140217997134024	-0.0147706105575204	-0.00318699290755
9.4	0.00353894030330431	-0.0151184461845653	0.00258460734846509	-0.00178611364533516	0.00259111360305266	-0.00177853786476586	-0.0149868304585315	-0.00273329714917685
9.5	-0.000280048022383495	-0.0158079645172972	0.00230770388742248	-0.00212267976383276	0.00231509903118723	-0.00212404074706047	-0.0162421055791696	-0.00152674874187024
9.6	-0.00300362889544031	-0.0156351587608291	0.0019893299171429	-0.00242149670303136	0.0019896604097757	-0.00242051835425969	-0.0154891420628712	0.000741006428473094
9.7	-0.00627703074914983	-0.0155426982784004	0.00162490461152109	-0.00266996676514894	0.00163041479211121	-0.00267725561293977	-0.0143766906121964	0.00158141573616715
9.8	-0.00977159601849551	-0.0145266915943358	0.00124202177933519	-0.00287879835091898	0.00124770957409036	-0.00287032842296561	-0.0134344782468722	0.00199125638394936
9.9	-0.0129991506602347	-0.0127634856000487	0.000836613390809086	-0.00301873079340367	0.00082930316003147	-0.00301749979540665	-0.0127338871852356	0.00161127023025248
10	-0.0166757446210394	-0.0101155962110928	0.000406697478573874	-0.00310344580114126	0.000399225265216306	-0.00311583050357429	-0.0140373298452816	0.00131274166353236
10.1	-0.0186248246079316	-0.00611159695157258	-2.97626374165646E-05	-0.00313571378253852	-3.99577864774263E-05	-0.00313034421132933	-0.0140465107967809	0.002992682972203
10.2	-0.0200052281659083	-0.00241192876228881	-0.000474859355148107	-0.00310096783333428	-0.000478256156135607	-0.00309819871768482	-0.0133198547956172	0.00366925679492674
10.3	-0.0206979286329205	0.00182929728385818	-0.000907076222915533	-0.00299539606828774	-0.000899011384942951	-0.00300443948868898	-0.0125205505663504	0.00400184043020996
10.4	-0.0202647441424674	0.00598987465039289	-0.00130238930025545	-0.00283876280115292	-0.00130070063905881	-0.00284493341908262	-0.0116128626558854	0.00329544312492123
10.5	-0.0197085169185306	0.0102400090150069	-0.00168703914362364	-0.00264281471407627	-0.00168397267032528	-0.00262986593351374	-0.0128214988025342	0.00264650360445158
10.6	-0.0173417417007079	0.0146881848037492	-0.00204096897186641	-0.00237783478387533	-0.00203878195260003	-0.00238164125587658	-0.0131124125757764	0.00367991717487639
10.7	-0.0145015864145819	0.018390676763247	-0.00235627627167317	-0.00207707748575771	-0.00235280180715275	-0.00207180673546718	-0.0132556776621145	0.00448151261231884
10.8	-0.0106886329118756	0.0218613010898977	-0.00262438492817933	-0.00171891529804366	-0.00261918497259747	-0.00172780179102056	-0.0129671624268167	0.00565461296377078
10.9	-0.00594224544409767	0.0242713501879253	-0.00283135450238212	-0.00134884603955918	-0.00283652731753926	-0.00134813221541419	-0.0122117873622262	0.00607551547813923
11	-0.00139727768842056	0.0259470130578498	-0.00299595457472432	-0.000936739188132705	-0.00300076957102946	-0.00094348409967358	-0.0130217292961546	0.00671751967964709
11.1	0.004709322386997	0.0269477285735247	-0.00310551447048416	-0.000509265877521841	-0.00309468073575914	-0.0005063887305997	-0.0118082464971996	0.00890905447388664
11.2	0.0105130224203583	0.0259069676071572	-0.00313449484023142	-7.32877807573237E-05	-0.00314162024283967	-7.81305321640256E-05	-0.00980561407719775	0.00955468175139251
11.3	0.0158691746406679	0.0238964798133506	-0.00310956917639516	0.000372813438462907	-0.00312105723094316	0.000362763451210691	-0.00767582721043597	0.00945053348172342
11.4	0.0207821662611387	0.0208143035566574	-0.00304045636812534	0.000799522416612899	-0.00303557334505652	0.000807095498007198	-0.00583081399484938	0.00828813208323626
11.5	0.0243511462268396	0.0170703467286822	-0.00289818726006266	0.00121965637556016	-0.00290098290553475	0.00122991825896908	-0.00615543302221646	0.00711315155312929
11.6	0.0283910699398682	0.0130283431342431	-0.00270265388791433	0.00160712919282264	-0.00270264197042877	0.00161006365370274	-0.00493950404106949	0.00734999559580656
11.7	0.0313612276229299	0.00753578127669392	-0.00244501912683297	0.00196090026434961	-0.0024456084711808	0.00196948949504546	-0.00335682807695263	0.0059709727478737
11.8	0.0332004297782559	0.00161952950789339	-0.00215299435018499	0.0022947664550178	-0.00215711093660683	0.00229645008244365	-0.00238166100547597	0.00389916014910871
11.9	0.0341198363677099	-0.00497063110818606	-0.00180415604226648	0.00257454918170226	-0.00181718241712364	0.00257882171831617	-0.00233024948742362	0.00107095848497616
12	0.0323534912871335	-0.0110903696731939	-0.00142903169104799	0.00279509994063133	-0.00142844012390356	0.00279651056765238	-0.00544201917285019	-0.000298956589327133
