# GHZ S RI R 50
0.2	0.00581331035859528	0.000649099419131374	0.00305185171871898	-0.000896938054024881	0.00306222627387016	-0.000890116195765183	-0.014225099167421	0.00423029040042322
0.3	0.00614551368393291	-0.00111654406222154	0.00290868923790323	-0.0013207903574678	0.00290142442033026	-0.00130784123817859	-0.0134114395191854	0.00461478415779422
0.4	0.00589443765051679	-0.00250931728141714	0.00267809955590483	-0.0016936326397442	0.00268338213878476	-0.00170220247385482	-0.0128725792626388	0.0054259086820612
0.5	0.00562360750721021	-0.00400751846078937	0.00241921326941971	-0.00205247656802919	0.00243077816508178	-0.00206473370715733	-0.0118073115523513	0.0059106289156113
0.6	0.00413238831450338	-0.00545933786242429	0.00210586622365497	-0.00236747920695154	0.00210508150882067	-0.00237464141105405	-0.0117579572500245	0.00591159259914231
0.7	0.00252504766766446	-0.00587489970785403	0.00175871747590404	-0.00264623664073681	0.00175675785369931	-0.00264643681286193	-0.0118075330571218	0.00665832413519007
0.8	0.00107926686817631	-0.00597760631170179	0.00137269202861681	-0.00286501371003472	0.00136006709068115	-0.0028695773498759	-0.0116970616351028	0.007579438008649
0.9	-0.000453325413069983	-0.00560060666191376	0.000954099717331026	-0.00302978380016181	0.000955138074028222	-0.00304050724241934	-0.0115625025015897	0.00875806382037283
1	-0.0011908366364534	-0.0048179227557461	0.000527660483172915	-0.00313261533483312	0.000517779195044046	-0.0031333561915695	-0.0104334350802519	0.0102747872438487
1.1	-0.00228286379705768	-0.00515344456733369	7.20788292854255E-05	-0.00316205155151431	6.85680270436934E-05	-0.00317974105375544	-0.00942784816432823	0.0103460718664247
1.2	-0.00406096727362355	-0.00499426241872203	-0.000371687286359753	-0.00315233749444782	-0.000372501110091816	-0.003150256017178	-0.00882754853616946	0.010767572188511
1.3	-0.00598199373425771	-0.00473617440943193	-0.000800679742636096	-0.00306901856128609	-0.0008039284462474	-0.00307102812313947	-0.00771787898918693	0.0110751054527499
1.4	-0.00761673077878194	-0.00382405751774163	-0.00122335351934109	-0.0029197827164576	-0.00122213971840463	-0.00292532977605634	-0.00646898473107204	0.011094514313425
1.5	-0.00781109454908372	-0.00250888309574483	-0.00162438092028174	-0.00272407507620964	-0.00162276547313181	-0.00273259696172591	-0.00477033379417478	0.0106551296134274
1.6	-0.00797870459724545	-0.000795144509832539	-0.00198777794338722	-0.00247171779721938	-0.00198799169485388	-0.00247696814101493	-0.00460049178259029	0.01047246673152
1.7	-0.0071097293556242	0.00116015398254295	-0.00231802972990092	-0.00217285402794481	-0.0023189931186012	-0.0021665723867685	-0.00397566894661377	0.0111192982494893
1.8	-0.00587533058731258	0.0027683880819497	-0.00258982572383723	-0.00181940826922678	-0.00260083058751626	-0.00182505048314186	-0.00312540051769648	0.011611159150072
1.9	-0.00434142747574485	0.00402646366579884	-0.0028155968189798	-0.00144740644334291	-0.00282806809433045	-0.00144122146847336	-0.00214332959781396	0.0121598501787986
2	-0.00230979213576587	0.00446020094519773	-0.00299349088054662	-0.00103809622527538	-0.00300314150192581	-0.00103335790070213	-0.000546921605729461	0.0121927505316381
2.1	-0.00126432358077241	0.00427397214829988	-0.00310676521237859	-0.000605261211845736	-0.00310267212628675	-0.000607268695551987	2.17334409425076E-05	0.0115191092182742
2.2	-6.8939471115672E-05	0.00448308134146267	-0.00316255578960433	-0.000164498218735025	-0.00317390218857935	-0.000167315797770063	0.000632351532799616	0.0114876036216873
2.3	0.00127588251609524	0.00425456936539831	-0.00315651853570881	0.000280922723545102	-0.00315623323274906	0.000274017717306293	0.00132355362337658	0.0113454005422667
2.4	0.00254103063947141	0.00382519229019186	-0.00308282482650007	0.000721575583447114	-0.00308538681472382	0.00071731204789381	0.00202229626402251	0.0114537103777914
2.5	0.00419079036540177	0.00285066980949322	-0.00294226983662442	0.00113729426037735	-0.00295316660173832	0.00114373613846732	0.00363634913651081	0.0114259492683613
2.6	0.0048887989031393	0.000920334237704899	-0.00276392358244376	0.00153982041417714	-0.00276040772132566	0.00152745616415125	0.00474957822202221	0.010156792456518
2.7	0.00512232867363126	-0.000568411454252892	-0.00251545858459019	0.00191082845701694	-0.00252074966451392	0.00191086068328379	0.00520088131995236	0.00920636351197512
2.8	0.00529717200698095	-0.00201959540309756	-0.00222956881632913	0.00223817779778145	-0.00222169734282275	0.00224795321351729	0.00545131281409308	0.00858586965870505
2.9	0.00546534242413674	-0.00348258099905183	-0.00189115394767044	0.00253754096617341	-0.00188744088076197	0.00253709536752341	0.0059917256337679	0.00844725784014963
3	0.00559798557272534	-0.00545839367589159	-0.0015011226702995	0.00276862929364751	-0.00151588223994049	0.00277480525063504	0.00726703628028483	0.00795767308256849
3.1	0.00460258053129356	-0.00744522288044383	-0.00111091638226926	0.00294306111059206	-0.00110621985625474	0.00295138762105067	0.00763504604628301	0.00697403746114935
3.2	0.0033931952457383	-0.00889991442392869	-0.000688805787088645	0.00307806326747631	-0.000690553892308614	0.00307746040122675	0.00786613362482186	0.00664777164781292
3.3	0.00193015175958294	-0.0102893890399709	-0.000249085780500682	0.00314454860482538	-0.000247454831010048	0.00314080013655866	0.00833647104354918	0.00631463820282954
3.4	0.00013198948861637	-0.0112576485209226	0.000197576229180967	0.00313416420694588	0.000191453313048254	0.00315074993207311	0.00898437282669732	0.00597281508690031
3.5	-0.00156734381175801	-0.0123136147607458	0.000616569276523594	0.00308913345640477	0.000622161832209132	0.00308918632123486	0.0100886074787484	0.00497816533131282
3.6	-0.00437616706911909	-0.0130373218317195	0.00104562417026401	0.00296885016215507	0.00105381268723782	0.00296849697166951	0.0100806629414692	0.00353577368024887
3.7	-0.00701960636347131	-0.0126710589314379	0.00145551556712325	0.00278449961536242	0.00144599864061359	0.00279821176961577	0.00998565549240015	0.00281063802434379
3.8	-0.00941834090172706	-0.011852749047957	0.00183152419445898	0.00255459462044944	0.00183396836612788	0.00256372438248657	0.0100030013143421	0.0022408838905023
3.9	-0.0114502075151144	-0.0106009379923629	0.0021745953300044	0.00228020259089865	0.00216733064493334	0.00227845676029725	0.0102063181336364	0.00190127735978555
4	-0.0130042711563752	-0.00949185421429197	0.00245916963971143	0.00195838711025183	0.00246360439894231	0.00195593407105833	0.0111921136177326	0.00114363400926614
4.1	-0.0152728567673891	-0.00805293990494504	0.00270848197517754	0.00159446752735396	0.00270723492342265	0.00159520887075964	0.0112630451849485	-0.000249083210121765
4.2	-0.0169652721120314	-0.00562074715349364	0.00290332447176537	0.00119223333274073	0.00290773733431188	0.0011835118360033	0.0112000403695304	-0.00104420206252861
4.3	-0.0180201444883749	-0.00303136984017392	0.00304275120574326	0.00078039180920107	0.00304912105950613	0.000772575174395474	0.0112125245732555	-0.00184980416445214
4.4	-0.0186063597466264	-0.000188967913551895	0.00311650897906022	0.000346713814662805	0.00311886682989922	0.000344450836316978	0.0112003212853393	-0.00241143140933454
4.5	-0.0183533538544487	0.00234709630625987	0.00313486634847383	-9.26057552925623E-05	0.00314019212942105	-9.59992264489161E-05	0.011953383715756	-0.00332877971982625
4.6	-0.0187146266361414	0.00469768767416999	0.00308530316095135	-0.000531537153103202	0.00308659201386911	-0.000518681787366825	0.011579672384919	-0.00511228916217052
4.7	-0.0183249941923366	0.00781044541086304	0.00297802604720639	-0.000946473128808413	0.00299320293575117	-0.000956118962159444	0.0107896140636697	-0.00616026791323654
4.8	-0.017154125539601	0.0108475201712047	0.00281529364122636	-0.00135730193651489	0.00282370725709687	-0.00136340124375671	0.0100160166486458	-0.00683431418370452
4.9	-0.01501894250133	0.0136766762269842	0.00259234731863609	-0.00173820431938471	0.00259650615897748	-0.001735332793935	0.00948211110768949	-0.00701015089227336
5	-0.0119747718976143	0.0153847665775976	0.002330584869853	-0.00208650328452338	0.00233419493090437	-0.00208387006634598	0.0100151305082342	-0.00753776915221851
5.1	-0.00932530303718035	0.0165481083796461	0.0020230915799525	-0.00239206623102245	0.00202538224665351	-0.00239072370577845	0.00964552071336217	-0.00871910882258009
5.2	-0.00610702733632216	0.0173741975296369	0.00166743984819438	-0.00263884774188241	0.00166912814543939	-0.00264396349786648	0.00926661846488726	-0.00928185575295433
5.3	-0.00280806858248305	0.0173196041801896	0.00128279556879572	-0.00285050699555513	0.00128591278171675	-0.00284846576350883	0.00903394024843666	-0.00970531491939373
5.4	0.000298879154901045	0.0167515570942024	0.000861527738339177	-0.00299363325710956	0.000878548007668979	-0.00300479536631663	0.00907776618502019	-0.0100639090552753
5.5	0.00329843555495063	0.0151526875286649	0.000454814421466901	-0.00308980466676828	0.000464790679027533	-0.00309917369745806	0.00970729071721663	-0.0113956579463866
5.6	0.00481731708880736	0.0135458072580677	1.92038817279385E-05	-0.00312700954054451	1.07307858041228E-05	-0.00313020119780003	0.00840517492653516	-0.0130557584903831
5.7	0.00662048842056109	0.012255745998079	-0.000408483365731506	-0.00309555962415178	-0.000424987015399322	-0.00309918547683484	0.00698395059935378	-0.0134635319763851
5.8	0.00834961035976957	0.0104171461363994	-0.000849565465528632	-0.00300064180828425	-0.000853078057663149	-0.00301453351385297	0.00581442070960835	-0.0137026745797027
5.9	0.00971934978519498	0.00828789681311698	-0.0012492922729512	-0.00286290067669215	-0.00125746666120971	-0.00286282550066359	0.00471379466367365	-0.0134791943104766
6	0.0110181055061137	0.00513309256914017	-0.00164621315835145	-0.00266079946517995	-0.00164267294163224	-0.00266096237317208	0.00475496866672816	-0.0134501359274776
6.1	0.00993077008679838	0.00141682282559312	-0.00199895510226801	-0.00240632032684829	-0.00200058591199395	-0.00240234251449315	0.00372436599392584	-0.0146060755807101
6.2	0.00805799901202811	-0.00086328301426978	-0.00230805959619337	-0.00209615841020817	-0.00231173179518045	-0.00210795429888492	0.00224767571553709	-0.0148360823676003
6.3	0.00629329224066804	-0.00236445327248409	-0.00258371476502095	-0.00176588950925115	-0.00259279284812352	-0.0017602020234485	0.00108113120236278	-0.0147076916453017
6.4	0.0049188637247667	-0.00343229568324869	-0.00281015234645907	-0.00137936635333368	-0.00280047743911711	-0.00138422268625705	0.00059024749081824	-0.0141990717347241
6.5	0.00373859191151028	-0.00523273493393724	-0.00296600592694477	-0.000975144711824436	-0.00297382287297437	-0.00097070103739509	0.001095057975417	-0.0149285144995457
6.6	0.00130573025913902	-0.00609986474662534	-0.00307168415252352	-0.000555525423941748	-0.00307329759874615	-0.000559478379839342	-3.31991661606458E-05	-0.0159077536875696
6.7	-0.000580644085613284	-0.00626771223674933	-0.00312380041011058	-0.000122941681903384	-0.00313261416306814	-0.000116729149093571	-0.00123221548065307	-0.0160328014726379
6.8	-0.00257138084024583	-0.00607891645626123	-0.00310471873278234	0.000314934388475627	-0.00311575830505534	0.0003199162223793	-0.00246084495300341	-0.0157033924356107
6.9	-0.00432174124119199	-0.00520494185439459	-0.00303108484009074	0.000745880573626622	-0.0030340604641926	0.000748246920080673	-0.00317254017844754	-0.0146954118009031
7	-0.00549804932332816	-0.0048324903510131	-0.00289536701656889	0.00116091619724681	-0.0029080970697842	0.00115868475646781	-0.00251548809168235	-0.0147671678713221
7.1	-0.00808214026845278	-0.00362068207926438	-0.00272452411246921	0.00154575115993227	-0.00272092728674897	0.00155438146436926	-0.00387089881226736	-0.0155197715668101
7.2	-0.00951817973583521	-0.00121104380591062	-0.00247361119790945	0.00191312699742042	-0.00248011494341318	0.00191515908004708	-0.00516392034440193	-0.0150180203288363
7.3	-0.0102323203332892	0.00122909995626523	-0.00218298967837959	0.00223189130429855	-0.00219417092568155	0.00223685325317845	-0.00610260170252721	-0.0143202054046812
7.4	-0.0102415800946706	0.0038003707929951	-0.00184677585474924	0.00251441254341496	-0.00185370899351302	0.0025279035351068	-0.00686192308044451	-0.0132174637024254
7.5	-0.0091570654386889	0.00529455599239921	-0.00148996597237867	0.00275586806856488	-0.00148306073654909	0.00276328545261453	-0.00584960678423613	-0.0126557060134643
7.6	-0.00954816715315144	0.00615666487047935	-0.00108728839201071	0.00294075061470374	-0.0010886242865704	0.00293605835165682	-0.00611066922477023	-0.0139201947779756
7.7	-0.00960906794030271	0.00805180456861272	-0.000661355609303061	0.00306590715044683	-0.00066268414350158	0.00306483873028061	-0.00732233586082779	-0.0145256764021568
7.8	-0.00881740753881915	0.0100732362045315	-0.000238470335630102	0.00311917603096093	-0.000246307106797017	0.0031255571912003	-0.00845930788611254	-0.0144693447595396
7.9	-0.0070564167454074	0.011897025274341	0.000199619800138643	0.00313240874679841	0.000207534587993117	0.00313397047935566	-0.00896923713860722	-0.0139284106478813
8	-0.00478855310973645	0.0123581997893483	0.000643501478148959	0.00306863906471566	0.00064354433664107	0.00307353805799845	-0.00881052421120125	-0.0145663774473391
8.1	-0.00323665696266842	0.013454821420347	0.00105635350748061	0.00295352413021622	0.00107548608601501	0.0029547507292497	-0.0106497988580293	-0.0149449053277653
8.2	-0.000602993631337166	0.0142157158015908	0.00146204561588924	0.00277717893853497	0.0014713471457044	0.00277005458101413	-0.0119873097486537	-0.0141850262444853
8.3	0.00212512845673915	0.0141411063733295	0.00184148189958882	0.00254327895749926	0.00183973247396447	0.00255682671653734	-0.013026932605725	-0.0131815212134871
8.4	0.00490572662171266	0.0136703282474067	0.0021829258743773	0.0022695864201239	0.00217989164589529	0.00226933930080368	-0.0136231170752427	-0.011705225307373
8.5	0.00781528011128103	0.0116670511680431	0.00247383417339778	0.00193740383683364	0.00247291607935284	0.00194058745478659	-0.0129257183192017	-0.0111331772592847
8.6	0.00882528872900688	0.0097196777546171	0.0027213110978728	0.00157906056447912	0.00273086811515445	0.00157257266355989	-0.0139438128097258	-0.0114328029943267
8.7	0.0103146325939832	0.0081150848877894	0.00291198426600911	0.00117807182514018	0.00291755127258514	0.00117883375585192	-0.0150803072725874	-0.010721149395106
8.8	0.0117371513532756	0.00590114061351949	0.00305378166271052	0.000766672895978008	0.00305962200597455	0.000757925765305073	-0.0161599249593856	-0.0097435129330677
8.9	0.0129786268983169	0.00315268357212712	0.00313486021913088	0.000329880735313097	0.00313399953510062	0.000327622271045103	-0.0167042919456439	-0.0079739009550384
9	0.0137707963757089	-0.00100277216889699	0.00314525061485879	-0.000113052636267903	0.00314838923701534	-0.000108923198003249	-0.0155822790487836	-0.00681854482711202
9.1	0.0122162305951018	-0.00513308737758715	0.0031053362192709	-0.000554911025549967	0.00310814492811028	-0.00054195387220685	-0.0156011130088851	-0.00674355847265657
9.2	0.00998705626449355	-0.00836540077868806	0.00299972964771148	-0.000976343875901623	0.00300743381130081	-0.000979183731596996	-0.0156845895360347	-0.00605889196159902
9.3	0.0070276354440321	-0.0108973290771206	0.00283336464014097	-0.00138539837524214	0.00283266058152485	-0.00139041293760515	-0.0155540119516455	-0.00519675037539838
9.4	0.00384912406634601	-0.0124084206075652	0.00261262047733763	-0.00177808530383544	0.00261911067632322	-0.00177041829861123	-0.0149546341312638	-0.00406132102407254
9.5	0.000407251973409277	-0.0139122163704668	0.00234311968006619	-0.00211622284528545	0.00235057846143796	-0.00211752548801874	-0.0136628598519444	-0.00422960391967084
9.6	-0.00417793737609064	-0.0136919712322315	0.00202648731948183	-0.00242867924200184	0.00202681334564776	-0.00242768924993093	-0.0143397155781428	-0.00458996162442455
9.7	-0.00773887812697278	-0.0123195580787378	0.00165749228655492	-0.00268485995341903	0.00166310162588057	-0.00269218255180353	-0.0148928657350306	-0.00394969901160327
9.8	-0.0109013457317532	-0.0105259560970788	0.00127104967667736	-0.00289872671100986	0.00127674085128669	-0.00289014225645412	-0.0153193919880817	-0.00298984694859745
9.9	-0.0134907016170296	-0.00810228565942396	0.00086454058307457	-0.00304388093453481	0.000857148450453836	-0.0030426846115027	-0.0154006314280105	-0.00142518409559981
10	-0.0155819354366598	-0.00618549052427732	0.000428072090214361	-0.00314151031297433	0.000420567432977541	-0.00315409412940121	-0.0141234340983302	-0.000737074631598147
10.1	-0.0186231649349262	-0.00313167418347985	-2.19352817825933E-05	-0.0031741615250573	-3.22692103257042E-05	-0.00316875288247144	-0.0143098613539236	-0.000904386675766386
10.2	-0.0202910092292504	0.00107448189776337	-0.000473618107047054	-0.0031385657849346	-0.000477061052225653	-0.00313577152074804	-0.0145382424320063	-0.000208359396120002
10.3	-0.02082579476072	0.00553413381380696	-0.000912505918909038	-0.00303368818604104	-0.000904325535482673	-0.00304282684357745	-0.014498703984139	0.000793299326476231
10.4	-0.0200486361094952	0.00995467325489897	-0.00131772871613553	-0.00287844219128026	-0.00131601195231188	-0.00288469529213647	-0.0136434973203528	0.00203860879194665
10.5	-0.0185113670588485	0.0130958270053095	-0.00171614040104735	-0.00267273562359851	-0.00171299913176773	-0.00265962626308848	-0.0116782039073733	0.0018880944737134
10.6	-0.0177600732296864	0.0167629426768654	-0.0020693384900976	-0.00239891336030876	-0.00206713688575554	-0.00240276714928308	-0.0115710229940309	0.000969286867825742
10.7	-0.0157785557880604	0.0210688362396744	-0.00238780129863483	-0.00209431441422945	-0.0023842747854264	-0.00208899361112695	-0.0117895534526384	0.000970652622855692
10.8	-0.0125018992898501	0.0253168380721444	-0.00266031419941523	-0.00172957091379177	-0.0026550852628666	-0.0017385769362429	-0.0120093224480675	0.00149501075502774
10.9	-0.00765264477734758	0.0289078679870336	-0.002869585267858	-0.00134856338682244	-0.00287481100943286	-0.00134781419327006	-0.0115828221481358	0.00260611240055365
11	-0.00189401091707494	0.0303328180964415	-0.00302522036823678	-0.000928781435107294	-0.0030301096544839	-0.000935556215197097	-0.00995197800062622	0.00256281528937151
11.1	0.00304704673117391	0.0315013025372107	-0.00313582419801565	-0.000501466636884159	-0.00312488031900439	-0.00049860667890288	-0.0100091743619782	0.00193146191259051
11.2	0.0091698764431999	0.0317605338822385	-0.00316484889931964	-5.81659595248286E-05	-0.00317206690828529	-6.30190670442896E-05	-0.00995196693578144	0.00208777124238707
11.3	0.0155758229895137	0.0304664243642147	-0.00313529765754243	0.000395496091613392	-0.00314695176377569	0.000385426841903988	-0.00976969031979719	0.00256864652957082
11.4	0.0216625390654282	0.0277344885394317	-0.0030577080164915	0.000825439128434512	-0.00305273903276199	0.000833036161407686	-0.00905721866869946	0.00335815954699991
11.5	0.0269699322177094	0.0228074942277418	-0.00291523659085799	0.0012424841778803	-0.00291800699584434	0.00125283907163182	-0.00731184407544656	0.00269436696519298
11.6	0.030280389707745	0.0177177984162644	-0.00271740806580417	0.00163917350803454	-0.00271737737197453	0.00164213501257628	-0.00732822061197322	0.00160582858601511
11.7	0.0334450475950898	0.0122197186659966	-0.00245049908446292	0.00199608585040643	-0.00245102754557989	0.00200475164123398	-0.00723750149847428	0.0012701229643349
11.8	0.035657722549243	0.00579304282118456	-0.00215058704858769	0.00232882927878934	-0.00215472056903176	0.00233055810372919	-0.00692626736425618	0.00118641430315142
11.9	0.0371424930484639	-0.00146136596343067	-0.00179863967031883	0.00260593661035711	-0.00181172881525289	0.00261033313341321	-0.00567218251280553	0.00150482859256255
12	0.0356206615159511	-0.009702867861901	-0.00141881547174848	0.00283324357590856	-0.00141820649111331	0.00283466238806777	-0.0043225381178107	0.000175928950528973
