# GHZ S RI R 50
0.2	0.00592689075985746	0.00136693809482511	0.00304789382684453	-0.000898155005206247	0.00305826201377956	-0.000891348002648337	-0.0140787952876283	0.00496577990470232
0.3	0.00627661034565878	-0.000579763083167799	0.00290347800500705	-0.00132157203417386	0.00289623486204857	-0.00130863432019763	-0.0132410376019201	0.0051683519113943
0.4	0.00605304823432	-0.00230267819400268	0.00267157021359824	-0.00169320731435106	0.00267683475136042	-0.00170176682755759	-0.0126691982665484	0.00564292026176845
0.5	0.00513935260078581	-0.00368388449235378	0.00241264763878109	-0.00204938259090572	0.00242417969237032	-0.00206161953759999	-0.0122586718071454	0.00623279027044506
0.6	0.00420573442317	-0.00448572817484641	0.00210036182873151	-0.00236377264773672	0.00209957497759751	-0.0023709199138614	-0.0116636151255569	0.00690247305665212
0.7	0.00307715948033302	-0.00513944743228676	0.00175316433600294	-0.00264136798597867	0.00175120898871854	-0.00264156651865731	-0.011223383939006	0.00742251022481234
0.8	0.0018864706080398	-0.00548446821529675	0.00136780141631589	-0.00285842601403748	0.0013552062388919	-0.00286297186838303	-0.0108443750630586	0.0081007353423824
0.9	0.000686759265215932	-0.00556256532518518	0.000951079460269102	-0.00302157199607902	0.000952113561563932	-0.00303226606892598	-0.0103651400546651	0.00881013718869535
1	-0.000744930042024599	-0.00569021689350192	0.000526878009207831	-0.0031252033105789	0.000517019967449784	-0.00312594386178556	-0.00993805617651255	0.00938915586161485
1.1	-0.00244436819384336	-0.0050419644645698	7.10470759207332E-05	-0.00315410963124441	6.75403563899266E-05	-0.00317175365136896	-0.00956118630078207	0.0104336314860756
1.2	-0.00379155283228457	-0.00437271314300722	-0.000370854719547597	-0.0031432435731501	-0.00037166604659191	-0.00314116802109468	-0.00856481742652417	0.0113672326027083
1.3	-0.00526062655941917	-0.00369912669096415	-0.000797571840982722	-0.00306002506812202	-0.000800810360671039	-0.00306202937411325	-0.00703272209520198	0.0121035807315057
1.4	-0.00633604157354945	-0.00286927134661901	-0.00121852549986126	-0.00291213282247382	-0.00121731249686802	-0.00291766367595715	-0.00523482939841343	0.0120652573896891
1.5	-0.00692229667433335	-0.00170173762466266	-0.00161986123126609	-0.00271644546933107	-0.00161825036975808	-0.00272494354094916	-0.00391696436313797	0.0115098808141711
1.6	-0.00656424469617097	-1.79820228220693E-05	-0.00197995644138886	-0.00246347953940675	-0.00198016788678654	-0.00246871120575097	-0.00321330406362265	0.011322875723866
1.7	-0.00575689006390917	0.00124990882515901	-0.00230787657089836	-0.0021669678268138	-0.00230884173045031	-0.00216070959343415	-0.00262096225287104	0.0112895172912219
1.8	-0.00478607644678829	0.00244568359638783	-0.00257883921155384	-0.00181592273012717	-0.00258979967641133	-0.00182155738888013	-0.00201378042141994	0.0113580164071866
1.9	-0.00360219548301316	0.00321527857130939	-0.00280447879609471	-0.00144533495713672	-0.00281691371990381	-0.00143918391681489	-0.00137605810651242	0.0113950126855353
2	-0.00275801224723767	0.00373965147260497	-0.00297964449493338	-0.00103711172998596	-0.00298925968023018	-0.00103240443733577	-0.00100255810550916	0.0114971549276626
2.1	-0.00146135477848976	0.00456467477539655	-0.00309255089964445	-0.000609700474431234	-0.00308847027038121	-0.000611690498034964	-0.000207712479209903	0.0118710956189593
2.2	0.000171142158585605	0.00476269344708266	-0.00315026703095724	-0.00017185337837566	-0.0031615637259236	-0.000174688982886738	0.000855960568933584	0.0118542662981835
2.3	0.00176114949798554	0.00439109743089795	-0.00314572199980733	0.000271509276805738	-0.00314541939516223	0.000264630279025171	0.00181793863402054	0.0115721891161744
2.4	0.00324558754753049	0.00350687091806429	-0.00307287623018292	0.000709821079551886	-0.00307541585344438	0.000705566769136576	0.00276192417374842	0.011205433989306
2.5	0.00400340886984907	0.00192875232330133	-0.00293550189979071	0.00112077403501715	-0.00294638276750338	0.00112714605712284	0.00346075923839105	0.010521286814099
2.6	0.00425091273277117	0.000920899418439842	-0.00276274577174539	0.00152368917686996	-0.00275918694829398	0.00151137465032881	0.00406776259540628	0.0101737455137525
2.7	0.00468445993227741	-0.000106677485501522	-0.00251679144984603	0.00189527209614038	-0.0025220686806274	0.00189528213800427	0.00469023742837389	0.00970440912122203
2.8	0.0052166821406535	-0.00127743278473	-0.00223370412644974	0.00222243576129136	-0.00222589661205604	0.00223222067904262	0.00528154387114413	0.00938744766450317
2.9	0.00574938538115564	-0.00291836423867665	-0.00189963137942265	0.00252176877965827	-0.00189592492232983	0.00252134328139602	0.00617224093718336	0.009081460478277
3	0.00546760697336395	-0.00487898275852707	-0.0015147891757746	0.00275747690827636	-0.00152956731039565	0.00276356519732873	0.00699738766793164	0.00863449056907185
3.1	0.00508539329113399	-0.00636128432133521	-0.0011237888022237	0.00293535967437086	-0.00111913532219019	0.00294370118624101	0.00797481778818697	0.00824020283765249
3.2	0.00436765218911392	-0.00814879097272258	-0.000703166537770904	0.00307197375126896	-0.000704910154870361	0.00307136291754973	0.00871683613553065	0.0076019806419894
3.3	0.00313962357752818	-0.00994464248908906	-0.000265219636026876	0.00314155647053672	-0.000263570176787319	0.00313781847083425	0.00944582095510759	0.00689230746847835
3.4	0.0013981837469816	-0.0115588129897214	0.000180985893109962	0.00313606074829755	0.000174773244348172	0.00315261844210516	0.0101819906565614	0.00592024105768899
3.5	-0.00122493096146394	-0.0129094761932144	0.000603984321858043	0.00309403323273424	0.000609580811766855	0.00309410975041859	0.0103654593584207	0.00462682113624826
3.6	-0.00387045345397774	-0.0129366770807683	0.00103254117309234	0.00297340098059589	0.00104073110452776	0.0029730838316832	0.0105181277501503	0.00391453906619065
3.7	-0.00614898108912712	-0.0127839095009364	0.00144247161863131	0.00279247676215225	0.00143288500432031	0.00280614719037411	0.0108337217996193	0.00301504336631182
3.8	-0.00844906591847408	-0.0123434868567908	0.00182062744976131	0.0025657056211183	0.00182302918011904	0.00257485508961351	0.0110101570846584	0.00206500491181611
3.9	-0.0106676309932899	-0.0117203679393293	0.00216721786978587	0.00229254483984066	0.00215995200867732	0.00229076493340328	0.0110702197865351	0.00104348571936699
4	-0.0134974282492215	-0.0106995339096242	0.00245154666769282	0.00196958712183077	0.0024559933993616	0.00196715234982994	0.010721922710052	0.000137241527928771
4.1	-0.0157584825102903	-0.00817564297425243	0.00270211660773502	0.00161065357001853	0.00270086442259051	0.00161138874069519	0.0107606524684165	-0.000101034118707449
4.2	-0.0170726974184181	-0.00556196648426355	0.00290185926263776	0.00120997660583887	0.00290632685184442	0.00120126400596073	0.0111119736628134	-0.000674296113823874
4.3	-0.0178777275494731	-0.00300101437835211	0.00304521180422553	0.000797588743593571	0.00305163508470541	0.000789788085954163	0.0114162559447548	-0.00150703570554843
4.4	-0.0183049609806132	-0.000532037881852251	0.00312095915741353	0.000362821907770216	0.0031233328715613	0.000360566120084566	0.0115831784507582	-0.00246677515369533
4.5	-0.0190035975687092	0.00183075317123905	0.00314248093382702	-7.35402299930578E-05	0.00314783954738054	-7.69085838523714E-05	0.0113734817616907	-0.00355754154243039
4.6	-0.0191647585067799	0.00528770498628322	0.00310037444206965	-0.000515839247128174	0.00310159428311881	-0.000502926416463025	0.0112129034172689	-0.00422066192154032
4.7	-0.0181583155934839	0.00848459958217272	0.00299540848983216	-0.000935430421399255	0.00301069833044475	-0.000945040381349848	0.0110608026275255	-0.00517595277553792
4.8	-0.0165779003392303	0.0113416165737812	0.00283404303964801	-0.00134963730119026	0.00284252252422481	-0.00135572256629681	0.0107253628892395	-0.00602901179493001
4.9	-0.0142142121193713	0.0136161849610861	0.00261327309842338	-0.00173290617640826	0.00261743639573702	-0.00172999998345359	0.0104701332701814	-0.00677575701443069
5	-0.0120411196686622	0.0151796893238056	0.0023558651941054	-0.00208822006413202	0.00235948519566604	-0.00208555204272148	0.0101569278677591	-0.00752795562408684
5.1	-0.00889669647831126	0.0170207631598399	0.00204424768228807	-0.00240076483568807	0.00204654867928866	-0.00239940590597616	0.0102428043128583	-0.00803473963452388
5.2	-0.00528914098785718	0.0174468769020597	0.0016860143586065	-0.0026503199602615	0.00168772895855848	-0.002655462693136	0.0102865209198476	-0.00900562236285455
5.3	-0.00202636277085121	0.0169572049536987	0.00129965094420055	-0.00286550478311455	0.00130278267599662	-0.00286344091258675	0.010039272523401	-0.00992076984513465
5.4	0.000759224434291873	0.015815877644861	0.000875679059066677	-0.00301378727881	0.000892855290171449	-0.00302498896109972	0.00974652539489518	-0.0109457952207148
5.5	0.00231025355650818	0.014537489513841	0.000460311722023492	-0.00311356582867351	0.000470371564211261	-0.00312300146282852	0.00877897189635931	-0.0120156966341188
5.6	0.00446985973197422	0.0142094537687357	2.06774277115999E-05	-0.0031476566907549	1.21497377104936E-05	-0.00315087307952101	0.00805782326598802	-0.0122789360042366
5.7	0.00692096474293892	0.0127628305540334	-0.000409701381180081	-0.00311674874425911	-0.000426315090100364	-0.00312040744543704	0.00732741949747734	-0.0128023577729076
5.8	0.00891362899143032	0.0106582444231295	-0.000855563964770787	-0.00302215725506635	-0.000859101315038772	-0.0030361485559848	0.00645647812887135	-0.0133173386508511
5.9	0.0104697275862099	0.00792296645680741	-0.00126158785845748	-0.00288234550709158	-0.00126982167078479	-0.0028822606442907	0.0055600095073823	-0.013756887309337
6	0.0103031394157259	0.00426778579999861	-0.00166004329748373	-0.00267326001304463	-0.00165648312816606	-0.00267342974111019	0.00407913051654697	-0.014306588251306
6.1	0.00917001234942246	0.00236587224496599	-0.00201271694111185	-0.00241937620203834	-0.00201435471741008	-0.00241537326901616	0.00288919053997092	-0.0136571011642127
6.2	0.00842304240909189	0.000486922052762643	-0.00232578292247536	-0.00210698359101685	-0.0023294939081154	-0.00211885205665607	0.00246086006769782	-0.0134236970684876
6.3	0.0075496957015385	-0.00137464761559382	-0.00260393761180744	-0.00177215204216651	-0.0026130630346759	-0.00176640968908918	0.00215550571272211	-0.0135856540527651
6.4	0.00643640597235475	-0.0035554934307761	-0.00282957048211408	-0.00138023802286329	-0.0028198525738882	-0.00138514601914981	0.00193817702454286	-0.0141390626361671
6.5	0.00393852668405816	-0.00539679947586418	-0.00298367772181002	-0.000976815464157161	-0.00299153240872069	-0.000972337308853175	0.00110203299532811	-0.014876009882968
6.6	0.00220616301541964	-0.00573193043075701	-0.00309403504233366	-0.000553086054673316	-0.00309566770935959	-0.000557063016552412	0.00069013731906718	-0.0152220364752016
6.7	0.000422347454566752	-0.00643943738673076	-0.00314506019522453	-0.000114166081313875	-0.00315391377932905	-0.000107884939808125	-0.000325840486353722	-0.0158450496623286
6.8	-0.00165535532845408	-0.0065514250197327	-0.00312282928083822	0.000327725322242087	-0.00313391976246453	0.000332776533404128	-0.00157478461575339	-0.0158214615686066
6.9	-0.00360250246221268	-0.00645959479368203	-0.00304671244699149	0.000759889403461101	-0.00304969824621052	0.000762279198824003	-0.00241849541568932	-0.0156545749795643
7	-0.00676202147072108	-0.00593853960288981	-0.00291298341689384	0.00117978777750309	-0.00292581669730861	0.00117758434256883	-0.00380592820233109	-0.0156631521124686
7.1	-0.00876347010583473	-0.00302246670398925	-0.00273490418829089	0.00157137143048127	-0.00273123519737224	0.00158004173482172	-0.00465112910528893	-0.014618649995803
7.2	-0.00945164819516738	-0.000653373012169455	-0.00247740482218989	0.00193919694570523	-0.00248393608758113	0.00194127940498128	-0.00513286983985018	-0.014083789577377
7.3	-0.0097836725333347	0.00158557980876997	-0.00218222030223823	0.0022578057192742	-0.00219343629957148	0.00226286312422398	-0.00558477845369424	-0.0135831338190453
7.4	-0.00947398993478652	0.00342850211836664	-0.00184210633234006	0.00254167100428179	-0.00184899609869937	0.00255528926984717	-0.00585965919693756	-0.0133326745838337
7.5	-0.010041472029734	0.00423835533343282	-0.00147494300649952	0.00278428875755044	-0.00146793512337252	0.00279168949679578	-0.00655440405456427	-0.0136545920060145
7.6	-0.0104667505318516	0.00698005449917939	-0.0010664226368876	0.00296087348579776	-0.00106780322339554	0.0029561751174075	-0.00706643415931314	-0.0130157483194169
7.7	-0.00959309064027937	0.00915275261984144	-0.000638632808357524	0.00308161146755725	-0.000639974509998622	0.00308055026141476	-0.00732315030488997	-0.0134060531469892
7.8	-0.00817467867790906	0.0107820924129033	-0.000212866568080902	0.00313132470030196	-0.000220674830818804	0.00313779286269533	-0.00793574255428874	-0.013757250818663
7.9	-0.0064863153037619	0.0116894836112585	0.000230025665936744	0.00313913556824129	0.000237977143548391	0.00314062616498099	-0.00870801192467421	-0.0140735740835222
8	-0.00580620007847008	0.0127660103167131	0.000673524854535758	0.00306341248725603	0.000673615315854898	0.0030683126995668	-0.0102610733186759	-0.0140711361578285
8.1	-0.00300935891823167	0.0148999909616335	0.00108121175051986	0.00294528467139072	0.00110035830751569	0.00294635181934951	-0.0108701972728239	-0.0131031163541262
8.2	0.000359127963759077	0.0152436103827687	0.00148614342740547	0.00276523937498369	0.00149538588646934	0.00275803383835083	-0.0114033534764531	-0.0126215648805309
8.3	0.00352592567224687	0.0146683105893607	0.0018635007741564	0.00252565616186279	0.00186187364934346	0.00253921374511956	-0.0119165681256743	-0.012030795479008
8.4	0.00647766624675017	0.0130661267800465	0.00219918746421667	0.00224566726985194	0.00219615676389925	0.00224544788861592	-0.0122321351375594	-0.0116497223996436
8.5	0.00747497090336991	0.0107302334997968	0.00248126198766584	0.00191553037838488	0.00248036821363645	0.00191871262664837	-0.0134117880621876	-0.0114838251460535
8.6	0.0089377104941195	0.0102600713765824	0.002729261448308	0.00155706126716861	0.00273875834978616	0.00155051203469616	-0.0140549453889967	-0.0101994806057658
8.7	0.011119124324569	0.00847837139667692	0.00291548836551259	0.00115298550929187	0.00292105041499625	0.00115370240337216	-0.0143830292940888	-0.00952334891848072
8.8	0.0128807905217951	0.00591554770311767	0.00305097712029031	0.0007412239079629	0.00305673424748272	0.000732457031414684	-0.0149271078246621	-0.00886172121601839
8.9	0.0143056177632179	0.00233729330810626	0.00312656099871688	0.000308328126547964	0.00312568844923478	0.000306082807254276	-0.0150807786950076	-0.00804480477020238
9	0.0135880881995522	-0.00220084034887211	0.00313914398922764	-0.000132954281375387	0.00314230362155953	-0.000128851964983171	-0.0155062621285779	-0.00749912835892963
9.1	0.0122658044748488	-0.00518520637576844	0.00309279459682286	-0.00057782562917312	0.00309569761775183	-0.00056492467885942	-0.0153318603402696	-0.00626566867221915
9.2	0.0104280186396297	-0.00858079097849707	0.00298131660121227	-0.00099540750793492	0.00298897096502752	-0.000998295101778578	-0.0150031210624493	-0.00580768044875851
9.3	0.0074788558653573	-0.0113725194043657	0.00281219568887099	-0.00139961180849866	0.00281145939584554	-0.00140460113524817	-0.0149014437816742	-0.00527587951841125
9.4	0.00399017361466407	-0.0134800584314785	0.00259129491321429	-0.00178948793083173	0.0025978140597836	-0.00178189213302115	-0.014660459267279	-0.00480534498763805
9.5	-0.000979602878075351	-0.0143163301457295	0.00231509963890066	-0.00212776413303378	0.00232251628795181	-0.00212912598989056	-0.0150115040374222	-0.00427529970744251
9.6	-0.00456037136656441	-0.0128096615478509	0.00199467594400597	-0.00242929795495078	0.00199500768669315	-0.00242831675143011	-0.0147122603965346	-0.00323552199121313
9.7	-0.00744251215131391	-0.0116869491353886	0.00162798449067393	-0.00267845339530224	0.0016335061213474	-0.00268576602312529	-0.0145310211140661	-0.002785852144812
9.8	-0.0102936022806615	-0.0102137433982095	0.00124337389437274	-0.00288758023261412	0.00124908333312528	-0.00287909113320374	-0.0145723287600724	-0.0021487312767749
9.9	-0.0128123375776765	-0.00858919469597405	0.000836595593841698	-0.00302803090753789	0.000829265442144658	-0.00302679055292082	-0.0145219746704678	-0.00143983189810181
10	-0.0166269450579211	-0.00664639547658123	0.000403411207736731	-0.0031134837009109	0.000395898199920396	-0.00312589520209282	-0.0150499360991256	-0.000873851762933396
10.1	-0.0191145391486061	-0.00196084809320966	-3.52848205581727E-05	-0.00314328854059669	-4.54954332247738E-05	-0.00313788819092619	-0.0148009699013548	0.000654504294103137
10.2	-0.0198350510289406	0.00234321928752274	-0.000480972210814197	-0.00310716955376585	-0.000484372146296896	-0.00310438868405147	-0.014080065846885	0.0015103454627525
10.3	-0.0196399630527248	0.0064720303519372	-0.000914025780863299	-0.00300083796586654	-0.000905956993137183	-0.00300991533095516	-0.0132772413791609	0.00219571456888103
10.4	-0.0185176742037568	0.00980468723695196	-0.00131106765969646	-0.00284332482411838	-0.00130938662532687	-0.00284951402016182	-0.0120595287648146	0.00230402669703986
10.5	-0.0185237345560714	0.0127314282962615	-0.00169677969151733	-0.00264414069954562	-0.00169367603790543	-0.00263117299045668	-0.011741166504463	0.00187714468870715
10.6	-0.017233459952455	0.0173747086993893	-0.00204991845901914	-0.00237790449823233	-0.00204773552882528	-0.002381722822934	-0.0112241557183282	0.00203411143978266
10.7	-0.0147700557648015	0.0214669396083781	-0.00236569211980088	-0.00207565070449121	-0.00236219864210618	-0.00207037775623083	-0.0109887013157166	0.00196921725427799
10.8	-0.0112682069325379	0.0253787577385687	-0.00263377905569421	-0.00171525951820508	-0.00262859263719245	-0.00172417619800609	-0.010819743589367	0.00221270540462829
10.9	-0.00623163232024373	0.0279570661724426	-0.00283941110582313	-0.00134264546991713	-0.00284458945627605	-0.0013419156491269	-0.010179447804722	0.00235352160641317
11	-0.00227963327786033	0.0293292284346402	-0.00300146226157447	-0.000930296980642388	-0.00300629911559845	-0.000937037103830157	-0.0103921421652286	0.00217575614560438
11.1	0.00326098137047875	0.0316272908722933	-0.00311121222108154	-0.000502206676189747	-0.00310035585081219	-0.000499352589005043	-0.00988507282278266	0.00287203786651118
11.2	0.00983599136881706	0.0315959543460365	-0.00313891608742173	-6.45537261410428E-05	-0.0031460647173187	-6.93829108836047E-05	-0.00919690548674468	0.002858275669628
11.3	0.0163867881087002	0.0297841047501516	-0.00311178195279103	0.000382505625203502	-0.0031233123341471	0.000372479218695077	-0.00850167124476953	0.00288990346309649
11.4	0.0223459865896235	0.0262128517893898	-0.00304052051567729	0.000808883046948604	-0.00303561193080066	0.000816447976560556	-0.00772782466635278	0.00263943500513427
11.5	0.025867255994015	0.0214920130591289	-0.00289809233213352	0.00122901335396413	-0.00290086286020594	0.00123929449741687	-0.00794414849135268	0.00203551232557448
11.6	0.0296649935140708	0.0177596687273075	-0.00269999533828674	0.00161775797942263	-0.00269997361512444	0.00162069533780168	-0.0073820778553611	0.00228744484908787
11.7	0.0333846616654273	0.0121822274075174	-0.00243969547503648	0.00197051617659786	-0.00244025548440491	0.00197911254999467	-0.00663559790654662	0.0017369219471627
11.8	0.0358510809232193	0.00538974916810296	-0.0021459467772295	0.00230282514814609	-0.0021500590435161	0.00230452327750008	-0.00604398953755984	0.00107871646247702
11.9	0.036546938861524	-0.00273080633799207	-0.00179640647105889	0.00258136601931778	-0.00180942360796603	0.00258568260528514	-0.0055761714404013	0.000251407042462226
12	0.0330342758799234	-0.0102637950309586	-0.00141886251192182	0.00280155648389208	-0.00141826534449115	0.00280296535397785	-0.00644417486338297	-0.000567324523320334
