# GHZ S RI R 50
0.2	-0.000262969274982368	-5.28969038617972E-05	0.949154254139297	-0.307835623970552	0.948928011804338	-0.307977556945381	-6.8303059206775E-05	6.63406602465459E-05
0.3	-0.000433615594006597	0.00021369406213633	0.889260865863907	-0.451524934420406	0.88912342989326	-0.451578166264539	-0.0001989539731678	-0.000102086463492251
0.4	-0.000281439123762428	0.000372191120809684	0.807809651552113	-0.583848321524079	0.807849778447949	-0.583987943106545	-8.49593731019627E-05	-0.000134029211300267
0.5	-0.000380443085167207	0.000573765942713118	0.70705425471833	-0.702183421032448	0.706943652370972	-0.702279296647306	2.84359822561312E-05	-0.00022641734604243
0.6	-0.000336433126885286	0.000682901592749554	0.589128944243885	-0.803256190896696	0.588939374812611	-0.803259110442924	1.3229622721675E-05	-0.000452547411584842
0.7	-0.000358282599524864	0.00106609987372973	0.457046593487149	-0.884644134153848	0.456972564813571	-0.884678519899376	-1.14534671753879E-05	-0.000710631691972284
0.8	-0.000122057429090193	0.0011390574448098	0.314006470720957	-0.944728748666515	0.313887929045016	-0.944642036203781	-0.000182310768046371	-0.000918428334581944
0.9	-8.64610911579349E-06	0.00146752802051844	0.16341930399684	-0.981760333684657	0.163270313095179	-0.981717491611667	-0.000513179914083536	-0.0011444314344517
1	0.000258008935797646	0.00146781795809553	0.00890805561597217	-0.994879013830897	0.00879000000766394	-0.994849345312201	-0.000846340453369618	-0.00130339453694075
1.1	0.000461315726186447	0.00145386417718762	-0.144983190203715	-0.984054139996803	-0.14563057147213	-0.984019060828298	-0.00145015859473539	-0.00126875067129646
1.2	0.000796631275476526	0.000643362768069332	-0.296744386696429	-0.949290400625979	-0.296737416476005	-0.9493460662295	-0.00157908666410341	-0.000992580831282287
1.3	0.00108305207252465	-0.000743501248851954	-0.440400274130431	-0.89146135430298	-0.440492348887403	-0.891485812637551	-0.000742375290584056	-0.000317792156915582
1.4	0.00112415577582484	-0.0026123142959571	-0.573206287224201	-0.812170539010329	-0.5732800589588	-0.812070998589218	0.000624863680151794	-0.000523701004658845
1.5	0.00101814560556426	-0.00345588492624755	-0.692331184874788	-0.71309768827323	-0.692355777737981	-0.713025666061065	0.0018501803434452	-0.00137773372150809
1.6	0.000790346762434687	-0.00383489244447132	-0.794154000777041	-0.59722871553324	-0.794583343498042	-0.596728337147606	0.00160402568985283	-0.00236754773823021
1.7	0.000701596385029366	-0.00377830689927403	-0.877004536995398	-0.466529324817613	-0.877308746470406	-0.466039592460875	0.0010074807762898	-0.002887391944761
1.8	0.000403925518167631	-0.00385074854973787	-0.938777677266842	-0.324237581035982	-0.938793120560286	-0.324228118916664	9.44720925093749E-05	-0.00337858827770436
1.9	0.000146855139294042	-0.00374042398315783	-0.97765345974289	-0.174444848513299	-0.977697959260845	-0.174497570302314	-0.000800269729666591	-0.00355981828911476
2	-0.000292360072389865	-0.00380481895529259	-0.992564179661175	-0.0210968558555817	-0.99265879611308	-0.0204475849301139	-0.00182326159045438	-0.003416461826947
2.1	-0.000756429270738204	-0.00369337406292952	-0.983497130318573	0.134425062535911	-0.983596769332723	0.133941082712238	-0.00250212895636626	-0.00300993653114697
2.2	-0.00149056523668063	-0.00370151848510452	-0.950749797636714	0.284690999899191	-0.950788520344967	0.284824710920789	-0.00309061849848432	-0.00269484472429546
2.3	-0.00219880047770341	-0.00344719622737401	-0.894946534526032	0.428718701038505	-0.894782743444087	0.428807072657071	-0.00370970529510462	-0.00237128190355236
2.4	-0.0031066216514644	-0.00310267002050235	-0.81690145167232	0.562928755102672	-0.817192848674915	0.562467130335764	-0.00429389119913252	-0.00201942700102765
2.5	-0.00377761062482554	-0.00234909810539036	-0.719726311340871	0.682714298905411	-0.720028601659947	0.682333940043071	-0.00456264787456721	-0.00176844586894106
2.6	-0.00436229525758688	-0.00156148353569807	-0.605379785787442	0.785722245121171	-0.605300609925634	0.785662855132728	-0.0046877513793003	-0.00137395342366263
2.7	-0.00437402296480338	-0.000602356019621039	-0.475940133651539	0.869963386784644	-0.475910667862553	0.869977459906469	-0.00475490283850692	-0.00100067572077257
2.8	-0.00405510259585938	6.00658812376664E-05	-0.335289139480265	0.93311987522005	-0.335170984958772	0.933204281922239	-0.00452309846666796	-0.000514781908760174
2.9	-0.00302725266433669	0.000486339320297974	-0.186386296153669	0.973674298447393	-0.186381825399623	0.973729052739975	-0.00393071775910663	0.0001708323591455
3	-0.00207008349502497	0.00049089841613896	-0.0327876712473742	0.990684141195083	-0.0328519179099467	0.990755559789787	-0.00285337226057942	0.000729935779050012
3.1	-0.00091399279541444	0.000321048626921207	0.120550096435697	0.98368951711015	0.12119776199518	0.983770460183442	-0.00167300125814156	0.00102651757561729
3.2	-0.00017718840990774	-0.00024692460663186	0.272318359749146	0.952783987409166	0.272308423548493	0.952823554902216	-0.000761750334549734	0.00088405909761114
3.3	0.000673322304678208	-0.0009333253387155	0.417538236403632	0.898608854459767	0.416916137564403	0.898890382387087	0.000315508349802472	0.00054958289228044
3.4	0.0010223976314968	-0.00177840519396557	0.551384316337881	0.823150613643007	0.55129948092299	0.823265855873989	0.00132592249190485	-0.000205776831394951
3.5	0.00144570589023469	-0.00260724887246914	0.672278865389821	0.727621673387643	0.672293092523079	0.727647848948511	0.0019702442323724	-0.00129267280032909
3.6	0.00128807367890581	-0.00346200865119351	0.776536994630251	0.614797790294569	0.776958659400853	0.614403890012634	0.0021014348979906	-0.00239185506140488
3.7	0.0011959471610467	-0.00430337344242167	0.862838038554327	0.486194522007992	0.862845078076776	0.486320959813829	0.00200439256706935	-0.00337002630723983
3.8	0.000637413395738098	-0.005082441133015	0.927667189773227	0.346301650706497	0.927695619912997	0.346484799250087	0.00145223154168212	-0.0044321915477831
3.9	0.000317175707955785	-0.0057489273818763	0.970188905681258	0.197567376257014	0.970090795926553	0.198154901659788	0.000331259571829529	-0.00552071714011824
4	-0.000452325109790136	-0.00628944989665024	0.988981084833661	0.0453283998451716	0.989063036127315	0.0453713343497611	-0.000936683484888315	-0.00621531692269671
4.1	-0.00115827266900131	-0.00683706754625959	0.984049928773209	-0.108698735566856	0.983987882129198	-0.108634732949832	-0.00243253934629496	-0.00667913374176895
4.2	-0.00240981827347898	-0.00722772233271201	0.954827847454797	-0.260702607106804	0.955021455428081	-0.260133852179512	-0.00404450738994414	-0.00678598155196856
4.3	-0.00354687454079753	-0.00764814669972238	0.902988826922973	-0.405123206562451	0.902989707021918	-0.405104693498315	-0.00575297926027834	-0.0067830339331309
4.4	-0.00511347204062473	-0.00771441660656787	0.829146777145603	-0.540215000541512	0.82906694738287	-0.540199047023122	-0.00768866323104559	-0.00631141231534754
4.5	-0.00649795469863537	-0.00763069797380775	0.735264955774318	-0.662422845245186	0.735141649167878	-0.662276861924773	-0.00950571908801473	-0.00544440708832361
4.6	-0.00818756664565217	-0.00705575597701182	0.623450219269924	-0.768448692739907	0.623435793943504	-0.768219475256565	-0.0112164352061993	-0.00415108510373946
4.7	-0.00960262613592226	-0.00653826914192521	0.496470528368191	-0.855885901403245	0.49658761988681	-0.855641522014294	-0.0128237364902182	-0.00272901404639094
4.8	-0.0110240169876936	-0.00542926431337684	0.357326186089701	-0.922367889876146	0.35761972424264	-0.922179706307252	-0.0139344639242458	-0.000785278161663617
4.9	-0.0117736651884704	-0.00439677459575921	0.209785947679083	-0.966188710125447	0.210045520276484	-0.966137895244966	-0.0142616861885067	0.00160801153849387
5	-0.0122781965197817	-0.00324175870171406	0.057714670467563	-0.986761285555591	0.0578728204004186	-0.98663360889466	-0.0136060009593866	0.00418484911999105
5.1	-0.0122020628405311	-0.00235694448421809	-0.0958738586021276	-0.983783217341199	-0.0955530199869777	-0.983720660567631	-0.0120798482139555	0.0065855558899142
5.2	-0.0121187807943394	-0.0013716914760061	-0.247427440195629	-0.956999243266369	-0.24700044200408	-0.957121330532862	-0.0101832554317208	0.0087687019874614
5.3	-0.0119741877359402	-0.000744221902370499	-0.392888002224725	-0.9070438665256	-0.392599391305416	-0.907388197267914	-0.00767673263961511	0.0105527110190039
5.4	-0.0118775817924928	0.000305886734376735	-0.528967873360099	-0.835116869614799	-0.528832110167358	-0.835406217475716	-0.00497453334380491	0.0117311120461946
5.5	-0.0118109669085601	0.0012083194516298	-0.652116572629942	-0.74279362224512	-0.652066792212643	-0.743107241072888	-0.00233077063859632	0.0121838995244237
5.6	-0.0116959144252765	0.0026380256168163	-0.759312910480317	-0.632537150400764	-0.759326415861529	-0.632707383789843	0.000162694784156999	0.0122852550181691
5.7	-0.0115344082131275	0.00386195046334792	-0.848300307659616	-0.506995415788444	-0.848276610877288	-0.507170409778188	0.0025591157053752	0.0121752068164042
5.8	-0.0112222951900588	0.00548460672358454	-0.916527508275294	-0.369070224837701	-0.916572396170956	-0.369362165483494	0.00491674558724087	0.0116966101426873
5.9	-0.0107104177900458	0.00686394475661315	-0.96266116648762	-0.222477569250553	-0.962781500455929	-0.2225254447794	0.006994739465265	0.0108067206061411
6	-0.00990001467304403	0.00846166192918378	-0.985521704800145	-0.0703916163954103	-0.985518657735453	-0.0704602665389096	0.00870862236842009	0.009696809903084
6.1	-0.00891169801175561	0.00973278110529994	-0.984366984109114	0.0833473462222646	-0.984370196516109	0.0832440701885958	0.0103512450178551	0.00818953271581249
6.2	-0.00780078774593558	0.0109405531710812	-0.959368710351287	0.235164392777578	-0.95941679263894	0.234982802012356	0.0116306118366717	0.00608596895886344
6.3	-0.00670183389566163	0.0116792235070911	-0.911193495570102	0.38114318690212	-0.911217833442568	0.381014593731256	0.0123656250912905	0.00345257124644341
6.4	-0.005500131997807	0.0121772957323885	-0.840927636520935	0.517879723841672	-0.840918924778151	0.517666287287401	0.012280164579477	0.000451575834068386
6.5	-0.00436803193092347	0.0122312636569267	-0.750285271184994	0.642041490407625	-0.75038572661203	0.641869268281441	0.0115411611659502	-0.00250989972603084
6.6	-0.00300390387263045	0.0122668792228857	-0.641513124558564	0.750607694926928	-0.641661504550864	0.75046180426121	0.0102914104487138	-0.00503360042021291
6.7	-0.00172295413431051	0.0118947105175976	-0.517202062759376	0.841003765323642	-0.517323145344996	0.840846660551612	0.00839428525234013	-0.00716135563844705
6.8	-0.000412714745448611	0.0114805917061419	-0.380327860481776	0.910968619469184	-0.380538826388697	0.910893599541721	0.00605208219130062	-0.0085707320709203
6.9	0.000733520110449401	0.0106704298715114	-0.234345898086639	0.958843934463793	-0.23459643823421	0.958840115740907	0.00379074411102596	-0.00925014029951083
7	0.00190916525066335	0.0098191172846172	-0.0827211155000624	0.9835499207271	-0.082979219088192	0.983519832433156	0.00160635089105653	-0.00963745432741373
7.1	0.00269462814100312	0.00870134682461135	0.0708530960754688	0.98439771264409	0.0706465944243163	0.984385602501555	-0.000586484486860092	-0.00943051907257053
7.2	0.0033637378474364	0.00758048921734403	0.222745211502508	0.96139275570738	0.222490097954657	0.961436737902423	-0.00239319175592851	-0.00857762406587648
7.3	0.0034743670304676	0.00624768272167566	0.36918883731229	0.915099867426396	0.368948822868169	0.915190497040124	-0.00395065499234716	-0.00738948450111038
7.4	0.00341833557607183	0.00513488510131957	0.506650452659247	0.846579337955195	0.506432365862157	0.846741063484559	-0.00529529275603299	-0.00592008809286536
7.5	0.00299131930358913	0.00399785146519464	0.631771889617878	0.757637846928207	0.631611976006834	0.757809510688937	-0.00608895162830253	-0.00408422619318245
7.6	0.0026149872662225	0.00315462936290884	0.741665788573681	0.650396804308928	0.741450563872772	0.65055746440382	-0.00614564152394425	-0.00252664357541294
7.7	0.00189824873866152	0.0025852850037787	0.833457932126866	0.527417929749298	0.833306961016934	0.527612612244793	-0.00605040841589994	-0.000976073514290762
7.8	0.00142582274275098	0.00245492261819703	0.905231306352943	0.391608420923381	0.905110449429104	0.391829761466317	-0.00536638656476723	0.000455167267268916
7.9	0.000830279359924203	0.00255712708287093	0.954902622904309	0.24643068095761	0.954862113177101	0.246655892568662	-0.00444141235626719	0.001739222015653
8	0.000647645663547148	0.00294889321388872	0.981486332480848	0.0952378960512493	0.981556635123933	0.0955296947543351	-0.00360623843661914	0.0028006136823836
8.1	0.000319922228589241	0.00351045843115129	0.984331086994403	-0.0581861171833152	0.984455007034998	-0.0579150822401243	-0.00245602582692293	0.00374714755228904
8.2	0.000380392211975647	0.00415346759358687	0.96328490564534	-0.21019691700894	0.963350603784383	-0.209901204135866	-0.00129354638410781	0.0042850353630344
8.3	0.000364644157442711	0.00488846707490194	0.918886710742027	-0.357105487759748	0.919024053681671	-0.356849672638296	1.30515563384685E-06	0.00444015292211935
8.4	0.000766186477674514	0.00561252394947672	0.852282846157165	-0.495333969788371	0.852494290444538	-0.495134224214587	0.00126660381626373	0.00412718184609408
8.5	0.00119696377388967	0.00631583503827602	0.765137932815378	-0.621515109277641	0.765253549353589	-0.62138926101877	0.00233484922165046	0.00350292766075932
8.6	0.00210950959496535	0.00684494320360526	0.659274278283599	-0.732682071616607	0.659471348793376	-0.732496741306269	0.00330913492856116	0.00271168670250897
8.7	0.00303355422809298	0.00719937561910786	0.537492087104664	-0.825950706491574	0.537773487255475	-0.825841354604764	0.00406947018046098	0.00172718152976568
8.8	0.00444627355637649	0.00717496966197637	0.402888710928782	-0.899296702373641	0.40309450927048	-0.899242186807374	0.00440540056165646	0.000589401933983373
8.9	0.00591652219575936	0.00667591738226749	0.258432740311789	-0.950931454810987	0.258674172132986	-0.950791030703969	0.00472230177375698	-0.000371062847865976
9	0.00771632779866152	0.00536645123493798	0.107655967024389	-0.979350150070347	0.10801769170266	-0.979320116245954	0.00514885197559999	-0.00133914892407144
9.1	0.00917091322385553	0.00350295132524892	-0.0455010372274064	-0.984115146006955	-0.0451488972616879	-0.984129414771179	0.00564137531022763	-0.00241652691296897
9.2	0.0103144319055904	0.000988499870604759	-0.197746224966549	-0.965025387221039	-0.197390650379202	-0.965095719531478	0.00617657519516735	-0.00353112703763536
9.3	0.0105981245665176	-0.00158560549304575	-0.345122443036726	-0.922608798453179	-0.344765564444492	-0.922672819642939	0.00658676688771334	-0.00458694986290827
9.4	0.0103296197967521	-0.0043132394205894	-0.483990564720553	-0.857834325819096	-0.483667416683917	-0.85798179203163	0.00679371826975339	-0.00574255800949057
9.5	0.00905164290147753	-0.00653881121559778	-0.611133359499015	-0.772257155725317	-0.61092721574125	-0.772394193458534	0.00647497486519246	-0.00660978491577429
9.6	0.00745058943522363	-0.00853011263375928	-0.723530811611524	-0.66796155745183	-0.723258063151996	-0.668145988071422	0.00583725078783296	-0.00737332020402912
9.7	0.00522127067718742	-0.0097859471051706	-0.81828116386508	-0.547577003524191	-0.818034781803557	-0.547845861626807	0.00504599499020389	-0.0079168495638022
9.8	0.00277375223180734	-0.0105795229929324	-0.893273441748378	-0.413925230646105	-0.893064270524974	-0.414199759524793	0.00415754125864505	-0.00815445280342809
9.9	6.33438933768955E-05	-0.0104626737647181	-0.946553135718383	-0.270284768767844	-0.946440474227698	-0.270613716995645	0.00348017298318848	-0.00814953835695275
10	-0.00250985107824337	-0.00996095284778495	-0.977021359470682	-0.120170746009473	-0.976940861526621	-0.120549018846974	0.00278235982549578	-0.00799773766704602
10.1	-0.00505446962627348	-0.00866503265484972	-0.983673849247363	0.0329134019279474	-0.983653651642533	0.0324357462589596	0.00229895558448102	-0.00774781915138437
10.2	-0.00713054739733307	-0.00707373343963559	-0.966622120827064	0.185122418880479	-0.966606821940413	0.184672828443341	0.00197884257581998	-0.0076603674066065
10.3	-0.00905321080228039	-0.00486313835665291	-0.926122193295229	0.332882601883666	-0.926257007937054	0.332342494526772	0.00152937384246515	-0.00793374501951588
10.4	-0.0103171905277753	-0.00262673313801468	-0.863170639658188	0.472482617811323	-0.863435188357669	0.471947111559121	0.00107598377390363	-0.00851112121669201
10.5	-0.0111785197238665	2.45974322060017E-05	-0.779411025204806	0.600636260495919	-0.779693270504952	0.600249551982469	0.000633579317040691	-0.00934518587809681
10.6	-0.0112356251546997	0.00252764659745373	-0.676662182424814	0.714211410359753	-0.677087874834276	0.713867720472274	-6.74740582375405E-05	-0.0102764671206649
10.7	-0.0107971790135652	0.00528827518992737	-0.557663350861296	0.810507334347036	-0.558074398909851	0.810219313510974	-0.000851927490721588	-0.0109861205056426
10.8	-0.00949016694393634	0.00756559813876747	-0.4250489668784	0.887109829339379	-0.425558854697246	0.886880905153858	-0.00175675473470677	-0.0116700323849649
10.9	-0.00782660731646549	0.00978550631140507	-0.282278508380957	0.942258354780339	-0.282765917825189	0.942207375137039	-0.00303381710635861	-0.0121724032333369
11	-0.00538182069732367	0.0112059713641379	-0.132578482052595	0.974582899265787	-0.133124311217955	0.974578825132782	-0.00415010415218647	-0.0124618248706743
11.1	-0.00258151435224613	0.0122946026932678	0.0203669039146629	0.983206569713478	0.019738321520179	0.983289709680029	-0.00521554281766044	-0.0126373788829769
11.2	0.000548322171325785	0.0123261008422194	0.172589200605088	0.968061877883181	0.172070605852283	0.968265010776533	-0.00612363197068444	-0.0127301989224644
11.3	0.00361527185121606	0.0117622688604873	0.320559316760343	0.929537220192762	0.320130316906403	0.92979977155016	-0.00681803695261737	-0.0125928494761781
11.4	0.0063983554282096	0.010275844664493	0.460961538624991	0.868561967037403	0.460497879742296	0.86882197478385	-0.00752965307254708	-0.0122792285674304
11.5	0.00876311725281246	0.00860678937193034	0.590105708083697	0.786342873035843	0.589748335078756	0.786760903760553	-0.0083926856892641	-0.0118306195679837
11.6	0.0106539424175309	0.00609090509521735	0.704772405401149	0.685219387091367	0.704506325392345	0.685699823812819	-0.00931574551373043	-0.0112400020213712
11.7	0.0119107187611514	0.00361732216673914	0.80256511322509	0.567608465460826	0.802326704505374	0.568030531766562	-0.0102205088085064	-0.0105112390325929
11.8	0.0123638774455318	0.000737534654945851	0.880918186561876	0.436017371737957	0.880734879563882	0.436569607074095	-0.0112294448733865	-0.00967621160587581
11.9	0.0122652642172218	-0.00167986669654566	0.93778383374453	0.294075945918426	0.937746404858059	0.294619890262099	-0.012267805716432	-0.00835552961884717
12	0.0111379795314924	-0.00422144793109875	0.972013407929017	0.145163496225197	0.972001929742119	0.145642993455369	-0.0130885241415543	-0.00700427091460891
12.1	0.00986132124299026	-0.00611343634020684	0.982711388389487	-0.00741437249182829	0.982687464815686	-0.00694141159346574	-0.0135059895923255	-0.00548499779332716
12.2	0.00790010460624843	-0.00789557769547045	0.969571582651403	-0.15989262717719	0.969678953188854	-0.159455581400084	-0.0138026587527871	-0.00389456074993065
12.3	0.00567878431827266	-0.00889827572435574	0.93285517034839	-0.308291076291971	0.933041410739239	-0.307933240944512	-0.0137385779990348	-0.00234305656025119
12.4	0.00309237903095169	-0.00951779173846719	0.87387500538897	-0.449262859892914	0.8740084111568	-0.448888144970123	-0.0134420672016006	-0.000964962308596564
12.5	0.000777628485816364	-0.0093895237302111	0.793419530857048	-0.579434854613168	0.7938785732111	-0.579043034490659	-0.0129407424615316	0.000123142329897798
12.6	-0.00149103895084912	-0.00876601417992362	0.69388453445224	-0.695421927121609	0.694231670415163	-0.695112946791692	-0.0124528165556277	0.00113478932252389
