# GHZ S RI R 50
0.2	-0.000263047528897522	-5.29185593656679E-05	0.949154318609964	-0.307835494480638	0.948928076290507	-0.307977427490945	-6.83484346229248E-05	6.62873403215523E-05
0.3	-0.000433716754871848	0.000213718681765671	0.889261002072754	-0.451524781608849	0.889123566105468	-0.451578013483047	-0.000199008090289939	-0.000102134609872294
0.4	-0.000281509346962869	0.000372272720756126	0.807809843845082	-0.583848174360444	0.807849970776209	-0.58398779594333	-8.49861646221214E-05	-0.000134066569238047
0.5	-0.000380471310276377	0.000573788997365007	0.707054511829976	-0.70218322048196	0.706943909509178	-0.702279096136678	2.84460694941533E-05	-0.00022653786618103
0.6	-0.00033656654470429	0.000682978684228527	0.589129374913851	-0.803256052284381	0.588939805456634	-0.803258971912718	1.31566754175151E-05	-0.000452666747274943
0.7	-0.000358379246458869	0.00106629769121802	0.457047092328759	-0.884644116757	0.456973063654887	-0.884678502543446	-1.15084069709702E-05	-0.000710712967020424
0.8	-0.0001220608100505	0.001139350856008	0.314007008063903	-0.944728835234989	0.313888466315963	-0.944642122807805	-0.000182336246756425	-0.00091848576664523
0.9	-8.42965173327129E-06	0.00146793577505381	0.163419897974656	-0.981760503950844	0.163270907009232	-0.981717661949953	-0.000513105035937366	-0.00114440399804807
1	0.000258724132905135	0.00146792056695059	0.00890878281724552	-0.994879426471183	0.0087907271376293	-0.994849758025835	-0.000845904381983056	-0.00130352854696307
1.1	0.000461840955795267	0.00145338786897801	-0.144982646410248	-0.984054821979956	-0.145630028088678	-0.984019743205295	-0.00144979077438351	-0.00126918989548529
1.2	0.000796852193753845	0.000642462035789039	-0.296743978467106	-0.949291194375718	-0.296737008207164	-0.949346860010434	-0.00157866763967382	-0.000993231953268298
1.3	0.00108247156160848	-0.000744729792979642	-0.440399991326596	-0.891462288894591	-0.440492066133141	-0.891486747308505	-0.000742177801455493	-0.000318718770515737
1.4	0.00112275926347567	-0.00261310146292583	-0.573206187186429	-0.812171675419615	-0.57327995905945	-0.812072134966011	0.000624712992436918	-0.000524451945274447
1.5	0.00101632253391169	-0.0034559556411548	-0.692331574397287	-0.713098924976201	-0.692356167331328	-0.713026902694482	0.00184972532265615	-0.00137819197374425
1.6	0.00078902660246	-0.00383380440464777	-0.794154607930465	-0.597229692338722	-0.794583951324178	-0.596729313592731	0.00160378872990112	-0.00236734205417612
1.7	0.000701172463994899	-0.00377702704771894	-0.877005303137198	-0.466530255740102	-0.877309513181033	-0.466040522975861	0.00100763976701692	-0.00288717710781319
1.8	0.000404147483690082	-0.00384960619377692	-0.9387787174474	-0.324238428288429	-0.938794160764827	-0.324228966164278	9.48550765361293E-05	-0.00337846661893935
1.9	0.000147676172526246	-0.00373973345349386	-0.97765485463447	-0.174445434157171	-0.977699354200963	-0.174498156039397	-0.000799581140061699	-0.00355993985846506
2	-0.000291846994230776	-0.00380503791447923	-0.9925655787661	-0.021096884649695	-0.992660195350734	-0.0204476128089502	-0.00182286267315721	-0.00341723078786988
2.1	-0.00075627064115054	-0.00369311968581411	-0.983498458613503	0.134425095170185	-0.983598097688247	0.133941114687861	-0.00250201999939333	-0.00301030265803257
2.2	-0.00149001531008419	-0.00370121850762866	-0.950751263469278	0.284691332280904	-0.950789986249785	0.284825043500535	-0.00309026642120658	-0.0026951952606333
2.3	-0.00219792581300335	-0.00344712995615526	-0.894947955074943	0.428719453379722	-0.894784163722122	0.428807825130613	-0.00370919643716296	-0.00237175123102887
2.4	-0.00310533887497183	-0.00310311486119206	-0.816902568786728	0.562929896770074	-0.817193966392273	0.562468271363635	-0.00429307775727425	-0.00202011285989993
2.5	-0.00377658707542297	-0.00235096551671505	-0.719727129441004	0.682715337629026	-0.720029420231854	0.682334978323088	-0.00456185670648603	-0.00177007648937393
2.6	-0.00436272736664799	-0.00156354322025005	-0.60538071544574	0.785723627743424	-0.605301539457653	0.785664237646823	-0.00468781499516031	-0.00137566211326366
2.7	-0.00437526174759847	-0.000603895759193799	-0.475940661983808	0.869965118322769	-0.475911196136956	0.869979191458797	-0.00475527919590542	-0.00100205340904963
2.8	-0.00405664823637547	5.92035048299742E-05	-0.335289200432193	0.933121690901283	-0.335171045657278	0.933206097684331	-0.00452342777093374	-0.000515806809690524
2.9	-0.00302879717354084	0.000485965088269202	-0.186386023556316	0.97367596270814	-0.186381552763096	0.973730717085543	-0.00393082978715112	0.00016991184736378
3	-0.0020717305753719	0.000491036686813703	-0.0327873810461688	0.990686024021959	-0.032851627804725	0.99075744277439	-0.002853486328668	0.000729062671039957
3.1	-0.000915189419903195	0.000321754749407664	0.120551218237066	0.983691494029596	0.121198885239369	0.983772436703778	-0.00167283590169289	0.0010257279985145
3.2	-0.000177971630202522	-0.000246078169591017	0.272319930350687	0.952785541451795	0.272309994173965	0.952825109032603	-0.000761497061482824	0.000883108106044689
3.3	0.000672884940744759	-0.000932420647224386	0.417540043175062	0.898610058318827	0.416917943493815	0.898891587482875	0.000315754246447627	0.00054853674160181
3.4	0.00102228912686276	-0.00177767973808182	0.551386327073784	0.823151657887278	0.551301491615504	0.823266900442623	0.00132618256575485	-0.000207008951125898
3.5	0.00144524549371444	-0.00260659013581013	0.672281672150163	0.727622344281758	0.672295899360293	0.727648519882905	0.00196999675308117	-0.00129399896627466
3.6	0.00128809266428411	-0.00346071494254857	0.776539776720835	0.614797369502537	0.776961441490857	0.614403467581346	0.00210133579549178	-0.00239267085490576
3.7	0.00119666040924456	-0.00430225669726813	0.862840587935196	0.486193588990737	0.862847627733725	0.486320027006975	0.00200455522196525	-0.00337092071731072
3.8	0.000638614880653848	-0.00508173960900079	0.927669621020999	0.346300219205153	0.927698051617114	0.346483368014515	0.00145252473435809	-0.00443323119299098
3.9	0.000318799678578564	-0.00574900711685564	0.970191245198175	0.197565240200969	0.970093136777608	0.198152766964832	0.000331745609524928	-0.00552210231858663
4	-0.000451467184064508	-0.00629077317745293	0.988982516383055	0.0453252368041895	0.989064467922969	0.0453681710975366	-0.000936811658430273	-0.00621746973689113
4.1	-0.00115829157056095	-0.00683789580380416	0.984050410025545	-0.108701664035361	0.983988363516162	-0.10863766118752	-0.00243331494296691	-0.00668073716841271
4.2	-0.002409919117959	-0.00722829285100618	0.954827876666427	-0.260705584763066	0.955021486444841	-0.260136829929279	-0.00404534306887766	-0.00678729056775988
4.3	-0.00354698076736923	-0.00764852088882607	0.902988200278036	-0.40512629564712	0.902989080435113	-0.405107782572761	-0.00575382241737623	-0.00678404355558252
4.4	-0.00511317160676729	-0.00771476213917331	0.829145176876994	-0.540217999260576	0.829065347144954	-0.540202045464266	-0.00768908554220035	-0.00631219408279842
4.5	-0.00649771952640552	-0.00763217464264145	0.735262647293937	-0.662424735299142	0.735139341178618	-0.662278751677634	-0.00950592012098027	-0.0054459744747095
4.6	-0.00818862643846457	-0.00705713576486754	0.62344815057253	-0.768450327616652	0.623433725857308	-0.76822111010271	-0.0112173602030304	-0.00415262749961025
4.7	-0.00960427310444877	-0.0065390011127193	0.496467989533997	-0.855887315335044	0.496585081764211	-0.855642936302505	-0.0128248945148212	-0.00273026129607395
4.8	-0.0110258838227755	-0.00542917490333411	0.357323214736931	-0.922368690135683	0.357616753374877	-0.922180507537046	-0.0139356974506073	-0.000786130923023494
4.9	-0.0117752538439785	-0.00439592048849344	0.209782939270607	-0.966188567782502	0.21004251181343	-0.966137753705891	-0.0142627058991105	0.00160755624054219
5	-0.0122794895011337	-0.00324037733967342	0.0577122849662051	-0.986760988503832	0.0578704351346849	-0.986633312277448	-0.0136068488432732	0.00418466382538631
5.1	-0.0122023463943452	-0.00235491801479228	-0.0958768706624322	-0.983782626965456	-0.0955560319498373	-0.983720071202247	-0.0120800073145575	0.00658581520324401
5.2	-0.012117855638338	-0.00137003481876001	-0.247430349132785	-0.956997689981422	-0.2470033516722	-0.957119778536659	-0.0101826140188316	0.0087687568623539
5.3	-0.0119725382747034	-0.000743602118542847	-0.392890385625099	-0.907041652566422	-0.392601776090753	-0.907385983826529	-0.00767555846799744	0.0105521771422038
5.4	-0.0118760757303359	0.000304998292412577	-0.528969674826707	-0.835114491881128	-0.528833912595319	-0.83540383981998	-0.00497330528605668	0.0117296150765718
5.5	-0.0118116063241417	0.00120701955903759	-0.652118718676322	-0.742790865875492	-0.652068939380755	-0.743104484668053	-0.00233098431944677	0.012182083773998
5.6	-0.0116963926515634	0.00263846430874169	-0.759314064714471	-0.632533183887943	-0.759327570725378	-0.632703416940698	0.000162793557126486	0.0122846339609135
5.7	-0.0115340032761177	0.0038624527228782	-0.848300284792809	-0.506991359113153	-0.848276588675446	-0.507166352814067	0.00255983804466384	0.0121744416098391
5.8	-0.0112212466136165	0.00548466181924779	-0.916526627227785	-0.369066354373955	-0.916571515984304	-0.369358294202823	0.00491785527395061	0.0116954647609752
5.9	-0.0107088779679435	0.00686269403343131	-0.962659740442196	-0.222473770317091	-0.962780074300916	-0.222521645325331	0.00699627583037333	0.0108046267115856
6	-0.00990067193413434	0.00845842766939318	-0.985518781027758	-0.0703875068928	-0.985515734243218	-0.0704561568252309	0.0087086002809327	0.00969302091864361
6.1	-0.00891455642877665	0.009731478960049	-0.984362904327951	0.0833498703221537	-0.984366117021268	0.0832465947005196	0.0103496517651437	0.00818699748297845
6.2	-0.007803797584391	0.0109411908444396	-0.959364499867997	0.235165882141297	-0.959412582424003	0.234984292181856	0.0116288902801147	0.00608448658587876
6.3	-0.00670389058942326	0.0116815281191696	-0.911189111887638	0.381143907024531	-0.911213449974018	0.381015314402007	0.0123644452413107	0.00345193140626208
6.4	-0.00550042835838438	0.0121801494557105	-0.840922784328464	0.517879629524399	-0.840914073155105	0.517666193851933	0.0122800197026465	0.00045103616371675
6.5	-0.00436705414219048	0.0122335325192462	-0.75028048636482	0.642039349423035	-0.750380941539278	0.641867128324601	0.0115415925137688	-0.0025110072026994
6.6	-0.00300193171415607	0.0122682241433559	-0.641509695540151	0.750605036027864	-0.641658075023835	0.750459146122013	0.0102922103721264	-0.00503529150000885
6.7	-0.00172092124826988	0.0118946651340235	-0.517198962248567	0.841000736635646	-0.517320044486412	0.840843632661812	0.00839483848858799	-0.00716374854173811
6.8	-0.000411337123064982	0.0114796947719582	-0.380325185788553	0.910964802175515	-0.380536150798286	0.910889782807124	0.00605209822462632	-0.00857328504133567
6.9	0.000734068410057516	0.0106692174101636	-0.23434427627587	0.958839084450233	-0.234594815131561	0.958835265854546	0.0037903572722436	-0.00925253014690079
7	0.00190889554510901	0.00981831008162161	-0.0827213929756688	0.983545466252198	-0.0829794953894298	0.983515377922797	0.00160566280923891	-0.00963934206496143
7.1	0.00269446094371749	0.00870090552370718	0.0708527644066235	0.984393620965007	0.0706462636146984	0.984381510865006	-0.000586782798008497	-0.0094321062442058
7.2	0.00336346066114483	0.0075800940886253	0.222743997862436	0.961388381194525	0.222488885478299	0.961432363137002	-0.00239332640253441	-0.00857926033562709
7.3	0.00347393717729317	0.00624748111705243	0.369186408111153	0.915095779998649	0.368946394743589	0.915186409004775	-0.00395073307892303	-0.00739114477773033
7.4	0.00341786814683779	0.00513491924793776	0.506647005265246	0.846576367463325	0.506428919188044	0.846738091967994	-0.00529537757163831	-0.00592176706118944
7.5	0.00299043743415354	0.00399839946676196	0.631769080216428	0.757635690112826	0.631609167030462	0.757807353146357	-0.00608945925737741	-0.00408567732000174
7.6	0.00261487028803092	0.00315640878209161	0.741662020898278	0.650394277165794	0.741446797083825	0.650554936400515	-0.00614567590490554	-0.00252728344562678
7.7	0.00189966800252096	0.00258701892076931	0.833453263601163	0.527416483706724	0.833302292961867	0.52761116507584	-0.00604951138062129	-0.000976599415286731
7.8	0.00142844366397464	0.00245576724064152	0.9052264354788	0.391608251790668	0.905105578711807	0.391829591097349	-0.00536472678765032	0.000454168286372117
7.9	0.000833673355081546	0.00255613339006218	0.954898207743909	0.246431389736775	0.954857697776358	0.246656600338489	-0.00443923566227073	0.00173690065979824
8	0.000648751871828023	0.00294499300784692	0.981481215433217	0.0952387536972048	0.981551517320253	0.0955305510137835	-0.00360544543311257	0.00279623092577995
8.1	0.00031859164410671	0.00350799867734132	0.984325948015698	-0.0581829471910732	0.984449866601618	-0.0579119133497989	-0.00245710555068802	0.00374381687411208
8.2	0.00037843949759551	0.00415229570779112	0.963281107644377	-0.210192534318126	0.963346804432489	-0.209896822606848	-0.00129506213028386	0.00428251078355562
8.3	0.000362577922943794	0.00488853947846022	0.918884122719768	-0.357100652982717	0.919021464153252	-0.35684483844446	-3.86894991743901E-07	0.00443852067722466
8.4	0.000765066028959888	0.00561358263728702	0.852280824609831	-0.495328922969335	0.852492267300034	-0.495129177545512	0.00126566155780268	0.00412644426545202
8.5	0.00119603608235942	0.00631560260438253	0.765137034654949	-0.621508402154483	0.765252650023074	-0.621382553980315	0.00233438091792029	0.00350121432142176
8.6	0.00210719025050245	0.00684615656067311	0.659275857679744	-0.732675940181476	0.659472926497502	-0.732490609474766	0.00330802937751841	0.00271092072554476
8.7	0.00303192665494522	0.00720214219408175	0.537494624284847	-0.825945414573504	0.537776023007985	-0.825836061593841	0.00406924264880387	0.00172706102495658
8.8	0.00444584892280807	0.00717881289972926	0.402892043259347	-0.899291886381471	0.403097840690525	-0.899237369936656	0.00440612631283454	0.000589466724189915
8.9	0.00591809008239226	0.00668035587267693	0.258437290768361	-0.950926829860889	0.258678720989881	-0.950786404846786	0.00472434195084621	-0.000370993814124431
9	0.00771987511802034	0.00536981850185673	0.10766241154394	-0.979347517893601	0.108024135316112	-0.979317481670035	0.0051521535040592	-0.00134017477816593
9.1	0.00917584600344948	0.00350480314683429	-0.0454953208541999	-0.98411410942718	-0.0451431812709542	-0.984128376148611	0.00564538896464519	-0.00241880992394798
9.2	0.0103195399303937	0.00098767189916548	-0.197740281258691	-0.965025005084864	-0.197384706826879	-0.96509533520932	0.006180267316188	-0.00353528018639968
9.3	0.0106015776356021	-0.00158841079844813	-0.345116009888024	-0.922609671096738	-0.344759131404743	-0.922673689899461	0.00658883352335132	-0.00459206370282043
9.4	0.0103310370701774	-0.00431691257858807	-0.483984077940239	-0.857837387893273	-0.483660929003266	-0.857984851680849	0.0067943164354837	-0.00574756731871827
9.5	0.0090498110274025	-0.00654161283894906	-0.611129140355109	-0.772261713270424	-0.610922995543504	-0.772398749852411	0.00647342229276012	-0.00661375933879793
9.6	0.00744941944489449	-0.00853000656648732	-0.723527010611773	-0.667965947753146	-0.723254261014259	-0.668150376800126	0.00583667611367193	-0.0073749911223961
9.7	0.00522128239441993	-0.00978569188731065	-0.818278025542267	-0.547582567378021	-0.818031641620393	-0.547851424019721	0.00504644980495498	-0.00791853126709942
9.8	0.00277440693349208	-0.0105795204215146	-0.893271826994515	-0.413931748394869	-0.893062653662471	-0.414206276228488	0.00415853082152732	-0.00815629365950529
9.9	6.47458583562632E-05	-0.0104639183088677	-0.94655370935507	-0.270291200560379	-0.946441045585537	-0.270620148872646	0.0034820622263865	-0.00815220142581534
10	-0.00251102748929314	-0.00996416659392367	-0.977022255090993	-0.120175844845892	-0.97694175512086	-0.120554117859184	0.00278272599420536	-0.00800215868221006
10.1	-0.00505706826260613	-0.00866560271330645	-0.983675677485501	0.0329073005708253	-0.983655476858492	0.0324296442406006	0.00229871362004266	-0.00775067121238106
10.2	-0.00713241052007989	-0.00707306891885618	-0.966625851737471	0.185116936185892	-0.966610550029551	0.184667344640714	0.00197935236929439	-0.00766306653207778
10.3	-0.00905410395544585	-0.00486189180842761	-0.926127032784996	0.332878542347103	-0.926261844867609	0.332338432496947	0.00153053597371428	-0.00793674632027767
10.4	-0.0103165767415224	-0.00262590108164622	-0.863175331046757	0.472479930311373	-0.863439877996832	0.471944421282686	0.00107808848892448	-0.00851508051486845
10.5	-0.0111781036073547	2.30497743398784E-05	-0.779416148721561	0.600632769371545	-0.779698392258533	0.600246058410508	0.00063520040938547	-0.00935164055334151
10.6	-0.0113155176953404	0.0025541704016683	-0.676667313008955	0.714211303445066	-0.677093005586986	0.713867610704317	-0.000112966892824738	-0.0103290338616262
10.7	-0.0108002338697643	0.00528786005053647	-0.557670512341996	0.810507600584822	-0.55808156049504	0.810219576094077	-0.000854458524813893	-0.010992396959895
10.8	-0.00949308757371233	0.00756699562333449	-0.425055713605906	0.887111541051471	-0.42556560249212	0.886882613057712	-0.00175994120069017	-0.0116746460459662
10.9	-0.00782849609455843	0.00978775077844373	-0.282285151994013	0.942260866465821	-0.282772563282697	0.942209883802488	-0.0030366702877006	-0.012175830332253
11	-0.0053831388833638	0.0112085040853048	-0.13258564986403	0.974588182615856	-0.133131482444401	0.974584104910786	-0.00415278906747338	-0.0124644870876657
11.1	-0.00258174220440885	0.0122973149231004	0.0203625050929554	0.983213642412928	0.0197339178527054	0.983296780064904	-0.00521749627528852	-0.012639354968421
11.2	0.000548756103753538	0.0123283895169696	0.172586468683961	0.968069205012795	0.172067869558507	0.968272337200566	-0.00612504402800671	-0.0127319419709171
11.3	0.00361618937212827	0.0117641212102462	0.320557823070958	0.929544975737412	0.320128819178377	0.929807527203271	-0.00681894273693455	-0.012594382860978
11.4	0.00639956611534019	0.0102767032374642	0.460961529989385	0.868570808626741	0.460497866327992	0.868830816479205	-0.00752992461832024	-0.0122811369908059
11.5	0.00876244183379614	0.00860762620449028	0.590109537131623	0.786351451493451	0.589752159909985	0.786769485354407	-0.00839410405807179	-0.0118324487336184
11.6	0.0106543275738187	0.00609372850201417	0.704777160479938	0.68522572117702	0.704511077753489	0.685706161390849	-0.00931608848484618	-0.0112402920059644
11.7	0.0119128850362154	0.00361995890164613	0.802570722171948	0.567614120522691	0.802332310957845	0.56803618986243	-0.0102196007574576	-0.0105116998870399
11.8	0.0123676313198164	0.000739167716186699	0.88092523512732	0.43602212076845	0.880741925923782	0.436574360626709	-0.0112274894978018	-0.00967715586271083
11.9	0.0122707363088277	-0.00168108425998461	0.937792731984992	0.294078660634213	0.937755302784209	0.29462261012938	-0.0122643501228342	-0.00835829329694127
12	0.011140092204031	-0.00422660787606295	0.972021425696008	0.145162887826969	0.972009948288911	0.145642388903064	-0.013087375205981	-0.00700988000131636
12.1	0.00986078719521712	-0.00611765151083036	0.982718930582203	-0.00741535232395569	0.982695007268761	-0.00694238776982764	-0.0135063981972767	-0.00548995550066759
12.2	0.00789816540934029	-0.00789908412857895	0.969579337250195	-0.159895434167104	0.969686709344145	-0.159458384948642	-0.0138040291545841	-0.00389919937948818
12.3	0.00567571367665286	-0.00890056003989251	0.932862031277665	-0.308296062698274	0.933048274140285	-0.307938224897615	-0.013740820590551	-0.00234675658817753
12.4	0.00308951669863579	-0.00951876493868481	0.87387951742592	-0.449269437916701	0.874012925591168	-0.448894720830813	-0.0134439202379547	-0.000967387149546951
12.5	0.000712390982073407	-0.00930532465620475	0.793427861497948	-0.57944949178523	0.793886913783106	-0.579057668764324	-0.0130268426658237	0.000186719272477738
12.6	-0.00145529698343412	-0.00884779503056376	0.69388324371009	-0.69542034846221	0.694230378892955	-0.69511136869944	-0.0123804368249282	0.00107007280836273
