# GHZ S RI R 50
0.2	-0.000263002180607744	-5.28652123098497E-05	0.949154254124815	-0.307835623987536	0.948928011789854	-0.307977556962358	-6.82701666535766E-05	6.63089537526473E-05
0.3	-0.000433662574508378	0.000213766881202269	0.889260865844411	-0.451524934407638	0.889123429873767	-0.45157816625177	-0.000198907011498687	-0.000102159258838634
0.4	-0.000281482407687376	0.000372310117881128	0.807809651534887	-0.5838483214876	0.807849778430724	-0.583987943070061	-8.49160793081915E-05	-0.000134148170459072
0.5	-0.000380481051248727	0.000573909608655812	0.707054254722916	-0.702183420943686	0.706943652375571	-0.702279296558546	2.84740123688918E-05	-0.000226560999125457
0.6	-0.000336493011804088	0.000683097904491871	0.589128944251432	-0.803256190816903	0.588939374820169	-0.803259110363141	1.32895083358674E-05	-0.000452743856374737
0.7	-0.00035832347576936	0.00106637858769949	0.457046593473545	-0.884644134004102	0.456972564799979	-0.884678519749629	-1.14128174200069E-05	-0.000710910614720005
0.8	-0.000122034534907706	0.00113940756033556	0.314006470709539	-0.944728748381054	0.313887929033624	-0.944642035918352	-0.000182334144672587	-0.000918778522430742
0.9	-8.50366340961503E-06	0.00146790697812027	0.163419304132466	-0.981760333130151	0.163270313230873	-0.981717491057216	-0.000513323029603652	-0.00114481007695694
1	0.000258289193365106	0.00146805155559975	0.00890805626566613	-0.994879013121076	0.00879000065742302	-0.994849344602477	-0.00084662079187151	-0.00130362744160031
1.1	0.000461474557467726	0.00145382313225055	-0.144983189157803	-0.984054139917802	-0.145630570426102	-0.984019060749969	-0.00145031689628738	-0.00126870975784272
1.2	0.000796429022768574	0.000643107296021844	-0.296744386012199	-0.949290401778194	-0.296737415791711	-0.949346067381757	-0.00157888421364378	-0.000992326917940541
1.3	0.00108226656966328	-0.000743804762292268	-0.440400274812023	-0.891461354455258	-0.440492349569049	-0.89148581278979	-0.000741591435782864	-0.000317489719646343
1.4	0.00112290581977164	-0.00261234765214613	-0.573206287963036	-0.812170536600146	-0.573280059697321	-0.812070996179042	0.000626111682622963	-0.000523666149914137
1.5	0.00101677709002426	-0.00345549915996271	-0.692331184323833	-0.713097684766906	-0.692355777186809	-0.7130256625549	0.00185154873686076	-0.00137811746021624
1.6	0.000789265476683737	-0.00383401463277644	-0.794153999731739	-0.597228712462667	-0.794583342450666	-0.59672833407759	0.00160510721139492	-0.00236842397695446
1.7	0.000701012567917744	-0.00377724397985276	-0.877004536045726	-0.466529322868604	-0.877308745519572	-0.466039590512336	0.00100806494207823	-0.0028884542395151
1.8	0.000403761444758884	-0.00384972697869607	-0.938777676709374	-0.32423757985628	-0.938793120002795	-0.32422811773695	9.46363018009946E-05	-0.0033796094538987
1.9	0.000146984710659918	-0.00373961085077686	-0.977653459394202	-0.174444847657748	-0.977697958912178	-0.174497569446697	-0.000800399567283194	-0.00356063100630498
2	-0.000292249307244441	-0.00380426820360613	-0.992564179226188	-0.0210968551192283	-0.992658795677571	-0.0204475841939818	-0.00182337256345381	-0.00341701202374803
2.1	-0.000756382819326334	-0.00369275157321008	-0.983497129765569	0.134425062909039	-0.983596768779881	0.133941083085654	-0.00250217595005124	-0.00301055843540985
2.2	-0.00149036987154804	-0.00370086576628854	-0.950749797104182	0.28469099988055	-0.950788519812395	0.284824710902083	-0.00309081421196635	-0.00269549648493954
2.3	-0.00219843681800237	-0.00344665933797746	-0.894946534288349	0.428718700764948	-0.894782743206472	0.428807072383509	-0.00371006913851072	-0.00237181761399863
2.4	-0.00310615066680151	-0.00310242589552766	-0.816901451561767	0.562928754716379	-0.817192848564152	0.56246712994954	-0.00429436211152436	-0.00201967010919991
2.5	-0.00377737309769495	-0.00234933291448091	-0.71972631148133	0.682714298664892	-0.720028601800283	0.682333939802492	-0.00456288541428135	-0.00176821042377992
2.6	-0.00436266070358051	-0.00156183865960285	-0.605379786353378	0.785722244857621	-0.605300610491524	0.785662854869218	-0.00468738592606521	-0.00137359807503051
2.7	-0.00437488921911991	-0.00060252466517148	-0.475940134698868	0.869963386618603	-0.475910668909889	0.869977459740461	-0.00475403679789147	-0.00100050711194911
2.8	-0.00405632655590345	6.02273283994696E-05	-0.335289141268397	0.933119875571439	-0.335170986746933	0.933204282273891	-0.00452187492344452	-0.000514943253580982
2.9	-0.00302868823905061	0.000486887668880811	-0.186386298241229	0.973674299308062	-0.186381827487292	0.973729053600721	-0.00392928287252358	0.000170284442071634
3	-0.0020716175824746	0.000491912363313847	-0.0327876735349707	0.990684142246974	-0.0328519201977879	0.990755560841614	-0.00285183906980614	0.00072892241923195
3.1	-0.000915345460816077	0.000322539379482948	0.120550095163595	0.983689520778172	0.121197760725211	0.983770463852867	-0.00167164804301445	0.00102502799795115
3.2	-0.000178224661887531	-0.000245122940506052	0.272318357349558	0.952783989547852	0.272308421148773	0.95282355704093	-0.00076071459238633	0.00088225919780984
3.3	0.000672639531835691	-0.000931369754273736	0.41753823431602	0.8986088570657	0.416916135475009	0.898890384991563	0.000316191170603847	0.00054762967537319
3.4	0.00102203132078772	-0.00177644384760561	0.551384314821387	0.823150616890572	0.551299479405981	0.823265859121508	0.00132629029758271	-0.000207736020617775
3.5	0.00144549748101866	-0.00260526401207214	0.672278866331836	0.727621676221827	0.6722930934651	0.727647851782784	0.00197045455799615	-0.00129465554766352
3.6	0.00128819502591201	-0.00345989677433146	0.776536995439734	0.614797793178424	0.776958660212068	0.614403892896273	0.00210131575819492	-0.00239396584819654
3.7	0.00119650043079221	-0.00430136038136478	0.86283803996825	0.4861945244974	0.862845079490529	0.48632096230356	0.00200384142102111	-0.00337203876283466
3.8	0.000638323698980741	-0.00508069887032248	0.927667192051516	0.346301652858811	0.927695622191143	0.34648480140297	0.00145132313394141	-0.00443393406227668
3.9	0.000318312844973706	-0.00574761903949522	0.970188908466098	0.19756737758502	0.970090798710656	0.198154902989498	0.000330122777895131	-0.00552202532676576
4	-0.000451339934798117	-0.00628861607268034	0.98898108787729	0.045328400369919	0.989063039171183	0.0453713348746738	-0.000937668966342071	-0.00621615025579154
4.1	-0.00115751674045685	-0.00683628630107481	0.984049931322608	-0.108698735517784	0.983987884678419	-0.108634732900618	-0.00243329617790168	-0.00667991389333641
4.2	-0.00240908262804681	-0.00722697704123998	0.954827849588096	-0.260702607037921	0.955021457561417	-0.260133852109336	-0.00404524428266169	-0.00678672539995915
4.3	-0.0035461393785035	-0.00764750952613497	0.902988829027235	-0.405123207302828	0.902989709126177	-0.405104694238651	-0.00575371579530512	-0.00678366858416063
4.4	-0.00511274939561384	-0.00771397443325888	0.829146778152932	-0.5402150014091	0.829066948390095	-0.540199047890675	-0.00768938715859786	-0.00631185138802113
4.5	-0.00649751323090011	-0.0076305990258951	0.735264955484432	-0.662422845162243	0.735141648878043	-0.662276861841854	-0.00950616118036461	-0.00544450277398776
4.6	-0.00818769894009056	-0.00705558303977294	0.623450219401212	-0.768448691927228	0.623435794074656	-0.768219474444022	-0.0112163032484019	-0.00415125600986892
4.7	-0.00960310781797096	-0.00653774160472284	0.49647052942198	-0.855885900332573	0.496587620940192	-0.855641520943551	-0.0128232570090043	-0.00272954063661165
4.8	-0.0110246333867129	-0.0054283149395964	0.357326187707078	-0.922367889900069	0.357619725859911	-0.922179706330614	-0.013933850935473	-0.000786226532332983
4.9	-0.0117742145955863	-0.00439546303261083	0.209785949433502	-0.966188711802671	0.210045522031361	-0.966137896921729	-0.0142611416624057	0.0016067014255852
5	-0.012278624959857	-0.00324019300261854	0.0577146705306206	-0.986761288999794	0.0578728204640448	-0.986633612338439	-0.0136055800846235	0.00418328486843653
5.1	-0.0122021627014745	-0.00235517837910098	-0.0958738616068043	-0.983783220592371	-0.0955530229903395	-0.983720663819446	-0.0120797602114734	0.00658379558943572
5.2	-0.012118469979597	-0.00137009947948928	-0.24742744612849	-0.956999244117979	-0.247000447936624	-0.957121331387144	-0.0101835790671683	0.00876712227038129
5.3	-0.0119736887145247	-0.000743086844204495	-0.392888010596043	-0.907043862514819	-0.392599399680064	-0.907388193259714	-0.00767724418767065	0.0105515950706176
5.4	-0.0118772852675912	0.000306473535335219	-0.528967880899486	-0.835116858497963	-0.52883211771108	-0.835406206358998	-0.00497484045183296	0.0117305511731175
5.5	-0.0118113672100554	0.00120881007302715	-0.652116574746857	-0.742793606831418	-0.652066794333792	-0.743107225656535	-0.00233037875244866	0.0121834406006729
5.6	-0.0116964776379861	0.00263904632163774	-0.759312909914325	-0.632537134490742	-0.759326415297425	-0.632707367877812	0.000163253931187166	0.0122842740139989
5.7	-0.0115347244873211	0.00386317659301609	-0.848300304554812	-0.506995396844477	-0.848276607775366	-0.507170390832349	0.00255943698144606	0.0121740291157544
5.8	-0.0112223648897481	0.00548576499441682	-0.916527500095057	-0.369070202731847	-0.916572387995133	-0.369362143372123	0.00491683678285438	0.0116955016966272
5.9	-0.0107104286603846	0.00686474580648715	-0.962661150056364	-0.222477544683917	-0.962781484022991	-0.222525420209206	0.00699477944147825	0.0108059624164927
6	-0.00990068705047452	0.00846216393360279	-0.98552167456148	-0.0703915967096867	-0.985518627498046	-0.0704602468510045	0.00870933142676655	0.00969634641277432
6.1	-0.00891301926261974	0.00973398855181986	-0.984366947051921	0.0833473484434864	-0.984370159459297	0.0832440724137035	0.0103526094374172	0.00818835732441506
6.2	-0.00780212808261744	0.0109426628818579	-0.959368678626952	0.235164376261846	-0.959416760911302	0.23498278550261	0.0116319994314884	0.00608388513173677
6.3	-0.00670276554157647	0.0116821656487058	-0.911193478562601	0.381143156025211	-0.911217816431496	0.381014562857401	0.0123666140488985	0.0034496448776394
6.4	-0.00550034790794984	0.0121806932202318	-0.840927638593126	0.517879687095156	-0.840918926843472	0.517666250544952	0.0122804408416818	0.000448180582167811
6.5	-0.00436754834646369	0.0122346857060992	-0.750285291791592	0.642041458669305	-0.750385747211551	0.641869236540171	0.0115407375769165	-0.00251333176096245
6.6	-0.00300276887395779	0.0122699692837274	-0.641513153190948	0.750607679396854	-0.641661533179532	0.750461788725338	0.0102903339686176	-0.00503671191667536
6.7	-0.00172150949391131	0.0118971161611978	-0.517202087471174	0.841003764039623	-0.517323170054759	0.840846659263034	0.00839288884057764	-0.00716379219555479
6.8	-0.000411379961360355	0.0114823243608204	-0.380327875424198	0.910968626692153	-0.380538841332909	0.910893606761381	0.00605078194770816	-0.00857249810403771
6.9	0.000734446035296726	0.0106716968155061	-0.234345903203404	0.958843940094697	-0.234596443352635	0.958840121370847	0.00378984179118265	-0.00925143357797457
7	0.00190961537788104	0.00982027666874851	-0.0827211190671753	0.983549921938653	-0.0829792226555837	0.983519833643743	0.00160592173761032	-0.00963863165984634
7.1	0.0026947922064274	0.00870255936080042	0.0708530924229158	0.984397718039407	0.0706465907707404	0.984385607895953	-0.000586627431851548	-0.0094317503680555
7.2	0.00336364212992562	0.00758179408083479	0.222745214080624	0.961392763378692	0.22249010053072	0.961436745574291	-0.00239308116506572	-0.00857894808912754
7.3	0.00347407951721064	0.00624919000087651	0.369188846262922	0.915099872784671	0.368948831817351	0.915190502400695	-0.00395035960941851	-0.0073910078792992
7.4	0.00341798702039674	0.00513663219773491	0.50665046801939	0.846579338863818	0.506432381222465	0.846741064397413	-0.00529494448681114	-0.00592184314117835
7.5	0.00299097983432715	0.00399987952240979	0.631771907116895	0.75763783761554	0.631611993508568	0.757809501380122	-0.00608861197131501	-0.00408624726992218
7.6	0.00261498449398994	0.00315700788770267	0.741665781778086	0.650396786423463	0.741450557082325	0.650557446517561	-0.00614562144837948	-0.00252901313617114
7.7	0.00189882994851963	0.00258756098386079	0.833457918073838	0.527417922330616	0.833306946966085	0.527612604822799	-0.0060509656515656	-0.000978343622874686
7.8	0.00142684294907922	0.0024567763389714	0.905231291555784	0.391608425999561	0.905110434630999	0.391829766538622	-0.00536737820023977	0.000453312924419198
7.9	0.000831420059993412	0.00255827628211202	0.954902614792587	0.246430694268117	0.954862105062163	0.24665590587754	-0.00444252825683328	0.00173806693534001
8	0.000648108326295955	0.00294939250134362	0.981486334568706	0.0952379119225303	0.981556637207439	0.095529710627813	-0.00360668053607804	0.00280010200040965
8.1	0.000319638947730632	0.00351131248348724	0.98433109372005	-0.0581861056545717	0.984455013758139	-0.0579150707082135	-0.0024557297530664	0.00374628032529103
8.2	0.000379941507940562	0.00415481857920303	0.963284914169443	-0.210196909577419	0.963350612306218	-0.20990119670171	-0.00129309168617989	0.00428367642630565
8.3	0.000364259612642167	0.00489018012058928	0.918886720041642	-0.357105484800171	0.919024062980759	-0.356849669675893	1.6933915982098E-06	0.00443844054280228
8.4	0.000766002798496228	0.00561433907520458	0.852282855062217	-0.495333970828185	0.852494299350635	-0.495134225251971	0.00126679165269775	0.00412537149531256
8.5	0.00119651193190231	0.00631735418844855	0.765137939669868	-0.621515115134383	0.765253556209171	-0.621389266874393	0.00233530676911342	0.00350141967859776
8.6	0.00210831612214106	0.00684696135027003	0.659274279395205	-0.732682079476484	0.659471349907137	-0.732496749165799	0.00331034361883481	0.00270968501021926
8.7	0.00303218325563572	0.00720229470006241	0.537492084307024	-0.825950713029221	0.537773484459625	-0.825841361143666	0.00407086508447998	0.00172427880929652
8.8	0.00444516903184251	0.00717877555075422	0.402888704547653	-0.899296705470907	0.403094502889792	-0.899242189906117	0.00440654045766397	0.000585604979801972
8.9	0.00591610860265442	0.00668030768315338	0.258432733126201	-0.950931452898546	0.258674164947403	-0.950791028793646	0.00472275589488916	-0.000375455653495974
9	0.00771663716741306	0.00537083464388675	0.107655963592605	-0.979350144318749	0.108017688268724	-0.979320110495579	0.00514857629293373	-0.0013435454625641
9.1	0.00917187535046598	0.00350705874329372	-0.0455010367240832	-0.984115141941684	-0.0451488967598259	-0.984129410705751	0.0056404386632307	-0.00242065060713269
9.2	0.0103158787140943	0.000991798975667275	-0.197746222549308	-0.965025386199062	-0.197390647962353	-0.965095718508626	0.00617514366127901	-0.00353444201680014
9.3	0.0105995348757009	-0.00158332654295456	-0.345122441905077	-0.922608800601131	-0.344765563312153	-0.922672821790343	0.00658536360244813	-0.00458924030148179
9.4	0.0103304635039633	-0.00431193262701347	-0.483990564559719	-0.857834326237883	-0.483667416522944	-0.857981792450338	0.00679287584370552	-0.00574387072106786
9.5	0.00905135575807323	-0.00653766490412577	-0.611133359717304	-0.772257153623594	-0.610927215960049	-0.772394191356902	0.00647526414168587	-0.00661093404626425
9.6	0.00744998469614085	-0.00852834803713156	-0.723530809176096	-0.667961556423442	-0.723258060717065	-0.668145987042333	0.00583785615220152	-0.00737508892264311
9.7	0.00522081185419713	-0.00978401251780679	-0.818281161584289	-0.547577005761004	-0.818034779522066	-0.547845863862699	0.00504644997955308	-0.00791878803267695
9.8	0.00277339441949097	-0.010577675043773	-0.893273441992536	-0.413925235674225	-0.893064270767425	-0.41419976455267	0.00415789515701872	-0.00815630019862011
9.9	6.2854058940396E-05	-0.0104612290633294	-0.946553139401041	-0.270284771278332	-0.946440477909475	-0.270613719507419	0.00348065856238488	-0.00815098075620922
10	-0.00251138404246839	-0.00995972134049992	-0.977021363728297	-0.120170744946091	-0.976940865784589	-0.120549017785298	0.00278388830398458	-0.00799897141449714
10.1	-0.00505681454079343	-0.00866272138784313	-0.983673849078362	0.0329134020555355	-0.983653651473678	0.0324357463866376	0.00230128941350215	-0.00775013469854568
10.2	-0.00713289482827955	-0.00707034010291973	-0.966622119474164	0.18512241365363	-0.966606820585394	0.184672823217657	0.00198117147408464	-0.00766376678151162
10.3	-0.00905523127459068	-0.00485887446106369	-0.926122194929885	0.332882590027493	-0.92625700956501	0.332342482670411	0.00153136432459661	-0.00793801756559737
10.4	-0.0103186558094834	-0.00262194421186063	-0.863170648077594	0.472482601007422	-0.863435196766715	0.471947094750638	0.00107740590884657	-0.00851591748973531
10.5	-0.0111797111626335	2.95300457801633E-05	-0.779411042015962	0.600636244018601	-0.779693287307878	0.600249535497318	0.00063471648246901	-0.00935011752909581
10.6	-0.0112366488647617	0.00253307783872676	-0.676662201373556	0.714211398469462	-0.677087893777193	0.713867708571107	-6.65170254061052E-05	-0.0102818825351655
10.7	-0.0107976283778106	0.00529417335776235	-0.557663371292699	0.810507323994679	-0.558074419335751	0.810219303148385	-0.000851540221292222	-0.0109919743749467
10.8	-0.00948979026325049	0.00757161866201316	-0.425048987543111	0.88710982247521	-0.425558875358168	0.886880898277967	-0.00175717714279217	-0.0116759960497665
10.9	-0.00782552577816923	0.00979114344167791	-0.282278525471092	0.942258345527162	-0.282765934912166	0.942207365874697	-0.00303492085629138	-0.0121779662320133
11	-0.00538031594941513	0.0112110601182753	-0.132578504574145	0.974582890854827	-0.133124333736304	0.974578816708822	-0.00415162507127575	-0.0124668462764186
11.1	-0.00257970765679363	0.0122991524072653	0.020366876307034	0.983206572166626	0.0197382939090961	0.983289712115623	-0.00521735887408851	-0.0126418331238667
11.2	0.000550226170817095	0.0123299917996548	0.172589178409392	0.968061891095641	0.172070583646821	0.968265023978095	-0.00612551214562581	-0.0127339786924427
11.3	0.00361713122428146	0.0117655059400664	0.320559305506811	0.929537260070182	0.320130305631715	0.929799811426338	-0.00681984313517789	-0.0125959745115238
11.4	0.00639986902637152	0.0102784329731257	0.460961550179487	0.868562013610424	0.460497891271764	0.868822021363691	-0.00753108151699569	-0.0122817272455207
11.5	0.00876377181803839	0.00860927458962913	0.590105737994603	0.786342898103424	0.589748364979614	0.786760928847511	-0.00839323707941398	-0.0118330344567566
11.6	0.0106545769388204	0.00609389977286348	0.704772436383042	0.685219394513002	0.70450635637477	0.685699831252239	-0.00931626857859534	-0.0112429447903872
11.7	0.0119118585818628	0.0036203069378751	0.802565138298327	0.567608461646608	0.802326729581723	0.568030527964449	-0.0102215314033717	-0.0105142036055492
11.8	0.0123655065012915	0.000740027185057568	0.880918200537566	0.436017360721588	0.880734893547168	0.436569596065011	-0.0112309783074316	-0.00967872440938978
11.9	0.0122670567848255	-0.00167846328242318	0.93778383250674	0.294075938600134	0.937746403624052	0.294619882942189	-0.0122695477787304	-0.00835697278521864
12	0.0111387036944526	-0.0042209990916139	0.972013401902514	0.145163498772801	0.972001923714014	0.145642996000207	-0.0130892374318558	-0.00700473377036022
12.1	0.00986102549446538	-0.00611266368182822	0.982711383588247	-0.00741436995370647	0.982687460013357	-0.00694140905772042	-0.0135056772065528	-0.00548576370453141
12.2	0.00789937955897693	-0.00789436951773615	0.969571576851781	-0.159892621240493	0.969678947386318	-0.159455575465815	-0.0138019069515471	-0.00389575328226449
12.3	0.00567783338483977	-0.00889674332894893	0.93285516588002	-0.308291067342902	0.933041406266956	-0.307933231996653	-0.013737591183842	-0.00234457545524224
12.4	0.00309130606067549	-0.00951620642374819	0.87387500188832	-0.449262848164748	0.874008407651643	-0.448888133243978	-0.0134409589457273	-0.000966539430413363
12.5	0.000713927796340418	-0.00930235329356696	0.793424779647937	-0.579444251336409	0.7938838283633	-0.579052429412552	-0.0130234628335223	0.00018828206118908
