# GHZ S RI R 50
0.2	-0.000265596447173284	-5.016196630918E-05	0.949152168511185	-0.307833270057059	0.94892592701767	-0.307975203008191	-7.08977286803853E-05	6.90438924817769E-05
0.3	-0.000434007894492511	0.000219549912453773	0.889258896275559	-0.451522745711098	0.889121460740039	-0.451575977554656	-0.000199299372830987	-9.63021787868035E-05
0.4	-0.000272329567882411	0.000380296972246389	0.807801427279881	-0.583846170831657	0.807841553425971	-0.583985791427683	-7.58085168613466E-05	-0.000126038807367729
0.5	-0.000364005021930111	0.000557347655040978	0.707042314990833	-0.702159233150784	0.706931716317366	-0.702255107281732	4.49131399440874E-05	-0.000242963360378801
0.6	-0.000350307563161202	0.00066704628429657	0.589142454762679	-0.803231544504776	0.588952887667602	-0.803234468863401	-5.5687864830526E-07	-0.000468590057597621
0.7	-0.000376507517503515	0.00106700255164215	0.457063139605877	-0.884628331641485	0.456989112169523	-0.884662718796667	-2.9598517815803E-05	-0.000710004501368343
0.8	-0.000139238126930107	0.00115487429993275	0.314023483344231	-0.944711638413836	0.313904941086377	-0.944624929462929	-0.000199473896999482	-0.000902973015913798
0.9	-5.35680491639475E-06	0.00151149855048257	0.163449033923154	-0.981732860035841	0.16330004489091	-0.981690023984631	-0.000509985525355629	-0.00110091446351312
1	0.000335602146101882	0.0014672936356032	0.00897646443183857	-0.99487917013415	0.00885840669262996	-0.994849509708843	-0.000768934774198839	-0.00130452211760387
1.1	0.000465581108893465	0.00139143813292519	-0.144946623598983	-0.984087473413672	-0.145594024308415	-0.984052419977494	-0.00144577900333218	-0.00133143434085463
1.2	0.000765906890907975	0.000614971578076165	-0.296718439392496	-0.94931635540591	-0.296711467233076	-0.949372021735097	-0.00160942614380519	-0.00102117217773162
1.3	0.00105845528844732	-0.000744527227593983	-0.440369205766152	-0.891491202001871	-0.440461280716626	-0.891515664460132	-0.000766271441387977	-0.000319220224931699
1.4	0.00113527331849819	-0.00262433141950021	-0.573174493688999	-0.812229111550108	-0.573248273597898	-0.812129572607206	0.000636908249538078	-0.000536787446465101
1.5	0.000951361955492823	-0.00352339924786321	-0.692367020281139	-0.713170374502068	-0.692391616858321	-0.71309834731847	0.00178484065118047	-0.00144601340641193
1.6	0.000719330310378749	-0.00377565524987959	-0.794187425763796	-0.597239222226448	-0.794616776868465	-0.596738822156735	0.0015342285990186	-0.00230927068317973
1.7	0.000702747703146203	-0.0037080124549817	-0.877017637058703	-0.466543056380773	-0.87732185499482	-0.466053316971223	0.00100921668841112	-0.00281818118996501
1.8	0.000452225481032813	-0.00379481277096695	-0.93879909853101	-0.324259421821276	-0.938814542380992	-0.324249959652569	0.000142984364719549	-0.00332367984020933
1.9	0.000259845218717505	-0.00374690742779015	-0.977704294153397	-0.1744463743239	-0.977748796319954	-0.174499098449196	-0.000687308051221856	-0.003567211709989
2	-0.000294155298854712	-0.00396702727247913	-0.992564143347533	-0.0210272701815759	-0.992658714154817	-0.0203779936166342	-0.00182519485268011	-0.0035795339460543
2.1	-0.000869128432536216	-0.00370086454605883	-0.983446266358865	0.134423588423905	-0.983545902940495	0.13393963381162	-0.00261496283902454	-0.00301811639490359
2.2	-0.00154283621382789	-0.00364462763059476	-0.950727321431665	0.284667563258588	-0.950766045194534	0.284801269848145	-0.00314314017300167	-0.00263862929949711
2.3	-0.0022022761731634	-0.00336922014771365	-0.894931238140892	0.428705063960908	-0.894767450816365	0.428793434765273	-0.00371355254281119	-0.00229391959671489
2.4	-0.00301981579370828	-0.00302966397274151	-0.816849806289803	0.56291941944166	-0.817141199306007	0.562457823278518	-0.00420743674105063	-0.00194677552756519
2.5	-0.00367990870022887	-0.00245454764248042	-0.719665352847515	0.6825941701266	-0.719967587163394	0.682213846148159	-0.00446480869343731	-0.00187295179345604
2.6	-0.00441361178454174	-0.00162021800573659	-0.605434613631459	0.785618131762752	-0.605355435274421	0.785558753245956	-0.00473849715755291	-0.00143180724371661
2.7	-0.0044078224446871	-0.000601945736243139	-0.475999518765079	0.86990279025287	-0.475970054861156	0.869916865435054	-0.00478766161924938	-0.000999971474085342
2.8	-0.00406464500743128	6.81372886462093E-05	-0.335344071524313	0.933058467203458	-0.335225927845314	0.93314287920107	-0.00453125704548006	-0.000506875133907154
2.9	-0.00302743733588662	0.000474295263045162	-0.186479960094617	0.97358141243912	-0.186475495719101	0.973636163159172	-0.00392950267791985	0.00015816888031616
3	-0.00212315747709529	0.000489364070955632	-0.0329935381657678	0.990685938712454	-0.0330578002066242	0.990757344595158	-0.00290471058460396	0.000726942687194569
3.1	-0.000921045082867468	0.000373113157857492	0.120449530783839	0.983780641932326	0.121097238400215	0.983861663870639	-0.00167863158494547	0.0010766546316678
3.2	-0.00014686156440046	-0.000215115634171385	0.272249789963771	0.952849908376787	0.272239849960515	0.952889476805538	-0.000730308240004119	0.000913968348319856
3.3	0.000724743059114073	-0.000928102056138609	0.417458902953136	0.898681858746524	0.416836754354176	0.898963331502939	0.000367597878690298	0.000552739486057734
3.4	0.00108078385571765	-0.00184356186103805	0.551305927660557	0.823293303676151	0.551221069017701	0.823408542245893	0.00138464386312102	-0.000273158088020057
3.5	0.0013482295264969	-0.00269919768163717	0.672368007793545	0.727788439612798	0.672382236294365	0.727814620693479	0.00187269649588114	-0.0013869234939995
3.6	0.00121324619187274	-0.00339644922624311	0.776611250873473	0.614817936310118	0.777032933704075	0.614423995002516	0.00202654945599202	-0.00232830521367599
3.7	0.00119810257188832	-0.00422980459945973	0.862866202789324	0.486221839174358	0.862873241308314	0.486348281895604	0.00200601144122733	-0.0032983515768377
3.8	0.000690861935584923	-0.00502190863311529	0.927712322743981	0.346345485880379	0.927740749861596	0.346528645806128	0.00150475538694456	-0.00437329335359536
3.9	0.000445705475497033	-0.00575877928373923	0.970294468743295	0.197566226691899	0.970196361929365	0.198153815538785	0.00045857372455846	-0.00553176288619034
4	-0.000460425681468993	-0.00647383094424567	0.988975271803691	0.0451854938526409	0.989057228254474	0.0452284160267005	-0.000945851674475034	-0.00640037134125008
4.1	-0.00128422264841168	-0.00684443306761176	0.983949883581594	-0.108698355868453	0.983887843857933	-0.108634359017886	-0.00255918893699055	-0.00668719993319711
4.2	-0.00246902519541903	-0.00716471115313499	0.954782145795377	-0.260662110015081	0.954975727526333	-0.260093381264154	-0.00410437105024603	-0.00672373199110399
4.3	-0.00355218290863516	-0.00755958228565052	0.902955652030086	-0.405102068374783	0.902956531987632	-0.405083556033613	-0.00575894055335805	-0.00669523715914969
4.4	-0.00501210505952875	-0.00762922314734431	0.829042732221625	-0.540201390126432	0.828962910822229	-0.540185434471336	-0.00758757716426174	-0.00622674287363098
4.5	-0.00638172432686455	-0.00776069465372022	0.73515001782167	-0.662202403359456	0.735026727428883	-0.662056465221081	-0.00938886723474353	-0.00557529874685498
4.6	-0.00825690062427186	-0.00713432146913335	0.623539195599432	-0.768264637678443	0.623524728672651	-0.768035443016125	-0.0112858015600114	-0.004230323382846
4.7	-0.00966062542502924	-0.00653691864311961	0.496566053049838	-0.855776159986651	0.496683104998362	-0.855531775910545	-0.0128815960314705	-0.00272870861168117
4.8	-0.0110521089982516	-0.00540229728087021	0.357414283897982	-0.922256307297266	0.357707777320873	-0.922068101128536	-0.0139620776683615	-0.000759934229805924
4.9	-0.0117668441655799	-0.00438045383347567	0.20994191384598	-0.966021502125055	0.210201442575453	-0.965970644611306	-0.0142549798924349	0.00162161397968476
5	-0.0123285091212072	-0.00324848179832516	0.0580561223624736	-0.986761468489866	0.0582142314877827	-0.986633734692859	-0.013658257194387	0.00417566655139464
5.1	-0.0122139754117013	-0.00227593625185616	-0.095709344097796	-0.983924800382991	-0.0953884761540665	-0.983862178096455	-0.0120929194680592	0.00666529447565147
5.2	-0.0120575614604002	-0.00130885810896789	-0.24731432585675	-0.957100400822214	-0.246887280936168	-0.957222438442636	-0.0101235233310141	0.00883039711068281
5.3	-0.0118563812106308	-0.000734712987607904	-0.392757530383639	-0.907155911429107	-0.392468847369161	-0.907500211962946	-0.00756121002649772	0.0105618125043061
5.4	-0.0117409841367029	0.000143829841261196	-0.528841666670927	-0.83534134451632	-0.528705820345816	-0.835630696977147	-0.00484022653348718	0.0115704705425187
5.5	-0.0120516113820113	0.000995990703085917	-0.65225620163966	-0.743042774443887	-0.65220638829062	-0.743356478911038	-0.00256949877397635	0.0119742234786433
5.6	-0.011864338392582	0.00278690455617581	-0.759416558518767	-0.632565951381928	-0.759430072854304	-0.63273620105981	-3.58134625610133E-06	0.0124338803869692
5.7	-0.0115316996736562	0.00402298937061734	-0.848336321840314	-0.507037883057112	-0.848312620611019	-0.507212885947642	0.0025626852179878	0.0123359018387001
5.8	-0.011110255018579	0.00561437476399542	-0.91659140821077	-0.369139669301091	-0.916636287997419	-0.369431636966018	0.00502988120794538	0.0118265248418114
5.9	-0.010446412882849	0.00684116866743371	-0.962821551307109	-0.222476329924743	-0.962941906078934	-0.222524208460707	0.00726180855235604	0.0107835199293515
6	-0.00992659130104349	0.00810973329115671	-0.985505486376488	-0.0701744854078872	-0.985502454363817	-0.0702431340220566	0.00868265512193955	0.00934043786816719
6.1	-0.00912910068323284	0.00972184123099641	-0.98421451353005	0.083347609107854	-0.984217726817444	0.0832443489863089	0.0101321964275916	0.00817735644835586
6.2	-0.00788853446004742	0.0110322188219882	-0.959295345396422	0.235105826497603	-0.959343416296983	0.234924249472309	0.011542787667072	0.00617675768262822
6.3	-0.00670669576973722	0.0117737456238037	-0.911137345628054	0.381111302268779	-0.911161680918544	0.380982717253489	0.0123606400359569	0.00354471487147729
6.4	-0.00543846604630694	0.0122198019338718	-0.84076407658662	0.517856150618476	-0.840755380383508	0.51764274626024	0.0123390295828998	0.000490759388818028
6.5	-0.00436448890740788	0.012211197957536	-0.750119333825275	0.641709781746583	-0.750219729343066	0.641537604563678	0.0115417981774429	-0.00252580441221475
6.6	-0.00298806283026662	0.0122926032248226	-0.641638778820676	0.750338769134716	-0.641787100428413	0.75019285599986	0.0103094380983437	-0.00500461403839602
6.7	-0.00168646330636918	0.0118967525974732	-0.517335688339777	0.840840194961804	-0.517456730676007	0.840683076753821	0.00843255011740363	-0.00715801498366229
6.8	-0.000376771588322805	0.0114520666339647	-0.380450849588956	0.910801252399168	-0.380661779090102	0.910726202574104	0.00608952744285396	-0.00859743952576772
6.9	0.000729442044495941	0.0105965859169292	-0.23456945704732	0.958597459467953	-0.234819948824307	0.958593571491859	0.00379032903380572	-0.00932077779201528
7	0.00181204732026916	0.0098229950690618	-0.0831974368115846	0.983550449586012	-0.0834555365066751	0.983520235945067	0.00151862514365956	-0.00963543896447604
7.1	0.00268653329510943	0.00876082825143826	0.0706223801667621	0.984580294056084	0.0704158468579321	0.984568130988374	-0.000590148287914333	-0.00937587567768616
7.2	0.00338876868150877	0.00761051704141304	0.22257913524587	0.961522096773023	0.222323990300679	0.961566033542117	-0.00236494378614235	-0.00855149766544256
7.3	0.00351559446670272	0.00625457568650585	0.368995622920951	0.915247679330895	0.368755571180749	0.915338257861939	-0.00390597808080619	-0.00738688451295013
7.4	0.00346728290146867	0.00508359832149183	0.506461694551593	0.84689172821261	0.506243517082168	0.847053410530428	-0.00524431785881155	-0.00597951665311158
7.5	0.00289090196740346	0.00391233201357118	0.631958194813271	0.757979086945634	0.631798206247604	0.758150804843562	-0.0061907497511382	-0.0041765719947495
7.6	0.00252394649916819	0.0032325017033231	0.741800991224614	0.650437976146706	0.741585747899095	0.650598669913822	-0.00623753038881254	-0.00245185712419834
7.7	0.0018996281378134	0.00269745536168195	0.833501443673134	0.527481027396028	0.833350455838821	0.527675719208921	-0.00604973829784089	-0.000866639725421762
7.8	0.00152382586691292	0.00256790282092726	0.905314559136679	0.391707882430338	0.905193674943177	0.39192924184771	-0.00527066009302673	0.000565074577053538
7.9	0.00108137439058663	0.0025399388187813	0.955118938775905	0.246432584502779	0.955078432348459	0.246657846199236	-0.00419258375295628	0.00171706506120666
8	0.000611946334089802	0.00257053554947105	0.981446538704805	0.0949653299199475	0.981516915788707	0.095257090045262	-0.00364099240840637	0.0024218827193845
8.1	7.03971347365204E-05	0.00349437394991321	0.984133885628421	-0.0581768863993034	0.984257781526423	-0.0579059060203093	-0.00270547279415742	0.00373050180355245
8.2	0.000252774021060348	0.00428030578158456	0.96319041066878	-0.210116578805547	0.96325608401525	-0.209820894871507	-0.00142059758023517	0.00441072748571939
8.3	0.00034844863619008	0.00508111749382548	0.918813065019329	-0.357064811913002	0.918950393427328	-0.356809016861916	-1.45575332050805E-05	0.00463090284626254
8.4	0.000999674704659265	0.00579984723742044	0.852058804971029	-0.495300712783422	0.852270221110628	-0.495101027825437	0.00149981276342	0.00431323704350265
8.5	0.00143104003028343	0.00600435737592797	0.764930639965585	-0.621067803960563	0.76504617691516	-0.620941986856154	0.00257074895863823	0.00319329089261259
8.6	0.00193882139255893	0.00667326507287491	0.659439067030135	-0.732333237102335	0.659636040823587	-0.732147863679519	0.00314180612562586	0.0025401008889608
8.7	0.00287893599884543	0.00720875844163923	0.537664448369563	-0.825734661186007	0.537945794550187	-0.825625244058205	0.00391791129121082	0.00173526629154067
8.8	0.00435013692947793	0.00726639269799213	0.403047140947097	-0.899073398383212	0.40325289720708	-0.899018841245432	0.00431236638400764	0.000678257315175489
8.9	0.00593591371025446	0.00680199332414484	0.258728875399698	-0.950601134707235	0.258970195083951	-0.950460653717715	0.0047451821302779	-0.000248152087975009
9	0.00774135721450859	0.00535797674577904	0.108276419137497	-0.979357660301776	0.108638152672309	-0.979327398054465	0.00517743160573316	-0.00135687105134958
9.1	0.00916092301303573	0.00357950462355322	-0.045200352995881	-0.984344284233941	-0.0448481316735036	-0.984358444967278	0.00563219302363694	-0.00234800151600853
9.2	0.0103934683246424	0.00107275051712923	-0.197525838004458	-0.965189356960405	-0.197170203639275	-0.965259607768509	0.00625483073782773	-0.00345289928377383
9.3	0.0107703632068154	-0.00156484607943624	-0.344867232765902	-0.922798336942199	-0.344510302400821	-0.922862253198575	0.00675769077533625	-0.00457118330809593
9.4	0.0105468879111054	-0.0045660404287929	-0.483740281175221	-0.858243389352359	-0.483416993865898	-0.858390753025815	0.00700807763803508	-0.00600117005092286
9.5	0.00867790684730789	-0.00684410020137767	-0.611368728870496	-0.772687779218067	-0.611162472349383	-0.772824866977536	0.00609956427052804	-0.00691809384848558
9.6	0.00720429998369935	-0.00830921078389821	-0.723691797230312	-0.668028021088236	-0.723419014843668	-0.668212499035937	0.00559163409151325	-0.00715357153482087
9.7	0.00522279071397026	-0.00954346755027633	-0.818338569582497	-0.547668760307972	-0.818092150727097	-0.547937634274463	0.00504812930212799	-0.00767596082154705
9.8	0.00294697535702624	-0.0103787027889113	-0.893386849055341	-0.414059217514794	-0.893177623414379	-0.41433377507549	0.00433086629754088	-0.00795501296641818
9.9	0.000473670539879394	-0.0105128750269426	-0.946833245186655	-0.270277805701871	-0.946720581016464	-0.270606852825619	0.00389202602695223	-0.00819995007541502
10	-0.00258705574706658	-0.0104749387373825	-0.976964813817947	-0.119824585000352	-0.976884453249795	-0.120202847585294	0.00270802172277217	-0.00851444589116479
10.1	-0.00536797862463954	-0.00867024084354854	-0.983435983794543	0.0328955591827753	-0.983415786295652	0.0324180193642111	0.00198603915662992	-0.00775614773802797
10.2	-0.00726704029291082	-0.00692841582793298	-0.966512743223111	0.185023018269753	-0.966497411106409	0.184573486643692	0.00184328678999901	-0.00751798156367122
10.3	-0.00906307769243184	-0.00467984450604691	-0.926037691804735	0.332836856194503	-0.926172485498521	0.332296798993802	0.00152033920530016	-0.00775476845495285
10.4	-0.010131121044274	-0.00249008921276703	-0.862892801136573	0.47244784669074	-0.863157335825955	0.471912509826039	0.00125987372320375	-0.00838025058624093
10.5	-0.0110508058063831	-0.000158153361773929	-0.779164626734352	0.600089122822311	-0.779446609039552	0.599702541092917	0.000757838223738289	-0.00952483162895003
10.6	-0.0112996688496189	0.00246278953384932	-0.676857481441605	0.71379117378909	-0.677282949483502	0.713447357148822	-0.000128062398911725	-0.0103378509250089
10.7	-0.0108288667878533	0.00529032153687435	-0.557867343717068	0.810242387162534	-0.558278255713895	0.809954263416162	-0.000879873791068651	-0.010983375528956
10.8	-0.00955745723404467	0.00762694695140597	-0.425238697743601	0.886835856043171	-0.425748432615789	0.88660682021923	-0.00181573946986744	-0.0116965609595435
10.9	-0.0078240208945943	0.00974327052262993	-0.282645878314804	0.94184565822724	-0.28313311971348	0.941794460534026	-0.0030219738776532	-0.0122120650537885
11	-0.00549609182243622	0.0112095385486655	-0.133332604267787	0.97460454597787	-0.133878498676093	0.974600058256441	-0.00424791473281934	-0.0124665598560885
11.1	-0.00259935875685515	0.0124018303764268	0.0200037395171516	0.98348215422115	0.0193749546348651	0.983565081123191	-0.00522646404962125	-0.0125430212254187
11.2	0.000611767302955658	0.0124047486647314	0.172319104597721	0.968260905300145	0.171800369365262	0.968463910222402	-0.00605528017299042	-0.0126617994588076
11.3	0.00375245382913844	0.0117814870546679	0.320238787110545	0.929770946938348	0.319809635187232	0.930033363939695	-0.00667068806959217	-0.0125827897239182
11.4	0.00656612526703805	0.0100709771103099	0.460661235917257	0.869075419521073	0.46019729577157	0.869335271390842	-0.00735173035747322	-0.0125023823946538
11.5	0.00843974851171659	0.00836465248579555	0.590407816227565	0.786851287956279	0.590050202477491	0.787269545595578	-0.00872773512625506	-0.0120882422119001
11.6	0.010437838428894	0.00629422179452915	0.704964874829459	0.685298222042562	0.704698780539104	0.685778774090052	-0.0095373437041994	-0.0110403932661257
11.7	0.0119142673017628	0.00385432279391368	0.802637697473828	0.567720950409074	0.802399237191794	0.568143057939859	-0.010220841925139	-0.0102792307559825
11.8	0.0125477373160429	0.000948811324716191	0.881062624564152	0.436181748543351	0.88087923305544	0.436734082051361	-0.0110500280234981	-0.00946944173624899
11.9	0.0126612027655958	-0.0017283308297617	0.938140874470543	0.294062281680198	0.938103499109319	0.294606416879442	-0.0118853276676791	-0.00840466038251284
12	0.0110422365680943	-0.00478088153438053	0.971935997705022	0.144751936054139	0.971924714135507	0.145231370892515	-0.0131816777663081	-0.00755282023436003
12.1	0.00952355960977842	-0.00612103165765027	0.982435614499926	-0.00740151458229613	0.982411692454218	-0.00692868670746093	-0.0138369351483679	-0.00549356939227707
12.2	0.00773708085785985	-0.00773000213836202	0.969443128970288	-0.159788399289393	0.969550447364695	-0.159351408468989	-0.0139622304833898	-0.00373270784819189
12.3	0.00566054609419026	-0.00866224980025158	0.932750461512633	-0.308253411617134	0.932936679759971	-0.307895616232545	-0.0137541226027341	-0.00210929169264892
12.4	0.00336251981169604	-0.00931760936719882	0.873525274038931	-0.449233130826692	0.873658686632292	-0.44885855782151	-0.0131645690098929	-0.000766568523456685
12.5	0.000917614888367788	-0.00961396688116843	0.793132589565934	-0.578794024338481	0.793591208164563	-0.578402284633146	-0.0128171279947673	-0.000135398036675075
