# GHZ S RI R 50
0.2	-0.000280605968194153	-3.32480699161541E-05	0.94915431397776	-0.307835506889014	0.948928071656553	-0.307977439896239	-5.08006766996115E-05	4.66020035938441E-05
0.3	-0.000455946793598714	0.000256507625345694	0.889260990630579	-0.451524772140652	0.889123554665466	-0.451578004014526	-0.000176816169105584	-0.000144911034414699
0.4	-0.000296819956700649	0.000437502056166246	0.807809842920851	-0.583848149940119	0.807849969854076	-0.583987771520126	-6.97141912470407E-05	-0.000199261510505953
0.5	-0.000391085986842962	0.000642496714595407	0.707054537577822	-0.702183188340531	0.706943935261466	-0.702279063999395	3.90546292074512E-05	-0.000295236846454809
0.6	-0.000367167539708206	0.000773197248932797	0.589129409803994	-0.803256060609041	0.588939840341649	-0.803258980241936	4.3685105291163E-05	-0.000542991838568461
0.7	-0.000386355892657929	0.0012010615659467	0.457047092643712	-0.884644144194555	0.456973063967564	-0.884678529981029	1.62005233509125E-05	-0.000845638988169654
0.8	-0.000120332818201014	0.00131858753920278	0.314006961405233	-0.944728832328744	0.313888419663054	-0.944642119898026	-0.000184528035054898	-0.00109776539303707
0.9	6.48491635377138E-05	0.00167699432370537	0.163419848760966	-0.98176035804943	0.163270857819202	-0.981717516051457	-0.000587035188504031	-0.00135316598097867
1	0.000436224545256842	0.00160802586441002	0.00890904939541921	-0.994879164953808	0.00879099373843846	-0.994849496548142	-0.00102360906939214	-0.00144291213702199
1.1	0.00061536495578043	0.00146265642691546	-0.144982111008583	-0.984054967154186	-0.145629492749264	-0.984019888735861	-0.00160307720946884	-0.00127812246890201
1.2	0.000864165010537449	0.000577136910697565	-0.296743675525607	-0.949291581769455	-0.29673670524125	-0.949347247417096	-0.00164580146823475	-0.000927927188123316
1.3	0.00101730365819469	-0.00082155523100592	-0.440400005426032	-0.891462522748656	-0.440492080250446	-0.891486981176358	-0.00067714861475084	-0.000241987856904942
1.4	0.000943459674127488	-0.00260138280939915	-0.573206216350387	-0.812171622313889	-0.573279988215822	-0.812072081859063	0.000803732700962806	-0.000535900409874041
1.5	0.000740057615866426	-0.00330161214924757	-0.692331398010937	-0.713098423234001	-0.692355990916511	-0.713026400982256	0.00212617724294247	-0.00153199888280066
1.6	0.000560662386309076	-0.00343521209138022	-0.794154221057989	-0.597229396122349	-0.794583564238879	-0.596729017620757	0.00183234455312014	-0.00276568077463777
1.7	0.000652942229768914	-0.0032820275788156	-0.877004911580111	-0.46653018846708	-0.877309121570051	-0.466040455927579	0.00105577678259436	-0.00338223305533866
1.8	0.000514498981562552	-0.00337648019659937	-0.938778435651501	-0.324238442107851	-0.938793878966221	-0.324228979987893	-1.60499021623981E-05	-0.00385153792608668
1.9	0.000364535595915692	-0.00338436148509163	-0.977654632922394	-0.174445404942306	-0.977699132478361	-0.174498126812716	-0.00101720823166831	-0.00391491252147311
2	-0.000156954534747633	-0.00359760740837235	-0.992565345157895	-0.0210968278956873	-0.992659961685624	-0.0204475562031103	-0.00195815649458518	-0.00362422394950497
2.1	-0.000711327214136971	-0.00339616899404371	-0.983498111188042	0.134425091810043	-0.98359775024872	0.133941111499969	-0.00254782678591837	-0.00330694180353311
2.2	-0.00136524168672916	-0.00334320080431821	-0.950750937037504	0.284691118814135	-0.950789659817742	0.284824829978593	-0.00321585875240594	-0.00305261053236991
2.3	-0.00196095267797513	-0.00312697232153613	-0.894947794659069	0.428719121292014	-0.894784003373938	0.428807493054709	-0.00394695889018816	-0.00269112749077435
2.4	-0.00277206876387499	-0.00293646725858848	-0.816902496260083	0.562929555861401	-0.817193893679593	0.562467930501877	-0.0046270538651344	-0.00218578925396163
2.5	-0.00354315548723229	-0.0024618290443785	-0.719726956631529	0.682715183290532	-0.720029247353913	0.682334824075543	-0.00479544087296238	-0.00165824813275518
2.6	-0.00442876614426931	-0.00170818493769058	-0.605380670419897	0.78572326085008	-0.605301494443702	0.785663870787312	-0.00462180206571965	-0.00123077941242955
2.7	-0.00461039100341888	-0.000609175304348436	-0.475940722687672	0.869964780427742	-0.475911256848318	0.869978853564341	-0.00452045716769867	-0.000996908019323919
2.8	-0.00433989559227486	0.00021806932374599	-0.335289364264711	0.933121456328982	-0.335171209526108	0.933205863121519	-0.00424075804799779	-0.000674832062101026
2.9	-0.00329359532174295	0.000766634848276005	-0.186385713326222	0.973676008050705	-0.18638124251442	0.973730762421296	-0.00366676052226237	-0.00011068789506248
3	-0.0023219148708737	0.000892608810429155	-0.0327869637900453	0.990685292525608	-0.0328512104717538	0.990756711246565	-0.00260385366745331	0.000327533859520499
3.1	-0.00105600114298968	0.000846438750488938	0.12055102871885	0.983691384287702	0.121198695620318	0.983772327063331	-0.00153265421923838	0.000501327632137448
3.2	-0.000196132045838269	0.000289377306614069	0.272319879062435	0.952784802237087	0.272309942898761	0.952824369789721	-0.000743933784548529	0.000347646570972055
3.3	0.000732604210838754	-0.000438480220752233	0.41753969919589	0.898609417704015	0.416917599958281	0.898890946635286	0.000255221061722738	5.46416590432581E-05
3.4	0.00109395361270129	-0.00136382347707793	0.551385686541853	0.823151243312913	0.551300851108515	0.823266485760911	0.0012539328529344	-0.000620633354726096
3.5	0.00140402607200086	-0.00219498799449529	0.672281670863185	0.727622116141753	0.672295898074965	0.727648291736239	0.00201118087364032	-0.00170551231412647
3.6	0.00126742155773792	-0.00290781623746545	0.77653974556968	0.614797249695502	0.776961410267969	0.614403347781856	0.00212155547281831	-0.0029456318471908
3.7	0.00129603986148554	-0.00372241506381905	0.862840282406475	0.486193331380599	0.86284732221171	0.486319769346197	0.00190470367781708	-0.00395090334519943
3.8	0.000840839651716465	-0.00456484396156938	0.927669128778916	0.346300118795038	0.927697559346332	0.346483267514863	0.00124965546403927	-0.00495039563476348
3.9	0.000568044299453017	-0.00539272253403531	0.970190799754937	0.197565463340319	0.970092691190722	0.19815298984114	8.14397959004853E-05	-0.00587816505882406
4	-0.000387663503842421	-0.00611512578188991	0.988982438954303	0.0453254166931032	0.989064390480557	0.0453683509986232	-0.00100087769215305	-0.00639307975777187
4.1	-0.00129786023778404	-0.00653976654955868	0.984050228187288	-0.108701558136065	0.983988181684421	-0.108637555305975	-0.00229443675508376	-0.0069794984861412
4.2	-0.00256105361081661	-0.00679710534462091	0.95482776580508	-0.260705234474118	0.955021375367008	-0.260136479694358	-0.00389533853773102	-0.00721937236604161
4.3	-0.00364775572165345	-0.00714918747541469	0.902988476787359	-0.405126283702471	0.902989356942072	-0.405107770623299	-0.00565476808143731	-0.0072844069653437
4.4	-0.00512054236902255	-0.00724396855063311	0.829145639016134	-0.540218409996182	0.829065809235857	-0.540202456182566	-0.00768446432062743	-0.00678340352799398
4.5	-0.00656410281288098	-0.00734933639042661	0.735262156349491	-0.662425191329068	0.735138850339534	-0.662279207633279	-0.00944158060725811	-0.00572843866400856
4.6	-0.00850693461760298	-0.00673900256276751	0.623448536663928	-0.768449738163767	0.623434111795638	-0.768220520709603	-0.0109010438733026	-0.00447107887476116
4.7	-0.0100402763940131	-0.00604409369286117	0.496469211274542	-0.855886928660296	0.496586303227889	-0.855642549411381	-0.0123916542508529	-0.00322552413356169
4.8	-0.0114775427054627	-0.00474469546278522	0.357324866847329	-0.922369164356724	0.357618405531992	-0.922180981154354	-0.0134870816144376	-0.00147081506744365
4.9	-0.012159741808153	-0.00355159670732359	0.209784403386006	-0.96619015017362	0.210043976359153	-0.966139335713872	-0.0138817092023173	0.000763665012903125
5	-0.0125972576940685	-0.00225078304234593	0.057713181448954	-0.986763120596949	0.0578713318662511	-0.986635443965437	-0.0132931839369781	0.00319544710797713
5.1	-0.0122997287336554	-0.00118011838753718	-0.095877125418236	-0.983785868582275	-0.0955562856549942	-0.983723312593388	-0.0119882937166445	0.00541354740313452
5.2	-0.0118911123428926	-0.000226393136280078	-0.247432575239607	-0.957000726416409	-0.247005576441506	-0.957122816005648	-0.0104147333283042	0.00763034075933944
5.3	-0.0115264213574039	0.000164246462977208	-0.39289435608266	-0.907043254364826	-0.392605746706673	-0.907387587563592	-0.00812606796073773	0.00965184171072898
5.4	-0.0114595911804437	0.000866141732414686	-0.528973559961007	-0.835113348119114	-0.528837798717766	-0.835402696917202	-0.00539230248901331	0.0111775052553681
5.5	-0.0117815358872748	0.00168162455402	-0.652120119897749	-0.742789318256496	-0.652070341273598	-0.743102937076648	-0.0023621889007919	0.0117150141150423
5.6	-0.0117104216339704	0.00342426563822891	-0.759315567689346	-0.632532446987699	-0.759329073974992	-0.632702680136897	0.000175322402610086	0.0115089268303428
5.7	-0.0113464028477321	0.00470870711411372	-0.84830276816365	-0.506989604996141	-0.848279072512726	-0.50716459898154	0.00237394569504205	0.0113404731095123
5.8	-0.0108660217274145	0.0061915767672518	-0.916528129774501	-0.369062921293368	-0.916573019647507	-0.369354860983597	0.00456833708750443	0.0110011326710747
5.9	-0.0103309706870278	0.00722616782605339	-0.962658521338924	-0.222468308714415	-0.96277885515095	-0.222516182988006	0.00662637091469473	0.0104519093817227
6	-0.0100086135338003	0.00850367189477043	-0.985511077721301	-0.0703825661750093	-0.985508031266243	-0.0704512155615739	0.00882703065178396	0.00965735521097597
6.1	-0.00949572812926283	0.0101237093564762	-0.984351228853896	0.0833471782240457	-0.984354441331723	0.0832439038352947	0.010942431564135	0.00780367846835807
6.2	-0.0084317681090789	0.0117458809074166	-0.959355593040448	0.235155863188713	-0.959403673661205	0.234974274885181	0.0122707595061688	0.00528795117857569
6.3	-0.00715354016210727	0.0127837808119662	-0.911185589229166	0.381129823006375	-0.911209925588358	0.381001231225604	0.0128311468555704	0.00235544408493193
6.4	-0.00566475703752188	0.0133726910223473	-0.840926785549556	0.517865543400493	-0.840918071367039	0.517652108710598	0.0124619970918876	-0.000739094757806961
6.5	-0.00432590221979064	0.013375025607619	-0.750291562039757	0.642030217277771	-0.750392015000456	0.641857994306844	0.0115165578770375	-0.00365193457811353
6.6	-0.00275952029597649	0.0132995752158032	-0.641522595374331	0.750604873670892	-0.641670974634046	0.750458981051536	0.0100666704195387	-0.00606831971961589
6.7	-0.00141224250481957	0.0126985540371949	-0.517207942361584	0.84100741643242	-0.517329025213511	0.840850310290358	0.00810125144004228	-0.0079729673564106
6.8	-0.000202722621810836	0.0121073297398061	-0.380327685528581	0.910974241125419	-0.380538652706039	0.910899221299762	0.00585489747977381	-0.00920821274872409
6.9	0.000755803528526643	0.0112454717357597	-0.234341876753789	0.958846228070604	-0.234592417240852	0.958842410464814	0.00377801607588562	-0.00983460020026552
7	0.00176379421263426	0.0105149397306683	-0.0827199039040568	0.983546934160751	-0.0829780067158994	0.983516846201588	0.00176203368054199	-0.0103395866956133
7.1	0.00255483448720009	0.00953933615702477	0.0708523226914212	0.984398171162705	0.0706458209634693	0.984386060837611	-0.000433604594176558	-0.0102787168394946
7.2	0.00324378925631084	0.00849457230079125	0.222746910006724	0.96139421758163	0.222491796046212	0.96143820019378	-0.00226403368542215	-0.00950662511446295
7.3	0.0033780970345039	0.00724080767815413	0.369192892385668	0.915100206410263	0.368952877826104	0.915190837073874	-0.00385163151681356	-0.00839855404036534
7.4	0.0033612073263503	0.00619610050124003	0.506656891293718	0.846577102634481	0.506438805281844	0.846738829866333	-0.00524392702725687	-0.00699357865990888
7.5	0.00293942271750461	0.00517412130508882	0.631778761862824	0.757628362640462	0.631618850694359	0.75780002773969	-0.00604533205804725	-0.00526248841514992
7.6	0.0027491374878162	0.00452951340030894	0.74166811155	0.65038278339937	0.741452890451366	0.650543444906958	-0.00628260554922483	-0.00389729601215394
7.7	0.00235732142106661	0.00394021018025196	0.833450128528581	0.527406709626425	0.833299160394093	0.527601390447502	-0.00650763473568282	-0.00232577598488442
7.8	0.00213780562745538	0.00355994484430011	0.905220176932696	0.391603550366388	0.905099321508545	0.391824888187163	-0.00607266385932333	-0.000645743631828981
7.9	0.00158448324789752	0.0031757534491419	0.954894113480372	0.246430982480587	0.954853603535172	0.246656192125148	-0.00518806720795474	0.00112050816195916
8	0.000872989108357733	0.00310659334978094	0.981479831721751	0.0952408661995787	0.98155013286148	0.0955326633255571	-0.0038251559904635	0.00263117079211964
8.1	-3.6981422256148E-05	0.00392239675778885	0.984324601158256	-0.0581828874856727	0.984448519577449	-0.0579118540186304	-0.00210144021834257	0.00332660884382326
8.2	-0.000142590238891076	0.0049447018098979	0.963279331390265	-0.210191734428426	0.963345027929054	-0.209896023261398	-0.000775205125626458	0.00348853856234508
8.3	-0.000117672046570481	0.00599699420024417	0.91888281182326	-0.357098651617132	0.919020152624515	-0.356842837389659	0.000479552725261237	0.00332967838679019
8.4	0.000499385788265925	0.00686834392094736	0.852281636308534	-0.495326675954174	0.852493078431031	-0.495126930112659	0.00152946605480028	0.00287163274694173
8.5	0.00091683601286558	0.0074027271298654	0.765137259009441	-0.621508452791011	0.765252874388615	-0.621382604578763	0.00261271722645077	0.00241852668059714
8.6	0.00157542686495353	0.00823224340212859	0.659275092107896	-0.732674796615228	0.659472160616053	-0.732489466125761	0.00384309690540441	0.00133216436645929
8.7	0.00268603889688712	0.00903213128984091	0.537494357565818	-0.825943304563602	0.537775755638556	-0.825833951531479	0.00442591636374377	-9.5271549356581E-05
8.8	0.00456344338109427	0.00927042434275008	0.40289237110269	-0.899288470661173	0.403098167816398	-0.899233954026045	0.00430559186384381	-0.00150267811328157
8.9	0.00663677371055249	0.00871494844239356	0.258439069350275	-0.950921820883275	0.258680498071578	-0.950781395748441	0.004019430853846	-0.00241730953969415
9	0.00882497489576617	0.00697891172776213	0.107669961347867	-0.979342457822878	0.108031683330907	-0.979312418770844	0.00404924075604524	-0.00296271707663775
9.1	0.0104134798518895	0.00470574418963724	-0.045487059713763	-0.984116555352862	-0.0451349192732667	-0.984130819115389	0.00440498133748945	-0.00362821568565424
9.2	0.0115055873549435	0.00170674166844343	-0.197735846027586	-0.965030608274232	-0.197380269547239	-0.965100936753452	0.00499120532344134	-0.00425841885109803
9.3	0.0114545060402773	-0.00126053538430513	-0.345115789013548	-0.922615221255544	-0.344758908536398	-0.922679239610151	0.00573339968030819	-0.00492277739907004
9.4	0.0106538418329791	-0.00421799754003474	-0.48398482025028	-0.857839685230758	-0.483661670459392	-0.857987149212297	0.00646797268198235	-0.00584669658826998
9.5	0.00861243808555085	-0.00615869037657189	-0.611129634545583	-0.772262111524789	-0.610923489608581	-0.772399148232722	0.00690726340820661	-0.00699874565477133
9.6	0.00695905219543285	-0.00739141405261386	-0.723526193182872	-0.667965527294628	-0.723253443777646	-0.668149956140915	0.00632061710271923	-0.00851141997182839
9.7	0.0050854872634102	-0.00834220064288636	-0.818276162971988	-0.547583417390196	-0.818029778853281	-0.547852273342012	0.00517748321153476	-0.00935902945945068
9.8	0.00299321776244659	-0.00914661478002322	-0.89327034019642	-0.413933914242349	-0.89306116625835	-0.414208441436246	0.00393469739651535	-0.00958539741365713
9.9	0.000505310602720827	-0.00939296010665825	-0.946554095562466	-0.270292954482611	-0.946441431187158	-0.270621902916378	0.00303555958341111	-0.00921689859883098
10	-0.00249322407972668	-0.00925531721497345	-0.977022781831049	-0.12017497167813	-0.976942282194216	-0.12055324494154	0.00276142729667689	-0.00870785144623475
10.1	-0.00531711753052358	-0.00755774840122636	-0.983672893086892	0.0329064909196416	-0.983652692182383	0.0324288359517714	0.00254865647961289	-0.00885388130268199
10.2	-0.00716430112007617	-0.00573010385623534	-0.966624256805364	0.185113431376913	-0.966608953712617	0.184663840889699	0.00200068467170238	-0.00899708679693423
10.3	-0.00877462525628907	-0.00357667931404762	-0.926128421710283	0.332874342617704	-0.92626323136529	0.332334232224739	0.00124177583154459	-0.00921030013367622
10.4	-0.00980567796075499	-0.00170311385294863	-0.863180515631914	0.472478298187869	-0.863445061471179	0.471942786064231	0.000559142540354871	-0.00942387361823448
10.5	-0.010916207765958	0.000398677722161028	-0.779420680722904	0.600637221896491	-0.779702926372913	0.600250508688215	0.000367397138084949	-0.00971137537309895
10.6	-0.0115305401804382	0.00283827971862205	-0.676671172393071	0.714217480771199	-0.67709686855871	0.71387378618346	0.000217723918742596	-0.0105779225070473
10.7	-0.0114799665360246	0.00583731487716834	-0.557667929500221	0.810518323473903	-0.558078983119321	0.810230300267564	-0.000183211483662077	-0.0115196187588415
10.8	-0.010348691502709	0.00846419821398709	-0.425046607153746	0.887122804232675	-0.42555650228699	0.886893881574726	-0.000914457452331979	-0.0125425901464502
10.9	-0.00872027976521187	0.010997928753986	-0.282272601783823	0.942265083673993	-0.282760013950108	0.942214107539093	-0.00214886098938876	-0.0133512058937639
11	-0.0062910404025477	0.012736946818975	-0.132577127468552	0.97458449341207	-0.133122957392427	0.974580420116606	-0.00325420130120724	-0.0139556651769892
11.1	-0.00329688059464307	0.0141825758215008	0.0203675933542598	0.983213976210163	0.0197390062627013	0.983297117120587	-0.00450639931213692	-0.0144647846301861
11.2	0.00013527139082682	0.0143968948373586	0.172593527664609	0.968071125842177	0.172074928242948	0.968274262153223	-0.00569280245517643	-0.0147321306867516
11.3	0.0035093972581671	0.0138454399080011	0.32056661595819	0.929544654349347	0.320137613189159	0.929807210173173	-0.00667204937110136	-0.0146114756054295
11.4	0.00647783657298448	0.0121825249286906	0.460973201838794	0.868570064454206	0.460509538724808	0.868830078608032	-0.00755585047153259	-0.0141396116367702
11.5	0.00866548705554423	0.0105255811213923	0.590130059428454	0.786343757611479	0.589772688908519	0.786761801739848	-0.00823612397820287	-0.0137209215595526
11.6	0.0107983401287224	0.00837496605284902	0.704791319120507	0.685205930586699	0.704525249137956	0.685686375534216	-0.00939804120394185	-0.0134992557166401
11.7	0.0125665630152707	0.00585740880985697	0.802574745786705	0.567592442470042	0.802336345407827	0.568014512706864	-0.0108058624549659	-0.0127453344103296
11.8	0.0134475483510643	0.00259067751367699	0.880920599414775	0.436003276659319	0.880737300879899	0.436555512258707	-0.0122533864344689	-0.011548237868248
11.9	0.0135034010779867	-0.000630393088813495	0.937781043957546	0.29406985661697	0.937743617997963	0.294613798671777	-0.013473612049371	-0.00943651885776205
12	0.0116430313502337	-0.00389144987214099	0.972012294737231	0.145164459602002	0.972000816015321	0.14564395635222	-0.0135880397957551	-0.0073528715931569
12.1	0.00964280766640186	-0.00558366202861134	0.982715983688154	-0.00741456443519782	0.982692060072988	-0.00694160131950439	-0.0132836227279136	-0.00601757295867846
12.2	0.00737526325402779	-0.00705248882920471	0.969579434891978	-0.159894136536746	0.96968680639082	-0.159457087224396	-0.0132691575395918	-0.00473488103429032
12.3	0.00502680989232705	-0.00775554273375113	0.932864560853395	-0.308295752159831	0.933050803752225	-0.30793791330836	-0.0130777474888513	-0.00348355950214158
12.4	0.00249498827416333	-0.00819861804817985	0.873882478812761	-0.449272082735895	0.87401588787936	-0.448897364316068	-0.0128390995924303	-0.00228184612894854
12.5	-5.35857119497931E-05	-0.0080371348825457	0.793424990610453	-0.579451774834555	0.79388404384902	-0.579059953852673	-0.0122473376864959	-0.00107340377282664
