# GHZ S RI R 50
0.2	-0.000206421005251	-3.65140159465369E-05	0.949161820521642	-0.307859660513995	0.948935571953199	-0.308001590912585	-1.17197242028902E-05	8.27034757251466E-05
0.3	-0.000371871580257192	0.000216672325970202	0.88924814846926	-0.451550880656292	0.889110710900224	-0.45160410854084	-0.000137167104181408	-9.91841053475117E-05
0.4	-0.00021833094038448	0.000354094092983635	0.807777442202308	-0.583857878062959	0.807817564544333	-0.583997497844625	-2.18282301757435E-05	-0.000152254884275067
0.5	-0.000363487534790418	0.000539030565510453	0.707043621113189	-0.702172238177089	0.706933020519912	-0.702268112357727	4.54238581587305E-05	-0.000261302865512729
0.6	-0.000321222239021882	0.000687693786250121	0.589106499838665	-0.803261026530871	0.588916932129117	-0.803263942062542	2.84622885025536E-05	-0.000447960244322327
0.7	-0.000339696252195778	0.0010734015160636	0.457017888536698	-0.884628392345933	0.456943861249951	-0.884662775796643	7.11703725273384E-06	-0.000703594008746628
0.8	-0.000100460622538078	0.00116136929293548	0.313988880279592	-0.944696464282451	0.313870343477255	-0.944609754198897	-0.000160805617496479	-0.000896441875342497
0.9	5.38636050504425E-05	0.0014950187924708	0.16342719221303	-0.981722973717366	0.163278206032642	-0.98168013526091	-0.000450897361988958	-0.00111734442128238
1	0.000333455900799292	0.00141919082053261	0.00891736051995831	-0.994868981506355	0.00879930580901195	-0.994839314401947	-0.000771265571678433	-0.0013522537942304
1.1	0.000544997685315387	0.00138494037986562	-0.144973757897567	-0.984023316434619	-0.145621118598047	-0.983988241541567	-0.00136694683508268	-0.00133745658162663
1.2	0.000899013504100245	0.00045091690204303	-0.296713840225438	-0.949268952599028	-0.296706868942079	-0.949324616388623	-0.00147755986961434	-0.00118442051293052
1.3	0.00113786112626862	-0.00104072651938232	-0.440363297946017	-0.891458166920311	-0.440455370144343	-0.891482627721354	-0.000687178083674478	-0.000614328170767999
1.4	0.00115495688756429	-0.00293538502821771	-0.573179682268522	-0.81218759437466	-0.5732534570647	-0.812088056436631	0.000657323656182729	-0.000847278205201934
1.5	0.00102029987078265	-0.00371383698045412	-0.692319024241937	-0.713096756261026	-0.692343617470512	-0.71302473490849	0.00185309756508905	-0.0016358700945814
1.6	0.000831380826229222	-0.00404609001726396	-0.794122756423046	-0.597247598575444	-0.794552110322191	-0.596747241679585	0.00164540321778957	-0.00257980000402224
1.7	0.000718379587396436	-0.00394527879270996	-0.87699451206917	-0.466563667975961	-0.877298741049389	-0.466073942752178	0.00102442128777592	-0.00305514867756177
1.8	0.000422143150271232	-0.00396518465786283	-0.938789037324165	-0.324268168244289	-0.938804481186395	-0.324258706312702	0.00011311393394597	-0.00349386058950239
1.9	0.000170436110539158	-0.00384455894183635	-0.977675396834884	-0.174453288377142	-0.977719897154684	-0.174506011584461	-0.000776551533786904	-0.00366470178720373
2	-0.000319889116264565	-0.00385708260282116	-0.992562692333582	-0.0211067651161397	-0.992657315166255	-0.0204574959681395	-0.0018506917673875	-0.00346930507918949
2.1	-0.000721454003708939	-0.00370427889567621	-0.983520907193666	0.134413701249626	-0.983620541361602	0.133929709240694	-0.0024669938083894	-0.00302162191265148
2.2	-0.00144634726078021	-0.00372418281921883	-0.950768627181368	0.28469924297533	-0.950807350350511	0.284832956845305	-0.00304646121317673	-0.00271848181346463
2.3	-0.00214531729540528	-0.00346852203458031	-0.894951926133732	0.428733223536975	-0.894788132255671	0.428821594371128	-0.00365659894268915	-0.00239353770062723
2.4	-0.00303533069962113	-0.00315179065987443	-0.816890403557785	0.562933503687508	-0.817181803417271	0.562471884890465	-0.00422257722075631	-0.00206922950905545
2.5	-0.00375849918247441	-0.00242776199505118	-0.719737674584104	0.682705524893466	-0.720039960137706	0.68232516086187	-0.00454364522098264	-0.00184753136594661
2.6	-0.004330547910025	-0.00161248905488728	-0.605376525550148	0.785734735819544	-0.605297349672518	0.785675344542681	-0.00465606226944953	-0.00142536191607784
2.7	-0.00431916849800332	-0.000682499229454416	-0.475927630364588	0.869959904020442	-0.47589816471819	0.869973976738153	-0.00469976108642635	-0.00108082112406098
2.8	-0.00399662063277388	-7.27730321329597E-05	-0.335283154938563	0.9331030994349	-0.335165002548926	0.933187504627248	-0.00446359995668482	-0.000647572403053225
2.9	-0.00300301185989102	0.000304086454524054	-0.186401733924022	0.973653614295393	-0.186397264305707	0.973708367714027	-0.00390487068048637	-1.22867499801261E-05
3	-0.00209375563479748	0.000300871273115266	-0.0327995653940638	0.990691149839594	-0.0328638133794003	0.990762568213102	-0.00287543549243259	0.000538615918715351
3.1	-0.000977858077348883	0.000129601249103423	0.12054016771229	0.98367536227712	0.121187822634545	0.983756309420183	-0.00173626777025105	0.000832941751692113
3.2	-0.000290614939289967	-0.000406690588011497	0.27229007750006	0.95277938638637	0.272280140385548	0.952818953132658	-0.000874300498305307	0.000722265795708175
3.3	0.000538873184759534	-0.00104613724032159	0.417507113793886	0.898623198104864	0.416885005284871	0.898904704487118	0.000181605462848547	0.000434597834943936
3.4	0.000876437389250341	-0.00185084249815509	0.551369450625449	0.823185568241076	0.551284609732871	0.823300810164473	0.00118025179066698	-0.000280418820116007
3.5	0.00129852829089951	-0.00260784287142997	0.672284478333612	0.727634554964882	0.672298705535414	0.727660730942773	0.00182331411596764	-0.00129523618142511
3.6	0.00118720984892454	-0.00343655233693351	0.776527440894948	0.614824393268506	0.776949120160291	0.614430500802641	0.00200034484934155	-0.00236861673876307
3.7	0.00111039163756204	-0.00425787799400221	0.862849447741267	0.486227604452237	0.862856484485328	0.48635404576548	0.00191819973336142	-0.00332661224515512
3.8	0.00057528756635423	-0.00501536453968634	0.927695364088945	0.346324390694778	0.927723793096994	0.346507545920229	0.00138912976450072	-0.00436686877464092
3.9	0.00027407382138571	-0.00567867771542074	0.970221828848752	0.197565472215291	0.970123720940465	0.198153017372215	0.000286999069509729	-0.00545178547930615
4	-0.000509412476573401	-0.00618338514047295	0.988987127338815	0.0453301542160682	0.989069079074794	0.0453730891081283	-0.000994792975380107	-0.0061101489554046
4.1	-0.00115853423198821	-0.00669823683863713	0.984080897419056	-0.108696002097406	0.984018848469339	-0.108631997893202	-0.00243368179654583	-0.00654115474449906
4.2	-0.00237479464827618	-0.00708911192689362	0.954853417680361	-0.260720673432971	0.955047037554368	-0.260151903688425	-0.0040105111565497	-0.0066481296644779
4.3	-0.00347279391469624	-0.00751448787032449	0.902999145947355	-0.40514940013004	0.903000026432505	-0.405130886706636	-0.00567968688447581	-0.00664977155436439
4.4	-0.00500324363823453	-0.00761872338202354	0.829138008413812	-0.540231844595926	0.829058178807065	-0.540215889522813	-0.00757900150231244	-0.00621591465003276
4.5	-0.00641640439803688	-0.00757757443858142	0.735278277398255	-0.662427679268781	0.735154968370339	-0.662281694674019	-0.00942439032552157	-0.00539129179908159
4.6	-0.00810974985064938	-0.00699710746299652	0.62344550054918	-0.768476615778647	0.623431079874208	-0.768247393650252	-0.0111384847240356	-0.00409252758812682
4.7	-0.00952901022042722	-0.00649110914714885	0.496451181937518	-0.855898834169003	0.496568279367179	-0.855654457162023	-0.0127495511852251	-0.00268240445549088
4.8	-0.0109535252262651	-0.00538670349682407	0.357307914018284	-0.92236462717894	0.357601452326481	-0.922176450150341	-0.0138632617699977	-0.000743534211600993
4.9	-0.0117002883651121	-0.00436342659413941	0.209786330190493	-0.966177492960528	0.210045899789283	-0.966126677915841	-0.0141877201388075	0.00164009857613288
5	-0.0122009142242147	-0.00321123344177354	0.0577080314663996	-0.986773767581208	0.0578661842804584	-0.986646090537681	-0.0135281700288623	0.0042139922549821
5.1	-0.0121032330550461	-0.00234785328369856	-0.0958826559359683	-0.983768602219162	-0.0955618211223952	-0.983706049614067	-0.0119808247178779	0.00659286733720164
5.2	-0.0120150495645612	-0.00138880325412602	-0.24741710717916	-0.956989358759292	-0.246990113309897	-0.957111441271008	-0.0100799867764008	0.00874991797999109
5.3	-0.011873177921496	-0.000786765900441373	-0.392872549936345	-0.907048749957698	-0.392583933888555	-0.907393075413842	-0.00757648100265811	0.0105090766357159
5.4	-0.0117990988443612	0.000242750427146954	-0.528965850838844	-0.835138470337351	-0.528830081409524	-0.835427821398498	-0.00489637743097752	0.011667605925843
5.5	-0.0117473160507611	0.00118683424619751	-0.652127970333705	-0.742789829584006	-0.652078193200961	-0.743103450446385	-0.00226648532851959	0.0121619313273988
5.6	-0.0115923403903081	0.00259125479034788	-0.759304518513219	-0.632548802018807	-0.759318021454449	-0.632719035769044	0.000266663268416952	0.012237649321787
5.7	-0.01144971569638	0.00379334768495114	-0.848307764326234	-0.507015297835356	-0.848284064820686	-0.507190294432156	0.00264408329466944	0.0121058271972827
5.8	-0.0111544331414623	0.00540791273051504	-0.916549995284461	-0.369084904439551	-0.916594882858671	-0.369376853083129	0.00498483207353414	0.01161900213145
5.9	-0.010674679576621	0.00676742008780567	-0.962690000349788	-0.222470883226789	-0.962810338210617	-0.222518758430556	0.00703083204924397	0.0107096024343807
6	-0.00994103433956756	0.00841199899926467	-0.985525792987903	-0.0703904449752812	-0.985522746035122	-0.0704590953687106	0.008668321352507	0.00964669670004686
6.1	-0.00892723397740265	0.00973567977331304	-0.984397812396129	0.0833494009191217	-0.98440102486426	0.083246121686278	0.0103375626693613	0.00819114389237942
6.2	-0.00780989016803531	0.0109529302562859	-0.959394131749434	0.235189618505779	-0.959442218935144	0.235008023023888	0.0116233014774111	0.00609564038778257
6.3	-0.00671329002633492	0.0116889190286598	-0.911202673715484	0.381179320904898	-0.91122701602547	0.381050725572464	0.0123551696816026	0.00345829683841343
6.4	-0.00552862173077361	0.0121760516033121	-0.840912715877505	0.517907638474861	-0.840904010947236	0.51769420124312	0.0122513921697675	0.000446242397941732
6.5	-0.00442319915885774	0.0122418402850472	-0.750287608706907	0.642056917627299	-0.750388067112211	0.641884694495993	0.0114852772793332	-0.00250317189808503
6.6	-0.00306358105932521	0.0122957962343134	-0.641491768940078	0.750640438433841	-0.641640156125522	0.750494551792049	0.0102297150962123	-0.0050086694801975
6.7	-0.00177403393360759	0.0119505401657876	-0.517165934887252	0.841014073172324	-0.517287021979405	0.840856974463841	0.00834052603939787	-0.00710814870081706
6.8	-0.000431417495464046	0.0115551140087495	-0.380296596223978	0.910956790133964	-0.380507559065409	0.910881777153575	0.00603099983338743	-0.00849756320600152
6.9	0.000750198744869449	0.0107406602864347	-0.234338438994707	0.958821730117699	-0.234588973221821	0.95881791199448	0.00380622656866089	-0.00918060117219125
7	0.00195945677520363	0.00987936211346092	-0.0827095001368007	0.983550798538192	-0.0829676040525645	0.983520713298921	0.00165584706150517	-0.00957812627592732
7.1	0.00276127688603044	0.00872682696745862	0.0708625467439538	0.984372189653265	0.0706560501398044	0.984360082174278	-0.000520247199335916	-0.00940545498659087
7.2	0.00342646049287815	0.00758328363821814	0.222733386218396	0.961372508035317	0.222478278149605	0.96141648743752	-0.00233011554281686	-0.00857544304183259
7.3	0.00352838993146211	0.00623712650615263	0.369168958970238	0.915095439307782	0.368928945792249	0.915186063781119	-0.0038958218447118	-0.00740119035639657
7.4	0.00346099657626227	0.00512070231614512	0.506642917303417	0.846594216110176	0.50642482622683	0.846755939980124	-0.00525267845919186	-0.00593622959772615
7.5	0.00303227213510234	0.00400217827057447	0.631777304063354	0.757627259600722	0.631617393111467	0.757798924323281	-0.00604790599517666	-0.00408124840480833
7.6	0.00268070521676174	0.00315487950209025	0.741649128900047	0.650402366845979	0.741433903661607	0.650563022189356	-0.00607971813995374	-0.00252837160100816
7.7	0.00197544965740063	0.00257350501023506	0.833456442480941	0.527434674227388	0.833305467243115	0.527629355954452	-0.00597378946922267	-0.000989941731760098
7.8	0.00150532626080737	0.00242900146648936	0.905244885125971	0.391621965747689	0.905124024436328	0.391843309432203	-0.00528799550792198	0.000427871606358092
7.9	0.000888227113153968	0.00251060220125527	0.954922559261014	0.246423931502024	0.954882051440419	0.246649147610034	-0.00438617162213174	0.00168839391279486
8	0.000648539656034655	0.0029347451117746	0.981482737362691	0.0952394484567223	0.981553039201488	0.0955312462808592	-0.00360482102651851	0.00278658902549494
8.1	0.000345093445974502	0.0035397102276867	0.984354773962546	-0.0581857691866756	0.984478696492482	-0.057914727529898	-0.00243054308429604	0.00377531357155126
8.2	0.000420004178808259	0.00419545940184725	0.963304012720937	-0.210220179677062	0.963369718029213	-0.209924460960316	-0.001253432745998	0.00432537358569852
8.3	0.000427762879783405	0.00494039024700568	0.918886602650927	-0.357140628070509	0.919023955859244	-0.356884814240495	6.47465755536433E-05	0.00448994101985042
8.4	0.000863230930892758	0.00564229389139382	0.85225640828929	-0.495357541540805	0.85246785703563	-0.495157805419273	0.00136359531799739	0.00415486933925515
8.5	0.00126994078692266	0.00631209939619495	0.765130318699702	-0.621523264701004	0.765245936568654	-0.621397417845304	0.00240805080104585	0.00349749701649008
8.6	0.00219688178227123	0.00683517651260736	0.659244924606241	-0.732703626530559	0.659442001207592	-0.73251830414438	0.00339736869710748	0.00269970495102038
8.7	0.00311122214778463	0.00714794411547505	0.53745176342043	-0.825949672195792	0.537733160730498	-0.825840332335346	0.00414850358526874	0.00167263780829064
8.8	0.00449562804791634	0.00709539600123486	0.402854374042504	-0.899273995675359	0.403060166344196	-0.899219486637151	0.00445562875413829	0.000506089878469928
8.9	0.00594060964895656	0.00657284891356496	0.258423685651187	-0.95089732862015	0.258665108791662	-0.950756909491801	0.00474656204242587	-0.000478265862474705
9	0.00769866297340036	0.0052456814749186	0.107644168314315	-0.979336669838243	0.108005887912272	-0.979306640226025	0.00513044125035302	-0.00146386120535932
9.1	0.0091177953353655	0.00338672712537611	-0.0455042738918943	-0.984074269883674	-0.0451521485421934	-0.984088539888311	0.00558738859723808	-0.00253654158018599
9.2	0.0102282565411832	0.00090511649312948	-0.197722893695053	-0.964992681394418	-0.197367331200214	-0.965063005201309	0.00608912956260616	-0.00361770056475034
9.3	0.0105197283209207	-0.00161101504711627	-0.345087825430115	-0.922597029321045	-0.344730953386425	-0.922661038751364	0.00650711206332645	-0.00461481129970662
9.4	0.0102929898824065	-0.00430865388375253	-0.483968220920129	-0.857848041836891	-0.483645068644265	-0.857995499594764	0.00675583101120847	-0.00573926393522987
9.5	0.00906069071542038	-0.00649570322684849	-0.611125650699596	-0.772249371787574	-0.610919509053824	-0.772386407746743	0.00648435502341011	-0.0065678654623925
9.6	0.00752434351265656	-0.00852696628064405	-0.723506961063894	-0.667973510555238	-0.723234210540136	-0.668157932490556	0.00591157713763306	-0.00737213654804336
9.7	0.00529644327459135	-0.00981560182988854	-0.818275736371862	-0.547600039358111	-0.818029346187192	-0.547868894175031	0.0051215961419044	-0.00794860531005208
9.8	0.002850486785308	-0.0106284440505271	-0.893286201033454	-0.413943499597841	-0.8930770226027	-0.414218031457062	0.00423452927833256	-0.00820539269443379
9.9	0.000127982150533466	-0.0105513137617053	-0.946572581454955	-0.270278440735143	-0.946459921851191	-0.270607395929806	0.003545560938074	-0.00823961083117492
10	-0.00250016488068664	-0.0100413522405061	-0.977015675446628	-0.120171586207194	-0.976935177379932	-0.120549856783813	0.00279371719204924	-0.00807954765550201
10.1	-0.00503479099369834	-0.00875085575848744	-0.983691696304292	0.0329165589805811	-0.983671499580118	0.032438894561381	0.00232124795136298	-0.00783620951293096
10.2	-0.0071439228277868	-0.00718389768197509	-0.966629421563456	0.185145137609696	-0.966614132067196	0.184695541628196	0.00196796882161906	-0.00777451642974495
10.3	-0.00910861672813162	-0.004983330825956	-0.926108397161134	0.332908763806517	-0.926243227309452	0.332368662737657	0.00147564956278217	-0.00805886782506562
10.4	-0.0104238760899815	-0.00275670686889552	-0.863134756039906	0.472487757740694	-0.863399308767816	0.471952273125871	0.000969953206026961	-0.00864617843910601
10.5	-0.011453230877825	-6.61794664656844E-05	-0.779402110297441	0.600623363028729	-0.779684349433859	0.600236659018088	0.000407400733380726	-0.00950502761264026
10.6	-0.0114695522212567	0.00250899092521205	-0.676644210947885	0.714212642949374	-0.677069903244291	0.713868963085989	-0.000301011758645259	-0.0103004720797452
10.7	-0.0110190702641916	0.00535649443914339	-0.557640046687837	0.810493813323116	-0.558051087932705	0.810205804444371	-0.00107365893909614	-0.0109237322315382
10.8	-0.00965812485370428	0.00769010688743537	-0.42503255849117	0.887080900751416	-0.425542429636327	0.88685198548974	-0.00192578614645793	-0.0115515838890267
10.9	-0.00793583400207545	0.00992659495535716	-0.282288034973197	0.942223229615849	-0.282775428090578	0.942172242067255	-0.00314298893169344	-0.0120360619239466
11	-0.00543900488133082	0.0113585449366537	-0.132582015208346	0.974573554537409	-0.133127839469208	0.974569477804839	-0.0042082343059697	-0.012314237111912
11.1	-0.00258864611236133	0.0124330286916437	0.020357800382961	0.983173329318842	0.0197292386470578	0.983256461084085	-0.00522366735971398	-0.0125025810062113
11.2	0.00057817277997785	0.0124462804579028	0.172557832732193	0.968036835019728	0.172039248417613	0.96823994771423	-0.00609426926480172	-0.0126133743589751
11.3	0.00367899155423483	0.0118598112923546	0.320518020905168	0.929533365942374	0.320089018427115	0.929795896246387	-0.00675525277456041	-0.0124969171769079
11.4	0.00647469325399504	0.0103376687799494	0.460933354322607	0.868583675776171	0.460469683354539	0.868843668561079	-0.00745388848602352	-0.0122199424509385
11.5	0.00884248215080676	0.00866843205210695	0.590089279403599	0.786343245467146	0.589731904192576	0.786761267267237	-0.0083136940737382	-0.0117715226124727
11.6	0.0107630285681787	0.00612233710553392	0.704741990893981	0.68524334260518	0.70447589351039	0.6857237664411	-0.0092066295130422	-0.0112124665368251
11.7	0.0120181513350582	0.0036250172107608	0.802555972772468	0.567645264108388	0.802317545543374	0.56806732776538	-0.0101141197297854	-0.0105078035135582
11.8	0.0124724683113574	0.000726198564120066	0.880931066842404	0.436050214112176	0.880747741648052	0.436602459693912	-0.01112311014672	-0.00969125938964991
11.9	0.0123600888115754	-0.00172737576503206	0.937807453272879	0.294083371929362	0.937770023433726	0.294627329974331	-0.012175505603843	-0.00840499894753246
12	0.0111704529794961	-0.00424933085973562	0.972014923301605	0.145177106543396	0.972003438615662	0.145656605330756	-0.0130573327987996	-0.00703353259320498
12.1	0.00990378458560751	-0.0061193739093749	0.982736957357021	-0.00740670908061258	0.982713029381606	-0.0069337360954541	-0.013463762631491	-0.0054917206438986
12.2	0.00793876538753379	-0.00788679559933048	0.969588932986848	-0.159903995238045	0.969696309330216	-0.159466941940392	-0.0137636454948263	-0.00388663000948428
12.3	0.00573306794240841	-0.00887173985013879	0.932856134956698	-0.30830725702347	0.933042381969425	-0.30794942234686	-0.0136833866499764	-0.00231763010397663
12.4	0.0031801296596823	-0.00950379921857814	0.873858201099811	-0.449262577645771	0.873991607655888	-0.448887869479409	-0.013352917922254	-0.000952499046948785
12.5	0.000798992030656223	-0.00931575200721958	0.793438551092074	-0.579433283427481	0.793897595210883	-0.579041451713345	-0.0129404873038405	0.000175569417782196
12.6	-0.00138354568170215	-0.00880486319225405	0.693883017981933	-0.695430096338824	0.694230157764259	-0.695121116944183	-0.0123427463257524	0.00109374253496893
