# GHZ S RI R 50
0.2	-0.965400709349422	0.251929005229091	8.82071853069616E-06	5.31506422342417E-06	1.13510595444611E-06	-2.88870739801772E-06	0.999177216719558	-0.00709770655754275
0.3	-0.925634249017507	0.371766410282753	-7.65758871072586E-06	-8.15056471385681E-07	-1.28639755956059E-08	3.65708486464675E-06	0.998955575132741	-0.0100558596397373
0.4	-0.870507902954236	0.485337219484753	-2.19259986617368E-06	6.33423353543402E-06	2.91987011776493E-06	5.728953458279E-06	0.99860848782478	-0.0127992216117663
0.5	-0.802042385590601	0.590735677980209	-2.64493362893806E-06	5.48591658213821E-07	1.05054400396604E-05	4.87568342253141E-06	0.997927455823026	-0.0153999711799417
0.6	-0.72107399913079	0.687010976760682	-1.72319687389194E-06	-1.83562953121299E-08	4.15886069468109E-06	-1.03234082509142E-05	0.998465147131897	-0.0179964922868514
0.7	-0.628447568011269	0.772301154089081	-2.04435495677307E-06	9.87236070818166E-07	3.77951275308083E-06	1.1145886440936E-05	0.998174862609156	-0.0211207286723854
0.8	-0.525837738737893	0.845164361934442	-5.59740749789789E-06	3.77721050809417E-06	-3.16369248077317E-06	-2.13583985330957E-06	0.997930287639201	-0.0233345936906911
0.9	-0.41519774819601	0.904309667746475	-6.67207491466131E-07	5.24300437313816E-06	3.26180320931143E-06	-2.94670207309516E-07	0.997946419886765	-0.0259350376220985
1	-0.297577115047864	0.949082534196725	1.56578342898538E-05	-3.68825708406496E-06	-9.58234265783431E-06	5.30729344898601E-07	0.997140448405553	-0.0280352763744817
1.1	-0.176423597196587	0.978450739972868	1.3390722823713E-06	-2.97599573963661E-06	9.37769768201077E-06	1.25698613405061E-05	0.996562306701999	-0.0294972937869542
1.2	-0.0517766674683039	0.992462114419789	-7.8898267608368E-06	-3.25452037425469E-06	-3.08931011492143E-06	-4.46973788349295E-06	0.995992279838278	-0.0303076802880971
1.3	0.0734388721850828	0.990735463569816	1.74761772429743E-07	3.32650288239439E-06	1.92423612647888E-06	3.42235044240171E-07	0.996147024288816	-0.0307251902804391
1.4	0.197162616261387	0.973441811996662	1.59175178512953E-08	3.75912958563895E-06	-2.51229402411557E-06	-5.60680650429537E-06	0.996341382656968	-0.0322903713483262
1.5	0.317868866922582	0.940949286091805	3.18015667000298E-06	-2.59778315973491E-07	2.69192368753214E-06	2.09506105698967E-06	0.996665428619673	-0.0356830931178118
1.6	0.433649384029941	0.893964345206065	1.78844063610569E-06	-1.93136812184445E-06	-8.84943268621105E-07	-3.05931798885372E-06	0.99640398528628	-0.0387800550369532
1.7	0.542557833461857	0.832148960939611	-7.79010029940293E-08	-3.51888493818504E-06	1.99131652043288E-06	4.92214901334291E-06	0.996856124780072	-0.0415368186427155
1.8	0.642628283570212	0.757581889194426	-2.05083298529198E-06	-1.81539702123054E-06	-4.66883264123466E-06	1.82817358864723E-05	0.99675159549977	-0.0445309059851974
1.9	0.732699429957232	0.670917618903021	-4.38312633193729E-06	-1.47164396610182E-06	-4.91188667610625E-06	-6.00373119960408E-06	0.996563284323473	-0.0475482807659794
2	0.810075378350867	0.572840553028332	-9.42691372056799E-08	-6.7259230771022E-07	-1.66374348728036E-06	-1.41519930546942E-06	0.994189759645947	-0.0508119914143996
2.1	0.875005198496018	0.467084117222214	-1.15404065326911E-06	9.41690043915432E-06	1.98897298395037E-06	-3.75602462905788E-07	0.993683714594966	-0.0511506806134165
2.2	0.926995888412602	0.353955112860652	-1.01377270766245E-08	-5.91423763854084E-06	-7.40719150410223E-07	2.7287040070488E-06	0.994369520087756	-0.0531347192384795
2.3	0.964133694653128	0.234716880872742	-1.31826539354179E-06	2.75644729566722E-06	-2.95938146371125E-07	1.19442851367929E-05	0.994481464249339	-0.0549168343750161
2.4	0.985924085203958	0.110829102950238	-5.85097217198488E-06	-3.71378966768094E-06	-1.75893282848979E-05	1.4451572051008E-05	0.994746942282342	-0.0581733320051728
2.5	0.99213324676952	-0.013862810844572	1.82441970082378E-06	-2.95454796829761E-06	-1.80833824275871E-06	7.53406849498398E-06	0.994161808673092	-0.0607340162460716
2.6	0.982572637471234	-0.137454249049881	2.85806545419147E-06	9.22631871886152E-07	-1.75653677041646E-06	4.49563843699842E-06	0.993862738316456	-0.0634651407457369
2.7	0.957148994279912	-0.259238965001742	3.80565225525359E-06	1.04332570807141E-05	2.31493038801592E-06	3.86484038665043E-06	0.993200120827974	-0.0662311631585518
2.8	0.916972774448291	-0.376705719256042	-8.08972618516921E-07	-2.28915265146955E-06	2.21329771517289E-07	-1.88380241651431E-06	0.993286594071025	-0.0677721457728203
2.9	0.862991142135621	-0.48788009153783	3.77150585795761E-06	-8.29168095058588E-06	-1.24817504360573E-06	-1.41940039615913E-05	0.993255190972229	-0.069509154537687
3	0.795494614215362	-0.592039591873834	-2.5998688803142E-08	6.6337533262329E-06	-1.47466380695048E-05	5.26064548303307E-06	0.993282086871515	-0.0718973430877941
3.1	0.716662100532629	-0.685891032744438	-4.99128394382553E-06	7.79270009735275E-06	5.79496073168507E-06	-7.09719614906726E-08	0.993147717031038	-0.0735299771132184
3.2	0.625073061036585	-0.770679759162559	9.51730862771223E-07	2.12422003034495E-06	-4.55289214634906E-06	4.63223549340697E-07	0.993273649146253	-0.074962456713068
3.3	0.523888849879235	-0.843376547899337	7.23639735813229E-07	-1.45461116490707E-06	-4.57672800776488E-06	7.13404724683037E-07	0.993606738001961	-0.077911127344617
3.4	0.414071144155718	-0.903195192092067	6.46504308922693E-06	2.63298725333779E-07	-8.09958100625856E-06	-7.21234727388998E-06	0.994522355207504	-0.0798857035656711
3.5	0.295830058838788	-0.949322258210749	-7.71095562308188E-06	1.93818353382213E-06	-5.88103002572372E-06	-8.00753539422999E-06	0.994694107442772	-0.0837761055944467
3.6	0.17289581718379	-0.977691563234954	-8.45479058809649E-07	-4.38278692272787E-06	-7.79856495201987E-06	-6.35069508528312E-06	0.993798157890787	-0.0859301508839814
3.7	0.0488138053621066	-0.992165519445592	-6.6932723736611E-06	-6.78867251114717E-06	5.42302317724195E-07	-4.76120348900518E-06	0.994213423597888	-0.0882347332335541
3.8	-0.076913790329986	-0.990758489962618	-3.64750149837223E-06	1.07163215128802E-06	-3.28924468420159E-06	-2.4762338326383E-06	0.994595280051682	-0.0905193159859528
3.9	-0.201104149592899	-0.973326659683293	-4.89319944526802E-07	3.50764212769752E-06	2.05747016675932E-06	-1.21408591335949E-06	0.995178064252235	-0.0949075757003734
4	-0.322050442104464	-0.939889245424048	1.16486361067032E-05	8.144482349934E-06	7.2716246940109E-06	-4.01799034207704E-06	0.992800314999681	-0.0974656563717176
4.1	-0.436777680113182	-0.892513185599395	5.21149575240081E-06	1.34376307685447E-06	-3.48349884129524E-06	6.63709824810076E-06	0.992248904235991	-0.097440721813514
4.2	-0.545355957461743	-0.83157171720124	-7.09696158180168E-06	-1.23026825789228E-06	-8.27016823775261E-06	-7.4264677882309E-08	0.992414731745704	-0.0997762225619868
4.3	-0.64576232973795	-0.756669187284073	7.12116292340414E-07	-2.3674517309728E-06	5.21431031545364E-06	9.01353740240658E-07	0.992637746785657	-0.101780785096875
4.4	-0.735940353830683	-0.669013691567145	4.4842101747957E-06	-1.75988362382822E-06	-8.74142070252619E-07	1.34500241345522E-06	0.992285468567733	-0.104245849235167
4.5	-0.813944372549546	-0.570712161464351	6.78388044343843E-06	1.89570653648576E-06	-7.9256182888804E-07	-3.26342257814565E-06	0.992066363155052	-0.105764465282773
4.6	-0.879541949401011	-0.463551533813618	2.44798495651882E-06	2.96549664237978E-06	-6.63613960374916E-06	9.73585104556524E-06	0.992686862660097	-0.108256057185035
4.7	-0.930869125889589	-0.348085419568107	-1.40962247602508E-05	5.87411950842423E-06	-3.46771567089698E-06	-4.74805113774564E-08	0.993020603119143	-0.11053448228336
4.8	-0.966992890018678	-0.227728991720206	-3.14693260581114E-06	-5.16332750641777E-06	-5.54194482392569E-06	2.34799379542348E-06	0.992948911071329	-0.113064766628885
4.9	-0.987129517021937	-0.104952419066202	-9.85385351061821E-07	-8.57133698257577E-06	-4.23173760240442E-06	7.22715047602666E-07	0.993114246096851	-0.114919389713828
5	-0.994306597756806	0.0186403879349901	7.5830048055771E-06	-1.53874744963265E-06	-1.74476595868348E-06	-2.73922409849624E-06	0.993486254970675	-0.116910526274811
5.1	-0.984197133496622	0.146138754637054	-2.58740587099016E-06	-6.4283648148287E-06	-1.00536968916554E-06	-1.96439241161268E-06	0.993871829549198	-0.118585083884415
5.2	-0.957979347686621	0.268922415196632	4.01465138588513E-06	-4.244965742111E-07	-5.48191147163711E-06	6.31392819136219E-06	0.99412172786113	-0.121237807337235
5.3	-0.917256682717028	0.387656364806939	5.14280059917488E-06	6.04944903748945E-06	-9.53368782262083E-07	-3.60475524285163E-06	0.994177793746297	-0.12401837030929
5.4	-0.861687429460474	0.500894945741675	3.08280183343142E-06	-2.01845342134646E-06	-1.13760535745862E-05	2.18147782911699E-06	0.994598913978794	-0.12727181578609
5.5	-0.790915532533247	0.605962321581517	-4.31480698760944E-07	-2.20602801820341E-06	-5.82481797008387E-06	6.14861745754113E-06	0.994208310341416	-0.131475108390983
5.6	-0.707494973498991	0.700035428710566	2.38192388292826E-06	7.3380303149707E-06	-5.43554218060709E-07	2.94120099154821E-06	0.993175779930242	-0.133703359168006
5.7	-0.61370848399616	0.783608016864301	-2.5857484484161E-06	2.36850309735646E-06	7.94334433319158E-06	2.80043141206555E-06	0.993474181036173	-0.136022706054379
5.8	-0.509762136204096	0.854540707197091	-4.6749562280507E-06	5.12556324622287E-06	-3.70723570545714E-07	3.43881563130484E-06	0.994046790620848	-0.138880693934557
5.9	-0.397275125871523	0.912314104583739	6.39263413399526E-06	1.50305222099842E-06	-2.72437252046061E-06	2.56227807415104E-06	0.994162817035713	-0.14318872493226
6	-0.278107347708151	0.953010227369571	3.54257737450012E-06	3.30112511758858E-06	-3.32784448506446E-07	-1.4376917965072E-06	0.990461029211797	-0.146549906933307
6.1	-0.157704030429485	0.979068982099954	9.19492926760732E-06	1.51659088761801E-06	-1.2986652711742E-07	-1.8117810324523E-06	0.989594222277398	-0.145606133452322
6.2	-0.0337868223605894	0.990965960281646	2.44267951392609E-06	-1.73502852320196E-06	1.47925666089528E-06	-4.85522616122486E-06	0.989598567745827	-0.146667405760973
6.3	0.0910688206655534	0.987392488770358	-4.3643030168679E-06	4.25508654272107E-06	-6.17421673517944E-07	-1.7275801324988E-06	0.989324894321353	-0.148464728332531
6.4	0.214621141532952	0.967277059986328	-4.26826560837541E-06	1.07388853004279E-06	-1.75714611059945E-06	8.85326683433661E-06	0.98877335868993	-0.150830975205481
6.5	0.331719267342616	0.932797816053157	2.45575976259546E-06	-1.32724310722387E-06	1.49355333409049E-06	-2.928624849309E-06	0.988122907466361	-0.151861663882628
6.6	0.447213794953506	0.886499564328595	-4.74453234086986E-06	-2.27262577643545E-06	-1.85586100866988E-06	-6.6644897260654E-06	0.990463677653548	-0.154619887130325
6.7	0.555947623561455	0.823249156309669	4.1797797434876E-06	-6.57939357860955E-07	-4.69544778802137E-06	1.00880294733857E-06	0.990743568985717	-0.15843837285779
6.8	0.655229478634046	0.746982461865795	3.77449748946503E-06	-2.08660840255131E-06	6.24155725327997E-06	-9.23584295781694E-07	0.990368799163209	-0.161588241472679
6.9	0.744210041295352	0.658782008427643	2.0588413887648E-06	1.64812291433368E-06	8.82476202953467E-06	-2.77384946454763E-06	0.99011819756668	-0.164751602708868
7	0.820490522818415	0.559502061310604	2.19113745441732E-06	4.10938436108746E-06	-8.19051381154276E-08	5.40618319530214E-06	0.988135120644952	-0.167300043751431
7.1	0.883603824041307	0.45323804346085	-1.30958271391387E-07	1.72278173947745E-06	8.27810007784704E-06	-4.67081441664286E-06	0.987617563458671	-0.167888374763559
7.2	0.933571340130074	0.339402253475611	4.86211682872051E-06	-1.40144723950537E-06	7.28266345649838E-06	3.78838089239031E-06	0.987694865868886	-0.16944961130113
7.3	0.968847379074516	0.22024749872813	4.87885529332913E-06	-1.11169053788572E-06	-7.36638936182548E-06	-7.40868023067523E-06	0.987635791224315	-0.171036492762932
7.4	0.990531236334384	0.0968677273070126	-1.86406344457911E-06	9.94856036089779E-06	1.44701396669013E-06	-4.08986749060696E-06	0.989008204346959	-0.173823158139338
7.5	0.995536087843432	-0.0322788185176777	8.49116788514248E-07	8.12208277684052E-07	1.68981244827627E-06	9.99278854124004E-07	0.988677965825183	-0.180569075198455
7.6	0.980844155738571	-0.157771452507572	1.45299203237083E-06	-2.6392274738577E-06	-5.47329780787523E-06	-3.62683051226779E-06	0.985392756010384	-0.183717261439712
7.7	0.952716376792541	-0.280526363848616	5.62095768365343E-06	2.39366567404603E-06	-6.8039745572209E-06	1.21618590833183E-05	0.984695227278996	-0.187121686052979
7.8	0.909290069566747	-0.399124351212511	-6.53278580023114E-07	-5.26959510480714E-06	3.72362927434197E-06	-4.79108736069275E-06	0.984194586153132	-0.191191370159319
7.9	0.850049480406539	-0.51155976925345	8.90921865699152E-06	1.45325129714366E-06	-9.66295957009066E-06	-8.59008671701305E-06	0.982989631365426	-0.196406144978413
8	0.774071385585115	-0.611951571607143	-6.67131834034359E-06	-1.55213582503798E-06	-1.19718240639766E-05	2.63321140151062E-06	0.977312102484451	-0.20009374223537
8.1	0.69410223739412	-0.7000674987824	5.0663490127462E-06	6.91819342367119E-07	2.89993546407421E-06	2.2342064647583E-06	0.976457605850211	-0.198684258023955
8.2	0.602776115516038	-0.781684790739231	3.5405138662282E-06	-2.58873079511638E-06	-3.73740686813014E-06	-1.15642036302366E-05	0.976955527441582	-0.200491509451927
8.3	0.500627611477592	-0.851342999614469	2.71175017877003E-06	-1.86617155476168E-06	1.65959947846601E-06	5.27067374571389E-06	0.976426804883742	-0.203101409805182
8.4	0.390101512014404	-0.907728432677902	-5.54285853294308E-06	-9.95390713536553E-07	1.06427087640797E-06	2.93979619922785E-06	0.975281333966301	-0.205700589421636
8.5	0.271464359559645	-0.949247552715279	-3.27887423959285E-06	1.6345725274897E-06	-4.80439253869869E-06	-4.97980270252318E-06	0.974132715932962	-0.207386084319853
8.6	0.150071743650568	-0.973832622102691	-8.11917891896773E-06	1.42261305504003E-06	-4.3666273298916E-06	-6.8290779239896E-06	0.974521539212767	-0.209698610935387
8.7	0.0270043329222473	-0.984405124346491	2.22999572407639E-07	-2.15153071117683E-07	6.10446293516233E-06	4.79018071889578E-07	0.974196672372814	-0.212538294704385
8.8	-0.0964639545181622	-0.979537724516996	1.01344475381712E-06	-1.81622810854882E-06	-2.38772767152053E-06	-1.26604057856722E-06	0.97368762744155	-0.214971954730637
8.9	-0.21705096675798	-0.960542844988632	-2.92579544482888E-07	3.02268590994179E-06	-1.23264106221349E-06	-1.63153905775865E-06	0.97345398579794	-0.217238416871255
9	-0.336329369114559	-0.92892010788822	2.97019686346345E-06	1.58374633521125E-06	-1.5713858347017E-06	2.10959415571638E-06	0.972893069813024	-0.219889265786143
9.1	-0.451852015391941	-0.878824474268605	-9.29899227352849E-06	2.26979678626409E-06	-1.56034104290841E-06	2.40787856027366E-06	0.971881942963009	-0.222005737089899
9.2	-0.559074101767365	-0.815005294199331	7.49853333140529E-06	-2.38888399504484E-07	-9.09782271083779E-06	1.97351562096049E-06	0.970778251514838	-0.2240946634604
9.3	-0.657425733815893	-0.738201988729598	7.06542269556639E-08	-7.16214983387624E-06	1.5852095026376E-06	-1.30136600564114E-06	0.970198252405285	-0.22570303677491
9.4	-0.745770914042719	-0.649930459731267	6.03635048784628E-07	2.48498068129518E-06	1.61334761981626E-06	-3.60353624299072E-06	0.970338514450205	-0.228029635066642
9.5	-0.822502138830138	-0.546938718024844	-2.83992922489205E-06	6.66671831673376E-06	4.72185938017345E-06	-1.39458427247945E-06	0.969395032449381	-0.232061328545714
9.6	-0.879431603167976	-0.437587066713434	-5.04074556805707E-06	-5.16364948763808E-06	4.76514156121963E-06	2.84825645830989E-06	0.967823462124487	-0.234022725675265
9.7	-0.925671652099976	-0.324846573530156	-2.01719206929035E-06	-5.04824967025101E-06	2.09001681810492E-06	1.21491007929651E-09	0.967722196019498	-0.236032133019639
9.8	-0.959028602396645	-0.205943181904915	5.74358492696821E-07	-4.27308963814162E-06	-2.94098553445367E-06	-2.49778538276727E-06	0.96805023512628	-0.238379993469444
9.9	-0.977344652240956	-0.0830577028626188	-6.07532222127948E-06	4.2207421562647E-06	-3.06665964716543E-06	1.67243241592669E-06	0.967566534541205	-0.242157763703423
10	-0.980624238676497	0.041572455075592	3.55485824197114E-06	-5.66842219272432E-08	8.23712673970261E-06	1.10153773171992E-05	0.9627155999439	-0.243494726594359
10.1	-0.966244430587078	0.165889896840493	-2.85301566707157E-06	-2.5022893477503E-06	-2.00812675832419E-06	-2.4802031820687E-06	0.963382307134082	-0.241283550532284
10.2	-0.93643326884616	0.286622473344569	2.34275095560326E-06	-1.02434117293919E-06	-2.75937387140156E-06	-1.05273114051782E-06	0.964583362911038	-0.242805748526939
10.3	-0.891438362582985	0.402463323578716	7.69912302884355E-06	-5.94681481787178E-06	3.86907414005543E-06	8.17518233245702E-06	0.964397817647858	-0.245235677738025
10.4	-0.831887773215336	0.510411872233736	1.69467906152231E-06	2.43217583248106E-07	6.22852082541273E-06	-1.19989652220804E-06	0.96292403020719	-0.248106575651032
10.5	-0.762424436063413	0.607587921608227	8.27952716609431E-06	-4.10777211611442E-06	-4.89971572567425E-07	1.95604877359581E-06	0.960983357017943	-0.249318469378454
10.6	-0.682506861766272	0.699082958209925	8.87901253254156E-06	-1.25279271134386E-06	-1.47991084279183E-06	1.35511452922359E-05	0.960890448886991	-0.251770295979061
10.7	-0.589714605627097	0.779520576110595	7.967818743026E-06	-1.884448998593E-06	-3.03011529163259E-06	-5.25062503494648E-06	0.959146683876182	-0.254190159741274
10.8	-0.486456234929134	0.84756890908642	2.42924049687569E-06	5.21608559404739E-06	-3.60393798753936E-06	-2.07701366588432E-07	0.958075564289009	-0.254890520611335
10.9	-0.375828444633283	0.901992615739466	-5.52465527740803E-06	4.71167379389353E-07	1.57899084973833E-06	4.00627265223786E-06	0.957790130015849	-0.255658587755437
11	-0.25917007334881	0.944433954568068	1.19873337437976E-08	-5.1984482182406E-06	-8.34633037544771E-06	2.20750263428859E-06	0.957364632184119	-0.256052958991035
11.1	-0.134968074520646	0.968687200086349	6.27406059521349E-06	4.06988570651113E-06	-1.89816102554677E-06	1.07007648417831E-05	0.958328633876522	-0.25626549591168
11.2	-0.012405807945009	0.97609483179577	1.56718613676681E-06	1.34817565042568E-06	5.0952577693072E-06	8.85175755529657E-06	0.95901902460702	-0.257678595761727
11.3	0.109117862096246	0.968976332699536	-4.55114177322015E-07	-1.72676929540103E-06	-6.83703333288237E-07	-4.36756849770315E-06	0.960045078174492	-0.259488883786368
11.4	0.229082129022876	0.948147793501243	1.76998636959515E-07	1.17866286373363E-05	2.38860365787092E-06	4.90755624192914E-06	0.961335659747369	-0.262858974555966
11.5	0.346576305819496	0.912828293587602	6.16582988164863E-06	-3.03356658139341E-07	3.21181821272395E-07	-1.87191353931929E-06	0.959479291746835	-0.268548709868702
11.6	0.457723539035924	0.863023720755799	-5.9768510790223E-06	3.03702910720417E-06	-4.84552783545783E-06	1.89025410626452E-06	0.956950161294261	-0.270536954039796
11.7	0.561912023479349	0.800607804019361	3.31332291433424E-06	-1.77212936095598E-06	-1.7047817172471E-06	2.21678275652293E-06	0.956937675286323	-0.273743488944292
11.8	0.658620768656008	0.725419656587415	-8.59136421000208E-07	9.7396531082155E-06	-2.74803324616569E-06	1.04719988807454E-05	0.956861679366321	-0.278381638516341
11.9	0.746220929625833	0.636394115867439	-7.26304295106171E-06	-1.05325833775403E-06	-3.92619886692767E-06	1.11918701359411E-05	0.955188346137149	-0.283939899557518
12	0.818447183609798	0.53454051075165	-6.4168924472811E-07	1.37245884859901E-06	-3.11458730253582E-06	-1.91559757048821E-06	0.948562103838337	-0.286017689095165
12.1	0.878462241669916	0.429470401994953	-3.86853484282127E-06	4.94427378714324E-06	-1.35523677686834E-06	8.3573434072102E-06	0.948136030351578	-0.283474950025691
12.2	0.925820724385566	0.315393016153399	-5.63407302319632E-07	-3.77764060416109E-06	-3.09399633059193E-06	-7.34941399567257E-07	0.948444307352209	-0.284855274269877
12.3	0.957332832928337	0.196783047592455	3.56450092165832E-06	3.41815361996354E-06	-3.42761491279203E-06	6.21647490162961E-06	0.947759197146963	-0.286761890827944
