# GHZ S RI R 50
0.2	-0.965885786304228	0.251641512445248	8.82345800377101E-06	5.3199809314816E-06	1.13642895906181E-06	-2.88976903556956E-06	0.999708880945432	-0.00698403728308025
0.3	-0.926356665659685	0.371440268425386	-7.6622831875926E-06	-8.17997655393303E-07	-1.40252418398569E-08	3.65944549841219E-06	0.999622839665751	-0.0100453407850339
0.4	-0.871579794086143	0.485112084477098	-2.19696592078186E-06	6.33928998396617E-06	2.92046102680047E-06	5.73533478968514E-06	0.999482620619388	-0.0128364166960662
0.5	-0.803305665964761	0.591050499626556	-2.64852963011531E-06	5.49301580974584E-07	1.05196311491492E-05	4.88243596869154E-06	0.999151417716253	-0.0159361612168872
0.6	-0.722076136031477	0.687436940382796	-1.72504078123911E-06	-1.79400856869781E-08	4.16068885563377E-06	-1.03354787953187E-05	0.999173304588121	-0.0188262440017034
0.7	-0.62956827898493	0.772824886635006	-2.04642753045392E-06	9.88545083620902E-07	3.78492986406333E-06	1.11573820998583E-05	0.998767288561844	-0.0217446730749296
0.8	-0.527003020051531	0.845964489233578	-5.60362372015765E-06	3.7822666134278E-06	-3.16765747689156E-06	-2.13802970948322E-06	0.998541305870878	-0.0238551164830987
0.9	-0.416278240745074	0.905399589119509	-6.67493109837351E-07	5.24936678155882E-06	3.26569161157029E-06	-2.95344925951982E-07	0.998524940291723	-0.0262748221915957
1	-0.298488944247279	0.950439258476003	1.56798887048771E-05	-3.69155490880352E-06	-9.59564142033685E-06	5.30362535592114E-07	0.998138653071601	-0.0280795516159261
1.1	-0.176999046025652	0.980010382928679	1.34051918032627E-06	-2.98141978618895E-06	9.39710819600434E-06	1.25885965832745E-05	0.997671084857337	-0.0301641846914238
1.2	-0.0519018303605254	0.994097300047805	-7.90510919157428E-06	-3.25337193128299E-06	-3.0978734029232E-06	-4.4744136727814E-06	0.996679121223718	-0.0313268179445664
1.3	0.0739726736331533	0.992320310887795	1.80251537156394E-07	3.33130858104701E-06	1.92771207156927E-06	3.39736485498173E-07	0.996444402502894	-0.0322827340693944
1.4	0.198328285046218	0.974755873818009	2.50564623410592E-08	3.76429260300393E-06	-2.52936840323993E-06	-5.60847181141118E-06	0.996156452458789	-0.0344052141204268
1.5	0.319499218531925	0.942100923228398	3.18406189445028E-06	-2.68902806170984E-07	2.70159672087886E-06	2.09070029587372E-06	0.996615731775488	-0.0378731359539801
1.6	0.435436527440057	0.894634267635993	1.78494290298709E-06	-1.93911960746779E-06	-8.95160361991237E-07	-3.06053282670185E-06	0.996224867965786	-0.0410382045734133
1.7	0.544240106141666	0.832620892332778	-8.75095946656146E-08	-3.52245495397564E-06	2.00677933227613E-06	4.92204755244105E-06	0.996793797729265	-0.043353552774539
1.8	0.64419838792221	0.757887675063267	-2.05710349300554E-06	-1.81214236535685E-06	-4.62915018287396E-06	1.83099155549733E-05	0.996858258739417	-0.0459580911677925
1.9	0.733932414932287	0.671296981974033	-4.38852225962105E-06	-1.46470622714564E-06	-4.9257453256177E-06	-5.99869445549953E-06	0.996826241205296	-0.0482373481569077
2	0.81200519436514	0.573987713265483	-9.49564670094441E-08	-6.73595989141052E-07	-1.66754015293056E-06	-1.41614308248102E-06	0.996110263818242	-0.0509514852200309
2.1	0.877715873737114	0.466858408303216	-1.13777840322686E-06	9.4390511073121E-06	1.99242185523049E-06	-3.80343424094447E-07	0.995868443522781	-0.0528820143057179
2.2	0.929102886410016	0.352946296221402	-2.3491180732116E-08	-5.92284918411334E-06	-7.35646380964206E-07	2.73435831893955E-06	0.995938484287267	-0.0551367627412808
2.3	0.96569516195932	0.23341846729022	-1.31376080687566E-06	2.76233720588494E-06	-2.70444761643246E-07	1.19580988597796E-05	0.995721229273425	-0.0569153127455956
2.4	0.987020469766849	0.109466841333825	-5.8642483243775E-06	-3.70435992558576E-06	-1.75735131352978E-05	1.45026729540655E-05	0.995716631891113	-0.0600480223773796
2.5	0.993013536644666	-0.0152139995278909	1.81848083205758E-06	-2.95895605075307E-06	-1.79267792091826E-06	7.53927378482983E-06	0.995216014542032	-0.0623929096930338
2.6	0.983210861273869	-0.138783204897163	2.85932094614983E-06	9.1950189105448E-07	-1.75163712508203E-06	4.49795524748868E-06	0.994943901550394	-0.0651635461816225
2.7	0.957875116270518	-0.260578270292359	3.81491685299825E-06	1.04375590056199E-05	2.31895048579308E-06	3.86584471818962E-06	0.994444232645636	-0.0679108032462209
2.8	0.91767641085206	-0.378379720140733	-8.11179022791151E-07	-2.29130517585008E-06	2.20524173213497E-07	-1.88607180674495E-06	0.994593373812921	-0.0696386490371897
2.9	0.863426468540218	-0.489857391140372	3.77209742592223E-06	-8.30611079992938E-06	-1.25847887378976E-06	-1.42141078182257E-05	0.994409753492034	-0.0714591249838569
3	0.795641127605144	-0.594243053607518	-2.13050171517768E-08	6.64471503216055E-06	-1.4767208204971E-05	5.27985275768867E-06	0.994385347095865	-0.0738253319179815
3.1	0.716233564855071	-0.688461155274603	-4.99271447418295E-06	7.81229593180573E-06	5.8057051587681E-06	-7.69685189197421E-08	0.994147056531981	-0.075713963504706
3.2	0.623748715002936	-0.773225506589402	9.56665299481645E-07	2.12637599375504E-06	-4.5599661485001E-06	4.71100372241176E-07	0.993955248179253	-0.0774059462051603
3.3	0.521612616859335	-0.845553802806705	7.21536865721989E-07	-1.45803912277374E-06	-4.58123816153212E-06	7.23946038147483E-07	0.993800583742692	-0.0806124149708138
3.4	0.410807687006292	-0.904296655166288	6.46879051030717E-06	2.46296666025329E-07	-8.1225079622438E-06	-7.19429348969491E-06	0.993925497532714	-0.0826574041872144
3.5	0.293450845750731	-0.948793201653234	-7.70154817208535E-06	1.95112538345743E-06	-5.89156565486851E-06	-7.99054373628975E-06	0.993684872524899	-0.0857250781116422
3.6	0.170767350252665	-0.978058811718208	-8.51429893143938E-07	-4.38183632234064E-06	-7.8074731613294E-06	-6.34044744202951E-06	0.993161029184304	-0.0880463964907815
3.7	0.045855777276268	-0.992113110024051	-6.70646500732058E-06	-6.77737755377201E-06	5.33719476004645E-07	-4.7627979248394E-06	0.993115220500811	-0.0905199399884259
3.8	-0.0801330879719375	-0.989824248049967	-3.6449756743159E-06	1.07865587838923E-06	-3.29371412691256E-06	-2.46949834822044E-06	0.992944295795178	-0.0924667723094942
3.9	-0.204037393167155	-0.971543430188534	-4.83515603156316E-07	3.5076647947126E-06	2.05504556792946E-06	-1.2171601649374E-06	0.993207502045747	-0.0957475589267695
4	-0.324563465003443	-0.938024334699916	1.1671054146949E-05	8.13124609153969E-06	7.27044602146092E-06	-4.03316163707518E-06	0.992595922962347	-0.0973509620420348
4.1	-0.439553202575133	-0.890047545671848	5.21727068619487E-06	1.33000822777873E-06	-3.46669184819133E-06	6.64931339516504E-06	0.992366481014274	-0.0987904452479929
4.2	-0.547659397646702	-0.828295504348528	-7.09917898346349E-06	-1.21006109946244E-06	-8.26892308029498E-06	-5.09561048263615E-08	0.992084895954729	-0.101265974609106
4.3	-0.647285160764015	-0.752919209284463	7.05162502828239E-07	-2.36817303200547E-06	5.21404610560357E-06	8.86392116997884E-07	0.992214257844909	-0.103280011793613
4.4	-0.736628679028227	-0.665212844116003	4.47609971429056E-06	-1.77047246056075E-06	-8.69894599923364E-07	1.34630088340917E-06	0.991890555934987	-0.105834921231168
4.5	-0.814118200424174	-0.566859577250877	6.7833358829579E-06	1.87395885863346E-06	-8.01480402550868E-07	-3.25812759851778E-06	0.991747323789153	-0.10800161707489
4.6	-0.878909418880868	-0.459842802744052	2.45253459121758E-06	2.95388609881489E-06	-6.5980886744063E-06	9.73932486193962E-06	0.991503983890884	-0.110785055175766
4.7	-0.929771239656506	-0.344720180950994	-1.40568116947342E-05	5.89987833752474E-06	-3.46182548569609E-06	-3.8556469549663E-08	0.991471998018587	-0.112904859374346
4.8	-0.965632647804364	-0.224602915745126	-3.15422940304458E-06	-5.14646482395485E-06	-5.52640110976573E-06	2.3576309905469E-06	0.991159721081889	-0.115446587834886
4.9	-0.985614426880501	-0.101469748066983	-1.00746579167458E-06	-8.55293723340411E-06	-4.221995373186E-06	7.33184908423862E-07	0.990929731019233	-0.117305657044834
5	-0.990661892982398	0.022347322519168	7.55593241721215E-06	-1.55713246693468E-06	-1.74789226223783E-06	-2.72584888611714E-06	0.990881883723559	-0.119105423474366
5.1	-0.980210431094696	0.147572843802989	-2.59165626438832E-06	-6.402013441056E-06	-1.00596028515063E-06	-1.95591287669617E-06	0.990886549248913	-0.120595490109115
5.2	-0.954434859010628	0.269734682675271	4.00109436762813E-06	-4.30042644402578E-07	-5.45354074245049E-06	6.30317963751163E-06	0.990777779266141	-0.122936246724267
5.3	-0.913625313570504	0.387920443101067	5.1352014554052E-06	6.02120384596471E-06	-9.55871042895951E-07	-3.59124928750528E-06	0.990631893389142	-0.125424500800153
5.4	-0.858007888705624	0.500192274423502	3.06893207305246E-06	-2.01514812946956E-06	-1.13317789046899E-05	2.18845479629477E-06	0.990698709843246	-0.128453246084999
5.5	-0.787890128591559	0.604067556841153	-4.30811782000865E-07	-2.19765772866124E-06	-5.80059935433891E-06	6.12825862228095E-06	0.990329416228535	-0.131712536339296
5.6	-0.705496618624604	0.697749532882591	2.37609455103534E-06	7.31498701124776E-06	-5.41284725088941E-07	2.93226974105549E-06	0.989801950740461	-0.134138505192374
5.7	-0.61249556771206	0.781082334607543	-2.5775538728292E-06	2.36170328348213E-06	7.9196674492885E-06	2.79075767216719E-06	0.989644742273467	-0.136373293585228
5.8	-0.509443885010394	0.85174622150442	-4.66147973747823E-06	5.10810213981069E-06	-3.70445969861493E-07	3.42782225549257E-06	0.989781438595063	-0.138468220082112
5.9	-0.398441406161876	0.909396601341308	6.36972680345019E-06	1.50753058761832E-06	-2.71929337323645E-06	2.54999363708361E-06	0.989950511998507	-0.140908729288715
6	-0.280930669743374	0.952115203230985	3.5294315404785E-06	3.30798289054155E-06	-3.28294298567101E-07	-1.43718511747325E-06	0.989514792220693	-0.142878527161899
6.1	-0.159381591034987	0.979642486777989	9.19559200854729E-06	1.53001525670933E-06	-1.27351951189222E-07	-1.81251597029662E-06	0.98987251160147	-0.144022927763622
6.2	-0.0346215711065792	0.991850481492772	2.44515622233321E-06	-1.73411125120279E-06	1.48352727062365E-06	-4.85656013453428E-06	0.990096510735356	-0.145875101525759
6.3	0.0908260203268141	0.988047188745818	-4.36769649430741E-06	4.25673888447011E-06	-6.17448529940715E-07	-1.72871584387414E-06	0.989803555793787	-0.148561601712994
6.4	0.214478235007543	0.968064314604683	-4.2714073571448E-06	1.0755817947285E-06	-1.75676631451379E-06	8.86057610604564E-06	0.988965854103525	-0.151282295413594
6.5	0.333790656536752	0.933103510248142	2.45419434988502E-06	-1.33366642477999E-06	1.48774122341748E-06	-2.93380578975553E-06	0.988066865362553	-0.15385405285436
6.6	0.44798398220484	0.884034075678374	-4.73992116340486E-06	-2.25754961365295E-06	-1.86679770046588E-06	-6.64687673339985E-06	0.987824798671531	-0.15627888715983
6.7	0.555050734984078	0.820857009768559	4.16722395559884E-06	-6.60660330764408E-07	-4.68104720580063E-06	1.01109603021359E-06	0.987557708639144	-0.158604460820518
6.8	0.653386662749405	0.744940863664881	3.76166339985461E-06	-2.08113171576472E-06	6.2211643896325E-06	-9.22661127796778E-07	0.987202304477775	-0.16087745286494
6.9	0.74146387285669	0.657326054766301	2.05045588373203E-06	1.64325780552769E-06	8.79420006078464E-06	-2.75893982548964E-06	0.987004969126184	-0.163139688472701
7	0.817665689341898	0.559119567122616	2.17712005422993E-06	4.10106100420191E-06	-9.1472527525764E-08	5.38985248781627E-06	0.986213235739483	-0.165243022639189
7.1	0.880781806278732	0.452807662832246	-1.32859985141999E-07	1.71874665123061E-06	8.26546633183317E-06	-4.64977622176593E-06	0.985490451096903	-0.166809088417413
7.2	0.930252069985769	0.33914134986144	4.85135509109102E-06	-1.39433240251996E-06	7.26205765615459E-06	3.78471324282942E-06	0.984829777025311	-0.168467354106657
7.3	0.964832975163606	0.220097347339327	4.86469398183721E-06	-1.10824890513434E-06	-7.34462733725969E-06	-7.38741359073066E-06	0.983832296524913	-0.170136475365549
7.4	0.984629305699172	0.0971974409650313	-1.84522436119855E-06	9.90265730663718E-06	1.4360016357879E-06	-4.0716734334118E-06	0.983101651303693	-0.172385863919467
7.5	0.988520604413592	-0.0278851681733946	8.41232607391018E-07	8.06903464925755E-07	1.67497110320514E-06	9.93639617041733E-07	0.982095313997281	-0.175292436372345
7.6	0.976456546987135	-0.151838257445263	1.4529792112408E-06	-2.61661925427862E-06	-5.42419398356784E-06	-3.62276913865882E-06	0.981187197425757	-0.177901581050148
7.7	0.949771452627947	-0.273474639655581	5.57412786793512E-06	2.40536374369455E-06	-6.81904492139317E-06	1.2052792691297E-05	0.981162107380084	-0.180828064450595
7.8	0.908373112407746	-0.391250977403215	-6.16086693877312E-07	-5.24441228907533E-06	3.73340240590518E-06	-4.74069896496397E-06	0.981534144163879	-0.184298370253708
7.9	0.85180930933595	-0.503165591285017	8.85964998235941E-06	1.52178225207996E-06	-9.55044333179328E-06	-8.63497583898575E-06	0.981487076890537	-0.188339530531109
8	0.781044504110793	-0.605799211238449	-6.65793665446515E-06	-1.62134812663513E-06	-1.20035378899128E-05	2.51110508030421E-06	0.980059422103158	-0.191716937512676
8.1	0.699557130957567	-0.69855278897908	5.07479757310807E-06	7.28337030579965E-07	2.89217515399962E-06	2.25989429233952E-06	0.979362950351891	-0.19383276768251
8.2	0.606913517503014	-0.780939191666916	3.56405270461417E-06	-2.57588396178281E-06	-3.68316257377718E-06	-1.16149866224776E-05	0.979125750048026	-0.196105061962021
8.3	0.504175332476725	-0.851078377042887	2.72806038615937E-06	-1.85856358267425E-06	1.63935936654136E-06	5.29310223035654E-06	0.978582280481157	-0.198801574272242
8.4	0.393169949486918	-0.907667115314199	-5.55490642702852E-06	-1.01868037429596E-06	1.05643514712551E-06	2.95206504437915E-06	0.977780656985514	-0.201564035406917
8.5	0.275129914822112	-0.949511676655404	-3.2896876686889E-06	1.62681405419135E-06	-4.79654878236445E-06	-5.00368355315299E-06	0.976958230250253	-0.204226877153962
8.6	0.153150082235227	-0.975777724769752	-8.14105520764138E-06	1.39241836741731E-06	-4.34751328706149E-06	-6.86036827291293E-06	0.976540930625573	-0.206898755454884
8.7	0.0288775600216407	-0.987050926007671	2.2446767584613E-07	-2.1484511743229E-07	6.11914588782806E-06	5.04767997038803E-07	0.975983984535501	-0.20951604229161
8.8	-0.0960127419162227	-0.982610530755919	1.02374816156561E-06	-1.81887888335408E-06	-2.39145817947634E-06	-1.27935226360466E-06	0.975454061922242	-0.211698693605445
8.9	-0.218882675331543	-0.963176722396626	-3.01999245902227E-07	3.03577167141962E-06	-1.23393633514727E-06	-1.64231823639406E-06	0.975354570544246	-0.213588325418444
9	-0.338404101928677	-0.928366501257804	2.97984419486032E-06	1.59231533961147E-06	-1.5791360991548E-06	2.11604530896628E-06	0.975320386953627	-0.215686689231595
9.1	-0.452420494347316	-0.878229281064123	-9.33095969351736E-06	2.2656427993813E-06	-1.56816491315657E-06	2.41354943641071E-06	0.975358450486828	-0.217779731149602
9.2	-0.559032241094889	-0.814263556442206	7.52032361098473E-06	-2.33481542471879E-07	-9.12562893300761E-06	1.97180465283458E-06	0.975158445879131	-0.220609778723625
9.3	-0.656490784824209	-0.737761365663686	7.4892570731516E-08	-7.17770534096955E-06	1.58940349880957E-06	-1.30329574307195E-06	0.974825167393476	-0.223474703675132
9.4	-0.74383592494436	-0.649800840084563	6.02757201441419E-07	2.48777776231664E-06	1.61706412672292E-06	-3.60611964132941E-06	0.974213483518967	-0.226804082931671
9.5	-0.819285114723935	-0.550213896232883	-2.86139760873007E-06	6.66174023049857E-06	4.72853411776609E-06	-1.38118078618596E-06	0.973135305156247	-0.230238955584994
9.6	-0.880270998217441	-0.442512019202167	-5.03903270969895E-06	-5.19370122707922E-06	4.76978205154638E-06	2.87094363042378E-06	0.972030899109229	-0.233357654923843
9.7	-0.928420559949258	-0.328347001544745	-2.01297393960456E-06	-5.06887350938672E-06	2.09677534344986E-06	5.66680203130624E-09	0.971215328034563	-0.236054561612037
9.8	-0.962538319554314	-0.208249671523381	5.8355050406781E-07	-4.28544973121186E-06	-2.94585292274306E-06	-2.51068256247571E-06	0.970702782661819	-0.238344544782226
9.9	-0.9811853786802	-0.0843338642224691	-6.10253924368176E-06	4.22100804230956E-06	-3.07944998811642E-06	1.67117310477256E-06	0.96989235284224	-0.240649111571869
10	-0.984185895845524	0.0408076348785445	3.57040783341255E-06	-4.94882609149636E-08	8.2498220066967E-06	1.10804370924467E-05	0.968307834275657	-0.242051890368267
10.1	-0.970459423962591	0.165176313331561	-2.86254736846554E-06	-2.51550387519274E-06	-2.01414431888714E-06	-2.49251272688566E-06	0.967827075509498	-0.242761686666344
10.2	-0.941434833980368	0.286505589956501	2.35316919713884E-06	-1.02597577367799E-06	-2.76928033921453E-06	-1.05981884892257E-06	0.967686919619303	-0.244106932410128
10.3	-0.897507977242055	0.403169714164663	7.74062470633043E-06	-5.96372838905614E-06	3.87617826492941E-06	8.21623776624269E-06	0.967059169838825	-0.246125995956738
10.4	-0.839672267856139	0.513257418814246	1.70419016338155E-06	2.46370640334932E-07	6.2656419202988E-06	-1.20036974368892E-06	0.965754915506241	-0.248514678829204
10.5	-0.768693350190321	0.615044385357002	8.32694388320343E-06	-4.14772969669895E-06	-4.90049458573632E-07	1.96957702873279E-06	0.964221652785324	-0.250639146143999
10.6	-0.685652975952446	0.707016018573827	8.91903695776395E-06	-1.27949254800002E-06	-1.45556412510623E-06	1.36201159818662E-05	0.963315175824254	-0.252732364579461
10.7	-0.590895411734214	0.787485813597183	7.99879094097578E-06	-1.91112125203529E-06	-3.05561575025271E-06	-5.2669228091683E-06	0.962387432956297	-0.254976430335899
10.8	-0.486070817032565	0.855159950618573	2.45323020018739E-06	5.23245091083585E-06	-3.62010897598296E-06	-1.99309040256111E-07	0.961793638186159	-0.256594847610139
10.9	-0.373695517419659	0.909125425621181	-5.54488755026197E-06	4.90932835093962E-07	1.59819738190502E-06	4.01693322995689E-06	0.961439155961716	-0.258231181955167
11	-0.255490654843464	0.948898339110617	-3.22469404486447E-09	-5.21173558600514E-06	-8.36113466553772E-06	2.23760276695984E-06	0.960890126054327	-0.259454986652067
11.1	-0.132960880786009	0.972600302948328	6.30340769771157E-06	4.06816962687382E-06	-1.8792605404996E-06	1.07390767158128E-05	0.960783873046402	-0.260695998020088
11.2	-0.00997415777532005	0.980598021576459	1.57664846196917E-06	1.34823656500836E-06	5.13926065059898E-06	8.86754698213651E-06	0.960302892851358	-0.262457702489619
11.3	0.112606536765122	0.973318792613985	-4.63399438643654E-07	-1.73075673168208E-06	-7.03097490865499E-07	-4.37948514252337E-06	0.95994699293325	-0.264383910125243
11.4	0.233295267039958	0.951728555871866	2.36469107290104E-07	1.1815895942024E-05	2.41928735916876E-06	4.90815102898487E-06	0.959291931558235	-0.267306864738904
11.5	0.351157169013159	0.915485449646229	6.17129162974222E-06	-3.30078957573421E-07	3.13522184130578E-07	-1.87534052957932E-06	0.957701267734574	-0.270586148882552
11.6	0.462335878382711	0.864607259471621	-5.97545983254419E-06	3.06526936554492E-06	-4.84660141307772E-06	1.91216341272665E-06	0.956061597167865	-0.273441303239673
11.7	0.566118310265853	0.801157718845808	3.31067774083437E-06	-1.78861444962331E-06	-1.69793886062235E-06	2.22715486053635E-06	0.955084607415543	-0.276646583054705
11.8	0.66167470837915	0.725119486409356	-8.21348371354182E-07	9.74799848201809E-06	-2.70833537608489E-06	1.04881318655533E-05	0.95418032637188	-0.280072494779275
11.9	0.747170530339669	0.637096359778544	-7.26300057792602E-06	-1.04032026860477E-06	-3.90566627539971E-06	1.11958212448898E-05	0.95338151615627	-0.282639333327519
12	0.821047409073339	0.538004937300901	-6.43759715892472E-07	1.37535127261474E-06	-3.12095397184292E-06	-1.92135654849249E-06	0.951456346887429	-0.284192341520126
12.1	0.88195747115083	0.431297243878196	-3.87609886664344E-06	4.9604934883837E-06	-1.35362552655917E-06	8.38142568827493E-06	0.951253461945173	-0.284257405229653
12.2	0.929261253763221	0.317340311820411	-5.64914673657884E-07	-3.78978202672388E-06	-3.10384649815246E-06	-7.37538017435051E-07	0.95171504546027	-0.285976156727392
12.3	0.961861710391254	0.198847798574959	3.58029736930293E-06	3.43543949702498E-06	-3.4457742017742E-06	6.24481551139382E-06	0.951805589646393	-0.288441558823901
