# GHZ S RI R 50
0.2	-0.965912524402672	0.251597123009159	8.82335379805276E-06	5.32039207985086E-06	1.13655637754601E-06	-2.88975877797385E-06	0.999714673608937	-0.00695329614446798
0.3	-0.926409509717703	0.371379738600899	-7.66238955720716E-06	-8.18512036048243E-07	-1.42630673249109E-08	3.65952074754736E-06	0.999632916986533	-0.00998695806070111
0.4	-0.871688154312212	0.485046586787853	-2.19776179649603E-06	6.33944517968289E-06	2.92003890244513E-06	5.73598814617019E-06	0.999537423885416	-0.0127334387677322
0.5	-0.803454641889265	0.591082450674435	-2.64897344184545E-06	5.49266164283053E-07	1.05210679646324E-05	4.88369277845653E-06	0.999312384338334	-0.0159128306896886
0.6	-0.722141956355257	0.687478081894473	-1.72518270039812E-06	-1.7900874324912E-08	4.16078638603427E-06	-1.03364246850947E-05	0.999227919014787	-0.018878251057206
0.7	-0.629639445458349	0.77283666741518	-2.04653790375656E-06	9.88579314140286E-07	3.78503580397028E-06	1.11579717339162E-05	0.998779008718564	-0.0217528622756413
0.8	-0.527093905139749	0.845975780728824	-5.60397560707356E-06	3.7822916337389E-06	-3.16774499421752E-06	-2.1382088975973E-06	0.998536906126818	-0.0238329228387555
0.9	-0.416391016289638	0.905420324215109	-6.67789241347158E-07	5.24943898457681E-06	3.26577475593771E-06	-2.95175333858295E-07	0.998487325645026	-0.0261833091968275
1	-0.298643347268147	0.95048909047696	1.56813984694865E-05	-3.68877812062457E-06	-9.59623814925696E-06	5.28573798491072E-07	0.998235610422105	-0.0278187627527118
1.1	-0.177179861976554	0.980143117767413	1.34140051554626E-06	-2.9818330235392E-06	9.39678768338598E-06	1.25932633980913E-05	0.997953568868407	-0.0300168856906373
1.2	-0.0520612984497736	0.994361369487622	-7.90733018385429E-06	-3.25582863992097E-06	-3.09820984030452E-06	-4.47649506776807E-06	0.99705893638076	-0.0312265767832187
1.3	0.073970779832137	0.992686880106273	1.8014706823105E-07	3.33291517918953E-06	1.92861631607008E-06	3.40009710703891E-07	0.996946782217391	-0.0323367791565765
1.4	0.198480231749328	0.975014716735363	2.5504467236446E-08	3.76580550035785E-06	-2.53103938977247E-06	-5.61043598967674E-06	0.996515084428755	-0.0346325829317741
1.5	0.319658224104176	0.942253403486247	3.18481171799151E-06	-2.69289123629205E-07	2.70246648759281E-06	2.09093831417925E-06	0.996838423113741	-0.0380283348078771
1.6	0.435580812477713	0.894645464681179	1.78493728737497E-06	-1.93962483228734E-06	-8.9568745780471E-07	-3.06084244882491E-06	0.996319685714429	-0.041225528763077
1.7	0.544290936968138	0.832575576289886	-8.78316393641432E-08	-3.52253548152701E-06	2.00727666944293E-06	4.92198895964942E-06	0.996767727567263	-0.0434534585171991
1.8	0.644153947924582	0.757808337399294	-2.05701926740298E-06	-1.81187969364412E-06	-4.62780569683344E-06	1.83085725904287E-05	0.996729130789137	-0.0459765590657665
1.9	0.733659562645865	0.671270071696627	-4.38706436684557E-06	-1.46478356852521E-06	-4.92360547307505E-06	-5.99750265706206E-06	0.996545447357575	-0.0480125308998321
2	0.811803478600571	0.574510287574694	-9.44957184303185E-08	-6.7363946001046E-07	-1.66652559366281E-06	-1.41723207169606E-06	0.996311114298636	-0.0502740676262583
2.1	0.878023061728545	0.467154657317874	-1.14138799600938E-06	9.44295484198682E-06	1.99344926698013E-06	-3.79862644333043E-07	0.996378906025309	-0.0527689384523211
2.2	0.9293409792013	0.35299996977566	-2.2903460852506E-08	-5.92498955297103E-06	-7.36187174473826E-07	2.73527130479126E-06	0.996218672022402	-0.0552043480331905
2.3	0.965814937622913	0.233420575831928	-1.31427279291849E-06	2.76306665127403E-06	-2.71105189698691E-07	1.19615205856097E-05	0.995841747950311	-0.0569702964705079
2.4	0.987032207915531	0.109544687424676	-5.86582441401332E-06	-3.7052711237856E-06	-1.75779728586027E-05	1.45066572633488E-05	0.995714061699204	-0.0599913061996959
2.5	0.993091909954699	-0.0149484098512896	1.8182179939707E-06	-2.95918867014523E-06	-1.79195868550402E-06	7.5395837081141E-06	0.995269989914995	-0.062109560231599
2.6	0.983488762145606	-0.138440992393682	2.85876897863994E-06	9.20274577815837E-07	-1.75282327110762E-06	4.49699504455514E-06	0.995169335563728	-0.0647993578182929
2.7	0.958485748697856	-0.26034734404275	3.81068235804374E-06	1.04419024847384E-05	2.3175961981212E-06	3.86789925077027E-06	0.994938806301104	-0.0675826773729951
2.8	0.918420726665609	-0.378564338808643	-8.10862378833242E-07	-2.29285777794953E-06	2.21281043343088E-07	-1.88705139438553E-06	0.995249588239317	-0.0695860289405877
2.9	0.863953911008617	-0.49039893231944	3.77485323362646E-06	-8.31153915271881E-06	-1.25890563885548E-06	-1.42236209971651E-05	0.994995365385775	-0.0716760186365571
3	0.795890127866842	-0.594861284571992	-1.98709882540321E-08	6.64839898414672E-06	-1.47742362686788E-05	5.28598952357277E-06	0.994843868779356	-0.0741628894670725
3.1	0.716289529199179	-0.689132158263263	-4.99272723030572E-06	7.81745997429951E-06	5.80841124251854E-06	-7.87393317625317E-08	0.994492783351771	-0.0761491154735294
3.2	0.62359526561271	-0.773886004219314	9.57872486534666E-07	2.12691693880222E-06	-4.56172196375546E-06	4.7301905642322E-07	0.994199486397307	-0.0778722762540486
3.3	0.521219603687544	-0.846188579453985	7.21091677219494E-07	-1.4589913627919E-06	-4.5827200089591E-06	7.26550969959045E-07	0.993966333549709	-0.0811360750365255
3.4	0.409989314472812	-0.90468234739849	6.47052718985539E-06	2.41216788799304E-07	-8.13015781348384E-06	-7.18955515512429E-06	0.993883666512727	-0.0832702016524177
3.5	0.292952543476559	-0.948321746906164	-7.69722094605696E-06	1.95497727071898E-06	-5.89398072680966E-06	-7.98371933862377E-06	0.993401117983068	-0.0859893861413419
3.6	0.170784884611139	-0.978099389323294	-8.51945970859403E-07	-4.38123232838388E-06	-7.80749153334445E-06	-6.33865750470826E-06	0.993190453384849	-0.0882497349863586
3.7	0.0455524782044109	-0.992291230451832	-6.70873317362084E-06	-6.77567776023188E-06	5.32338556707601E-07	-4.76314848496524E-06	0.993107554147696	-0.0908853163357995
3.8	-0.080618653015154	-0.989751263725268	-3.64424877187367E-06	1.08003654613562E-06	-3.29444373854542E-06	-2.46797416538336E-06	0.992739209932837	-0.0928474526221017
3.9	-0.204345533634981	-0.971074666324704	-4.82587217718398E-07	3.50670335032795E-06	2.05414819703003E-06	-1.21724676093789E-06	0.992744861658241	-0.0957781737613132
4	-0.324294170052802	-0.937656156874144	1.16711761744006E-05	8.13314754869158E-06	7.27147535894868E-06	-4.03273644080228E-06	0.992891846139611	-0.0967631912111019
4.1	-0.439276630065463	-0.890071314812162	5.21853695226569E-06	1.32871898954161E-06	-3.46534769264815E-06	6.65144122298178E-06	0.993098390372347	-0.099082724810776
4.2	-0.547488546429327	-0.828531444466892	-7.09971480731382E-06	-1.20816837802764E-06	-8.26917824636281E-06	-4.87118691186938E-08	0.992478093851698	-0.101875442299044
4.3	-0.647300379927318	-0.753284678496007	7.04754954203867E-07	-2.36841568561782E-06	5.21445638228701E-06	8.85463467459801E-07	0.992377667663884	-0.103894252462447
4.4	-0.736882852763029	-0.665630903193355	4.47669080992387E-06	-1.7713016659339E-06	-8.69894195941666E-07	1.34663997976276E-06	0.991991904219588	-0.106325177157525
4.5	-0.814703697686777	-0.567071354990186	6.78675995957557E-06	1.8723497156594E-06	-8.02947701803253E-07	-3.25917674655854E-06	0.99204402736725	-0.10863141165602
4.6	-0.879413578653036	-0.459783521933844	2.45452680083115E-06	2.95309964906833E-06	-6.59407326305021E-06	9.74451572608039E-06	0.99149423119844	-0.111628002555462
4.7	-0.930257243900154	-0.344609296938689	-1.40555327377708E-05	5.9071348300304E-06	-3.462213588452E-06	-3.69287701771771E-08	0.991289203226252	-0.113640733205485
4.8	-0.966250110928331	-0.224405110640705	-3.15711189114765E-06	-5.14581657774261E-06	-5.52618192355792E-06	2.36056364902425E-06	0.990902688057511	-0.116099806287213
4.9	-0.986520792246893	-0.100826239476924	-1.01328561177467E-06	-8.55477598885943E-06	-4.22275063164432E-06	7.36126413025767E-07	0.99059499009931	-0.117911079251856
5	-0.990704181381512	0.0238847442213445	7.55341055389683E-06	-1.56491599485387E-06	-1.75056200474505E-06	-2.72368874982857E-06	0.99046142155924	-0.119616824014718
5.1	-0.979684384955428	0.148305015900522	-2.59472756259916E-06	-6.39756953337333E-06	-1.00680661877979E-06	-1.95441520810694E-06	0.990387074212932	-0.121006360811416
5.2	-0.954058795629144	0.270397278899481	3.99942868537764E-06	-4.32057969993868E-07	-5.44817076596803E-06	6.30387966716359E-06	0.990247144737532	-0.123157140680749
5.3	-0.913000598258119	0.38868117266878	5.13658981268593E-06	6.01598391318163E-06	-9.57516671828454E-07	-3.58931901996123E-06	0.990233310067949	-0.12550867212576
5.4	-0.856958273338808	0.500754274918625	3.06601161464216E-06	-2.01588539207353E-06	-1.13241702239316E-05	2.19409057582013E-06	0.990344194262572	-0.128637084442297
5.5	-0.78664247017306	0.604056742790593	-4.31099747407447E-07	-2.19572701083123E-06	-5.7940457539224E-06	6.12491952277661E-06	0.989900750580461	-0.131614640462764
5.6	-0.70448826574187	0.697376237943384	2.37560038355651E-06	7.31053394741996E-06	-5.4063061416259E-07	2.93066060076908E-06	0.989743488039531	-0.134209317260823
5.7	-0.611637828346746	0.780520574729935	-2.57564006360104E-06	2.36093863070721E-06	7.91588263074165E-06	2.78756712742707E-06	0.989431519568664	-0.136737024510061
5.8	-0.508686618370242	0.850934172287205	-4.65689364049015E-06	5.10550434085916E-06	-3.69366413272893E-07	3.42542641010796E-06	0.989225315244402	-0.138894373825526
5.9	-0.398039774493939	0.908150899110247	6.36260074734293E-06	1.50642322348276E-06	-2.71652616960567E-06	2.54695868843379E-06	0.98892440403029	-0.1408639371652
6	-0.281394426636404	0.951299481088609	3.52487517642979E-06	3.30988128441455E-06	-3.26819528905592E-07	-1.43688858422035E-06	0.989538317164684	-0.142038853718913
6.1	-0.159346682901316	0.97915872198455	9.19631242324826E-06	1.53095263305727E-06	-1.27206965359135E-07	-1.81269507461799E-06	0.990109205305582	-0.14449321288909
6.2	-0.0346973772582096	0.991014319933424	2.44422449125716E-06	-1.73390222964442E-06	1.48249429250375E-06	-4.85531530670354E-06	0.989579378337726	-0.146483397388537
6.3	0.0902428805707088	0.987205991992948	-4.36616687743075E-06	4.25450729842628E-06	-6.17029565470984E-07	-1.72801757969675E-06	0.988930988404041	-0.148809142749262
6.4	0.213325853233756	0.968025908266679	-4.27185190592416E-06	1.07385871859189E-06	-1.76035001132171E-06	8.85988718931278E-06	0.988272011551547	-0.150993505037836
6.5	0.3340920838468	0.934128348161392	2.45541167546356E-06	-1.33642379563457E-06	1.48707795693772E-06	-2.93729297368788E-06	0.988213811069514	-0.154177521638256
6.6	0.4487278512654	0.883671822565721	-4.74183511389726E-06	-2.25044637037155E-06	-1.87548720858296E-06	-6.64262444289284E-06	0.986999906246014	-0.157113949165879
6.7	0.555389971911042	0.820213652809294	4.16317350393937E-06	-6.64926365227668E-07	-4.67618829521539E-06	1.01567562613685E-06	0.986429404079516	-0.158965161510094
6.8	0.653509584383107	0.744130933154125	3.75550166481453E-06	-2.08240831049136E-06	6.21337644721648E-06	-9.2756971302259E-07	0.986087274414646	-0.160995341671684
6.9	0.741193333737568	0.656456939712886	2.04851162501961E-06	1.63948961793806E-06	8.7794251134132E-06	-2.76064435092785E-06	0.985827283188744	-0.162956192124398
7	0.817294305175782	0.558654151360466	2.17356176704822E-06	4.0958112865027E-06	-9.21392124048686E-08	5.38251971671169E-06	0.985712003945273	-0.164696510884486
7.1	0.880563314936714	0.452141061636183	-1.32760803504875E-07	1.717400632522E-06	8.25900820231739E-06	-4.64611254613934E-06	0.985180689530218	-0.166989659794199
7.2	0.929825663175843	0.338331857394276	4.84734547090787E-06	-1.39435185983749E-06	7.25736576186588E-06	3.78020756914108E-06	0.984231946415405	-0.168900006625034
7.3	0.96417104460971	0.219134136890221	4.86043354634403E-06	-1.10962299846811E-06	-7.34234658158387E-06	-7.37834961923141E-06	0.98295580256613	-0.17080073786123
7.4	0.983159516727458	0.0959517930789482	-1.83207581672874E-06	9.89229120085015E-06	1.42974819344203E-06	-4.06815265415738E-06	0.981317303447652	-0.173276453356894
7.5	0.986070274738595	-0.0274764475664303	8.38952718996869E-07	8.04509449952245E-07	1.67035301683709E-06	9.90609606777056E-07	0.979628318878255	-0.174442920788568
7.6	0.975269592372062	-0.150999975266123	1.45298534935405E-06	-2.61060338247006E-06	-5.41112613315739E-06	-3.62170918106623E-06	0.980006000451187	-0.1769929175793
7.7	0.948470893636338	-0.272834469186884	5.56444821753305E-06	2.40558285905612E-06	-6.81717322285103E-06	1.20307869002798E-05	0.979749128594112	-0.180277149556366
7.8	0.906784229459544	-0.390013669139187	-6.11034274142762E-07	-5.23549390483835E-06	3.73029402939335E-06	-4.72940560009305E-06	0.97965600270736	-0.183353261574478
7.9	0.850602430856531	-0.500451742615239	8.83719250199333E-06	1.53425995985788E-06	-9.51370810719376E-06	-8.63284831176889E-06	0.979425961755669	-0.186053452672836
8	0.783037402707958	-0.602889740948019	-6.65043849689538E-06	-1.64442828695603E-06	-1.20092099068206E-05	2.46804730709683E-06	0.980533325218481	-0.188218833280733
8.1	0.701557470183469	-0.698293235923445	5.08006156495871E-06	7.38648226559553E-07	2.89177153730924E-06	2.26817281346966E-06	0.980799750935195	-0.192397656420018
8.2	0.607993366439245	-0.781253326154468	3.57031588528569E-06	-2.57572608698299E-06	-3.67730851168468E-06	-1.16313300546426E-05	0.980109809207723	-0.195439928925966
8.3	0.50471516514827	-0.851469397375619	2.73152997145976E-06	-1.85911841411465E-06	1.63854138920581E-06	5.29894339089935E-06	0.979260885792847	-0.198351671711712
8.4	0.393248795046474	-0.907845811998373	-5.56011604816671E-06	-1.01958377077844E-06	1.05745087940236E-06	2.95481915264841E-06	0.978385839215455	-0.201084051958373
8.5	0.275549184260693	-0.949138182364206	-3.28932025353079E-06	1.62867081082374E-06	-4.79968534247113E-06	-5.00196854141832E-06	0.97781596816347	-0.204097334424889
8.6	0.153864896025864	-0.975972201446018	-8.13996429186449E-06	1.39073493908808E-06	-4.34557236092382E-06	-6.86001599200515E-06	0.976951645237219	-0.207065457638439
8.7	0.0293460788457501	-0.987586475598956	2.24576433459436E-07	-2.14782607317249E-07	6.11964645563478E-06	5.07195742710176E-07	0.976224221943014	-0.209580176430508
8.8	-0.0959289181706543	-0.983441390189407	1.02486633427721E-06	-1.81924721530222E-06	-2.39196781619292E-06	-1.28079466307639E-06	0.975659295135446	-0.211777290004593
8.9	-0.219859666014008	-0.964066499955903	-3.02273377062175E-07	3.03853603035542E-06	-1.23506038174578E-06	-1.64381332784548E-06	0.975443169607522	-0.213769772213896
9	-0.33975009590155	-0.927265537407731	2.98251084757573E-06	1.58951414693703E-06	-1.57728384815258E-06	2.11843364013465E-06	0.975145127850731	-0.215806600780874
9.1	-0.452335428073649	-0.877043867853829	-9.32494294360185E-06	2.26978063125461E-06	-1.56600193219529E-06	2.41321373907355E-06	0.975062710802178	-0.217732021859064
9.2	-0.558612579302357	-0.813233678417894	7.51593514077349E-06	-2.35604457530655E-07	-9.11979694507618E-06	1.97341115162909E-06	0.974840475459407	-0.220373900874412
9.3	-0.655617834969543	-0.736793543363709	7.32567648753312E-08	-7.17230835827432E-06	1.58791799654767E-06	-1.30266250978645E-06	0.974536688454006	-0.223245975721984
9.4	-0.742448626163999	-0.648685317086327	6.027128656205E-07	2.48444502115295E-06	1.61396648683034E-06	-3.60201041882279E-06	0.973502481762554	-0.226700575033071
9.5	-0.816000855717072	-0.550459535216387	-2.86295889069346E-06	6.64417830560399E-06	4.72000568631987E-06	-1.37276826975327E-06	0.972173645513724	-0.229063047879044
9.6	-0.878602645482004	-0.444842534994584	-5.02494064306635E-06	-5.19950317550321E-06	4.76044336444473E-06	2.87803206371156E-06	0.971805298103769	-0.232174763314521
9.7	-0.927998947696388	-0.330521333239158	-2.0040656689047E-06	-5.07081169706838E-06	2.09619448333648E-06	9.1232643741057E-09	0.970940820143361	-0.235054533049183
9.8	-0.962719253335077	-0.210165496316938	5.89942338187853E-07	-4.28357835433721E-06	-2.94135421745361E-06	-2.51459258203144E-06	0.970117600442107	-0.237235870799493
9.9	-0.98184234948102	-0.0859165375082278	-6.10850333237705E-06	4.20850787406657E-06	-3.08161408408785E-06	1.66500169257366E-06	0.9689555046895	-0.238519334930852
10	-0.984821785529417	0.039581172412417	3.57313408238319E-06	-4.14852916830052E-08	8.23091487129661E-06	1.1107127439158E-05	0.969734262246361	-0.23903424780193
10.1	-0.971338979911743	0.163785227906055	-2.86225496832562E-06	-2.52186654443649E-06	-2.01299575328558E-06	-2.49774434134893E-06	0.969497623790529	-0.24197252279798
10.2	-0.942768810152897	0.285248276560075	2.35611941342175E-06	-1.02428647162029E-06	-2.77034326986343E-06	-1.06359902203395E-06	0.968437826514778	-0.243666599290429
10.3	-0.89934636908175	0.402140009993831	7.75281207498041E-06	-5.95922587176312E-06	3.86966466007584E-06	8.2264102667805E-06	0.967306841550917	-0.245427174295519
10.4	-0.842498016285262	0.512941227260009	1.7057505251926E-06	2.4891992427796E-07	6.27419179713036E-06	-1.19333211889854E-06	0.966011251221512	-0.24719229493966
10.5	-0.770864082302796	0.61730047939421	8.34147956835087E-06	-4.1533196904332E-06	-4.91178899349449E-07	1.97278155505556E-06	0.965156542876115	-0.249522901325316
10.6	-0.685642923438877	0.708735871977488	8.92252937806685E-06	-1.28067667311798E-06	-1.45512761032158E-06	1.36257050673073E-05	0.963975154300774	-0.251535096401451
10.7	-0.590539684206257	0.788178930520777	8.00159154577361E-06	-1.90684402943169E-06	-3.05317740729381E-06	-5.26981826525804E-06	0.963700767598703	-0.253611048319353
10.8	-0.486128482238615	0.855354308631458	2.4501593758581E-06	5.23774478427893E-06	-3.62212155841482E-06	-2.02578858451775E-07	0.963570671749291	-0.25580034448165
10.9	-0.373865455678825	0.90979524531408	-5.5504851034661E-06	4.88524138353582E-07	1.59764960214714E-06	4.02163407319138E-06	0.963175028313664	-0.257913614691851
11	-0.254534822196004	0.948821276848134	-1.01980697192055E-09	-5.21333898526931E-06	-8.36465186330394E-06	2.23475171506669E-06	0.962731797444159	-0.259299830755858
11.1	-0.133309565971054	0.971832970020474	6.30377953450467E-06	4.07781673305298E-06	-1.89196336975769E-06	1.07450323868032E-05	0.962562067776529	-0.261082527125359
11.2	-0.010789168628275	0.980452031103195	1.5774700145636E-06	1.35132013107214E-06	5.13803689408611E-06	8.88326533654023E-06	0.961869886482136	-0.26317439243735
11.3	0.111845601519988	0.973636908722484	-4.63323538596877E-07	-1.73366009847207E-06	-7.02175696166938E-07	-4.38661581402658E-06	0.961149947209756	-0.265483680185999
11.4	0.232645414248905	0.952272362110647	2.40193704052654E-07	1.18332315690296E-05	2.42425310814844E-06	4.91468876866471E-06	0.95948356783037	-0.268672750135122
11.5	0.350710771657174	0.916241777492371	6.17412019177873E-06	-3.30291854502538E-07	3.13647383356049E-07	-1.87620419631841E-06	0.957681052717759	-0.270316705780243
11.6	0.462112938821477	0.865321742186198	-5.98402503759118E-06	3.06527720925709E-06	-4.85321496067426E-06	1.91151807029102E-06	0.95719777116231	-0.27366986529068
11.7	0.565938487575505	0.801853959995651	3.31611113920729E-06	-1.79101059178562E-06	-1.70089063062039E-06	2.23044420030581E-06	0.955806280129063	-0.277557392064592
11.8	0.661393775662452	0.725796636843468	-8.17864525937781E-07	9.76228486855158E-06	-2.70718772279472E-06	1.05043742052141E-05	0.953989011791639	-0.280961170635024
11.9	0.746351897918184	0.638391518176395	-7.26805807437025E-06	-1.03811300155751E-06	-3.90373636903725E-06	1.12045278325892E-05	0.952433183291873	-0.282026895771794
12	0.822227614264924	0.541416603293728	-6.45875083494428E-07	1.37768388369188E-06	-3.12596600687059E-06	-1.92706941366823E-06	0.953436652165129	-0.282341104814428
12.1	0.88507098755188	0.432159913556982	-3.87746378042265E-06	4.97583278485898E-06	-1.34526269822313E-06	8.40043638583198E-06	0.953569693294677	-0.284912337034239
12.2	0.93153682450668	0.316659446031064	-5.71023797519599E-07	-3.79267383104171E-06	-3.10797402518505E-06	-7.3371266119021E-07	0.953157889616182	-0.28718692290291
12.3	0.963214703886481	0.197879904493155	3.58639457587883E-06	3.43427859650911E-06	-3.44190408966089E-06	6.2528541160711E-06	0.952704492616584	-0.289640280800924
