# GHZ S RI R 50
0.2	-0.966211691503127	0.251450330075574	8.82448252521203E-06	5.32368072633352E-06	1.13747673442515E-06	-2.89025979795261E-06	0.999969454138169	-0.0067338215170836
0.3	-0.926834840122672	0.371288726871912	-7.66486596143872E-06	-8.20644802438855E-07	-1.51502362793115E-08	3.66079426558838E-06	0.999953736219522	-0.0097300422845095
0.4	-0.872203462751136	0.485098334613868	-2.20007691472867E-06	6.34185455136624E-06	2.92016433999698E-06	5.73919105750894E-06	0.999949266808716	-0.0124880714302164
0.5	-0.803891160597607	0.591293626628323	-2.6501197190065E-06	5.49291233891913E-07	1.05250770002854E-05	4.88653778020171E-06	0.999647110479761	-0.0157783057193687
0.6	-0.722576324498744	0.687688568813222	-1.72577897416105E-06	-1.8238888116018E-08	4.16422070341385E-06	-1.03392176721375E-05	0.999489396052654	-0.0185328823387038
0.7	-0.63009230618727	0.773172092819698	-2.04767469620338E-06	9.88516897990374E-07	3.7839918943295E-06	1.11637808410047E-05	0.999185815130591	-0.0213008104045111
0.8	-0.527489417195106	0.84644409121729	-5.60776948565172E-06	3.78289482963432E-06	-3.1688633713763E-06	-2.14007031946001E-06	0.999087508302601	-0.0233504907766288
0.9	-0.416688995945839	0.9060000074256	-6.69471746807057E-07	5.25248762256937E-06	3.26784384197748E-06	-2.94563251744956E-07	0.999242238812716	-0.0257049345700704
1	-0.298798808162044	0.951160271672254	1.56941348119432E-05	-3.68991665940321E-06	-9.60383812217489E-06	5.2791207004096E-07	0.999201861919213	-0.027627640455638
1.1	-0.177162748876148	0.980812600958071	1.34208029142224E-06	-2.9839617729313E-06	9.40414447744538E-06	1.26010865067869E-05	0.998709742880616	-0.0299902111149635
1.2	-0.0519330829307646	0.994919052408791	-7.91148930479231E-06	-3.25680528971595E-06	-3.10009413603416E-06	-4.4784564385272E-06	0.997658276553386	-0.0311458350365409
1.3	0.0740082478809571	0.993089904840976	1.79820608973109E-07	3.3336525233018E-06	1.92899430109839E-06	3.40294269914108E-07	0.997328565566587	-0.0319645102387939
1.4	0.198343798587565	0.975516882081641	2.36021579996823E-08	3.76625102737625E-06	-2.52849166504668E-06	-5.61236106043887E-06	0.99700321763166	-0.0337729247766803
1.5	0.319669839006637	0.942919705889744	3.18595941903304E-06	-2.67466685979792E-07	2.70205236630043E-06	2.09320322999696E-06	0.99763591080923	-0.0372155248970898
1.6	0.435763546773737	0.895404497501564	1.78685342301914E-06	-1.93931544307501E-06	-8.94170465011993E-07	-3.06263506559473E-06	0.997225634370348	-0.0404437961817898
1.7	0.544755781849254	0.833358322091428	-8.594436143255E-08	-3.52472081807446E-06	2.00578286756589E-06	4.9260806965155E-06	0.997894947638967	-0.0428651517832714
1.8	0.644889123714156	0.758562350157178	-2.05781254437712E-06	-1.81435246498169E-06	-4.64046137776708E-06	1.83212175060248E-05	0.998042447049257	-0.0456045952777519
1.9	0.734818143410779	0.671996162344615	-4.39185319771984E-06	-1.46832089640921E-06	-4.92724931440048E-06	-6.00680272437393E-06	0.998202641898725	-0.0479570139141336
2	0.813464536788646	0.574502752059616	-9.4924910951303E-08	-6.74630245020279E-07	-1.66967424950784E-06	-1.41869642542136E-06	0.99785433858399	-0.0512108991347276
2.1	0.879180629032373	0.466774511366392	-1.136970267158E-06	9.45257454218527E-06	1.99511842955674E-06	-3.81383973776832E-07	0.997165653469343	-0.0535795760383044
2.2	0.930493891653331	0.352647804520267	-2.57144959955262E-08	-5.9308535596744E-06	-7.35629893163732E-07	2.73832985210528E-06	0.99704424534095	-0.0558111243888087
2.3	0.967097969613076	0.232906344719286	-1.31415867276233E-06	2.76689592102957E-06	-2.64574134969568E-07	1.19750024319246E-05	0.996798810259277	-0.0575946769326946
2.4	0.988442520925006	0.108701421727852	-5.87522765705651E-06	-3.70523498107334E-06	-1.75875018763968E-05	1.45360397545533E-05	0.996842991390834	-0.0607868068118655
2.5	0.994439452389749	-0.0163588622162297	1.81839821046254E-06	-2.96442714071127E-06	-1.78869027755247E-06	7.55081322830123E-06	0.996387247529997	-0.0633702105881213
2.6	0.98441924541267	-0.140370210720237	2.86449899731156E-06	9.17862072173119E-07	-1.74950741097646E-06	4.5064204510637E-06	0.995958522052366	-0.0663672232104942
2.7	0.95866098571111	-0.262506930789005	3.83526776656366E-06	1.04468463627217E-05	2.3277687271928E-06	3.86798617450317E-06	0.995264793759642	-0.0692694680069776
2.8	0.917960702407368	-0.380426487529682	-8.1610537723439E-07	-2.29270776671337E-06	2.17553040413486E-07	-1.8887523261008E-06	0.995232256371628	-0.0710437830744113
2.9	0.863277213088985	-0.491856941016038	3.76012482478729E-06	-8.32180027947628E-06	-1.28686048705468E-06	-1.42262538730505E-05	0.994975849009491	-0.0728693675966301
3	0.795169637577701	-0.596125259214313	-7.99860913209065E-09	6.65029218985088E-06	-1.47689206345373E-05	5.31386197424459E-06	0.994922446195019	-0.0753142178913761
3.1	0.715457346057266	-0.690208283408936	-4.98009797689526E-06	7.82798956654097E-06	5.8095730064739E-06	-8.89709621634427E-08	0.994579842875818	-0.0772466721377046
3.2	0.622724790818786	-0.774757446005692	9.61545373008415E-07	2.12554756868067E-06	-4.56143655968261E-06	4.80720499364234E-07	0.994334395513142	-0.0789140737775499
3.3	0.520391219145216	-0.846816641013982	7.18863263446324E-07	-1.46008665368926E-06	-4.58159615413897E-06	7.33540441558143E-07	0.994132189246736	-0.0820944969451401
3.4	0.409582126736171	-0.905164174401973	6.47058729349147E-06	2.33996928821762E-07	-8.13790902075177E-06	-7.18026129047241E-06	0.994226273928981	-0.0840517226553527
3.5	0.292539071888056	-0.949758632250025	-7.70102684906491E-06	1.96405395428251E-06	-5.90627885390879E-06	-7.98384016436357E-06	0.994166266057863	-0.0870969762852788
3.6	0.169385851593674	-0.979067548455164	-8.59869332086205E-07	-4.38225399311417E-06	-7.82266012994964E-06	-6.32896553565967E-06	0.993588554505119	-0.0896200473737415
3.7	0.0443014624928222	-0.992723912199748	-6.72124192745718E-06	-6.76621039435691E-06	5.24686466457068E-07	-4.76505239107003E-06	0.993466649995379	-0.0921333560143592
3.8	-0.0816615298965737	-0.99008924334406	-3.64330029612223E-06	1.08571909775734E-06	-3.2987677106901E-06	-2.46347622538369E-06	0.993298227552478	-0.0941427235870008
3.9	-0.20545363558672	-0.97155628294412	-4.76885652607559E-07	3.50883644231171E-06	2.0528810624018E-06	-1.22115266761365E-06	0.993703666138209	-0.0975823995869968
4	-0.325956509589052	-0.937854095354558	1.16885801774993E-05	8.10498641833804E-06	7.26117358010031E-06	-4.04911635253538E-06	0.993086945445512	-0.0999792443114802
4.1	-0.440826892892314	-0.889566154244264	5.21747031953902E-06	1.31792567594485E-06	-3.45037442153904E-06	6.65343654656355E-06	0.991973067877487	-0.101672081383303
4.2	-0.548754617369734	-0.827628015446875	-7.09654054075809E-06	-1.19495862492875E-06	-8.26312513123683E-06	-3.43344965127334E-08	0.991215248426431	-0.103960037461929
4.3	-0.648247703483458	-0.752105452842633	7.0017340969337E-07	-2.36759400912919E-06	5.21152666339222E-06	8.7594102814722E-07	0.991033910934165	-0.105782906037181
4.4	-0.737526088252393	-0.664157798016961	4.46914392135422E-06	-1.77726401113645E-06	-8.66695166013963E-07	1.34679413708576E-06	0.990506129211569	-0.10815546958865
4.5	-0.814693534255766	-0.565418499913801	6.77974488494037E-06	1.85913823440675E-06	-8.06807816154861E-07	-3.25317992616107E-06	0.990042378800653	-0.110205095067014
4.6	-0.879062663052238	-0.458337772500939	2.45464049900196E-06	2.94615401362184E-06	-6.57353746682692E-06	9.7389194173444E-06	0.98958994901529	-0.112587638479228
4.7	-0.929573644194649	-0.343167543951977	-1.4029216352129E-05	5.9154443029533E-06	-3.45747866380853E-06	-3.28228539171424E-08	0.9895270128538	-0.114457401287505
4.8	-0.965037214714052	-0.222984586474715	-3.15810860402395E-06	-5.13418072887219E-06	-5.51486899290921E-06	2.36323709114653E-06	0.989187275212695	-0.116785088915068
4.9	-0.984392059368474	-0.0998521512959965	-1.01923663104709E-06	-8.53749136891151E-06	-4.214001159309E-06	7.38612944479641E-07	0.988964889044097	-0.118465334205858
5	-0.988818417955852	0.0231756016549375	7.54047337721914E-06	-1.56339750951567E-06	-1.7480189090004E-06	-2.71884876783836E-06	0.988959783034575	-0.120173751440557
5.1	-0.978625777633689	0.148016457394989	-2.59451593356264E-06	-6.38893766483309E-06	-1.00649139358917E-06	-1.95168368498474E-06	0.988955417149296	-0.121574168836772
5.2	-0.952734325119272	0.270003330810126	3.99410624116017E-06	-4.33767189234477E-07	-5.43769378949937E-06	6.29895064604081E-06	0.988858192921704	-0.123857852127899
5.3	-0.911856320920796	0.387904134285529	5.13293499997005E-06	6.00542935412468E-06	-9.58106336979759E-07	-3.58410702674306E-06	0.988608110923699	-0.126322105824051
5.4	-0.856222645020349	0.499977006778587	3.06130963475673E-06	-2.01462482362164E-06	-1.13089932222789E-05	2.19604870084805E-06	0.988486313552231	-0.129145700949277
5.5	-0.785983093250009	0.603683702596771	-4.32179614525556E-07	-2.19314979464142E-06	-5.78377662690859E-06	6.12259618092209E-06	0.988180587006622	-0.132220157531924
5.6	-0.703420243942722	0.697051555039659	2.37862438087262E-06	7.29734708744209E-06	-5.37164040232871E-07	2.92672434231941E-06	0.987483102936596	-0.134541619774713
5.7	-0.610344822215265	0.77999180560648	-2.56949357821482E-06	2.35865156408713E-06	7.90408465853051E-06	2.77712938124053E-06	0.98731295251874	-0.136528806029844
5.8	-0.507304953684031	0.850218277652001	-4.64620745885332E-06	5.09926144032799E-06	-3.66906789938849E-07	3.41976748155524E-06	0.987571746222571	-0.138476948311176
5.9	-0.396405395761666	0.907515431416182	6.3555909900627E-06	1.49978735697387E-06	-2.71117076031164E-06	2.54571791120423E-06	0.988066244561852	-0.141001953656174
6	-0.278563696549578	0.949720019153449	3.52487880050582E-06	3.29559715999994E-06	-3.29253944425016E-07	-1.43327973303188E-06	0.987443123266171	-0.14398885311433
6.1	-0.157519054216659	0.975936513283447	9.16598065431488E-06	1.51423872739163E-06	-1.28998457223079E-07	-1.80618691566656E-06	0.986502992003155	-0.145006421551006
6.2	-0.0340228351380981	0.98756163044718	2.43484122354531E-06	-1.72873289970132E-06	1.47526364225571E-06	-4.8386699513933E-06	0.986153034961778	-0.146112729088543
6.3	0.0901950077892421	0.983972772888103	-4.35115743614902E-06	4.23987043585877E-06	-6.1490533730547E-07	-1.72207581285523E-06	0.985811471229045	-0.147951474321361
6.4	0.213301668675944	0.964617935853086	-4.25626718084332E-06	1.07010262631913E-06	-1.75362834706306E-06	8.82770610530956E-06	0.985422062049299	-0.150210532499763
6.5	0.3320946296096	0.929426707065211	2.44527490357908E-06	-1.32680171273716E-06	1.48368317492054E-06	-2.92118708439476E-06	0.984484807902156	-0.152677538934972
6.6	0.445212532575293	0.881167379916228	-4.71937281410983E-06	-2.25636201037968E-06	-1.85019045972267E-06	-6.62550344741517E-06	0.984638783903948	-0.154485295741733
6.7	0.551998998438987	0.818817531979826	4.15535736025174E-06	-6.51452935055231E-07	-4.66817871922217E-06	9.9991428830755E-07	0.984820880373961	-0.156786119776663
6.8	0.650166793589886	0.743638187156822	3.75509418199139E-06	-2.06849134438796E-06	6.20568215145828E-06	-9.08710274689259E-07	0.984678217318187	-0.159018780102217
6.9	0.738296557620674	0.656798414693283	2.04236636282624E-06	1.64335508890797E-06	8.77866853942259E-06	-2.73519080242801E-06	0.984794994804376	-0.161186496169675
7	0.814750398636537	0.559030466550616	2.16571896305282E-06	4.09672538663463E-06	-1.00621490659971E-07	5.37904318315996E-06	0.98415102695596	-0.163576344036547
7.1	0.877817479063199	0.453237778661589	-1.35465202430594E-07	1.71481713745638E-06	8.25546720186356E-06	-4.62584414314693E-06	0.983233883216001	-0.164854352273298
7.2	0.927464581982594	0.340258410724714	4.8435384293699E-06	-1.38167890435254E-06	7.23872175683316E-06	3.79084938605366E-06	0.982770488543516	-0.166108086658779
7.3	0.962377111727389	0.221940410808253	4.85691625326083E-06	-1.0941503041726E-06	-7.31105856855514E-06	-7.38924086316363E-06	0.982075885034382	-0.167339334139574
7.4	0.982840839635936	0.0999835719298035	-1.87350217777716E-06	9.87683297122448E-06	1.44626990746804E-06	-4.05886798309255E-06	0.981974675100084	-0.168912442247538
7.5	0.988495346704579	-0.0249380189904196	8.37534205492716E-07	8.0979082616082E-07	1.67004929815373E-06	9.99741127483782E-07	0.982510550546606	-0.172062330159769
7.6	0.976946170533821	-0.149761478877844	1.46172687489228E-06	-2.6125831930218E-06	-5.41386680147871E-06	-3.64104940132117E-06	0.98165855320158	-0.175571800748871
7.7	0.950460360988145	-0.271790937039519	5.57012156136319E-06	2.42163779994049E-06	-6.85497199061493E-06	1.20397246319985E-05	0.981561940664008	-0.1787651825554
7.8	0.909128993861728	-0.389850503584627	-6.04826204899853E-07	-5.24855304862645E-06	3.74585524945087E-06	-4.7349629793682E-06	0.981871017156415	-0.182392490604686
7.9	0.852696326320081	-0.501992934722543	8.8620287651207E-06	1.53754702418688E-06	-9.54123158630651E-06	-8.6558705205493E-06	0.981986156946737	-0.186652464109422
8	0.781196127781662	-0.605498943531725	-6.65909689470049E-06	-1.62330881604656E-06	-1.20069227036693E-05	2.50883203929743E-06	0.980202898732755	-0.191254068670125
8.1	0.699338764255152	-0.696859257980677	5.06760147148495E-06	7.29895412856389E-07	2.88715108735375E-06	2.25829893792713E-06	0.978399430232651	-0.192767360689179
8.2	0.607506023322737	-0.77870727283253	3.56083293878282E-06	-2.56707764142057E-06	-3.66278608745583E-06	-1.15988673625926E-05	0.978142230990953	-0.194514804519766
8.3	0.505560778018587	-0.848802953550359	2.72623910672824E-06	-1.85042197749028E-06	1.62719053390786E-06	5.28617065700748E-06	0.977687991900739	-0.196909708770059
8.4	0.395333476345168	-0.905579695919847	-5.54230074006825E-06	-1.02892133410662E-06	1.0480074774107E-06	2.94885908647139E-06	0.977015734220389	-0.199457272391044
8.5	0.277878665234527	-0.948013696117568	-3.28900139182335E-06	1.61483491512499E-06	-4.77457910208881E-06	-5.00924153612413E-06	0.976174282498074	-0.201862707486718
8.6	0.156234314717671	-0.97461075804838	-8.13592237288589E-06	1.36699852778489E-06	-4.3225009549131E-06	-6.86533965834474E-06	0.976110762050644	-0.204092945434628
8.7	0.0324239227698759	-0.986378343721002	2.24890228488572E-07	-2.13984890436459E-07	6.11195945800329E-06	5.22290235638683E-07	0.976018081850673	-0.20660245861884
8.8	-0.0921436663031264	-0.982519822651631	1.02825409877581E-06	-1.81439809868332E-06	-2.38576248230335E-06	-1.28533079136682E-06	0.975894277097562	-0.208833920850206
8.9	-0.214565411762625	-0.963529550237338	-3.10686995445011E-07	3.03199389022853E-06	-1.22790845695937E-06	-1.64440542418157E-06	0.976125714624166	-0.210872163287524
9	-0.333261925312929	-0.930179971198376	2.97105209601001E-06	1.60181026014463E-06	-1.58544337498749E-06	2.10814050666874E-06	0.976351007620461	-0.213201459247522
9.1	-0.448080622449004	-0.881663322218644	-9.33784501804693E-06	2.22772245190893E-06	-1.57746716102789E-06	2.40669881648578E-06	0.976420274682093	-0.215529168083764
9.2	-0.555772150359633	-0.818657888877145	7.5236570510867E-06	-2.0259988551235E-07	-9.13662410788878E-06	1.93486358015869E-06	0.976121539302656	-0.218347835936566
9.3	-0.654489771884277	-0.742557338999212	1.04553667719379E-07	-7.1835818777071E-06	1.59614716995355E-06	-1.29786510281714E-06	0.975744987935603	-0.220897077210161
9.4	-0.742724692359605	-0.654671066527833	5.93138886943883E-07	2.49360587295243E-06	1.63431396667825E-06	-3.60413633223365E-06	0.975437710071801	-0.223663862032203
9.5	-0.819606684301028	-0.555060685673448	-2.89335448091485E-06	6.66555610564717E-06	4.74435299471267E-06	-1.36608343184965E-06	0.975141213901796	-0.22713340002446
9.6	-0.880930552696032	-0.446390145814543	-5.03297492678578E-06	-5.22060257909981E-06	4.77057111986672E-06	2.8921429075925E-06	0.974178121962909	-0.230352607466374
9.7	-0.929236209907691	-0.332197835982384	-2.00079698044717E-06	-5.08571272062772E-06	2.10104604032844E-06	1.24187112473986E-08	0.973737219091949	-0.232938241380895
9.8	-0.963883228155111	-0.212080473272091	5.9887356744458E-07	-4.29332937618642E-06	-2.94438244064974E-06	-2.52603238202948E-06	0.973793990383568	-0.235217327275863
9.9	-0.983196535426404	-0.0879411282247507	-6.13286585979612E-06	4.21355954085065E-06	-3.09330778650736E-06	1.6661341959801E-06	0.973885054667259	-0.237942779235563
10	-0.986881322854903	0.0376525518382781	3.58136355164193E-06	-4.07863539674737E-08	8.24738133792172E-06	1.11345100588835E-05	0.972144569419276	-0.240735275229756
10.1	-0.973589186227568	0.162817038127808	-2.86519961785135E-06	-2.52954370432077E-06	-2.01434277175325E-06	-2.50452643146106E-06	0.971212848492818	-0.241137633643784
10.2	-0.944723187344386	0.28495806108691	2.36258038662073E-06	-1.02431656355741E-06	-2.77569054292881E-06	-1.06880489533343E-06	0.971433998120229	-0.242543358618471
10.3	-0.900666325360474	0.402503487327211	7.77523272994931E-06	-5.96928310661863E-06	3.8743380143991E-06	8.24877285603002E-06	0.971121289155892	-0.24486325895952
10.4	-0.84205972264609	0.513403587758099	1.70896585118335E-06	2.49200008771746E-07	6.28578964360912E-06	-1.1962437895038E-06	0.970072928357548	-0.247846087589459
10.5	-0.770021338874194	0.614385835144956	8.35093071227405E-06	-4.14535983834171E-06	-4.93838223442238E-07	1.97322395926845E-06	0.968164299506688	-0.250488946877504
10.6	-0.688099376452843	0.705693741052558	8.94396359638706E-06	-1.26510481318618E-06	-1.48609880291977E-06	1.36514526081487E-05	0.967169867537877	-0.253049351927866
10.7	-0.5937772913158	0.78692778108281	8.0257558986468E-06	-1.90265683015449E-06	-3.05534380858901E-06	-5.28784680357917E-06	0.965928857028586	-0.25540504280071
10.8	-0.488995237034194	0.855512711335963	2.45301245007568E-06	5.25215112623463E-06	-3.63092941626434E-06	-2.05283246916962E-07	0.964988126660167	-0.256882797085864
10.9	-0.376245726035322	0.910049116712878	-5.56256825978667E-06	4.84670650587289E-07	1.59746876277359E-06	4.03148225961887E-06	0.964662353590039	-0.25833917207109
11	-0.258030333013065	0.950407192500552	4.30473001502502E-09	-5.23029278641284E-06	-8.39413591486242E-06	2.233470303544E-06	0.964266117684861	-0.259515982162693
11.1	-0.134546495067967	0.974807441577205	6.32338426036813E-06	4.0884951527153E-06	-1.8951654725883E-06	1.07773158481761E-05	0.964437821534458	-0.260631376815374
11.2	-0.0108600903119693	0.982761292743722	1.58144523005133E-06	1.35393770889585E-06	5.15227555607622E-06	8.90197955264515E-06	0.964297047599666	-0.262468791985513
11.3	0.112151671730278	0.975481545796942	-4.6403911081081E-07	-1.73682533520297E-06	-7.03136712290614E-07	-4.39459170358429E-06	0.964228139321163	-0.26444860595292
11.4	0.233272459398031	0.954007217306551	2.28638920568627E-07	1.18537256145744E-05	2.42343215973527E-06	4.92555109211231E-06	0.964094791819267	-0.267319898176503
11.5	0.351771133651619	0.917808179769124	6.19458120242599E-06	-3.25974227455686E-07	3.1631212411397E-07	-1.88206003946892E-06	0.963196820956546	-0.271541903232375
11.6	0.463547392134637	0.866834747097525	-5.99943479206066E-06	3.07514356157009E-06	-4.86586274637205E-06	1.91796366223121E-06	0.961145755776344	-0.274944199136933
11.7	0.56798280074262	0.803296986129865	3.32356521875645E-06	-1.79517009151089E-06	-1.70467304191812E-06	2.23554849966958E-06	0.960261578405963	-0.278421200524124
11.8	0.664404306477207	0.727181534791001	-8.24001903326467E-07	9.78800054722016E-06	-2.71866671759178E-06	1.05313044113524E-05	0.959636695140342	-0.282393576027161
11.9	0.75164106009767	0.638784171801991	-7.29998371241022E-06	-1.04051046660685E-06	-3.91745416395004E-06	1.12544164340233E-05	0.95921103661502	-0.286243554514613
12	0.826774122870637	0.537092463438169	-6.43326504938062E-07	1.38413178753622E-06	-3.14212661723852E-06	-1.92272955940506E-06	0.95587610614964	-0.289847872026017
12.1	0.886984578234753	0.428703332874333	-3.87527977502222E-06	4.99587017200826E-06	-1.32965163267728E-06	8.42268985016001E-06	0.954145874317975	-0.289756828220001
12.2	0.933757616503348	0.313288600122282	-5.84242950145871E-07	-3.80166458485839E-06	-3.11901772539054E-06	-7.26282036002748E-07	0.953801086706301	-0.291540232376526
12.3	0.965176371723158	0.193421758102955	3.60870656571407E-06	3.42570213551157E-06	-3.42173028155607E-06	6.28066770274797E-06	0.952926670612268	-0.294032845383824
