# GHZ S RI R 50
0.2	-0.966243049452427	0.251442972690827	8.8244737261097E-06	5.32412695900468E-06	1.13760977307566E-06	-2.89027965683112E-06	1.00001355469227	-0.00668855137174668
0.3	-0.926891113431337	0.371248602129852	-7.66502376760398E-06	-8.21351296518438E-07	-1.54763169177019E-08	3.66090315056269E-06	1.0000288449388	-0.00964713529765928
0.4	-0.872380879746753	0.485041787477608	-2.20158689598925E-06	6.34223522642405E-06	2.91942306427118E-06	5.74048800051844E-06	1.00015729528145	-0.012308508449801
0.5	-0.804151149431147	0.59151105102861	-2.65124118687256E-06	5.49463384433372E-07	1.05293767722646E-05	4.88881315832365E-06	1.00021457529853	-0.0158585859720711
0.6	-0.722572947153799	0.687897594578629	-1.72612961210866E-06	-1.78774991972645E-08	4.16287041265647E-06	-1.03421761028212E-05	0.999774205900838	-0.0189389642054823
0.7	-0.630108684804986	0.773275511858137	-2.04772999530469E-06	9.88926719184958E-07	3.78606526292306E-06	1.11643259211525E-05	0.999315617971949	-0.0216797555921426
0.8	-0.527562966614818	0.846531808524321	-5.60762690247634E-06	3.78386568283528E-06	-3.16934219860113E-06	-2.13979029972056E-06	0.999102930682673	-0.0237287801079342
0.9	-0.416827694101102	0.906093646402276	-6.69025604686503E-07	5.25222962799624E-06	3.26762827805937E-06	-2.94798875927894E-07	0.999033016241506	-0.0259417633063647
1	-0.299076212494839	0.951306711138483	1.56946349538918E-05	-3.68429031840286E-06	-9.60354414808792E-06	5.24555039028955E-07	0.999215005450449	-0.0272990292267024
1.1	-0.177567052741976	0.981179798504795	1.34399162347711E-06	-2.98465800700811E-06	9.4026094087116E-06	1.26107407638615E-05	0.999223042227368	-0.0298362057262939
1.2	-0.0523451977322538	0.995700331928426	-7.91663693367878E-06	-3.26311380091259E-06	-3.1006611961207E-06	-4.48360889520446E-06	0.998514145950719	-0.0310021463020995
1.3	0.0740395247767727	0.994295481228262	1.79445827266013E-07	3.33834576702874E-06	1.93162655717761E-06	3.41132200553396E-07	0.998771021536711	-0.0322203637230757
1.4	0.198990792910126	0.976513732330685	2.54367092448149E-08	3.77167749144845E-06	-2.53482534003211E-06	-5.61925548040533E-06	0.998278969489531	-0.0347710552499486
1.5	0.32054981280325	0.943484080705338	3.18923958666285E-06	-2.70153821303917E-07	2.7065782921744E-06	2.09345929460134E-06	0.998548622617703	-0.0383257329126168
1.6	0.436611994489008	0.89530451353107	1.78575710799474E-06	-1.94257472404891E-06	-8.9823271482082E-07	-3.06353386240047E-06	0.997526472263283	-0.0418986197351158
1.7	0.54522177760487	0.832914563332034	-9.00382199491508E-08	-3.52495978122907E-06	2.01168550063856E-06	4.92422893520842E-06	0.997598219049673	-0.0441096782971352
1.8	0.644931303390923	0.757906204245389	-2.05907942980992E-06	-1.81131514936109E-06	-4.61786123890546E-06	1.83194198741267E-05	0.997255044601246	-0.0465722743224
1.9	0.734043478990685	0.671412308721708	-4.38780370409628E-06	-1.46333279275294E-06	-4.92595093230999E-06	-5.99610207120442E-06	0.996826238832909	-0.0481252714614599
2	0.812694788107524	0.575386004245575	-9.43366723671106E-08	-6.74240139973511E-07	-1.66742681552857E-06	-1.41901569473744E-06	0.997746891316862	-0.0499823547070088
2.1	0.879520601886207	0.467016261200455	-1.13579936144981E-06	9.45585590058731E-06	1.99570956751913E-06	-3.8183460860636E-07	0.997859458161464	-0.053815247450168
2.2	0.930367132323611	0.352358660925802	-2.93210555538055E-08	-5.92976710746246E-06	-7.33829752332026E-07	2.73828336945919E-06	0.997103108052717	-0.0564656558149593
2.3	0.966435439304822	0.232660896486944	-1.31190632608462E-06	2.76611839806877E-06	-2.57780298193159E-07	1.19686259339533E-05	0.996387577733519	-0.0582049572913936
2.4	0.987307708828661	0.10885597995023	-5.87288323993295E-06	-3.6993808605047E-06	-1.75668285703811E-05	1.45347259940468E-05	0.995982599648641	-0.0610579119223679
2.5	0.993238370992193	-0.0154836999952624	1.81385583967741E-06	-2.96094256370322E-06	-1.7814900730403E-06	7.54026166699598E-06	0.995590848033483	-0.0628930996553718
2.6	0.983507701090773	-0.138832146675436	2.85818758432502E-06	9.18165332524074E-07	-1.74938340010257E-06	4.49626640267888E-06	0.995542517562353	-0.0655427998927192
2.7	0.958644248261393	-0.260686467334828	3.81475411159355E-06	1.04403156235292E-05	2.31909673409957E-06	3.86695531990183E-06	0.995494188391841	-0.0683238585745929
2.8	0.918563636937423	-0.379159002122054	-8.12422459439709E-07	-2.29306463082269E-06	2.20258390807721E-07	-1.88773385657922E-06	0.995890353866933	-0.070572491260837
2.9	0.863821254881708	-0.491189356485767	3.76894366019431E-06	-8.31841027706933E-06	-1.27224239723825E-06	-1.42284273715421E-05	0.995537833981246	-0.0728556370285467
3	0.795522961194718	-0.595702247595693	-1.19734391789007E-08	6.65108716837053E-06	-1.47738720185365E-05	5.30567587705267E-06	0.995399255077809	-0.0754199271589399
3.1	0.715571539232065	-0.69013741652955	-4.98360664569063E-06	7.82855218012868E-06	5.8110750508003E-06	-8.73289718298712E-08	0.995063056361522	-0.0776870992946038
3.2	0.622375476537511	-0.774805822873003	9.62143369916003E-07	2.12592221095042E-06	-4.56250542759747E-06	4.81605004713328E-07	0.994648680805317	-0.0796729969227547
3.3	0.519459866613994	-0.846851765552625	7.18000211905213E-07	-1.46077095303464E-06	-4.58176603356262E-06	7.36676032814126E-07	0.994156937031327	-0.0831997424527167
3.4	0.407578822957454	-0.90454544151659	6.46830620320479E-06	2.24438334675853E-07	-8.14511139912152E-06	-7.16544793213454E-06	0.993512856489775	-0.085450941059786
3.5	0.291495050556692	-0.946820916286865	-7.6825173207423E-06	1.96600032234239E-06	-5.89979717481832E-06	-7.96150505516546E-06	0.992718260116592	-0.0874571066319791
3.6	0.169815675572743	-0.977469472044942	-8.56508531947867E-07	-4.37699063731233E-06	-7.80924186952813E-06	-6.32473046601974E-06	0.992886023196845	-0.0898430136994846
3.7	0.0441145789411179	-0.99145806201972	-6.71417836524568E-06	-6.76163157330433E-06	5.25125434900372E-07	-4.76084399535684E-06	0.992438288669144	-0.0926413425397076
3.8	-0.0820588859053442	-0.988332197683593	-3.63945514922524E-06	1.08436704526367E-06	-3.29510704661191E-06	-2.4610095679513E-06	0.99158294642213	-0.094369195867236
3.9	-0.205299383257639	-0.969120017685197	-4.78449182337361E-07	3.50348490730613E-06	2.0507117553689E-06	-1.21808062553031E-06	0.991246329906388	-0.0964128602419105
4	-0.324627622287856	-0.935950793689264	1.16754540690574E-05	8.12093518076851E-06	7.26616664303855E-06	-4.03812381421141E-06	0.992885882394929	-0.0965880318556809
4.1	-0.439737983147392	-0.888364896927805	5.21832854301728E-06	1.31954157706956E-06	-3.45283884356757E-06	6.6540848677597E-06	0.993393529743907	-0.100273413102338
4.2	-0.547728178889494	-0.826648290138401	-7.09589947669545E-06	-1.19595826495189E-06	-8.262584646293E-06	-3.55863736918174E-08	0.992299617132175	-0.103274977239028
4.3	-0.647248964525024	-0.751363580999402	7.00659896198369E-07	-2.36726729472715E-06	5.21095817338983E-06	8.77059123741417E-07	0.991997787202074	-0.105255277373131
4.4	-0.736591466030121	-0.663875725057264	4.47051136064779E-06	-1.775433662355E-06	-8.67420020127272E-07	1.3465630072797E-06	0.991574314310764	-0.107562926288153
4.5	-0.814471952988629	-0.565304236004696	6.78466855296071E-06	1.86088669530877E-06	-8.07228083375382E-07	-3.25563531573454E-06	0.991762674980552	-0.110174746498204
4.6	-0.8788761951212	-0.457987173236797	2.4560771593761E-06	2.94627912792911E-06	-6.57267887118087E-06	9.74325386905358E-06	0.990576012917394	-0.113251175756573
4.7	-0.929613090611291	-0.342956240503002	-1.40326553435059E-05	5.91761611707018E-06	-3.45839131165259E-06	-3.26804792139169E-08	0.990141183721973	-0.114949389286642
4.8	-0.965648259063106	-0.222779883404771	-3.15987917044959E-06	-5.13688679122989E-06	-5.51779112155156E-06	2.3645870843539E-06	0.98964432290774	-0.117243725486612
4.9	-0.986060026592105	-0.098680849683518	-1.02470542359341E-06	-8.54520941153127E-06	-4.21768700136911E-06	7.41539963444018E-07	0.98911818244295	-0.118931957740689
5	-0.988565226713038	0.0266548650518242	7.53682173301865E-06	-1.57556556699015E-06	-1.7522363325859E-06	-2.7155857428065E-06	0.988762540700346	-0.120377651270959
5.1	-0.977146857912111	0.149391505391911	-2.59520880916309E-06	-6.38140395996972E-06	-1.00649459762969E-06	-1.94927444731543E-06	0.988523037532151	-0.121536059964786
5.2	-0.951821436179444	0.271188660528993	3.99096953685624E-06	-4.34120161275806E-07	-5.43244361130178E-06	6.29505459629076E-06	0.988260135424577	-0.123345520644549
5.3	-0.910520776787338	0.389218645392749	5.12939312216168E-06	5.99980130760917E-06	-9.57745860987844E-07	-3.58100511274525E-06	0.98830022140857	-0.125398821026658
5.4	-0.854215624867964	0.50059511237381	3.05763230555663E-06	-2.01234789926961E-06	-1.12955796724612E-05	2.19382676115233E-06	0.988306228101789	-0.128384011942386
5.5	-0.784243578428752	0.602931079186589	-4.29298705266158E-07	-2.19019183303548E-06	-5.78100182949548E-06	6.10728772862846E-06	0.9879722333704	-0.130570266036803
5.6	-0.702757631309886	0.695945134093876	2.36715332922545E-06	7.29657117425982E-06	-5.40930709417719E-07	2.92434098136402E-06	0.988396724407851	-0.133424179404348
5.7	-0.610345824844445	0.778847742051405	-2.57132968166924E-06	2.35482417605549E-06	7.89805104555197E-06	2.78534886306672E-06	0.987765747780353	-0.136086817010946
5.8	-0.507902178663404	0.848898623300958	-4.64954631275101E-06	5.09044045196177E-06	-3.70848152549139E-07	3.41720271975764E-06	0.987133414090877	-0.137891154190756
5.9	-0.398321012081251	0.905703791544724	6.34355336287568E-06	1.51258206473696E-06	-2.71345898930292E-06	2.53597826838142E-06	0.986608857717771	-0.138583860402381
6	-0.283180344075587	0.950187873950822	3.51211718876866E-06	3.3168402862293E-06	-3.22410138198008E-07	-1.43647355971486E-06	0.989682840000874	-0.138684011953634
6.1	-0.160386606843083	0.979025936822333	9.19437212729853E-06	1.54573338969202E-06	-1.24317131169693E-07	-1.81299815791112E-06	0.990951125180682	-0.143080625926272
6.2	-0.0355327066055523	0.990982348065969	2.44646242513539E-06	-1.73100827427407E-06	1.48849103792039E-06	-4.85375155155037E-06	0.99018545768323	-0.145561723944223
6.3	0.089319792789774	0.987256287948473	-4.37179609830891E-06	4.25027380829019E-06	-6.15165561350973E-07	-1.72902742700835E-06	0.989442869666265	-0.14815607822789
6.4	0.212115364825186	0.968863382050931	-4.27623546544173E-06	1.06960948575733E-06	-1.77207378684879E-06	8.86428060573113E-06	0.988903908639844	-0.150238184435016
6.5	0.335004209429868	0.935391537045132	2.45753361983542E-06	-1.33938354989853E-06	1.48715642813065E-06	-2.94158116978509E-06	0.98924535002939	-0.154685411643899
6.6	0.449139726727713	0.882773752603456	-4.73974038261516E-06	-2.24469349238577E-06	-1.87937045571313E-06	-6.63557168765428E-06	0.986104544097175	-0.157680883206422
6.7	0.554788348059749	0.819333095523075	4.15703201468994E-06	-6.64455573755739E-07	-4.66925789189068E-06	1.0147553994583E-06	0.985100540882352	-0.158537462380256
6.8	0.65241480071609	0.743400012401509	3.74942718993919E-06	-2.07761367381223E-06	6.20259501575437E-06	-9.24115037538324E-07	0.984711125601243	-0.160073066264826
6.9	0.739532862006184	0.656041649810998	2.0427879563325E-06	1.63753689286409E-06	8.76254861193375E-06	-2.7477930401534E-06	0.984344148361834	-0.161455842891849
7	0.81570529331671	0.559046994488686	2.16254402627618E-06	4.0927478434365E-06	-1.01613248822999E-07	5.37321835761095E-06	0.985205555159074	-0.162809324358237
7.1	0.879220376933206	0.452343780569355	-1.34728610263593E-07	1.71567875988404E-06	8.25715394278649E-06	-4.63184777965858E-06	0.984614504912196	-0.166110955692569
7.2	0.928238738334444	0.338472395309943	4.84348037644937E-06	-1.38981409190295E-06	7.24774874124257E-06	3.781220880675E-06	0.983095241472653	-0.168254123203575
7.3	0.962174610852447	0.219130346637134	4.85427485263997E-06	-1.10836378133811E-06	-7.33330295623829E-06	-7.36883803926661E-06	0.981141647332345	-0.170391000775914
7.4	0.979705165145893	0.0959598231589196	-1.81684740853409E-06	9.86814323965956E-06	1.42170296474936E-06	-4.05893292221585E-06	0.977811070767826	-0.172721843141291
7.5	0.981625834398243	-0.0243117858104841	8.33835596901364E-07	8.01048314477108E-07	1.66071356496433E-06	9.86920056458843E-07	0.975508246746901	-0.170758114274599
7.6	0.972832759568127	-0.146930630105618	1.45357743507128E-06	-2.59629853483178E-06	-5.37994970032312E-06	-3.62044309545695E-06	0.977723739219199	-0.173067580577175
7.7	0.946625326830119	-0.268306705534231	5.53572001520249E-06	2.41185218432865E-06	-6.82436139808243E-06	1.19641010060069E-05	0.977576221286023	-0.176298559505869
7.8	0.90581040290551	-0.384721106521803	-5.89647976908484E-07	-5.2172993698792E-06	3.73291705706937E-06	-4.69742594826073E-06	0.977651306532901	-0.178854499178342
7.9	0.851326988612447	-0.493998249374022	8.79837361552779E-06	1.5755830700105E-06	-9.43506032869847E-06	-8.65306792189491E-06	0.977983817508926	-0.180137094684162
8	0.788180657108343	-0.59795966163755	-6.64053356554796E-06	-1.68975350694301E-06	-1.20281343787795E-05	2.38720361787342E-06	0.982850964898668	-0.18189403184886
8.1	0.70577092609899	-0.697404451291787	5.08827150969087E-06	7.60042481854532E-07	2.88924980581973E-06	2.28438355095852E-06	0.983783812851847	-0.189226896685078
8.2	0.610854904126756	-0.781102008449094	3.58418992839824E-06	-2.57177036511335E-06	-3.65485214201068E-06	-1.16644023459844E-05	0.982460293874953	-0.193087674807212
8.3	0.506876728207947	-0.851635310140027	2.74059332891295E-06	-1.85770577028284E-06	1.63181173601797E-06	5.31279265182302E-06	0.981448018337775	-0.196295111029748
8.4	0.394835374159357	-0.907986864388937	-5.57029148512485E-06	-1.02779956032867E-06	1.05633560338227E-06	2.96199373081837E-06	0.980700059057489	-0.199209187656824
8.5	0.277655063943708	-0.949189599566785	-3.29362009850082E-06	1.6279089300938E-06	-4.80075159334056E-06	-5.01014684169034E-06	0.98037615596024	-0.203021243275858
8.6	0.155694436825804	-0.977283657157547	-8.15081022051577E-06	1.37880009501625E-06	-4.33885030745647E-06	-6.87437949213936E-06	0.978741887351171	-0.206319573515454
8.7	0.0302906304457442	-0.989380261914808	2.25323617374371E-07	-2.14747656820383E-07	6.12892051868275E-06	5.18705234518115E-07	0.977762355057088	-0.208625425234528
8.8	-0.0959573271093134	-0.985513757550668	1.03006215750324E-06	-1.82169749142483E-06	-2.39529567560371E-06	-1.2874765100173E-06	0.977134609779911	-0.210688587633536
8.9	-0.221681758849028	-0.965828127437251	-3.05599524938644E-07	3.04761599869653E-06	-1.2375501834531E-06	-1.64982976652215E-06	0.976912934718168	-0.212559735193424
9	-0.341788942478125	-0.926068979518151	2.99029351004253E-06	1.59036341092829E-06	-1.57885104234194E-06	2.12434765073872E-06	0.976760693895464	-0.214351825970783
9.1	-0.452750570794111	-0.87585304227649	-9.33688251393928E-06	2.2764273012319E-06	-1.56723751970448E-06	2.41711906277902E-06	0.977173133770237	-0.216306691115476
9.2	-0.558630914128288	-0.812011819721758	7.52515760267278E-06	-2.39755643434433E-07	-9.13012114161611E-06	1.98054602621389E-06	0.977390348724483	-0.219366162127476
9.3	-0.655046765576248	-0.73571689159429	6.87757641691104E-08	-7.17827909284694E-06	1.58840477481868E-06	-1.30474398382981E-06	0.977167919339893	-0.222987801231652
9.4	-0.741199290050244	-0.647571218218176	6.04309868016152E-07	2.48384000885745E-06	1.61144534135274E-06	-3.6027823319867E-06	0.975321612479572	-0.227040919674976
9.5	-0.813169461988745	-0.551933151916293	-2.87147674144628E-06	6.63512189001615E-06	4.71894291760024E-06	-1.36438810397386E-06	0.973739128243339	-0.228312584191052
9.6	-0.879194593304625	-0.447932546634498	-5.02245742416122E-06	-5.21679078706262E-06	4.76199885827405E-06	2.8913779131284E-06	0.97397095966036	-0.232001602892075
9.7	-0.930158887212486	-0.332291339025701	-2.00221668827372E-06	-5.08286056181179E-06	2.10023085790483E-06	1.15045222380794E-08	0.972614328755469	-0.23523075156002
9.8	-0.965331843520691	-0.210867971182136	5.94481448722936E-07	-4.29088195358085E-06	-2.94466168882177E-06	-2.52154132664436E-06	0.971121940683636	-0.237201830361739
9.9	-0.984536174759189	-0.0857054544494008	-6.12341443750964E-06	4.20851151805857E-06	-3.08861417208524E-06	1.66424509481391E-06	0.969606587231379	-0.236992612627196
10	-0.98699610879779	0.0402370017755757	3.58334659983694E-06	-3.69566952483366E-08	8.23987188212645E-06	1.11494090344332E-05	0.97359714903104	-0.237169198026353
10.1	-0.973762164865351	0.164364224590228	-2.86953755109014E-06	-2.5293350092616E-06	-2.01796769359972E-06	-2.50497131698478E-06	0.972631308389078	-0.24289179196015
10.2	-0.945549245912727	0.286218524813712	2.36198512075453E-06	-1.02623840355244E-06	-2.77675600955941E-06	-1.0667396617687E-06	0.970334991495525	-0.244477616856118
10.3	-0.902631734012098	0.403585797024096	7.77501621284324E-06	-5.97105513184997E-06	3.87599039079641E-06	8.24892874709732E-06	0.968782894105259	-0.245709424609586
10.4	-0.846952629289378	0.515757753075334	1.71149319606554E-06	2.50615490488024E-07	6.29635294849083E-06	-1.19434689695291E-06	0.967720566268763	-0.246751609539305
10.5	-0.773877816912191	0.623845487968478	8.36894579895596E-06	-4.1833887468575E-06	-4.90074541847725E-07	1.98159784564544E-06	0.967545069910071	-0.249636747094327
10.6	-0.685481822621568	0.71492259174496	8.94047827506337E-06	-1.30199070681139E-06	-1.43044748151131E-06	1.3660133452569E-05	0.965838596058	-0.251367489697555
10.7	-0.589035533017139	0.793383835236551	8.01333526230831E-06	-1.9231658521379E-06	-3.06724978822315E-06	-5.27467825670273E-06	0.96637526464532	-0.253353150684388
10.8	-0.484126567892808	0.859695777513649	2.46280456003026E-06	5.24402148190313E-06	-3.62934717938504E-06	-1.97457008057147E-07	0.966590090471375	-0.25648222739981
10.9	-0.371126749685832	0.913964775850263	-5.55942442956066E-06	5.01115796147191E-07	1.60900699163489E-06	4.02548634914756E-06	0.965839629532923	-0.259382161387837
11	-0.250623772168682	0.950753560409717	-1.09647927600031E-08	-5.21606131241355E-06	-8.36476008708191E-06	2.25187509015499E-06	0.965186506208667	-0.261370840629194
11.1	-0.131479753431585	0.973159049135888	6.31555498106911E-06	4.07566842937902E-06	-1.88242566731271E-06	1.07595790669413E-05	0.964183950651808	-0.264040734162079
11.2	-0.00907172852547725	0.982523091347643	1.5821205747109E-06	1.35117046163623E-06	5.15995782312806E-06	8.89018842224401E-06	0.962567060553506	-0.26644979932582
11.3	0.11410915947586	0.97579658469374	-4.67882441677958E-07	-1.73573459550419E-06	-7.12877448633554E-07	-4.39287842818278E-06	0.96084790778757	-0.268956615631346
11.4	0.235288008466469	0.954036934144811	2.77125567165363E-07	1.18480969110389E-05	2.44265810711395E-06	4.91367020587603E-06	0.957496812474231	-0.271900802011173
11.5	0.353504622230349	0.917508583364281	6.17278706798564E-06	-3.45363409511071E-07	3.09032180256591E-07	-1.87681161976032E-06	0.955831218060497	-0.271112800492041
11.6	0.464888695054924	0.865895070981795	-5.98215659873998E-06	3.07877306034016E-06	-4.85279877452768E-06	1.92207993078698E-06	0.9563930190861	-0.275350441099602
11.7	0.568332520864066	0.80176885812528	3.31406642171397E-06	-1.80004257703896E-06	-1.69673759820159E-06	2.23594459366847E-06	0.954064186571266	-0.279510618388893
11.8	0.662863953192485	0.725145472480681	-7.93038505049614E-07	9.76389788774188E-06	-2.68038775960947E-06	1.05107491177713E-05	0.951178918030532	-0.282082257683714
11.9	0.74585645889468	0.638468796375753	-7.26034898210422E-06	-1.02733687475003E-06	-3.88425142852284E-06	1.11956482741867E-05	0.949378650843661	-0.280455904874607
12	0.823661344037485	0.544590044144569	-6.47357592213227E-07	1.37923580781897E-06	-3.12927996227866E-06	-1.9310503967833E-06	0.955138224169702	-0.280031668946429
12.1	0.8877283207308	0.433124634592362	-3.875800273831E-06	4.98830359636025E-06	-1.33518728476231E-06	8.41408858530322E-06	0.95516603880767	-0.285562032209974
12.2	0.933559479426051	0.317184456883331	-5.7581194368617E-07	-3.79575015910539E-06	-3.111834902666E-06	-7.30965353987328E-07	0.954259484849694	-0.288251594967796
12.3	0.965298992159064	0.198587693581445	3.59487149932556E-06	3.43710335771317E-06	-3.4426885221548E-06	6.26567377863469E-06	0.953883760897514	-0.290951370692297
