# GHZ S RI R 50
0.2	-0.965512510576214	0.251774332730383	8.81968062205037E-06	5.31415849060016E-06	1.13488909296257E-06	-2.88835337420874E-06	0.998889582815151	-0.00732383951427253
0.3	-0.925845708240883	0.371594743589347	-7.65638135451235E-06	-8.15332362614547E-07	-1.30529871015593E-08	3.65652791411159E-06	0.998622232739065	-0.010210481967733
0.4	-0.870844514546326	0.485203649055814	-2.19338183723057E-06	6.33326638258615E-06	2.91868145466795E-06	5.72885064281425E-06	0.998359984867994	-0.0128334119736592
0.5	-0.802386382381242	0.590727715327841	-2.64508608778726E-06	5.48235253405949E-07	1.05050533243762E-05	4.87729986446976E-06	0.997945732480492	-0.0154890453812509
0.6	-0.721455684697759	0.686959594998811	-1.72332935149499E-06	-1.85651112229577E-08	4.16042814398969E-06	-1.03237146330135E-05	0.998627036975795	-0.0183126577358078
0.7	-0.628929251256144	0.772316136325173	-2.04464965180636E-06	9.87260765725368E-07	3.77945243955706E-06	1.11474183466149E-05	0.998323402685375	-0.0217212793843028
0.8	-0.526379617053489	0.845273443980602	-5.5977571723946E-06	3.77772768459336E-06	-3.16403754531148E-06	-2.13591382375105E-06	0.997897536842223	-0.0241631607687675
0.9	-0.415781901164518	0.904520303326151	-6.66822749837981E-07	5.24271817591875E-06	3.26157875739151E-06	-2.94864916608022E-07	0.997537673285681	-0.0268152892087483
1	-0.298208702945597	0.94941234524508	1.56550546468965E-05	-3.68483889134977E-06	-9.58035288320631E-06	5.29011947023016E-07	0.99645237581941	-0.0284904451153854
1.1	-0.177074528542058	0.978967072543285	1.34019712323995E-06	-2.97519702241023E-06	9.37171746105924E-06	1.25727231056504E-05	0.996073359247298	-0.0295507553451317
1.2	-0.0523237241823027	0.993208150054883	-7.88938672584642E-06	-3.25917499601603E-06	-3.08746397255167E-06	-4.47207266694078E-06	0.995863733239662	-0.0301804545618561
1.3	0.073150196123913	0.991593710641724	1.73393175375448E-07	3.32802839434151E-06	1.92492602415712E-06	3.43219908947558E-07	0.996420947463486	-0.0307191364889036
1.4	0.197097298230527	0.974186091660027	1.5144395679877E-08	3.76114925995633E-06	-2.51247573717795E-06	-5.61033634422708E-06	0.99674277499058	-0.0325472012409415
1.5	0.317885490856443	0.941508423611867	3.18213345203155E-06	-2.59564464051243E-07	2.69332557861314E-06	2.09665888173615E-06	0.997344883143339	-0.0359875966554932
1.6	0.433583482629514	0.894363593750336	1.78940274837168E-06	-1.93281291584649E-06	-8.85839876764403E-07	-3.06121714445301E-06	0.997245101911317	-0.0395218887150892
1.7	0.54242276788253	0.832490863554204	-7.89157601460204E-08	-3.52081585170024E-06	1.99378034815827E-06	4.92433023726906E-06	0.997526668266818	-0.0425289273290777
1.8	0.642392707356604	0.757844341924435	-2.05229575645609E-06	-1.81530110794637E-06	-4.66364036223409E-06	1.82903976113345E-05	0.997201217875014	-0.0455540258240106
1.9	0.732226546592528	0.671185287844943	-4.3840419505535E-06	-1.47047654641351E-06	-4.91422953690411E-06	-6.00289048414521E-06	0.996842317408524	-0.0483272782604881
2	0.809582861104851	0.573382652643821	-9.42818357003905E-08	-6.72735718136784E-07	-1.66408044104109E-06	-1.41551687026639E-06	0.994908263041277	-0.0512767813908756
2.1	0.874505109273783	0.467520913261657	-1.15286896006125E-06	9.41998698070952E-06	1.98952447000994E-06	-3.76040634264838E-07	0.994664493598969	-0.0519940347037463
2.2	0.926312278408192	0.354503267795684	-1.1199754848061E-08	-5.91556607312648E-06	-7.40396810483812E-07	2.72945048311534E-06	0.995337204601822	-0.0542146427210875
2.3	0.9633820033774	0.235469670019284	-1.31806935828907E-06	2.75717162517111E-06	-2.94080255829594E-07	1.19465563282514E-05	0.995332332718753	-0.056160930917834
2.4	0.985211319195187	0.11173590696558	-5.85245400279314E-06	-3.7133537457414E-06	-1.75894872954387E-05	1.4456643497165E-05	0.995402426555775	-0.0593423491836236
2.5	0.991333672705214	-0.0129253396461872	1.82402368412557E-06	-2.95456999904067E-06	-1.807483457898E-06	7.53383923037288E-06	0.995018097674087	-0.0615481501347874
2.6	0.981677844295432	-0.136154745134461	2.85779341825367E-06	9.23331565067446E-07	-1.75763289832004E-06	4.49513435849317E-06	0.995148069447825	-0.0643462184856988
2.7	0.956521350471892	-0.257724611943158	3.80266962998278E-06	1.04371901429862E-05	2.31404337523166E-06	3.86663556574297E-06	0.994747933663093	-0.0673265641420751
2.8	0.916582692854424	-0.375218782390622	-8.08614080556519E-07	-2.29043184006776E-06	2.22021831215244E-07	-1.88457585817942E-06	0.994897860764038	-0.0691502336325166
2.9	0.862804986045502	-0.486580311901809	3.77524251108913E-06	-8.29589239706E-06	-1.24632936049733E-06	-1.42026152780361E-05	0.994718197965669	-0.0710388380597856
3	0.795232352485392	-0.591164768006649	-2.57555857249889E-08	6.6382566588985E-06	-1.4756439796924E-05	5.26479550496031E-06	0.994712835133085	-0.0733667134361344
3.1	0.71596871784654	-0.685081459715347	-4.99227216443868E-06	7.79944622191901E-06	5.79883027893766E-06	-7.27769963433613E-08	0.994663204941652	-0.0752001109240654
3.2	0.624124786811985	-0.769673531725511	9.53427608731142E-07	2.12489637668368E-06	-4.55520328648159E-06	4.65972237058067E-07	0.994660729834792	-0.0768962160447546
3.3	0.522776232700898	-0.842155875170275	7.22840574775894E-07	-1.45575486349408E-06	-4.57807199801008E-06	7.17148699400941E-07	0.994738642854596	-0.0800234644530899
3.4	0.41274999440553	-0.901632275930131	6.46595745986398E-06	2.57275529599822E-07	-8.10716761752706E-06	-7.20551233904517E-06	0.99529330468692	-0.0819520092271679
3.5	0.294710281161444	-0.947098339470663	-7.70760514823346E-06	1.94221924340338E-06	-5.88411867356019E-06	-8.0017544234914E-06	0.995571896105193	-0.0854232287837409
3.6	0.17217287614477	-0.97532406236446	-8.47311884220467E-07	-4.38265924454463E-06	-7.80154737411766E-06	-6.34782415452193E-06	0.995001685742498	-0.0879872160572645
3.7	0.0484486677858137	-0.989654859637417	-6.69792681727133E-06	-6.78549696193956E-06	5.39590822953422E-07	-4.76202153592342E-06	0.995036054513503	-0.0906571771699854
3.8	-0.0768289915281679	-0.988347151825918	-3.64688057984813E-06	1.07406149427623E-06	-3.29095393836069E-06	-2.47412374405877E-06	0.994834383613894	-0.0929131179621287
3.9	-0.20073470779365	-0.971459303145109	-4.87169593894706E-07	3.50793371499791E-06	2.05672144518772E-06	-1.21534371838891E-06	0.994818620634356	-0.0967304196950517
4	-0.32239136498449	-0.938686508243565	1.16577934330191E-05	8.13753452635656E-06	7.2703344291818E-06	-4.02458403032527E-06	0.992826214037664	-0.098257406238405
4.1	-0.437832929563446	-0.890614667641965	5.21323359035716E-06	1.33805434221185E-06	-3.47631325478812E-06	6.64127456272554E-06	0.992950301418838	-0.0983683027248606
4.2	-0.546227572583282	-0.829079657564245	-7.09761758641617E-06	-1.22208214534997E-06	-8.26938928435633E-06	-6.48672072154346E-08	0.993277764838188	-0.100934152945528
4.3	-0.646232398050347	-0.753969444607134	7.09383526879656E-07	-2.3678148475864E-06	5.21437572847747E-06	8.95453399336589E-07	0.993520529974052	-0.103083603966613
4.4	-0.735978238591576	-0.666588400427019	4.48207886645572E-06	-1.7634967832477E-06	-8.72865087844738E-07	1.34556865368812E-06	0.99320527859879	-0.10550515037906
4.5	-0.81437574131608	-0.568867189252434	6.7878220118678E-06	1.89161154846351E-06	-7.95183668848653E-07	-3.26410761867163E-06	0.993406145920721	-0.107022655733056
4.6	-0.880582366868482	-0.461299256632828	2.4529124483567E-06	2.9653427048539E-06	-6.63147902635828E-06	9.75021957783585E-06	0.994308642641201	-0.109940654176352
4.7	-0.931947323489338	-0.345246706003861	-1.41021321272058E-05	5.89872309896218E-06	-3.47116644608573E-06	-4.28858410389683E-08	0.994683157474912	-0.11263577732577
4.8	-0.967888245899775	-0.224424080049621	-3.1590182465965E-06	-5.16369108827859E-06	-5.54406022407264E-06	2.35984170175292E-06	0.994479345786545	-0.115567737472966
4.9	-0.987837315733873	-0.101139294984042	-1.00507894934878E-06	-8.57838999429459E-06	-4.23470611784577E-06	7.32691358957992E-07	0.994232744456016	-0.117665373723085
5	-0.994285829122019	0.0233320173604511	7.58205640148543E-06	-1.55993292216715E-06	-1.75292338064833E-06	-2.73566226895685E-06	0.994252622845756	-0.119405032873532
5.1	-0.98290823680688	0.150938212278555	-2.60313137854615E-06	-6.42053775350951E-06	-1.01013207594128E-06	-1.96145805091985E-06	0.994635311864399	-0.121071311217266
5.2	-0.955553446990441	0.273308456125536	4.01113356412099E-06	-4.33865016467263E-07	-5.46334918291609E-06	6.32315074183752E-06	0.99455231257122	-0.123754558637794
5.3	-0.913978287377853	0.391136874858741	5.1500629103523E-06	6.03182285234835E-06	-9.60016208237179E-07	-3.59875876984089E-06	0.994258686527543	-0.12629144814639
5.4	-0.858225969200686	0.503052090950873	3.07526623725541E-06	-2.02025819388872E-06	-1.13563043798465E-05	2.1957360543692E-06	0.99446007494831	-0.129098045766408
5.5	-0.788445684704676	0.607440525105045	-4.32751509857116E-07	-2.20340178800428E-06	-5.81398084956078E-06	6.14677276967871E-06	0.99446112386495	-0.132635287940715
5.6	-0.705048673456637	0.702045420066177	2.38824578134577E-06	7.33154253039034E-06	-5.40200955531623E-07	2.94015733710501E-06	0.993988698836588	-0.135261333180151
5.7	-0.610657443857308	0.785257893079489	-2.58088256254588E-06	2.36996295929314E-06	7.94093446941121E-06	2.78846948460442E-06	0.994010795458107	-0.137978567957103
5.8	-0.506425900027742	0.855251525273898	-4.66331922428408E-06	5.12528181348994E-06	-3.66125471685801E-07	3.43527463611203E-06	0.993972626697077	-0.14085991743751
5.9	-0.394341639752266	0.91166749217392	6.38189677017953E-06	1.49541791867722E-06	-2.71737058497123E-06	2.55958157953428E-06	0.993239893154056	-0.144471091233407
6	-0.276879356682955	0.951801892544402	3.53388873599343E-06	3.29692738923086E-06	-3.31304049988463E-07	-1.43515083798018E-06	0.989936044711553	-0.14623079154595
6.1	-0.15731716954368	0.978588777018526	9.1825379149316E-06	1.52489611543659E-06	-1.27729804423966E-07	-1.80980915078533E-06	0.990045536870157	-0.145113510673621
6.2	-0.0335941320989033	0.991017764962525	2.44318549897184E-06	-1.73083588853025E-06	1.48427545237048E-06	-4.85012804777515E-06	0.99054702463292	-0.146245194561193
6.3	0.0912924557770281	0.987721305125863	-4.36834010196713E-06	4.24862745883568E-06	-6.15148180254605E-07	-1.72787535852053E-06	0.990553635007223	-0.148295246860851
6.4	0.214734020914707	0.967948115943058	-4.27051700342208E-06	1.0691553772009E-06	-1.76789477053416E-06	8.85328381946807E-06	0.990080489793227	-0.150766928358186
6.5	0.332663118049194	0.93413663541359	2.45871281801042E-06	-1.32768160197851E-06	1.49612321194127E-06	-2.93102429168403E-06	0.989910274695881	-0.152239000467948
6.6	0.448828823007652	0.887068118658604	-4.74893297101471E-06	-2.27184529702498E-06	-1.86044221253043E-06	-6.66817146527693E-06	0.991880441782269	-0.155682865074846
6.7	0.557556168033329	0.823159184590432	4.18065099708548E-06	-6.61891738375023E-07	-4.6961863112816E-06	1.01333696989502E-06	0.991747353626096	-0.159714421042442
6.8	0.656542831048362	0.74627049820222	3.77179813432726E-06	-2.09082420724853E-06	6.24002039409475E-06	-9.30744699876976E-07	0.990934915430359	-0.162985786705826
6.9	0.744840812412581	0.657640893830295	2.05934442248163E-06	1.6444927712311E-06	8.81517350731646E-06	-2.78241128261237E-06	0.990066241293256	-0.165969055496696
7	0.820483284247675	0.558573890342226	2.19108301710508E-06	4.10392486344816E-06	-7.88938373845663E-08	5.4006053940247E-06	0.988084256906238	-0.167809670650245
7.1	0.883407217997994	0.452284349800537	-1.30114878594742E-07	1.72166480134578E-06	8.27041304679363E-06	-4.67125440204841E-06	0.98791608668977	-0.168559336794447
7.2	0.932932834011447	0.338284222522415	4.85810909130833E-06	-1.40391789326129E-06	7.28071424031057E-06	3.78099573475743E-06	0.987887881914973	-0.170496083223503
7.3	0.967535429668398	0.219031973803789	4.87391847774997E-06	-1.11603449443234E-06	-7.36861879234555E-06	-7.39513276461134E-06	0.987414676586213	-0.172519936842501
7.4	0.988067109422992	0.0958297380418613	-1.84523996038539E-06	9.93730650734906E-06	1.43829858167901E-06	-4.08634587999151E-06	0.987730318459579	-0.175610346391406
7.5	0.992153030553953	-0.0316442960561936	8.47499289256855E-07	8.09025223546376E-07	1.6859726736959E-06	9.94713639162723E-07	0.986341240041137	-0.181205225022982
7.6	0.97813917062986	-0.156092656029426	1.44915790436659E-06	-2.63195621746892E-06	-5.4581883440652E-06	-3.61720534405592E-06	0.983437236158574	-0.183801347589581
7.7	0.950419897801782	-0.278113830495895	5.6039214187733E-06	2.39081619885747E-06	-6.79334352577205E-06	1.21239203470629E-05	0.982650982152288	-0.186845683529294
7.8	0.907675834694435	-0.396142845754082	-6.44201155149418E-07	-5.25659285449668E-06	3.72048233565072E-06	-4.77324157698809E-06	0.982102299365261	-0.19039110191809
7.9	0.849457587134414	-0.508397035280262	8.8862230205416E-06	1.46985957264876E-06	-9.62240578576099E-06	-8.59254320879091E-06	0.981002536542809	-0.194793282216076
8	0.77520893874382	-0.609981387329549	-6.66342876827976E-06	-1.57164652966252E-06	-1.19741135493597E-05	2.5956176264032E-06	0.976822341011969	-0.197654615874246
8.1	0.693856158438389	-0.699965239883363	5.06769435156826E-06	6.99968573851903E-07	2.8978683111767E-06	2.23974656992369E-06	0.976437879293273	-0.197327489795641
8.2	0.601243893235948	-0.781511502929508	3.543847933213E-06	-2.58716381344562E-06	-3.73038847409618E-06	-1.15716159849821E-05	0.976797779265093	-0.199447493672694
8.3	0.498346783939448	-0.850666819174335	2.71284815658955E-06	-1.86595502776931E-06	1.65871137068386E-06	5.27232915981384E-06	0.976191850651468	-0.202182995681722
8.4	0.387622259488654	-0.90633174201156	-5.54278497303989E-06	-9.94986003668014E-07	1.06444482969281E-06	2.93964823883321E-06	0.975040113870474	-0.204834385691608
8.5	0.269462740894305	-0.947923117774409	-3.27795239286945E-06	1.63373868276295E-06	-4.80236751429048E-06	-4.97861493304846E-06	0.973966307005057	-0.206804366954752
8.6	0.147071667761332	-0.972920225809013	-8.12044102058552E-06	1.42138421413024E-06	-4.36599028161207E-06	-6.83068875280694E-06	0.97401005347182	-0.209304752529509
8.7	0.0230618735138313	-0.982610880890752	2.23026867610955E-07	-2.15296278426737E-07	6.10693876987448E-06	4.77545219858376E-07	0.97345388789501	-0.212083268499904
8.8	-0.100749743225599	-0.976478336710437	1.01236453260076E-06	-1.81792977128292E-06	-2.38990828457829E-06	-1.26458986272288E-06	0.972813645263658	-0.214412904437105
8.9	-0.221258336972457	-0.956140880156062	-2.87296740633585E-07	3.02444768600307E-06	-1.23606244459917E-06	-1.63000452154383E-06	0.972573015007305	-0.216559578934059
9	-0.339655518675527	-0.922904799212893	2.97249973022318E-06	1.57386999057453E-06	-1.56402425159659E-06	2.11252957810507E-06	0.972126619932855	-0.219200335065145
9.1	-0.453654781581637	-0.87230831713728	-9.27471507554105E-06	2.28963841586831E-06	-1.5509663958826E-06	2.40720985430022E-06	0.971208186350037	-0.221423220900885
9.2	-0.559415741866833	-0.808619133978121	7.47837769251999E-06	-2.54364162665626E-07	-9.06975292510356E-06	1.98788160750136E-06	0.97020729044283	-0.223695510804511
9.3	-0.656596817380075	-0.732779532278118	6.0161270944934E-08	-7.1407155318407E-06	1.57857499620823E-06	-1.2997283556448E-06	0.969605810802357	-0.225636703018873
9.4	-0.744274991160124	-0.645949503274561	6.02861187028342E-07	2.47648543578944E-06	1.6062581569116E-06	-3.59243676623254E-06	0.969389539018806	-0.228239506946117
9.5	-0.821828258866031	-0.545754116985264	-2.84151300702506E-06	6.6458259519175E-06	4.71159531429684E-06	-1.38471978161352E-06	0.968281746373171	-0.231965218896714
9.6	-0.882004490243685	-0.436168241579854	-5.03006446413437E-06	-5.16753374265351E-06	4.75796226015719E-06	2.85324736599513E-06	0.966709131350572	-0.234162871471447
9.7	-0.92898026267071	-0.321462174760817	-2.01304441902546E-06	-5.04976530360952E-06	2.08996524561585E-06	2.91182874785035E-09	0.966206378560502	-0.236203320799563
9.8	-0.961663757276519	-0.201171199290746	5.76112533253912E-07	-4.27316264307127E-06	-2.94019280174794E-06	-2.49914184192424E-06	0.966136187352612	-0.238268053983993
9.9	-0.978335203686177	-0.0779918456285607	-6.07420090005847E-06	4.21845001615589E-06	-3.06601668438729E-06	1.67141341317703E-06	0.965592241200817	-0.241268986972924
10	-0.980679375816337	0.0451397015157786	3.55209718786392E-06	-5.50866662804486E-08	8.22585891832989E-06	1.10103437863676E-05	0.962101682525848	-0.242600293959307
10.1	-0.967379384800296	0.16876574544071	-2.84794205199846E-06	-2.50314813303337E-06	-2.00379952523484E-06	-2.48019229635132E-06	0.962275706161897	-0.241564190178003
10.2	-0.938092569603827	0.28989904649426	2.34338066311437E-06	-1.02037305589755E-06	-2.75668015757438E-06	-1.05651009508445E-06	0.962851738915866	-0.2428380227346
10.3	-0.893235291338565	0.406069308784481	7.71193786503193E-06	-5.93530037746137E-06	3.85606767474132E-06	8.18452973576234E-06	0.962571838941408	-0.24469357982827
10.4	-0.834215578357065	0.514058848698336	1.6967128739222E-06	2.4670638467072E-07	6.23986589853568E-06	-1.19014223438579E-06	0.961660572115257	-0.246773391078825
10.5	-0.765872761224674	0.612646737196634	8.30704638607162E-06	-4.11409582255866E-06	-4.92817006771737E-07	1.96151273059683E-06	0.961070563204948	-0.248242465346859
10.6	-0.685627418861	0.705726587419166	8.90356965608878E-06	-1.26141512257205E-06	-1.47640509802147E-06	1.35905561556481E-05	0.961110623683746	-0.25153737209662
10.7	-0.592115840519039	0.787051230956398	7.98650327439369E-06	-1.89730542019068E-06	-3.04320512229173E-06	-5.26114436902297E-06	0.959671289296888	-0.254560381430781
10.8	-0.488100611770221	0.855863055060045	2.44171721964294E-06	5.22603688393087E-06	-3.61314390740055E-06	-2.03764496911314E-07	0.958522628330374	-0.256066038348873
10.9	-0.376105772665668	0.910054931372954	-5.53547677208858E-06	4.81019137974619E-07	1.58872790411149E-06	4.01213470134019E-06	0.958314392381326	-0.257387225367823
11	-0.260176618827321	0.951498701742439	6.34464821469361E-09	-5.20323492303991E-06	-8.35159387944048E-06	2.21860700125469E-06	0.957546545752277	-0.258971054701773
11.1	-0.136936718754905	0.978275997463536	6.28235758123667E-06	4.07596756891102E-06	-1.90160784217649E-06	1.07153117024507E-05	0.95682760992852	-0.259958699986916
11.2	-0.0122625860923342	0.987848126725221	1.57017125552868E-06	1.35133589827954E-06	5.10399246524321E-06	8.87137865822329E-06	0.956055350582836	-0.261055165996149
11.3	0.112413671135394	0.981047332924641	-4.56458581956652E-07	-1.73130351127074E-06	-6.85866415964297E-07	-4.37907482581967E-06	0.956061125931874	-0.261990266625847
11.4	0.235092944704875	0.959040616656497	1.83991356803093E-07	1.18222622849819E-05	2.39853272213086E-06	4.92112489922667E-06	0.956586913007452	-0.264077653571688
11.5	0.353843588018425	0.921950047070865	6.183713652438E-06	-3.09583069647285E-07	3.20507806264658E-07	-1.87770045696866E-06	0.955450629325211	-0.268306270524017
11.6	0.466075045531422	0.870793465914391	-5.9912316628446E-06	3.05272783861918E-06	-4.85782459011501E-06	1.90128098227248E-06	0.953393734638411	-0.270614418394479
11.7	0.571268810314208	0.806197623170422	3.31990719746814E-06	-1.78159344912743E-06	-1.70634959024978E-06	2.2252188965505E-06	0.952959265283308	-0.273318862105459
11.8	0.667691966768073	0.728035515430172	-8.45917715923463E-07	9.76223196172441E-06	-2.73780038464706E-06	1.04991024893446E-05	0.952994775665093	-0.276835206530313
11.9	0.752646546755063	0.636580051200663	-7.27583280878454E-06	-1.04714804557292E-06	-3.92048038723327E-06	1.12140522451751E-05	0.953253091841813	-0.281220697175735
12	0.820971746233196	0.536047010767793	-6.42885732129272E-07	1.37425040763011E-06	-3.11855440868185E-06	-1.91895856095199E-06	0.94944113931262	-0.284130087574913
12.1	0.880284217569853	0.432979438379346	-3.87522008017484E-06	4.95166275908412E-06	-1.35833005523242E-06	8.37042086868951E-06	0.949248690417365	-0.284691745867968
12.2	0.927881925064561	0.320414637474004	-5.62597037197278E-07	-3.78393415313608E-06	-3.09860909888822E-06	-7.37517402813864E-07	0.94891337020269	-0.287646677965664
12.3	0.960455087089749	0.202664676455365	3.56959944801733E-06	3.42767731644593E-06	-3.43895454683987E-06	6.22708281247207E-06	0.947672885242001	-0.290510274776411
