# GHZ S RI R 50
0.2	-0.966004454524483	0.251565141191404	8.82247870307297E-06	5.32053678067539E-06	1.13664344671986E-06	-2.8895060359945E-06	0.999575932439609	-0.00690380527073631
0.3	-0.926543633488304	0.371378864387752	-7.66164423878611E-06	-8.19412743639015E-07	-1.47247884672093E-08	3.65921243239947E-06	0.99950023809514	-0.00981949195585587
0.4	-0.871851168915302	0.485105862295776	-2.19889220369573E-06	6.33851327194469E-06	2.91864282958541E-06	5.73614962037061E-06	0.999480817821894	-0.0124380932348039
0.5	-0.803566785113352	0.591193414047398	-2.64898960042601E-06	5.48565028112777E-07	1.05193306174315E-05	4.88614706839141E-06	0.999442391234833	-0.0155545105651529
0.6	-0.722283889460617	0.687559204671333	-1.72520982226705E-06	-1.84034087902046E-08	4.16387328909323E-06	-1.03354072060727E-05	0.99957015375101	-0.0186256341672352
0.7	-0.62982045925332	0.772969373506603	-2.04688793323472E-06	9.881314348676E-07	3.78250891656461E-06	1.11594878697714E-05	0.999178681871376	-0.0217158813961319
0.8	-0.527291467962595	0.846163657720877	-5.60489075839104E-06	3.78127166187621E-06	-3.16740376228459E-06	-2.13890432476897E-06	0.998866575527162	-0.0239783368852776
0.9	-0.41660749421227	0.905666483774107	-6.68771767522967E-07	5.24904078566522E-06	3.26566466396365E-06	-2.9452769017119E-07	0.998625925381883	-0.0264179738087639
1	-0.298896500715917	0.950806879563701	1.56802687855088E-05	-3.68305513183537E-06	-9.59497675632358E-06	5.25330255678541E-07	0.998158012307107	-0.027849041760175
1.1	-0.177500074074631	0.980579038725406	1.34313188656421E-06	-2.98070649820035E-06	9.38801501245998E-06	1.25979083129542E-05	0.998028471150153	-0.0296146811489431
1.2	-0.0524504466422686	0.994970869851402	-7.90495428301361E-06	-3.26379443969432E-06	-3.09418327635388E-06	-4.47992907295108E-06	0.997546913663438	-0.0304673310874048
1.3	0.0734987936077396	0.993481857082021	1.75608417503228E-07	3.33427817459717E-06	1.92879202573418E-06	3.42784579142414E-07	0.997981266727346	-0.0312277935261296
1.4	0.198007161942913	0.975979947626255	1.91340216381831E-08	3.76794401426859E-06	-2.52293557928675E-06	-5.6178487890785E-06	0.998063426773135	-0.0333568379287973
1.5	0.319345180960735	0.943189272070075	3.18763026185015E-06	-2.64167484144321E-07	2.70098230286531E-06	2.0970092494301E-06	0.998769778656283	-0.0369489351091764
1.6	0.435359307372732	0.895514641952114	1.7891113062275E-06	-1.93879439597553E-06	-8.92220747264059E-07	-3.06464970178315E-06	0.998343224144025	-0.0407288494959283
1.7	0.544212488372909	0.833366175002364	-8.43430649074789E-08	-3.52555550538084E-06	2.00397032974531E-06	4.92811427963073E-06	0.998552803096052	-0.0434828946959289
1.8	0.644172015448273	0.758499461679228	-2.0573171648626E-06	-1.81477125481912E-06	-4.64458702379705E-06	1.8319500168371E-05	0.998250830290927	-0.0463015613853692
1.9	0.733772341103639	0.671879730661563	-4.38977263809277E-06	-1.46810554996588E-06	-4.92448634331154E-06	-6.00463925298829E-06	0.997935754966753	-0.0485105505616991
2	0.811967391760113	0.574835037651326	-9.4490435665976E-08	-6.74159645260926E-07	-1.66762440081379E-06	-1.41849366593057E-06	0.997571850077168	-0.0510672125012768
2.1	0.877857716758053	0.467475986408168	-1.14247476872616E-06	9.44768070586031E-06	1.99448032359875E-06	-3.79947955374269E-07	0.997462301068054	-0.0535437185980457
2.2	0.929143724566825	0.353520385752229	-2.26385045953504E-08	-5.92826699967271E-06	-7.36722431766165E-07	2.73674934776213E-06	0.997374304460855	-0.0560664527033757
2.3	0.965719455650457	0.234055931604994	-1.31491917995235E-06	2.76482731772663E-06	-2.70596068656724E-07	1.19688370522771E-05	0.996993990039919	-0.0579869149637062
2.4	0.987101350678451	0.110124912832289	-5.87003388619833E-06	-3.70651239406587E-06	-1.7586162857241E-05	1.45185213280423E-05	0.996815126339567	-0.0610690101167719
2.5	0.993046814756405	-0.0146508170525178	1.81874219445004E-06	-2.96142097936828E-06	-1.79151425090311E-06	7.54468080040385E-06	0.996474686007956	-0.0631699257266159
2.6	0.983116213467211	-0.138096323770205	2.86118039096191E-06	9.19638657826927E-07	-1.75203638790586E-06	4.50092492348964E-06	0.996511047244345	-0.0660639341599427
2.7	0.957877378639333	-0.259866959696788	3.82032642252957E-06	1.0444715493906E-05	2.32165345337273E-06	3.86828139367736E-06	0.996193729620231	-0.0690572989778928
2.8	0.917677056877378	-0.377834858297898	-8.13161733990995E-07	-2.29285028494953E-06	2.19666182210828E-07	-1.88783822647951E-06	0.996374442601762	-0.0711355283774669
2.9	0.863299302771218	-0.489517107982669	3.76724583374844E-06	-8.31662424830875E-06	-1.27317920540212E-06	-1.42246882909222E-05	0.996029588571988	-0.0732214491780918
3	0.795201271090612	-0.594132357790713	-1.25333014786123E-08	6.64916616423127E-06	-1.47700565668912E-05	5.30289298710017E-06	0.995912937037344	-0.0756509488584687
3.1	0.715324597962713	-0.6882354845365	-4.98309467597371E-06	7.82379723593376E-06	5.80841116508623E-06	-8.59601480558147E-08	0.995685907696902	-0.0777437885943069
3.2	0.622627897253993	-0.772692530122994	9.6048870210845E-07	2.12547354635003E-06	-4.56064523700946E-06	4.78794111679584E-07	0.99540176077961	-0.0796085619492299
3.3	0.520389305155344	-0.844753091427485	7.19146286596797E-07	-1.4595944043666E-06	-4.58091728322833E-06	7.32070804181977E-07	0.995099289952878	-0.0829425169658329
3.4	0.409442021836112	-0.903120138249038	6.46896484723445E-06	2.34391432473351E-07	-8.1353868689795E-06	-7.17904826650641E-06	0.994976950212997	-0.0849602619451783
3.5	0.292424344630331	-0.946965644523797	-7.69552825243251E-06	1.96131960134632E-06	-5.90052051007168E-06	-7.97876814416795E-06	0.994847650384105	-0.0876564363366849
3.6	0.170164683966452	-0.976242966059876	-8.56450332916446E-07	-4.38052345135249E-06	-7.81424983501477E-06	-6.33091918203531E-06	0.994658647696536	-0.0903438895604807
3.7	0.045504809538719	-0.990177839598392	-6.71495276225924E-06	-6.76845992731433E-06	5.27551832621643E-07	-4.76330259081522E-06	0.99429964682576	-0.093191258965964
3.8	-0.0800962688758427	-0.98787714446476	-3.64283935708292E-06	1.08332753783799E-06	-3.29639184276662E-06	-2.46462193470145E-06	0.993618802266789	-0.0952034400680827
3.9	-0.203642667838799	-0.969927808774775	-4.78998051371221E-07	3.50713023108417E-06	2.05286692022235E-06	-1.21932106556617E-06	0.993349130177752	-0.0981099831720835
4	-0.32450869513897	-0.936977012342034	1.16799612235639E-05	8.11476808185566E-06	7.26408964852426E-06	-4.04207607837238E-06	0.993091004702292	-0.0990439709616774
4.1	-0.439986599186111	-0.888633710265328	5.21734138653865E-06	1.32123412207396E-06	-3.45481878108618E-06	6.65220685295965E-06	0.993215646374542	-0.100907626903837
4.2	-0.548010901766488	-0.826590332370002	-7.09705607400979E-06	-1.19872062126621E-06	-8.2644088347647E-06	-3.8501255553477E-08	0.992751106614982	-0.103641882480721
4.3	-0.647508421383692	-0.751142545227352	7.01495846894752E-07	-2.36780867218059E-06	5.21232448320376E-06	8.7869544324595E-07	0.992644249409766	-0.105681857037926
4.4	-0.736767891569792	-0.663596523773973	4.47219536560421E-06	-1.77492303228372E-06	-8.6797512303589E-07	1.34675071279659E-06	0.992211125600472	-0.108027078406506
4.5	-0.814728256777029	-0.565450919354651	6.78593768617606E-06	1.86650203159249E-06	-8.05188284919917E-07	-3.25747188679508E-06	0.992344897298786	-0.110067573439516
4.6	-0.879944855536046	-0.457875775194215	2.45749755998838E-06	2.95145386633155E-06	-6.58669353425942E-06	9.75185235283365E-06	0.992207845663665	-0.113057273187096
4.7	-0.930745104012575	-0.342144589811493	-1.40533852588391E-05	5.92553959344423E-06	-3.46342643133524E-06	-3.28993178196119E-08	0.992130676668963	-0.115320405964733
4.8	-0.966373507381708	-0.221515130005861	-3.16551900192667E-06	-5.14303965940436E-06	-5.52466996449488E-06	2.36924595521163E-06	0.991672560008727	-0.117971537370808
4.9	-0.986063411975138	-0.0978281709068975	-1.0274408322566E-06	-8.55447991580528E-06	-4.22221850893589E-06	7.43151168716576E-07	0.991133489163372	-0.119852798123553
5	-0.990175019712951	0.0267568725998982	7.55044162147375E-06	-1.57729778787913E-06	-1.75496597505347E-06	-2.72066101811627E-06	0.990850417414558	-0.121323744410222
5.1	-0.978536139016019	0.151858670486005	-2.60549239886577E-06	-6.39105722742713E-06	-1.01003351370961E-06	-1.9520404086022E-06	0.99089732231426	-0.122688710187161
5.2	-0.95177428729236	0.273640208367803	3.99584536456001E-06	-4.38810828923694E-07	-5.43320389291333E-06	6.30904752080143E-06	0.990586885838798	-0.124931239459346
5.3	-0.910122219919853	0.391077185816298	5.14004288205731E-06	6.00158290104157E-06	-9.61896907993919E-07	-3.58391728980732E-06	0.990238174778463	-0.127120005375788
5.4	-0.854129431682334	0.5022125578896	3.06004406598438E-06	-2.01624515621863E-06	-1.1307251637877E-05	2.20227274254413E-06	0.990182371043741	-0.129714036720959
5.5	-0.784563586731796	0.605330552054759	-4.3207904104073E-07	-2.19360270935788E-06	-5.78538621465373E-06	6.12327816271769E-06	0.990185065475186	-0.132331392423893
5.6	-0.702061722348	0.699156789774456	2.38064131091808E-06	7.30267284577163E-06	-5.37460306764985E-07	2.92891222532874E-06	0.990208211851178	-0.135093262985632
5.7	-0.608504092419254	0.781913893692866	-2.57058955571766E-06	2.36112591779992E-06	7.91056736995387E-06	2.77665326744272E-06	0.989845339924626	-0.137753850017976
5.8	-0.505175049134358	0.851495217831619	-4.64576761781826E-06	5.10334708777807E-06	-3.65526397801243E-07	3.42128137825486E-06	0.989444961284305	-0.14002013063131
5.9	-0.394526560803002	0.907673338406487	6.35352462542104E-06	1.49784612971984E-06	-2.70959915491326E-06	2.54534745641937E-06	0.98878628644344	-0.142094828437487
6	-0.278476517739877	0.94956433512174	3.51881614450054E-06	3.29890945496452E-06	-3.27157670529006E-07	-1.43308386189391E-06	0.9884657037423	-0.143078787650899
6.1	-0.157843414094673	0.977050719399826	9.17027432693772E-06	1.52948002900843E-06	-1.26304274765363E-07	-1.80769258263899E-06	0.988892312545508	-0.144333726905388
6.2	-0.0340533389778628	0.989232291229629	2.43987055846605E-06	-1.72743420094876E-06	1.48335194185181E-06	-4.84213500643991E-06	0.988811304753645	-0.145814020619166
6.3	0.0904762013541241	0.985817356476882	-4.36226426031906E-06	4.24045998929792E-06	-6.13674645508753E-07	-1.72518907649182E-06	0.988570346686137	-0.147946591963235
6.4	0.213437419753086	0.966786671241493	-4.26546407200515E-06	1.0665378281423E-06	-1.76830959834427E-06	8.84162103870337E-06	0.988170098596542	-0.150177667803666
6.5	0.333458588865972	0.932933134454897	2.45347530041803E-06	-1.32997739269706E-06	1.48951045515479E-06	-2.92974847377069E-06	0.98814610577577	-0.15305871627938
6.6	0.448118553243443	0.88341376299769	-4.73405161114102E-06	-2.25692265059537E-06	-1.86233879796637E-06	-6.64052253238582E-06	0.987733810160912	-0.156072785353405
6.7	0.555078438667579	0.819985160146275	4.16212955679259E-06	-6.59351336432936E-07	-4.67535622795706E-06	1.0092918102062E-06	0.987253230055047	-0.158549309229769
6.8	0.65313587893717	0.743832222645924	3.75582366875428E-06	-2.07826021901783E-06	6.21169069085065E-06	-9.21721082773185E-07	0.986627233532383	-0.16091213375138
6.9	0.740647697510736	0.656156463663335	2.04653541482421E-06	1.63989816689643E-06	8.77675146875031E-06	-2.75409039681862E-06	0.986007097153161	-0.162986707761093
7	0.816409302949333	0.558414398495523	2.17023621244557E-06	4.09357451757394E-06	-9.42618053754926E-08	5.37837903412777E-06	0.985389371204527	-0.164502289455414
7.1	0.879465997413586	0.452308418751515	-1.33755398187419E-07	1.71569871865515E-06	8.2542683528998E-06	-4.6363589014431E-06	0.985021234483651	-0.166239364863468
7.2	0.928692146134353	0.338799193129925	4.84428555726244E-06	-1.38927339576743E-06	7.2480907949049E-06	3.7827567159816E-06	0.984377285055662	-0.168105830091269
7.3	0.962970849668599	0.219993643690081	4.85749980878119E-06	-1.1039781195628E-06	-7.32910566977634E-06	-7.37940057400379E-06	0.983271536427588	-0.170011924582997
7.4	0.982211958875955	0.097488949901212	-1.84511671783458E-06	9.88348813598398E-06	1.43468895276038E-06	-4.06356265879827E-06	0.981985817570658	-0.172435706184654
7.5	0.986010779861736	-0.0261121382572318	8.38168822091609E-07	8.05915149374569E-07	1.66961102841437E-06	9.93194275864011E-07	0.980659525223667	-0.174413345020512
7.6	0.974904111577257	-0.149799084477864	1.45502162601088E-06	-2.60981240151632E-06	-5.40904479397986E-06	-3.62599095065463E-06	0.980245501461178	-0.177161000490837
7.7	0.94822919087666	-0.271382891522819	5.56222621150977E-06	2.40969165380379E-06	-6.82594770073348E-06	1.20247422554872E-05	0.979753044994165	-0.180235354565809
7.8	0.906817278440306	-0.388610470640956	-6.07471352400019E-07	-5.23566383142377E-06	3.73331411430752E-06	-4.72666804186785E-06	0.979568522901408	-0.183215269254549
7.9	0.850900504176776	-0.499731352332758	8.83855656193201E-06	1.5364570124944E-06	-9.51367337079033E-06	-8.6365521050385E-06	0.979391070293691	-0.186160425761747
8	0.781909580569593	-0.603159600238102	-6.64920068987865E-06	-1.6370865397775E-06	-1.20015536509733E-05	2.47895237047884E-06	0.979524598415612	-0.188834622678318
8.1	0.699520842048994	-0.697377380212054	5.07302757720512E-06	7.34403626028151E-07	2.88891509355875E-06	2.26303137818904E-06	0.979302322115526	-0.191962087161366
8.2	0.60602305760312	-0.779625730103916	3.56389441212927E-06	-2.57237941404715E-06	-3.67407839013512E-06	-1.16115269236249E-05	0.978918701162189	-0.194570499830407
8.3	0.502945542094169	-0.849322877915891	2.72678082233963E-06	-1.85601617117299E-06	1.63590133173673E-06	5.28979448951503E-06	0.978283253771954	-0.197353693346008
8.4	0.392058210355887	-0.905324589238004	-5.54908251435021E-06	-1.01960836015355E-06	1.05436867096239E-06	2.94952546362843E-06	0.977498036364621	-0.200064083243405
8.5	0.274801817675042	-0.947233740872655	-3.28645815819957E-06	1.62259559342678E-06	-4.7871175089959E-06	-5.00025820555264E-06	0.976833545575662	-0.202891592625277
8.6	0.152432888819812	-0.974074009571309	-8.13507027566678E-06	1.38325769200099E-06	-4.33693301182799E-06	-6.85840724347711E-06	0.9762111609428	-0.205647118770343
8.7	0.0276780202409289	-0.984936316440025	2.24493974248721E-07	-2.14553150224408E-07	6.11517204832263E-06	5.08982877919512E-07	0.97562261517443	-0.208179218435535
8.8	-0.0972232361581204	-0.979805695628679	1.02381275523875E-06	-1.81760226828674E-06	-2.38980148784773E-06	-1.27947171504416E-06	0.975136218878339	-0.210388901617153
8.9	-0.219828102329016	-0.959644892681266	-3.00621118607753E-07	3.03395293367681E-06	-1.23379047071079E-06	-1.64078866927079E-06	0.975060953233262	-0.212426117639086
9	-0.338320524399218	-0.923918697222108	2.97625144283542E-06	1.5859501535872E-06	-1.5737973711508E-06	2.11401437408254E-06	0.974937802247808	-0.21476401974763
9.1	-0.451058524061837	-0.874285182760768	-9.30387139846625E-06	2.26369583490921E-06	-1.5626598702128E-06	2.40755223553452E-06	0.974700694823828	-0.217002295144303
9.2	-0.557090814465864	-0.811096482325917	7.498002520243E-06	-2.31123353935474E-07	-9.09891664497469E-06	1.96391989136152E-06	0.974280890942513	-0.219700460986906
9.3	-0.654301122108716	-0.735563251451276	8.10934256199258E-08	-7.15672186858484E-06	1.5859373818164E-06	-1.29807639854303E-06	0.973862160399224	-0.222388851038698
9.4	-0.741590218406898	-0.648657404459339	5.96904370684069E-07	2.48160226243814E-06	1.61836682933684E-06	-3.59304805273145E-06	0.97304987742266	-0.225479332911974
9.5	-0.817757745289493	-0.551391549511868	-2.87705156518064E-06	6.63776591774704E-06	4.72273927989831E-06	-1.36260989344893E-06	0.972125730235612	-0.228197020263944
9.6	-0.881840665334346	-0.443714851914945	-5.0196872548844E-06	-5.20946924012109E-06	4.75849770243927E-06	2.8864779239223E-06	0.971417791119012	-0.231299426583409
9.7	-0.931027267075376	-0.327928077681398	-1.99914091933984E-06	-5.07681187366354E-06	2.09763253252885E-06	1.17382144566058E-08	0.970584869073611	-0.233903047512796
9.8	-0.964998087711732	-0.206620824325084	5.94817473400693E-07	-4.28678406313257E-06	-2.94141268297939E-06	-2.51981393184247E-06	0.970046093630336	-0.235889098242532
9.9	-0.982751338051162	-0.0822139402322477	-6.11582949953155E-06	4.20925170505151E-06	-3.08509112394128E-06	1.66497830404094E-06	0.969513265741811	-0.237501347364714
10	-0.985239130809355	0.0420565509708329	3.5723989090661E-06	-4.09459058180532E-08	8.22755723023971E-06	1.11060456668696E-05	0.969611152659314	-0.239071459383313
10.1	-0.972532349876305	0.166179246594024	-2.85778445722364E-06	-2.5242241775222E-06	-2.00895488162214E-06	-2.49906157215859E-06	0.968864022808035	-0.24120763009544
10.2	-0.943994265315359	0.288221314689558	2.35801980627508E-06	-1.0205583680601E-06	-2.76889072745849E-06	-1.06820895960171E-06	0.968187864738742	-0.242536412132284
10.3	-0.900041300316039	0.405533884359874	7.76731364730204E-06	-5.95059289406635E-06	3.85893950095092E-06	8.23786275248825E-06	0.967528041115392	-0.244123920393737
10.4	-0.842334986340079	0.515920565854489	1.7071295305862E-06	2.51628507638162E-07	6.28229948146271E-06	-1.18551714493438E-06	0.966852489516292	-0.245888870359954
10.5	-0.771691367195596	0.618831964854713	8.36069812423422E-06	-4.14540014283197E-06	-4.95214099779139E-07	1.97485128624784E-06	0.966602291687812	-0.248400888535691
10.6	-0.688176274623406	0.711424268641852	8.94548672554396E-06	-1.27323438823036E-06	-1.47469158816358E-06	1.36567417194145E-05	0.965887486997453	-0.251273422601877
10.7	-0.593269793503214	0.792293676487467	8.02309879885055E-06	-1.90782100524352E-06	-3.05844172490434E-06	-5.28486460524137E-06	0.965321337844479	-0.254072983302739
10.8	-0.488454916253738	0.860745929373592	2.45536827226333E-06	5.25044596732295E-06	-3.63068727807291E-06	-2.03474876547158E-07	0.964629116536949	-0.256470909518255
10.9	-0.375388918061602	0.915240404734967	-5.56122893651983E-06	4.89485278226994E-07	1.60075365547225E-06	4.02941512362604E-06	0.964077568901215	-0.258695976080008
11	-0.257556220557907	0.954515561655574	1.16919679216939E-09	-5.22245202995557E-06	-8.38021189563529E-06	2.23514287875228E-06	0.963357531183069	-0.260855876187931
11.1	-0.13591048512813	0.980447503082765	6.31268710677057E-06	4.08998158473154E-06	-1.90320716722688E-06	1.07638380636643E-05	0.962087965417795	-0.262814725804683
11.2	-0.0111980412471825	0.990558163843525	1.57954803101764E-06	1.35562377679696E-06	5.14067006331975E-06	8.90672924179747E-06	0.960621564556792	-0.264454409920118
11.3	0.114068931989108	0.983974115870195	-4.62569303964718E-07	-1.7383857247861E-06	-6.99122183721005E-07	-4.39806231856043E-06	0.959587277883802	-0.265838884408377
11.4	0.237218438405161	0.961758517358034	2.24638108250333E-07	1.18680115739585E-05	2.42455970499222E-06	4.9323269973198E-06	0.958417670658244	-0.267876851677167
11.5	0.356470157285798	0.92429530140724	6.19841584591706E-06	-3.26247905028367E-07	3.16486342758879E-07	-1.88322990161513E-06	0.957683572889394	-0.270027227025376
11.6	0.468973050980949	0.872449284010891	-6.00532187208154E-06	3.07609968024158E-06	-4.87048070778506E-06	1.91825413182943E-06	0.95666550865193	-0.273573993418564
11.7	0.574043065528275	0.80731990254778	3.32659251167065E-06	-1.79698938401007E-06	-1.7061693595697E-06	2.23770967715599E-06	0.955301538587784	-0.276888574977687
11.8	0.669970869145194	0.728878183571095	-8.19398256021151E-07	9.79279886844398E-06	-2.71453325219936E-06	1.05373978295172E-05	0.95424672327786	-0.279911636780801
11.9	0.754007382822144	0.638554046986974	-7.2923297949934E-06	-1.03746845057265E-06	-3.91025245082763E-06	1.12432223166346E-05	0.95421592117601	-0.281814980837727
12	0.825943872753821	0.539963807021643	-6.45352504310378E-07	1.38162720484484E-06	-3.13556472110354E-06	-1.92689950411784E-06	0.954840633107226	-0.284662403129986
12.1	0.88671853058758	0.433142192221275	-3.88010219426052E-06	4.98773724089462E-06	-1.3406382284651E-06	8.41621707118671E-06	0.954015493605976	-0.287977369307386
12.2	0.93341964990488	0.319091958662118	-5.75849155785527E-07	-3.79900654113614E-06	-3.11436303733757E-06	-7.31945459233777E-07	0.952990739106372	-0.291063191805924
12.3	0.965671293525409	0.200701331511602	3.59668444228839E-06	3.43471445215905E-06	-3.43869923476408E-06	6.26730720939722E-06	0.951810836968016	-0.294059125804927
