# GHZ S RI R 50
0.2	-0.965868431884637	0.251592338632959	8.82278713467456E-06	5.31983976575614E-06	1.13642079924701E-06	-2.8895625811409E-06	0.999590723468268	-0.00696215897530705
0.3	-0.926347851979739	0.371409608046268	-7.66167871343457E-06	-8.18192392169874E-07	-1.41466146273585E-08	3.65916940723236E-06	0.999469363577077	-0.00995480970782403
0.4	-0.871533719529093	0.485107336402299	-2.19683415070327E-06	6.33865055510507E-06	2.92010669236808E-06	5.73481837423621E-06	0.99931606740369	-0.0127210748486041
0.5	-0.803164898142746	0.590960776509381	-2.64788467273207E-06	5.49075316662533E-07	1.05168329133366E-05	4.88156536436923E-06	0.998816208039265	-0.0157505280596227
0.6	-0.722031862447512	0.687288652411039	-1.72467453862488E-06	-1.82769007332126E-08	4.16185465191702E-06	-1.03324842221089E-05	0.998930757578583	-0.0184034528285462
0.7	-0.629511992093074	0.772702040006136	-2.04628659947624E-06	9.88003147374943E-07	3.78223120936267E-06	1.11563124446352E-05	0.998634441740088	-0.0213168731202593
0.8	-0.526920707622404	0.845810026333607	-5.60344449480729E-06	3.78063109542122E-06	-3.16676215551313E-06	-2.13828155145082E-06	0.998464033028119	-0.0234284624226551
0.9	-0.416199147973964	0.905201833280399	-6.68456809447701E-07	5.24860521277029E-06	3.26535911022921E-06	-2.94660269352863E-07	0.99855515270216	-0.0258696378931422
1	-0.298424280733752	0.950212628968652	1.56792713667986E-05	-3.68983244489273E-06	-9.59509887573878E-06	5.29415288659692E-07	0.998204447774885	-0.0278807916981167
1.1	-0.176968849141548	0.979754865696026	1.34058994877885E-06	-2.98079489488091E-06	9.39431785213057E-06	1.25874357348773E-05	0.997638383557711	-0.0299100351548173
1.2	-0.0519222527974832	0.993813906903753	-7.90307710503417E-06	-3.25439219810611E-06	-3.09643447993941E-06	-4.47425549827203E-06	0.996736434153106	-0.0310191027779145
1.3	0.0738049112511143	0.991964450442318	1.78912832008328E-07	3.33047668525854E-06	1.9270587450591E-06	3.4039095793088E-07	0.996477673991647	-0.0318421468652195
1.4	0.197900149130762	0.974415353484312	2.22669914306585E-08	3.76283852045375E-06	-2.52423745126578E-06	-5.60814554960777E-06	0.99619221026599	-0.0336376119600279
1.5	0.318898112848501	0.94185060479255	3.18292111125526E-06	-2.65761352904772E-07	2.69842683610352E-06	2.0923489802914E-06	0.996624959864489	-0.0369828342593573
1.6	0.434794226783887	0.894601802712251	1.78649071068282E-06	-1.93642299698317E-06	-8.91399341882659E-07	-3.06045324281E-06	0.996311610009686	-0.0400105854580475
1.7	0.543708458983635	0.83270372266326	-8.36812037233546E-08	-3.52180967579987E-06	2.0010339294088E-06	4.92318422221825E-06	0.996957915047944	-0.042451495908478
1.8	0.643783295721754	0.75804943146068	-2.05507405270803E-06	-1.81403997022998E-06	-4.64716672910868E-06	1.83034527629927E-05	0.997051431255302	-0.0451944732806046
1.9	0.733739243749699	0.671495628915831	-4.38774380695094E-06	-1.46872812891351E-06	-4.92104872062069E-06	-6.00371216060716E-06	0.997110276332198	-0.0477158101924848
2	0.81186494470175	0.57384822446293	-9.46745289857937E-08	-6.73665354444623E-07	-1.66701070879134E-06	-1.41691223791895E-06	0.996013081536942	-0.0508672811919068
2.1	0.877312300217092	0.46697385825491	-1.14398845273672E-06	9.43637591954098E-06	1.99228045635102E-06	-3.78907749159873E-07	0.995492746876819	-0.0523641430125518
2.2	0.928942077566882	0.353261829024508	-1.88502157092275E-08	-5.92314068326864E-06	-7.37823360090935E-07	2.73390782868148E-06	0.995761772371329	-0.0544863195631081
2.3	0.965779323676994	0.233731749632798	-1.31603534479197E-06	2.7620364136513E-06	-2.79042244285634E-07	1.19606629911566E-05	0.995693731245657	-0.0562639256463369
2.4	0.987316299865118	0.109691687241851	-5.86383329749495E-06	-3.70943661513492E-06	-1.75889307984449E-05	1.44961722580554E-05	0.995848523587811	-0.0594662721593132
2.5	0.993465145335487	-0.0151501534161118	1.82143206490063E-06	-2.95960117488853E-06	-1.79848406873863E-06	7.54269780531178E-06	0.995369569346966	-0.0620056887244896
2.6	0.983766457563842	-0.13897653094443	2.86137039273755E-06	9.20742389817962E-07	-1.75382536400745E-06	4.50112295938999E-06	0.995059518072541	-0.0648632900130147
2.7	0.958279961154192	-0.261032707433795	3.81891608117265E-06	1.04431423709646E-05	2.32097116595091E-06	3.86776270857194E-06	0.994457683900251	-0.0677254923685053
2.8	0.917875904309488	-0.378885096293976	-8.12259955813955E-07	-2.29187869185756E-06	2.19963801970667E-07	-1.88684631099158E-06	0.994514807393458	-0.06945268681484
2.9	0.863492941316791	-0.490327193973977	3.76919227431368E-06	-8.30926890003052E-06	-1.26486605298692E-06	-1.42161714122366E-05	0.994349826961883	-0.0712897287986527
3	0.795620559273821	-0.594626735305449	-1.8296624083652E-08	6.64488707856451E-06	-1.47651782543087E-05	5.28666880595136E-06	0.994296847575279	-0.0737472345967657
3.1	0.716255821724569	-0.688699083716938	-4.98921348701602E-06	7.81308670495402E-06	5.80491381532222E-06	-7.90723322196813E-08	0.993991247726264	-0.0755734434957067
3.2	0.62393710989752	-0.773424684844817	9.56853423553214E-07	2.12589825543016E-06	-4.55919079659243E-06	4.71746790827566E-07	0.993847824524611	-0.0771439956897881
3.3	0.521993667374421	-0.845804135161978	7.21556122691264E-07	-1.45791673569928E-06	-4.5809851515488E-06	7.23699557498124E-07	0.993824745068166	-0.080229513901087
3.4	0.411476860799449	-0.904770590955687	6.46975816571611E-06	2.48135707885476E-07	-8.12180760784915E-06	-7.1977055222961E-06	0.994208658011466	-0.0822023751716924
3.5	0.293889181913109	-0.94991880670678	-7.70690119458079E-06	1.95165572253267E-06	-5.89470512381934E-06	-7.99648728548546E-06	0.994172959939782	-0.085562361628408
3.6	0.170836205125988	-0.978880170567243	-8.52776152086064E-07	-4.38342984796066E-06	-7.81210371699609E-06	-6.3412542677842E-06	0.993466742827069	-0.0878665250463968
3.7	0.0460781362235753	-0.992912707339927	-6.70908160048514E-06	-6.77868679018479E-06	5.33405524648216E-07	-4.76423471346626E-06	0.993590177001544	-0.0902577915213432
3.8	-0.0798916804967499	-0.990757908956053	-3.64611447894725E-06	1.07918110039416E-06	-3.29490671448783E-06	-2.4701482117116E-06	0.993670410854593	-0.092337071229684
3.9	-0.203904703995058	-0.972590116377485	-4.83097295926611E-07	3.50905019975063E-06	2.05560147380859E-06	-1.21796260461573E-06	0.994184024040359	-0.0960818105050131
4	-0.324534827551753	-0.938946419771846	1.16734668772493E-05	8.12771900787628E-06	7.26921569417002E-06	-4.03533541747085E-06	0.992995025993635	-0.0984282972076032
4.1	-0.439352722857656	-0.891080918270502	5.21698294966739E-06	1.33043415584668E-06	-3.46717756161998E-06	6.64878748631199E-06	0.992292121579663	-0.0994605342399698
4.2	-0.547593099783112	-0.829546610629195	-7.09983824594588E-06	-1.21123847448654E-06	-8.26988901425248E-06	-5.21675657369298E-08	0.992019006714837	-0.10183927315207
4.3	-0.647485370349045	-0.754252114112212	7.05659820067333E-07	-2.36856457527723E-06	5.21500655074675E-06	8.87347632472283E-07	0.992083682737662	-0.10382117249229
4.4	-0.73714318551674	-0.666397639457483	4.47743379774066E-06	-1.77068307684766E-06	-8.70215257002925E-07	1.34661624215328E-06	0.991679219384614	-0.106338970823609
4.5	-0.814647852805555	-0.567792735780512	6.78434109189324E-06	1.87484663910395E-06	-8.01345421474055E-07	-3.25875259877843E-06	0.991344725239151	-0.108308192640297
4.6	-0.879475947943109	-0.46068531158182	2.45294506986251E-06	2.95499704407664E-06	-6.60100731097734E-06	9.74148140221677E-06	0.991278704594545	-0.110877237593137
4.7	-0.93032604799935	-0.345426459710217	-1.40606601679454E-05	5.90118196104842E-06	-3.46274514889411E-06	-3.86319750960156E-08	0.99131304068794	-0.112999026295199
4.8	-0.966111189538815	-0.225187808296887	-3.15475355691408E-06	-5.14741214401676E-06	-5.52741015683708E-06	2.35800937646318E-06	0.991019256716503	-0.115467734034059
4.9	-0.985870007009583	-0.10214868659914	-1.00635392236941E-06	-8.55377015500837E-06	-4.22243944073251E-06	7.32655148383245E-07	0.990896898840777	-0.117263917845819
5	-0.991377301568014	0.0212423569501836	7.55964044312218E-06	-1.55474541447635E-06	-1.74751542107251E-06	-2.72766110948369E-06	0.990982991654321	-0.119129051545883
5.1	-0.981162206781219	0.147121729606609	-2.59296547063095E-06	-6.40610463636786E-06	-1.00649309497131E-06	-1.9571727728384E-06	0.991065604823638	-0.120658185139571
5.2	-0.955177976711586	0.269442664954899	4.00330551849022E-06	-4.30559568133043E-07	-5.45616009106606E-06	6.30708604727603E-06	0.991067419243977	-0.12309556360756
5.3	-0.914361468623898	0.387731131790921	5.13895922328432E-06	6.02400327523639E-06	-9.56895991396452E-07	-3.59319654327985E-06	0.990929083384804	-0.125718055291714
5.4	-0.858711380802081	0.500305702841617	3.07035837132447E-06	-2.01719143141809E-06	-1.13383688997698E-05	2.19268943507509E-06	0.990995307479767	-0.128795286480038
5.5	-0.788196559795717	0.604512794382138	-4.32383933013836E-07	-2.19865529252402E-06	-5.80022164703566E-06	6.13526402074264E-06	0.99055515577321	-0.13236156389242
5.6	-0.705364064649157	0.698082813245122	2.38136014638662E-06	7.31484902553212E-06	-5.39464419884302E-07	2.93319534656961E-06	0.98968602145531	-0.134631349531179
5.7	-0.612135038205315	0.781303327298292	-2.5764112259188E-06	2.36350561438178E-06	7.92219425973114E-06	2.78629796512325E-06	0.989664073160159	-0.136759679073063
5.8	-0.508833529215989	0.851922864501155	-4.65865555984721E-06	5.11193476542974E-06	-3.68181005504395E-07	3.42853204532259E-06	0.990018373402335	-0.139036184323425
5.9	-0.397364704505895	0.909589327344664	6.37302160960543E-06	1.50109858252945E-06	-2.71727598776563E-06	2.55358107086692E-06	0.990363470545326	-0.142175300338616
6	-0.278973892706965	0.951501006817652	3.53417131409898E-06	3.2994824302405E-06	-3.30940168243236E-07	-1.43584461477883E-06	0.988715124987701	-0.145179814498183
6.1	-0.157854201171898	0.977915154471935	9.18490789725002E-06	1.51383508140731E-06	-1.29934049357429E-07	-1.8097563492259E-06	0.988029798143116	-0.145594738991197
6.2	-0.0337879079258179	0.989624834538515	2.4388856420034E-06	-1.73377204912932E-06	1.47547017364008E-06	-4.84961384467335E-06	0.987839831204528	-0.146902266987784
6.3	0.0909602628234664	0.985804888749689	-4.35618250546653E-06	4.25143901088193E-06	-6.17441275900123E-07	-1.72490081359443E-06	0.987417995653922	-0.148893018084457
6.4	0.214304009795144	0.965899756399023	-4.26216783321836E-06	1.07517813978583E-06	-1.74940241532629E-06	8.84309798916036E-06	0.986784578707696	-0.151225035838973
6.5	0.332529953355104	0.930874681318256	2.44927250399041E-06	-1.32946102136678E-06	1.48578099633816E-06	-2.92643799382649E-06	0.985889058269643	-0.153131867639568
6.6	0.446637730584877	0.883076217865978	-4.73204171523227E-06	-2.25887602527761E-06	-1.85866528641904E-06	-6.64022298323485E-06	0.986726085289115	-0.155339839270147
6.7	0.554083219540125	0.820158739805492	4.16425534643517E-06	-6.5749508375166E-07	-4.67788222459037E-06	1.00732199684578E-06	0.986833842834152	-0.158142184757293
6.8	0.652569475720085	0.744405062841622	3.76050769159471E-06	-2.07815038509786E-06	6.2180522023921E-06	-9.19168841875402E-07	0.986561760652838	-0.160662949085353
6.9	0.74089103150225	0.656924119010625	2.049415413155E-06	1.64339012242801E-06	8.79255130530432E-06	-2.75565102175801E-06	0.986506207945567	-0.163170180305851
7	0.817145609753727	0.558520707327539	2.17733652714252E-06	4.09910824184736E-06	-9.01557050182612E-08	5.38798994059532E-06	0.98535847067346	-0.16557971541559
7.1	0.880127202129072	0.45247150313654	-1.32733099264311E-07	1.71745131806873E-06	8.25915522339359E-06	-4.64639426173626E-06	0.984582062798645	-0.166659649228414
7.2	0.929747185227506	0.339087720640856	4.84825845008007E-06	-1.3915654231352E-06	7.25532377877517E-06	3.78450398221935E-06	0.984225855122089	-0.168083569306945
7.3	0.964617860183627	0.220390384594882	4.86273960502326E-06	-1.10336182093116E-06	-7.33381177204905E-06	-7.38936020532969E-06	0.983642670087275	-0.169485437335511
7.4	0.98528620922286	0.0978304221056959	-1.8620015625721E-06	9.90053141490707E-06	1.44296603526673E-06	-4.06966416003106E-06	0.983891081875862	-0.171552664933109
7.5	0.990292415130563	-0.0285202273303827	8.41823379743577E-07	8.09460255064837E-07	1.67690264731351E-06	9.97575502022122E-07	0.983810523117799	-0.175871521549128
7.6	0.977525095020777	-0.15328779089786	1.45602959695683E-06	-2.62117188241755E-06	-5.43353828669331E-06	-3.630206952289E-06	0.982115501971205	-0.179031382675354
7.7	0.950408886440509	-0.275409811501848	5.58568942717078E-06	2.40726701620434E-06	-6.82619042192383E-06	1.20785470527117E-05	0.981824746428843	-0.182221820920803
7.8	0.908310840040244	-0.393461140617897	-6.23621834842243E-07	-5.25234685721296E-06	3.73370799174812E-06	-4.75319966882691E-06	0.981850674220972	-0.185902466759002
7.9	0.85093155438872	-0.505466793943082	8.8733952457062E-06	1.50499988370397E-06	-9.57994053286506E-06	-8.62521502919818E-06	0.981506875577944	-0.190338621443656
8	0.778171147468826	-0.607479606498624	-6.65948780797976E-06	-1.598742847591E-06	-1.1988625836561E-05	2.5488135801349E-06	0.978492421588446	-0.194264872629944
8.1	0.69737194205066	-0.697898026281375	5.06631725771178E-06	7.17922259706573E-07	2.89061823080671E-06	2.25040583641486E-06	0.977362530176642	-0.194765951384338
8.2	0.605759529655179	-0.779861851761388	3.55446355529129E-06	-2.57424208165188E-06	-3.68716898775781E-06	-1.15883286350652E-05	0.977474820296006	-0.196624429204046
8.3	0.503709121745414	-0.849897622197758	2.72174413572907E-06	-1.85607491600452E-06	1.63847558806164E-06	5.28174056883577E-06	0.97704620069714	-0.199139953480199
8.4	0.393297075693458	-0.906582160358304	-5.54377740394457E-06	-1.01711361438007E-06	1.05409085345336E-06	2.94628264377452E-06	0.976249570635705	-0.201740662682959
8.5	0.275350907578397	-0.948592250068747	-3.2856460543766E-06	1.62283834047148E-06	-4.78709421025742E-06	-4.99865751824728E-06	0.975368175970019	-0.203948694899536
8.6	0.153888465756297	-0.974446851330137	-8.12979726464331E-06	1.38874892570095E-06	-4.33991871189675E-06	-6.85154195833745E-06	0.975454716263614	-0.2063386026798
8.7	0.0303625586955755	-0.985851264879419	2.24165174727325E-07	-2.14435660381735E-07	6.1091257198026E-06	5.05659218303337E-07	0.975204684639373	-0.209035267890045
8.8	-0.0938735314911519	-0.981689669347616	1.02261692240841E-06	-1.81512077125866E-06	-2.38654441204258E-06	-1.27798724694739E-06	0.974861516811518	-0.211367728780227
8.9	-0.215788159445475	-0.962717996190327	-3.0377436209577E-07	3.02864445156598E-06	-1.22980810970129E-06	-1.63959469104641E-06	0.974834802089867	-0.213483895740947
9	-0.334883489920519	-0.929734325363307	2.97112600059539E-06	1.59460806095476E-06	-1.57988711104343E-06	2.10904065902796E-06	0.974679887079221	-0.215870934960526
9.1	-0.449756299331259	-0.880376847259957	-9.32187803651616E-06	2.24503838570755E-06	-1.57042384237176E-06	2.40718909667185E-06	0.974316867630145	-0.218028033954292
9.2	-0.557047663413207	-0.81699034517085	7.51264540205324E-06	-2.17379195061263E-07	-9.11987010683268E-06	1.95043065270509E-06	0.973725702268283	-0.220517325159617
9.3	-0.655388030052654	-0.740619023156216	9.07461446473579E-08	-7.17334745462406E-06	1.59136179900306E-06	-1.29901433593577E-06	0.973292992687955	-0.222720670602352
9.4	-0.743467883356143	-0.652600476008448	5.97271595228242E-07	2.48922448535218E-06	1.62512694397948E-06	-3.6026975344082E-06	0.973123055324194	-0.225389871631088
9.5	-0.81984661397778	-0.551779358495426	-2.87062209855893E-06	6.66177618711196E-06	4.73254190875164E-06	-1.3763621096967E-06	0.972471358573234	-0.229022425779123
9.6	-0.879328462126855	-0.4433815182859	-5.03168988881932E-06	-5.19609307414292E-06	4.76479178227493E-06	2.87416760948951E-06	0.97132092648976	-0.231742060568275
9.7	-0.926985065607638	-0.330083369433854	-2.00458221978256E-06	-5.0685971944569E-06	2.09547787075948E-06	8.62252908752853E-09	0.970972713567665	-0.234157459433504
9.8	-0.961325473841847	-0.21064334846528	5.90359503017561E-07	-4.28265329989927E-06	-2.94045583569595E-06	-2.51445972312748E-06	0.971022014025492	-0.236463507110357
9.9	-0.980489971227659	-0.0870910899472397	-6.10853203220868E-06	4.2110930748029E-06	-3.08175902778288E-06	1.66621383594553E-06	0.970733199339943	-0.239435934068763
10	-0.984157967118663	0.0381618035175995	3.56937505870215E-06	-4.48199818452251E-08	8.23284626246102E-06	1.10877832491197E-05	0.967951578703043	-0.241316004513068
10.1	-0.970504236523005	0.162899174236361	-2.85808435385833E-06	-2.51961568208443E-06	-2.00985981482465E-06	-2.49528485168269E-06	0.967865368450963	-0.240802127119984
10.2	-0.941466300377849	0.28436425550145	2.35463709072504E-06	-1.02269086491809E-06	-2.76783028074731E-06	-1.06371351557246E-06	0.968455451547483	-0.242306661717451
10.3	-0.897350499498521	0.401199568055202	7.74680739949106E-06	-5.95415138861254E-06	3.86625072162568E-06	8.21994747523019E-06	0.968145576871381	-0.244655929073716
10.4	-0.838758285055562	0.511101924824636	1.70287414825159E-06	2.47908045286852E-07	6.26289491708412E-06	-1.19339322525001E-06	0.96688940184054	-0.247504505834502
10.5	-0.768022191993909	0.610891044444133	8.32432633686008E-06	-4.12509075860657E-06	-4.93437547166791E-07	1.96593793416434E-06	0.964980117919688	-0.249705262335507
10.6	-0.686288199090727	0.702718660377452	8.91785973348627E-06	-1.25627583270153E-06	-1.48932955191542E-06	1.36096854859021E-05	0.964474899249215	-0.251839359447013
10.7	-0.592589931333871	0.783490708524891	8.00257832045793E-06	-1.891170746602E-06	-3.04227088646846E-06	-5.27384951352153E-06	0.963127455737134	-0.254310178903571
10.8	-0.488414118917896	0.851820033860329	2.44069507003922E-06	5.23864906348163E-06	-3.61980890310925E-06	-2.08076965716512E-07	0.962277712995723	-0.25554442740924
10.9	-0.376513567560239	0.906390160538671	-5.54771009468279E-06	4.76698945157443E-07	1.58823316734778E-06	4.02219840039381E-06	0.962053686590064	-0.256806070183167
11	-0.258634239431489	0.947574351017197	9.2830934741836E-09	-5.21742455209599E-06	-8.37562059091457E-06	2.21997018307821E-06	0.961699665866182	-0.257690382660712
11.1	-0.134912292718739	0.971592798997901	6.30180901942894E-06	4.08322141024968E-06	-1.90031267582204E-06	1.07454524903389E-05	0.962265930522637	-0.258546872830281
11.2	-0.0118876627061058	0.979238068637578	1.57522980756661E-06	1.35213673079674E-06	5.12625744551584E-06	8.88340047209646E-06	0.962461328258567	-0.260345152710352
11.3	0.110313698766933	0.972073332248669	-4.5999416794409E-07	-1.73285825558122E-06	-6.94179686022042E-07	-4.38379847211083E-06	0.962725516276531	-0.262394808507024
11.4	0.23079516988609	0.950961030702646	2.06206050148254E-07	1.18258775327667E-05	2.40855755679378E-06	4.91827881957018E-06	0.962967315918357	-0.265581173821693
11.5	0.348799490718013	0.915263095728809	6.18145480097333E-06	-3.15806468827804E-07	3.1848784922212E-07	-1.87743824336316E-06	0.961503117422522	-0.270198052920096
11.6	0.460249482011205	0.864880228320692	-5.9898716312716E-06	3.05720073420462E-06	-4.85711471968106E-06	1.9048378103939E-06	0.959393733715667	-0.272937451567222
11.7	0.564481418484057	0.801963487912121	3.3194360697161E-06	-1.78441372694118E-06	-1.70516630061335E-06	2.22698766844171E-06	0.958865110372289	-0.276342909941497
11.8	0.660937059460159	0.72646649569495	-8.41717912750593E-07	9.76623151739047E-06	-2.73395929150582E-06	1.05042489270587E-05	0.958369638209987	-0.280539132950757
11.9	0.748361712975951	0.638299708933421	-7.28343291738355E-06	-1.05002611136588E-06	-3.92740536786288E-06	1.12252119428708E-05	0.957539135267902	-0.284787649831948
12	0.822600373417727	0.536967520694804	-6.43969221158378E-07	1.37859109820976E-06	-3.12866478343087E-06	-1.92274877942689E-06	0.953022106336483	-0.287248980914773
12.1	0.883173422098475	0.429927905496183	-3.87881362663E-06	4.97104364793722E-06	-1.34997198383181E-06	8.39565594943744E-06	0.952257101352373	-0.286123865492075
12.2	0.930409159130908	0.315093589653961	-5.7080422555463E-07	-3.79395678409122E-06	-3.10889749458004E-06	-7.34279824552672E-07	0.952435695045935	-0.28769607949705
12.3	0.962229425505491	0.195846437999827	3.58804908374629E-06	3.43050951032121E-06	-3.43605652190145E-06	6.25375642973214E-06	0.951983721176337	-0.289934888364574
