# GHZ S RI R 50
0.2	-0.965482162238484	0.251769258506964	8.81988562351572E-06	5.31405743807403E-06	1.13484874134959E-06	-2.88840919995095E-06	0.998926567787764	-0.00736059610589916
0.3	-0.925810917688774	0.371557694374317	-7.65653674632506E-06	-8.1515357612663E-07	-1.29609754332933E-08	3.65659263242382E-06	0.998660842305547	-0.010283622928865
0.4	-0.870843304750975	0.485128212357369	-2.19337800109133E-06	6.33356408992733E-06	2.91888978713282E-06	5.72904601935559E-06	0.998405616576249	-0.0129248339486686
0.5	-0.802442041746839	0.59070133549625	-2.64536860246028E-06	5.48487389065964E-07	1.05066703676745E-05	4.87715458763109E-06	0.998035460011389	-0.0156723797397949
0.6	-0.721449866625961	0.68693753802962	-1.72341986328567E-06	-1.83156258259522E-08	4.15913991732152E-06	-1.03248452746209E-05	0.998574124237049	-0.0185642058121913
0.7	-0.628936937314442	0.772253294133458	-2.04457490692519E-06	9.87514494045504E-07	3.78080539379783E-06	1.11471951063531E-05	0.998201772916841	-0.0219056724890621
0.8	-0.526414391506553	0.845199733534058	-5.59750485384631E-06	3.7783507393966E-06	-3.16431083612922E-06	-2.13564981061995E-06	0.997754253832036	-0.0242934571904458
0.9	-0.415837665807084	0.904444806010184	-6.66376533574093E-07	5.24283099464258E-06	3.26158758954508E-06	-2.95149983512333E-07	0.997372193175281	-0.0268794239240159
1	-0.298288587281533	0.949344523084783	1.56555352003715E-05	-3.6852576752355E-06	-9.58067889684324E-06	5.29207731077566E-07	0.99639128414548	-0.0284517980430784
1.1	-0.177145746360914	0.978931483831815	1.3400773603171E-06	-2.97578207045647E-06	9.37445474678106E-06	1.25735851527302E-05	0.996089814807635	-0.0297074078317062
1.2	-0.0523299017636987	0.993222524170608	-7.89183403457309E-06	-3.25761538281047E-06	-3.08931143371949E-06	-4.47208636805359E-06	0.995816078956595	-0.0305169616076833
1.3	0.0733507130775109	0.991629729399921	1.75423692670453E-07	3.32882631233213E-06	1.92565187810443E-06	3.42165568137851E-07	0.996302649058379	-0.0313961004985484
1.4	0.197485017787416	0.974062324914409	1.88149655795082E-08	3.76193031843838E-06	-2.51847779771671E-06	-5.60907361327635E-06	0.996342515842419	-0.0335760506143192
1.5	0.318235057631678	0.94126967737528	3.18209621237517E-06	-2.62898489164181E-07	2.69570713220228E-06	2.09400672163098E-06	0.996705399541892	-0.0369608168018815
1.6	0.433842626481706	0.894004910339192	1.78735898781763E-06	-1.93456489073025E-06	-8.88931576761997E-07	-3.06019295554123E-06	0.996444775598362	-0.0403550797479447
1.7	0.542501721817885	0.832115177174754	-8.20308036691363E-08	-3.52020411607448E-06	1.99784740828067E-06	4.92180180460011E-06	0.996652840392182	-0.0430763565020535
1.8	0.642311656100547	0.757484673769565	-2.05315757976719E-06	-1.81318866239927E-06	-4.64798274989796E-06	1.82890291419882E-05	0.996274466533186	-0.0458557469834339
1.9	0.731882206714242	0.6709026426018	-4.38257018155513E-06	-1.4670426645642E-06	-4.91520491003016E-06	-5.99669893413588E-06	0.995793641860234	-0.0482613305584121
2	0.809219637753678	0.573648847013729	-9.42439481380136E-08	-6.72428473231923E-07	-1.66333287041835E-06	-1.4148593390806E-06	0.994297626485337	-0.0506077815320226
2.1	0.874589273525851	0.46763485908446	-1.15080591953306E-06	9.41902726283616E-06	1.98919570716049E-06	-3.76397806335117E-07	0.994420743822195	-0.0516886778561573
2.2	0.926293165461475	0.354418132617777	-1.27344359004372E-08	-5.91365791138328E-06	-7.3944857967687E-07	2.72876393174154E-06	0.994958300831826	-0.0539787507041569
2.3	0.963197098688704	0.235375876029083	-1.31709758385563E-06	2.75609132780368E-06	-2.92340208963147E-07	1.19411473229121E-05	0.994871345648381	-0.055862606024523
2.4	0.984863861336487	0.11179124936671	-5.84960170407642E-06	-3.71144085820905E-06	-1.75805929347775E-05	1.44497035258651E-05	0.994863118913046	-0.0589280113323299
2.5	0.99103927254058	-0.0125553349665852	1.82287447486698E-06	-2.95239218774883E-06	-1.80656509068433E-06	7.52842212149882E-06	0.994500592288014	-0.0609094970596023
2.6	0.981632041680403	-0.135595807294853	2.85494336010415E-06	9.24225475195967E-07	-1.75879121720576E-06	4.49047585259913E-06	0.994752944931641	-0.0635428184278654
2.7	0.956885883146603	-0.257160513648511	3.79111708416809E-06	1.04357634562032E-05	2.30933200069354E-06	3.86695182079812E-06	0.994614167291241	-0.0664545693074002
2.8	0.917205687383498	-0.374967632365551	-8.06275583645507E-07	-2.29091043537503E-06	2.23826424231103E-07	-1.88410587369258E-06	0.994934640914095	-0.0684516207082338
2.9	0.863364956026219	-0.48661366012739	3.7825272497077E-06	-8.29281484253169E-06	-1.23404072391153E-06	-1.42040331418625E-05	0.994706531005111	-0.0705289934957842
3	0.795694223845213	-0.591256542379679	-3.08695894486075E-08	6.63828556314079E-06	-1.47606039164876E-05	5.25346646670549E-06	0.994575285172532	-0.0729415889182964
3.1	0.716391209983505	-0.68531102665642	-4.99815501750746E-06	7.79574261679954E-06	5.79891755319023E-06	-6.84244428228075E-08	0.994386442254331	-0.0748367783319641
3.2	0.624401415504513	-0.769996953773969	9.51996459472263E-07	2.12554853917127E-06	-4.55553581714686E-06	4.62898049449013E-07	0.994236489669655	-0.0765464139096042
3.3	0.522849433588084	-0.842536356131084	7.23646319262115E-07	-1.45533769395613E-06	-4.57842918212465E-06	7.145866322649E-07	0.994184250023838	-0.0797068243438925
3.4	0.412422310569764	-0.901868472167625	6.46499073187488E-06	2.59062073828146E-07	-8.10401588144511E-06	-7.20680045571978E-06	0.994484161677748	-0.081712915551455
3.5	0.294633148552475	-0.946580205452465	-7.7025956140323E-06	1.93765702634349E-06	-5.87647613854562E-06	-7.99811076064347E-06	0.994394457519593	-0.0848333783317574
3.6	0.172573266496963	-0.975336707643962	-8.43079027403898E-07	-4.38125497456434E-06	-7.7922025628566E-06	-6.35151844229515E-06	0.994021830321298	-0.0871638666259605
3.7	0.0485106998642458	-0.989860022147268	-6.69063080134825E-06	-6.78879689104973E-06	5.43184906032901E-07	-4.76020951902154E-06	0.994039562488972	-0.0897793021180771
3.8	-0.077002164454064	-0.988374280007128	-3.64664032765259E-06	1.07102562141733E-06	-3.28816094924802E-06	-2.4758777532401E-06	0.993748432139738	-0.0918444773665799
3.9	-0.200835024310113	-0.971113242335185	-4.90364180771471E-07	3.50627117361872E-06	2.05718464581763E-06	-1.21295904468165E-06	0.993643334529041	-0.0951449273899795
4	-0.321937022461721	-0.93838061357124	1.16497053270355E-05	8.15464871304672E-06	7.27723540532155E-06	-4.01593572205508E-06	0.992548357144198	-0.0958824909484382
4.1	-0.43737899182977	-0.890703731914356	5.21488650261885E-06	1.34321131545368E-06	-3.48383191694032E-06	6.64187123046782E-06	0.99338105221831	-0.0966435459561732
4.2	-0.545863069698917	-0.829306148693407	-7.10044013507764E-06	-1.22769021764376E-06	-8.2736302990491E-06	-7.06967063235534E-08	0.9937786865533	-0.0994575857983034
4.3	-0.645925878310551	-0.754265717031942	7.11210476945488E-07	-2.36863382554491E-06	5.21658794476961E-06	8.99123640231895E-07	0.994168256163351	-0.101748632568609
4.4	-0.735725400977769	-0.666981412956099	4.48554865257854E-06	-1.76197721257109E-06	-8.74099347371793E-07	1.34582876569859E-06	0.994004126304032	-0.104336589601187
4.5	-0.814248636174215	-0.569204777711788	6.79148037298022E-06	1.89480053129407E-06	-7.94709890811466E-07	-3.26637245640627E-06	0.994414682635894	-0.106267965031599
4.6	-0.880282946109485	-0.461684507883408	2.45302796727459E-06	2.96665907565771E-06	-6.63525402880021E-06	9.75168356211052E-06	0.994953720946329	-0.109546555462334
4.7	-0.9317045143826	-0.345886441602447	-1.41065968771774E-05	5.89499128176499E-06	-3.47176027155976E-06	-4.40663749665631E-08	0.995109115866097	-0.11223111608881
4.8	-0.96792963198063	-0.225252724958949	-3.15741371172698E-06	-5.16615498383009E-06	-5.54625311477282E-06	2.35790343391736E-06	0.994785513969012	-0.115155682461434
4.9	-0.988403105878108	-0.10176126315146	-1.00222408048387E-06	-8.58191010159567E-06	-4.23653268302873E-06	7.31368707418431E-07	0.994435440769432	-0.117247465213646
5	-0.994345173716231	0.0234197496736593	7.58278913396723E-06	-1.5595506150162E-06	-1.75288393678037E-06	-2.73600691606449E-06	0.994327767661322	-0.118960395783154
5.1	-0.982815696782783	0.150194561018298	-2.59981583018533E-06	-6.42107342358749E-06	-1.00909594318931E-06	-1.96172323843259E-06	0.994567723445924	-0.120533933767026
5.2	-0.95598665017999	0.272578404800252	4.01167008225778E-06	-4.31550339708814E-07	-5.46743151021023E-06	6.32040224665003E-06	0.99446681837514	-0.123038107089248
5.3	-0.914497189707507	0.390658542468427	5.14763364269365E-06	6.03569519087205E-06	-9.58202568650141E-07	-3.59990724362979E-06	0.994354396120546	-0.125505998551377
5.4	-0.858592537909498	0.502596490600718	3.07662464008961E-06	-2.01919646054854E-06	-1.1358983848761E-05	2.19102495279022E-06	0.994647943629562	-0.128548998567875
5.5	-0.788780324747307	0.606587360044512	-4.31246373524899E-07	-2.20356721457956E-06	-5.81778025906276E-06	6.1425165354025E-06	0.994495388820295	-0.13197485852209
5.6	-0.705962241418865	0.700937869507657	2.38217052544027E-06	7.33576412810685E-06	-5.43051547364834E-07	2.9404741037201E-06	0.994293057103651	-0.134734341475071
5.7	-0.612174595352393	0.784314933493029	-2.58435648123819E-06	2.36885780132739E-06	7.94252163729691E-06	2.79708065988655E-06	0.994178974582374	-0.137641700226952
5.8	-0.508445330369309	0.854685792456155	-4.67112750225797E-06	5.1244531333121E-06	-3.69510455568046E-07	3.43724129997438E-06	0.993929456939565	-0.140449126447963
5.9	-0.396893688962981	0.911609774968866	6.38484507740232E-06	1.5040184398452E-06	-2.72238125674305E-06	2.55827611768675E-06	0.993014464828538	-0.143469896461983
6	-0.279984842588621	0.953272508275535	3.5346586995134E-06	3.30944757058904E-06	-3.29365625328297E-07	-1.43844574822788E-06	0.991175099598181	-0.1443903487833
6.1	-0.159061816366617	0.981341255995393	9.20778329694001E-06	1.53400989693192E-06	-1.27148091015343E-07	-1.81500820122839E-06	0.992117165419798	-0.144735307146336
6.2	-0.0340758360628423	0.993817851759572	2.44911055843562E-06	-1.73632583400717E-06	1.48653706822132E-06	-4.86362329926013E-06	0.992397117311648	-0.146624653900069
6.3	0.0915905898616351	0.990012967488096	-4.37504607063555E-06	4.26211556247517E-06	-6.17998728788951E-07	-1.73140091145302E-06	0.992037935127333	-0.149179435224638
6.4	0.215083588952604	0.969999149059385	-4.2787222645311E-06	1.07514550113312E-06	-1.76399715073087E-06	8.87374986029057E-06	0.991157925636942	-0.151611466173402
6.5	0.334336562621375	0.936372739074635	2.4620134683589E-06	-1.33527585075903E-06	1.49424599224239E-06	-2.9405937575771E-06	0.99115665519429	-0.15362097714473
6.6	0.450615890090055	0.887541394410032	-4.75794342043594E-06	-2.2631144453807E-06	-1.87688477189854E-06	-6.66953704077184E-06	0.991796002293226	-0.157200776942171
6.7	0.558759261295821	0.823227273734332	4.17997556582744E-06	-6.69190677972433E-07	-4.69496129362247E-06	1.02156620738566E-06	0.991285538946393	-0.160446595835354
6.8	0.657478733854831	0.746097132334188	3.7679809896416E-06	-2.09530428510623E-06	6.23708749934434E-06	-9.3884034999479E-07	0.990519834251591	-0.163312884352915
6.9	0.745409580777602	0.657294431115866	2.05958048175386E-06	1.64149766688107E-06	8.80691245819901E-06	-2.78895411347265E-06	0.989635741816086	-0.165970788050766
7	0.820962454052872	0.558454624428456	2.19068267176877E-06	4.10129791443751E-06	-7.782505207618E-08	5.39771135925175E-06	0.988263903820502	-0.167536522441208
7.1	0.883981574996476	0.451796618950441	-1.29455589418747E-07	1.72157588619755E-06	8.26798984911151E-06	-4.67399707001304E-06	0.988134196903094	-0.169024290906702
7.2	0.933243935316063	0.33749102202939	4.85646920305291E-06	-1.40689564541667E-06	7.28211557303558E-06	3.77566172174114E-06	0.987692372495637	-0.171222139780813
7.3	0.967520160247455	0.217885990533529	4.87155722985754E-06	-1.12068012657218E-06	-7.37423200259285E-06	-7.38581190750638E-06	0.986792585233327	-0.173512818631212
7.4	0.987082557038946	0.0941820151624381	-1.82562608951553E-06	9.93204646284029E-06	1.42964467394462E-06	-4.0854148133301E-06	0.986032817085159	-0.176871621689699
7.5	0.989736342552792	-0.0318501721103417	8.46087512994984E-07	8.05788804812484E-07	1.68244737345947E-06	9.89983523251098E-07	0.983601394540303	-0.180764322598319
7.6	0.976642095579291	-0.155633026619325	1.44616997047948E-06	-2.62650478100286E-06	-5.44688064512915E-06	-3.60974282263203E-06	0.981825963811639	-0.183038714597551
7.7	0.948893654500855	-0.277464725114978	5.59293195504892E-06	2.38670444353582E-06	-6.78132946948609E-06	1.21000038416461E-05	0.981000584311348	-0.18611817751563
7.8	0.906199983882	-0.394825964079638	-6.39865279831561E-07	-5.24620510796235E-06	3.71560847817668E-06	-4.76133747326545E-06	0.980357470003549	-0.189228640051141
7.9	0.848603804551655	-0.505923816398115	8.8652500254579E-06	1.48255829097372E-06	-9.58729684513374E-06	-8.59182142486349E-06	0.979351514076689	-0.192517227248215
8	0.777486903855625	-0.60709568864545	-6.65689032444073E-06	-1.59718863569453E-06	-1.19832327006541E-05	2.54932264726768E-06	0.977525282922016	-0.194085004493579
8.1	0.69636431771574	-0.699968261612371	5.07631905079513E-06	7.13052686746713E-07	2.89856411681825E-06	2.25094419366263E-06	0.978245212557561	-0.195733765564493
8.2	0.602944791228177	-0.782314121927808	3.55524963151198E-06	-2.58846115585652E-06	-3.7239015370068E-06	-1.16027442151585E-05	0.978378119070682	-0.198487339137525
8.3	0.499476811358119	-0.851843166773514	2.72057297926114E-06	-1.86865275717366E-06	1.65923709366742E-06	5.28605422906238E-06	0.977760356579408	-0.201486802483512
8.4	0.38807882227652	-0.907607400651826	-5.55681460708261E-06	-9.96957383232347E-07	1.067401921044E-06	2.94693669571203E-06	0.976742190429166	-0.20433823550628
8.5	0.269859696060371	-0.94875031492155	-3.28206455209721E-06	1.63952880519974E-06	-4.81513075828569E-06	-4.98273896085021E-06	0.975957109630491	-0.206935570584263
8.6	0.147507359410289	-0.974281649258216	-8.12999184054714E-06	1.42675720971856E-06	-4.37448411770923E-06	-6.83732056460036E-06	0.975476673475145	-0.209972567784847
8.7	0.0230206675949678	-0.984311047842913	2.23268026847632E-07	-2.15657237771155E-07	6.11543779743895E-06	4.76382206749814E-07	0.974583989058034	-0.2128189117807
8.8	-0.101447881456697	-0.978445990313571	1.01346078790385E-06	-1.82104831363846E-06	-2.39399019360693E-06	-1.26592723382986E-06	0.973693084499764	-0.21520800920584
8.9	-0.223327525040398	-0.958104626217188	-2.86250227619579E-07	3.03082104593907E-06	-1.23948595033391E-06	-1.63268649488281E-06	0.973154362877428	-0.217387891349569
9	-0.342503088303331	-0.922667221421636	2.97994717529632E-06	1.57154576001941E-06	-1.56310014677644E-06	2.11855604802101E-06	0.972372912127558	-0.219837803183205
9.1	-0.455319168160449	-0.871448647662538	-9.27965447615882E-06	2.30446101272466E-06	-1.54899386780751E-06	2.41145752110828E-06	0.971386722018221	-0.221837844062527
9.2	-0.560625262072471	-0.80735019375305	7.48273195756875E-06	-2.65139839102196E-07	-9.07264992984979E-06	2.0020092160163E-06	0.970449467712313	-0.224070472411936
9.3	-0.65707733883404	-0.731176525375734	4.892117241088E-08	-7.14225490912154E-06	1.57684624471908E-06	-1.30247879525238E-06	0.969880044759403	-0.226288567093323
9.4	-0.743991761118064	-0.643887513205144	6.07203453001286E-07	2.47411710978477E-06	1.59871912541757E-06	-3.59365289601711E-06	0.969195791772965	-0.229334755144338
9.5	-0.819293868946157	-0.544597206036675	-2.83155880080632E-06	6.63679226525489E-06	4.70255658374332E-06	-1.38602998693345E-06	0.967601287663689	-0.232363573016306
9.6	-0.880429252654328	-0.436991719520046	-5.02667625051811E-06	-5.1631544977389E-06	4.75458051461256E-06	2.85065725746042E-06	0.966495345353874	-0.234751098914214
9.7	-0.928239628098294	-0.322270358143652	-2.01392436328024E-06	-5.04619670380202E-06	2.08881723816038E-06	2.08794228603844E-09	0.965683394831019	-0.237117876767056
9.8	-0.961277093123286	-0.201865172406923	5.73536504695096E-07	-4.27028308699426E-06	-2.93926885069275E-06	-2.4958098507293E-06	0.965002711200833	-0.239170402721719
9.9	-0.978301158570469	-0.0784251852704983	-6.06758988943865E-06	4.21490069251815E-06	-3.06273269538599E-06	1.67008341504447E-06	0.963709605959563	-0.241148567425253
10	-0.980354555437176	0.0451391890817962	3.55148471032211E-06	-5.36002888644641E-08	8.21981078935797E-06	1.10117936261412E-05	0.9620849742759	-0.241233326624773
10.1	-0.966798911329569	0.168392475837158	-2.84877348146435E-06	-2.5019724361585E-06	-2.00465605191846E-06	-2.47933632064191E-06	0.96245906895945	-0.241895856729665
10.2	-0.937700026238169	0.289133776642425	2.34202313819583E-06	-1.02084849326275E-06	-2.75594665642738E-06	-1.05501938026178E-06	0.962281390927775	-0.243239440699691
10.3	-0.893433710586635	0.404990786630477	7.70730284947804E-06	-5.93305182664653E-06	3.85494768962386E-06	8.17987301959832E-06	0.961590258992299	-0.244809058936318
10.4	-0.835697190010236	0.513407886600333	1.6964273609669E-06	2.4706251000489E-07	6.23929726549695E-06	-1.18854958953196E-06	0.960528150158195	-0.246299336362956
10.5	-0.766873845818351	0.614521549712802	8.30676005874492E-06	-4.12252753431535E-06	-4.91376613697E-07	1.96265869425299E-06	0.960320979825749	-0.247767295390028
10.6	-0.684257259955809	0.70720420568851	8.89477314049141E-06	-1.26891428200552E-06	-1.46206139066638E-06	1.35804046819657E-05	0.960177765952161	-0.250409008589395
10.7	-0.590077876047676	0.787390327883479	7.97702559640894E-06	-1.89798120909328E-06	-3.04166993163159E-06	-5.25427869580957E-06	0.95951799701838	-0.253010264963159
10.8	-0.48626379285924	0.855201387166234	2.4398704720239E-06	5.22130310480976E-06	-3.60997955001059E-06	-2.0337826137267E-07	0.958936935629695	-0.254998449152531
10.9	-0.374709625989037	0.909509552209168	-5.53163025708008E-06	4.82522392680469E-07	1.5889912582347E-06	4.00893817084561E-06	0.958440805152653	-0.25686721490485
11	-0.257647272778801	0.949946954573589	3.76171202014013E-09	-5.19647618986104E-06	-8.33964272871541E-06	2.2198563860103E-06	0.957690567774955	-0.25849297513275
11.1	-0.135786021429832	0.975376785484721	6.27561411462676E-06	4.0712574831403E-06	-1.89911830770452E-06	1.07036204112048E-05	0.956888134208811	-0.259922167685692
11.2	-0.012078420717629	0.985012836666467	1.56919074714765E-06	1.34982319987076E-06	5.1019012347255E-06	8.8627214447659E-06	0.955863320309341	-0.261326614980104
11.3	0.111902604019394	0.978389013165211	-4.57192010549415E-07	-1.72966914653394E-06	-6.8808625040371E-07	-4.3752356508723E-06	0.955400783892256	-0.262735054931586
11.4	0.233966590649541	0.956567875555024	1.99369727367423E-07	1.18097253359021E-05	2.40251938879207E-06	4.91284831875243E-06	0.954771393767585	-0.26520502355621
11.5	0.352321291259317	0.919754677338166	6.16977783366224E-06	-3.15099784555394E-07	3.17919283709667E-07	-1.87388433907829E-06	0.953069155338309	-0.267803636543257
11.6	0.464080900584836	0.868709420241603	-5.97987377039719E-06	3.04877695929906E-06	-4.84875501349326E-06	1.89909440772883E-06	0.951918388211678	-0.270248763362954
11.7	0.568604649774255	0.804438168328047	3.31397185195563E-06	-1.78005239626214E-06	-1.70279546653199E-06	2.22235586036231E-06	0.951043363948479	-0.273287029964904
11.8	0.664266492394486	0.726819777289139	-8.39453292894874E-07	9.74366260269686E-06	-2.72729260549893E-06	1.04800338970068E-05	0.950169885483419	-0.276465153926023
11.9	0.748127159408164	0.636713618400867	-7.25390447807664E-06	-1.04618443889073E-06	-3.91214162153427E-06	1.11795737770681E-05	0.94945591879703	-0.278884765567675
12	0.817959757054307	0.539039468948053	-6.44842053797427E-07	1.3703458924822E-06	-3.10865493496865E-06	-1.92257691408996E-06	0.948373239866774	-0.279605292276788
12.1	0.878859273456591	0.434814732804909	-3.87781358444031E-06	4.93835481999966E-06	-1.37004864280799E-06	8.35638441588606E-06	0.949015974279128	-0.281240082633205
12.2	0.926122565331987	0.322357515370749	-5.52037113117443E-07	-3.77940077241947E-06	-3.0918340166327E-06	-7.44273859855472E-07	0.948921798753121	-0.28375988263608
12.3	0.959139104071507	0.205527379329723	3.55512954191183E-06	3.4382745803778E-06	-3.45903123535808E-06	6.21090945645508E-06	0.948598612522172	-0.286206461607787
