# GHZ S RI R 50
0.2	-0.965358119564137	0.251911257551759	8.81946413763826E-06	5.31342291147231E-06	1.13468142254168E-06	-2.88825200134485E-06	0.998914423131694	-0.00726572226314149
0.3	-0.925600919959115	0.371708178822842	-7.65576257310258E-06	-8.14813582570274E-07	-1.28379873970553E-08	3.65621038602987E-06	0.998662415590216	-0.0101624915962785
0.4	-0.870543969278928	0.485241194343854	-2.1928686221495E-06	6.33255333053822E-06	2.91852995910415E-06	5.72802159314634E-06	0.998388244052216	-0.0127795843707751
0.5	-0.802126013135421	0.590727469703032	-2.64488915792828E-06	5.48221084800888E-07	1.0504339355596E-05	4.87684503359227E-06	0.998047885976831	-0.0154317262791771
0.6	-0.721109305200326	0.686957412474758	-1.72313061980302E-06	-1.83741968317821E-08	4.15881273244249E-06	-1.03229676173729E-05	0.99866426657092	-0.0183804120194135
0.7	-0.628553358261998	0.772202915932868	-2.0441547724225E-06	9.87244635031221E-07	3.77968409418449E-06	1.1144861938625E-05	0.998266228420179	-0.0217620406435217
0.8	-0.526031938706481	0.845063785143092	-5.59623485005905E-06	3.77712116220769E-06	-3.16339770497059E-06	-2.13524397830725E-06	0.997799085774656	-0.0241664604102629
0.9	-0.415493459570292	0.9042286526737	-6.66546972189803E-07	5.24130242605165E-06	3.26068524706052E-06	-2.94843210769402E-07	0.997392655719083	-0.0267755238044709
1	-0.298028065843584	0.949059921341423	1.56507068367035E-05	-3.68207917915683E-06	-9.57751078998646E-06	5.27845141443675E-07	0.996337857403081	-0.028292085676427
1.1	-0.177037655486787	0.978630772198988	1.34057850580577E-06	-2.97444270918811E-06	9.36765860544064E-06	1.2572565168272E-05	0.996137613121358	-0.0293750469501887
1.2	-0.0524322834108119	0.993004485525089	-7.8884113973133E-06	-3.26133879404513E-06	-3.08619391288581E-06	-4.47289126734946E-06	0.996055561581186	-0.0299814584336221
1.3	0.0730593075789998	0.99162787998364	1.72470520211452E-07	3.32893388035525E-06	1.92532086084382E-06	3.43867525347284E-07	0.996891165440204	-0.0305964062829621
1.4	0.197202144704753	0.974255764412655	1.48623724259537E-08	3.76260168776539E-06	-2.51301579751059E-06	-5.61269343333894E-06	0.9972494860994	-0.0327407787774837
1.5	0.318067758698392	0.941443595334778	3.18287750679272E-06	-2.59937885944343E-07	2.69418147797714E-06	2.09690288262311E-06	0.997581485572034	-0.0363220790204989
1.6	0.433757118288321	0.894061414044907	1.78890774627013E-06	-1.93330785353669E-06	-8.86661864529197E-07	-3.06101316810708E-06	0.997112279527291	-0.0399380392850142
1.7	0.542416723789491	0.832040662153162	-7.99547574378713E-08	-3.51992646661641E-06	1.9947704517058E-06	4.92252013877984E-06	0.997065458830443	-0.0428319180073242
1.8	0.64218615105066	0.757335155510294	-2.05193447233855E-06	-1.81382400799935E-06	-4.65572617199668E-06	1.82835340750037E-05	0.996492042686749	-0.0457275832216099
1.9	0.731706363080577	0.670688854638793	-4.38100076386824E-06	-1.46816027326704E-06	-4.91197786187374E-06	-5.99688516458619E-06	0.99582843016163	-0.0482449558826227
2	0.808856486764261	0.573416029291744	-9.40200666518159E-08	-6.72168981944619E-07	-1.66224028613565E-06	-1.41471400961857E-06	0.99406776432112	-0.0505593056668158
2.1	0.874185036456364	0.467573518396897	-1.15358304839669E-06	9.41484425691116E-06	1.98852536773681E-06	-3.75562246829573E-07	0.994201910239136	-0.0515419075676724
2.2	0.925894738544031	0.354414037965356	-1.10844713782917E-08	-5.91141159020841E-06	-7.39926369360638E-07	2.72752006058593E-06	0.994709391633418	-0.0538653121799276
2.3	0.962774749866715	0.235429740692284	-1.31718287769285E-06	2.75466034885319E-06	-2.94933015348668E-07	1.19361774272764E-05	0.994562260094525	-0.0557537145527996
2.4	0.984402465101978	0.111909018460162	-5.84615786081868E-06	-3.71094551673459E-06	-1.75755158677233E-05	1.44394639652409E-05	0.994481699153809	-0.0588022291659443
2.5	0.99050140875822	-0.0123384144735538	1.82245318201417E-06	-2.95066235596959E-06	-1.80687750775399E-06	7.52446183676617E-06	0.994029499705878	-0.0607309687418044
2.6	0.981031589439986	-0.135215737410656	2.85303787578502E-06	9.23941476844288E-07	-1.75815131330683E-06	4.48744656203708E-06	0.994218438136999	-0.0632871070660838
2.7	0.956273489009975	-0.25655233172887	3.78663235597005E-06	1.04283144341139E-05	2.30697505789277E-06	3.86432779335875E-06	0.994028895460531	-0.0660879150607234
2.8	0.916701458364283	-0.374121563375821	-8.0508393702537E-07	-2.28919056137861E-06	2.24069526968338E-07	-1.88248941830375E-06	0.994375102441309	-0.0679591170261122
2.9	0.86308504722772	-0.485611928753013	3.78211641979619E-06	-8.2850898299336E-06	-1.2286527518058E-06	-1.41931980797192E-05	0.994258159930465	-0.0699399491638905
3	0.79567157797752	-0.590218707404667	-3.32032189222088E-08	6.63385261563258E-06	-1.47526344314915E-05	5.24473226346554E-06	0.994295050146061	-0.0722919686801136
3.1	0.716597370918715	-0.684337913878279	-4.99811505307077E-06	7.79005287535814E-06	5.79592707216763E-06	-6.6486916772194E-08	0.994314933415014	-0.0742004607366372
3.2	0.624780412179126	-0.769138817476965	9.51005469221398E-07	2.12492875915324E-06	-4.55376650593345E-06	4.61431600460533E-07	0.994337125884418	-0.0759962516166665
3.3	0.523355466082351	-0.84179630756253	7.23750587536098E-07	-1.45464161827326E-06	-4.57698152895077E-06	7.13197002776022E-07	0.994394276200492	-0.0792499152921453
3.4	0.41302942912491	-0.901281457602954	6.46305154424144E-06	2.6062954275267E-07	-8.09983656371078E-06	-7.20677109102754E-06	0.994766910618324	-0.0813419286342338
3.5	0.295202915038167	-0.94607841037656	-7.70090348639048E-06	1.93558204079573E-06	-5.87327681385253E-06	-7.9971319457782E-06	0.994664823724898	-0.0845521664625794
3.6	0.173299414056973	-0.974818119304063	-8.41511663957196E-07	-4.38000373378948E-06	-7.78768489943765E-06	-6.35162279306402E-06	0.994266824431404	-0.0868704581609247
3.7	0.0493743368102726	-0.989482223465714	-6.68585859524752E-06	-6.78925002178188E-06	5.44868719188506E-07	-4.7584859492281E-06	0.994273675375015	-0.0894923707085196
3.8	-0.0760594484407659	-0.988148235538185	-3.64603349892133E-06	1.06907060395119E-06	-3.2860700427344E-06	-2.47661447626137E-06	0.993952251056532	-0.0915652202702395
3.9	-0.199858324886371	-0.971040662631518	-4.91886054291843E-07	3.50495687137008E-06	2.05712954175738E-06	-1.21160376140258E-06	0.99378589980306	-0.0948883882092581
4	-0.320944994760386	-0.93842353351182	1.16408554734627E-05	8.15843463939697E-06	7.27694532622653E-06	-4.0103169521618E-06	0.99256204884597	-0.0955211869201366
4.1	-0.436371393626228	-0.890905483545508	5.21260368813986E-06	1.34625518577765E-06	-3.4872308138284E-06	6.63780574303284E-06	0.993511724844366	-0.0961783070018707
4.2	-0.544896156860611	-0.829662630884621	-7.09805723166288E-06	-1.23218162401994E-06	-8.27176549342107E-06	-7.6228923385367E-08	0.993955386246122	-0.0990154075681013
4.3	-0.645026412063243	-0.754772379573616	7.12760069281112E-07	-2.36771424562795E-06	5.21503444791942E-06	9.02653789891193E-07	0.994345356717868	-0.101292452374659
4.4	-0.734903409208365	-0.667638433809602	4.48627060970421E-06	-1.75829143681481E-06	-8.75008562074644E-07	1.3449699813216E-06	0.994171679365638	-0.103828465981034
4.5	-0.813582676548707	-0.570053429659252	6.78949413884759E-06	1.90061827871515E-06	-7.91827212672656E-07	-3.2669021996761E-06	0.994609331930642	-0.10564086596116
4.6	-0.879858314482265	-0.462613586154881	2.45054769895247E-06	2.96906800882907E-06	-6.64446062640238E-06	9.746441942712E-06	0.995224420474683	-0.108858353569948
4.7	-0.931494487787927	-0.346825825830464	-1.41142171328624E-05	5.88314242621734E-06	-3.47227944908625E-06	-4.72232476207565E-08	0.995435415335321	-0.111480999748435
4.8	-0.967900533758093	-0.226168887083434	-3.15349056325301E-06	-5.1702372545653E-06	-5.54970247459045E-06	2.35344668991803E-06	0.995185187819293	-0.114368009063734
4.9	-0.988555222097002	-0.102668454210559	-9.94830325923514E-07	-8.58543256853216E-06	-4.2384838786451E-06	7.2779104281178E-07	0.994894875570971	-0.116462777407965
5	-0.994760916470784	0.0226576641902827	7.58706659018283E-06	-1.55385859082172E-06	-1.75129799216178E-06	-2.73853992158492E-06	0.994823940608028	-0.118189195666179
5.1	-0.983237420887689	0.14961643903134	-2.59584092954992E-06	-6.42540263805847E-06	-1.0079597344785E-06	-1.96321050430625E-06	0.995095790543844	-0.119780997728089
5.2	-0.956465474454594	0.27206837574608	4.01344899605122E-06	-4.28624005740929E-07	-5.47425985645147E-06	6.31848213487081E-06	0.995005344091022	-0.122283286771902
5.3	-0.915046393966868	0.39026189745996	5.14488586096242E-06	6.04191114034305E-06	-9.55779228226452E-07	-3.601984105387E-06	0.994917456013983	-0.124704105641952
5.4	-0.859179605385271	0.502332386198661	3.07940272589998E-06	-2.01759273702606E-06	-1.1365142472095E-05	2.18304046070016E-06	0.995285845570242	-0.127695970490754
5.5	-0.789374670247373	0.606471172917264	-4.29749614524178E-07	-2.20477480870479E-06	-5.82475890885727E-06	6.14056530566851E-06	0.995186569523167	-0.131114459225253
5.6	-0.706510443306621	0.700957349942158	2.37753023017089E-06	7.34044187160203E-06	-5.45497279853333E-07	2.94121141100392E-06	0.995054444391431	-0.133839072057419
5.7	-0.61265889202331	0.784424419353183	-2.58711960516322E-06	2.36783754954324E-06	7.94348481291573E-06	2.80408963119141E-06	0.994997178408804	-0.136776097074959
5.8	-0.508844910297751	0.854839686813894	-4.67652037217111E-06	5.12272321070768E-06	-3.72189308649056E-07	3.43813395701168E-06	0.994764370031986	-0.139596539565087
5.9	-0.397235901818935	0.911728634071022	6.38533064082188E-06	1.50936227722703E-06	-2.72507110069597E-06	2.5568257794194E-06	0.993834491371208	-0.142607048895761
6	-0.28048283253102	0.953297517300782	3.53186729092072E-06	3.3135570737048E-06	-3.27960150403034E-07	-1.43900862704551E-06	0.991993528783284	-0.143303625690904
6.1	-0.159794700411779	0.981619465113472	9.20986490513981E-06	1.54666756791628E-06	-1.2484324651589E-07	-1.81597729321782E-06	0.993366015436945	-0.143519991957472
6.2	-0.0348120755596221	0.994454637110192	2.45343015064893E-06	-1.73440183681546E-06	1.49432099455897E-06	-4.86551514690968E-06	0.994032645068185	-0.14557674353969
6.3	0.0910451882015991	0.990950527871802	-4.385314113748E-06	4.26120166220007E-06	-6.16461742721484E-07	-1.73409621483267E-06	0.993934815056828	-0.148401751368294
6.4	0.214773860544637	0.971051233035316	-4.28542274286671E-06	1.07148692540913E-06	-1.77666043270539E-06	8.88295582833204E-06	0.993139603788433	-0.151121611815467
6.5	0.334194375566142	0.937582274279479	2.46706318451777E-06	-1.33448689643503E-06	1.4996692519713E-06	-2.94320492285272E-06	0.993164563756713	-0.153298886622733
6.6	0.450886821507597	0.888732131687272	-4.76339075542114E-06	-2.27045339525429E-06	-1.8743325474504E-06	-6.68128193477277E-06	0.9937421431633	-0.157194789738282
6.7	0.559252338890033	0.824236828530452	4.18644615100174E-06	-6.67652240575906E-07	-4.70239116281335E-06	1.02023012957982E-06	0.992999785100715	-0.16062245658466
6.8	0.658130495450659	0.746947375043972	3.77408969814858E-06	-2.09657382038517E-06	6.24610832585996E-06	-9.37447542438137E-07	0.99203440552763	-0.163588286264062
6.9	0.746185570677365	0.657970188886292	2.06188396142237E-06	1.64422399623782E-06	8.81935550648584E-06	-2.79033254455574E-06	0.990971199887277	-0.166338286194611
7	0.821802100904851	0.558970736685927	2.19286288350133E-06	4.10664046035356E-06	-7.86107283052503E-08	5.40436438201808E-06	0.989421987940705	-0.167904014226445
7.1	0.884935581777624	0.452160104063555	-1.2965604230664E-07	1.72373250864046E-06	8.27846428209844E-06	-4.67967714397963E-06	0.989263388010356	-0.169440063205617
7.2	0.934259981398052	0.337612582056792	4.86234507396556E-06	-1.40964700456015E-06	7.29209920672755E-06	3.77899655525486E-06	0.988721188001444	-0.171762994629326
7.3	0.968489761715567	0.217734730373598	4.87684667719975E-06	-1.12435271164869E-06	-7.38658707716211E-06	-7.39111420693502E-06	0.987655051704744	-0.174160217300505
7.4	0.987884839560234	0.0937491497636729	-1.81952154198303E-06	9.94386063017491E-06	1.4278404047785E-06	-4.09082147221982E-06	0.986673719190951	-0.177623131395509
7.5	0.990062705142669	-0.0324033816164949	8.47447949890676E-07	8.05250562298713E-07	1.68445663890983E-06	9.88591470783265E-07	0.983795188554894	-0.181444545657717
7.6	0.976671466252851	-0.155744842602314	1.44346262057816E-06	-2.62741521228395E-06	-5.44934116197869E-06	-3.60402476163356E-06	0.981859472949556	-0.183218600379776
7.7	0.949067332019176	-0.277300397132558	5.59209447032608E-06	2.38259587485724E-06	-6.77180684283327E-06	1.20991099087639E-05	0.981227482755794	-0.186072511033094
7.8	0.906604806057526	-0.394680403678568	-6.41577714735566E-07	-5.24403928843399E-06	3.71247516741594E-06	-4.76096681235175E-06	0.980811404127322	-0.189244351372558
7.9	0.849080239753315	-0.505982716140044	8.86332412667237E-06	1.47885985478446E-06	-9.58780327797934E-06	-8.58587057181535E-06	0.97988607803159	-0.192766011648904
8	0.777896419027016	-0.607272500774841	-6.65577090185818E-06	-1.59441955884729E-06	-1.19792909483594E-05	2.55293289168777E-06	0.97802429173946	-0.194426697875524
8.1	0.696849038198629	-0.700363104884441	5.07647106108236E-06	7.11405214680795E-07	2.89924532737378E-06	2.24997520891127E-06	0.978917868581988	-0.196206951405736
8.2	0.603239791676058	-0.782935029272479	3.55445747428188E-06	-2.59040352310413E-06	-3.72970042555459E-06	-1.16023464415855E-05	0.97904672796855	-0.199202677878389
8.3	0.499548996203478	-0.852545573845439	2.71994819236802E-06	-1.87044147015651E-06	1.66241524492524E-06	5.28593230797432E-06	0.978342447461514	-0.202357921378603
8.4	0.387952228280904	-0.908315713173485	-5.55830685015382E-06	-9.9388620518147E-07	1.06929258034304E-06	2.94679892933289E-06	0.977204305473421	-0.205292281859236
8.5	0.269535334735025	-0.949393237691079	-3.28166776254567E-06	1.64190884871236E-06	-4.81919336003129E-06	-4.98067423397117E-06	0.976316469605739	-0.207901303626952
8.6	0.147063621672305	-0.974813057090873	-8.13004991820918E-06	1.43212209547122E-06	-4.37937463633183E-06	-6.83534098952236E-06	0.975715826883228	-0.21097037621838
8.7	0.0224680960561809	-0.984720798734086	2.23162333232802E-07	-2.15804752218546E-07	6.11623466842953E-06	4.72885893386453E-07	0.974658442727295	-0.213769739674385
8.8	-0.10207377056886	-0.978710260468825	1.01261299236174E-06	-1.82173781129523E-06	-2.39486234187155E-06	-1.26480664389531E-06	0.973643629762058	-0.216036916878434
8.9	-0.224022857505312	-0.958237290379519	-2.84838085255501E-07	3.03148045738653E-06	-1.24048641809417E-06	-1.63236971519415E-06	0.973074616133871	-0.218049545969151
9	-0.343410716555461	-0.922562222067273	2.9819487394545E-06	1.57021035631452E-06	-1.56230261370837E-06	2.1202589090482E-06	0.972401534365882	-0.220363008323185
9.1	-0.456164845057568	-0.870840773266257	-9.28038109095966E-06	2.31352702626583E-06	-1.54728717343697E-06	2.41358350659819E-06	0.971633640021681	-0.222356441236816
9.2	-0.561169247162958	-0.806454509292293	7.48371306894407E-06	-2.7319131288921E-07	-9.07204130584011E-06	2.0120555157255E-06	0.970875594523505	-0.224756896012439
9.3	-0.657313020198617	-0.730215057436956	4.0902820013342E-08	-7.14239149530173E-06	1.5754019253951E-06	-1.3042640790332E-06	0.970327882878823	-0.227201228013733
9.4	-0.744024387780365	-0.642996161796721	6.0985365928308E-07	2.47316165924256E-06	1.59458123772169E-06	-3.59499313880725E-06	0.969529855158742	-0.23044999305507
9.5	-0.819243799733818	-0.543659003417667	-2.82374397847958E-06	6.63832745529307E-06	4.69998175757378E-06	-1.39078931819998E-06	0.967690510861596	-0.233519990764429
9.6	-0.880234080827157	-0.436148771181124	-5.02987368520518E-06	-5.15688132071967E-06	4.75572390791603E-06	2.84536249594569E-06	0.966402767208032	-0.235822600198008
9.7	-0.927992785918795	-0.321443657387449	-2.01758240459124E-06	-5.04278638529703E-06	2.08812260692307E-06	2.9509990073795E-10	0.965443468965689	-0.238125048552346
9.8	-0.960904319819107	-0.201025832910421	5.69774718711995E-07	-4.269097601798E-06	-2.94019397779505E-06	-2.49240346270357E-06	0.964620081903325	-0.24010904041251
9.9	-0.977733138373604	-0.0776224862412643	-6.06102259530633E-06	4.21775412115581E-06	-3.05979484192847E-06	1.67175691619426E-06	0.963151423335542	-0.242035572679954
10	-0.979630967751271	0.0458264288640439	3.54909584861546E-06	-5.60827803743055E-08	8.22217705582724E-06	1.09986767374401E-05	0.961362483064495	-0.241878845995881
10.1	-0.965960209990255	0.168948919448616	-2.8483455835597E-06	-2.49857506078189E-06	-2.00478530353314E-06	-2.47645969455694E-06	0.961805346087227	-0.242428759926168
10.2	-0.936771648095798	0.289552369714943	2.33978378125217E-06	-1.02137353461557E-06	-2.75452681099299E-06	-1.05277388672199E-06	0.961561633884192	-0.243706032766263
10.3	-0.892453268545684	0.405254999725164	7.69867205614591E-06	-5.93206459835452E-06	3.85576811871589E-06	8.17183837617487E-06	0.960804420076575	-0.245141550687977
10.4	-0.834749958675742	0.513505481155894	1.69519300095111E-06	2.46236166637502E-07	6.23397467609316E-06	-1.18994881900973E-06	0.959695444487455	-0.246465679192591
10.5	-0.766133459172023	0.614674974208232	8.29970881149682E-06	-4.12262166839514E-06	-4.90362888100513E-07	1.96150134482035E-06	0.959526900193827	-0.247751377839698
10.6	-0.683285034852753	0.707629422492005	8.88760232086202E-06	-1.27300463330575E-06	-1.45334897348604E-06	1.35713716272204E-05	0.959397030009966	-0.250338709355839
10.7	-0.588670281525303	0.7876985528413	7.96803161928575E-06	-1.90143935641572E-06	-3.04221093593414E-06	-5.24716469236144E-06	0.958738280692784	-0.252875948795109
10.8	-0.4845799668301	0.855076611208627	2.44021272491737E-06	5.21340506335839E-06	-3.60571727117779E-06	-2.00842261520213E-07	0.958162316237213	-0.254886301904523
10.9	-0.373063182392471	0.908857366690272	-5.5236095926541E-06	4.84797771242887E-07	1.58890106419243E-06	4.00246387250917E-06	0.957580828760922	-0.256816573090551
11	-0.256246680046509	0.948907660611173	1.38229525932395E-09	-5.188403821478E-06	-8.3256709556829E-06	2.22021652025316E-06	0.956690544417342	-0.258513372207642
11.1	-0.13471977034412	0.974020772462546	6.2662503355545E-06	4.06266644030367E-06	-1.89291636006437E-06	1.06862259930475E-05	0.955720477169773	-0.259972072375637
11.2	-0.0114058154837178	0.983508874406582	1.56670256582124E-06	1.3473388454503E-06	5.09437514300571E-06	8.84706490604879E-06	0.954520487350742	-0.261334352264924
11.3	0.112188998309595	0.976795630787405	-4.56402008974058E-07	-1.7267626859772E-06	-6.86876443393245E-07	-4.36787818904835E-06	0.953954631720114	-0.26267836213476
11.4	0.233915485171392	0.954957733122869	1.97533927904839E-07	1.17902082734555E-05	2.39791730116487E-06	4.90502499196785E-06	0.953246027505993	-0.265028852251696
11.5	0.351930071211934	0.918201912728111	6.1593925678245E-06	-3.136645469739E-07	3.17655876660606E-07	-1.87066962410606E-06	0.951375305198663	-0.267445344585113
11.6	0.463354393383649	0.867279077970386	-5.96998904055238E-06	3.0414968622817E-06	-4.84056963120179E-06	1.89422540242918E-06	0.950184894443475	-0.269636540224799
11.7	0.567561592820612	0.803162772702709	3.30862593900419E-06	-1.77522594727562E-06	-1.70064732419596E-06	2.21744478350112E-06	0.949279922420664	-0.272461774127774
11.8	0.662901750571505	0.725757834567915	-8.43904737902165E-07	9.72452228018747E-06	-2.72859432584945E-06	1.04583132261655E-05	0.948402145931075	-0.27539041168282
11.9	0.746271657486295	0.635973914963611	-7.23819872666723E-06	-1.05075430153047E-06	-3.91451140159592E-06	1.11532455658081E-05	0.947729883196061	-0.277440722460567
12	0.81582668791955	0.53902426703235	-6.45362210518483E-07	1.36692662140082E-06	-3.10031343760316E-06	-1.92288495633737E-06	0.946958738836078	-0.277880718457158
12.1	0.877002515064088	0.435617399459799	-3.87986445245505E-06	4.92493802022475E-06	-1.38119691070402E-06	8.34186645930656E-06	0.948151666524712	-0.279399639687539
12.2	0.924790765046351	0.323494096612631	-5.45800502021283E-07	-3.77610535811851E-06	-3.0873550736836E-06	-7.4807269828004E-07	0.948399340001622	-0.282173246360763
12.3	0.958195815485733	0.206721429302519	3.5473607711367E-06	3.43992468554407E-06	-3.46419976987702E-06	6.20073034600481E-06	0.948199340426513	-0.284893645257176
