# GHZ S RI R 50
0.2	-0.967754263877201	0.250416566532417	8.83013417032649E-06	5.33949737476335E-06	1.14189192957688E-06	-2.89273572130938E-06	1.00117382448355	-0.00606583608368797
0.3	-0.929167496421042	0.370273547340495	-7.67722530887373E-06	-8.31799571348677E-07	-1.98191033722104E-08	3.66717500500074E-06	1.00147061483168	-0.00896583760714549
0.4	-0.875499966780494	0.484583165841813	-2.21476463193519E-06	6.35504630403294E-06	2.91951278391897E-06	5.75811833019478E-06	1.00217655044282	-0.0116160893099798
0.5	-0.807357476536286	0.592327270528458	-2.65935138049589E-06	5.50338585954591E-07	1.0559526185368E-05	4.9065406640917E-06	1.00253321959103	-0.0162496739230657
0.6	-0.725397754733749	0.688837720382656	-1.7301591896773E-06	-1.83688189584625E-08	4.17529310932937E-06	-1.03652632376922E-05	1.00106949312545	-0.0190866979684292
0.7	-0.633177396826874	0.774682404867256	-2.05364474465974E-06	9.90264353089712E-07	3.7891867529123E-06	1.11956077529871E-05	1.00084928852908	-0.0211933405499586
0.8	-0.530569358278937	0.848672611561013	-5.6265268012082E-06	3.7915069764763E-06	-3.17734423184989E-06	-2.14808303487355E-06	1.00102917169283	-0.022972391895818
0.9	-0.419499302921809	0.908935504361656	-6.7474747663641E-07	5.26857083742135E-06	3.27827976426013E-06	-2.93513047997385E-07	1.00143500993863	-0.0248218272129091
1	-0.301208874314122	0.954805260576085	1.57603448651578E-05	-3.68673367381797E-06	-9.64239589414839E-06	5.19125936722215E-07	1.00302842025326	-0.0263637677626554
1.1	-0.178786582998658	0.985119095554238	1.34883278073704E-06	-2.9982708847428E-06	9.44850141171141E-06	1.26628437241317E-05	1.00286260399492	-0.0304545316277519
1.2	-0.0524857975352337	0.999623074579787	-7.95193909916291E-06	-3.26606330997869E-06	-3.11850319617472E-06	-4.49740339626019E-06	1.00131604594575	-0.0321676712984873
1.3	0.0749144888997364	0.99767396848065	1.87276368356337E-07	3.34842091211477E-06	1.93842495279264E-06	3.3799628180798E-07	1.00039477593508	-0.0338483708019158
1.4	0.200305100449704	0.979352581491499	3.49867780533343E-08	3.78000473608062E-06	-2.55460875911614E-06	-5.62537699627159E-06	0.998892329675681	-0.0360145890236761
1.5	0.322509597116185	0.946384568908093	3.19626015815053E-06	-2.78264344630426E-07	2.71797115629152E-06	2.09214968457139E-06	0.999810483792211	-0.0392753175129188
1.6	0.439014449326738	0.897878835469697	1.78562798150099E-06	-1.95133295611811E-06	-9.07389928508018E-07	-3.06886832675244E-06	0.998963709062561	-0.0427305178672339
1.7	0.548066309815546	0.835452789802279	-9.68276136613377E-08	-3.5343957504972E-06	2.02630782879576E-06	4.93390941907603E-06	0.999832516362576	-0.0445981811345238
1.8	0.648238637110599	0.760261546150076	-2.06799270363347E-06	-1.8136961116509E-06	-4.60439405801672E-06	1.83815339156034E-05	1.00018435958734	-0.0469352255112453
1.9	0.737720325664139	0.674021256110104	-4.40379873651592E-06	-1.46597624976624E-06	-4.94631020669717E-06	-6.01413774423556E-06	1.00075342986966	-0.047906986864248
2	0.818856975257447	0.57806256732278	-9.52033829518081E-08	-6.78314098074328E-07	-1.67821504414878E-06	-1.42695583252306E-06	1.00444547494256	-0.0509558136436829
2.1	0.886308124116851	0.466664037832252	-1.11571381524384E-06	9.51680619095839E-06	2.00679758749815E-06	-3.89866839085481E-07	1.00345593406339	-0.057371951530864
2.2	0.936456202217088	0.350726745635101	-4.86323228256912E-08	-5.96179687170456E-06	-7.28960949740544E-07	2.75548817866797E-06	1.0017586079806	-0.060097620840739
2.3	0.972164089673559	0.230126560284391	-1.30928819399623E-06	2.78538520657575E-06	-2.17625981663186E-07	1.20331905689078E-05	1.00081262342732	-0.061845171361243
2.4	0.992793124675834	0.10546388672187	-5.91852289300288E-06	-3.69509469914048E-06	-1.76002499826513E-05	1.46815521114001E-05	1.00044868519316	-0.0648068746438933
2.5	0.998678135455991	-0.0201034343705389	1.80967710093767E-06	-2.98195731149758E-06	-1.75798838151428E-06	7.58189449034057E-06	1.00038588194639	-0.0672510846975905
2.6	0.988214080771882	-0.144901642539945	2.87625544187966E-06	9.1176246535695E-07	-1.74085966698398E-06	4.5258700489622E-06	0.999985240475176	-0.0706807531960931
2.7	0.962247605844184	-0.268032767344387	3.88418260253448E-06	1.04806507658333E-05	2.3498431480597E-06	3.87770718024295E-06	0.99957643942924	-0.0740306429587676
2.8	0.92059892287169	-0.387403843082431	-8.29266145646829E-07	-2.30125435297398E-06	2.11269013300178E-07	-1.89927873447776E-06	0.999456086704657	-0.0767007054417686
2.9	0.864167847311631	-0.49972611044745	3.73850590472967E-06	-8.38388034731358E-06	-1.36409248381111E-06	-1.42941411456863E-05	0.998623047966663	-0.0791485601251142
3	0.794437041796675	-0.60417569133349	3.03683579324448E-08	6.68213493495761E-06	-1.48088468182996E-05	5.42455876427013E-06	0.998150815322904	-0.0819738361548803
3.1	0.712864106051358	-0.698493570735071	-4.95215002358259E-06	7.89575676587442E-06	5.8354072363028E-06	-1.26918379086804E-07	0.99717547508102	-0.0845527502895456
3.2	0.617988066109357	-0.782419751567545	9.80778811207148E-07	2.12670139320073E-06	-4.57547896266199E-06	5.15904076885682E-07	0.996104391713321	-0.0865731794562705
3.3	0.513551312472066	-0.853246936981289	7.09065871520617E-07	-1.47021031145022E-06	-4.58900480686961E-06	7.73017286089984E-07	0.994901029755378	-0.0901058202161973
3.4	0.400749849962458	-0.908726805016532	6.47931104651651E-06	1.75760312197375E-07	-8.21111016817876E-06	-7.11405179728968E-06	0.993407366623244	-0.0920128077123755
3.5	0.286338523572002	-0.950008742445556	-7.67769273744836E-06	2.01348668023135E-06	-5.95246545085508E-06	-7.93351618532299E-06	0.992859332496757	-0.0931688541228839
3.6	0.163188405316218	-0.981437886766189	-8.86333648580739E-07	-4.3797401682094E-06	-7.86475434251444E-06	-6.28635373310351E-06	0.993124506529329	-0.0962952219127803
3.7	0.0361847333666091	-0.993717609963274	-6.77168953146649E-06	-6.72243364602363E-06	4.91637250443243E-07	-4.77096448216721E-06	0.992084220212608	-0.0992744218763625
3.8	-0.0901959504059512	-0.988725378671382	-3.6341016461144E-06	1.11167448595628E-06	-3.31537146969771E-06	-2.43870351204134E-06	0.99085801421697	-0.100832345004107
3.9	-0.212947329610311	-0.967983486506372	-4.54035235370738E-07	3.50900348413933E-06	2.04337703185853E-06	-1.23328798291809E-06	0.990838114698244	-0.102370185295265
4	-0.332016313161655	-0.934080743783581	1.17551066844118E-05	8.03429207143994E-06	7.24118821788585E-06	-4.10222086927442E-06	0.994024363827243	-0.10425225013534
4.1	-0.447039586649951	-0.884833587348168	5.22704716676154E-06	1.27168268073508E-06	-3.39073342694947E-06	6.6811649639941E-06	0.992110205994391	-0.109792802675946
4.2	-0.554056279447116	-0.821664427537038	-7.09444431232817E-06	-1.13269743245765E-06	-8.24917210904236E-06	3.58223228063939E-08	0.989385357739917	-0.112289525142655
4.3	-0.652387764432124	-0.745337259619343	6.79389401362116E-07	-2.36768327400133E-06	5.20634588204601E-06	8.31756604236959E-07	0.988234230737082	-0.113784554972899
4.4	-0.740663329028738	-0.656964495638277	4.44409908026554E-06	-1.80757221234348E-06	-8.54041811161877E-07	1.35015631982856E-06	0.987324524449685	-0.11580124565627
4.5	-0.816949975798354	-0.557124086813206	6.77677290576623E-06	1.79512777395361E-06	-8.32738972698438E-07	-3.23702561221652E-06	0.986616709580182	-0.118824926447897
4.6	-0.879213515370525	-0.449750901355029	2.46846319920836E-06	2.91261583644212E-06	-6.46304248047027E-06	9.75095677244118E-06	0.984041091314697	-0.121112685300862
4.7	-0.928342312403173	-0.334898364796494	-1.39151181764324E-05	5.99544323841343E-06	-3.44091674112403E-06	-5.85693066661841E-09	0.983162999924127	-0.12212030341207
4.8	-0.962817070694481	-0.214790891871451	-3.18106452510007E-06	-5.08412791284243E-06	-5.4689198340324E-06	2.3931200790131E-06	0.98228348213614	-0.123929926630874
4.9	-0.981089150426693	-0.090485584345932	-1.08371345774857E-06	-8.48253025288819E-06	-4.18494077810993E-06	7.69152341207118E-07	0.981348745192124	-0.125145870285159
5	-0.979891300094371	0.0324833182917771	7.46647487901159E-06	-1.61370521507114E-06	-1.75658571848703E-06	-2.68228127348088E-06	0.98070560524072	-0.126198710266776
5.1	-0.969053313937262	0.152132156569329	-2.61079836256232E-06	-6.31865366626905E-06	-1.00963520143655E-06	-1.92892503462566E-06	0.980058042302498	-0.126968282638294
5.2	-0.943679674004721	0.272843721853767	3.95829185342581E-06	-4.52208229151849E-07	-5.35739206737559E-06	6.27629624609735E-06	0.979489170165573	-0.128413743966985
5.3	-0.902103972278221	0.389427039846919	5.11952043553727E-06	5.92565431829939E-06	-9.68583450230922E-07	-3.54759151167035E-06	0.978964764716831	-0.130268121117085
5.4	-0.845804943860533	0.499300295248289	3.0219136410575E-06	-2.00974430675878E-06	-1.11886251725609E-05	2.22897160651937E-06	0.977970796027704	-0.132527706448728
5.5	-0.776131010474688	0.600121389227411	-4.34181484537203E-07	-2.16951590263627E-06	-5.70688525136632E-06	6.07704912216359E-06	0.977785044485849	-0.133428700081571
5.6	-0.695070109221886	0.691854897588517	2.37473045993692E-06	7.22321384858278E-06	-5.24797726858259E-07	2.90073621096073E-06	0.977951105352797	-0.13618083780316
5.7	-0.603203297031703	0.773391964415371	-2.53913671041334E-06	2.34180436649425E-06	7.83405180060945E-06	2.73185727562463E-06	0.976863979597036	-0.137950764991683
5.8	-0.501684198667475	0.842037637961925	-4.59055924783758E-06	5.05342761863264E-06	-3.58023017649104E-07	3.38493907416272E-06	0.976265048357341	-0.138633942006205
5.9	-0.393693835280727	0.897973748239953	6.28610503953752E-06	1.48934546070964E-06	-2.68435685316004E-06	2.51601225154286E-06	0.976864654556858	-0.138057087558622
6	-0.278634702977387	0.942877529938736	3.49296422716635E-06	3.28340848151147E-06	-3.23265932927951E-07	-1.42476267222324E-06	0.981988976050434	-0.140267314062403
6.1	-0.156007134170896	0.969024034421967	9.11131242359689E-06	1.49819769782841E-06	-1.29557807028026E-07	-1.7950961985702E-06	0.980204058319485	-0.145930969778541
6.2	-0.0337869171698508	0.979270071048976	2.41516928563807E-06	-1.71805384624756E-06	1.45994066645005E-06	-4.80398551228282E-06	0.977767329986633	-0.146861150217713
6.3	0.0881424755395805	0.97550966446873	-4.31656364424434E-06	4.20722051394333E-06	-6.10306362519876E-07	-1.70851721822832E-06	0.976608404431029	-0.147644349223885
6.4	0.209392222503817	0.958547893965403	-4.22849222626552E-06	1.06124414832366E-06	-1.74566037514164E-06	8.76845299463212E-06	0.976859300303309	-0.148552321914372
6.5	0.332160918789976	0.923557252157928	2.42481891150895E-06	-1.32634702418606E-06	1.4641547097123E-06	-2.90707006527638E-06	0.976646472955336	-0.153652589383497
6.6	0.441652415001409	0.871087444759638	-4.67181436954614E-06	-2.22036193116692E-06	-1.84467673665729E-06	-6.54725900677307E-06	0.972684172678729	-0.154222434078876
6.7	0.544887398593037	0.810186141719972	4.10576804763452E-06	-6.42791408436527E-07	-4.61252534646406E-06	9.8697603559145E-07	0.972731449064391	-0.15364724437936
6.8	0.64102533873756	0.736759542819795	3.71307307145666E-06	-2.03629342874807E-06	6.13159717449746E-06	-8.86140691183984E-07	0.973117084649318	-0.154254231917689
6.9	0.72736523292881	0.652219521660747	2.0105087673583E-06	1.63027943659456E-06	8.6783078620004E-06	-2.6679756258487E-06	0.97380277627392	-0.154536160110006
7	0.804014822447623	0.557485038112232	2.11662544344831E-06	4.06650015786736E-06	-1.33526288087253E-07	5.32075633393259E-06	0.976157628643658	-0.156301441199601
7.1	0.867167187272609	0.452397746698275	-1.43147406058275E-07	1.69835877832622E-06	8.20370859152928E-06	-4.54037411248472E-06	0.974820351058036	-0.159469832264207
7.2	0.916117791974544	0.340902183472735	4.80411387676006E-06	-1.34508442763126E-06	7.15146182626147E-06	3.78979220161329E-06	0.973327329351953	-0.160376671228119
7.3	0.950357970631788	0.224057668685714	4.81254386030225E-06	-1.06139994293592E-06	-7.20397583377019E-06	-7.34690883867483E-06	0.971565579820641	-0.161181967258714
7.4	0.968377844048536	0.104506050594628	-1.88907865378715E-06	9.73909285585227E-06	1.44376160728471E-06	-3.99950725075284E-06	0.968583093094025	-0.160836528353583
7.5	0.975185278187586	-0.0120411421059669	8.15286789669184E-07	8.05494484991676E-07	1.6322206320405E-06	1.00119366358185E-06	0.970832720060653	-0.156826129470403
7.6	0.969840764243405	-0.136106178241989	1.48012383109854E-06	-2.56372048676036E-06	-5.3044525197532E-06	-3.67229087121227E-06	0.974818487022556	-0.161537765566693
7.7	0.945384921691136	-0.257727333989953	5.48283246169636E-06	2.47164284095924E-06	-6.94701708359187E-06	1.18295281417392E-05	0.974931865137476	-0.165199873936477
7.8	0.90639267216859	-0.374179224474488	-5.23053716985351E-07	-5.20826742296311E-06	3.77951408292908E-06	-4.63638026734273E-06	0.975437983239166	-0.167594603887952
7.9	0.854630770620038	-0.483686839501774	8.76398157676094E-06	1.68328123120119E-06	-9.31086744933911E-06	-8.75697555743067E-06	0.977290382504411	-0.168456479110494
8	0.793324681997057	-0.591671369226037	-6.62995336921728E-06	-1.75606899981494E-06	-1.20621413124108E-05	2.27193495764499E-06	0.984186158912656	-0.173302136187749
8.1	0.708842071301961	-0.690555943532095	5.07200708152088E-06	7.98839627772917E-07	2.86533008763727E-06	2.30268455080395E-06	0.982034135537025	-0.181401735409258
8.2	0.615572369438835	-0.773032406379161	3.59583505351307E-06	-2.53055808818231E-06	-3.53629679995027E-06	-1.16592578328969E-05	0.980118686931412	-0.18369468774473
8.3	0.513784855426229	-0.84377364362849	2.7501894119732E-06	-1.82374330424748E-06	1.57258401001685E-06	5.31146982217157E-06	0.979543428975249	-0.185844439630639
8.4	0.403925452720385	-0.900897450649169	-5.54055657627509E-06	-1.08361171800453E-06	1.02124874424438E-06	2.96324034674256E-06	0.979645987049882	-0.188158838806945
8.5	0.289166884132261	-0.944223128435637	-3.30183149157234E-06	1.58200711976659E-06	-4.72271673327996E-06	-5.05097420580064E-06	0.979714606001212	-0.191973350127067
8.6	0.167880005337263	-0.974836557358044	-8.15420431451334E-06	1.26955853175935E-06	-4.24100166504735E-06	-6.91884149735383E-06	0.978648063480809	-0.194286218872376
8.7	0.0429260153886783	-0.989128804625373	2.27974597692993E-07	-2.11705352998597E-07	6.11866031960584E-06	5.97781552250333E-07	0.97900507589705	-0.196185773579571
8.8	-0.0834820498442933	-0.987500667785238	1.05345216120439E-06	-1.80946238083964E-06	-2.38005175299769E-06	-1.318203754969E-06	0.979647999266569	-0.198294287022378
8.9	-0.209708622577565	-0.968913351825269	-3.41758757501572E-07	3.04639645000806E-06	-1.21907208237477E-06	-1.66570568923363E-06	0.980534220931093	-0.200395703936945
9	-0.327353675060443	-0.931010688962355	2.96952731347838E-06	1.62800445107233E-06	-1.60550432734917E-06	2.10389621122002E-06	0.981507081563858	-0.202459753849952
9.1	-0.439447338965702	-0.886007986758758	-9.38336268387939E-06	2.14831654595146E-06	-1.60372635061248E-06	2.398751470835E-06	0.98275188380075	-0.205059210054094
9.2	-0.548123307306616	-0.825185120705175	7.55112381984339E-06	-1.33230945681358E-07	-9.18570517943578E-06	1.85636488071641E-06	0.98333110102794	-0.208571413612896
9.3	-0.647694764584429	-0.750539366775198	1.70649940573965E-07	-7.20678037475625E-06	1.61339250775477E-06	-1.28762121667524E-06	0.983167191005932	-0.212196108312683
9.4	-0.735869469648275	-0.662942917573045	5.71182322919741E-07	2.50405249989671E-06	1.67098916423301E-06	-3.59612129744893E-06	0.981683535957641	-0.21514267625092
9.5	-0.811047737497376	-0.570297765141326	-2.99366600294301E-06	6.63789191351681E-06	4.77323289902917E-06	-1.30155092353909E-06	0.982570188853474	-0.21619221377694
9.6	-0.881494723039091	-0.464755984061226	-4.99592032193359E-06	-5.32775890060918E-06	4.76410193697296E-06	2.97912976339035E-06	0.983699661426258	-0.221250159638981
9.7	-0.934560192652673	-0.348077122394507	-1.95572893491606E-06	-5.15229121323574E-06	2.11837099903429E-06	3.80160253358991E-08	0.983001115180165	-0.224805904729269
9.8	-0.972179842859388	-0.225795359597381	6.53386911215116E-07	-4.32382898662465E-06	-2.94100922532391E-06	-2.58183319460772E-06	0.982618096682885	-0.226782497320351
9.9	-0.993951150312415	-0.0992632759720603	-6.24285632878752E-06	4.17861101092883E-06	-3.14316463912825E-06	1.64413428637703E-06	0.983636026168724	-0.226651404800705
10	-0.998577211921731	0.0284889461395564	3.6297425985139E-06	-4.2788067520777E-10	8.23054725869405E-06	1.13776694304713E-05	0.989849248087573	-0.231202891596466
10.1	-0.98745143648482	0.155093547163638	-2.88274185753937E-06	-2.58680130471527E-06	-2.02072629672298E-06	-2.55447898266647E-06	0.986644968962373	-0.238268493032271
10.2	-0.960678300442845	0.279930717320087	2.40120794592966E-06	-1.0198754783461E-06	-2.80391868049642E-06	-1.1037357498098E-06	0.984537372902957	-0.239944407952201
10.3	-0.918600032524668	0.400774793255077	7.92556197717146E-06	-5.99528555092598E-06	3.86804633833985E-06	8.39047057769149E-06	0.983700645486173	-0.241915409324726
10.4	-0.862286179452881	0.517418798891916	1.73466382005026E-06	2.63908504199765E-07	6.39357945127449E-06	-1.17585002210053E-06	0.983596511588733	-0.244555301729251
10.5	-0.784794935837743	0.626974934591809	8.49075176178666E-06	-4.20336798161234E-06	-5.0399903172047E-07	2.00464856181648E-06	0.982673984977436	-0.249963707434816
10.6	-0.696892707724741	0.717100428466818	9.0593333831851E-06	-1.27254912616049E-06	-1.51834350922671E-06	1.38242211162373E-05	0.980280273325013	-0.252212043450997
10.7	-0.601275013880215	0.797780500160364	8.13230739002455E-06	-1.91260510378943E-06	-3.08504729070979E-06	-5.36130382204053E-06	0.980291011949117	-0.25522193883729
10.8	-0.495344673862784	0.867083343142848	2.47992456787809E-06	5.32687918911881E-06	-3.68021651053566E-06	-2.12618578939249E-07	0.979989656271884	-0.258741048305189
10.9	-0.379305145840887	0.923501421838114	-5.63808733764122E-06	4.94699883763496E-07	1.62172310995654E-06	4.08544794453445E-06	0.979300931633143	-0.261512109592976
11	-0.257231369315962	0.96013498373384	3.49894384762497E-09	-5.29109793543457E-06	-8.49135596012914E-06	2.26080890285383E-06	0.979194337650299	-0.26399893274634
11.1	-0.136148737399137	0.984701417087771	6.40880521477817E-06	4.14641345970671E-06	-1.92436466120554E-06	1.09244245080413E-05	0.978347413306757	-0.267221134382753
11.2	-0.0107104604860303	0.994510846382931	1.60661206908608E-06	1.37133168043046E-06	5.24107224194172E-06	9.02429048447858E-06	0.976910599887154	-0.270273225457631
11.3	0.115002639637721	0.987712613053055	-4.77332932538597E-07	-1.76028081653199E-06	-7.29937411238823E-07	-4.45571843842773E-06	0.974711340858998	-0.273249297199228
11.4	0.238473980852804	0.965648768665593	3.04692946319598E-07	1.20048826549385E-05	2.4850034823886E-06	4.97399978876885E-06	0.971236129383542	-0.275722185859411
11.5	0.35930514760045	0.928392360433787	6.25734908734259E-06	-3.5568086822778E-07	3.11588078252725E-07	-1.90289589771089E-06	0.972211644040433	-0.275847646707823
11.6	0.472868270481851	0.875362038689886	-6.06176433845246E-06	3.13829133669937E-06	-4.91878811057427E-06	1.9619779948779E-06	0.972131371940901	-0.282676268375514
11.7	0.578199083731631	0.809913582841869	3.3550327975288E-06	-1.83720755454844E-06	-1.71314415619599E-06	2.27370040253777E-06	0.969305694256665	-0.287698095494486
11.8	0.674572517276835	0.732084706629693	-7.67665405912429E-07	9.90557323907686E-06	-2.67902258569229E-06	1.06701159204651E-05	0.966644621643331	-0.291008703909363
11.9	0.761266367850321	0.644972198143425	-7.38288548060568E-06	-1.01684892154895E-06	-3.90567525821432E-06	1.13932452323649E-05	0.966765333945112	-0.290948277167197
12	0.844381129174462	0.544848810359917	-6.48082386380835E-07	1.41031265578575E-06	-3.20359601490253E-06	-1.94132418919621E-06	0.972022759246618	-0.296666346674291
12.1	0.90653659806373	0.426698905708351	-3.8826106991453E-06	5.11450619492986E-06	-1.2611616299873E-06	8.56762334571433E-06	0.967164633731231	-0.303614101791721
12.2	0.950515401847215	0.306746313654605	-6.35059326599746E-07	-3.84586309010834E-06	-3.16891881629749E-06	-7.00703178223473E-07	0.964024014038556	-0.306331085096076
12.3	0.9798379293676	0.184356545987738	3.69669375634757E-06	3.42846465083075E-06	-3.39298652205587E-06	6.40389694226748E-06	0.961705736378259	-0.309298106360512
