# GHZ S RI R 50
0.2	-0.965523135997117	0.251746734727442	8.82038014836247E-06	5.31605503233894E-06	1.13541740953796E-06	-2.88865674944252E-06	0.999110236229151	-0.00708201228789047
0.3	-0.925852724266628	0.371597707154682	-7.6578651826016E-06	-8.16120374880666E-07	-1.33531303471969E-08	3.65726717841886E-06	0.998863655484106	-0.00996678544305442
0.4	-0.870781762722108	0.485244466230695	-2.19356061575042E-06	6.33462285559863E-06	2.9195001541491E-06	5.72987651288005E-06	0.998555685526037	-0.0126906306895548
0.5	-0.802210777266785	0.590654514644376	-2.64486676826422E-06	5.48442061837767E-07	1.05048273875034E-05	4.87602728314776E-06	0.997693403557971	-0.015326393464087
0.6	-0.721370158787861	0.686848550569946	-1.72314276370029E-06	-1.88245354507222E-08	4.16155044306414E-06	-1.03219826603419E-05	0.998266356177412	-0.0176125122890738
0.7	-0.628791925824422	0.772237120422723	-2.044809607817E-06	9.86746613074009E-07	3.77670542571019E-06	1.11479144185257E-05	0.998139076597259	-0.0207124360704294
0.8	-0.526167901373715	0.845156541438435	-5.59914014174042E-06	3.77621250956037E-06	-3.16353561295318E-06	-2.13695920858631E-06	0.997972039059224	-0.0229360894502529
0.9	-0.415517631517575	0.90434035369095	-6.6879162101831E-07	5.24382118573538E-06	3.26250855122189E-06	-2.93820347392006E-07	0.998109513205987	-0.0255409517202688
1	-0.297875144641173	0.949164359156327	1.56634119023805E-05	-3.68686668230152E-06	-9.58547357452522E-06	5.29329998696139E-07	0.997405629742044	-0.0278814547212186
1.1	-0.176689456700008	0.978564594657557	1.339586408973E-06	-2.97651666464965E-06	9.37868643452733E-06	1.25732367715995E-05	0.996645432452936	-0.0293430596981056
1.2	-0.0519912217260907	0.992587499182177	-7.89087797250274E-06	-3.2559357553075E-06	-3.08938192419853E-06	-4.47085799518207E-06	0.996115088013461	-0.0301142704564334
1.3	0.0732035380803889	0.990775087411728	1.74218222460515E-07	3.32668240546084E-06	1.92426647905432E-06	3.42569528261353E-07	0.99616289238973	-0.0304699277988142
1.4	0.196766430168223	0.973478736099337	1.43932715666773E-08	3.75873752860434E-06	-2.50975677386548E-06	-5.60722968211869E-06	0.996291090241945	-0.0317370720210443
1.5	0.317432366461001	0.941080026087853	3.17998272963813E-06	-2.58047466934297E-07	2.69053512669517E-06	2.09629815953384E-06	0.996670030928816	-0.0350393271816736
1.6	0.433223567722298	0.894256285605518	1.78962683096259E-06	-1.93002586104475E-06	-8.82811604957086E-07	-3.05970924853831E-06	0.996477350151958	-0.0379759951603006
1.7	0.542294211268175	0.832529403865214	-7.55425603933001E-08	-3.51920380521073E-06	1.98816014779876E-06	4.92385979170174E-06	0.997099438864368	-0.040814432482331
1.8	0.642523685007421	0.758004846316276	-2.05008101042952E-06	-1.817076715602E-06	-4.68149263633893E-06	1.82824152687781E-05	0.997111760660582	-0.0439243605858055
1.9	0.732868320013766	0.671376288213834	-4.3842661373066E-06	-1.47488922229404E-06	-4.9106081910255E-06	-6.00935843656506E-06	0.997141490544264	-0.0471397264962161
2	0.810493678787316	0.572822377017992	-9.43015379726653E-08	-6.72958021602386E-07	-1.66460280343735E-06	-1.41600909537502E-06	0.994559282030842	-0.0510401617092119
2.1	0.875018501511706	0.467090370713715	-1.15587511186273E-06	9.41761178201936E-06	1.98923644762911E-06	-3.75275661242756E-07	0.993585691551925	-0.0510201532397524
2.2	0.927167408385798	0.354144903671561	-7.91557363087384E-09	-5.91589533780104E-06	-7.41952851144972E-07	2.72918840963811E-06	0.994469878053254	-0.0528197963919129
2.3	0.96452177720043	0.234864624065028	-1.31982327947423E-06	2.75727569016557E-06	-3.00172517950497E-07	1.19497325718618E-05	0.994749512678662	-0.0546204541631411
2.4	0.986499978381106	0.110823783700537	-5.85318829703456E-06	-3.71748183894628E-06	-1.76031230807061E-05	1.44547022400493E-05	0.995175643961288	-0.0579771818362271
2.5	0.992802578251438	-0.0141415987406448	1.82679888563742E-06	-2.95629369341439E-06	-1.81216487543996E-06	7.53942681939743E-06	0.994613118414857	-0.0607971315376879
2.6	0.983206576993834	-0.138036405755551	2.86115493328913E-06	9.23231939433386E-07	-1.75779823661572E-06	4.5005365084605E-06	0.994211306652207	-0.0636608237848533
2.7	0.957489232389063	-0.260052614212864	3.81406767191609E-06	1.04398015346678E-05	2.31878391552338E-06	3.86680308640989E-06	0.993357425645786	-0.0665290929789459
2.8	0.917046661923169	-0.377429576725303	-8.10725174812954E-07	-2.28987939381087E-06	2.20351249902173E-07	-1.88491572321563E-06	0.993294804996869	-0.0679521826579737
2.9	0.863052205102336	-0.488476103676155	3.76889410960422E-06	-8.29696208890812E-06	-1.25579720735586E-06	-1.41991842794235E-05	0.993350448737749	-0.0695627633507068
3	0.795620210110491	-0.592662546451151	-2.31238162806001E-08	6.63680357638859E-06	-1.47511042824975E-05	5.26947262837124E-06	0.993510088942936	-0.0719908004402899
3.1	0.716799801438396	-0.686571264412867	-4.9902106450579E-06	7.79891257784084E-06	5.79784150602886E-06	-7.36718471099425E-08	0.993457332898151	-0.07364281169873
3.2	0.625200744181885	-0.771458143488918	9.53200019260021E-07	2.12488046998191E-06	-4.55503291674358E-06	4.65557302392616E-07	0.993674044948394	-0.0751143676356439
3.3	0.523996068554907	-0.844222228635987	7.2342202816562E-07	-1.45568954214932E-06	-4.57887818172586E-06	7.15688262377617E-07	0.99408252740238	-0.0780846018824942
3.4	0.414335220374842	-0.904175063061625	6.46918304122581E-06	2.61999956914489E-07	-8.10632718351379E-06	-7.21506388867313E-06	0.995166328070338	-0.0800377558402787
3.5	0.29580132524055	-0.951065896088157	-7.71962105848415E-06	1.9432204150364E-06	-5.89094682070424E-06	-8.01518519833987E-06	0.995579183524514	-0.0842687775743206
3.6	0.172108203832787	-0.97902461860303	-8.50206538672562E-07	-4.38624989492592E-06	-7.81174138293451E-06	-6.34984291474744E-06	0.99438525046348	-0.0865611166396732
3.7	0.0480754251947485	-0.993217565939483	-6.70383519727833E-06	-6.78808769604527E-06	5.38738913432343E-07	-4.76515045440691E-06	0.994842132551769	-0.0887845066775194
3.8	-0.0776573981582247	-0.991798665257555	-3.6493478925854E-06	1.07528339095209E-06	-3.29361072376653E-06	-2.47547744406204E-06	0.995410321463693	-0.0911621067376878
3.9	-0.202032636862215	-0.974418160106494	-4.86401785437805E-07	3.51105628088603E-06	2.05804787031675E-06	-1.21705992896671E-06	0.996262834465143	-0.0959833321570683
4	-0.323356405630143	-0.940697518937657	1.16644773503577E-05	8.13267260446212E-06	7.26950250485507E-06	-4.02934290454233E-06	0.993262767523241	-0.0994737777389161
4.1	-0.437993163291996	-0.892961612156054	5.21383062043266E-06	1.3390439070694E-06	-3.477845232194E-06	6.64176847346784E-06	0.991966923929948	-0.0989161236008481
4.2	-0.546536012589966	-0.831833254796841	-7.0999403763227E-06	-1.22401128672597E-06	-8.27237991570259E-06	-6.66211333205028E-08	0.992164259764738	-0.101014941605223
4.3	-0.646899519778849	-0.756729380119247	7.09985805109927E-07	-2.3686545591039E-06	5.21631555188597E-06	8.96516129696502E-07	0.992362160338563	-0.10299490470969
4.4	-0.737018275317156	-0.668809640653669	4.48290448251814E-06	-1.76477356743033E-06	-8.72841563421589E-07	1.34607441647009E-06	0.99190339564244	-0.105487238913457
4.5	-0.814694306093737	-0.570313164221603	6.78454329367605E-06	1.88912201172985E-06	-7.95455006044679E-07	-3.26216369726124E-06	0.991351234978375	-0.106836375805311
4.6	-0.880180551926864	-0.463187891970268	2.45012943288986E-06	2.96350832917848E-06	-6.62845748471396E-06	9.74046370808611E-06	0.992113537305031	-0.109007181961277
4.7	-0.931374390667935	-0.347600118215167	-1.40907420756936E-05	5.88558885641339E-06	-3.46760774469894E-06	-4.45955736971429E-08	0.992549625775152	-0.111294535251605
4.8	-0.9672254094094	-0.22712750554355	-3.15096621709373E-06	-5.15975354456503E-06	-5.53901206019688E-06	2.35248539909462E-06	0.992498186551181	-0.113829956393782
4.9	-0.986856980707605	-0.104520413162208	-9.91655870309779E-07	-8.5674717093537E-06	-4.22964664072335E-06	7.25725325237948E-07	0.992703644460665	-0.115701885467198
5	-0.99436261950006	0.0182657532309673	7.58155317603698E-06	-1.54158805867004E-06	-1.74566028215104E-06	-2.73822760718902E-06	0.993116784120082	-0.117814136360574
5.1	-0.984597947124665	0.146398449990138	-2.59282489464624E-06	-6.42730044512951E-06	-1.00705774480173E-06	-1.96389908603474E-06	0.993485080795461	-0.119583187127672
5.2	-0.958010674347712	0.26926023290974	4.01429189624844E-06	-4.28283812275887E-07	-5.47601725036018E-06	6.3191574346373E-06	0.993721097854972	-0.122396556525939
5.3	-0.917218319609102	0.387874032478753	5.14847881128875E-06	6.04401697574887E-06	-9.5687485364623E-07	-3.60360412033887E-06	0.993601727296686	-0.125342770646947
5.4	-0.861690847582968	0.501216957540536	3.08051577997723E-06	-2.021536814864E-06	-1.13730948397972E-05	2.19317561079795E-06	0.993828155772907	-0.128551650802346
5.5	-0.790672579260539	0.606569162299167	-4.34446461726217E-07	-2.20531647553567E-06	-5.81614847170744E-06	6.15616076457965E-06	0.993323745282309	-0.132962103775445
5.6	-0.706778867209702	0.700563254418447	2.39160985484823E-06	7.33078052972923E-06	-5.38913532733594E-07	2.94051900139345E-06	0.991775932943211	-0.134960951261502
5.7	-0.612709984679767	0.783935032606812	-2.58065329472841E-06	2.37036831002026E-06	7.94153410704442E-06	2.78752521424162E-06	0.992095117601794	-0.136926641429284
5.8	-0.508529721231145	0.854677048541196	-4.66465336410424E-06	5.12775317537564E-06	-3.65934168090253E-07	3.43666172762118E-06	0.992893626238073	-0.139668776256035
5.9	-0.395674650409707	0.912363580124786	6.39099871169098E-06	1.4925465478396E-06	-2.71887029266797E-06	2.56480611262267E-06	0.993404198319993	-0.144368970785318
6	-0.275649953696642	0.952155951578173	3.54565661368059E-06	3.28854929854144E-06	-3.35705010379948E-07	-1.43503859249598E-06	0.988698510621612	-0.148747364214564
6.1	-0.155951477938502	0.977057642127811	9.1770673228796E-06	1.4989323436375E-06	-1.32403066479752E-07	-1.80759371596036E-06	0.987050667375159	-0.146708959365752
6.2	-0.0327114694745053	0.988684495044265	2.43556748795973E-06	-1.73384060540784E-06	1.47094987651289E-06	-4.84627074078112E-06	0.987260695963668	-0.147331943178815
6.3	0.0916879173647664	0.985063860061702	-4.35148945992002E-06	4.24966528234059E-06	-6.17544077462441E-07	-1.72339426289135E-06	0.987111589980383	-0.148908662397614
6.4	0.215156908557732	0.96464243450843	-4.25743389235344E-06	1.07496454354619E-06	-1.74564203177418E-06	8.83413698901215E-06	0.986612059303782	-0.151339684919849
6.5	0.330794723644798	0.929387075748274	2.44849184311773E-06	-1.32290076502287E-06	1.48941009880344E-06	-2.91955578272531E-06	0.985379386463825	-0.151780828526454
6.6	0.44557092252427	0.88448315774514	-4.73298394606433E-06	-2.272375742075E-06	-1.84611426875E-06	-6.65283894750143E-06	0.98868317380853	-0.153971517085122
6.7	0.554429958071659	0.821629840559453	4.17406863523013E-06	-6.53831046920751E-07	-4.68923415707673E-06	1.00378747988483E-06	0.989298252850076	-0.158210126960227
6.8	0.653630482583911	0.745677784012464	3.77130693746887E-06	-2.08171073630052E-06	6.23467440898627E-06	-9.18509711138488E-07	0.988899313228334	-0.161540071397705
6.9	0.742720497990538	0.657799571373688	2.05635308120113E-06	1.64767733382067E-06	8.81859979290645E-06	-2.76747395155925E-06	0.988731768373969	-0.164874854306528
7	0.81894986394181	0.558396253655108	2.19014096907035E-06	4.10526607520769E-06	-8.060438471413E-08	5.40143900583571E-06	0.986207885311818	-0.167768507898718
7.1	0.881731618221567	0.452572386460259	-1.30649388474037E-07	1.72031336137482E-06	8.26586845787734E-06	-4.66467654992459E-06	0.98543430223058	-0.16765287053583
7.2	0.931740675032072	0.339201395404225	4.85513624428555E-06	-1.39811675257877E-06	7.27073366712677E-06	3.78449179055475E-06	0.985739490541745	-0.168838389157456
7.3	0.967128404845874	0.22055388891298	4.87193899079348E-06	-1.10695948195994E-06	-7.35036016208182E-06	-7.40166846633299E-06	0.985914438805851	-0.170030680361219
7.4	0.989433651842802	0.0978827352707006	-1.87561170638511E-06	9.93332299452396E-06	1.45089730055465E-06	-4.08265131839351E-06	0.988060883648192	-0.172306470516458
7.5	0.995588067970279	-0.0321217387092005	8.48483681997276E-07	8.13351199970527E-07	1.6892160817954E-06	1.00137873985004E-06	0.988722159729629	-0.180219454604913
7.6	0.980060761341286	-0.157800425975899	1.45297295246901E-06	-2.63786048236517E-06	-5.47033204237328E-06	-3.62654518523838E-06	0.984500798293454	-0.183469563765173
7.7	0.952136720551928	-0.280224938985637	5.61666292025163E-06	2.39460819644968E-06	-6.80506113965558E-06	1.21518884886538E-05	0.984000982473566	-0.186587945197306
7.8	0.908996251124721	-0.399073033447052	-6.51778920415779E-07	-5.26799042197621E-06	3.72354785619041E-06	-4.78857878783062E-06	0.983826950648807	-0.190938949810152
7.9	0.84963426007007	-0.512187604672587	8.9090763263675E-06	1.44856868947178E-06	-9.66637828766712E-06	-8.58431306404999E-06	0.982785533679916	-0.19699834676865
8	0.771124480034437	-0.612699826879368	-6.6630899352572E-06	-1.53337654550403E-06	-1.19440788916811E-05	2.65717239093986E-06	0.97503723357095	-0.202063866170516
8.1	0.691781641300307	-0.698073555173812	5.04966118402418E-06	6.86317094799708E-07	2.89153165721978E-06	2.22484542361938E-06	0.973364287542801	-0.198651754001688
8.2	0.601814521022611	-0.779151097331892	3.52991702260474E-06	-2.57867953835654E-06	-3.72016043244488E-06	-1.15275917694998E-05	0.97427274684742	-0.199770660972844
8.3	0.500649879797961	-0.84876765853785	2.70510217881183E-06	-1.85743494368245E-06	1.64885238285977E-06	5.25570330777656E-06	0.973968971418453	-0.202080669937494
8.4	0.391023741440127	-0.905405130947612	-5.52405067193279E-06	-1.00164023900113E-06	1.05603476786402E-06	2.93249997400176E-06	0.972901977017791	-0.204496332660409
8.5	0.272632458344296	-0.947508716397072	-3.27508207586514E-06	1.62304110272915E-06	-4.7814678234936E-06	-4.9795114911761E-06	0.971615963953391	-0.205643433504947
8.6	0.151651339041255	-0.97185649937896	-8.1061479965429E-06	1.40345887688404E-06	-4.34430906564395E-06	-6.8245084618148E-06	0.972589414987762	-0.207451887693979
8.7	0.0293453971166966	-0.98268674562375	2.22996070620526E-07	-2.14259833667476E-07	6.09120528390066E-06	4.90671157475583E-07	0.972670052665819	-0.210218837074816
8.8	-0.0934725018054613	-0.978232516797581	1.01543980940356E-06	-1.81022998131835E-06	-2.37999085541246E-06	-1.26879937997104E-06	0.972451551038454	-0.212560482611372
8.9	-0.213047918434171	-0.959770077659933	-2.99986159110097E-07	3.01502433962745E-06	-1.22547805150902E-06	-1.63111734557716E-06	0.972550732701611	-0.21471257003322
9	-0.331831338463969	-0.930388375466124	2.95948945661002E-06	1.59244429940336E-06	-1.57685313223751E-06	2.10030274170576E-06	0.972413356268819	-0.217403699089724
9.1	-0.448556326523871	-0.8811041705997	-9.30083276338111E-06	2.23603061055426E-06	-1.56768883786497E-06	2.40089575259869E-06	0.971657122014993	-0.219638482773524
9.2	-0.556324023632619	-0.817845348263987	7.49696951556677E-06	-2.13490430399172E-07	-9.1016111194654E-06	1.94216849858721E-06	0.970688869295776	-0.221790105244586
9.3	-0.655464549147739	-0.741495123187926	9.48861904480155E-08	-7.16272976863957E-06	1.58979224288321E-06	-1.29615329135481E-06	0.970223715885327	-0.223213274319625
9.4	-0.744624593157351	-0.65363592850859	5.95498740020413E-07	2.48888988050331E-06	1.62697411234968E-06	-3.60061260606524E-06	0.970864426085728	-0.225224934270596
9.5	-0.823139556992944	-0.549768515844832	-2.85958800235551E-06	6.67084550698377E-06	4.73252333965976E-06	-1.3860665320517E-06	0.970421592455237	-0.229947467395101
9.6	-0.878854799996265	-0.43918004364081	-5.03437663121591E-06	-5.1747028975985E-06	4.76258024022924E-06	2.85773054522216E-06	0.968521239917237	-0.231799539195357
9.7	-0.924566240861958	-0.327215438070687	-2.00672228288983E-06	-5.05368031428401E-06	2.09045941806873E-06	5.72764973478754E-09	0.968770630744297	-0.233576814370907
9.8	-0.958222899583678	-0.20896564173448	5.84971059893984E-07	-4.27350428674914E-06	-2.93616884259167E-06	-2.50597936449714E-06	0.96967091005052	-0.235977432938429
9.9	-0.977121160830344	-0.0864783637838562	-6.09010637506931E-06	4.21039375687929E-06	-3.07307368262245E-06	1.6668225889524E-06	0.969862239248194	-0.240618858298358
10	-0.981298685019769	0.0381290386456925	3.55661594838824E-06	-5.01378974300309E-08	8.22059009955726E-06	1.10357289961445E-05	0.963374013821493	-0.242952339390914
10.1	-0.967325564519936	0.162930938381782	-2.84831788041283E-06	-2.51040943955294E-06	-2.00307678275317E-06	-2.48626385974741E-06	0.964058123263978	-0.238988349727519
10.2	-0.937749327947383	0.283944726479305	2.34726573871155E-06	-1.0195517756154E-06	-2.75921600945147E-06	-1.06033198517497E-06	0.966237209699977	-0.240448144427299
10.3	-0.892859776088553	0.400166819396859	7.72023294381273E-06	-5.93595296912731E-06	3.8550101250175E-06	8.19219292033936E-06	0.966595967894716	-0.243269219475666
10.4	-0.832756235874854	0.508289871210848	1.695495101073E-06	2.46576600613343E-07	6.23544463271763E-06	-1.18912247359848E-06	0.965260183936099	-0.246842445910994
10.5	-0.763651039648934	0.603825588501766	8.2926852079155E-06	-4.08496731863522E-06	-4.95620216443181E-07	1.95500532342803E-06	0.962797040833878	-0.24800641586969
10.6	-0.685574122133772	0.695979495943487	8.89508844540538E-06	-1.22670310248098E-06	-1.52437136433375E-06	1.35650586476878E-05	0.963164064045904	-0.250664767824098
10.7	-0.593266848125922	0.77757493583272	7.9865885743429E-06	-1.86722569396125E-06	-3.02188923213879E-06	-5.26759835630278E-06	0.960986102728601	-0.253464389339594
10.8	-0.489882871779093	0.846554558997066	2.42153621378864E-06	5.23024960892126E-06	-3.60947484623678E-06	-2.16167104645663E-07	0.959591164004805	-0.2538369995982
10.9	-0.379136378565505	0.901396285116178	-5.53492475612784E-06	4.58787294237528E-07	1.5720618908349E-06	4.01666708838851E-06	0.959472445561288	-0.254281506915511
11	-0.262898699035599	0.945151545048494	2.36534609854642E-08	-5.21141243220529E-06	-8.37212931721916E-06	2.19433686607423E-06	0.959166719581631	-0.254544741191898
11.1	-0.137117947539312	0.970096268080594	6.28251998399606E-06	4.08830054475521E-06	-1.91802434836726E-06	1.07225065929083E-05	0.960632985609814	-0.254433103164074
11.2	-0.0139979161706774	0.977110781483385	1.56832851301884E-06	1.35303220610487E-06	5.09262400830617E-06	8.8762653097957E-06	0.961852538903172	-0.255905249426552
11.3	0.107578494010813	0.969959332126852	-4.53153441686276E-07	-1.73059283366558E-06	-6.77907000835729E-07	-4.37648812218198E-06	0.963330022999208	-0.257771246683974
11.4	0.22768307987661	0.949372913540795	1.52556857586256E-07	1.18091478235779E-05	2.38277664801229E-06	4.92179818752481E-06	0.965593846976744	-0.261252573645515
11.5	0.345513754840056	0.914264903411997	6.18359835102704E-06	-2.92764864023122E-07	3.25550687531639E-07	-1.87654127355968E-06	0.964043049983491	-0.268601717880176
11.6	0.457073800443088	0.864708260148281	-5.99503785237023E-06	3.03727568067387E-06	-4.85958807794373E-06	1.88906134373132E-06	0.960606208037726	-0.2704923484413
11.7	0.561813916666905	0.802527143622824	3.32322087660038E-06	-1.77174941611793E-06	-1.71161207733801E-06	2.21955629463958E-06	0.961016386051168	-0.273541904466337
11.8	0.659393879371022	0.727597683454035	-8.76320394891436E-07	9.76395857658193E-06	-2.77130845970809E-06	1.04953365999751E-05	0.961676302792441	-0.278656703503946
11.9	0.748732311843943	0.638196718074353	-7.28860146692383E-06	-1.06494962749491E-06	-3.95267891548204E-06	1.1228774171056E-05	0.960585816977065	-0.285911527746029
12	0.821035605398872	0.533755742314039	-6.427530734253E-07	1.37696549006766E-06	-3.12510098959817E-06	-1.91938623016694E-06	0.951300054238689	-0.289573279831028
12.1	0.88018264974176	0.429218407264767	-3.88043897562325E-06	4.95730642104301E-06	-1.36082588926338E-06	8.38048269186282E-06	0.950340187652973	-0.285231968972686
12.2	0.928365406372869	0.314743833995005	-5.67210008019003E-07	-3.79045546403569E-06	-3.10507806612406E-06	-7.35972769233054E-07	0.951047452189229	-0.286649495687571
12.3	0.960033063685853	0.194972666290009	3.58070953375544E-06	3.42373531520393E-06	-3.429365523794E-06	6.24105404688431E-06	0.950229129197646	-0.288883250960988
