# GHZ S RI R 50
0.2	-0.965977485147726	0.251546103977096	8.82310598865347E-06	5.32091061863089E-06	1.13672293875001E-06	-2.88971125783088E-06	0.999682894280932	-0.00690214324141963
0.3	-0.926511903782683	0.371350094973054	-7.66242107981332E-06	-8.19156643423132E-07	-1.45660500588911E-08	3.65956696792873E-06	0.999600985968966	-0.00987529519214399
0.4	-0.871809850749351	0.48506633863016	-2.19841654491019E-06	6.3394725565548E-06	2.91962230204777E-06	5.73645893069559E-06	0.999545868396698	-0.0125840574775431
0.5	-0.803507403001009	0.59112753071914	-2.64896369990346E-06	5.49095084255567E-07	1.05205969489044E-05	4.88425664026606E-06	0.999288174355985	-0.01577688777604
0.6	-0.722237571884455	0.687470696050339	-1.72514560669451E-06	-1.81856710960639E-08	4.162412540395E-06	-1.03355324403289E-05	0.999245022545118	-0.0186257532122972
0.7	-0.629763208046624	0.772875502348165	-2.04677807385462E-06	9.88269924353762E-07	3.78329129353936E-06	1.1159010696183E-05	0.998884300539585	-0.0215232630457278
0.8	-0.52721200287038	0.846048361166749	-5.60484773724271E-06	3.78162926037557E-06	-3.16758213878048E-06	-2.13880616280774E-06	0.998669551483371	-0.0236468082002304
0.9	-0.416504921020891	0.905518829283802	-6.68643364632875E-07	5.24966994435398E-06	3.26602830825841E-06	-2.94689209311862E-07	0.998637666127837	-0.0260233858552584
1	-0.298754601536034	0.950622844106719	1.56835963756234E-05	-3.68704846636482E-06	-9.59734846385848E-06	5.27328238465746E-07	0.998403278773227	-0.0277276708860074
1.1	-0.177289686942704	0.980316943238778	1.3419514433416E-06	-2.98190008107963E-06	9.39578383516939E-06	1.2595734357099E-05	0.998079042684674	-0.0298668047858763
1.2	-0.0521635982137238	0.994585916372824	-7.9076330938905E-06	-3.2580984506312E-06	-3.09758608431326E-06	-4.47781272713248E-06	0.997308077063652	-0.030989730497001
1.3	0.0738552433005598	0.992931674303601	1.79034043416539E-07	3.33356562491385E-06	1.92884010292516E-06	3.40732222410609E-07	0.997319268922582	-0.032032401728026
1.4	0.198314290543767	0.975286524873065	2.36473774209353E-08	3.76656754870528E-06	-2.52876877146299E-06	-5.61280410985497E-06	0.996989731460216	-0.0342280978215996
1.5	0.319501772263905	0.942526107558977	3.18574149148633E-06	-2.6769559199098E-07	2.70204629368375E-06	2.09286540180485E-06	0.997374530856236	-0.037675844777321
1.6	0.435416852233642	0.894947143362823	1.78638064509443E-06	-1.93926692739939E-06	-8.94415369127489E-07	-3.0621148110366E-06	0.996829416730558	-0.0409415699086682
1.7	0.544197155787211	0.832895403945551	-8.65378414441794E-08	-3.52369248114168E-06	2.00607022393286E-06	4.92431279302835E-06	0.997220339033136	-0.0433086835566509
1.8	0.644127347103622	0.758125678759047	-2.05726939174952E-06	-1.81297022933199E-06	-4.63370099043767E-06	1.83135381221331E-05	0.997091294013254	-0.0459191062178206
1.9	0.733747535346074	0.671589427650244	-4.38855187676272E-06	-1.46583229990843E-06	-4.9247819990583E-06	-6.00032037915666E-06	0.996902513454828	-0.0480156431821536
2	0.812008106636338	0.57459153627613	-9.46761927724176E-08	-6.73850328363249E-07	-1.66740995046023E-06	-1.41735328226178E-06	0.996551620386512	-0.0505283408107417
2.1	0.877975199712899	0.467216260082459	-1.13955836795876E-06	9.4432765162615E-06	1.99339610002035E-06	-3.80255400463275E-07	0.996373783498583	-0.0528376497569435
2.2	0.929315380227967	0.353198295258679	-2.3230618171404E-08	-5.92503289511644E-06	-7.36041764290576E-07	2.73533252547375E-06	0.996330567881724	-0.0551541244127903
2.3	0.965883818881311	0.233653301174065	-1.3143188034164E-06	2.76325704457147E-06	-2.70964893423712E-07	1.19622735649343E-05	0.996061823211751	-0.0569359483160814
2.4	0.987201306060565	0.109733107455171	-5.86637640407295E-06	-3.70566286924074E-06	-1.75797614036667E-05	1.45079782172981E-05	0.996014264449754	-0.0600085182871802
2.5	0.993271002302421	-0.0148950227043191	1.81876270413962E-06	-2.95962078551669E-06	-1.79281218431249E-06	7.54087923851941E-06	0.995606584581028	-0.0622259861038628
2.6	0.983586704745969	-0.138458966118032	2.85977307385212E-06	9.20272693941223E-07	-1.75291737441209E-06	4.49860598765355E-06	0.995484019547116	-0.0649964251923744
2.7	0.958434280914704	-0.260403292661054	3.81462533691204E-06	1.0442814540573E-05	2.319236780828E-06	3.86796066165923E-06	0.995162232747475	-0.0678594543923535
2.8	0.918229771740412	-0.378524311662127	-8.11748773090159E-07	-2.29256492650704E-06	2.20558632443547E-07	-1.88715139723886E-06	0.995369648602714	-0.0698547939210798
2.9	0.863748333898362	-0.490248911537926	3.77112595487095E-06	-8.31190887697541E-06	-1.26426553669327E-06	-1.42212548527027E-05	0.995085463519756	-0.0719218674693291
3	0.795681889423493	-0.594704704196239	-1.73063607893484E-08	6.64709964193532E-06	-1.47692958597762E-05	5.29064085878314E-06	0.994934812690363	-0.0744358216329579
3.1	0.716026274333858	-0.68889965860429	-4.98830539213759E-06	7.81731761141462E-06	5.80681474548694E-06	-8.10037208242056E-08	0.994567534147352	-0.0764539912851682
3.2	0.623370183332587	-0.773566449788149	9.58288522980445E-07	2.12588665572897E-06	-4.56005623782413E-06	4.74432394225456E-07	0.994251609106047	-0.0781986278151823
3.3	0.521079271228422	-0.845813884375499	7.20471075383391E-07	-1.45866324588694E-06	-4.5809339494038E-06	7.2745415427555E-07	0.993988381188571	-0.0814516589969231
3.4	0.410028225396446	-0.90433247074281	6.46852210878605E-06	2.40608308565033E-07	-8.12820570105537E-06	-7.18663548591886E-06	0.993922294591969	-0.083517271244417
3.5	0.292944073552162	-0.948326752912437	-7.69713247636513E-06	1.9551492385875E-06	-5.89413796009883E-06	-7.98353583018679E-06	0.993563942213417	-0.0863097699459097
3.6	0.170466837601147	-0.977867383546754	-8.52993833584347E-07	-4.38082292408662E-06	-7.80871018937503E-06	-6.33643483694051E-06	0.993197800076176	-0.0886426840862685
3.7	0.0454202893554281	-0.991880869385571	-6.70895317902938E-06	-6.77361900690707E-06	5.31463831564465E-07	-4.76258459557018E-06	0.993049836485069	-0.0911715339100964
3.8	-0.0805688131939452	-0.989421416466047	-3.64386620273525E-06	1.08019365674871E-06	-3.29433290316959E-06	-2.4675402023962E-06	0.992716573549811	-0.0930473148684173
3.9	-0.204305701782664	-0.970983393946526	-4.82277756579286E-07	3.50701094640317E-06	2.05418070339028E-06	-1.21753928255125E-06	0.99284279187409	-0.0960121201910768
4	-0.32461996340793	-0.937608606137063	1.16739329956989E-05	8.1294363269688E-06	7.270236924326E-06	-4.03513818841676E-06	0.992796759170392	-0.0972442104556853
4.1	-0.439718783010525	-0.889707250378555	5.21856599843346E-06	1.32751877721494E-06	-3.4637297502315E-06	6.65186328784536E-06	0.992833322086266	-0.099186708200141
4.2	-0.547862494181115	-0.827939980340098	-7.10039456020194E-06	-1.20629014889358E-06	-8.26959918980948E-06	-4.64572898167125E-08	0.992478311793586	-0.101837686174087
4.3	-0.647527865308666	-0.752546892610301	7.03900603486042E-07	-2.36881024332548E-06	5.21507397043539E-06	8.83546212619679E-07	0.99257700780418	-0.103931207017641
4.4	-0.736940661263995	-0.664840913058674	4.47591092945709E-06	-1.77331054774833E-06	-8.69293959139476E-07	1.34703323829513E-06	0.992261587625775	-0.106504507046477
4.5	-0.814601361721643	-0.566352051154999	6.78682235366257E-06	1.86956524217773E-06	-8.04120386325943E-07	-3.25855375284584E-06	0.992222280488717	-0.108836461469996
4.6	-0.879331034625308	-0.459119995138764	2.45547152219882E-06	2.95232167901303E-06	-6.59097725578366E-06	9.74663141939326E-06	0.991768283330184	-0.111775519061505
4.7	-0.930118644418236	-0.343893284625426	-1.40535161921369E-05	5.91240898899887E-06	-3.46226913376904E-06	-3.56476647116072E-08	0.991587009055522	-0.113875207337736
4.8	-0.965969716592629	-0.223667845186357	-3.15894532040194E-06	-5.14432858236181E-06	-5.52498328897501E-06	2.36258540379788E-06	0.991136324384199	-0.116371243282107
4.9	-0.985998052291857	-0.100236845457437	-1.01587288506456E-06	-8.55300467945159E-06	-4.22180020906818E-06	7.37363681162771E-07	0.990753808944656	-0.118165314724506
5	-0.990388999631361	0.0240405704823193	7.55247961402011E-06	-1.56556020485644E-06	-1.75067421188677E-06	-2.72322700804553E-06	0.990583773201323	-0.119818458581426
5.1	-0.979555868614777	0.148808151457566	-2.596260111099E-06	-6.39706137219342E-06	-1.00727806197571E-06	-1.95420999404278E-06	0.990532891522178	-0.121183282447338
5.2	-0.953659595172162	0.270898790042355	3.99898986725052E-06	-4.33107974029318E-07	-5.44602284841765E-06	6.30485039818216E-06	0.990396935586356	-0.123379416604238
5.3	-0.912537085659656	0.388963184459234	5.13712928418288E-06	6.01401568762914E-06	-9.58143941334634E-07	-3.58859443089878E-06	0.990309772782241	-0.125764842585096
5.4	-0.856630748692906	0.500875685187036	3.06540425928753E-06	-2.01592661724114E-06	-1.13224538243614E-05	2.19493672810735E-06	0.99036720101494	-0.128807417754784
5.5	-0.786515224919259	0.604255530456595	-4.31389783577191E-07	-2.19573332827766E-06	-5.79343080533431E-06	6.12582322375104E-06	0.990001958107312	-0.131847062240216
5.6	-0.704291047640937	0.697689958841565	2.37707512452875E-06	7.30961123873181E-06	-5.39957498937968E-07	2.93061849668706E-06	0.989679210490454	-0.134430447389477
5.7	-0.611422797208227	0.780789730391923	-2.57509186992114E-06	2.36115426439765E-06	7.91571955196607E-06	2.78616162231953E-06	0.98937079742932	-0.136853020424131
5.8	-0.508549264890166	0.85121954242344	-4.65647239140986E-06	5.10617555412231E-06	-3.68999253409312E-07	3.42557232339819E-06	0.989254756316691	-0.138990575892725
5.9	-0.397908223913981	0.908644439901367	6.36470009542946E-06	1.50517820675375E-06	-2.71659540548138E-06	2.54834701536277E-06	0.989111213577728	-0.141153775944693
6	-0.28092536638559	0.951786491941331	3.52777095647799E-06	3.30744971227173E-06	-3.27965518325962E-07	-1.43676748450861E-06	0.98927537356008	-0.142759994144169
6.1	-0.158937994095515	0.979579889322795	9.19535416342333E-06	1.52497597759803E-06	-1.28296376462582E-07	-1.81224216022006E-06	0.989603758239676	-0.144693719171524
6.2	-0.0340273518895338	0.991497801125688	2.44266711081376E-06	-1.73522722844477E-06	1.47903432499581E-06	-4.85547976604201E-06	0.989327185814178	-0.146638920681708
6.3	0.0912305307229044	0.987385557714697	-4.36136686604317E-06	4.25664653487359E-06	-6.1821655326262E-07	-1.72697217126991E-06	0.988710164148456	-0.149129911574884
6.4	0.214413781617299	0.967557242715658	-4.26783696075587E-06	1.07671638385838E-06	-1.75152887646038E-06	8.8549551790294E-06	0.987818619800244	-0.151425229013342
6.5	0.334279421831475	0.932941951360486	2.45183314401341E-06	-1.33521230769301E-06	1.48441846614342E-06	-2.93372592805766E-06	0.987259668417449	-0.154146199511307
6.6	0.448305653645257	0.883096512825957	-4.73643338667234E-06	-2.25018904322454E-06	-1.87106718846965E-06	-6.637053342196E-06	0.986474329620232	-0.156545728961039
6.7	0.554933034767413	0.819859069418732	4.16055799824862E-06	-6.62542552190881E-07	-4.67337427890211E-06	1.0128094110953E-06	0.986131774259503	-0.158476588456672
6.8	0.652963328879679	0.743922279328422	3.75432244921934E-06	-2.07946685891899E-06	6.21025249967502E-06	-9.24144121039763E-07	0.985802441576002	-0.160564787294579
6.9	0.740640667355687	0.656387465370885	2.04695340989347E-06	1.63959469441153E-06	8.77668484758534E-06	-2.75590099186502E-06	0.985541129754516	-0.162601541207633
7	0.816653143278029	0.558554423165555	2.17200756700423E-06	4.09407195970886E-06	-9.2741402161263E-08	5.37987944361136E-06	0.985124208032182	-0.164445693601161
7.1	0.87972862874763	0.452291263998055	-1.33044540682563E-07	1.71601729116614E-06	8.25355068104975E-06	-4.64058378822361E-06	0.984480989263243	-0.1663362668446
7.2	0.929008464426085	0.338753585527225	4.84394472539736E-06	-1.39109792943455E-06	7.24972996725459E-06	3.78023076842969E-06	0.983702456929694	-0.168054481326728
7.3	0.963441054175343	0.21984927351079	4.85726219949665E-06	-1.10545549869808E-06	-7.331458673462E-06	-7.37734527442918E-06	0.982614280551319	-0.16980960277477
7.4	0.982819514571077	0.0970344566091376	-1.84201547035128E-06	9.88485785918223E-06	1.43346615531014E-06	-4.06434771337495E-06	0.981428090370819	-0.172153110420195
7.5	0.986419842706622	-0.026935240605341	8.38593652508056E-07	8.05583981162802E-07	1.67017657889035E-06	9.92494215635611E-07	0.980219078801859	-0.174124523170588
7.6	0.975114930693709	-0.150775044370062	1.45375021840313E-06	-2.61086228260132E-06	-5.41155201630979E-06	-3.62341670275658E-06	0.979929526479648	-0.176936866793349
7.7	0.948244818188314	-0.272443474376326	5.56438805190188E-06	2.40648301890471E-06	-6.81919994431438E-06	1.20304301822221E-05	0.979554368899559	-0.180054345888365
7.8	0.906633076416628	-0.389638804209454	-6.10904330727231E-07	-5.23593208091752E-06	3.73075275484197E-06	-4.72965529730883E-06	0.97951017338459	-0.183124110614491
7.9	0.850498135484348	-0.500514583959308	8.84028332765962E-06	1.53146469506114E-06	-9.51959061959126E-06	-8.6318371300452E-06	0.979435696316596	-0.186188810663354
8	0.781621244295668	-0.602992777250579	-6.64848618612124E-06	-1.63569706345182E-06	-1.19993289406263E-05	2.4806461996668E-06	0.979464485523149	-0.188798581650047
8.1	0.70018907149496	-0.697130749821596	5.07395328971333E-06	7.3549161179605E-07	2.8891024622814E-06	2.26403677598533E-06	0.979369205098607	-0.191949520038542
8.2	0.607293235263611	-0.779688703825826	3.56651652562324E-06	-2.57245834427341E-06	-3.67200916645794E-06	-1.16184951203146E-05	0.979078144173398	-0.194468968917386
8.3	0.50453402570046	-0.849876902581287	2.72948485373361E-06	-1.85649713401986E-06	1.63534175685998E-06	5.29437072185443E-06	0.978615740806713	-0.197238481950603
8.4	0.393534825467413	-0.906423891301362	-5.55460404419276E-06	-1.02155536305677E-06	1.05496985012296E-06	2.95271982672933E-06	0.977985625962623	-0.200032903892536
8.5	0.275930990312605	-0.948185588052608	-3.28900710012966E-06	1.62509947215894E-06	-4.79307395607189E-06	-5.00342998208207E-06	0.977417814733615	-0.202989019057661
8.6	0.154121630252489	-0.974964583893427	-8.13875201400492E-06	1.38592487831911E-06	-4.34074810995853E-06	-6.86073798134018E-06	0.976819471927119	-0.205860682704176
8.7	0.0297636388797599	-0.986482148029331	2.24585656198051E-07	-2.14616146471922E-07	6.11730520764482E-06	5.09513438721511E-07	0.976239690575957	-0.208486571017237
8.8	-0.0952041182968902	-0.982242481680249	1.02499841114458E-06	-1.81786412456365E-06	-2.39017467723001E-06	-1.28100474784703E-06	0.975718315393812	-0.210771662592392
8.9	-0.218448880890938	-0.962914099070241	-3.03578690503934E-07	3.0356534425406E-06	-1.23309960053751E-06	-1.64297950413164E-06	0.975532566114881	-0.212848752535308
9	-0.337859312122955	-0.927264101046374	2.97818249044977E-06	1.59141113219183E-06	-1.5782429365685E-06	2.11486720316777E-06	0.97524943398249	-0.215063872944266
9.1	-0.451094217394605	-0.877544641611935	-9.32228933285071E-06	2.25851721205428E-06	-1.56774057890327E-06	2.41021226088902E-06	0.975019703737826	-0.217134780141029
9.2	-0.55769927449965	-0.813985189233697	7.51283236915607E-06	-2.27182563627013E-07	-9.11789932685213E-06	1.96243687926586E-06	0.974644537279913	-0.219789786264351
9.3	-0.65517739353555	-0.737743181108648	8.16595168602084E-08	-7.17067243247498E-06	1.589103862307E-06	-1.30051716590735E-06	0.974282294056664	-0.222516696593862
9.4	-0.74252863650208	-0.649838349674511	5.99648089319086E-07	2.48568645727521E-06	1.6188807722733E-06	-3.6006271386052E-06	0.973491605390854	-0.225755390830073
9.5	-0.817359117235826	-0.55120095460669	-2.87004907889258E-06	6.64796167298075E-06	4.72505442458395E-06	-1.37068859735949E-06	0.972446672457421	-0.228529003950596
9.6	-0.879710768454368	-0.444310196509851	-5.02662086864511E-06	-5.20266436389465E-06	4.76231512379869E-06	2.8800524228715E-06	0.971827214894798	-0.231662995774384
9.7	-0.928605817770251	-0.32975275887828	-2.00383872642128E-06	-5.07257738632353E-06	2.09679227806439E-06	9.45651366515241E-09	0.971044478832491	-0.234429683839718
9.8	-0.963031454424274	-0.209334977331666	5.90757452295313E-07	-4.28471728305594E-06	-2.94181813826907E-06	-2.51575698108504E-06	0.970421290293292	-0.236626190128963
9.9	-0.981844913774857	-0.0851633757390576	-6.11028565695623E-06	4.2100084024879E-06	-3.08252709214565E-06	1.66561546330979E-06	0.969517405057924	-0.238302574578664
10	-0.984788460920905	0.0400894935608596	3.57236492586475E-06	-4.23788253668153E-08	8.23197214958027E-06	1.11026904777659E-05	0.969358182547419	-0.239311109802895
10.1	-0.971313939648552	0.164377941542497	-2.86030410558224E-06	-2.52165809592538E-06	-2.01140860392968E-06	-2.49729372337211E-06	0.968943348119531	-0.241148731567396
10.2	-0.942567332412469	0.285857424469207	2.35615189170819E-06	-1.02280903729629E-06	-2.76917392829199E-06	-1.06484250886307E-06	0.968493479719591	-0.242524818045158
10.3	-0.898911352188737	0.40269853330508	7.75573222492985E-06	-5.95452455901938E-06	3.86481412725877E-06	8.2281269903416E-06	0.967836349038084	-0.244356897728678
10.4	-0.841606513179824	0.513189242646287	1.70542338301467E-06	2.49729766329475E-07	6.27402665616673E-06	-1.19010034476898E-06	0.966773082684637	-0.246399104013118
10.5	-0.77029359084514	0.616315219106949	8.34301559638765E-06	-4.14349777705398E-06	-4.93026992895167E-07	1.97164628974707E-06	0.965812451448681	-0.248713593220291
10.6	-0.686319872194787	0.707946206747797	8.9270089082116E-06	-1.2701181690417E-06	-1.47236183960708E-06	1.3628350203969E-05	0.964900580726879	-0.250834553604376
10.7	-0.591684494288754	0.788019373135319	8.00794775480059E-06	-1.90020916656026E-06	-3.04982265903259E-06	-5.27573665014549E-06	0.964404334481084	-0.253155412931478
10.8	-0.487302988348299	0.855775396738345	2.44730590487682E-06	5.24244033736354E-06	-3.62386813151048E-06	-2.05550790445899E-07	0.964014730157629	-0.255229641239758
10.9	-0.374999961501317	0.910342561346712	-5.55330335457112E-06	4.84054535431728E-07	1.59495028436897E-06	4.02472500160885E-06	0.963583276048574	-0.257221533268831
11	-0.256313020792775	0.949959289218087	3.52725575985568E-09	-5.21727815828404E-06	-8.37292020100681E-06	2.22914303402027E-06	0.963047688137654	-0.25868880355049
11.1	-0.13443745283129	0.973948581361303	6.30605907023811E-06	4.08396140673717E-06	-1.89889869455308E-06	1.07515600850711E-05	0.962749162428498	-0.260321643648803
11.2	-0.011247250287178	0.982716176456063	1.57766289565464E-06	1.35283535998499E-06	5.13645294691528E-06	8.89064369269417E-06	0.962066880637173	-0.262280658699579
11.3	0.111883339209888	0.975849568679537	-4.62529919368002E-07	-1.73481167786544E-06	-6.99929834774259E-07	-4.38925083808266E-06	0.961496244729346	-0.264433960503903
11.4	0.233123988993606	0.954355940367338	2.30445959009709E-07	1.1840707151599E-05	2.42163361361276E-06	4.9197374298529E-06	0.960294492067623	-0.267478794497471
11.5	0.351455717940294	0.918088387654284	6.18152406801545E-06	-3.2685860974686E-07	3.15173467800245E-07	-1.8781980516024E-06	0.958748669442175	-0.269927786272546
11.6	0.4630708523126	0.867040909351696	-5.98990465227849E-06	3.06701038692313E-06	-4.85788625495444E-06	1.91240905279607E-06	0.957681355678228	-0.273259891683588
11.7	0.567189922031894	0.803309799205645	3.31869653880434E-06	-1.79132356739572E-06	-1.70254851384243E-06	2.2314482801804E-06	0.956394245545877	-0.276868027915877
11.8	0.662866701370896	0.726855460881038	-8.22525712973063E-07	9.76822185758566E-06	-2.71337926185019E-06	1.0509988617054E-05	0.954974510861745	-0.280304139106383
11.9	0.748038125678978	0.638619905441688	-7.27401968579344E-06	-1.04051682762902E-06	-3.90940033263635E-06	1.12132362073297E-05	0.953724714626879	-0.282136977481159
12	0.82254758631992	0.540453869735094	-6.45576131651762E-07	1.3779388347343E-06	-3.12665943414326E-06	-1.9264226234445E-06	0.953383325809846	-0.283249046752426
12.1	0.884054844050436	0.432457852516197	-3.87965903017605E-06	4.97174527487893E-06	-1.35051452933481E-06	8.39703468987355E-06	0.952915928918259	-0.284686966835836
12.2	0.930749056538939	0.318143593254026	-5.67007173545967E-07	-3.79379148373763E-06	-3.10759337747786E-06	-7.37163060697955E-07	0.95283116656246	-0.286391861754375
12.3	0.963176892956367	0.199946889244518	3.58424714982315E-06	3.44000567837006E-06	-3.45065365955482E-06	6.25199220656583E-06	0.952874784610587	-0.288611484874236
