# GHZ S RI R 50
0.2	-0.967114131414185	0.250899400116388	8.82709997872653E-06	5.33254100156916E-06	1.13997769286835E-06	-2.89148378677634E-06	1.00058870659722	-0.00630938660860917
0.3	-0.928194069226456	0.370743312574086	-7.67122813777926E-06	-8.27565818937485E-07	-1.81105363840764E-08	3.66413615292981E-06	1.00077661078944	-0.00917641077929151
0.4	-0.874171996528463	0.484835348490745	-2.20959513068292E-06	6.34859669865968E-06	2.91849333394927E-06	5.75025494545658E-06	1.00127137963285	-0.0117399774601519
0.5	-0.806014027516585	0.592058788021909	-2.65590488728369E-06	5.49441364275283E-07	1.05453706454808E-05	4.90081503364447E-06	1.00171502556852	-0.0158373191190985
0.6	-0.72420807975091	0.688529455629204	-1.72847918967346E-06	-1.8389507067258E-08	4.17147062028892E-06	-1.03551079664899E-05	1.00083987681223	-0.0189793669634193
0.7	-0.631910995057655	0.774180489900918	-2.05124368562337E-06	9.89502342183477E-07	3.78679281702942E-06	1.11827698251036E-05	1.0004978661448	-0.02152267979546
0.8	-0.529364113028144	0.847888046695957	-5.61867330898947E-06	3.787762071441E-06	-3.17372046608478E-06	-2.14475760248176E-06	1.00043080154774	-0.0235438735075801
0.9	-0.418468058367748	0.907896946991418	-6.72593927897478E-07	5.26109189577091E-06	3.27346683096674E-06	-2.93820010545069E-07	1.00044274550296	-0.0256118368964286
1	-0.300448679818518	0.95353915359906	1.5729728799469E-05	-3.68158176872503E-06	-9.62387452968537E-06	5.19298080179704E-07	1.00122033919262	-0.0268137071872558
1.1	-0.178477815010889	0.983757992371623	1.34799522108144E-06	-2.99147195119431E-06	9.42189304858451E-06	1.26434601233706E-05	1.00132543721253	-0.0299142096067201
1.2	-0.0526967459609512	0.998419367029684	-7.93511210883365E-06	-3.2704207008392E-06	-3.10800395477113E-06	-4.49390764003641E-06	1.00043680220868	-0.0311724852223108
1.3	0.0742544489906793	0.996900999738637	1.80929839400461E-07	3.34535824213939E-06	1.93583123528472E-06	3.4121611507058E-07	1.00047642784064	-0.0324752902049623
1.4	0.199564183841487	0.978944181611822	2.71727288714183E-08	3.77864713929419E-06	-2.54203335026132E-06	-5.62852113824584E-06	0.999803330866215	-0.0348644013735934
1.5	0.321638790098011	0.945896924127088	3.19581481496394E-06	-2.72104751012709E-07	2.71316640912235E-06	2.09667775260205E-06	1.00069925668374	-0.0384262115837229
1.6	0.438028364094353	0.897430803200133	1.78835279838559E-06	-1.94800859369318E-06	-9.02243460937162E-07	-3.06961659326172E-06	0.999838880116387	-0.0424115404221476
1.7	0.546941967733023	0.834939064043635	-9.26553318127024E-08	-3.53302208335109E-06	2.01968788251424E-06	4.93420247750376E-06	1.00013588012153	-0.0447514621861722
1.8	0.646942743833183	0.75974219417628	-2.06521434138727E-06	-1.81424520268943E-06	-4.61650458367736E-06	1.83662369662325E-05	0.999964181463963	-0.047287349510095
1.9	0.736239694000468	0.673304560944312	-4.39930616385487E-06	-1.46574624805013E-06	-4.94013428260724E-06	-6.00979993182919E-06	0.999916697498179	-0.048538927666459
2	0.816244536567895	0.577317055312703	-9.48741278120919E-08	-6.76880902841779E-07	-1.67436127654686E-06	-1.4242145698793E-06	1.00242436265622	-0.0509752286157735
2.1	0.883394079825903	0.467198926243369	-1.12394139929871E-06	9.49527418745214E-06	2.00295385126742E-06	-3.86799190168751E-07	1.00201787054272	-0.0564165957731383
2.2	0.933772951085565	0.35185857351624	-4.14008609291102E-08	-5.95057828805429E-06	-7.30881909347679E-07	2.74940317616751E-06	1.00071713648438	-0.0592539019611682
2.3	0.969636841023094	0.231723333055981	-1.31031025028201E-06	2.77849581715497E-06	-2.32290703648307E-07	1.20102409911554E-05	0.999817462739956	-0.0611130640389648
2.4	0.990421666372674	0.107424921043251	-5.90208918347303E-06	-3.69670978698544E-06	-1.75884396663699E-05	1.46286100928894E-05	0.999343635026566	-0.0640452826767381
2.5	0.996207892843534	-0.0177277257134487	1.81107833695151E-06	-2.97437436690016E-06	-1.76624271847005E-06	7.56679744054996E-06	0.999214358223969	-0.0661031774148823
2.6	0.98584149983041	-0.141757113006496	2.86945021671454E-06	9.13927556999744E-07	-1.74367462366253E-06	4.51474373758825E-06	0.99913165380068	-0.0692933741609413
2.7	0.960325519927623	-0.26416257965251	3.8584547314327E-06	1.04646869893815E-05	2.33837169026617E-06	3.87331779384475E-06	0.998920673439054	-0.0725151261651913
2.8	0.919387336943583	-0.383049511129024	-8.23095983388171E-07	-2.29794564179457E-06	2.1445566515467E-07	-1.89483319747219E-06	0.999012223269524	-0.0751297245025703
2.9	0.863748190147756	-0.49525449174496	3.74818902737024E-06	-8.35918901194633E-06	-1.3318979381546E-06	-1.42679750687044E-05	0.998290858890892	-0.0775869357758718
3	0.79455461333441	-0.599893830284845	1.63129590562517E-08	6.66978301961367E-06	-1.47926960633373E-05	5.38345551363352E-06	0.997919732238755	-0.0802664589771108
3.1	0.713433289383982	-0.694161213889695	-4.9603547671259E-06	7.87110554996935E-06	5.82533446918569E-06	-1.14140811478732E-07	0.997279647072623	-0.082817536800611
3.2	0.61921589784266	-0.778199747555841	9.74446674979189E-07	2.12556853909287E-06	-4.56945049347914E-06	5.0478619951094E-07	0.996437250114955	-0.0849361043869149
3.3	0.515470279493277	-0.849380617352093	7.1164563740379E-07	-1.46661263580049E-06	-4.58488565327849E-06	7.61086765267386E-07	0.995440515078159	-0.0885432799851159
3.4	0.403104564865612	-0.905694273448709	6.47358852227892E-06	1.91405961468076E-07	-8.1870648583226E-06	-7.12824837258682E-06	0.994186019813361	-0.090562730070478
3.5	0.288001920885166	-0.947177048259349	-7.67641868548697E-06	1.99753849400149E-06	-5.93341121225905E-06	-7.93956720380663E-06	0.993647425224665	-0.0919351231296034
3.6	0.165679089013966	-0.978061137725922	-8.75909681419025E-07	-4.37756045101753E-06	-7.84359023000418E-06	-6.29766056877172E-06	0.994010398087923	-0.0950132448979281
3.7	0.0395468565625342	-0.990968196221427	-6.75048904187178E-06	-6.73444364726399E-06	5.03027837768699E-07	-4.76646355530684E-06	0.99298102575018	-0.0981236981919599
3.8	-0.0864034291625271	-0.986902346399834	-3.63525307024009E-06	1.10210267442929E-06	-3.30779959633105E-06	-2.44589225826145E-06	0.991581201846742	-0.0997607195333135
3.9	-0.209227522214101	-0.967248554859074	-4.62183341965333E-07	3.50652467007743E-06	2.04548864054057E-06	-1.22794515530442E-06	0.991069376059231	-0.101306132140047
4	-0.328960096832275	-0.934026185187933	1.17262053416423E-05	8.06158431256828E-06	7.24807574361856E-06	-4.08003038133042E-06	0.993569476457261	-0.101955432498463
4.1	-0.444459309419381	-0.884987660941642	5.22334699143458E-06	1.28721823336988E-06	-3.41061616475591E-06	6.67119492463683E-06	0.992997676985143	-0.106611873539982
4.2	-0.551773787134661	-0.822028181795866	-7.09419763421602E-06	-1.15298333151882E-06	-8.25266488717412E-06	1.27909984489584E-08	0.991091020488899	-0.109407483057659
4.3	-0.650372457631881	-0.745961888256612	6.86098580990658E-07	-2.3674025339842E-06	5.20748297971971E-06	8.46084648237211E-07	0.990316354659759	-0.111169768814082
4.4	-0.738822842350972	-0.658060694105558	4.45261555436041E-06	-1.79688706797094E-06	-8.58417926901902E-07	1.34891036786202E-06	0.989621459489109	-0.113281816007216
4.5	-0.815956042761157	-0.559083763737203	6.78123464417957E-06	1.81865308100155E-06	-8.23993963270656E-07	-3.24436415098376E-06	0.989496035951698	-0.116050836080838
4.6	-0.879465923114154	-0.451445932659503	2.46624727425802E-06	2.92571566856328E-06	-6.50348313649753E-06	9.7556219972286E-06	0.987731311879732	-0.118862500104174
4.7	-0.929218442244938	-0.336120893363946	-1.39641957141495E-05	5.97869583191789E-06	-3.44963405895417E-06	-1.37747980017152E-08	0.987059807456092	-0.120372187503201
4.8	-0.96413028326298	-0.215704746205099	-3.17941210510933E-06	-5.10474951261924E-06	-5.48898571991135E-06	2.38849433661605E-06	0.986242608512385	-0.122551957478564
4.9	-0.98304233774267	-0.0913422489477982	-1.07086731949188E-06	-8.51057624480802E-06	-4.19922442448359E-06	7.63532783610264E-07	0.985259322602536	-0.124037875465625
5	-0.983170642488634	0.0329393391550573	7.49427137373418E-06	-1.60966515675323E-06	-1.75918865581819E-06	-2.69378001966844E-06	0.984563552761529	-0.125043766420186
5.1	-0.971370215589432	0.154118574338473	-2.61332727278338E-06	-6.33952583627317E-06	-1.01103717917028E-06	-1.93547197608104E-06	0.984151367431271	-0.12592400751583
5.2	-0.945259017480572	0.275019913599278	3.96936710100881E-06	-4.50108939523471E-07	-5.37713458278528E-06	6.28876048346961E-06	0.98356078217509	-0.127525635546409
5.3	-0.90329271851777	0.391618268810839	5.1270338612945E-06	5.94569627631244E-06	-9.67706643269277E-07	-3.55760466228418E-06	0.983091663653477	-0.129280564348523
5.4	-0.846912154625271	0.501326904801608	3.03230045211184E-06	-2.01145533768031E-06	-1.12208677517843E-05	2.22152488489132E-06	0.982467191683424	-0.131520080136738
5.5	-0.777713508973547	0.60243090669668	-4.32789261189748E-07	-2.17656167022071E-06	-5.73154786385609E-06	6.08818716772224E-06	0.982523890031713	-0.13262988969992
5.6	-0.696398212459462	0.695027779469456	2.37498358114244E-06	7.24953047874919E-06	-5.29572547626456E-07	2.90975318429048E-06	0.983122091305364	-0.135656871080727
5.7	-0.603903557958515	0.77688031644527	-2.54959417985E-06	2.34789596930456E-06	7.8587873150108E-06	2.74712707945166E-06	0.98211018723992	-0.138058036389742
5.8	-0.501817946941046	0.845528994966531	-4.60821585683018E-06	5.06866080694223E-06	-3.60638329841451E-07	3.39626756036544E-06	0.981198409223023	-0.139326687396146
5.9	-0.39331020018554	0.901044324044224	6.30430056744481E-06	1.49339296468975E-06	-2.69200179057191E-06	2.52337788988677E-06	0.980814527325062	-0.139149866940469
6	-0.279073512979471	0.945200010582894	3.49640259838888E-06	3.29248320969122E-06	-3.22588771544594E-07	-1.42764154799431E-06	0.98482173626899	-0.139751580113302
6.1	-0.157066544645841	0.972741777984272	9.13477418989084E-06	1.51958837415582E-06	-1.26567990339804E-07	-1.80051438507763E-06	0.984647145592023	-0.14446791697759
6.2	-0.0339542255509362	0.984005671032729	2.42687865752861E-06	-1.72059912047418E-06	1.47300688415637E-06	-4.81952029734653E-06	0.983188738521721	-0.145927539149987
6.3	0.0891739739265832	0.980381209243484	-4.33876500736151E-06	4.21967282894501E-06	-6.10931424093835E-07	-1.71615325924753E-06	0.982390082923222	-0.147527801332544
6.4	0.210944413845018	0.962828295919987	-4.24658299279843E-06	1.06158318534833E-06	-1.76091513194682E-06	8.80227849333563E-06	0.982341120957579	-0.148950757036506
6.5	0.333703272531854	0.928754491672634	2.43856343524221E-06	-1.33014137187555E-06	1.47494350090789E-06	-2.91993788163016E-06	0.982546737163643	-0.153739299937252
6.6	0.445342201691002	0.876199704873204	-4.69893048187482E-06	-2.23143170103524E-06	-1.8571832920438E-06	-6.58368752543288E-06	0.979014090622294	-0.155547853751843
6.7	0.549590946805806	0.814059164255824	4.12652342784831E-06	-6.51522452649757E-07	-4.63549733484838E-06	9.9817760057983E-07	0.978520982376304	-0.155737999454632
6.8	0.646211131931344	0.739392546168263	3.72692524912499E-06	-2.05340497444878E-06	6.15935079694535E-06	-9.02483370744131E-07	0.97839142032618	-0.156832333112755
6.9	0.732572361491461	0.653533471780037	2.02323957939784E-06	1.63198871610834E-06	8.70817419710688E-06	-2.70170953184193E-06	0.978319553408141	-0.157547183257752
7	0.808639725808582	0.558001365513842	2.13402890684308E-06	4.07426032080253E-06	-1.20202078768551E-07	5.33841675766206E-06	0.979880267131624	-0.158734857987161
7.1	0.871837246890643	0.452426833478812	-1.39874629563235E-07	1.70442948948848E-06	8.22145655496E-06	-4.57390812147834E-06	0.979115132631169	-0.161813796932292
7.2	0.92068908679525	0.340035951608483	4.81802901680924E-06	-1.36201747575081E-06	7.18675158746214E-06	3.78544325209721E-06	0.977738472353149	-0.163336524758715
7.3	0.954655217676637	0.222289560480973	4.82768220611254E-06	-1.07955449624417E-06	-7.25287003415667E-06	-7.35362698728054E-06	0.975936328428411	-0.164866756775276
7.4	0.972306798593132	0.101426389221193	-1.85899991741895E-06	9.78789459962759E-06	1.4342494949511E-06	-4.02216237141054E-06	0.972673921457965	-0.165890548090909
7.5	0.977038102433879	-0.0162902862667113	8.22385242445061E-07	8.03278290839886E-07	1.64292928140224E-06	9.94893856002717E-07	0.972715443658688	-0.162719190393612
7.6	0.970377765637379	-0.13961501596682	1.4687858868452E-06	-2.57567081317665E-06	-5.3324319875836E-06	-3.64979637940961E-06	0.975815963539452	-0.166444949301534
7.7	0.945184155392457	-0.260911063270405	5.50085392134337E-06	2.44630025409844E-06	-6.89395330705284E-06	1.18765998052164E-05	0.97555401055323	-0.169824932069042
7.8	0.905561924426759	-0.37712095146061	-5.48731853873576E-07	-5.20830168566862E-06	3.75876407422917E-06	-4.65712864589276E-06	0.975685361514794	-0.172046084469951
7.9	0.852992404471961	-0.486566880038321	8.77156583848115E-06	1.64130072452089E-06	-9.35223513107511E-06	-8.71200818982652E-06	0.976854225376115	-0.172799085163551
8	0.791069867679137	-0.593304859331795	-6.63050447032272E-06	-1.73116948421105E-06	-1.20438461887103E-05	2.31257868879982E-06	0.983019008328048	-0.1759949570592
8.1	0.706777060408547	-0.692837319224082	5.077317982006E-06	7.83143549852145E-07	2.87421904812843E-06	2.29482849518199E-06	0.982361335317295	-0.183803220766067
8.2	0.61235174985301	-0.77552698932793	3.58957750398347E-06	-2.54703933924788E-06	-3.58509823423327E-06	-1.16571036421418E-05	0.98077922910517	-0.186715939493086
8.3	0.509469349602475	-0.845803357593963	2.74467146303117E-06	-1.83756132594219E-06	1.59747604044728E-06	5.30941841966878E-06	0.980125510482139	-0.189317112494602
8.4	0.398823520480661	-0.902227755982779	-5.54988553239191E-06	-1.05886528060709E-06	1.03573303053201E-06	2.96083559351393E-06	0.979943337399769	-0.191928315119029
8.5	0.283378549762133	-0.944854185747361	-3.2968148704822E-06	1.59993521016829E-06	-4.75216889738478E-06	-5.03176832513867E-06	0.979889788198603	-0.195819089145284
8.6	0.161243625930484	-0.974604926286698	-8.15139209465581E-06	1.31447650128061E-06	-4.28069845350445E-06	-6.89927403407447E-06	0.978524355597707	-0.198603251711613
8.7	0.0356637998120414	-0.987378901701562	2.26791491107224E-07	-2.13011452541358E-07	6.12247538407446E-06	5.63167392453945E-07	0.978270566902997	-0.200678112554333
8.8	-0.0905969137327184	-0.98399615401374	1.04244258790425E-06	-1.81476273570072E-06	-2.38663114380839E-06	-1.30375334124739E-06	0.978344937576671	-0.202769468469256
8.9	-0.216028087649048	-0.964300916065216	-3.2372373314898E-07	3.04574811523513E-06	-1.22771561924714E-06	-1.65716447193841E-06	0.978771033169598	-0.204806841186188
9	-0.333997083785212	-0.925505417762526	2.97691138374642E-06	1.60689566294457E-06	-1.59005856226077E-06	2.11207252727241E-06	0.979265586547733	-0.206927327522747
9.1	-0.44515984690934	-0.878418663554998	-9.34655970312411E-06	2.20726149408679E-06	-1.58357639967707E-06	2.40403090385481E-06	0.979997989962293	-0.209393261536079
9.2	-0.552218239813573	-0.816580670115473	7.52630494716766E-06	-1.82122411837825E-07	-9.1444489009263E-06	1.9104662742148E-06	0.980311256377788	-0.212718276456036
9.3	-0.650228932817439	-0.741803537041942	1.26418144801075E-07	-7.18174756879868E-06	1.59976464066161E-06	-1.29272819641314E-06	0.980100510250254	-0.216325341309957
9.4	-0.737593346676331	-0.654788055212323	5.83235105152103E-07	2.49169627655902E-06	1.64459470202367E-06	-3.59243992159478E-06	0.978451335781262	-0.219710392032972
9.5	-0.812485849432607	-0.562039266337331	-2.94648146687887E-06	6.62736942828307E-06	4.74731442837671E-06	-1.3217284123378E-06	0.97834570521856	-0.220857497704316
9.6	-0.882850214232964	-0.456325471248489	-5.00271423588128E-06	-5.28550945704671E-06	4.76083973940899E-06	2.94637093222628E-06	0.979049725143984	-0.225399691469416
9.7	-0.935207878942511	-0.338668910848714	-1.97363591323241E-06	-5.12570217133402E-06	2.11143895515629E-06	2.78260674638353E-08	0.977978688635003	-0.228750283752632
9.8	-0.971183637327549	-0.215785711482711	6.29501280965443E-07	-4.31163807135593E-06	-2.94337063368761E-06	-2.55795027023463E-06	0.977106642038105	-0.23060430492579
9.9	-0.990730620673027	-0.0894873090182649	-6.19312912134376E-06	4.19350140861066E-06	-3.12057784428398E-06	1.65365335767266E-06	0.977161515928378	-0.230306619644338
10	-0.99371634151865	0.0366050326218376	3.60884058169741E-06	-1.65329641234678E-08	8.23364580806347E-06	1.12756322874942E-05	0.982723503919282	-0.233222659254436
10.1	-0.982162544005712	0.161842327494135	-2.87468253273169E-06	-2.56223598272938E-06	-2.01754569834637E-06	-2.53297182175237E-06	0.980142634695034	-0.239944466970329
10.2	-0.954805933414447	0.28569147607426	2.38476681345519E-06	-1.02062478640828E-06	-2.79098017920773E-06	-1.08980804150682E-06	0.97785121247282	-0.241324487776516
10.3	-0.912068744219714	0.405180119270839	7.86798417529548E-06	-5.97927321502576E-06	3.86495885966163E-06	8.33499454912417E-06	0.976882004949644	-0.242696216331197
10.4	-0.855850204564401	0.519544181058578	1.72570021725629E-06	2.60052506368444E-07	6.35752451199424E-06	-1.17850100916647E-06	0.976797829889565	-0.244353543808149
10.5	-0.781110259860321	0.628455072663777	8.45424482067501E-06	-4.19498019950686E-06	-5.00224080074586E-07	1.99740026248403E-06	0.97694528646471	-0.24878195994904
10.6	-0.693303674298249	0.719776152762244	9.02384906748083E-06	-1.28616343946745E-06	-1.48499387947954E-06	1.37770396338013E-05	0.975137420640758	-0.251310254547681
10.7	-0.597277365106457	0.800142865983504	8.09440013694219E-06	-1.92140491170354E-06	-3.08323130268235E-06	-5.33254772844236E-06	0.975420769461855	-0.254330224816641
10.8	-0.491569287415428	0.868907413419077	2.47810067393139E-06	5.29950158994527E-06	-3.66454734166195E-06	-2.05491137685911E-07	0.975074073715818	-0.258014491297009
10.9	-0.376263641800352	0.924415759007319	-5.61237548330589E-06	5.00819029669036E-07	1.62055959966567E-06	4.06495454233836E-06	0.974293071157012	-0.261177435053192
11	-0.255578211208448	0.960832892223755	-3.89978171871272E-09	-5.26396712146117E-06	-8.44465386116245E-06	2.26105917642715E-06	0.973728979967915	-0.264125327031696
11.1	-0.13576851936592	0.986417298758035	6.37486034553642E-06	4.12328203412246E-06	-1.91260658125195E-06	1.08659005368446E-05	0.971817150775559	-0.267466400714313
11.2	-0.0101201949400792	0.997521500948346	1.59800656184345E-06	1.36557169324017E-06	5.21040170884054E-06	8.9833424330549E-06	0.969534192092146	-0.269953987825608
11.3	0.116714661403576	0.991205414295296	-4.73404898870926E-07	-1.75348042007876E-06	-7.21985438837837E-07	-4.437977421786E-06	0.967087180336167	-0.272057323104286
11.4	0.24116468936941	0.968577341406751	2.89448417392031E-07	1.19666205947183E-05	2.47109820326772E-06	4.96094929790687E-06	0.963607760299458	-0.273973678432156
11.5	0.361730719522192	0.930371381983603	6.23777282099333E-06	-3.52715786309398E-07	3.11169530159607E-07	-1.89681878564989E-06	0.964106967178878	-0.273410797476698
11.6	0.475219127423734	0.877122938311715	-6.04207370991623E-06	3.12388177608892E-06	-4.90248966515594E-06	1.95235028880933E-06	0.964354646107432	-0.279418674981409
11.7	0.580610666049275	0.810808588919884	3.34444451353167E-06	-1.82806489543835E-06	-1.70876184497194E-06	2.26425606465825E-06	0.961548889073403	-0.283803049040331
11.8	0.676312101265719	0.731467876668291	-7.71620183099083E-07	9.86747157165818E-06	-2.67625799616845E-06	1.06277896042239E-05	0.958989625236767	-0.286376547012985
11.9	0.759946256877128	0.642314260662202	-7.34399368130529E-06	-1.01557178556759E-06	-3.89157072163094E-06	1.13319605340502E-05	0.959027109532213	-0.285446691504545
12	0.837847396706253	0.544849771426347	-6.47459900560211E-07	1.39924942413754E-06	-3.17723990907196E-06	-1.93679286469914E-06	0.965511772642927	-0.289616441359969
12.1	0.899780656283541	0.431031938231959	-3.87989335343873E-06	5.06799940785212E-06	-1.28819542031534E-06	8.51090937799779E-06	0.962255431225175	-0.297279216158085
12.2	0.944441219555685	0.314016595930204	-6.11725030586225E-07	-3.82711971778385E-06	-3.14720428636017E-06	-7.1292954544406E-07	0.959534490442233	-0.300525656380788
12.3	0.975324049840913	0.19399249871563	3.65699437076406E-06	3.43442185717978E-06	-3.41596077325579E-06	6.35096394330536E-06	0.957734016948084	-0.303669412544967
