# GHZ S RI R 50
0.2	-0.966155300737045	0.251391497892322	8.82267782575243E-06	5.32186322029811E-06	1.13702756236506E-06	-2.88963200724761E-06	0.999603285705075	-0.00689447955803642
0.3	-0.926802384148276	0.371202377970728	-7.66252901454692E-06	-8.20533212600744E-07	-1.52111003592804E-08	3.65968486022898E-06	0.999523050714499	-0.00977304098424778
0.4	-0.872226956144643	0.484993896048135	-2.20028787078893E-06	6.33965883346615E-06	2.91850629653041E-06	5.73787633246308E-06	0.999580576522754	-0.0123712051449595
0.5	-0.803908265607477	0.591233172830742	-2.6496372614979E-06	5.48751335989316E-07	1.05220359807588E-05	4.88716209721623E-06	0.999509382403852	-0.015660440258433
0.6	-0.722615622880533	0.687546053765914	-1.72545415239619E-06	-1.85089450602973E-08	4.16508220443248E-06	-1.03366291211525E-05	0.999485441944241	-0.0185851107616257
0.7	-0.630207496078264	0.773014267654967	-2.0474155587992E-06	9.88117142622659E-07	3.78209991583031E-06	1.11621934136633E-05	0.999163630979821	-0.0215878511529066
0.8	-0.527683678194942	0.846279455786501	-5.60668017638935E-06	3.78163313919709E-06	-3.16797160939728E-06	-2.13976600676065E-06	0.998894693066801	-0.0238210427985342
0.9	-0.41699237959511	0.905843420064141	-6.69604531075739E-07	5.25040168399149E-06	3.26659917843572E-06	-2.942050164841E-07	0.998705401740346	-0.0261917233364747
1	-0.299274004741905	0.951061696418587	1.56873152285213E-05	-3.68213081047487E-06	-9.59901911880103E-06	5.24051235788579E-07	0.998460961265396	-0.0276461318890236
1.1	-0.177831495471201	0.980928179809984	1.34382867000671E-06	-2.98214757908854E-06	9.39244317985663E-06	1.26041982329722E-05	0.998306042031382	-0.0296040928799527
1.2	-0.0526721250012879	0.995429208115648	-7.90944297361916E-06	-3.26487275494124E-06	-3.09620848207137E-06	-4.48205883420814E-06	0.997836652688908	-0.0305204917998158
1.3	0.0734932823768869	0.993959852669769	1.76650989726186E-07	3.33607671043094E-06	1.92995840441478E-06	3.42427809648151E-07	0.998234049990847	-0.0314812860723903
1.4	0.198139259580681	0.976324899537611	2.08754137192593E-08	3.76944782619918E-06	-2.52653328611481E-06	-5.61894318075181E-06	0.998075768753577	-0.0337065433611351
1.5	0.319527538419116	0.94345407075173	3.1883786260325E-06	-2.65719505977877E-07	2.70269385625729E-06	2.09632832975688E-06	0.998667172935029	-0.0372226573281768
1.6	0.435523888062186	0.895667915868959	1.78849003253655E-06	-1.93978015353056E-06	-8.93630235003405E-07	-3.06462131190736E-06	0.998093328808069	-0.0408633781501753
1.7	0.544351854107319	0.833491139639342	-8.54950165106951E-08	-3.52575479718984E-06	2.00570184717766E-06	4.92777949479262E-06	0.998339314571438	-0.0434708536371377
1.8	0.644285601395048	0.758592580740892	-2.05783533393607E-06	-1.81428106706421E-06	-4.6399521249589E-06	1.83211324091627E-05	0.998060190120263	-0.0462133184090063
1.9	0.733800829441876	0.672031215343964	-4.38970618440641E-06	-1.46765756956657E-06	-4.92479192374972E-06	-6.00394360693617E-06	0.997775074880109	-0.0482398568379653
2	0.812249615470375	0.575171583354717	-9.44516122488149E-08	-6.74352791676616E-07	-1.6679437908708E-06	-1.41904086443297E-06	0.997822691092946	-0.0507750207177047
2.1	0.878256620790917	0.467477150974379	-1.14097301218735E-06	9.45071604581021E-06	1.99500001468031E-06	-3.80449901751029E-07	0.997608312705253	-0.0535846760366662
2.2	0.929439455025479	0.353416404554101	-2.37288348329978E-08	-5.92940804452708E-06	-7.36363422333064E-07	2.73741297373322E-06	0.997398795219545	-0.0560742619178753
2.3	0.96594566853036	0.233903587051192	-1.31473814362266E-06	2.76553035187527E-06	-2.68825756048301E-07	1.19710562400071E-05	0.996980010117592	-0.0579590266645323
2.4	0.987254416212483	0.109982923850439	-5.87170381385718E-06	-3.70615555284175E-06	-1.75867615301594E-05	1.45240986956157E-05	0.99677099810382	-0.060991585519186
2.5	0.993236816860888	-0.0147371650503896	1.81838527838518E-06	-2.96177681891899E-06	-1.79050973366804E-06	7.54518635437636E-06	0.99645501453004	-0.0630435110938975
2.6	0.98338145898902	-0.138199449424505	2.86137680228565E-06	9.19932161950068E-07	-1.75252622342217E-06	4.50121161440241E-06	0.996502602205831	-0.0658918447810953
2.7	0.958239168832274	-0.260071517069015	3.82020579861388E-06	1.04477081288428E-05	2.32183455192815E-06	3.86948279132039E-06	0.996271161740465	-0.0688826231025247
2.8	0.918034568365904	-0.378199482571512	-8.13302207996452E-07	-2.29369712597652E-06	2.19859404907781E-07	-1.88848041186675E-06	0.996487010266218	-0.0710165482825641
2.9	0.863588680409524	-0.489989531267104	3.76900846810792E-06	-8.32010390113582E-06	-1.27345804888701E-06	-1.42307833906472E-05	0.996164205511962	-0.0731283187765748
3	0.795476179016956	-0.594686726682497	-1.2261355587692E-08	6.6525646419053E-06	-1.47773825822107E-05	5.30622125986946E-06	0.996120600856695	-0.0756113905999019
3.1	0.715519577739796	-0.688988611002347	-4.98483692362417E-06	7.8294015327682E-06	5.8119428771948E-06	-8.69776733132118E-08	0.995930318461028	-0.0778197235421968
3.2	0.62260005108055	-0.773591508099352	9.61830354298616E-07	2.12645334749072E-06	-4.563303240262E-06	4.8069248420753E-07	0.995634272831519	-0.0798154316377689
3.3	0.520069050341615	-0.845700637808254	7.18797093155636E-07	-1.46080792831969E-06	-4.58316521507929E-06	7.34882957720811E-07	0.995270055712006	-0.0832862708510271
3.4	0.40878099261667	-0.903899062368334	6.47185335756685E-06	2.29928066924968E-07	-8.14387438932976E-06	-7.17633317176548E-06	0.994987282967575	-0.0854079493615943
3.5	0.291908244893598	-0.947454492684452	-7.69580149354854E-06	1.96599607026909E-06	-5.90606041402E-06	-7.97687770200473E-06	0.994734476135202	-0.0879844386313844
3.6	0.169504083944661	-0.976986764930704	-8.59098347147997E-07	-4.38158693145819E-06	-7.82036331272923E-06	-6.32892774237192E-06	0.994576047454237	-0.0907060836347855
3.7	0.044518363608874	-0.99076707067005	-6.72156061572688E-06	-6.76615871996372E-06	5.24565645210971E-07	-4.76516073074781E-06	0.994142206279397	-0.0935664342485565
3.8	-0.0812513783042054	-0.988167950373599	-3.64288456643139E-06	1.08612388033012E-06	-3.29885062157792E-06	-2.46285332697503E-06	0.993389038612744	-0.0955376977087774
3.9	-0.204763548640547	-0.9698534292324	-4.76923952624895E-07	3.50792703837256E-06	2.0524169679316E-06	-1.22075069207476E-06	0.99309299525941	-0.0982725865383642
4	-0.325385806976668	-0.936770978295126	1.16887850642363E-05	8.11057995849835E-06	7.2641619498679E-06	-4.04778468015536E-06	0.993243626096131	-0.0991839419479989
4.1	-0.440828020469325	-0.888389229803641	5.21962789452287E-06	1.31738382324461E-06	-3.4503277357549E-06	6.65653447593478E-06	0.9932496143807	-0.101457434599578
4.2	-0.548805251671286	-0.826238487503665	-7.0988633572402E-06	-1.19322267728792E-06	-8.26543424770214E-06	-3.1935595473628E-08	0.992595924715375	-0.104198885199593
4.3	-0.648218395050158	-0.750678177614493	6.99668658209952E-07	-2.36846620351137E-06	5.21324945650747E-06	8.74643175182578E-07	0.992406870186397	-0.106219225845376
4.4	-0.73738739311929	-0.663046765450931	4.47080280687878E-06	-1.77835726049012E-06	-8.66932929385651E-07	1.34741150877438E-06	0.99192674744364	-0.108552161557027
4.5	-0.815220013842447	-0.564738646780485	6.78694007386476E-06	1.86050875175446E-06	-8.07914678290652E-07	-3.25649202401643E-06	0.991996098473881	-0.110703335182228
4.6	-0.880182465419095	-0.457189571008941	2.45907883056556E-06	2.94874701642408E-06	-6.57737792125033E-06	9.75419412765012E-06	0.991614785358002	-0.113617106053825
4.7	-0.930894568581321	-0.341543551591225	-1.40452944060934E-05	5.93316182631964E-06	-3.46242786995183E-06	-3.05808557031705E-08	0.991501416212411	-0.115748070067213
4.8	-0.96650542386868	-0.220949477716369	-3.16789866303161E-06	-5.13958516860679E-06	-5.52161434254882E-06	2.37209153569018E-06	0.991046019073736	-0.118356269304957
4.9	-0.986210417624574	-0.0971212189789106	-1.03312882053132E-06	-8.55152284009874E-06	-4.22059461646836E-06	7.45896727628012E-07	0.990487208748264	-0.120242704762425
5	-0.989813201058007	0.0275441250811628	7.54574580560882E-06	-1.58225098591688E-06	-1.75619945607462E-06	-2.71807536137063E-06	0.990147841840829	-0.121746867429138
5.1	-0.978215431374944	0.152173635992755	-2.60798755755758E-06	-6.38662425581474E-06	-1.01069743843207E-06	-1.95056276844763E-06	0.990089895850466	-0.1230987743093
5.2	-0.951574214438713	0.273990342264866	3.99397909456417E-06	-4.41034459580278E-07	-5.42723581835727E-06	6.30977975845747E-06	0.989748520966425	-0.125286127930849
5.3	-0.909823828391025	0.391467822996642	5.14190601832185E-06	5.99575550415607E-06	-9.63866742178073E-07	-3.58182583802274E-06	0.989421854018833	-0.127496596250697
5.4	-0.853659298823698	0.502532978159512	3.05704413824709E-06	-2.01752435706658E-06	-1.13000599987521E-05	2.20957907343345E-06	0.989271436209467	-0.130199767569731
5.5	-0.783951524979624	0.605393306217842	-4.33243041586332E-07	-2.191884043871E-06	-5.777567272763E-06	6.1230906752183E-06	0.9891237476221	-0.132709655195034
5.6	-0.701557623046727	0.698977699995712	2.38350438991569E-06	7.2965300056693E-06	-5.3534972513625E-07	2.92734724899742E-06	0.989096752234935	-0.135476424133054
5.7	-0.608122188047746	0.781636097048684	-2.56737921143153E-06	2.36095802611915E-06	7.90658070917261E-06	2.77004042540713E-06	0.988573991894718	-0.138035047277263
5.8	-0.504889953766839	0.851125552963647	-4.63938029399174E-06	5.10153691753933E-06	-3.63490292418145E-07	3.41867178925975E-06	0.988060960639101	-0.140090300620911
5.9	-0.394449952992244	0.907201825480826	6.34810068121359E-06	1.49504435991788E-06	-2.70656288106794E-06	2.5436535903053E-06	0.987425595103876	-0.141738076777135
6	-0.278605015732461	0.949426363398167	3.51717775458695E-06	3.29774022643627E-06	-3.2694285869562E-07	-1.43250928594544E-06	0.987870712715605	-0.142532493641581
6.1	-0.157668589109349	0.976923209749752	9.16843686441115E-06	1.52622258182179E-06	-1.26838340710856E-07	-1.80719643176375E-06	0.988403672001199	-0.144340357900642
6.2	-0.0338526349710158	0.988945938513401	2.4385037402895E-06	-1.72790837151354E-06	1.48102829713402E-06	-4.84135586147999E-06	0.988271113243307	-0.145977871989159
6.3	0.0905818160834729	0.985383495239573	-4.35917548662566E-06	4.24112407590544E-06	-6.14243489591272E-07	-1.72442706594882E-06	0.987944587035082	-0.148250081610326
6.4	0.213352100915931	0.966418510585797	-4.26406075909195E-06	1.06812660785755E-06	-1.76413303110999E-06	8.84041515823096E-06	0.987470798736454	-0.150474750257469
6.5	0.333776195550018	0.932489198977911	2.45166880276386E-06	-1.33173739314057E-06	1.48658234566913E-06	-2.93024706233933E-06	0.987377774668597	-0.153668849338731
6.6	0.447982625804709	0.882416593965901	-4.73158328409847E-06	-2.25147084627906E-06	-1.86560062359496E-06	-6.63336042707803E-06	0.986370616542873	-0.156481462594404
6.7	0.554540958958484	0.819099820172483	4.15761814482642E-06	-6.60529076691061E-07	-4.6701693671067E-06	1.01034247137306E-06	0.98583007998118	-0.158578919150083
6.8	0.652370374845849	0.743061145741869	3.75125766945638E-06	-2.07700121568406E-06	6.20478901267787E-06	-9.22337290167756E-07	0.985230410845043	-0.160754775348756
6.9	0.739658271638814	0.655554247542683	2.04435763839064E-06	1.63790165486299E-06	8.76667958953476E-06	-2.751651270053E-06	0.984622451217625	-0.162641670400463
7	0.815407061166771	0.558072514436158	2.16759930693834E-06	4.09008835873734E-06	-9.49828983139931E-08	5.3733557018227E-06	0.984274649491588	-0.164115516553324
7.1	0.878427689965364	0.451965160773758	-1.33553520903985E-07	1.7143409647168E-06	8.24744243849932E-06	-4.63312891244546E-06	0.983762430655145	-0.166085603547302
7.2	0.927535036011178	0.338532113372609	4.83981753153339E-06	-1.38903314258372E-06	7.24256964675199E-06	3.77804385133119E-06	0.982922753554428	-0.167920797438513
7.3	0.961664136177024	0.219738452567761	4.85222208296607E-06	-1.10491964473605E-06	-7.32493345875336E-06	-7.36901395074087E-06	0.981595266443287	-0.169822517760976
7.4	0.980392866059424	0.0972695573056158	-1.83473228410784E-06	9.86993637013298E-06	1.42939550005175E-06	-4.05851008473926E-06	0.979759170920846	-0.172109372326856
7.5	0.983744489145073	-0.0253337813373217	8.36280745778658E-07	8.03764893460262E-07	1.66572295687641E-06	9.90412185007132E-07	0.978227428456456	-0.173065842545001
7.6	0.973112803825265	-0.148457487254796	1.45270921464923E-06	-2.60303716322744E-06	-5.39474121572472E-06	-3.61975951668214E-06	0.978358200124291	-0.175531145375599
7.7	0.946773838955891	-0.269572019782258	5.5467587273274E-06	2.40860034742446E-06	-6.8196878475149E-06	1.19899310811382E-05	0.978093267795518	-0.17838969436218
7.8	0.905848398105274	-0.386497542569624	-5.99299330673968E-07	-5.22447809268225E-06	3.73090037344637E-06	-4.71102270593955E-06	0.978164502024018	-0.18127081078589
7.9	0.85049315365903	-0.497311348998942	8.81767771939858E-06	1.54912146915722E-06	-9.47870459943954E-06	-8.63586107668803E-06	0.978206186590214	-0.18399313708207
8	0.782765973751755	-0.600972447332488	-6.63847944024808E-06	-1.65014891003743E-06	-1.19943007533412E-05	2.44959247670915E-06	0.979278738656985	-0.186664721424049
8.1	0.700315640142533	-0.696090587904938	5.06885821277189E-06	7.41695520763391E-07	2.88372851908994E-06	2.26607478789112E-06	0.979057574007069	-0.19062379892648
8.2	0.606761833827689	-0.778476550937291	3.56502433593952E-06	-2.56603522267587E-06	-3.65640353020874E-06	-1.16089911446184E-05	0.978447086720022	-0.193346963947967
8.3	0.503757974604481	-0.848312339497679	2.72753012975855E-06	-1.85148323220838E-06	1.6282579505312E-06	5.28876502797821E-06	0.977737565440164	-0.196121611757313
8.4	0.392887362042787	-0.904411632491779	-5.5451810155132E-06	-1.02541275465111E-06	1.05049452484396E-06	2.94926641419429E-06	0.976965438027446	-0.198775985684762
8.5	0.275901747455629	-0.946288498627606	-3.28573597799697E-06	1.61790785141694E-06	-4.77826292887092E-06	-5.00161598388505E-06	0.976362496388743	-0.201685122083152
8.6	0.153792987775469	-0.973509938043193	-8.13131964138451E-06	1.37071257487031E-06	-4.32412780589368E-06	-6.85975585576177E-06	0.975591430179902	-0.20435783944711
8.7	0.029118342408822	-0.984782411482626	2.2473481660193E-07	-2.14089895707095E-07	6.11147607856242E-06	5.18615580809763E-07	0.975040415012356	-0.206692602388005
8.8	-0.0959026080125712	-0.98016519773136	1.02688351471206E-06	-1.81553179414409E-06	-2.3871971491856E-06	-1.28351866620055E-06	0.974663548875332	-0.2087232801241
8.9	-0.219110989303618	-0.960361158833043	-3.05969717216364E-07	3.03456269427924E-06	-1.2314173588329E-06	-1.64352864118452E-06	0.974747163722178	-0.210569286768044
9	-0.337903523792776	-0.924037501889679	2.97567977315178E-06	1.59070318433407E-06	-1.57740297342933E-06	2.11301629989555E-06	0.97490316317548	-0.212666137622006
9.1	-0.450354756988972	-0.874472679898961	-9.31233977350564E-06	2.25311850672184E-06	-1.56668210083674E-06	2.40698840382257E-06	0.975140422583584	-0.2148576945654
9.2	-0.556298400468797	-0.811299197489355	7.50306825532852E-06	-2.23440570409203E-07	-9.10682229955813E-06	1.9556798980844E-06	0.975130506845966	-0.217782248037131
9.3	-0.65334403161898	-0.735914753050484	8.74367035974758E-08	-7.16042341697341E-06	1.58791625033907E-06	-1.29736452574708E-06	0.974885790185524	-0.22085579295538
9.4	-0.740543644351003	-0.649055271101971	5.95237770037375E-07	2.48273941829799E-06	1.62147615671223E-06	-3.59285975240839E-06	0.973900258601781	-0.224253260563187
9.5	-0.816178169679955	-0.5523874416093	-2.88481023927788E-06	6.63437886660538E-06	4.72431933143674E-06	-1.35707918741561E-06	0.972923065940037	-0.226771959353007
9.6	-0.880913817510837	-0.445401025111554	-5.0149908392373E-06	-5.21776359403518E-06	4.75663726797173E-06	2.8935708831335E-06	0.972404456746365	-0.230064646543365
9.7	-0.930566980261823	-0.329710138195849	-1.99406951443715E-06	-5.08131682841867E-06	2.09851595035482E-06	1.41919002220658E-08	0.971507826131663	-0.232798250928369
9.8	-0.964962543934367	-0.208487704626538	6.00150588451768E-07	-4.28786007762475E-06	-2.93964568287847E-06	-2.52435096719035E-06	0.970843226211976	-0.234800939152376
9.9	-0.983250562667569	-0.0840157351837587	-6.12458362765178E-06	4.20265443626864E-06	-3.08886517542305E-06	1.66143607401757E-06	0.970189554196324	-0.236077172054964
10	-0.985999302489338	0.0405496639013646	3.57601673831804E-06	-3.57189221430163E-08	8.21937370220503E-06	1.11292373664015E-05	0.971102138684639	-0.237511107810542
10.1	-0.973486703242993	0.164715252594069	-2.85803657463224E-06	-2.5299821888578E-06	-2.0083437228024E-06	-2.50386961270686E-06	0.970229405944701	-0.240301397699242
10.2	-0.945291053706408	0.286808257936109	2.3614386800194E-06	-1.01903813410882E-06	-2.77047663824777E-06	-1.07222925997567E-06	0.969353239439172	-0.241629066326227
10.3	-0.90184305945864	0.404269113654979	7.78227354199144E-06	-5.94802276472025E-06	3.85362927292417E-06	8.25093761133291E-06	0.968641660614728	-0.243188427934124
10.4	-0.844852808179704	0.515273967288865	1.70910782542572E-06	2.53942485716582E-07	6.2920279352556E-06	-1.17980940895536E-06	0.967983097483911	-0.244880120587595
10.5	-0.773879917670181	0.619577101082609	8.37558057611787E-06	-4.14635608984694E-06	-4.97161986538742E-07	1.97745743919967E-06	0.967783506479912	-0.24752536963738
10.6	-0.68945336786315	0.712320447807204	8.95620407311225E-06	-1.26926336337776E-06	-1.48455657963513E-06	1.36710447496123E-05	0.967056754211321	-0.250080040459463
10.7	-0.594201983742235	0.793085038439184	8.03298538452091E-06	-1.90432641429398E-06	-3.05806459840742E-06	-5.29261943681404E-06	0.966796175059055	-0.252888191817631
10.8	-0.489213208648486	0.861382542680384	2.45466430005632E-06	5.25823732397243E-06	-3.63478312512226E-06	-2.06179039362758E-07	0.966348481944657	-0.255563794285521
10.9	-0.376005209673851	0.916051831740381	-5.5685553133291E-06	4.8722897662353E-07	1.60070367329522E-06	4.03536854360614E-06	0.965798498068143	-0.258013257390993
11	-0.257558316624596	0.955035293657613	3.47527419149032E-09	-5.2283893602955E-06	-8.3907264685211E-06	2.23398588555311E-06	0.965118426415004	-0.260232995263445
11.1	-0.136199270393089	0.980619681215448	6.31944175748858E-06	4.09800906715666E-06	-1.91013089756315E-06	1.07774211755698E-05	0.96391169753366	-0.262396071521687
11.2	-0.0116035865356247	0.99077288683252	1.58156315600919E-06	1.35780388133982E-06	5.14648986081513E-06	8.92019253301156E-06	0.962468327829768	-0.264265132337623
11.3	0.113572654593498	0.984282112556092	-4.63406601170848E-07	-1.74081525582488E-06	-7.00569179190117E-07	-4.4042572564163E-06	0.961321738567022	-0.266002333421087
11.4	0.236658034782617	0.962198645456322	2.30392088442893E-07	1.18830066497032E-05	2.42991682173769E-06	4.93748482520022E-06	0.959724610859227	-0.268344241390617
11.5	0.356017249925936	0.924876820517203	6.20362523120499E-06	-3.28486963834E-07	3.16162270422385E-07	-1.88494402178164E-06	0.958868958907532	-0.270058942177762
11.6	0.46859041770654	0.873005241851927	-6.01117465997547E-06	3.08074395719033E-06	-4.87535268387995E-06	1.9213947314761E-06	0.95806277404013	-0.273875348368843
11.7	0.57361481909211	0.807949152056031	3.3295103039006E-06	-1.80025480142089E-06	-1.70714852301289E-06	2.24081825768531E-06	0.956464107674458	-0.277369609507047
11.8	0.669490206751032	0.729699866283617	-8.15690320723817E-07	9.80201841043073E-06	-2.71219926196285E-06	1.05481509174614E-05	0.955065297746522	-0.280306228757987
11.9	0.75347835593539	0.639951209646817	-7.29670088249489E-06	-1.03758735157482E-06	-3.9117985992267E-06	1.12501178160165E-05	0.954717906743218	-0.281496588844851
12	0.826836618759652	0.542065525118052	-6.46841012289424E-07	1.38333162728768E-06	-3.13924268436853E-06	-1.93093675895477E-06	0.956511149103941	-0.28385817990559
12.1	0.888424557426081	0.434192548130646	-3.88623100120734E-06	4.99625891895888E-06	-1.34233747444182E-06	8.43027094455156E-06	0.955903427704922	-0.287700070818377
12.2	0.935301159873118	0.319496808374715	-5.77324397231612E-07	-3.80583855886099E-06	-3.12010002209858E-06	-7.32921994737106E-07	0.955071487507328	-0.290933719175184
12.3	0.967658692203037	0.200527393242779	3.60525896348123E-06	3.44099029114589E-06	-3.44424076527444E-06	6.28154032091284E-06	0.954058660101237	-0.294222607208628
