# GHZ S RI R 50
0.2	-0.965588095764878	0.251731895690726	8.81998834619233E-06	5.31431162372095E-06	1.13491909778027E-06	-2.88845252488606E-06	0.998897142096947	-0.00739255940881346
0.3	-0.925949397231553	0.371563823237357	-7.65674681309924E-06	-8.15241499139341E-07	-1.29923009793718E-08	3.65669614190983E-06	0.998631942981474	-0.0103206039867436
0.4	-0.870941845943256	0.48519879376658	-2.19313880392738E-06	6.33355221189529E-06	2.91904068534282E-06	5.72887278091789E-06	0.998331930309596	-0.0129932607624564
0.5	-0.802479886148042	0.590653309805713	-2.64500589743108E-06	5.48141207364103E-07	1.05045368521327E-05	4.87741846094881E-06	0.997851111672709	-0.015556972369533
0.6	-0.721669596463168	0.686918527215251	-1.72347875589717E-06	-1.87138316816213E-08	4.16167383398563E-06	-1.0324264031176E-05	0.998691402554442	-0.0183553690976279
0.7	-0.629162493729038	0.772362504892163	-2.04497635254103E-06	9.87327675124158E-07	3.77958897002476E-06	1.11491417616156E-05	0.998432596432312	-0.0218530965941909
0.8	-0.526596318940411	0.845391973218842	-5.5986706822614E-06	3.77833753710225E-06	-3.16455040875259E-06	-2.13626379254845E-06	0.998014273823752	-0.0243534491943663
0.9	-0.41594668268966	0.904703948968757	-6.66687301221542E-07	5.24374804848523E-06	3.2621839640196E-06	-2.95084080654938E-07	0.997662478492591	-0.0270996304414551
1	-0.298256236326281	0.949622548835881	1.56562520498629E-05	-3.68880057398617E-06	-9.58147006074584E-06	5.31213864584399E-07	0.996366672253867	-0.0289478907054677
1.1	-0.176980007188549	0.979093473415909	1.33928347587269E-06	-2.9752370171484E-06	9.37401743009727E-06	1.25689781387337E-05	0.995750051180558	-0.0298623525404006
1.2	-0.0521243680837525	0.993096034838481	-7.88774279808108E-06	-3.25549769665335E-06	-3.08785833673371E-06	-4.46953880765936E-06	0.995312013720306	-0.0304979929522191
1.3	0.0732033964902524	0.991195074737196	1.74204318599855E-07	3.32574796861344E-06	1.92373062490442E-06	3.42453283184973E-07	0.99550825252431	-0.0308630849750369
1.4	0.196885658004364	0.973865127490716	1.52190516343023E-08	3.75866752424864E-06	-2.51094441160117E-06	-5.60657841457416E-06	0.995943304850565	-0.0323561607889592
1.5	0.317625405187266	0.941400554628698	3.18104757649528E-06	-2.59292181615982E-07	2.69227366272584E-06	2.09608806803344E-06	0.996935477214711	-0.035789333627587
1.6	0.433352028250193	0.894573084069224	1.78973393790852E-06	-1.93250075319461E-06	-8.85309585783822E-07	-3.06136547098213E-06	0.997304880946961	-0.0393124015555908
1.7	0.542388971455422	0.83287220893778	-7.84116215885025E-08	-3.52184243047879E-06	1.99361807837932E-06	4.9260478927928E-06	0.997918919591617	-0.042481732955744
1.8	0.642576308317529	0.758321148910188	-2.05311955878224E-06	-1.81654345672374E-06	-4.66866010961299E-06	1.82993564360279E-05	0.997863572836011	-0.0456263059549208
1.9	0.732821319529177	0.671627474900527	-4.38806605449646E-06	-1.47174138786296E-06	-4.91881610625738E-06	-6.00827992473727E-06	0.997863080029142	-0.048730976472051
2	0.810245281873523	0.573048617982403	-9.48768937350593E-08	-6.73151744622367E-07	-1.6663996536733E-06	-1.41524533372041E-06	0.995459892271109	-0.0523934028150769
2.1	0.874551330235926	0.467385957360981	-1.14952075475907E-06	9.42193036729416E-06	1.98970255291678E-06	-3.76847157136294E-07	0.994852859884249	-0.0524865252513077
2.2	0.926500954154124	0.354621662826229	-1.2003722912626E-08	-5.91761385847677E-06	-7.4028414065445E-07	2.73049617272397E-06	0.995850064777735	-0.0545642036080067
2.3	0.963796641477288	0.2355859880051	-1.31833527435157E-06	2.75870300183755E-06	-2.92580147693377E-07	1.1952446143112E-05	0.996064424471787	-0.0565948924419626
2.4	0.985872557646711	0.111632231958585	-5.8562108708681E-06	-3.71463602932567E-06	-1.75973412005453E-05	1.44670530312636E-05	0.996331300602001	-0.0599661168514209
2.5	0.991955387146723	-0.0135076035818537	1.82552651652976E-06	-2.95742790066252E-06	-1.80867747809794E-06	7.54094434161791E-06	0.995983137953014	-0.0625361122814826
2.6	0.981985987616642	-0.137053995721536	2.86176388782187E-06	9.22421564694304E-07	-1.75655714421832E-06	4.50159177511132E-06	0.995978335860188	-0.065623544398205
2.7	0.956286334911332	-0.258683520525914	3.81677835237277E-06	1.04411484483735E-05	2.31996689134804E-06	3.86713208862053E-06	0.99521104434482	-0.0687348679315586
2.8	0.916018186140739	-0.375808550999281	-8.11181639649241E-07	-2.29045073823304E-06	2.20228000096573E-07	-1.88547358683086E-06	0.995094183017598	-0.0703380168437033
2.9	0.862305593461327	-0.486856374266602	3.76959469892426E-06	-8.29999112119709E-06	-1.25717525879534E-06	-1.42038481376899E-05	0.994877493496325	-0.0719983982025048
3	0.794768322786608	-0.591406071473387	-2.22994258335214E-08	6.63910232261793E-06	-1.47555461813451E-05	5.27314556556081E-06	0.994853083069326	-0.0742021101429767
3.1	0.715447456493438	-0.685092606116749	-4.98940715205958E-06	7.80173941037389E-06	5.7990438655698E-06	-7.50652221631108E-08	0.994775308295995	-0.0758815589661594
3.2	0.623728254825238	-0.769459664860944	9.53833020155525E-07	2.12462523798941E-06	-4.55494784062721E-06	4.66896487989589E-07	0.994755568903049	-0.0774362165637479
3.3	0.52263988819766	-0.841758622181539	7.22812188003618E-07	-1.45560417666803E-06	-4.57767463584809E-06	7.16966431300583E-07	0.994843257277825	-0.0803698943931733
3.4	0.413206265350603	-0.901362046606411	6.46610122421695E-06	2.60349052149823E-07	-8.10408739575159E-06	-7.20964876031673E-06	0.995645770019879	-0.0820345638646722
3.5	0.294810602212159	-0.947901180096407	-7.71535264569099E-06	1.94156753569759E-06	-5.88702027551612E-06	-8.01102628463453E-06	0.996395824471331	-0.0858825413313629
3.6	0.17156512363571	-0.975330757315564	-8.49409038078833E-07	-4.38479746988545E-06	-7.80826309406498E-06	-6.34848638775836E-06	0.995495412469384	-0.0886625031600675
3.7	0.0483265583437122	-0.989379881563887	-6.70174625230603E-06	-6.78610346658755E-06	5.38622267771012E-07	-4.7637069588317E-06	0.995553389270902	-0.0912470481641166
3.8	-0.0766371567149434	-0.988374859968271	-3.64833285319714E-06	1.07512670362391E-06	-3.29281834720003E-06	-2.47469684722956E-06	0.995549273381932	-0.0935705267358126
3.9	-0.20075525110633	-0.972089191797944	-4.85850815903512E-07	3.51073259892545E-06	2.0576456758212E-06	-1.21721496869451E-06	0.995826203809893	-0.097906801052982
4	-0.323408126882087	-0.939216886617774	1.16680469900445E-05	8.12574768073901E-06	7.26678656172953E-06	-4.03299811989129E-06	0.992753858423786	-0.10037753507094
4.1	-0.438948961923074	-0.890373788786453	5.21299460269976E-06	1.33487168895565E-06	-3.47192212987569E-06	6.64196533419957E-06	0.992171713099416	-0.099354076358129
4.2	-0.547147191838381	-0.828417667681017	-7.09756716299892E-06	-1.21819933697187E-06	-8.26861011960868E-06	-6.04770691132909E-08	0.9928079793597	-0.10154179801817
4.3	-0.646876693792499	-0.753051414598318	7.07869461246804E-07	-2.36789022426193E-06	5.21414466254411E-06	8.92216872448466E-07	0.993211294705445	-0.103668189065775
4.4	-0.736288689817595	-0.665506058288219	4.47955670252531E-06	-1.76595843185961E-06	-8.71705162239517E-07	1.34574724659117E-06	0.992897335096249	-0.106181964820538
4.5	-0.814261351303232	-0.567964547330815	6.78475411253782E-06	1.88801607703549E-06	-7.95964129379523E-07	-3.26199363544169E-06	0.992842767565488	-0.107462660467438
4.6	-0.880558527398711	-0.460488300532865	2.45320462988101E-06	2.9640772611096E-06	-6.62750574960375E-06	9.74999880781867E-06	0.994213760722677	-0.110183370665056
4.7	-0.931742449692201	-0.344260309392246	-1.40967457833094E-05	5.9043305252627E-06	-3.47054976141136E-06	-4.12312713688513E-08	0.994756469567861	-0.113143628808082
4.8	-0.967232245992504	-0.22336763056641	-3.16092332585903E-06	-5.16007317430278E-06	-5.54077466948616E-06	2.36224372321152E-06	0.994539219892875	-0.11623614066064
4.9	-0.986416436945224	-0.100586614853736	-1.00795631401728E-06	-8.57224808355159E-06	-4.23157633706501E-06	7.3395387393408E-07	0.994266254717777	-0.118383669745796
5	-0.993709057006944	0.022618282239948	7.58008482884885E-06	-1.55835188966083E-06	-1.75200705609985E-06	-2.73512791090456E-06	0.994335883997425	-0.120143148020692
5.1	-0.982702794433063	0.151288756014186	-2.6054059966297E-06	-6.41950291898512E-06	-1.01082372903804E-06	-1.9610644724657E-06	0.994827969569569	-0.121919584198489
5.2	-0.95475460669169	0.273494585417173	4.00988485350773E-06	-4.3555881406118E-07	-5.45906502309593E-06	6.32395270198722E-06	0.9946936704084	-0.124860487803178
5.3	-0.913282205605705	0.390824463411286	5.1501373582045E-06	6.02786388524325E-06	-9.6084973686766E-07	-3.59709656685292E-06	0.994065621316814	-0.127514197068884
5.4	-0.858045210283724	0.502609150494683	3.07424560091439E-06	-2.0200383273175E-06	-1.13530742678823E-05	2.19631738294939E-06	0.994085777014871	-0.129991265018585
5.5	-0.788676573759626	0.607553773907585	-4.33641769773192E-07	-2.20361202665707E-06	-5.81267883258219E-06	6.14996405912233E-06	0.994291127416781	-0.133728305111742
5.6	-0.704844397006773	0.702603908165012	2.39277046744179E-06	7.3287756553333E-06	-5.38147597139057E-07	2.9400500086152E-06	0.993391468484045	-0.136173575401458
5.7	-0.610048690100199	0.785785984772305	-2.5788018436614E-06	2.3707329659685E-06	7.94021282350535E-06	2.7831895587857E-06	0.993598040993519	-0.138562514798686
5.8	-0.505590228332719	0.855692939088723	-4.65989399835004E-06	5.12682796908455E-06	-3.64292236044698E-07	3.43488764657268E-06	0.993946348098653	-0.141444397126365
5.9	-0.393060773028329	0.912205177545795	6.38466534335413E-06	1.48963157371062E-06	-2.7154942185542E-06	2.56271608373272E-06	0.993703696618021	-0.145801063972814
6	-0.274582048790402	0.951166847345149	3.53754361737402E-06	3.28591708060192E-06	-3.34103364980776E-07	-1.43299129287719E-06	0.988570639576386	-0.148802638421825
6.1	-0.156189122666921	0.976951029104256	9.16436862639018E-06	1.51384418340729E-06	-1.29000077334241E-07	-1.80586343990098E-06	0.987817758635999	-0.145676892332257
6.2	-0.0330339937083028	0.989535472140996	2.43805876211493E-06	-1.7280999027254E-06	1.48023334662191E-06	-4.84115203471117E-06	0.988863579576387	-0.146132412512009
6.3	0.0917870688254195	0.986378746202582	-4.35977296347518E-06	4.24139153659835E-06	-6.14241798018691E-07	-1.7246240861078E-06	0.989220496027181	-0.147991470032985
6.4	0.215621498960316	0.965973947406976	-4.26055089833879E-06	1.06822041358049E-06	-1.76087763767261E-06	8.83399264982588E-06	0.988779418006479	-0.150753005561947
6.5	0.331411827494869	0.931020000571047	2.45234158824727E-06	-1.3204605883699E-06	1.49477391674179E-06	-2.91976379785531E-06	0.987782117796471	-0.151239158547046
6.6	0.446984728965661	0.886168516051141	-4.73723661613306E-06	-2.27878066549591E-06	-1.8434529539213E-06	-6.66259263741256E-06	0.991482490752705	-0.154052276942404
6.7	0.556218360457172	0.82273695302523	4.17938031471167E-06	-6.54165291473253E-07	-4.69523274857597E-06	1.00450071286204E-06	0.991906286944788	-0.158895501965803
6.8	0.655354741755769	0.74621093835939	3.77449775531668E-06	-2.08502925576994E-06	6.24074790324333E-06	-9.21420486720014E-07	0.991125109057762	-0.162530567495362
6.9	0.744060304056687	0.657859500092464	2.05829591139282E-06	1.64744865847982E-06	8.82173202006195E-06	-2.7735790452336E-06	0.990407693987569	-0.165871953086742
7	0.819691649662018	0.558442234850202	2.19075758633015E-06	4.1050110872529E-06	-7.98346319050025E-08	5.40152627593831E-06	0.987555220836961	-0.16808910253148
7.1	0.882307830081329	0.452729671036309	-1.31106599663898E-07	1.72057571956345E-06	8.26846662040737E-06	-4.66338842221018E-06	0.987315472014146	-0.16770519943464
7.2	0.932058402882056	0.339248059400081	4.85699512437277E-06	-1.3972960019169E-06	7.27200132958848E-06	3.78753490114089E-06	0.987844141398893	-0.169217159695748
7.3	0.967002721170567	0.220648283011801	4.87367260517805E-06	-1.106192403086E-06	-7.35092002801927E-06	-7.40558676131298E-06	0.987936584089698	-0.170789268581088
7.4	0.98892217771134	0.0984109247135571	-1.87926310276061E-06	9.9352733969783E-06	1.45257254171204E-06	-4.08323592778375E-06	0.989834371937516	-0.173382887839049
7.5	0.995258028103466	-0.0310810722721455	8.48432835134736E-07	8.13999454060052E-07	1.68937936565651E-06	1.00245279363262E-06	0.990061564119151	-0.181539975046523
7.6	0.979985432640025	-0.156699424221349	1.45500796317533E-06	-2.63863416918226E-06	-5.47164946075345E-06	-3.63110335700934E-06	0.985476719750285	-0.184865803396485
7.7	0.952318632004593	-0.278934708377898	5.61855952281688E-06	2.40015143261818E-06	-6.81809657081657E-06	1.21548332963754E-05	0.984679853911959	-0.187797307744537
7.8	0.909673745205562	-0.3978358712336	-6.46776758854864E-07	-5.27334017387681E-06	3.73191230863101E-06	-4.78887114725188E-06	0.984351308292346	-0.191796647125333
7.9	0.850819882142469	-0.511715747596525	8.91923411237041E-06	1.46123025419186E-06	-9.66895644620455E-06	-8.60741921342175E-06	0.983246162931149	-0.197546164410229
8	0.772035398768263	-0.614019554033224	-6.67532652963554E-06	-1.54270294586435E-06	-1.19710302019757E-05	2.65153626511752E-06	0.975610534162317	-0.202242744589049
8.1	0.690730243405914	-0.699811595197463	5.05937985283674E-06	6.89170055166622E-07	2.89655105089506E-06	2.23007885696741E-06	0.97389488769687	-0.198551163515137
8.2	0.599485101606025	-0.780398730713565	3.53614511034179E-06	-2.58391100325697E-06	-3.72851799841104E-06	-1.15485227001705E-05	0.974937155599864	-0.199515155428292
8.3	0.49749517012323	-0.849254676573701	2.70846452829984E-06	-1.86195249793314E-06	1.65444656142587E-06	5.26332355746566E-06	0.974757772928182	-0.201827379409228
8.4	0.387735702262081	-0.905055608617933	-5.53123199985118E-06	-9.98802635603166E-07	1.05939636759638E-06	2.93516025420371E-06	0.97376615244567	-0.204393101350044
8.5	0.269468636352615	-0.947623293628333	-3.278777437697E-06	1.6260910823481E-06	-4.78905829723777E-06	-4.98443880823548E-06	0.972430517295503	-0.205772684699037
8.6	0.146691367270996	-0.971993778630017	-8.12080749769969E-06	1.41317470375187E-06	-4.3586791536222E-06	-6.83413117811846E-06	0.973286960393877	-0.207819899678046
8.7	0.0230599612594753	-0.981219966542615	2.23046307775584E-07	-2.15078416625015E-07	6.10397114467898E-06	4.80687592732948E-07	0.973148060652659	-0.210805032776617
8.8	-0.100101215339925	-0.974563169394667	1.01199203911972E-06	-1.81592599708333E-06	-2.38729475156239E-06	-1.26416172205936E-06	0.972691940345486	-0.213277957440799
8.9	-0.218708642390297	-0.954004141273947	-2.88605854089149E-07	3.01838874395927E-06	-1.23265208455596E-06	-1.62759807498573E-06	0.972652106433006	-0.215516826295063
9	-0.335952103562805	-0.923949206587426	2.96409223990542E-06	1.57827729993329E-06	-1.56644550917295E-06	2.10551747734775E-06	0.972419748938179	-0.218517391598687
9.1	-0.451761838469536	-0.874195957073562	-9.27314863316607E-06	2.26902556136992E-06	-1.55486547118275E-06	2.40239374172016E-06	0.971266320358237	-0.22101863715137
9.2	-0.558233711395109	-0.811003579813536	7.47558377513515E-06	-2.37822728965686E-07	-9.07005350732968E-06	1.96706731344319E-06	0.969949344362237	-0.223230987983866
9.3	-0.656439857453614	-0.735494113227538	7.7594966500247E-08	-7.14125766415283E-06	1.58189946789858E-06	-1.29600103091659E-06	0.969253238273119	-0.224659373353335
9.4	-0.745125968253051	-0.649237135801241	5.96541847100779E-07	2.48078302495121E-06	1.61803450876813E-06	-3.59170541598658E-06	0.969784346267528	-0.226684897087412
9.5	-0.825932399977781	-0.547693743906339	-2.85634200432242E-06	6.6608597464766E-06	4.7258864928335E-06	-1.38344950023304E-06	0.969383726120143	-0.231705578390729
9.6	-0.884594899181684	-0.435094102946182	-5.03673772744538E-06	-5.17342657254423E-06	4.76408504506338E-06	2.85631663815559E-06	0.967029927603586	-0.233870753270984
9.7	-0.930245650149506	-0.320378588230971	-2.01326909273022E-06	-5.05434159093876E-06	2.09163072711811E-06	3.48541044062935E-09	0.966826508469625	-0.235599907707042
9.8	-0.962342084151978	-0.200218493079257	5.78313420000841E-07	-4.27712281418934E-06	-2.94211199660597E-06	-2.502713526519E-06	0.967473900994207	-0.237746822834951
9.9	-0.978422682290828	-0.07739337495291	-6.08126136320756E-06	4.22516301718542E-06	-3.06967255548461E-06	1.67420571816212E-06	0.967909062575624	-0.242216875101887
10	-0.981085282972819	0.0450804662350332	3.55183683574151E-06	-5.85422340722867E-08	8.23610128613242E-06	1.10016933011588E-05	0.961474661236638	-0.245317962943563
10.1	-0.96805240013283	0.169174249769906	-2.84598479029797E-06	-2.50322860407253E-06	-2.00216592215506E-06	-2.47998021803422E-06	0.961279393925528	-0.241470238906612
10.2	-0.938467502059675	0.290687639376069	2.34440830208684E-06	-1.01932589542607E-06	-2.75667902552932E-06	-1.05820475881255E-06	0.963112049621215	-0.242475511946617
10.3	-0.892894770498466	0.407151177914709	7.71688805537755E-06	-5.93643844665689E-06	3.85611645093797E-06	8.18925176671172E-06	0.963550239581831	-0.244778188658375
10.4	-0.832169227652162	0.514484748953223	1.69679398442406E-06	2.46166952773369E-07	6.23949688903927E-06	-1.1921292992465E-06	0.962829783758368	-0.247840499938378
10.5	-0.764776163501156	0.609318367732697	8.30596858059743E-06	-4.10064719489851E-06	-4.94897234689999E-07	1.9594301498053E-06	0.961497455126869	-0.24930780410776
10.6	-0.687580104067967	0.703389448207784	8.91588081279898E-06	-1.24928938538904E-06	-1.49888181024568E-06	1.36041530009866E-05	0.962201714294072	-0.252964506825733
10.7	-0.595501188454158	0.786264651035847	8.00065059083296E-06	-1.89656005406341E-06	-3.04568350185686E-06	-5.2713367637745E-06	0.959406627686229	-0.256996251967323
10.8	-0.490673511284148	0.856551052650097	2.4441904092736E-06	5.23328587022325E-06	-3.61788416138661E-06	-2.04551989022094E-07	0.957812850235659	-0.257340366632354
10.9	-0.378461176644919	0.910923710285362	-5.54032524621191E-06	4.79582645900285E-07	1.58873701068784E-06	4.01606197002802E-06	0.95746484062717	-0.258157287405855
11	-0.264097648695016	0.953882133608957	8.98634757581753E-09	-5.21228999948595E-06	-8.36725481141582E-06	2.21824695633163E-06	0.95666249934864	-0.259700589446004
11.1	-0.13864720093689	0.982577776392284	6.29176473905088E-06	4.07984414600335E-06	-1.90147466770654E-06	1.07300969303316E-05	0.956002421469606	-0.260043954857809
11.2	-0.0124449835862488	0.991892696623553	1.57145681632689E-06	1.35237557965565E-06	5.10828061956435E-06	8.87833107555023E-06	0.955462341318078	-0.260688936819759
11.3	0.113181435707629	0.984718343727484	-4.55902045020872E-07	-1.73242414446014E-06	-6.84212230574874E-07	-4.38169364997211E-06	0.955876524593592	-0.260916151387666
11.4	0.236718596940758	0.962298199513744	1.66617285057549E-07	1.1831442845557E-05	2.39305017791563E-06	4.92838596503105E-06	0.957989589875099	-0.262307914722121
11.5	0.3559676983091	0.924622238024148	6.19844179118602E-06	-3.03890146405642E-07	3.23202223934452E-07	-1.88174273025456E-06	0.957629608681318	-0.268816864504962
11.6	0.468704468408653	0.873220109198662	-6.00031154524065E-06	3.05767915847212E-06	-4.86521146517832E-06	1.90441321500318E-06	0.954140661330147	-0.27077869266154
11.7	0.574619781189709	0.808099090494891	3.32415421104369E-06	-1.78228357646744E-06	-1.70901907892207E-06	2.22698767787177E-06	0.954391730809047	-0.272763442069491
11.8	0.671814234125939	0.729158788581187	-8.56095266396783E-07	9.77596602306473E-06	-2.75146267710087E-06	1.05122028123584E-05	0.95592556589481	-0.27655840781384
11.9	0.757949044776523	0.635772099205024	-7.29671111036971E-06	-1.05155032396253E-06	-3.93394667557967E-06	1.12457974102985E-05	0.957693076567726	-0.283710926248071
12	0.823263594897622	0.531347905768437	-6.40702277494958E-07	1.3770226873097E-06	-3.12580142920027E-06	-1.91448460388026E-06	0.94977398451946	-0.28961857908648
12.1	0.879608986799759	0.431013050878975	-3.87584804297567E-06	4.95425527065022E-06	-1.35738601829252E-06	8.37389224586786E-06	0.948258380777175	-0.287673831668997
12.2	0.927768503464585	0.319805949978774	-5.65126441663428E-07	-3.78777752803517E-06	-3.10236298402826E-06	-7.36753341968932E-07	0.948127429463607	-0.290319711003492
12.3	0.960828338238687	0.202071464954437	3.5761451500146E-06	3.42529835375112E-06	-3.43322658290376E-06	6.23529330247681E-06	0.946674607361859	-0.293177393696066
