# GHZ S RI R 50
0.2	-0.966314533061988	0.251341340292425	8.82286457112166E-06	5.32353419143321E-06	1.13751467694765E-06	-2.8897716521897E-06	0.999687192030382	-0.00672536920771131
0.3	-0.927019652340739	0.371198839248162	-7.66339582163364E-06	-8.21938173255249E-07	-1.58326804347568E-08	3.66016262636155E-06	0.999647764170354	-0.00952340543178768
0.4	-0.872485080832562	0.485084204288587	-2.20188552106237E-06	6.34044456223088E-06	2.9179866858641E-06	5.73950330642538E-06	0.999800037816715	-0.0120651768955781
0.5	-0.804084137094412	0.591448942714535	-2.65021328565779E-06	5.48583193653524E-07	1.05235883986836E-05	4.88921377981022E-06	0.999786862774999	-0.0154276291998934
0.6	-0.722732965277577	0.687732008138226	-1.72567970716788E-06	-1.87611228610275E-08	4.16712918638155E-06	-1.03373935703662E-05	0.999751159438082	-0.0183112828474773
0.7	-0.630316195420219	0.773234436145815	-2.04789067941419E-06	9.87941752847791E-07	3.78089545184864E-06	1.11645263930984E-05	0.999499042059352	-0.0213264844994209
0.8	-0.527756266894316	0.846537437695487	-5.60814245793946E-06	3.78139178810779E-06	-3.16815425379391E-06	-2.14058364360091E-06	0.999263104088721	-0.0236042711735086
0.9	-0.417029740382826	0.906128765591145	-6.70588247916693E-07	5.2511003498316E-06	3.2671530372892E-06	-2.93702770805279E-07	0.999096243546158	-0.0259855403858216
1	-0.29928963736077	0.951383031031058	1.56915262090325E-05	-3.67956062745142E-06	-9.6012240629298E-06	5.22101675765705E-07	0.998948759155337	-0.02745763463956
1.1	-0.177837682907445	0.981293200785453	1.34493951311558E-06	-2.98256991902709E-06	9.39162536268947E-06	1.26098504659261E-05	0.998835557065006	-0.0293836288490103
1.2	-0.0527020383625523	0.995854496731811	-7.9105261491222E-06	-3.26935039878587E-06	-3.09523748453073E-06	-4.48482625518571E-06	0.998538669498095	-0.0301268022466185
1.3	0.0733904282940338	0.99443672144854	1.74274899243318E-07	3.33737680262486E-06	1.93038558027915E-06	3.43958471295706E-07	0.999157807876984	-0.0308209807320424
1.4	0.197971217887642	0.976867008790442	1.69294281598277E-08	3.77077780816844E-06	-2.52151715502269E-06	-5.6235428049175E-06	0.999215019379767	-0.0327793333806648
1.5	0.319468173661309	0.943981825887335	3.18993459942592E-06	-2.62334605311595E-07	2.70147137400271E-06	2.10011876545098E-06	0.999973871279578	-0.036396503698479
1.6	0.435549866424626	0.896101656733741	1.79098064568416E-06	-1.9388297925709E-06	-8.91090290755509E-07	-3.06660909160505E-06	0.99931158595358	-0.0403314106343225
1.7	0.54448062963023	0.833835927991732	-8.29446722349407E-08	-3.5270979842E-06	2.0028224436197E-06	4.93103779997597E-06	0.99940181617212	-0.0432318728851342
1.8	0.644475169753542	0.758855440474223	-2.05750911677722E-06	-1.81606578343581E-06	-4.65191547194853E-06	1.83247513607906E-05	0.998963527581594	-0.0461651111087252
1.9	0.734075402682493	0.672290223631694	-4.3908175093998E-06	-1.47039925816987E-06	-4.92392258654675E-06	-6.00883014536211E-06	0.998659795436049	-0.0482988143901451
2	0.812769688405358	0.57522069170661	-9.44083668913764E-08	-6.74789343675266E-07	-1.66877264876722E-06	-1.42018255603911E-06	0.998741472244139	-0.0512340118702265
2.1	0.878577636364684	0.467302275001723	-1.14066168572136E-06	9.4547439671099E-06	1.9957986063026E-06	-3.80774182984257E-07	0.998181915735727	-0.0541668660985838
2.2	0.929692651738819	0.353272678332349	-2.44344834401652E-08	-5.93178289921911E-06	-7.36337315609928E-07	2.73859710395053E-06	0.99790691850809	-0.0566386880008752
2.3	0.966217648875456	0.233754744207866	-1.31471854206462E-06	2.76700816054562E-06	-2.66392474931396E-07	1.19762982987041E-05	0.997468837730114	-0.0585558490783721
2.4	0.987575738352342	0.109761630746198	-5.87540173787444E-06	-3.70572381222109E-06	-1.75892059070712E-05	1.45360817887405E-05	0.997263109308967	-0.061619697519206
2.5	0.993512226445558	-0.0151667303624599	1.81799346153255E-06	-2.96359791939973E-06	-1.78841017521106E-06	7.54877348770195E-06	0.996982103169383	-0.0637764529100063
2.6	0.983437027002181	-0.138759987433162	2.86325148162613E-06	9.18696889711168E-07	-1.75072594670113E-06	4.50433844587734E-06	0.996965209096009	-0.0667811338457714
2.7	0.957986924207413	-0.260672381474965	3.83066005307092E-06	1.04476253821116E-05	2.32599282589562E-06	3.86864932864334E-06	0.996566208644969	-0.0698940631858614
2.8	0.917494514849983	-0.378657276976535	-8.15832322421912E-07	-2.29300770931497E-06	2.17847827845265E-07	-1.8888685797712E-06	0.996621312848779	-0.0720319416873161
2.9	0.862918786929695	-0.490255197219811	3.75876166181422E-06	-8.32363362360307E-06	-1.29012810547568E-06	-1.42277007673069E-05	0.996241371738168	-0.0741101810003504
3	0.794721724056035	-0.594851950965917	-3.99873986612865E-09	6.65095418075565E-06	-1.47671833983462E-05	5.32327172414605E-06	0.996212269759417	-0.0765989926219459
3.1	0.714638514895763	-0.688960750719418	-4.9731096356945E-06	7.83296052759345E-06	5.80976826602166E-06	-9.43381080345043E-08	0.996025416211662	-0.078842193202511
3.2	0.621736493490457	-0.773319531447195	9.63976682081129E-07	2.12429339410153E-06	-4.56059868650285E-06	4.86033486925933E-07	0.995730358298326	-0.0808421890166237
3.3	0.519301894845769	-0.845201086327206	7.16765307863329E-07	-1.46082010576367E-06	-4.57984543144692E-06	7.39630129279396E-07	0.995341104130861	-0.0842840021157308
3.4	0.408283584199804	-0.903183075766903	6.46793171355597E-06	2.23928359845435E-07	-8.1451680228164E-06	-7.16438893830557E-06	0.995059592866698	-0.0862727508235628
3.5	0.291692937667531	-0.946968321621229	-7.69147311958522E-06	1.96998066745159E-06	-5.90862849819436E-06	-7.96998935670984E-06	0.995042719324448	-0.0888173063149909
3.6	0.169122849539668	-0.97636518299257	-8.62156707241952E-07	-4.37939224294114E-06	-7.82247446397896E-06	-6.32071295031676E-06	0.994830041522296	-0.0917125168118455
3.7	0.0444091772269241	-0.989946644229638	-6.72305190043175E-06	-6.75830848148307E-06	5.2102427296136E-07	-4.76326573779205E-06	0.994289982841826	-0.0945663103253084
3.8	-0.0810276765654898	-0.987393051107412	-3.6404211301178E-06	1.08762748368204E-06	-3.29856434233204E-06	-2.45974090886848E-06	0.993489388505751	-0.0965015595246822
3.9	-0.204342680599402	-0.969362360368418	-4.74871677003244E-07	3.50673622913686E-06	2.05092670000868E-06	-1.22133442703523E-06	0.993271036073459	-0.0992627299230762
4	-0.325228527494451	-0.936490922308696	1.16893967012503E-05	8.0972392625288E-06	7.25731773623402E-06	-4.05153821047094E-06	0.993303250842491	-0.10057373391429
4.1	-0.440738179507888	-0.887864903241881	5.2165788017759E-06	1.31290382728525E-06	-3.4432817253234E-06	6.65382906529736E-06	0.992908862342308	-0.102702124645141
4.2	-0.54857873906651	-0.825627430649817	-7.09411765909128E-06	-1.18834983094703E-06	-8.25915087925751E-06	-2.72967838341413E-08	0.992213693704546	-0.105305316981567
4.3	-0.647872824198861	-0.750098812264372	6.98008817426147E-07	-2.3670328965323E-06	5.2097751086862E-06	8.71486742574557E-07	0.991978266739196	-0.107251463544647
4.4	-0.736989911243178	-0.662532285612138	4.46692967936996E-06	-1.77899075286844E-06	-8.65760952415182E-07	1.3468332440779E-06	0.991457099369552	-0.109497837085941
4.5	-0.814796184859695	-0.56430645705243	6.7827799175245E-06	1.85697955952055E-06	-8.08413011612239E-07	-3.25393918643932E-06	0.991416073535413	-0.111506630683903
4.6	-0.879854592950196	-0.456766704898509	2.45841782305917E-06	2.94654443787927E-06	-6.57146089558877E-06	9.7503682171005E-06	0.991123389821509	-0.114203795142207
4.7	-0.930541231126388	-0.341011611305457	-1.40367151289481E-05	5.93420200074138E-06	-3.46073371230021E-06	-2.95900895553987E-08	0.991057709527497	-0.116293315841111
4.8	-0.966006022219714	-0.220312696471819	-3.16793381127909E-06	-5.13587224523225E-06	-5.51796332415842E-06	2.37266604456568E-06	0.990576739685302	-0.118841612140114
4.9	-0.985358281147111	-0.0964968436634916	-1.03530987236759E-06	-8.54549245655786E-06	-4.21753918608218E-06	7.46816323544386E-07	0.9899741229788	-0.120628637883463
5	-0.988876212734021	0.027654146889845	7.54001690021438E-06	-1.58178063921195E-06	-1.75515248109297E-06	-2.71590166620643E-06	0.989651305296744	-0.121990236706041
5.1	-0.977417155796583	0.152430865967441	-2.60704991824256E-06	-6.38219709682142E-06	-1.01027281479371E-06	-1.94918564108945E-06	0.98967756059515	-0.123272200484574
5.2	-0.95049392065974	0.274114283410386	3.99090504143589E-06	-4.41103408614264E-07	-5.42248174235974E-06	6.30554195851802E-06	0.989345906941525	-0.125455602314513
5.3	-0.90869564002381	0.39125486654606	5.13735926254902E-06	5.99059871657362E-06	-9.62985067103921E-07	-3.57872001783858E-06	0.988907231617943	-0.127600095916225
5.4	-0.852706913158691	0.502058274579734	3.0546656005492E-06	-2.01495864860948E-06	-1.12900769438323E-05	2.2049644291954E-06	0.988667611971942	-0.130005009396488
5.5	-0.783289322601142	0.604958090155687	-4.32185731754177E-07	-2.19042643651686E-06	-5.77540748441721E-06	6.11665875284134E-06	0.988774639978741	-0.132336325105579
5.6	-0.700777473074016	0.698698129751396	2.37999659953087E-06	7.29128129648589E-06	-5.35575861785746E-07	2.92491024306861E-06	0.988752430283438	-0.135090306056158
5.7	-0.607186243531717	0.7812164171609	-2.56571655924976E-06	2.35813925656667E-06	7.898727270146E-06	2.76970528914623E-06	0.98829793245453	-0.137567821538824
5.8	-0.503930298126124	0.850465274948552	-4.63682643634953E-06	5.09507931205691E-06	-3.64365148984733E-07	3.41532194751026E-06	0.987893068294401	-0.139614565877428
5.9	-0.39356223142405	0.906376160420288	6.34221585499367E-06	1.49608314721342E-06	-2.70520503474203E-06	2.54053288588012E-06	0.98745440786835	-0.141432467007972
6	-0.27757743760404	0.948245364645545	3.51367901238144E-06	3.29406256210304E-06	-3.26685299504335E-07	-1.43098391396588E-06	0.987504524838729	-0.142856042008152
6.1	-0.157194832149742	0.975233842518518	9.1535853623423E-06	1.52645197567828E-06	-1.26120770394258E-07	-1.80439166630074E-06	0.987426458655862	-0.144197933667321
6.2	-0.0339917754081174	0.987283510377587	2.43582306729958E-06	-1.7235349902939E-06	1.48196119931402E-06	-4.83271648043682E-06	0.987293430979962	-0.145430312893991
6.3	0.0900055242934904	0.984014294574886	-4.35694669944544E-06	4.23077080740406E-06	-6.11689659446948E-07	-1.7225195807215E-06	0.987138427841145	-0.147363792120277
6.4	0.212744971213896	0.965343685574728	-4.25960657657105E-06	1.06230192352043E-06	-1.77101736385474E-06	8.8270462868341E-06	0.986967230622885	-0.149492319186756
6.5	0.332719729571485	0.931172802771733	2.44970296329956E-06	-1.32624215842493E-06	1.48835035846647E-06	-2.92360503832155E-06	0.986781845057574	-0.152522145748409
6.6	0.44655543742238	0.88189243266474	-4.72266676427498E-06	-2.25802752923135E-06	-1.85139205903672E-06	-6.63020626721271E-06	0.986328917440364	-0.155070712120915
6.7	0.553277906788596	0.818926952304019	4.1562433710159E-06	-6.52858952700707E-07	-4.66909429303539E-06	1.0015634896746E-06	0.986032195703368	-0.15747689818877
6.8	0.651175397989171	0.743152000967236	3.75310563909269E-06	-2.07013276463518E-06	6.2037991876795E-06	-9.11978905035621E-07	0.985410863014267	-0.159826082729917
6.9	0.738625575508579	0.655922149028235	2.04149201145651E-06	1.64060513297835E-06	8.76895059865643E-06	-2.73802056161494E-06	0.984834341401393	-0.161797755866592
7	0.81454248753608	0.558487872021932	2.16265084488957E-06	4.09218692770918E-06	-1.01189646033029E-07	5.3727084286461E-06	0.984312821120078	-0.163472352154313
7.1	0.877563046287106	0.452612614284941	-1.35477313657039E-07	1.71365944873214E-06	8.25021064422641E-06	-4.62224763588591E-06	0.983708547648682	-0.165140957317342
7.2	0.926830316075011	0.339428897139987	4.84011876921557E-06	-1.38243037418328E-06	7.23554180847304E-06	3.78614275152964E-06	0.983044260156501	-0.166831298658613
7.3	0.961128528930651	0.220935701806489	4.85238135505507E-06	-1.0973628168894E-06	-7.31172931126859E-06	-7.37765688111675E-06	0.981879341251833	-0.16856358959031
7.4	0.980323577134467	0.0990213129166597	-1.85497760618507E-06	9.8645975399499E-06	1.43761622492088E-06	-4.05491092892789E-06	0.980513410333772	-0.170500869493151
7.5	0.984903211434437	-0.0238982918999045	8.35333782640449E-07	8.06514436952306E-07	1.66522564287101E-06	9.95245271791377E-07	0.979910666010285	-0.172070542805818
7.6	0.974185332730526	-0.147709062929871	1.45828367702002E-06	-2.60415340189093E-06	-5.39617120024368E-06	-3.63206665781297E-06	0.979602260736625	-0.175099016655299
7.7	0.947868864839048	-0.269075585996451	5.55096623816213E-06	2.41790908931045E-06	-6.84182843249511E-06	1.19971953004334E-05	0.979190899576586	-0.178047063442166
7.8	0.906947116864762	-0.386283940205882	-5.96193122260372E-07	-5.23160093657453E-06	3.73916147589762E-06	-4.71427969194812E-06	0.979205203600909	-0.181016120829257
7.9	0.85164642906437	-0.497631487754425	8.82997984072037E-06	1.55293428118284E-06	-9.49066247368141E-06	-8.64990737477624E-06	0.979428491811311	-0.184061998092709
8	0.782719532766929	-0.602138990479421	-6.64626964233618E-06	-1.64418577809839E-06	-1.20022892824378E-05	2.4652268824695E-06	0.979827648621066	-0.187652753067761
8.1	0.699740749462761	-0.696073282363246	5.06803865379503E-06	7.37724866906715E-07	2.88463384294199E-06	2.26331697858335E-06	0.97891790095074	-0.190861023012665
8.2	0.606556760646324	-0.778071869946175	3.56284837305632E-06	-2.56597298863253E-06	-3.65812927170707E-06	-1.16032114175663E-05	0.978517002572995	-0.193228923805561
8.3	0.503851764963489	-0.847813982218095	2.72634189790509E-06	-1.85080277367681E-06	1.62775102072778E-06	5.28652311357427E-06	0.977993090150967	-0.195915325527188
8.4	0.393362986652191	-0.903939754925541	-5.54217911950327E-06	-1.02624187755837E-06	1.04926084930948E-06	2.94805502445557E-06	0.977337298529569	-0.198594188263847
8.5	0.276535191824488	-0.946331339229478	-3.28636531505445E-06	1.61511030765465E-06	-4.77358009572535E-06	-5.0043364426979E-06	0.976642924257492	-0.20142621668388
8.6	0.154126929440304	-0.973569849757301	-8.13384219266628E-06	1.36667764355821E-06	-4.32142176363062E-06	-6.86357349419971E-06	0.976100992333565	-0.203934292951802
8.7	0.0294196912465307	-0.984679987952705	2.2484727286038E-07	-2.14063050677141E-07	6.11255263084494E-06	5.20630681531047E-07	0.975717405927304	-0.206362766984577
8.8	-0.0954800372601369	-0.979797307874517	1.02712110074895E-06	-1.81550814258554E-06	-2.38717303616293E-06	-1.28382797984488E-06	0.975422519388227	-0.208526148185497
8.9	-0.218060444795376	-0.959658239215781	-3.05725458602804E-07	3.03329425684974E-06	-1.23096030609577E-06	-1.64278861585882E-06	0.97556297105516	-0.210541327684729
9	-0.335959024971881	-0.924309676052504	2.97266629193365E-06	1.59108698610308E-06	-1.57734678405821E-06	2.11064295123968E-06	0.97575214709378	-0.212929550242868
9.1	-0.448963892813381	-0.875483950622578	-9.30940190283574E-06	2.24593620749516E-06	-1.56751918710449E-06	2.40481818072837E-06	0.975781914431036	-0.215390488138427
9.2	-0.555351069438964	-0.812749272704945	7.50075766466231E-06	-2.17128587867698E-07	-9.10541821289261E-06	1.94745830831385E-06	0.975484460574826	-0.218340105937994
9.3	-0.653063390070136	-0.73758853044179	9.46228849196375E-08	-7.16000530346627E-06	1.58914576145928E-06	-1.29571015492264E-06	0.975024707572029	-0.221156214522431
9.4	-0.740743747587967	-0.650907490158089	5.9223952467364E-07	2.48430915172227E-06	1.6266197157382E-06	-3.59194004571144E-06	0.974190664388482	-0.224077937019128
9.5	-0.817882883574085	-0.554210602904473	-2.89525631269444E-06	6.63973802427883E-06	4.73164507095111E-06	-1.35392223468856E-06	0.973654431878829	-0.226780095301204
9.6	-0.882816878123241	-0.445802193082324	-5.0181532780746E-06	-5.22569104800743E-06	4.7605494107734E-06	2.8988442989941E-06	0.97291461953723	-0.230072113504715
9.7	-0.932160672453385	-0.329621570210173	-1.99382349593667E-06	-5.08729563204574E-06	2.10061477933312E-06	1.51338479933304E-08	0.972097044362445	-0.23260183984249
9.8	-0.966323910089628	-0.208070260571888	6.02632537647461E-07	-4.2922659168869E-06	-2.94176472683175E-06	-2.5283497429616E-06	0.971699973109871	-0.234474309704643
9.9	-0.984227587201746	-0.0834222754180998	-6.13307133688809E-06	4.20675327138944E-06	-3.09305811166441E-06	1.662928595652E-06	0.971632737349941	-0.236051692232657
10	-0.986889232234889	0.040938921616163	3.57902112068565E-06	-3.66902225658037E-08	8.22922998134E-06	1.11364535118539E-05	0.971935104232161	-0.238490918464518
10.1	-0.974519403449893	0.165400868051271	-2.85946253205699E-06	-2.53188344513823E-06	-2.00925473498915E-06	-2.50564843623901E-06	0.970647742327247	-0.240532535655665
10.2	-0.946121383703227	0.287914382063113	2.36349640241459E-06	-1.01943795015272E-06	-2.77249558751088E-06	-1.07356575693821E-06	0.970131803626664	-0.241671166504133
10.3	-0.90218557464731	0.405760081838018	7.78941515865393E-06	-5.95319682243572E-06	3.856907460376E-06	8.25845275034962E-06	0.969725515972511	-0.243254248996337
10.4	-0.844220798873585	0.516809513988464	1.71050913331578E-06	2.53682776162361E-07	6.29662035357833E-06	-1.18241520476806E-06	0.969351111217039	-0.245194987473561
10.5	-0.772845091025255	0.619719153662537	8.37843996099064E-06	-4.1472930551263E-06	-4.97411171322277E-07	1.97806479125485E-06	0.969052926881063	-0.24804442994305
10.6	-0.689455788582459	0.71228615444985	8.96367404386713E-06	-1.26802088568029E-06	-1.48918513058321E-06	1.36815852554975E-05	0.968468764909545	-0.250929994024665
10.7	-0.594761820493226	0.793408520168304	8.04007571097748E-06	-1.90672390703835E-06	-3.06127207666217E-06	-5.29713865306111E-06	0.967655151308206	-0.254278210491795
10.8	-0.489549170571056	0.862355724001662	2.45813582605842E-06	5.26160502162712E-06	-3.63767546946005E-06	-2.05261591357859E-07	0.966774214452714	-0.256685001768959
10.9	-0.375960369588662	0.916926455785381	-5.57108981576469E-06	4.89111953745695E-07	1.60266837927086E-06	4.03683585853976E-06	0.966101926598307	-0.258972824779938
11	-0.258275239498184	0.955980350880504	3.14706165646275E-09	-5.23165787158583E-06	-8.39583038526814E-06	2.23591257536467E-06	0.965310512911442	-0.261357139288395
11.1	-0.136426302336326	0.982530472246755	6.32422642252762E-06	4.09869686339345E-06	-1.9083445806687E-06	1.07842148486085E-05	0.963814013920214	-0.263416998346264
11.2	-0.0111509008779646	0.99276536088446	1.5825285795627E-06	1.35806205447756E-06	5.15056651996328E-06	8.92297784424474E-06	0.962211350386444	-0.265102720656967
11.3	0.114593097778944	0.986132539803973	-4.63596949079845E-07	-1.74136910752216E-06	-7.0089774583675E-07	-4.40566936121493E-06	0.961029422065093	-0.266444817528602
11.4	0.238161128405082	0.96375312986322	2.26020282769261E-07	1.18865679161785E-05	2.42878293684743E-06	4.93983655204819E-06	0.959850133434463	-0.268197794751762
11.5	0.357751407856371	0.926023753314676	6.20937288417816E-06	-3.26283596656449E-07	3.17208272295682E-07	-1.88652274135653E-06	0.959642721198511	-0.270540245015526
11.6	0.4705070179799	0.873917021592787	-6.01542222945341E-06	3.08312073380013E-06	-4.8788128693098E-06	1.92290673820335E-06	0.958317141526305	-0.27444881425973
11.7	0.575818378815437	0.808483890058918	3.33132686947992E-06	-1.80103900276733E-06	-1.70814057607477E-06	2.24190652381237E-06	0.956802247285713	-0.277669145656276
11.8	0.671900766478619	0.72974327095753	-8.17927739336767E-07	9.80783110488741E-06	-2.71572194572638E-06	1.05540801323462E-05	0.955853185221601	-0.28058597105582
11.9	0.756203157450782	0.639237577125652	-7.30552878626933E-06	-1.03836343587079E-06	-3.91577122251534E-06	1.12638775984343E-05	0.956329552297466	-0.282628416272699
12	0.828596355539472	0.539734554692306	-6.45569430651089E-07	1.38531724136061E-06	-3.14435299651257E-06	-1.92843318885055E-06	0.956984670038196	-0.286808332677954
12.1	0.888820088596262	0.432508317574329	-3.8819352261997E-06	5.00215070881226E-06	-1.33343055649099E-06	8.43443834751808E-06	0.955367786923254	-0.290253967894362
12.2	0.93555430149239	0.318235531259123	-5.82876410811582E-07	-3.80612710743954E-06	-3.12204309495232E-06	-7.28720668118523E-07	0.954161746016853	-0.293495006224125
12.3	0.967761818718674	0.199300394641286	3.6110664211549E-06	3.43410821852166E-06	-3.43253174913227E-06	6.28705800606053E-06	0.952714510336118	-0.296756527878967
