# GHZ S RI R 50
0.2	-0.965482392149792	0.251817878378331	8.82171558339162E-06	5.31544751380228E-06	1.13516963273758E-06	-2.88902297009868E-06	0.99929646580345	-0.00727406589014143
0.3	-0.92577865475713	0.37158481844869	-7.65873741563455E-06	-8.14906581000831E-07	-1.27373378756824E-08	3.65762023194285E-06	0.999087723764472	-0.0103688440344712
0.4	-0.870782300322597	0.485106139519538	-2.19293610205008E-06	6.33564400391558E-06	2.92062140284784E-06	5.73012408224692E-06	0.998736477084314	-0.0131913135336971
0.5	-0.802499448392125	0.590622779107919	-2.64599546395553E-06	5.49044664945806E-07	1.05102527945473E-05	4.8768397363547E-06	0.998185876185359	-0.0159364158691348
0.6	-0.721483390487978	0.686988932193896	-1.72385301734391E-06	-1.79071668541528E-08	4.15770032014023E-06	-1.03284106968502E-05	0.998537119338411	-0.0187633143474898
0.7	-0.628923766022635	0.772298286069411	-2.04483913565934E-06	9.88082669054343E-07	3.78356065344529E-06	1.11489158106332E-05	0.998104097464668	-0.0218332095712888
0.8	-0.526372010282442	0.845260354245186	-5.59866688317797E-06	3.78001577252424E-06	-3.16542942761439E-06	-2.13590696736462E-06	0.997800006496928	-0.0239857164990459
0.9	-0.415721477012194	0.904523220460417	-6.66058786267192E-07	5.24516277575589E-06	3.26295639036606E-06	-2.95652903163632E-07	0.997725903904267	-0.0265094396747575
1	-0.29802122417423	0.949390067861589	1.56625476214779E-05	-3.69303343132623E-06	-9.58561011428707E-06	5.33042492618334E-07	0.996939745128498	-0.0284279348243243
1.1	-0.176675844337095	0.978791499646671	1.33833993588151E-06	-2.97785014339871E-06	9.38719704611546E-06	1.25711118592054E-05	0.996358814612658	-0.0301639000218183
1.2	-0.051743588229118	0.992712654424594	-7.89500263489639E-06	-3.24835078252112E-06	-3.09421108788457E-06	-4.46823274290396E-06	0.995385648566227	-0.0313443527594947
1.3	0.0738535116329556	0.990792612431423	1.80101472173996E-07	3.32663070816953E-06	1.92501884509804E-06	3.39200533882319E-07	0.995025547178714	-0.03230956220147
1.4	0.197850502749965	0.973241864744427	2.45118672740059E-08	3.75910265039315E-06	-2.52511890433386E-06	-5.60107687652485E-06	0.994725306419047	-0.0343519764732762
1.5	0.318561337944016	0.940706710723663	3.17962547257709E-06	-2.67443710222275E-07	2.69704836440576E-06	2.08864116332665E-06	0.9950325740557	-0.0376114291522852
1.6	0.434264779088958	0.893694540751458	1.78418385827642E-06	-1.93564057114351E-06	-8.92028780050534E-07	-3.05757402182042E-06	0.994972655951037	-0.0404506882659512
1.7	0.543013868391213	0.831954105658599	-8.47940637299347E-08	-3.51907114181509E-06	2.00113954816745E-06	4.91872619041786E-06	0.995692776402827	-0.0427452278604149
1.8	0.64297222696444	0.757449558510399	-2.05396873022095E-06	-1.81216872278566E-06	-4.63917935866669E-06	1.82907891670377E-05	0.995853945170974	-0.0453520426007716
1.9	0.732828094618564	0.670871083084895	-4.38453163095107E-06	-1.4659779096822E-06	-4.91894161293106E-06	-5.99693779642229E-06	0.995813477430512	-0.0479021912768851
2	0.810285321436434	0.573341866986886	-9.46083899647295E-08	-6.72633120306572E-07	-1.66464611435489E-06	-1.41457250413351E-06	0.994186307380129	-0.0505278653573622
2.1	0.875745981709985	0.467250622767865	-1.14789281185733E-06	9.42306856989331E-06	1.98982843212487E-06	-3.77251824919782E-07	0.994204677451383	-0.0514237202554396
2.2	0.927566989369701	0.353781099185403	-1.48232767965566E-08	-5.91617652925362E-06	-7.38802715138605E-07	2.73018868930535E-06	0.994737584259146	-0.0535804269197578
2.3	0.964483802434656	0.234451159184887	-1.31668607963843E-06	2.75773264718871E-06	-2.88246975133964E-07	1.19463461156467E-05	0.994741682147198	-0.0553552488002873
2.4	0.986087794619405	0.110615787210365	-5.85342082462298E-06	-3.71111477324587E-06	-1.75834913109628E-05	1.44619565102882E-05	0.994906488128533	-0.058524461396623
2.5	0.992295316517236	-0.0139142895647872	1.82287497503321E-06	-2.95488563076346E-06	-1.80482860330176E-06	7.53370779780681E-06	0.994398244476431	-0.0608817172947144
2.6	0.982874132891405	-0.13740252873574	2.85726708532279E-06	9.23023375147348E-07	-1.75708759106201E-06	4.49431983088126E-06	0.994268492099846	-0.0635518670674091
2.7	0.957812734296272	-0.259224823562253	3.79948226377171E-06	1.04382595441762E-05	2.31285552565007E-06	3.86730563984646E-06	0.993866016039866	-0.0662986316937412
2.8	0.917883506909183	-0.377062249545944	-8.07609708275918E-07	-2.29143067961469E-06	2.23070166986284E-07	-1.88493024439215E-06	0.994105710185284	-0.0680191092493484
2.9	0.863835067913341	-0.488622910568833	3.78232290585893E-06	-8.29659443937877E-06	-1.23722882744063E-06	-1.42090223118901E-05	0.993962962569658	-0.0699017951774984
3	0.79614457779331	-0.592994844592641	-3.15013002102938E-08	6.64077806440156E-06	-1.47666432919564E-05	5.25406244464506E-06	0.993801657014815	-0.0722860013112216
3.1	0.71705428318234	-0.687053405919621	-5.00293717395234E-06	7.79743110466152E-06	5.80144696588303E-06	-6.65037276983141E-08	0.993465732131586	-0.073954973416971
3.2	0.6250623579191	-0.771889751169357	9.51443779581357E-07	2.12703422240721E-06	-4.55796702578533E-06	4.60948183277938E-07	0.993326943776059	-0.0753879208399504
3.3	0.523443920649479	-0.844513493399172	7.24840599941827E-07	-1.4556804899316E-06	-4.58119474108062E-06	7.12372929183565E-07	0.9933949101857	-0.0783520323670538
3.4	0.413057590154797	-0.903982054590404	6.46900087830533E-06	2.63448164502997E-07	-8.10455191720844E-06	-7.21674732335417E-06	0.993938782078584	-0.0803421012947554
3.5	0.295030449221287	-0.949168311531142	-7.71030888983594E-06	1.93691022928982E-06	-5.87925156849423E-06	-8.00738789320726E-06	0.993791119017201	-0.0838026387134271
3.6	0.172482665098835	-0.977998965700047	-8.43374401964973E-07	-4.38407062077383E-06	-7.79678444780491E-06	-6.35595664587754E-06	0.993169694622992	-0.0858683287012585
3.7	0.0479425918560771	-0.992524165263251	-6.69398108265127E-06	-6.79292005158603E-06	5.43739982026091E-07	-4.7628216345434E-06	0.993492194547811	-0.0882607878410292
3.8	-0.0780913057726523	-0.990802752698039	-3.64878027294247E-06	1.07166371025564E-06	-3.2900988549833E-06	-2.47732446866957E-06	0.993667200764365	-0.0904056211476287
3.9	-0.20228728096466	-0.972926663365302	-4.90125258782034E-07	3.50840277225133E-06	2.05820985056038E-06	-1.21398000740703E-06	0.994050802104458	-0.0942230872974827
4	-0.322934511969234	-0.939425731959334	1.16545678828298E-05	8.15521334556102E-06	7.27878286352206E-06	-4.01834245467032E-06	0.99258626762753	-0.0959157773116359
4.1	-0.437804470157968	-0.891999352532734	5.21630861781582E-06	1.34386050210268E-06	-3.48516549871591E-06	6.6435922901583E-06	0.992680413383383	-0.0965998869640486
4.2	-0.546307040224563	-0.830803745006776	-7.10201001813309E-06	-1.22859836306166E-06	-8.27557796993673E-06	-7.14337745124153E-08	0.992783385742567	-0.0991691533742097
4.3	-0.646494239864229	-0.755735139367454	7.1153677858005E-07	-2.36894232584363E-06	5.21732775291872E-06	8.99737243642337E-07	0.993054415964903	-0.101281085095012
4.4	-0.736401486558482	-0.668072267757906	4.4853461981293E-06	-1.76242774450854E-06	-8.73957268127597E-07	1.34591162759087E-06	0.992805610265338	-0.103891596597428
4.5	-0.814316993734117	-0.569740415498828	6.78801076738467E-06	1.89216803077821E-06	-7.94996202822053E-07	-3.26431582048997E-06	0.992809492513155	-0.105864428467126
4.6	-0.879585597347039	-0.462565950772532	2.45041383461689E-06	2.96375442120081E-06	-6.62893880135839E-06	9.74151074649767E-06	0.993062119137666	-0.108830378188174
4.7	-0.930742426340561	-0.347282493051445	-1.40908052382656E-05	5.88331556337518E-06	-3.46741582185382E-06	-4.50750464420297E-08	0.993156481933491	-0.111229645657973
4.8	-0.966885050701962	-0.227078421701115	-3.15004805231914E-06	-5.16065163261625E-06	-5.53976289994411E-06	2.3514506873526E-06	0.992920924782276	-0.113890069408625
4.9	-0.987241983629807	-0.104101265759717	-9.92483493126993E-07	-8.57005707129682E-06	-4.23090862760634E-06	7.26206839287712E-07	0.992870065010654	-0.115844455252078
5	-0.993567254404705	0.0200789396810937	7.57709460797867E-06	-1.54675303445097E-06	-1.74701246188299E-06	-2.73570301055006E-06	0.993004212281032	-0.117814793855224
5.1	-0.983053720133412	0.146523483314892	-2.589564243108E-06	-6.42110752748443E-06	-1.00584562203727E-06	-1.96202871709735E-06	0.993171605751279	-0.119450541820438
5.2	-0.957168091719702	0.269038665013695	4.01132267458477E-06	-4.26269077446457E-07	-5.47436527919785E-06	6.31191127765064E-06	0.993226033646222	-0.121978660883581
5.3	-0.916450814121565	0.387683810484977	5.14176751329831E-06	6.04218444704281E-06	-9.54402721764967E-07	-3.60146819734062E-06	0.993235819393489	-0.124660057466164
5.4	-0.860800384980068	0.500590035796567	3.07915633249737E-06	-2.01808890851001E-06	-1.13650195034207E-05	2.18477757490491E-06	0.993559361632258	-0.12798926862662
5.5	-0.79026841777767	0.605084036780958	-4.31232162106906E-07	-2.20382536212618E-06	-5.81860338463265E-06	6.14303752113571E-06	0.993051495196225	-0.131880749434904
5.6	-0.70746754721826	0.698953788681586	2.37979699510268E-06	7.33410791866865E-06	-5.43554654477148E-07	2.93947114385608E-06	0.992330198014178	-0.1342545014031
5.7	-0.61418881085428	0.782561122716003	-2.58488540892811E-06	2.36736390671058E-06	7.93995428832586E-06	2.79989105279609E-06	0.992405515909133	-0.136710638712334
5.8	-0.510714363671058	0.853596503663495	-4.67408010640975E-06	5.12294643928542E-06	-3.71141954404445E-07	3.43750494812973E-06	0.992680034250806	-0.139334894556743
5.9	-0.398882781181282	0.911510143647386	6.3889611996827E-06	1.50637092821566E-06	-2.72479285644408E-06	2.55949038384721E-06	0.992583981303707	-0.142764850663799
6	-0.280596982290821	0.95346393938272	3.53999137496127E-06	3.30871939681491E-06	-3.3083719879936E-07	-1.4391702409523E-06	0.990492078464704	-0.144998709618928
6.1	-0.159190791014284	0.980700130302298	9.20925349895384E-06	1.52377556282794E-06	-1.29154791156825E-07	-1.81482236447673E-06	0.990571439103646	-0.145326176481862
6.2	-0.0343245170894017	0.99269765174711	2.44623127603226E-06	-1.73816976436112E-06	1.48076734624456E-06	-4.86311513243235E-06	0.990476560845238	-0.146990121200721
6.3	0.091152245711085	0.988774546078404	-4.36773036270998E-06	4.263527357763E-06	-6.19301946191015E-07	-1.72957591394994E-06	0.989948870617224	-0.149262361730411
6.4	0.214774393461181	0.968555742689634	-4.27299925778994E-06	1.07862496942514E-06	-1.75252399858826E-06	8.86619820192115E-06	0.989047110482683	-0.151685105944235
6.5	0.333294328759959	0.934214994963691	2.45684723579457E-06	-1.33411853309951E-06	1.49001097989281E-06	-2.93601774751433E-06	0.98853040976107	-0.153434564812056
6.6	0.448773627338919	0.886072730350258	-4.74996015719439E-06	-2.260915115537E-06	-1.87215344998809E-06	-6.65972922461437E-06	0.989449567320535	-0.156383100866566
6.7	0.556749346544991	0.822443657149894	4.17539815447358E-06	-6.65597255135143E-07	-4.69000004352014E-06	1.01720563492036E-06	0.989316765651708	-0.159389173463037
6.8	0.655581469073895	0.74602065133741	3.76705913309685E-06	-2.08993657991334E-06	6.23307210171377E-06	-9.31958457022551E-07	0.988986964753464	-0.162045097540387
6.9	0.744013791150764	0.65778352732233	2.05729349057254E-06	1.64355052636838E-06	8.80841991333882E-06	-2.77828049203385E-06	0.988756198818776	-0.164744145663003
7	0.820077033229264	0.558914285218068	2.18824446420239E-06	4.10346241477973E-06	-8.15182428771018E-08	5.39854109295645E-06	0.987477061776108	-0.166882031404858
7.1	0.883183658730659	0.452437212239362	-1.30606769595385E-07	1.72122309292885E-06	8.26989789957477E-06	-4.66765410664555E-06	0.987065311103631	-0.168141587285046
7.2	0.932772613258074	0.338460747789425	4.85683612378853E-06	-1.40176496020099E-06	7.27681075625456E-06	3.78210349790863E-06	0.986732142542654	-0.169921942694006
7.3	0.967582976125183	0.219165278026403	4.87246457115902E-06	-1.11364359341551E-06	-7.36277677404907E-06	-7.39520373665859E-06	0.9861739695564	-0.171709942170232
7.4	0.988144833727663	0.0956441913535664	-1.84667691462492E-06	9.93167697517403E-06	1.43853499619393E-06	-4.08386686383941E-06	0.986338565212085	-0.174579915941581
7.5	0.991903585300724	-0.031531898627017	8.46090962546784E-07	8.08648652892443E-07	1.68353831201726E-06	9.94635397618716E-07	0.985069456668485	-0.179331216866875
7.6	0.978613880426368	-0.156100421870524	1.45151332529351E-06	-2.62963958268235E-06	-5.45273627488298E-06	-3.6219081185672E-06	0.983216096107356	-0.182069168059279
7.7	0.950947834202104	-0.278508729275411	5.60226141924576E-06	2.39581106813951E-06	-6.80426502797164E-06	1.21189334354932E-05	0.9827179375083	-0.185417423218335
7.8	0.908123470492475	-0.396536519067471	-6.39449129047888E-07	-5.25824753288308E-06	3.72566269542714E-06	-4.77074588378492E-06	0.982360202527	-0.189043612574925
7.9	0.849922077207718	-0.508182527804821	8.88546963230699E-06	1.48261479146513E-06	-9.61171298205035E-06	-8.6073953334156E-06	0.981410779914408	-0.193210471230866
8	0.777314043570172	-0.608849733256835	-6.66500812669541E-06	-1.59044544205622E-06	-1.19911493438231E-05	2.56646947142794E-06	0.978271593411726	-0.195708318103704
8.1	0.697016473632268	-0.700009625486714	5.07527418860377E-06	7.12750597481776E-07	2.89802282674576E-06	2.25038442129278E-06	0.978160291359155	-0.196363317920076
8.2	0.604698921246205	-0.782303530243369	3.55622846585172E-06	-2.58503950851471E-06	-3.7140480665482E-06	-1.16023486639835E-05	0.978249182519748	-0.198651236047053
8.3	0.501935103294327	-0.852200650110469	2.72232374208356E-06	-1.86486506934094E-06	1.65229658676396E-06	5.28699884698883E-06	0.977614651440249	-0.201368065275659
8.4	0.3908414478229	-0.908570275565302	-5.5549416960312E-06	-1.00558823485285E-06	1.06273445171062E-06	2.94843872625795E-06	0.976585650625309	-0.204039819157853
8.5	0.272326416696895	-0.949840562061258	-3.285409679286E-06	1.63484343369131E-06	-4.80858733850819E-06	-4.99142265563434E-06	0.975720067678341	-0.206288461238419
8.6	0.150738185920806	-0.975157943146379	-8.13220803991775E-06	1.41524636473042E-06	-4.36487779541625E-06	-6.84369215580525E-06	0.975607991010155	-0.209042826959705
8.7	0.0269910259413163	-0.986014473943055	2.23610177818032E-07	-2.15255303238842E-07	6.1139763403644E-06	4.86709822824684E-07	0.975016604255107	-0.211882706595781
8.8	-0.0973041948983616	-0.981279324204779	1.01718820328084E-06	-1.81885604885581E-06	-2.39124591167708E-06	-1.27083065689491E-06	0.97436207485946	-0.214284504001187
8.9	-0.219291352093997	-0.962030572041445	-2.94589220222846E-07	3.03019554435581E-06	-1.23506765588073E-06	-1.63617715095669E-06	0.97399461631547	-0.216451816006046
9	-0.339087260393165	-0.92813033417318	2.97728716776746E-06	1.58450141928302E-06	-1.57279921538879E-06	2.11498422701094E-06	0.97336159002266	-0.218803743233561
9.1	-0.453321376108562	-0.877499758024865	-9.30883211310932E-06	2.27730016413299E-06	-1.56094261695504E-06	2.41153868976899E-06	0.972567102639018	-0.220698377136258
9.2	-0.559860106955284	-0.813419507158781	7.50481243665093E-06	-2.42975136002227E-07	-9.10456921365327E-06	1.97991162576992E-06	0.971746597440461	-0.222870933601413
9.3	-0.657293456961312	-0.736613426489054	6.67464320694703E-08	-7.16452551133768E-06	1.58501249515526E-06	-1.30266064197525E-06	0.971288818754619	-0.224936771229786
9.4	-0.744719406515376	-0.648399928103575	6.04831514412191E-07	2.48344217055136E-06	1.61043248925957E-06	-3.60279012443947E-06	0.971002350571682	-0.227837980378367
9.5	-0.819732690085162	-0.547134396020521	-2.84171386469241E-06	6.6556109681701E-06	4.71681014794087E-06	-1.38884585464302E-06	0.969728510928079	-0.231336657737219
9.6	-0.878436248119739	-0.439660400265778	-5.033261438077E-06	-5.17040784949322E-06	4.76090555546288E-06	2.85475571045973E-06	0.968594596609235	-0.233757887932826
9.7	-0.925841455474202	-0.326600761303763	-2.01293078778042E-06	-5.05169985953023E-06	2.09063950046017E-06	3.2287589255427E-09	0.968131996850253	-0.236223199522189
9.8	-0.959685723096322	-0.207329197446803	5.77761349771692E-07	-4.27360425780601E-06	-2.93972856759624E-06	-2.50059719176689E-06	0.967871385736151	-0.238599911077572
9.9	-0.978292409438717	-0.0841051906984734	-6.08004148706807E-06	4.2145707041509E-06	-3.06856121905531E-06	1.66929527594308E-06	0.966846866316077	-0.24141927040817
10	-0.981440742714591	0.0407256403913903	3.55800009611121E-06	-5.16308900922525E-08	8.2284084717521E-06	1.10366832175745E-05	0.964018618062568	-0.241999165988233
10.1	-0.967374629859392	0.164757062402304	-2.85416770067055E-06	-2.50688289154713E-06	-2.0084272874063E-06	-2.48417430813545E-06	0.964587586085367	-0.241765764451098
10.2	-0.938146555066925	0.285488094163451	2.34545901847436E-06	-1.02361354181333E-06	-2.76101585064453E-06	-1.05552299312957E-06	0.964851267918885	-0.243441194007391
10.3	-0.893977851375919	0.401477286112195	7.71182483731943E-06	-5.94634586564018E-06	3.86612136407125E-06	8.18662446680727E-06	0.96416241302798	-0.245647288406924
10.4	-0.83582665934119	0.510312291203744	1.69732002823519E-06	2.45220357784409E-07	6.24019295281997E-06	-1.19608071418986E-06	0.962573192845861	-0.248034311082278
10.5	-0.766278771960591	0.610291938718592	8.29755801106632E-06	-4.12084064792422E-06	-4.90354135759418E-07	1.96089215911043E-06	0.960923141683692	-0.249674795666542
10.6	-0.684108541472772	0.702148680691759	8.88950708682659E-06	-1.26329277652985E-06	-1.46837139277E-06	1.35705403510877E-05	0.960484180653977	-0.251770844856379
10.7	-0.590432458840657	0.782271057259116	7.975098621915E-06	-1.89212248388607E-06	-3.03710505509165E-06	-5.25415727178397E-06	0.959363405339285	-0.253880223795009
10.8	-0.486752760375509	0.850002763807264	2.43564146697985E-06	5.22098259430749E-06	-3.60854581255816E-06	-2.05619713989346E-07	0.95881920880109	-0.255045405974587
10.9	-0.375564216419048	0.904442955673214	-5.53141635443229E-06	4.77147959065665E-07	1.58494444695692E-06	4.00997398284915E-06	0.958681282779202	-0.256271581868056
11	-0.257734484455554	0.945720070337779	6.93097968671436E-09	-5.20105825004076E-06	-8.34835244072994E-06	2.21673383145472E-06	0.958337109584702	-0.256965639026123
11.1	-0.1346341749785	0.969275578478847	6.28072095033839E-06	4.07041590544493E-06	-1.89510256496285E-06	1.0709980070134E-05	0.958944891781683	-0.257750492678297
11.2	-0.0122281212680615	0.977083812971393	1.56981102453005E-06	1.34859655500682E-06	5.10680232016336E-06	8.85802063068821E-06	0.959124197227041	-0.259401930325215
11.3	0.109594539489087	0.970123960122381	-4.57727139006847E-07	-1.72815802268907E-06	-6.89786553441828E-07	-4.37164977868275E-06	0.959418149754138	-0.26138209562236
11.4	0.229768836306435	0.949117898835709	2.00409502245731E-07	1.17958423656665E-05	2.40022936555732E-06	4.9068228130288E-06	0.959507199410222	-0.264744331918736
11.5	0.3473512657052	0.913577696922065	6.16370906765902E-06	-3.13666844250096E-07	3.17943811700377E-07	-1.87196604412796E-06	0.957428694845836	-0.268768580151012
11.6	0.458474699532573	0.863450421851013	-5.97431727041982E-06	3.04418790366093E-06	-4.84411599251524E-06	1.89597390971637E-06	0.955813299188838	-0.271021055382741
11.7	0.562400376097312	0.800749235900907	3.31181991466278E-06	-1.77691901965797E-06	-1.70229536134965E-06	2.21957138997315E-06	0.955388042607091	-0.274438717501328
11.8	0.658489561424276	0.725351352736432	-8.45951900061031E-07	9.73915977759891E-06	-2.73354950519057E-06	1.04739108415174E-05	0.954681908674812	-0.27854762536389
11.9	0.745068188304193	0.63719334399305	-7.25886382974759E-06	-1.05014471110649E-06	-3.91996278481655E-06	1.11862091930332E-05	0.953308343892751	-0.282316989652671
12	0.818017574989422	0.537634102773198	-6.43982516250606E-07	1.37186279953373E-06	-3.11252821909171E-06	-1.92093259077027E-06	0.949322017587254	-0.282886626842109
12.1	0.879350566915607	0.431521131192284	-3.87570966273664E-06	4.94464002745543E-06	-1.36347550781204E-06	8.36244203920161E-06	0.949660996368126	-0.282100610228759
12.2	0.926526409817355	0.31737940278486	-5.57940326481114E-07	-3.78103881382852E-06	-3.09492881384964E-06	-7.40219206080169E-07	0.949996592247601	-0.283632230408913
12.3	0.958538186839878	0.199224017511059	3.56230886140118E-06	3.43132440991909E-06	-3.44671965282714E-06	6.21830731875726E-06	0.949825592205052	-0.28558654027282
