# GHZ S RI R 50
0.2	-0.965738894172152	0.2517133353333	8.82092804956189E-06	5.31709281190602E-06	1.13569818605698E-06	-2.88887182054795E-06	0.999205101354457	-0.00709445665839013
0.3	-0.926154734461623	0.371546020466159	-7.65872361015861E-06	-8.17266469224764E-07	-1.38528283251532E-08	3.65772840468736E-06	0.999033200440346	-0.00996937767258925
0.4	-0.871289827584823	0.485222422064597	-2.19605798122442E-06	6.33562006402642E-06	2.91852825194795E-06	5.73226605784425E-06	0.99891451175818	-0.0125601651838961
0.5	-0.80288902304204	0.591059267143703	-2.64697202256915E-06	5.48444746102259E-07	1.05120795107552E-05	4.88140163668311E-06	0.998747584091156	-0.0154705061988221
0.6	-0.721712152701672	0.687342957926148	-1.72416932330263E-06	-1.83794072204328E-08	4.16128437901733E-06	-1.03292040847889E-05	0.999135065551928	-0.0184764337344402
0.7	-0.629181851643577	0.772684235418954	-2.04550688000186E-06	9.87739978182901E-07	3.78137295488739E-06	1.11521334673658E-05	0.998762433907724	-0.0217523531608106
0.8	-0.526624842463285	0.845715518056781	-5.60033195547987E-06	3.77941980981247E-06	-3.16546904191752E-06	-2.13690589457131E-06	0.998362466088872	-0.0241285265398268
0.9	-0.415985393351418	0.905044113492899	-6.6735032095446E-07	5.24502507651759E-06	3.26304511011334E-06	-2.94852958417032E-07	0.998012762995966	-0.0266693258386058
1	-0.298376064933436	0.950025020426179	1.56647478172899E-05	-3.68301708283744E-06	-9.58585611849341E-06	5.26929277719573E-07	0.997254921210466	-0.0281334390156796
1.1	-0.177164222129629	0.979693278659616	1.34176678790549E-06	-2.9774940087126E-06	9.37770452012027E-06	1.25846772675316E-05	0.997114847202541	-0.0295239258171841
1.2	-0.0523185641507695	0.994064095274027	-7.89644103147454E-06	-3.26279184235794E-06	-3.08998143670892E-06	-4.47644682109844E-06	0.996910215438888	-0.030211007138677
1.3	0.0733843434705875	0.992572602481336	1.73626793404583E-07	3.33147888710953E-06	1.92692893950956E-06	3.43544987986991E-07	0.997592535665537	-0.0308301039330016
1.4	0.197619921116939	0.975072978113229	1.59739757601046E-08	3.76481036049674E-06	-2.51613900936278E-06	-5.61525802701588E-06	0.99782559605773	-0.0328260103402417
1.5	0.318650062717339	0.94224458512831	3.18489133871826E-06	-2.60784894905285E-07	2.69637966449427E-06	2.09769217031559E-06	0.998412992025225	-0.0363454761323219
1.6	0.434464203036805	0.894723194469701	1.78959132840454E-06	-1.93514511062872E-06	-8.88139104653046E-07	-3.06286870706783E-06	0.998023528693642	-0.0401362320664735
1.7	0.543228338643891	0.832643753482733	-8.09514668119995E-08	-3.52252563436176E-06	1.99756611376044E-06	4.92565366321114E-06	0.9980823733883	-0.0430893623758899
1.8	0.643092046868577	0.757847194330402	-2.05396940110734E-06	-1.81477180426385E-06	-4.6551285406848E-06	1.82989873033055E-05	0.997592764341521	-0.0460315184691372
1.9	0.732647956763388	0.671229926052544	-4.38483601445317E-06	-1.46930992156729E-06	-4.91639903096173E-06	-6.00194236969415E-06	0.997092705773383	-0.0484411981238335
2	0.810373436758119	0.574046270870372	-9.41239519740049E-08	-6.73233706878692E-07	-1.66476503144866E-06	-1.41705118322854E-06	0.996059546275871	-0.0510052636216474
2.1	0.875914549077388	0.467417441720941	-1.14935964396973E-06	9.43178982003815E-06	1.99169626663841E-06	-3.77518769470516E-07	0.99598156542499	-0.0528024966215822
2.2	0.927396542003248	0.353908321984642	-1.6321254966264E-08	-5.92055612086564E-06	-7.38663880274535E-07	2.73239718994002E-06	0.99616503924898	-0.0552485248567905
2.3	0.964145797887022	0.234720026391638	-1.3163345585041E-06	2.76016207021442E-06	-2.83107436927571E-07	1.1954453099659E-05	0.995881771163671	-0.0571693911177342
2.4	0.985699697275772	0.111000420970305	-5.85933858141666E-06	-3.70910813732317E-06	-1.75832969413331E-05	1.44824820596842E-05	0.995753393380932	-0.0602271435067791
2.5	0.991744885066584	-0.0135696455464463	1.82068531998166E-06	-2.95674531905757E-06	-1.79889129434238E-06	7.53612390770857E-06	0.995413813840805	-0.0622429094389729
2.6	0.982020728088472	-0.136781507406057	2.85796389523284E-06	9.21522607839767E-07	-1.75474747487046E-06	4.49558281552794E-06	0.995584878625519	-0.065043523008684
2.7	0.956961111678799	-0.258410748060384	3.80776556502446E-06	1.04378399991682E-05	2.3161231785061E-06	3.86650424179396E-06	0.995329275125394	-0.0680532889464017
2.8	0.916951848116581	-0.37622642501453	-8.10391607577725E-07	-2.291071545081E-06	2.20995817586674E-07	-1.88563673739651E-06	0.995542688489093	-0.0701287846826319
2.9	0.86279899852275	-0.487804532024545	3.76962096109453E-06	-8.30393057099085E-06	-1.26017242671449E-06	-1.42092325117133E-05	0.995225127403745	-0.0722343086551053
3	0.79487086862276	-0.592346456135803	-1.79619561772901E-08	6.64089878228782E-06	-1.4756056613206E-05	5.28421424742097E-06	0.995087874210168	-0.074651391233873
3.1	0.715272146355552	-0.686247473490901	-4.98366008265785E-06	7.80838183120805E-06	5.80054084083362E-06	-8.03582907565024E-08	0.994890093302946	-0.0766266140938248
3.2	0.623055825283074	-0.770650101427319	9.56682929268896E-07	2.1238655369718E-06	-4.55529159328732E-06	4.72685086759427E-07	0.994710602783188	-0.0783808813412093
3.3	0.521337033475245	-0.842846340404954	7.20456567358709E-07	-1.45692157269877E-06	-4.57685790548164E-06	7.24617859573651E-07	0.994579321542417	-0.0815817860019439
3.4	0.410862875203599	-0.901650100666285	6.4635589503696E-06	2.44909780669063E-07	-8.11720126681776E-06	-7.1869358015103E-06	0.994730667262875	-0.0835251122133395
3.5	0.293623442510376	-0.945977892559044	-7.69519182602698E-06	1.94980217846166E-06	-5.88703536926527E-06	-7.98381339245795E-06	0.994755912767994	-0.0864043733579244
3.6	0.171626276408066	-0.974944229052511	-8.49918953126024E-07	-4.37881593881081E-06	-7.80049477383621E-06	-6.33741319654054E-06	0.99454186688874	-0.088976534557153
3.7	0.0475196770901802	-0.989218882619883	-6.70010664694328E-06	-6.77511708022938E-06	5.34842622801256E-07	-4.75959726145977E-06	0.994372898246602	-0.0917701032186921
3.8	-0.0778055898417161	-0.987459588752768	-3.64297380344425E-06	1.07668759371939E-06	-3.29070977294616E-06	-2.46903159233283E-06	0.993851290442786	-0.0938650046848648
3.9	-0.201321388673292	-0.970094279319415	-4.84509278404039E-07	3.5049204688291E-06	2.05401367156581E-06	-1.215483473921E-06	0.993615205766075	-0.0970253762981033
4	-0.32233048209121	-0.937505940504206	1.16577849344187E-05	8.13010473810468E-06	7.26643287303103E-06	-4.02649123464782E-06	0.992829996778617	-0.0979307369628807
4.1	-0.437797921626301	-0.889619244574185	5.21250662543781E-06	1.33208600328033E-06	-3.4679898091891E-06	6.64219196255863E-06	0.993237536841911	-0.0992201158508594
4.2	-0.546067042190409	-0.828096238460636	-7.0939661369006E-06	-1.21428937023122E-06	-8.26380280407664E-06	-5.67164140912574E-08	0.993117192054447	-0.102006384951704
4.3	-0.645959264731015	-0.753056832196756	7.06852582788177E-07	-2.3666612490994E-06	5.21127061121738E-06	8.90373792665622E-07	0.993145678680754	-0.1040967247622
4.4	-0.73567253777591	-0.665794777902928	4.47785770594776E-06	-1.76562791893269E-06	-8.71308855095223E-07	1.34532875253798E-06	0.992802355667955	-0.106400665423543
4.5	-0.814167180908938	-0.567932024454774	6.7861090732924E-06	1.88381432157306E-06	-7.98027546100228E-07	-3.26157794798227E-06	0.993129082822025	-0.108194362913485
4.6	-0.880059779269257	-0.460294881475766	2.45369387001661E-06	2.96011021869888E-06	-6.61541429250193E-06	9.74805101839794E-06	0.993483497290046	-0.111234256256397
4.7	-0.93129404906376	-0.344392459051812	-1.40830435152984E-05	5.90452924226902E-06	-3.46771201435909E-06	-3.99536988072796E-08	0.993601599542858	-0.113681833720621
4.8	-0.967279590397201	-0.22363678263335	-3.15984813732211E-06	-5.15627448647095E-06	-5.53687774385503E-06	2.36173735039596E-06	0.993262939139771	-0.116434412089294
4.9	-0.987355934158202	-0.0999466323355018	-1.01219301841016E-06	-8.56952466294564E-06	-4.23010800769646E-06	7.35984739634781E-07	0.992861737503251	-0.118371922637948
5	-0.992437156512013	0.0249995437025956	7.56804588012688E-06	-1.5663123715951E-06	-1.75331297875194E-06	-2.72921243643025E-06	0.992741464869121	-0.119879499227894
5.1	-0.980757367630219	0.151142999713243	-2.60124906130508E-06	-6.40744034186207E-06	-1.00915863662957E-06	-1.95735829698484E-06	0.993009955294865	-0.121321731650415
5.2	-0.953795408863821	0.273222438074567	4.00412545096532E-06	-4.3410420297815E-07	-5.45239518786779E-06	6.31361377662507E-06	0.992864910369478	-0.123693896575396
5.3	-0.912155338901968	0.390917241606185	5.14201473165197E-06	6.02039826255216E-06	-9.58920795080635E-07	-3.59228818733611E-06	0.992654434686212	-0.12596909894471
5.4	-0.856217028549174	0.502395162148639	3.06916218404404E-06	-2.01645251860343E-06	-1.13340077287359E-05	2.19197172838436E-06	0.992825021114685	-0.128656895071568
5.5	-0.78661900410499	0.606023791562194	-4.30673319209313E-07	-2.19898857341402E-06	-5.80498545996359E-06	6.1307444539617E-06	0.992933003026029	-0.131597877724176
5.6	-0.703815028217634	0.700283857422558	2.37879132701673E-06	7.32095653930764E-06	-5.41468175690338E-07	2.93480263602795E-06	0.992986728187921	-0.134410480293467
5.7	-0.609888413647502	0.78332480095061	-2.57841832744101E-06	2.36424536792577E-06	7.92603182979917E-06	2.78971435759738E-06	0.992843799704064	-0.13730489753076
5.8	-0.506146907283472	0.853123935602682	-4.65976240086352E-06	5.11239140870769E-06	-3.68491725215767E-07	3.42904176071507E-06	0.992527253759838	-0.140013826418453
5.9	-0.394921012737679	0.909363696359677	6.36778420850678E-06	1.50212989871183E-06	-2.71611823775278E-06	2.55077009662844E-06	0.991636545325572	-0.14278191454052
6	-0.278511093047212	0.9506707585098	3.52445303745446E-06	3.30338586930759E-06	-3.2781944246157E-07	-1.43517533439971E-06	0.990185987380538	-0.143903367684058
6.1	-0.158184861569003	0.978107938097114	9.18193324523044E-06	1.53498151823992E-06	-1.25790620296151E-07	-1.81015229369179E-06	0.990525781134113	-0.144522462321777
6.2	-0.0344014465127261	0.990414620910958	2.44403307792554E-06	-1.728635726991E-06	1.48768963359971E-06	-4.84805527541361E-06	0.990410233921721	-0.145888048677368
6.3	0.0901791698595822	0.987207241078266	-4.37088443058895E-06	4.24380149765759E-06	-6.13508677530215E-07	-1.72796677264242E-06	0.990186093502223	-0.147788160578239
6.4	0.21328596446948	0.968301236092934	-4.2725100408055E-06	1.06502014172394E-06	-1.77730847389843E-06	8.85334693871928E-06	0.98993200549426	-0.149889409822197
6.5	0.333051709523079	0.935052738964025	2.4598781763211E-06	-1.32951972774901E-06	1.49602413888247E-06	-2.933585507314E-06	0.990326468156506	-0.152333752934234
6.6	0.448969253368292	0.88626445277103	-4.74612063703634E-06	-2.26670859312489E-06	-1.86309433471484E-06	-6.66094144595255E-06	0.990851682619304	-0.155914370660359
6.7	0.556929243555981	0.822394771635954	4.17473671862794E-06	-6.61257829884106E-07	-4.68952367254348E-06	1.01224619130661E-06	0.990444635280936	-0.159142302917679
6.8	0.655580632597267	0.745679870947384	3.76626056353588E-06	-2.08622354639345E-06	6.23007406561717E-06	-9.27280501173998E-07	0.989714261223398	-0.161991248422811
6.9	0.743503537478748	0.657352413472661	2.05411231303954E-06	1.64297473834434E-06	8.80052393299476E-06	-2.77014170937677E-06	0.988920078850077	-0.164498722208192
7	0.819306886833305	0.558949922892394	2.18109515236836E-06	4.10153108368361E-06	-8.76976005105174E-08	5.3925629427444E-06	0.987873051144837	-0.166098971304312
7.1	0.882492831819544	0.452499682068322	-1.32206822145281E-07	1.72008489361383E-06	8.26958763898074E-06	-4.65685625341367E-06	0.987726594486074	-0.16770249876033
7.2	0.931883549312009	0.338477641257451	4.85531625801886E-06	-1.39808658334799E-06	7.27091155906249E-06	3.78472851436537E-06	0.987304702933202	-0.169821395821279
7.3	0.966283031810257	0.219182422371971	4.86985062028929E-06	-1.11193130377316E-06	-7.35685284754696E-06	-7.39246987671634E-06	0.986420209199819	-0.171986685154028
7.4	0.985920359741964	0.0960372126159736	-1.84244707281146E-06	9.91903940632562E-06	1.43590836080526E-06	-4.07879461670353E-06	0.985635732018674	-0.174936251218796
7.5	0.989548349608318	-0.0291329810535808	8.43208707184094E-07	8.076388691029E-07	1.67846545250948E-06	9.94086234576783E-07	0.984027376855596	-0.178228823468125
7.6	0.97738525293281	-0.153403396872363	1.45353431649714E-06	-2.62301439933213E-06	-5.4379855019695E-06	-3.62511580914384E-06	0.982764777857088	-0.181087145804184
7.7	0.949900649255942	-0.275618798961043	5.58950116873569E-06	2.40085560294068E-06	-6.81258291858063E-06	1.20887604623217E-05	0.981867965918774	-0.184457681088921
7.8	0.907372011083605	-0.393149141871086	-6.29057307969564E-07	-5.24970813716252E-06	3.727180555466E-06	-4.75545061650704E-06	0.981126001988515	-0.187579508879782
7.9	0.85020851589438	-0.504325252692958	8.86678552679409E-06	1.50152087013793E-06	-9.57461272742745E-06	-8.61593778609861E-06	0.980336648655007	-0.190692045050845
8	0.77968524693427	-0.606813941086639	-6.6634858455812E-06	-1.60876762515432E-06	-1.20028078707112E-05	2.53570151643961E-06	0.979347841758159	-0.192939435474288
8.1	0.697525945615269	-0.700072292091391	5.07955971616969E-06	7.16289889508421E-07	2.89942361708231E-06	2.25410887411337E-06	0.979470281327481	-0.195237710216167
8.2	0.603814611749904	-0.782233199049298	3.55740647447394E-06	-2.5873397279751E-06	-3.71907778797047E-06	-1.16074457970203E-05	0.979310989276057	-0.198019914488248
8.3	0.500313140752607	-0.851648540092794	2.72181748391397E-06	-1.86710733405707E-06	1.65614423360139E-06	5.28729046164402E-06	0.97855959190735	-0.200980760417757
8.4	0.389064688554559	-0.907285510621574	-5.55554571873984E-06	-1.0006980363717E-06	1.06525179940129E-06	2.94736806269932E-06	0.977531462540268	-0.203759908301518
8.5	0.271265721273413	-0.948716941825748	-3.28303566639115E-06	1.6355231810255E-06	-4.80846541504047E-06	-4.98676032933595E-06	0.976711866697431	-0.206409540045453
8.6	0.148707290333856	-0.974689523684947	-8.1331215512908E-06	1.416093643596E-06	-4.36599273113671E-06	-6.84420018888008E-06	0.976175846751208	-0.20928043891096
8.7	0.0239776416615921	-0.984803284995816	2.23631299721418E-07	-2.1547707553482E-07	6.11753332582174E-06	4.8411615581561E-07	0.97542709847844	-0.212023924699041
8.8	-0.100674293955627	-0.978893527224435	1.01588559519272E-06	-1.82114211233033E-06	-2.3941795472235E-06	-1.26907476412224E-06	0.974718135981139	-0.214436276426869
8.9	-0.222630541858979	-0.958237681772264	-2.88151083088422E-07	3.03238115452891E-06	-1.23925484931122E-06	-1.63432611812208E-06	0.974343307040249	-0.216720939467335
9	-0.341068609185752	-0.922689121228135	2.97923496154236E-06	1.57308405974295E-06	-1.56420537530891E-06	2.11782567801221E-06	0.973721538497124	-0.219333233278854
9.1	-0.453788391890998	-0.872330357438814	-9.28229299177622E-06	2.29646989527541E-06	-1.55121306911041E-06	2.4102581675663E-06	0.972790633899061	-0.221567726995139
9.2	-0.559496353868469	-0.808756105249302	7.48507450035249E-06	-2.5746303110305E-07	-9.07723078869644E-06	1.99316568561488E-06	0.971791916338708	-0.223910476006715
9.3	-0.656464254065445	-0.732848669889561	5.71310803980048E-08	-7.14551280088796E-06	1.57907093257306E-06	-1.30127559074384E-06	0.971102583984884	-0.22609254614355
9.4	-0.743588144919079	-0.645689839980077	6.04030107907765E-07	2.47616273630187E-06	1.60452642534608E-06	-3.5931483813877E-06	0.970315096945005	-0.228843525591931
9.5	-0.819609376914334	-0.547350357214128	-2.84825617123913E-06	6.63837767865053E-06	4.71060788761292E-06	-1.37796507287923E-06	0.969136026001235	-0.231542087322261
9.6	-0.882250991855554	-0.43926539393017	-5.0270465962636E-06	-5.1813648433117E-06	4.7584398623391E-06	2.86412776423672E-06	0.968197916509501	-0.234107875167258
9.7	-0.930558610995692	-0.323690147390862	-2.01074222341347E-06	-5.05942741377111E-06	2.09308498526716E-06	5.11387535504786E-09	0.967415654733112	-0.236430709269832
9.8	-0.963744790869099	-0.20259194369969	5.80368613891861E-07	-4.278878062895E-06	-2.94244081477496E-06	-2.50510984190722E-06	0.966890724611352	-0.238327879321201
9.9	-0.980653939011031	-0.0785933994952177	-6.08720449709185E-06	4.21786054923024E-06	-3.07209114457229E-06	1.67047539088936E-06	0.966162511963573	-0.240138736040497
10	-0.982621950914399	0.0451058054302658	3.56100186752627E-06	-5.11270087835527E-08	8.23363438223125E-06	1.10472356515887E-05	0.965346994423227	-0.241201255442688
10.1	-0.969415865860427	0.168781438498061	-2.85487820918281E-06	-2.50953590603079E-06	-2.00863827660819E-06	-2.48647427395875E-06	0.96509891198189	-0.242588170667159
10.2	-0.940347293055902	0.290302166405038	2.34825356158475E-06	-1.02284442750937E-06	-2.76269549315459E-06	-1.05841903456739E-06	0.964600167225524	-0.243969007240598
10.3	-0.895768306732779	0.406948562753268	7.72766879368525E-06	-5.94828398458379E-06	3.86472952630634E-06	8.20139907270071E-06	0.963858445819287	-0.24547364212171
10.4	-0.83741537230369	0.516094221353127	1.7011762474142E-06	2.4722643922601E-07	6.25612441017831E-06	-1.19372448860896E-06	0.963055993747111	-0.247006686502761
10.5	-0.767447059536171	0.617360625190125	8.32395493306125E-06	-4.13986968025066E-06	-4.90931324498931E-07	1.96796821456125E-06	0.962953616421624	-0.249003962420443
10.6	-0.684517112340249	0.709601289157261	8.91347349907824E-06	-1.27904143347076E-06	-1.45414493133789E-06	1.36117500861074E-05	0.962617299943206	-0.251943472973244
10.7	-0.590292553446591	0.789822965943586	7.99291960427874E-06	-1.90931997041597E-06	-3.05309023148241E-06	-5.26314143420775E-06	0.961735839782141	-0.25484585930704
10.8	-0.48619906868156	0.857920539179599	2.45075422013412E-06	5.22991152076374E-06	-3.61797012868314E-06	-1.99922540670043E-07	0.960853544034573	-0.25699589629527
10.9	-0.373957718262616	0.912190993494118	-5.54150076103443E-06	4.90600930622648E-07	1.59719736501726E-06	4.01448683225996E-06	0.960184408929632	-0.258958121495173
11	-0.256934122198425	0.95191854029403	-1.43772157421834E-09	-5.20487419646389E-06	-8.35089063206422E-06	2.23179641885702E-06	0.95938782608513	-0.260868541603672
11.1	-0.135298619838572	0.977899479759618	6.2908161603851E-06	4.07334090207208E-06	-1.89330637397321E-06	1.07251479275458E-05	0.958188460941182	-0.26249871719541
11.2	-0.0109864113459931	0.987892922783367	1.57355973471664E-06	1.35094328439681E-06	5.12042909709346E-06	8.87510129186599E-06	0.956831018096704	-0.263859078187016
11.3	0.113835715248481	0.981218299038772	-4.59898861642211E-07	-1.73254095631E-06	-6.94025295738843E-07	-4.38299296193886E-06	0.956113320043822	-0.264977760665253
11.4	0.23657994665555	0.959034778633665	2.12162487449538E-07	1.18302909550104E-05	2.41192178650683E-06	4.91895984674373E-06	0.955352926623595	-0.266893618505413
11.5	0.355347412112543	0.921716593307429	6.18086326451421E-06	-3.20426727439607E-07	3.17060809169355E-07	-1.87756953795282E-06	0.954382608410778	-0.269264302717165
11.6	0.467478331062567	0.870188728530863	-5.98933909566718E-06	3.06095133652082E-06	-4.85698880378629E-06	1.90777404390386E-06	0.95330426914406	-0.272256109088619
11.7	0.572348739505979	0.805311461902872	3.31865529687463E-06	-1.78773979349524E-06	-1.70361807367565E-06	2.22900469855778E-06	0.952223414379488	-0.275396664075424
11.8	0.668165312348593	0.726992985775388	-8.27737004192105E-07	9.76466019534561E-06	-2.71840586906239E-06	1.0505132182984E-05	0.951341208515583	-0.278508328818979
11.9	0.752146085868825	0.63640919391862	-7.27305859445536E-06	-1.03799462935683E-06	-3.90510169765361E-06	1.12124952877516E-05	0.951352856172133	-0.281030915388445
12	0.822399268181362	0.537840561650141	-6.43379650993173E-07	1.37609614790011E-06	-3.12284440407567E-06	-1.92064983585665E-06	0.950784212924325	-0.283359839771596
12.1	0.882851267402449	0.432313429537439	-3.86914589620004E-06	4.96547159386214E-06	-1.34217337341561E-06	8.38278556517585E-06	0.950367217398611	-0.286375114284223
12.2	0.929376499022036	0.318906464827673	-5.70194125724656E-07	-3.78379866979893E-06	-3.10085805740436E-06	-7.31604226066743E-07	0.949183886461563	-0.289497839267178
12.3	0.961299079399198	0.201318621774048	3.57605592417918E-06	3.42345005027041E-06	-3.43069249457426E-06	6.23448497039757E-06	0.947705049386592	-0.292194119063741
