# GHZ S RI R 50
0.2	-0.967296044339122	0.250703162085872	8.82711416142761E-06	5.3329790584419E-06	1.14010714470116E-06	-2.89151006281193E-06	1.00048902065322	-0.00645983722332535
0.3	-0.92849197259245	0.370555110370264	-7.67156246110765E-06	-8.28039503082579E-07	-1.83180577652215E-08	3.66431711028043E-06	1.00064279351194	-0.00931836086768329
0.4	-0.874557979701536	0.484720004234791	-2.21016465947322E-06	6.34909754256426E-06	2.91846068876408E-06	5.75098176414894E-06	1.00115739690797	-0.0118753715478834
0.5	-0.806373545599993	0.59200204770109	-2.65612425831665E-06	5.49420515153306E-07	1.0546072297912E-05	4.90144776544307E-06	1.00158075434319	-0.0159965885995397
0.6	-0.724656306675805	0.688470019826929	-1.72870512903254E-06	-1.85627928900586E-08	4.17304390160743E-06	-1.03560600760747E-05	1.00078951496261	-0.0190908603436823
0.7	-0.632401352192929	0.774232132822822	-2.05171652013216E-06	9.89596178610015E-07	3.78697497420085E-06	1.11852622181031E-05	1.00050696876616	-0.0217319162494672
0.8	-0.529837566816017	0.848038501234196	-5.61988227443177E-06	3.78858658939982E-06	-3.17440833770738E-06	-2.1452170779303E-06	1.00041358782406	-0.0238347690753487
0.9	-0.418891182162131	0.908131990235205	-6.725227975427E-07	5.26216006001978E-06	3.27410377883731E-06	-2.94005351936354E-07	1.00036574044992	-0.0259447744465803
1	-0.300775546869836	0.953837960530619	1.57320050565309E-05	-3.68389391471439E-06	-9.62545308562673E-06	5.20418396706212E-07	1.00102920141446	-0.027198760426155
1.1	-0.178660051055992	0.984054441775637	1.34759064446097E-06	-2.99178761437377E-06	9.42416322868304E-06	1.26424970542342E-05	1.00098291683297	-0.0301888871721627
1.2	-0.0527030710232167	0.998580232160513	-7.93497643461509E-06	-3.26817309306431E-06	-3.10870938447745E-06	-4.49265972664024E-06	0.999976308825592	-0.0314565073293317
1.3	0.0742735753866937	0.996769972281878	1.81909360557823E-07	3.34393080423927E-06	1.93514567448045E-06	3.40466631553718E-07	0.999699937998722	-0.0327297408645088
1.4	0.199379205015399	0.978698277529028	2.77587687733116E-08	3.77635783623268E-06	-2.54139358470506E-06	-5.6247122333364E-06	0.998913726573454	-0.0348220723290453
1.5	0.32132602928172	0.945752665510118	3.19432461587128E-06	-2.7186685796265E-07	2.7118209938442E-06	2.0957874889695E-06	1.00014517855361	-0.0381910190347391
1.6	0.437647823432056	0.897529873551908	1.78839879632363E-06	-1.94717003534537E-06	-9.0134570195466E-07	-3.06914070146981E-06	0.999743782388012	-0.0421223323847353
1.7	0.546683888768199	0.835206087473647	-9.16634158147113E-08	-3.53310565004579E-06	2.01833334902129E-06	4.93485070190072E-06	1.00037690928772	-0.0445946681085812
1.8	0.646811361225921	0.760089440572422	-2.06494909751123E-06	-1.81529381331907E-06	-4.62376525148085E-06	1.83679124268742E-05	1.00044529728945	-0.0472256994567467
1.9	0.736322501917588	0.673703801182869	-4.4007184832895E-06	-1.46823804377023E-06	-4.93991559254173E-06	-6.01460025853566E-06	1.00071215252622	-0.048639153828724
2	0.816510332680854	0.577332592305517	-9.49041470552217E-08	-6.77308828718991E-07	-1.67534779990632E-06	-1.42517897993751E-06	1.00319769278738	-0.0516203153667809
2.1	0.883285558784966	0.467238513183074	-1.12598682806708E-06	9.49871447122025E-06	2.00378570317689E-06	-3.86606331365269E-07	1.00251917242051	-0.0569040844214047
2.2	0.933733793026255	0.352089131007959	-3.98015233570643E-08	-5.9540151609282E-06	-7.32052626674386E-07	2.7507865633328E-06	1.00135904761216	-0.0597206758962579
2.3	0.969768005222974	0.231992482831237	-1.31180733123874E-06	2.78027565317553E-06	-2.34786538556488E-07	1.20189863055452E-05	1.00053612197267	-0.0616598215124633
2.4	0.990770905758887	0.107580047218284	-5.90643677586522E-06	-3.70021958099134E-06	-1.7603850847608E-05	1.46385791218906E-05	1.00014547487266	-0.0646636209310903
2.5	0.996610967398176	-0.0179123346556262	1.81319283027312E-06	-2.97707507875964E-06	-1.76884280790937E-06	7.57399559185269E-06	1.00013801988449	-0.0668792702237017
2.6	0.986118240054782	-0.142179906507098	2.87324492513409E-06	9.14367968009265E-07	-1.74474818667609E-06	4.52078857547307E-06	1.00012712849395	-0.0703107096475056
2.7	0.960338298754327	-0.264775434364025	3.86899712359964E-06	1.04743684749977E-05	2.34331273825105E-06	3.87636731157973E-06	0.999785256380471	-0.0737707309295254
2.8	0.919138938831899	-0.38361155436369	-8.25501259337469E-07	-2.29955317817799E-06	2.13322881986527E-07	-1.89678895633314E-06	0.999694314662259	-0.0764077913759721
2.9	0.863421459224322	-0.495732397173523	3.74539646975591E-06	-8.36864055068123E-06	-1.34297703388607E-06	-1.42786948131255E-05	0.99886985685127	-0.0787947358634748
3	0.794088866231378	-0.600422753606715	2.08770842692726E-08	6.67456425104788E-06	-1.47996504641242E-05	5.39742025817398E-06	0.998418393517446	-0.0814063466458834
3.1	0.71272338459358	-0.694470316939151	-4.95783715909989E-06	7.87875397283393E-06	5.82846935360574E-06	-1.18090579987718E-07	0.997695373802761	-0.083877841464932
3.2	0.618504128905065	-0.778239137388961	9.75976131927164E-07	2.12593077696355E-06	-4.57107198171041E-06	5.0741682587834E-07	0.996776670523164	-0.0858708347729967
3.3	0.514874050168724	-0.849181933219817	7.11293267469903E-07	-1.46737618706251E-06	-4.58608145461884E-06	7.63164813242025E-07	0.995744396218381	-0.0893162533372556
3.4	0.402857830701191	-0.905384087473488	6.47550225326887E-06	1.90509673486644E-07	-8.19049784667208E-06	-7.12912060713421E-06	0.994601029825188	-0.0910879883918754
3.5	0.287730065687554	-0.947395266347299	-7.6821164122683E-06	1.99979008146808E-06	-5.93870492535976E-06	-7.9450974240474E-06	0.994506679167917	-0.0925615847063259
3.6	0.165033270205703	-0.977810246332337	-8.7886990570675E-07	-4.37987240657404E-06	-7.85204851842099E-06	-6.29737498089342E-06	0.994835906631416	-0.0959369171885417
3.7	0.0392712173754779	-0.990496379289666	-6.75736146226177E-06	-6.73362581454891E-06	5.00538341037188E-07	-4.76889347680734E-06	0.99380056592645	-0.0991807586945181
3.8	-0.0863733389366607	-0.986586736874521	-3.63606647068302E-06	1.10469714397182E-06	-3.31057963130884E-06	-2.44492159366024E-06	0.992410629093089	-0.10099605467708
3.9	-0.209163869315082	-0.967370706058824	-4.59656494691554E-07	3.50845583067889E-06	2.04544757901955E-06	-1.2300900193649E-06	0.991943260339674	-0.102882411102576
4	-0.329514795790006	-0.9342999133448	1.1735852542202E-05	8.04742666579328E-06	7.24312759668971E-06	-4.08873623809439E-06	0.993816082342912	-0.104188478181412
4.1	-0.445145706476839	-0.884792760820281	5.22219021583468E-06	1.28219383162052E-06	-3.40343543025815E-06	6.6712286305912E-06	0.992602510403817	-0.108376057102476
4.2	-0.552328584733216	-0.821651060170394	-7.09141613062374E-06	-1.1476983832719E-06	-8.24853046648681E-06	1.82620062091025E-08	0.990564133111031	-0.110977347105166
4.3	-0.650827904102944	-0.745550433648518	6.8451269169113E-07	-2.36647810856498E-06	5.20510899974108E-06	8.42953854367587E-07	0.989588251850168	-0.112580118262744
4.4	-0.739230892425611	-0.657628643957461	4.44957796969046E-06	-1.79777704702772E-06	-8.57422659166267E-07	1.34856336469794E-06	0.988766832085495	-0.114486598853228
4.5	-0.816342307446352	-0.558719942976648	6.77826590578931E-06	1.81624788955753E-06	-8.24302462237737E-07	-3.2425688165633E-06	0.988548200042906	-0.116921811136673
4.6	-0.880066802752757	-0.45093608778658	2.46649784089024E-06	2.92474624642024E-06	-6.50041648854076E-06	9.75553154167561E-06	0.987182545449319	-0.119531014771549
4.7	-0.929713654206423	-0.335277501656431	-1.39606013032188E-05	5.98452936171597E-06	-3.44941122713744E-06	-1.22347666180182E-08	0.986703014925054	-0.121214465053348
4.8	-0.964309373290623	-0.214616032447982	-3.18227111322993E-06	-5.10213307385142E-06	-5.48682503298331E-06	2.39169007030501E-06	0.985923848781862	-0.123526367983104
4.9	-0.982639385112212	-0.0902993533275858	-1.07653193647817E-06	-8.50713467139108E-06	-4.1973604522792E-06	7.66253552467259E-07	0.984930021939347	-0.125066182112063
5	-0.982917913240483	0.0333563167014991	7.49146461098588E-06	-1.61271510154651E-06	-1.75996092947231E-06	-2.69222107856307E-06	0.984280468500766	-0.126030830396035
5.1	-0.971082144070927	0.155197792159461	-2.61758636830617E-06	-6.33629003522468E-06	-1.01229494869321E-06	-1.93432331876125E-06	0.984008128985799	-0.126981820377861
5.2	-0.944302040882976	0.275918125377564	3.96719838186253E-06	-4.53121762956875E-07	-5.36959357541076E-06	6.29026099388758E-06	0.983364914273905	-0.128767354209318
5.3	-0.902169408460464	0.392025790374453	5.12791248139914E-06	5.9381812231302E-06	-9.69601247196645E-07	-3.55459876768543E-06	0.982615522476644	-0.130563894799912
5.4	-0.845989743975813	0.501408121182361	3.02917509195347E-06	-2.01141564681748E-06	-1.12117342664061E-05	2.22514694245374E-06	0.981784655872858	-0.132469634128605
5.5	-0.777123770992314	0.602722743333953	-4.3366109190367E-07	-2.17544886946979E-06	-5.7262268246234E-06	6.08842832282653E-06	0.982088461966908	-0.133504479555742
5.6	-0.695369847469133	0.695670829845788	2.3791049661145E-06	7.24339555662961E-06	-5.27034525673849E-07	2.90842333597528E-06	0.982560650439898	-0.136497368613544
5.7	-0.602260952221407	0.777311148300198	-2.54561923983688E-06	2.34798781431359E-06	7.85448627986362E-06	2.73860029487355E-06	0.98165349842282	-0.1388321005534
5.8	-0.49971974839148	0.845445820050444	-4.59942068696995E-06	5.06713146305635E-06	-3.57550945443216E-07	3.39306168060258E-06	0.980838218093843	-0.140196710826246
5.9	-0.390866885553628	0.900282592093103	6.29831048853811E-06	1.48560666485438E-06	-2.6864209192318E-06	2.52298309097303E-06	0.980501271781593	-0.140468634350384
6	-0.276311236821849	0.94298695760506	3.49349115135174E-06	3.28006576568302E-06	-3.23968560155847E-07	-1.42400776710559E-06	0.983199757636336	-0.141813514209485
6.1	-0.155671911425023	0.969175953054107	9.10521317855029E-06	1.51134289932893E-06	-1.26789232170601E-07	-1.79453669663642E-06	0.981940496995957	-0.145240950992446
6.2	-0.034063908621515	0.980266508176738	2.41965411139805E-06	-1.71329300044949E-06	1.47088292730742E-06	-4.80224447128437E-06	0.980314603741369	-0.145720885767494
6.3	0.0879454467824005	0.977264362906431	-4.33037782989922E-06	4.20081708039128E-06	-6.06822729990393E-07	-1.71149491563287E-06	0.97972236718987	-0.146417805402253
6.4	0.209482772044264	0.960420543293837	-4.23622673212167E-06	1.05253023840173E-06	-1.76860061121662E-06	8.77513692142013E-06	0.980228256453572	-0.147527377656587
6.5	0.331379310351112	0.926528785959377	2.43457793079749E-06	-1.3214145220962E-06	1.47691396115092E-06	-2.90881246811262E-06	0.980607238353231	-0.151894751343606
6.6	0.443090775127265	0.875614894044885	-4.68734449696602E-06	-2.2393566496007E-06	-1.83930973935936E-06	-6.57907438837846E-06	0.978426809407428	-0.153682667902659
6.7	0.547980768986709	0.813841609604698	4.12494524282643E-06	-6.43703834990268E-07	-4.63420108784946E-06	9.89217526475391E-07	0.978398881398515	-0.154681528587357
6.8	0.644848106489835	0.739376140452663	3.72858907026733E-06	-2.04740493793453E-06	6.15855394337649E-06	-8.93409269898892E-07	0.978294922791263	-0.15618343878911
6.9	0.731475463252803	0.653725203989355	2.02117727838405E-06	1.63424954347955E-06	8.71072657405817E-06	-2.6912836949689E-06	0.978305546874971	-0.157120854672029
7	0.807634024989417	0.558107821033601	2.13100219900581E-06	4.07531371632603E-06	-1.23869115916977E-07	5.33778697061517E-06	0.979511097488102	-0.158512423029163
7.1	0.870749058559939	0.452914163246511	-1.41466153856554E-07	1.70346640257857E-06	8.22192092016424E-06	-4.56368489648877E-06	0.978828545574819	-0.160949072662374
7.2	0.919813495413462	0.340869130475215	4.81792163412744E-06	-1.35491598687159E-06	7.1786858061786E-06	3.79367159829981E-06	0.977896825336382	-0.162279763799029
7.3	0.954034292947481	0.223573746530751	4.82822020561783E-06	-1.0702495561675E-06	-7.2369896479725E-06	-7.3648746263754E-06	0.976497198211089	-0.163587409014969
7.4	0.972560233448901	0.103465856101169	-1.88775636424095E-06	9.78487943956229E-06	1.44622816487295E-06	-4.01898466699377E-06	0.974203399111251	-0.164262534839207
7.5	0.979046054455726	-0.0152002501177535	8.22034933138357E-07	8.07447732024363E-07	1.64394162502909E-06	1.00181078797255E-06	0.975496066545777	-0.162492112154021
7.6	0.972159274469067	-0.139493803917867	1.47703673665463E-06	-2.57956755364418E-06	-5.33942385877044E-06	-3.66841282788529E-06	0.977903172331878	-0.166931922183869
7.7	0.947043070879311	-0.261372140031456	5.51266373370016E-06	2.46054367693175E-06	-6.92914539230214E-06	1.18998975208379E-05	0.977506986222604	-0.170568743948651
7.8	0.90724446277466	-0.378287303948209	-5.4652747558796E-07	-5.22388753908166E-06	3.77312457483465E-06	-4.66796126001744E-06	0.977434594405196	-0.173085903329182
7.9	0.854210583300406	-0.488655901736804	8.79750439114976E-06	1.64359689910468E-06	-9.38185191068178E-06	-8.73467702791421E-06	0.978426753825645	-0.174440255984079
8	0.789884804293573	-0.596263222985275	-6.64396715660879E-06	-1.71936010073748E-06	-1.2056492646755E-05	2.34202698837349E-06	0.982924600919321	-0.178699196629333
8.1	0.704780197825734	-0.693389991086983	5.07467995651968E-06	7.7656743869549E-07	2.87492307984865E-06	2.28980490634134E-06	0.981029241813095	-0.184864035735595
8.2	0.610837770705391	-0.775254743231651	3.58455520817581E-06	-2.54535850746952E-06	-3.58503652045326E-06	-1.16424287498964E-05	0.979552064763865	-0.187133234484603
8.3	0.508328975958177	-0.845041286884379	2.74106526931926E-06	-1.8344164636538E-06	1.59420481494402E-06	5.30208274147406E-06	0.978834433692287	-0.189415039226551
8.4	0.39830143604695	-0.901168236456509	-5.53953551208222E-06	-1.06159095032674E-06	1.03154342482978E-06	2.95662191843433E-06	0.978533492794696	-0.191752434619495
8.5	0.28311587659234	-0.944261536299167	-3.29572120119648E-06	1.59268932533316E-06	-4.73849511792567E-06	-5.03390778921439E-06	0.978260373305288	-0.195101591570485
8.6	0.160734285782433	-0.973702676146227	-8.14819239290464E-06	1.30412679386026E-06	-4.27009423402164E-06	-6.90029095981471E-06	0.977402986585389	-0.197418575346391
8.7	0.0353359657813798	-0.986064822167922	2.2682108751697E-07	-2.12691642932936E-07	6.11813294777758E-06	5.67795897355405E-07	0.977528033738492	-0.199518132706877
8.8	-0.0905091266611145	-0.982187670513156	1.04243113534797E-06	-1.81273944458755E-06	-2.38400230568455E-06	-1.30379478316284E-06	0.9778734006498	-0.201710486143374
8.9	-0.214689777988713	-0.962042347169738	-3.24204830098199E-07	3.0410457271867E-06	-1.22533394436411E-06	-1.65505301188842E-06	0.978528530449068	-0.203911257259721
9	-0.331357221069198	-0.925034620225307	2.96970996030025E-06	1.60776931384759E-06	-1.5898906472267E-06	2.10640594719732E-06	0.979174519622378	-0.206369112954714
9.1	-0.443303696367624	-0.878820517380019	-9.33628439635612E-06	2.19162603431866E-06	-1.58455286061624E-06	2.39850829381545E-06	0.979640444081419	-0.209092968495584
9.2	-0.550662970941288	-0.817695073559636	7.51673063962428E-06	-1.6866820044366E-07	-9.13578203179484E-06	1.89189882189029E-06	0.979589427923021	-0.212269588618075
9.3	-0.649356400694295	-0.743480826901718	1.42120387830148E-07	-7.17471729201114E-06	1.60110847911522E-06	-1.2879886472551E-06	0.979164319208109	-0.215344829769465
9.4	-0.737246802897385	-0.657116745072415	5.76136976528504E-07	2.49250697221007E-06	1.65402396379834E-06	-3.58671665314215E-06	0.977960970219912	-0.218001098555985
9.5	-0.814439423245996	-0.56437230492552	-2.96469050924398E-06	6.62750117009458E-06	4.75525760827402E-06	-1.3122426721665E-06	0.978495973378968	-0.219568439601488
9.6	-0.884658715144583	-0.456860206300985	-4.99694453566603E-06	-5.29695297219402E-06	4.75880085959259E-06	2.95601721574054E-06	0.978914872542879	-0.223987607064683
9.7	-0.936556453993609	-0.338984317908399	-1.965278863336E-06	-5.13233248940866E-06	2.1126115750991E-06	3.17561082634185E-08	0.978155449858298	-0.227053843509098
9.8	-0.972318129053981	-0.21600165094052	6.38255460686019E-07	-4.31413938584613E-06	-2.94102380964559E-06	-2.56575295707132E-06	0.977872300724962	-0.228834234998911
9.9	-0.991465638540593	-0.0898172064450526	-6.20685476001129E-06	4.1892383570725E-06	-3.1268044396447E-06	1.65095408049742E-06	0.978876514060053	-0.229306041766737
10	-0.994723492212533	0.0355995607389974	3.61062436264493E-06	-1.31975351933082E-08	8.22723390923879E-06	1.12887860941195E-05	0.983198470323921	-0.233716414683545
10.1	-0.983893204984535	0.161133604496935	-2.87165420405653E-06	-2.56805910600069E-06	-2.01420649371873E-06	-2.53736659478847E-06	0.980295357560765	-0.239321135672972
10.2	-0.956715041171205	0.285644068307207	2.3885280188908E-06	-1.0177504640049E-06	-2.79175188134781E-06	-1.09522105988146E-06	0.97848656376566	-0.240795450437328
10.3	-0.913577737641006	0.405809034710013	7.88409994797183E-06	-5.97641342742693E-06	3.85915562327166E-06	8.34906151899805E-06	0.977744538072069	-0.242431436910201
10.4	-0.856152513508632	0.52013013487543	1.72714292607574E-06	2.61604749880018E-07	6.36445541603668E-06	-1.17481219129815E-06	0.977876280599406	-0.244565057491279
10.5	-0.781645454030115	0.626798524305183	8.46485520487493E-06	-4.18521575353733E-06	-5.03347099017771E-07	1.9977796897379E-06	0.977890437222933	-0.249248901609884
10.6	-0.696040089141577	0.718520749755422	9.04112873651929E-06	-1.27451192438821E-06	-1.5086329043524E-06	1.37981344687098E-05	0.976414014995333	-0.252475044151285
10.7	-0.600928785175399	0.800151265847832	8.11284436777374E-06	-1.91780126877132E-06	-3.08459577135449E-06	-5.34639524018778E-06	0.975929185125092	-0.256113948966129
10.8	-0.495163425240724	0.870361059730703	2.48000337915148E-06	5.31140788274096E-06	-3.67169142315764E-06	-2.07977755845368E-07	0.974953349294507	-0.259443431521779
10.9	-0.379231225694078	0.926216987208999	-5.62247327331697E-06	4.98045482765649E-07	1.62074093414094E-06	4.07308524746953E-06	0.974329303124577	-0.262151330275963
11	-0.259610181157569	0.963486751712704	1.01782019487767E-09	-5.27530792979182E-06	-8.46495724846825E-06	2.25802641025905E-06	0.973891557465387	-0.265205853262088
11.1	-0.138501841957962	0.990993558287473	6.3850326287097E-06	4.13585624132359E-06	-1.92368280032987E-06	1.08866306976284E-05	0.971842195828204	-0.268255475593328
11.2	-0.011387826966614	1.00251283163853	1.59979157404154E-06	1.36955364925249E-06	5.21219636161991E-06	9.00482684911793E-06	0.969612070044491	-0.270385530159394
11.3	0.116805987449279	0.996332881968384	-4.72187516814132E-07	-1.75729093559484E-06	-7.18022998312435E-07	-4.44705312916505E-06	0.967245399163276	-0.271849933181778
11.4	0.242558284405608	0.973372901844222	2.68641903003767E-07	1.19913759525834E-05	2.46723460251332E-06	4.97541509466367E-06	0.964701477872525	-0.272939815713712
11.5	0.363945197224838	0.934479573047887	6.25799155150718E-06	-3.44313600392477E-07	3.1504468412461E-07	-1.90232875478349E-06	0.96627767068254	-0.273629898756033
11.6	0.478209773499313	0.880947161004786	-6.0615646375925E-06	3.12806141906514E-06	-4.91785592466703E-06	1.9540949541587E-06	0.965855283033324	-0.27967286890755
11.7	0.584641466425235	0.813979164399189	3.35499667471132E-06	-1.83034214304583E-06	-1.71522219391838E-06	2.26903238300804E-06	0.963472491190619	-0.283801829667924
11.8	0.68125608369706	0.73360590633174	-7.81704963203337E-07	9.89721147530335E-06	-2.69279386604607E-06	1.06583789376441E-05	0.961831672060105	-0.286642625174655
11.9	0.766049078092448	0.642723678647698	-7.37556400253217E-06	-1.01899189045674E-06	-3.9068000413286E-06	1.1380967999889E-05	0.963412895340704	-0.28766198180036
12	0.842149686688474	0.542218190635612	-6.46360986332954E-07	1.40502318771809E-06	-3.19138590557226E-06	-1.93574380543307E-06	0.967695083300724	-0.294607311303925
12.1	0.902528766950549	0.429084762000097	-3.87869945395217E-06	5.08911680856208E-06	-1.27305179095464E-06	8.53508274163427E-06	0.963295636403957	-0.302269758029437
12.2	0.947014509991159	0.311665598258868	-6.25167672398283E-07	-3.8332129505289E-06	-3.156077955923E-06	-7.04428518333265E-07	0.95957771729675	-0.306318796167301
12.3	0.976932574674697	0.190800722959121	3.67356332581635E-06	3.42229686684791E-06	-3.39298495621262E-06	6.36948699039927E-06	0.956226728140788	-0.309823427023718
