# GHZ S RI R 50
0.2	-0.965381115059603	0.251864474719695	8.82075665794074E-06	5.31494158021486E-06	1.13506759151995E-06	-2.88871255066762E-06	0.999179798047576	-0.00717983354815174
0.3	-0.925631746996091	0.371647791454262	-7.65764628009851E-06	-8.14971159459245E-07	-1.28208759700372E-08	3.65710791431367E-06	0.998952056934282	-0.0101868373375012
0.4	-0.870555875125317	0.485161184391017	-2.19267485292595E-06	6.3343653996769E-06	2.91991138525927E-06	5.72909300356985E-06	0.998586782014148	-0.0129567059830684
0.5	-0.802198054986431	0.590560472492295	-2.64520382398957E-06	5.48607563573161E-07	1.05064105927502E-05	4.87631963127676E-06	0.997938750042274	-0.0155805620513751
0.6	-0.721243859760595	0.686880234403969	-1.72338427752743E-06	-1.82696509797545E-08	4.15877973424373E-06	-1.0324739207246E-05	0.998415953717993	-0.0182544609966253
0.7	-0.628653835442603	0.772166792659684	-2.04451633264605E-06	9.87408119525594E-07	3.78029533927733E-06	1.11468261084459E-05	0.998061238035695	-0.0213392271813831
0.8	-0.526091195765626	0.845055253184702	-5.59797794836488E-06	3.77774949111228E-06	-3.16409565669361E-06	-2.13602495584415E-06	0.997798507786597	-0.0234991873936445
0.9	-0.41547750259512	0.904243430734029	-6.67207417182691E-07	5.24368308381169E-06	3.26221393633623E-06	-2.94760666616687E-07	0.997802436424723	-0.0260475725836811
1	-0.297854721853633	0.949061676438055	1.56598842242377E-05	-3.68870340954094E-06	-9.58359336711864E-06	5.30777363623648E-07	0.997028357566592	-0.0280713262740434
1.1	-0.17664340937803	0.978465232361174	1.33906437573185E-06	-2.97665864866174E-06	9.38050105600699E-06	1.25713749876424E-05	0.99648693635486	-0.0296664794431132
1.2	-0.0518767683129657	0.99246673993373	-7.89206663132343E-06	-3.25259400843683E-06	-3.09117367394377E-06	-4.46948382232693E-06	0.995765685438843	-0.0306926432964826
1.3	0.0735234089182149	0.990673999112683	1.76977563864675E-07	3.32672113576668E-06	1.92465534098148E-06	3.40997784123585E-07	0.995675810796823	-0.0314214677067595
1.4	0.197364819274643	0.973257018093024	1.96383870082287E-08	3.75918724947195E-06	-2.51789236747256E-06	-5.6044294923903E-06	0.995581009492019	-0.0332255342085227
1.5	0.318013482353846	0.940772344422922	3.17983110805145E-06	-2.62928394807098E-07	2.69394520050621E-06	2.09234524774582E-06	0.995812586552736	-0.0364852462346692
1.6	0.433765275484551	0.893840466061965	1.78679701576073E-06	-1.93301391386056E-06	-8.87675094750489E-07	-3.0586421889187E-06	0.995661560399561	-0.0393908020547343
1.7	0.54261741612613	0.832106183112358	-8.03798886494158E-08	-3.51905530151116E-06	1.99490436701747E-06	4.9210639549823E-06	0.996261313228265	-0.0418902778784248
1.8	0.642666881249694	0.757607905335383	-2.0519770435849E-06	-1.81441815376828E-06	-4.65923300102781E-06	1.82856652081086E-05	0.99630200838797	-0.0446824301240521
1.9	0.732667500735405	0.671003697668822	-4.38364915215054E-06	-1.47004130763542E-06	-4.91406019934803E-06	-6.00192156501013E-06	0.996182492373833	-0.0474762287703612
2	0.810074009153723	0.573262605806446	-9.42237273187288E-08	-6.72653816130477E-07	-1.66376576905521E-06	-1.41544417527441E-06	0.9941463657268	-0.0503466662225667
2.1	0.875420434483964	0.467438105504953	-1.15487070677861E-06	9.42091472613374E-06	1.98984276210445E-06	-3.75693849835198E-07	0.994030219608486	-0.0509165422406982
2.2	0.92746788451806	0.354089695211121	-1.04201363618913E-08	-5.9166514085522E-06	-7.40893130533972E-07	2.72985274109922E-06	0.99469524795138	-0.0530322597498295
2.3	0.964574295926845	0.234738457569898	-1.31871050189997E-06	2.75748693469407E-06	-2.95863861814242E-07	1.19487068044082E-05	0.994779974672268	-0.0548282460386396
2.4	0.986320640410162	0.110831169524406	-5.85310348028352E-06	-3.71536637105088E-06	-1.75964342070109E-05	1.44566066848031E-05	0.995029197024024	-0.058054101741498
2.5	0.992621420522048	-0.0137845389097978	1.82505946179027E-06	-2.9554354015248E-06	-1.80907593329047E-06	7.53639539413143E-06	0.994504638183545	-0.0605157781250263
2.6	0.983281139166628	-0.13742022308974	2.85860090139459E-06	9.23788467288512E-07	-1.75844396434024E-06	4.49638552022022E-06	0.994353971090125	-0.0632116398123642
2.7	0.958140480756243	-0.25939788821093	3.80226590293853E-06	1.04412996991967E-05	2.31419721986685E-06	3.86830358363997E-06	0.993908106878983	-0.0660192388630243
2.8	0.918101125039929	-0.377280730613399	-8.08466229423004E-07	-2.29161841045839E-06	2.22534254625741E-07	-1.88535693494709E-06	0.994132641240333	-0.0677584512643774
2.9	0.863969131352117	-0.48883708914997	3.7789280404116E-06	-8.29873987289497E-06	-1.2435031881285E-06	-1.42093299837125E-05	0.994048043960736	-0.0696924420059742
3	0.796236036445939	-0.593169250984263	-2.809662920994E-08	6.64060097922673E-06	-1.4763520628335E-05	5.2614782590929E-06	0.993932620634154	-0.0721809681897694
3.1	0.717214553138545	-0.687169251570763	-4.99857644018152E-06	7.79908077009586E-06	5.80080904396252E-06	-6.93529726837985E-08	0.99364206586002	-0.0738627269907948
3.2	0.62535356988319	-0.772058861696706	9.52228479257049E-07	2.12653276910891E-06	-4.55751617937095E-06	4.62722694586188E-07	0.993618991754723	-0.0752890058895952
3.3	0.523860405836521	-0.844805054455042	7.24468077003751E-07	-1.45597827042224E-06	-4.58127368139897E-06	7.13730335597734E-07	0.993847133644336	-0.0782532170866422
3.4	0.413604707659012	-0.90451983206479	6.47083240125804E-06	2.62393924547071E-07	-8.10804622699335E-06	-7.21732746339152E-06	0.994607272259087	-0.0802946761113015
3.5	0.295301799523822	-0.950100042675041	-7.71408694983308E-06	1.94090204824278E-06	-5.88565304313021E-06	-8.00987580465435E-06	0.994547111654404	-0.0840263762419088
3.6	0.172573608379243	-0.978707015763809	-8.45947462325856E-07	-4.38524575958579E-06	-7.80292986936047E-06	-6.35426653294945E-06	0.993800309548667	-0.086073784889202
3.7	0.0481097574975015	-0.993268832804615	-6.69881878636552E-06	-6.79234955986767E-06	5.41989586335608E-07	-4.76453377279638E-06	0.994236994976672	-0.0884538577630981
3.8	-0.0779653133603529	-0.991629748186318	-3.64958121315868E-06	1.07338878342697E-06	-3.29211547533432E-06	-2.47690505902985E-06	0.994551672107914	-0.0907405439481219
3.9	-0.202259146558364	-0.973771769484472	-4.88669623441347E-07	3.50970604630068E-06	2.05828693734881E-06	-1.21529568696778E-06	0.995032764657246	-0.0949180415285412
4	-0.322907960357684	-0.940146160657664	1.16586988642793E-05	8.15021544143848E-06	7.27722270819135E-06	-4.02179646153918E-06	0.993132030438487	-0.0970351797331125
4.1	-0.437650547696543	-0.89288072643742	5.21711113528301E-06	1.34297834454891E-06	-3.48422538293306E-06	6.64496158787288E-06	0.993016663117241	-0.0974991089728358
4.2	-0.546324032987651	-0.831879304200892	-7.10390459515493E-06	-1.22755237931264E-06	-8.27753016168117E-06	-6.98962882416871E-08	0.993103123564563	-0.100102401300997
4.3	-0.646793815115484	-0.756849786178668	7.11273034410694E-07	-2.36984679725316E-06	5.21918140217572E-06	8.98943137017592E-07	0.993277170744975	-0.102228509295048
4.4	-0.737008962211472	-0.669036669089011	4.48663096414839E-06	-1.76435270093647E-06	-8.73932643065766E-07	1.34668189390669E-06	0.992928476827079	-0.104802681545819
4.5	-0.815031540477351	-0.570456538287928	6.79115276396031E-06	1.8910440768676E-06	-7.96195956777597E-07	-3.26536072072151E-06	0.992808477392391	-0.106607070938267
4.6	-0.880372532830134	-0.463083807056048	2.45253082637215E-06	2.96439754230087E-06	-6.6290235928201E-06	9.74828951524848E-06	0.993162670078535	-0.109441132840771
4.7	-0.931530303786869	-0.347594770635762	-1.40949836574644E-05	5.89155011606244E-06	-3.46902952658412E-06	-4.37358510238388E-08	0.993265356251726	-0.111811937877488
4.8	-0.967612943509936	-0.22721087945882	-3.15348002912459E-06	-5.1614405379523E-06	-5.54103878360194E-06	2.35471545238804E-06	0.993025985798639	-0.114403463263678
4.9	-0.987835804519462	-0.104190785894674	-9.95873209950878E-07	-8.5728416879888E-06	-4.2321999220338E-06	7.27966711043898E-07	0.993039159053917	-0.116308552053824
5	-0.994422192873117	0.0199565591511309	7.58112346730844E-06	-1.54982447690528E-06	-1.74882251335836E-06	-2.73681895505727E-06	0.993245358481154	-0.118328118678282
5.1	-0.983828827720094	0.146916105105066	-2.59480584050399E-06	-6.42379259657551E-06	-1.00758517731249E-06	-1.96272962967486E-06	0.993443112892409	-0.119988270124469
5.2	-0.957674638708215	0.269574442173035	4.01332968810683E-06	-4.29084750326771E-07	-5.47342830096922E-06	6.31901155860529E-06	0.993557541492581	-0.122557506588013
5.3	-0.916783447852987	0.388345628668827	5.14884201456344E-06	6.04186963561845E-06	-9.57463728307882E-07	-3.6027679387745E-06	0.993592034811797	-0.125299019354678
5.4	-0.860891796833931	0.501458826045302	3.07915452756954E-06	-2.02169863357325E-06	-1.13693309279864E-05	2.19527389617483E-06	0.993946626369673	-0.12868143966289
5.5	-0.789866329839084	0.606083209828085	-4.33764716803121E-07	-2.20423655963418E-06	-5.81432611972507E-06	6.15170718586592E-06	0.99334363495711	-0.132793448350793
5.6	-0.706629523609897	0.699726700564585	2.38789129988876E-06	7.33221190944977E-06	-5.40445427937364E-07	2.94032002154348E-06	0.992405457471878	-0.135056538372522
5.7	-0.613081846158768	0.78312472341578	-2.58235200909829E-06	2.37004240213222E-06	7.94276475250512E-06	2.79149339519053E-06	0.992546710212139	-0.137489054027858
5.8	-0.509338089031926	0.853962450615033	-4.66794137473105E-06	5.12783264042437E-06	-3.6723336653373E-07	3.43766220683407E-06	0.99289027147496	-0.140296680252505
5.9	-0.397131629786097	0.911651855601327	6.39029985035404E-06	1.49724528522587E-06	-2.72088130640129E-06	2.5629963535271E-06	0.992762747131066	-0.14421940329751
6	-0.278389180447512	0.952832131191167	3.54349048160013E-06	3.29993046612705E-06	-3.33218708092639E-07	-1.43754547947109E-06	0.989799079538323	-0.14696970752893
6.1	-0.157360550975531	0.979265545817358	9.20029797732427E-06	1.50823820218834E-06	-1.31693498610556E-07	-1.81241958266944E-06	0.989305717973835	-0.146864497954543
6.2	-0.0330554791654201	0.990833448034834	2.4406460004855E-06	-1.73862514429076E-06	1.47280660731257E-06	-4.85794374439288E-06	0.988908862934868	-0.148215741840436
6.3	0.0918197059828111	0.98684672404594	-4.35743357774282E-06	4.26084106621257E-06	-6.1985734440615E-07	-1.72642153190529E-06	0.988295291118436	-0.150016524271658
6.4	0.215086213000447	0.966689193897339	-4.26588158824629E-06	1.07957404099547E-06	-1.74451599331435E-06	8.85384019257248E-06	0.987554107633204	-0.15214344933488
6.5	0.332897005522687	0.932480509347076	2.4532120263099E-06	-1.33223697179689E-06	1.48774452721824E-06	-2.93176316047725E-06	0.987173325187293	-0.153470864957617
6.6	0.448473548649533	0.885006221638858	-4.7459244268033E-06	-2.2590920405727E-06	-1.87046589301066E-06	-6.65415559347619E-06	0.988719976730176	-0.156469302338332
6.7	0.556627938361432	0.821370362936967	4.17240189487516E-06	-6.66021978177701E-07	-4.6865776912925E-06	1.01749831278552E-06	0.98867538215026	-0.15981493436857
6.8	0.655452105763981	0.744924733754049	3.76396653588821E-06	-2.08994480316496E-06	6.22883898575655E-06	-9.33555465933256E-07	0.988283234429352	-0.162634536608861
6.9	0.743896674259628	0.656673110585337	2.05702570907998E-06	1.64161169181544E-06	8.80225000435366E-06	-2.78129101996134E-06	0.988017094762334	-0.165482374010555
7	0.819823428731395	0.55767443156664	2.1900798108918E-06	4.09891730722993E-06	-7.71004073033026E-08	5.39495387073343E-06	0.986447071033224	-0.167729651247731
7.1	0.882754671764227	0.451364355868302	-1.29361289820093E-07	1.71975675464883E-06	8.2593833147767E-06	-4.66886391762171E-06	0.986013884833005	-0.168708325203923
7.2	0.932320530470216	0.337555920998466	4.85186416564932E-06	-1.402764420755E-06	7.27208320666595E-06	3.77536984290449E-06	0.985819444810508	-0.170368222708421
7.3	0.96719264592147	0.21847761853422	4.86832367053356E-06	-1.11367935360769E-06	-7.35825857585822E-06	-7.38783215704713E-06	0.985470808321174	-0.172006245380086
7.4	0.988157299778665	0.0951387957514124	-1.8482086421248E-06	9.92751564351309E-06	1.43890859517881E-06	-4.08200334657498E-06	0.986175839195896	-0.174817553549628
7.5	0.992247548842223	-0.0327569551350102	8.46670086640166E-07	8.08882894527896E-07	1.68456948541563E-06	9.94796745691797E-07	0.985212643555949	-0.180380099233831
7.6	0.978355523760342	-0.157511274543608	1.44994652720663E-06	-2.63125453874096E-06	-5.45652356704795E-06	-3.61879308353375E-06	0.982826552184969	-0.183219572621889
7.7	0.950300536963959	-0.280007349662488	5.60567597534943E-06	2.39004775765969E-06	-6.79203014468181E-06	1.21280874890531E-05	0.982117370509919	-0.186659480384328
7.8	0.90694720535721	-0.397932718583965	-6.47484684710794E-07	-5.2565073314529E-06	3.7177564314429E-06	-4.7758219789003E-06	0.981490147347394	-0.190328012520411
7.9	0.848219855242924	-0.50935717432487	8.88359329399937E-06	1.46372737061476E-06	-9.62392715683594E-06	-8.58310851695464E-06	0.980339581899868	-0.194659792201027
8	0.774677051047833	-0.609105161717737	-6.65732143272871E-06	-1.57177805289194E-06	-1.19643499762112E-05	2.59069942744132E-06	0.97631764441964	-0.197156991558384
8.1	0.695153750661202	-0.699009894867569	5.06499247503487E-06	7.03679820131697E-07	2.89486846945651E-06	2.2410889909262E-06	0.976289731795264	-0.196984758558429
8.2	0.603548462240787	-0.781105874363112	3.54578729981673E-06	-2.58305154614376E-06	-3.71788367217978E-06	-1.1573148214719E-05	0.976645436995372	-0.199167990947365
8.3	0.501276889438316	-0.850928548228445	2.71515395508159E-06	-1.86270406447992E-06	1.65235890565806E-06	5.27442877026184E-06	0.976071769973886	-0.201829113532095
8.4	0.390614353156273	-0.90732622755313	-5.54364158194702E-06	-1.0017674538261E-06	1.06142538333766E-06	2.94194688749844E-06	0.975030237488045	-0.204383552829523
8.5	0.272266100938663	-0.948576796238245	-3.27949643983326E-06	1.63226004044793E-06	-4.80057948820768E-06	-4.98223519052065E-06	0.974178015266044	-0.20631176070038
8.6	0.151243176317964	-0.973628155633844	-8.1173640668379E-06	1.41387314371077E-06	-4.35800856232207E-06	-6.83074176191405E-06	0.974371529545177	-0.208904421251821
8.7	0.0281358461907065	-0.984632877164586	2.2319211373356E-07	-2.14836680409958E-07	6.10230627871177E-06	4.86011873925929E-07	0.973941891903238	-0.211744964282296
8.8	-0.0956011480985262	-0.980181689790099	1.01558458842857E-06	-1.8149700736254E-06	-2.38615288428609E-06	-1.26885552173877E-06	0.973402030170425	-0.214189176900364
8.9	-0.216946263563171	-0.961393740613167	-2.95731231179179E-07	3.02344569947369E-06	-1.23142522519382E-06	-1.63335209883494E-06	0.97308605242049	-0.21645716305791
9	-0.336583275543529	-0.928597477413225	2.96992092413547E-06	1.5849852007567E-06	-1.57231076755148E-06	2.10923593143392E-06	0.972381547889159	-0.218936017198402
9.1	-0.45116625328578	-0.878424038362951	-9.29700019411001E-06	2.26263394326293E-06	-1.5613803206672E-06	2.40590715170577E-06	0.971385105380839	-0.220816418450604
9.2	-0.558037442036203	-0.814782505613219	7.49536067708096E-06	-2.3232027988315E-07	-9.09542399211285E-06	1.96478806815405E-06	0.970391784111823	-0.222728807878544
9.3	-0.65595647028322	-0.738150240353103	7.71663574005006E-08	-7.15767649193067E-06	1.58542488432554E-06	-1.29911398224094E-06	0.969943497433149	-0.224361994198031
9.4	-0.743867529273157	-0.649964089754207	6.00920965011357E-07	2.48308203909952E-06	1.61486437053693E-06	-3.59865244213323E-06	0.969954778448174	-0.226835931966408
9.5	-0.819237362055407	-0.547980186541683	-2.84650883242107E-06	6.65093935047273E-06	4.71643540875196E-06	-1.38431283569378E-06	0.968876880415093	-0.230354175313317
9.6	-0.876994966072806	-0.44046241124174	-5.02406836135535E-06	-5.1707645765497E-06	4.75413868947642E-06	2.85683027269123E-06	0.967830459358899	-0.232387117427863
9.7	-0.924288355064875	-0.328126423245462	-2.0047663840001E-06	-5.05016480293069E-06	2.08892522782556E-06	5.92352639994503E-09	0.967738888621406	-0.234631312979741
9.8	-0.958444420108792	-0.209353138650562	5.83654166997095E-07	-4.27007330615093E-06	-2.93422101308447E-06	-2.50332927624322E-06	0.967864966086966	-0.236985183914566
9.9	-0.977538593790872	-0.0863991216835764	-6.08381984627094E-06	4.20397637386262E-06	-3.06979616283292E-06	1.6641297007804E-06	0.967125428925689	-0.240127562376121
10	-0.981226504039196	0.0385590101144955	3.55661377055002E-06	-4.65160444316539E-08	8.20923125927251E-06	1.10439334891745E-05	0.963725148990342	-0.240717779516145
10.1	-0.96725990978735	0.162816612213027	-2.84981007118302E-06	-2.51085933125141E-06	-2.00424940475618E-06	-2.48684925303804E-06	0.964824084630764	-0.239849277432089
10.2	-0.938115542726842	0.283638643398288	2.34678704950392E-06	-1.02032692804726E-06	-2.75944918520983E-06	-1.05930583475443E-06	0.965569561252048	-0.241702248992041
10.3	-0.893917309234202	0.399759178799766	7.71842220895999E-06	-5.93605969708292E-06	3.85546727825323E-06	8.19056969388435E-06	0.965100571536636	-0.244086875336262
10.4	-0.835434978181849	0.508518033461557	1.69631283839787E-06	2.47192654632494E-07	6.2390538038959E-06	-1.1879552368682E-06	0.963597912141685	-0.246664556095553
10.5	-0.765786084842358	0.607805719872183	8.29961220181904E-06	-4.10376062749504E-06	-4.93480592279378E-07	1.95881554300917E-06	0.962055886129171	-0.248038406846899
10.6	-0.68454525617329	0.699439308649431	8.8900203618437E-06	-1.24443185941172E-06	-1.49635239254395E-06	1.35642320575463E-05	0.961802015386784	-0.250452792096443
10.7	-0.591431270012342	0.779665688592792	7.97889272916472E-06	-1.87534945970555E-06	-3.02601524684254E-06	-5.26041336944944E-06	0.960548652990934	-0.252728643942329
10.8	-0.48820432922456	0.847725538972014	2.42499649435662E-06	5.2268802868724E-06	-3.60864138122505E-06	-2.13253971700633E-07	0.959957284824933	-0.253782383201994
10.9	-0.377401499358108	0.902608464699572	-5.53461454105716E-06	4.65307669569452E-07	1.57684489291621E-06	4.01498647128043E-06	0.959918082591375	-0.254912172724681
11	-0.259648253914037	0.944846636979127	1.71531273407212E-08	-5.20580546406302E-06	-8.36034822763871E-06	2.20236528608947E-06	0.959711000911599	-0.255465004121032
11.1	-0.135884691818482	0.968471992949654	6.27945566792833E-06	4.08414742281532E-06	-1.91419882717385E-06	1.07160551603387E-05	0.96080682670488	-0.256138772671259
11.2	-0.0135929905618788	0.976135599396497	1.56889836108929E-06	1.35236594312773E-06	5.09637177470521E-06	8.87409372845619E-06	0.961444657617952	-0.257948422218921
11.3	0.107959759587526	0.969383217154411	-4.55051121108058E-07	-1.73063480240469E-06	-6.82569637167247E-07	-4.37707180380778E-06	0.962171376631748	-0.260147911790913
11.4	0.228005442674022	0.948808374875909	1.77323978860137E-07	1.18100260182275E-05	2.39333431502053E-06	4.91730323347321E-06	0.962779503979496	-0.263870650147523
11.5	0.345731675895435	0.913747608485295	6.17403366498755E-06	-3.03159695173783E-07	3.21789520357225E-07	-1.87436400631328E-06	0.960648706407774	-0.26869082785975
11.6	0.457142044596237	0.863993545773035	-5.98859196442769E-06	3.03923178493572E-06	-4.85476015631977E-06	1.89106181684151E-06	0.958868501164633	-0.270884404136172
11.7	0.561462543871204	0.801673092409875	3.32049173664463E-06	-1.77491094032608E-06	-1.70879262216827E-06	2.22086502236288E-06	0.95871180611588	-0.274575850888665
11.8	0.658245499767026	0.726637210830446	-8.60301586609221E-07	9.75904137663834E-06	-2.75290862773957E-06	1.04929463032924E-05	0.958126789259392	-0.279261760726276
11.9	0.746230286309358	0.638466502193022	-7.27832940536778E-06	-1.05632805174087E-06	-3.93581502523756E-06	1.12151606498124E-05	0.956571564984693	-0.284106548266467
12	0.819584512353958	0.537683161901708	-6.44686084836663E-07	1.37502376294018E-06	-3.11991423246322E-06	-1.92348781073272E-06	0.951107518191545	-0.284836253342504
12.1	0.88123444498262	0.431002924379426	-3.87998979557266E-06	4.9573751982789E-06	-1.3602504655534E-06	8.38027183950161E-06	0.951314179454487	-0.283598960971803
12.2	0.928441281381872	0.315892771978128	-5.63816131725377E-07	-3.78704110201926E-06	-3.10138790872477E-06	-7.37537826448398E-07	0.951461730581043	-0.285224359865518
12.3	0.959880908048249	0.196972477076145	3.57217628126228E-06	3.42966620495996E-06	-3.44076276279002E-06	6.23139826522585E-06	0.950901997620366	-0.287151470874176
