# GHZ S RI R 50
0.2	-0.967987290246259	0.250356746479183	8.83062035135832E-06	5.34059091586106E-06	1.1421923837132E-06	-2.89293526092322E-06	1.00122959513571	-0.00607599035215706
0.3	-0.929491705312503	0.370228554713351	-7.67807546588874E-06	-8.32836728694724E-07	-2.02677410931789E-08	3.66762702972648E-06	1.0015757093363	-0.00895686372751559
0.4	-0.875962337305602	0.484606178491811	-2.21662429663519E-06	6.35590184579274E-06	2.9188671432215E-06	5.75997285132757E-06	1.00240417749544	-0.0115178727732423
0.5	-0.807897108386926	0.592619844225233	-2.66073164327808E-06	5.50198663730072E-07	1.05639185655763E-05	4.91055183928609E-06	1.0031850969288	-0.0162788103565143
0.6	-0.725777975346305	0.68919831746462	-1.73091464836083E-06	-1.82695828043424E-08	4.1764709711864E-06	-1.03700411241077E-05	1.00170709324257	-0.0195392044388168
0.7	-0.633596536395187	0.775077832013095	-2.05437150416492E-06	9.90833312589346E-07	3.791651969089E-06	1.11997086747185E-05	1.00138473230986	-0.0218207371695251
0.8	-0.531008480831369	0.849193951541762	-5.62808957693974E-06	3.79367162613199E-06	-3.17880948023116E-06	-2.1484446495191E-06	1.00142707394825	-0.0237535630885592
0.9	-0.419902312483971	0.909593490053616	-6.74020971217766E-07	5.26991233774171E-06	3.27899482190764E-06	-2.94131416667097E-07	1.00151796609283	-0.0256275671773104
1	-0.301561510876644	0.955582143002613	1.57621692810611E-05	-3.68540565513567E-06	-9.64332878526377E-06	5.18155304209513E-07	1.00295826719076	-0.0266995330677419
1.1	-0.179048422129991	0.986039628963369	1.35002526560292E-06	-2.99883276289054E-06	9.44807929730342E-06	1.26691645449184E-05	1.00307028898446	-0.0306263141573547
1.2	-0.0526075708412687	1.00065505169973	-7.95424330698314E-06	-3.26989426110788E-06	-3.11840845605216E-06	-4.50024788652635E-06	1.00167742928906	-0.0321973866333531
1.3	0.0750020458684608	0.998764998003636	1.86386710845041E-07	3.35039988670829E-06	1.93943764571672E-06	3.38767712236401E-07	1.00104572370494	-0.0338467953931583
1.4	0.200631109643135	0.980375374761689	3.44383229797738E-08	3.78261916830153E-06	-2.55551992092535E-06	-5.62964686749756E-06	0.999747896360175	-0.0361752968618776
1.5	0.323050209950956	0.947241460283647	3.19905978302468E-06	-2.78397630686774E-07	2.72027197875656E-06	2.09406917895668E-06	1.00109938220556	-0.0395785257622869
1.6	0.439589828943253	0.898468792110801	1.78676170154457E-06	-1.95375733778543E-06	-9.09194587238821E-07	-3.07155694278111E-06	1.00040655510996	-0.0436660188452095
1.7	0.548584201329059	0.835905808227725	-9.86480527857548E-08	-3.53737166872838E-06	2.03046689392644E-06	4.93713397397937E-06	1.00106131220033	-0.0458077177887438
1.8	0.648667863347807	0.760577680031784	-2.07049840703538E-06	-1.81373358318009E-06	-4.59673618061918E-06	1.83970064439142E-05	1.0011985826012	-0.0481906085792002
1.9	0.737902564686314	0.674319027081064	-4.40647905308005E-06	-1.46454013754832E-06	-4.95139955253497E-06	-6.01449095664038E-06	1.00161155634982	-0.0489023583032243
2	0.819187411254124	0.578724531287534	-9.53313752185804E-08	-6.78849939439589E-07	-1.67966764155221E-06	-1.4279702823263E-06	1.00599832039557	-0.0516496159500875
2.1	0.886830704318699	0.466832505597863	-1.11064331405916E-06	9.52757409646488E-06	2.00865785068541E-06	-3.91595259310023E-07	1.00522391207008	-0.058895682864374
2.2	0.936603727747906	0.350745857728445	-5.38914158864653E-08	-5.96637091899354E-06	-7.27112136629603E-07	2.75826038293074E-06	1.00322947594596	-0.0619223539273169
2.3	0.97207852502555	0.230247630259675	-1.30751576968555E-06	2.78826218183536E-06	-2.06700366268008E-07	1.20406222654834E-05	1.00203987851241	-0.0637885176734688
2.4	0.992618956765646	0.105663333427634	-5.92507218851596E-06	-3.69096511387402E-06	-1.75940779216804E-05	1.47062253631547E-05	1.0014366491891	-0.0666668619868484
2.5	0.998309986554067	-0.0199895408414093	1.80678378188186E-06	-2.98418820903305E-06	-1.7503008466036E-06	7.58460710300454E-06	1.00154629032025	-0.0688289897462216
2.6	0.98749466276579	-0.144536028870537	2.87687548185339E-06	9.10008234205991E-07	-1.73810552052313E-06	4.52703439730208E-06	1.00141915519613	-0.0724218126100162
2.7	0.961559223267466	-0.267414466681853	3.89036782974085E-06	1.04815072656891E-05	2.35237271022547E-06	3.8775747670155E-06	1.00113305991261	-0.0759649632991986
2.8	0.919937848680585	-0.386774142856731	-8.31082374463772E-07	-2.30173370037533E-06	2.10160622183134E-07	-1.90024050492327E-06	1.00098504571127	-0.0789225935373534
2.9	0.863421555110846	-0.499170357158757	3.73280768900462E-06	-8.39075854892122E-06	-1.37714689536638E-06	-1.42991198780683E-05	0.999872115595982	-0.0815361716893873
3	0.793396527396509	-0.60376929674801	3.77183217384315E-08	6.68388286742717E-06	-1.48068343760521E-05	5.44227576135238E-06	0.999172219841578	-0.084262476732402
3.1	0.711289317842034	-0.697828353427797	-4.9426559768907E-06	7.90259172742581E-06	5.83571521751329E-06	-1.34238042289988E-07	0.998108309251928	-0.0869653328693242
3.2	0.616163208209176	-0.781225200600837	9.83465980018676E-07	2.12497781483848E-06	-4.57392316299059E-06	5.21984751234595E-07	0.996762831200943	-0.0890313810865849
3.3	0.511669239541205	-0.851515028154707	7.06651925809335E-07	-1.47054942389673E-06	-4.58581591245958E-06	7.79192329203858E-07	0.995234836708975	-0.0925619444081887
3.4	0.398850414689502	-0.906321679996886	6.47366715748576E-06	1.6599076182142E-07	-8.21417819004435E-06	-7.09539101546551E-06	0.993314886540213	-0.0942508268343464
3.5	0.285173538187949	-0.946716879705524	-7.66492599747197E-06	2.01671909222386E-06	-5.9501815514164E-06	-7.91721902880077E-06	0.992918077737021	-0.0947262239614352
3.6	0.162666808578612	-0.978295583692894	-8.87367302983403E-07	-4.37540106441289E-06	-7.86026601049937E-06	-6.27736125017842E-06	0.993640131016929	-0.0982509443922137
3.7	0.036036368903439	-0.990422481529026	-6.77018295188948E-06	-6.71272848789052E-06	4.88316754902751E-07	-4.76731129766335E-06	0.992179486865958	-0.101571012947817
3.8	-0.0897449565073038	-0.985463639652252	-3.62992547401124E-06	1.1129073581981E-06	-3.31374265546733E-06	-2.43427804797182E-06	0.990350058563152	-0.103008802494983
3.9	-0.211986109738499	-0.965249802804942	-4.5195210508159E-07	3.50576117729515E-06	2.04079060532867E-06	-1.23302682436894E-06	0.989788398487997	-0.103837730227479
4	-0.331521390230825	-0.932141528626108	1.17530520093424E-05	8.02225303566024E-06	7.23434111849587E-06	-4.10424012759121E-06	0.993647728727525	-0.104749461392045
4.1	-0.447157021346219	-0.882339711234623	5.22353990493831E-06	1.26501189632926E-06	-3.38057113989384E-06	6.67853691281874E-06	0.992222993144351	-0.110742589894823
4.2	-0.553861871755754	-0.818719336731853	-7.08710063173637E-06	-1.12467141686549E-06	-8.23935868010849E-06	4.35508027681557E-08	0.989405902518261	-0.113379697425593
4.3	-0.651743626848702	-0.742345029827634	6.76651089681843E-07	-2.36519785639025E-06	5.20035736528814E-06	8.26580521095561E-07	0.98815866263126	-0.114836578587902
4.4	-0.739605479488753	-0.654363984875175	4.43795048392515E-06	-1.80761769637837E-06	-8.52367201599934E-07	1.34897818604802E-06	0.98729509114694	-0.116669424952873
4.5	-0.816224679444969	-0.55510287456026	6.77281344885059E-06	1.79123477234628E-06	-8.33435399562216E-07	-3.2344714624515E-06	0.98700725518373	-0.119696465557064
4.6	-0.878888996957002	-0.447453728318324	2.46910720954475E-06	2.9098721432842E-06	-6.45441877735875E-06	9.75050903962321E-06	0.984549010753295	-0.122307298210961
4.7	-0.927971103235499	-0.332252555689298	-1.39064518343708E-05	6.00440958630631E-06	-3.43991950276795E-06	-3.20642492976813E-09	0.983654419079066	-0.123516099684898
4.8	-0.962279950956353	-0.211885098750078	-3.18556789962323E-06	-5.07995536347822E-06	-5.46546594750489E-06	2.39816130120849E-06	0.982631341538005	-0.125503381606613
4.9	-0.980337053851311	-0.0872313381359272	-1.09530966389306E-06	-8.47920110469556E-06	-4.18297132294668E-06	7.74823189106478E-07	0.981354707435461	-0.126751500739975
5	-0.978175030418643	0.0362465231282885	7.45637054456677E-06	-1.62535931678647E-06	-1.75963008899841E-06	-2.67656754915758E-06	0.98046051617896	-0.12737552658082
5.1	-0.966431831016769	0.155357322182356	-2.61484684893913E-06	-6.30587630682678E-06	-1.01055192191349E-06	-1.92475631578928E-06	0.979919653925092	-0.127974793628573
5.2	-0.940403429383453	0.275501972486158	3.95090194719853E-06	-4.55394529402476E-07	-5.34169678057742E-06	6.27068437006647E-06	0.979143669485615	-0.129303785042684
5.3	-0.898339686610199	0.391149647466335	5.1125518701018E-06	5.90969111593726E-06	-9.68864842908244E-07	-3.53941677080264E-06	0.978392466882474	-0.130791206186156
5.4	-0.842138787238574	0.499713882750606	3.01466512322632E-06	-2.00478685557756E-06	-1.11616239978902E-05	2.22322744951913E-06	0.977280952637645	-0.132471031698836
5.5	-0.773750490168521	0.599825572647375	-4.31232151131538E-07	-2.16578846025813E-06	-5.7018991943548E-06	6.0598478174725E-06	0.977718375164844	-0.13250557790209
5.6	-0.693052006002967	0.692150662389131	2.36632328570857E-06	7.21620175309357E-06	-5.26368129062492E-07	2.89679314798539E-06	0.978699019125257	-0.135733947595634
5.7	-0.60091548725356	0.773467397477707	-2.53720009811569E-06	2.33739639140968E-06	7.82252098276767E-06	2.73273900711944E-06	0.977446334509117	-0.137959064874193
5.8	-0.499424202006729	0.841380371881819	-4.58655230471914E-06	5.04262018694798E-06	-3.59594650655243E-07	3.37941149018494E-06	0.976377677303261	-0.13869628417137
5.9	-0.392117422347941	0.896297795793263	6.27144604844983E-06	1.49331529901113E-06	-2.68163073354113E-06	2.50780386217523E-06	0.976326251292463	-0.137480108985401
6	-0.278737940616964	0.941158295005563	3.4795985596685E-06	3.28548021244267E-06	-3.19535601868504E-07	-1.42300915200154E-06	0.9821272011452	-0.138519051797315
6.1	-0.156727390116225	0.968043717116727	9.09671283112142E-06	1.51689978307925E-06	-1.25350078956712E-07	-1.79317763152848E-06	0.980774330413413	-0.144463921892259
6.2	-0.0348982211722443	0.978814809131277	2.41673805670798E-06	-1.7103501015148E-06	1.47001933552979E-06	-4.79527955772347E-06	0.978349256201051	-0.145212401624731
6.3	0.0867968461298393	0.975626437385796	-4.32418742297993E-06	4.19287033587222E-06	-6.05423955069063E-07	-1.70880494643937E-06	0.977373736469164	-0.145834963885556
6.4	0.207918088017549	0.959543484686626	-4.23081723044763E-06	1.0499213368531E-06	-1.76868635568304E-06	8.76282089675411E-06	0.97796709926034	-0.146569251312022
6.5	0.33189835774415	0.925396215603085	2.42865423698862E-06	-1.3231441322053E-06	1.47001447346626E-06	-2.90652897345222E-06	0.978429924012804	-0.152253670780373
6.6	0.441809877044738	0.872187694762971	-4.67006885268135E-06	-2.22589378798983E-06	-1.83768886942755E-06	-6.5503181459249E-06	0.97401714988313	-0.153292212588002
6.7	0.544969461738033	0.811153566681935	4.10647538179313E-06	-6.38596890111525E-07	-4.6135910556782E-06	9.82266994695468E-07	0.973923813683698	-0.152682033313806
6.8	0.641029391739747	0.73759031876821	3.7142737243801E-06	-2.03258691258561E-06	6.13134172166338E-06	-8.80446555896273E-07	0.974184635964716	-0.153312163041256
6.9	0.727039867111438	0.653011635785669	2.00772163321183E-06	1.63132202381864E-06	8.67589536710547E-06	-2.65782051462989E-06	0.974582369112664	-0.153372273102037
7	0.803542705848891	0.558744733198245	2.10825893812782E-06	4.06774472217588E-06	-1.42726305623035E-07	5.31732141060238E-06	0.977315970952138	-0.154542027996348
7.1	0.866919629003669	0.453688910210995	-1.46084522715121E-07	1.69805470759947E-06	8.21130223533463E-06	-4.52601387586047E-06	0.976411270461986	-0.15804711935446
7.2	0.915806230776821	0.3421510846373	4.80661014067972E-06	-1.33777127373109E-06	7.14622020829983E-06	3.80118028395127E-06	0.974938309218547	-0.159261167705259
7.3	0.94985893989156	0.225321838095528	4.81445195503517E-06	-1.05495677117966E-06	-7.19467846976575E-06	-7.35741613623402E-06	0.973028403938598	-0.160421304560443
7.4	0.967341443536428	0.10604680140124	-1.89937793710004E-06	9.7339960129271E-06	1.44778631199802E-06	-3.9966680144284E-06	0.969375115312861	-0.160287952026859
7.5	0.974402379218088	-0.00893969327049961	8.12708959848273E-07	8.06647781737686E-07	1.6284639946298E-06	1.00404846095639E-06	0.971511519732372	-0.1551705502962
7.6	0.970406365544481	-0.133177832804308	1.48763269887188E-06	-2.56035952989592E-06	-5.29581270921797E-06	-3.68800085640924E-06	0.976217797037412	-0.16029344992617
7.7	0.946143313341254	-0.255150112350456	5.48020843853956E-06	2.48645099234421E-06	-6.97995792009347E-06	1.18199536281866E-05	0.97591083894629	-0.16426656953321
7.8	0.907387752434258	-0.371514853570114	-5.10152295379461E-07	-5.21253939933691E-06	3.79340058316014E-06	-4.62942632655676E-06	0.976002459173237	-0.166271029063217
7.9	0.856493486915735	-0.480838914301104	8.76526032001908E-06	1.71291447583216E-06	-9.28968985226008E-06	-8.79380322356581E-06	0.977881556731145	-0.166090281619559
8	0.796923234809971	-0.590689081699138	-6.64162849029271E-06	-1.78379703376127E-06	-1.21023643181234E-05	2.23614285456084E-06	0.986528624550365	-0.170555938082491
8.1	0.710505680838716	-0.691841869670137	5.08731759681839E-06	8.09325514440468E-07	2.8711034361331E-06	2.3146499982117E-06	0.984596147398256	-0.180005603275181
8.2	0.61560626600044	-0.774196757749203	3.60761686917416E-06	-2.53512881354841E-06	-3.53809315274004E-06	-1.16942287251012E-05	0.982334880849502	-0.182572924115573
8.3	0.512894218310291	-0.844476461673425	2.75726199238832E-06	-1.82767576371055E-06	1.57541237421445E-06	5.3247561378971E-06	0.981669109640204	-0.18483710539456
8.4	0.40266219045359	-0.900924967227997	-5.55204038712865E-06	-1.08472248019426E-06	1.02391082995168E-06	2.96906629372651E-06	0.981819821180237	-0.187278702723257
8.5	0.288339019051702	-0.944426014721605	-3.30680946106265E-06	1.58446765604441E-06	-4.72997279182925E-06	-5.05854646236994E-06	0.981982337060829	-0.191581350313111
8.6	0.165774979774181	-0.975775270099902	-8.17112817508765E-06	1.27099095274123E-06	-4.24871250559062E-06	-6.93365691858636E-06	0.980487979955601	-0.19418112514878
8.7	0.0394290076213265	-0.98922186549489	2.28405454726196E-07	-2.12322704866098E-07	6.13343739506448E-06	5.96064597799243E-07	0.980663089712962	-0.196148751842244
8.8	-0.0876447378245842	-0.986221255780413	1.05353506612729E-06	-1.81504944057432E-06	-2.38731238080707E-06	-1.31815593804808E-06	0.981188509687092	-0.198401849753211
8.9	-0.213973088980283	-0.966047662348885	-3.35018103369211E-07	3.05335131051941E-06	-1.22558291185264E-06	-1.66608064845258E-06	0.981962611547398	-0.200716406139132
9	-0.330421517934866	-0.926425084604954	2.97612478316864E-06	1.61799006331364E-06	-1.59853878442376E-06	2.11016609791195E-06	0.982760442005266	-0.203111954040889
9.1	-0.441212593606185	-0.88157575317843	-9.36820077156409E-06	2.17216642521128E-06	-1.59551435129237E-06	2.40083185452156E-06	0.98362306046938	-0.205996579998561
9.2	-0.54923199138829	-0.820993107157069	7.54018103888682E-06	-1.49443738174794E-07	-9.16871368728123E-06	1.87369686125213E-06	0.983856437910344	-0.209573919420399
9.3	-0.648330391051361	-0.746880158840488	1.59157480268507E-07	-7.19525539581345E-06	1.60874949822398E-06	-1.28802496325876E-06	0.983421845592419	-0.213279113058215
9.4	-0.736007847057853	-0.660039569543623	5.72008789065334E-07	2.49886395699345E-06	1.66507377575624E-06	-3.59057075547827E-06	0.981492801960013	-0.216169585793835
9.5	-0.811897164615856	-0.570127685573448	-2.99889317251638E-06	6.62642753527374E-06	4.76948521293591E-06	-1.29385400884181E-06	0.982399742170658	-0.216620810216985
9.6	-0.886168727141847	-0.463872335996143	-4.9956570089616E-06	-5.33867815078594E-06	4.76605508411479E-06	2.98730244804275E-06	0.98367958923793	-0.222078479707426
9.7	-0.939948105329484	-0.344526868256516	-1.9581334789313E-06	-5.16078934264415E-06	2.12174769659762E-06	3.83718390197475E-08	0.982576166601915	-0.225717298710152
9.8	-0.976714154030225	-0.220323894571564	6.52586804043972E-07	-4.33101967379351E-06	-2.9468120739613E-06	-2.5847057711939E-06	0.981845198353997	-0.227417740515366
9.9	-0.996681364675684	-0.0927602769251112	-6.24738869952511E-06	4.18953013956724E-06	-3.14584762052576E-06	1.6490296914612E-06	0.982994011548455	-0.226507986518082
10	-0.99982648575567	0.0339212162827209	3.63305500438364E-06	-4.06236555157343E-09	8.24945051683574E-06	1.13798133145727E-05	0.990952751473597	-0.231630884352211
10.1	-0.989295293142913	0.160061220610046	-2.88615663697994E-06	-2.5859332156811E-06	-2.02368004289173E-06	-2.55424589103456E-06	0.986725548517297	-0.240319995401367
10.2	-0.96252580536161	0.285519450576322	2.40238120952536E-06	-1.02157813906769E-06	-2.80626371807733E-06	-1.1032828518123E-06	0.983685659067516	-0.241727242805741
10.3	-0.919936515874246	0.406813377587712	7.93253327737379E-06	-6.004463082964E-06	3.8749942518891E-06	8.39862748843177E-06	0.982627896952811	-0.243121382232467
10.4	-0.863364003761664	0.523475925324239	1.7381880538255E-06	2.63853188845855E-07	6.40585294040645E-06	-1.18031008647099E-06	0.983031892908381	-0.245088455279981
10.5	-0.785940284551676	0.634018238010266	8.51018681344304E-06	-4.22931682817811E-06	-5.02441921292586E-07	2.01154827480115E-06	0.983226690386892	-0.250982876603338
10.6	-0.697193309263042	0.724387743124102	9.07829282837385E-06	-1.29798501057952E-06	-1.48796895828201E-06	1.38616822701136E-05	0.980768943920631	-0.253929062290059
10.7	-0.601120619228993	0.805145117856813	8.14435737788054E-06	-1.93804873478633E-06	-3.10565440349954E-06	-5.36444218228127E-06	0.980935088250675	-0.257445288143811
10.8	-0.494941457909002	0.875198250573332	2.49958734876892E-06	5.33134149208117E-06	-3.68852487590787E-06	-2.03080085222557E-07	0.979978985572568	-0.261558199713344
10.9	-0.377563639033738	0.931364217549308	-5.64559429239013E-06	5.13503073544955E-07	1.63738417478822E-06	4.0868532495358E-06	0.979082624970398	-0.264746332720921
11	-0.256108400436231	0.966160401241159	-1.00785900291332E-08	-5.29214330765454E-06	-8.48721742898896E-06	2.28304258293523E-06	0.978662297658114	-0.268197814162977
11.1	-0.136688747423903	0.992987693734893	6.41843396024258E-06	4.14099946612456E-06	-1.91167016295301E-06	1.09342501112269E-05	0.9760756970743	-0.272141206041288
11.2	-0.00935232870928324	1.00488110006974	1.61025807967262E-06	1.3711574857302E-06	5.25835128140041E-06	9.02945314700926E-06	0.973125741179107	-0.27473758702724
11.3	0.11942630940447	0.998609465325927	-4.80412999003065E-07	-1.76265243700426E-06	-7.36922148029236E-07	-4.46233844009069E-06	0.969620675356331	-0.276553668734398
11.4	0.245546350281014	0.975212103111301	3.24897133713027E-07	1.20265825927615E-05	2.49773633468018E-06	4.97913166945573E-06	0.965321701449149	-0.277374935584098
11.5	0.3673164277863	0.935803554743809	6.26669461349413E-06	-3.66806979613381E-07	3.08871744894828E-07	-1.90644635886288E-06	0.96767463478661	-0.275850831030793
11.6	0.481684383955798	0.881307070649272	-6.06675926756556E-06	3.15551004997328E-06	-4.92395406548375E-06	1.97489220057391E-06	0.968101591318112	-0.283424423629286
11.7	0.587731708296824	0.813680086722699	3.35616614872871E-06	-1.84754298064504E-06	-1.7107476960784E-06	2.28105823536421E-06	0.964673171776569	-0.288073349899602
11.8	0.683583000722128	0.732946573658526	-7.44555827449899E-07	9.91712570186739E-06	-2.65594361244331E-06	1.06870215822435E-05	0.961946270883908	-0.290352459615033
11.9	0.767643339400093	0.643337633396484	-7.38786695428212E-06	-1.00142232093034E-06	-3.88275623135561E-06	1.14059369177437E-05	0.96370421160294	-0.289201333522177
12	0.847128606729174	0.544176036078028	-6.46490280061357E-07	1.41204988590458E-06	-3.20819879823406E-06	-1.93798385087846E-06	0.971931318803007	-0.296549229929174
12.1	0.907893014676416	0.427040213177886	-3.87073181013893E-06	5.1227148973883E-06	-1.24178868314982E-06	8.56959668558641E-06	0.965917035340673	-0.306681708166827
12.2	0.950837198884825	0.308648343363847	-6.4140885897067E-07	-3.84090846401219E-06	-3.16705692494784E-06	-6.94261116793346E-07	0.961304705691538	-0.310292126726176
12.3	0.980186272844307	0.187724292793888	3.69681619795531E-06	3.41994247179303E-06	-3.38110464146073E-06	6.40091133765263E-06	0.958060558402043	-0.313467775965945
