# GHZ S RI R 50
0.2	-0.96553994430243	0.251735637731486	8.82069476255925E-06	5.31594706540185E-06	1.13536948295197E-06	-2.88874479775413E-06	0.999172004357303	-0.00717664383629957
0.3	-0.925900014819123	0.371501743744525	-7.65808654338143E-06	-8.16314776677604E-07	-1.34342079291357E-08	3.65738119826588E-06	0.998959976156206	-0.0101024756099263
0.4	-0.871023483561771	0.485071273130376	-2.19499035656054E-06	6.33524365853638E-06	2.918978233325E-06	5.73127771979781E-06	0.99878922730461	-0.0127432135128391
0.5	-0.802679292466504	0.590848103629277	-2.64657280468196E-06	5.4886696461824E-07	1.05117853016628E-05	4.87892767965292E-06	0.998491932229758	-0.0157308549460031
0.6	-0.721490223229071	0.687091846749335	-1.72382652027338E-06	-1.80523808407362E-08	4.1585116576336E-06	-1.03279101320691E-05	0.998662356465366	-0.0186300895168151
0.7	-0.628974115806409	0.772342172953501	-2.04491266608671E-06	9.87768986701457E-07	3.78190000815735E-06	1.11490946834034E-05	0.99823209628969	-0.0217180338669913
0.8	-0.526467125040504	0.84528307526756	-5.59884052086479E-06	3.77899026183625E-06	-3.16492851188208E-06	-2.13621482394871E-06	0.997852501027893	-0.0239371281175509
0.9	-0.415906759937998	0.904531642420456	-6.67076088616701E-07	5.24409778063606E-06	3.26244740448369E-06	-2.94895386775698E-07	0.997591604983972	-0.0263484921796485
1	-0.298409408761139	0.949465513868093	1.56634649421571E-05	-3.6828184381637E-06	-9.58508183579317E-06	5.2694661191667E-07	0.997070154338842	-0.0278105728559664
1.1	-0.177294406261326	0.97915659499168	1.34131253040774E-06	-2.97785994674273E-06	9.38030183613588E-06	1.2583622799175E-05	0.996970403103333	-0.029547298907191
1.2	-0.0524631477911261	0.993654094253969	-7.89892683911991E-06	-3.26000448404073E-06	-3.09227440616324E-06	-4.47581783116307E-06	0.996685412583694	-0.0305253969835273
1.3	0.0735033300644631	0.992293979396607	1.76698248858954E-07	3.33235764715941E-06	1.92783933783897E-06	3.41906522457781E-07	0.997262987926969	-0.0317184335529943
1.4	0.198022411311228	0.974597364109172	2.17089739139342E-08	3.76553402875095E-06	-2.52518799526208E-06	-5.61254290473124E-06	0.996970475060261	-0.0342945641134825
1.5	0.318952964744834	0.941616686950371	3.18390093479485E-06	-2.65965382595091E-07	2.69934589154946E-06	2.09289684905094E-06	0.996898044547135	-0.0376865824157679
1.6	0.434620327324529	0.893951686131626	1.78582009590426E-06	-1.93680216065845E-06	-8.92210992683404E-07	-3.05999498568865E-06	0.996086214526451	-0.0409454197779798
1.7	0.543097621179127	0.831851557998724	-8.49794624709408E-08	-3.51986513984064E-06	2.00182559835815E-06	4.91974709133292E-06	0.99607611227985	-0.043286541167085
1.8	0.642711999438217	0.757100445874239	-2.05382952917027E-06	-1.81122493982277E-06	-4.63383417824458E-06	1.82869653066313E-05	0.995571723524095	-0.0458215262196917
1.9	0.7318738092791	0.670581727422436	-4.38022624444475E-06	-1.464478293091E-06	-4.91416512292037E-06	-5.99096374156264E-06	0.994868609701015	-0.0477528723343315
2	0.809418403550411	0.574228006015157	-9.38382184636729E-08	-6.7237106135182E-07	-1.66223499245322E-06	-1.41558828712497E-06	0.994233858712661	-0.0493703570630598
2.1	0.875653583031198	0.467601571072294	-1.15007020655087E-06	9.42407356941111E-06	1.99017380929755E-06	-3.7687434192106E-07	0.994696095209791	-0.0514460406624297
2.2	0.927117827826223	0.353836313017739	-1.54571471006725E-08	-5.91474798582409E-06	-7.3833035289351E-07	2.72960978735932E-06	0.994738791365869	-0.0538906934672971
2.3	0.963673123299227	0.23460766454847	-1.31580779693478E-06	2.75659403521639E-06	-2.86933801392921E-07	1.19408785341128E-05	0.994379674355254	-0.0556485911897863
2.4	0.984956158854476	0.111140022679583	-5.85054861845355E-06	-3.70813280263254E-06	-1.75712401669398E-05	1.44560506187316E-05	0.994169416261513	-0.0585244670554071
2.5	0.991150741790857	-0.0127784848826035	1.82003725289633E-06	-2.95152178585727E-06	-1.80115759480889E-06	7.52460002999876E-06	0.993741815656667	-0.0602203302968386
2.6	0.982016252233686	-0.135675009443619	2.85214490580512E-06	9.23998706245625E-07	-1.75815674391722E-06	4.4860085316499E-06	0.993990963451408	-0.0625837991465349
2.7	0.957721115741943	-0.25729899078725	3.7824683958435E-06	1.04336802435905E-05	2.30572715034757E-06	3.86678418577114E-06	0.99416527065277	-0.0653020630107345
2.8	0.918269526680697	-0.375591586426471	-8.04845695974808E-07	-2.29153229580057E-06	2.25043263710734E-07	-1.88404934435285E-06	0.994753836264402	-0.0674785466848829
2.9	0.864210519772936	-0.487633668326673	3.78723039669954E-06	-8.29401556845314E-06	-1.22856110208609E-06	-1.4209288998553E-05	0.99458941460578	-0.0697777629622797
3	0.796410361015844	-0.592285829829898	-3.22588796123269E-08	6.64098034433902E-06	-1.47676996789043E-05	5.25254291871082E-06	0.994488701535609	-0.0723498493388424
3.1	0.717102972350384	-0.686704683742738	-5.00155724958356E-06	7.80008792256537E-06	5.80236196792218E-06	-6.81401569620239E-08	0.994286930888136	-0.0744365755711232
3.2	0.624737275629774	-0.771714190867397	9.53166742502916E-07	2.1267118273081E-06	-4.55843034595763E-06	4.64363162499731E-07	0.994105842582047	-0.0763058206916871
3.3	0.52261342701404	-0.844414029776556	7.23211088340396E-07	-1.45672070724346E-06	-4.580929665476E-06	7.17878254789694E-07	0.993976340329847	-0.0797082170216235
3.4	0.411294005775916	-0.903395223708509	6.4675370089649E-06	2.51407770735489E-07	-8.11545117506944E-06	-7.19958582297796E-06	0.993903644548807	-0.0820354350775139
3.5	0.294011217178982	-0.946750167151022	-7.69478774217741E-06	1.94333817856835E-06	-5.87936543890138E-06	-7.98639589064417E-06	0.993180667071481	-0.0846951620781009
3.6	0.172530602636895	-0.976604042151104	-8.43631481102013E-07	-4.37978610389327E-06	-7.79103315929966E-06	-6.34818143269966E-06	0.993122658396685	-0.0867471013298693
3.7	0.0475483334359673	-0.991291942087269	-6.69295605038246E-06	-6.78548508475961E-06	5.41155435982002E-07	-4.7600734983348E-06	0.993097329220385	-0.0893955388927275
3.8	-0.0785672052977398	-0.989152472458312	-3.64515291632433E-06	1.07269755034415E-06	-3.28865193470741E-06	-2.47350451068245E-06	0.992632109468799	-0.0913226559175831
3.9	-0.202247319695458	-0.970777475483044	-4.89546354712638E-07	3.50436802022019E-06	2.05583645641649E-06	-1.21259195051228E-06	0.992339909378545	-0.0939880733575378
4	-0.322014996750411	-0.937797014426331	1.16487969945108E-05	8.16186577729989E-06	7.28078941951116E-06	-4.01360207134513E-06	0.992714894812188	-0.0939000982504233
4.1	-0.437164843718998	-0.890865629323557	5.2176937601962E-06	1.3423077226059E-06	-3.48350194708405E-06	6.64596531566537E-06	0.994079946790949	-0.0962087052878721
4.2	-0.545750472118881	-0.829798121261429	-7.10246302651946E-06	-1.22553502519861E-06	-8.27552161678058E-06	-6.7878542148996E-08	0.993948600461271	-0.099383712542073
4.3	-0.645988755448202	-0.75488828144405	7.10646818349018E-07	-2.36926615907426E-06	5.21778586614457E-06	8.97762601303367E-07	0.994113779213921	-0.101675929538006
4.4	-0.735992601017891	-0.667584782475654	4.48604862918775E-06	-1.76361684157686E-06	-8.73917347398175E-07	1.3463697834289E-06	0.993908152881858	-0.104223062366139
4.5	-0.814597928771021	-0.569360952632651	6.79435257406142E-06	1.89041744527279E-06	-7.97202333911192E-07	-3.26654557244144E-06	0.994412737006392	-0.106587511353446
4.6	-0.880043169141105	-0.461874166677265	2.45388807404712E-06	2.96355127672179E-06	-6.62537435781341E-06	9.75156081941984E-06	0.994107019574989	-0.110013447139191
4.7	-0.931434799901005	-0.346507643572119	-1.40958726174738E-05	5.89541976426736E-06	-3.46956389632323E-06	-4.3009580013805E-08	0.993941477883001	-0.112251689397389
4.8	-0.968027354365966	-0.226124301665835	-3.15608661746664E-06	-5.16310742628524E-06	-5.54305920015059E-06	2.35703978631942E-06	0.993574756499566	-0.114889365115546
4.9	-0.989187283227147	-0.10216530227396	-1.00349441854649E-06	-8.57934193635507E-06	-4.23522217540115E-06	7.31930001500734E-07	0.993233963981844	-0.116860925422149
5	-0.993820118969649	0.0240531529915742	7.57572464877904E-06	-1.56313040940901E-06	-1.75322264248911E-06	-2.73270005688271E-06	0.993036494793934	-0.118591422222073
5.1	-0.982136666251892	0.149035310044161	-2.59650893501662E-06	-6.41488883403618E-06	-1.00786939358864E-06	-1.95985683996304E-06	0.993010152571971	-0.120019029408701
5.2	-0.95633697431254	0.271505275926586	4.0092798683419E-06	-4.30349159098365E-07	-5.4655074560766E-06	6.31520636578027E-06	0.992920746883479	-0.122161286031459
5.3	-0.914919631249706	0.390186305030757	5.1450621382257E-06	6.03347701863436E-06	-9.57562452856934E-07	-3.59844655459971E-06	0.993161600832623	-0.124503652329757
5.4	-0.858466268709655	0.502347138573068	3.0743644511826E-06	-2.01900227723008E-06	-1.13521808330815E-05	2.19316326040822E-06	0.993562666069538	-0.127959845092167
5.5	-0.788032564187172	0.60557897502256	-4.30763711850767E-07	-2.20096010720907E-06	-5.81083679258093E-06	6.13533369359364E-06	0.993021127914253	-0.131111651392534
5.6	-0.705899781773062	0.699093704851702	2.37683621166982E-06	7.33041879119908E-06	-5.4388241907251E-07	2.93766677375984E-06	0.993156560545337	-0.13394869759388
5.7	-0.61293422280019	0.782454129495122	-2.58354172835775E-06	2.36603958004602E-06	7.93562833407156E-06	2.79854160341771E-06	0.992763024027174	-0.136984280171617
5.8	-0.509778596106428	0.853040853980514	-4.67017128642811E-06	5.11800637050061E-06	-3.7102477118608E-07	3.43436642011403E-06	0.99218012986322	-0.139507286283437
5.9	-0.398983233370472	0.910177122193258	6.37678739538011E-06	1.51030900028134E-06	-2.7228333553327E-06	2.55247188671369E-06	0.991085895811581	-0.141405325171554
6	-0.283034429060849	0.953671393803739	3.52974607986626E-06	3.32105560655678E-06	-3.26146660231472E-07	-1.44054206033765E-06	0.991934942031989	-0.141204691054166
6.1	-0.160411396852777	0.982841051727742	9.22675739111952E-06	1.54246605683239E-06	-1.26406388821935E-07	-1.81898864889588E-06	0.993784002193286	-0.144203732765174
6.2	-0.0346214611168252	0.995012357819005	2.45320571711867E-06	-1.74022302241485E-06	1.48799382211204E-06	-4.87308845975053E-06	0.993432821560264	-0.146983261573871
6.3	0.0911901640544252	0.990861960378744	-4.3800860355914E-06	4.27150424745148E-06	-6.19936275134478E-07	-1.73395678184643E-06	0.992609261356897	-0.149902219246953
6.4	0.214305297320081	0.971381789256313	-4.28669855156883E-06	1.07907376206878E-06	-1.76371977478792E-06	8.89198129252014E-06	0.991583651485378	-0.15212714927197
6.5	0.335989501926913	0.938444680196249	2.46530063583531E-06	-1.34439047287167E-06	1.4913392300887E-06	-2.95162823868816E-06	0.992107840923417	-0.155433276411842
6.6	0.452150401985455	0.886812200105389	-4.76497250857616E-06	-2.24945910276181E-06	-1.89648848277003E-06	-6.66467902128395E-06	0.990367470698673	-0.15927514618474
6.7	0.559167718924266	0.822237465445845	4.17478058762981E-06	-6.77078660426989E-07	-4.68857726198284E-06	1.03017843295763E-06	0.98923772588093	-0.16118232399913
6.8	0.65742839971212	0.745084838803383	3.75980399813133E-06	-2.09772710510839E-06	6.22712607848495E-06	-9.46352770816697E-07	0.988556423870681	-0.163351749258432
6.9	0.744829792694965	0.656381751031779	2.05719150899855E-06	1.63696203232088E-06	8.78903309506341E-06	-2.79086385568068E-06	0.987734651172579	-0.165420345359843
7	0.820483351350674	0.558160319259416	2.1864182192142E-06	4.09657315076481E-06	-7.95041171178515E-08	5.39051532268094E-06	0.987534822227645	-0.166685757527474
7.1	0.88378175277221	0.451001795755254	-1.28936694997568E-07	1.7208092121398E-06	8.26289699512936E-06	-4.67402465135137E-06	0.98729365310886	-0.169511063756086
7.2	0.932732478954442	0.336361650300394	4.85242812680553E-06	-1.41044605560465E-06	7.28133434413636E-06	3.76696994582091E-06	0.986073990107089	-0.172003136288645
7.3	0.966590946796712	0.216271703468427	4.86575298676752E-06	-1.12794053692491E-06	-7.38066567515522E-06	-7.36750176449672E-06	0.984418348812639	-0.174562597906473
7.4	0.984501664566642	0.0918146681212921	-1.7898853074391E-06	9.9169915238981E-06	1.41351378244959E-06	-4.0814017402319E-06	0.981759469928977	-0.178081868705869
7.5	0.984859699393459	-0.0312703170474592	8.42653949116945E-07	7.99725842046566E-07	1.67455978902548E-06	9.81421690007889E-07	0.977899380551957	-0.178464264824505
7.6	0.973658616434062	-0.153617276628487	1.44075785731895E-06	-2.61323568215347E-06	-5.41902511448237E-06	-3.5956201235109E-06	0.978443537602723	-0.179975051669898
7.7	0.946239401056662	-0.275032541171962	5.56528370491386E-06	2.38093979507903E-06	-6.76149044185802E-06	1.20387118662852E-05	0.977907389082466	-0.183115888754175
7.8	0.903959608051727	-0.391410183270836	-6.276640073778E-07	-5.22275106757715E-06	3.70655528159167E-06	-4.73251379532539E-06	0.977396088378673	-0.185776267763251
7.9	0.847452304931454	-0.500456709824631	8.81688467178382E-06	1.50849252671454E-06	-9.5089018729408E-06	-8.58610447965168E-06	0.976588777039581	-0.187423124970073
8	0.781822539043106	-0.601500343421796	-6.63852784270176E-06	-1.63935659718687E-06	-1.19860633648403E-05	2.46706212403863E-06	0.979013578564135	-0.18768952595016
8.1	0.701117405595563	-0.699013961958107	5.08288147795724E-06	7.34185353648781E-07	2.8951124025963E-06	2.26640565317216E-06	0.981132283131023	-0.19303112738147
8.2	0.606509452539047	-0.782690576928332	3.56814478407236E-06	-2.58523648832401E-06	-3.70421883661854E-06	-1.16338755300443E-05	0.98048680628044	-0.197046971543242
8.3	0.502304543798743	-0.852878345666604	2.72895023782226E-06	-1.86816034746016E-06	1.65432205088843E-06	5.29925555081582E-06	0.979473427764931	-0.200458538142613
8.4	0.389973603044821	-0.908847801186556	-5.5686636557651E-06	-1.00248395196995E-06	1.06804428230452E-06	2.95416692786399E-06	0.978415629636526	-0.203415902351737
8.5	0.271969124086487	-0.949169644366175	-3.2841407355252E-06	1.64260491381074E-06	-4.82184993990462E-06	-4.98473450559763E-06	0.97797321481043	-0.206763477276989
8.6	0.150277029034765	-0.975740602569376	-8.13297069687668E-06	1.42114583298182E-06	-4.37052033872387E-06	-6.84214946535304E-06	0.976605919231582	-0.210258869798223
8.7	0.0254806669708216	-0.986866822572348	2.23726695680237E-07	-2.1551026645392E-07	6.11927430617568E-06	4.85092215647309E-07	0.975345278898204	-0.212812299068994
8.8	-0.0999021472449917	-0.982204598478105	1.01814217523587E-06	-1.82198943012462E-06	-2.39534313777503E-06	-1.27198277031876E-06	0.974345668189131	-0.214973855341249
8.9	-0.224344965001126	-0.962530129859957	-2.91581622230902E-07	3.03913032056533E-06	-1.24063059367202E-06	-1.63923487714795E-06	0.973709456528035	-0.216929643383568
9	-0.345099951053975	-0.923622665594689	2.98879382721667E-06	1.57484322123559E-06	-1.56668353118499E-06	2.12500559805479E-06	0.972916802754888	-0.218830116299364
9.1	-0.456119857069438	-0.871747995747297	-9.2988820267039E-06	2.31033312811132E-06	-1.55197767002863E-06	2.41669330185416E-06	0.972521579461558	-0.220479279829585
9.2	-0.561043477239348	-0.807189277996015	7.49808143288239E-06	-2.69506125839102E-07	-9.0904034459029E-06	2.01078093447442E-06	0.972216361239335	-0.222913233600341
9.3	-0.656589646879298	-0.730559326157437	4.15972196630453E-08	-7.15311980042866E-06	1.57788465467032E-06	-1.3060842166321E-06	0.971944235420722	-0.225865405306564
9.4	-0.742478316605197	-0.642461554641247	6.11800072603614E-07	2.47381037328498E-06	1.59281930846071E-06	-3.59762554099575E-06	0.970457911217403	-0.229835295043359
9.5	-0.813899629363056	-0.544673059745369	-2.82714633843216E-06	6.62481344862586E-06	4.69437083262855E-06	-1.38316240095385E-06	0.968164164674497	-0.231475666419526
9.6	-0.876727791163924	-0.440865360365999	-5.0188511027564E-06	-5.16864339258074E-06	4.74984104717724E-06	2.85627949491493E-06	0.968028433420711	-0.234175997925438
9.7	-0.92635462835474	-0.326537484733088	-2.00971511723883E-06	-5.04901272027666E-06	2.08922100268964E-06	3.99261993257035E-09	0.966874680648576	-0.237052439176116
9.8	-0.960635131597038	-0.206200218506068	5.77187508460778E-07	-4.26986179605707E-06	-2.9371870092745E-06	-2.49835624653739E-06	0.9654053240168	-0.239097098655425
9.9	-0.97910299625843	-0.0822243592278902	-6.07371231825423E-06	4.20445311731978E-06	-3.0650755084222E-06	1.66486752414713E-06	0.963128945975813	-0.239432192490617
10	-0.981300277663913	0.042681541655677	3.55839060045249E-06	-4.54381571348854E-08	8.20988061997344E-06	1.10519472984158E-05	0.965061424999616	-0.23780215522908
10.1	-0.967504312578494	0.165787694248109	-2.85420620229864E-06	-2.50886776626565E-06	-2.00817649256333E-06	-2.48582481870938E-06	0.965671615370072	-0.241782946408248
10.2	-0.938951866773836	0.286301732663979	2.34573968022469E-06	-1.02226566838764E-06	-2.76015586602486E-06	-1.05686066452693E-06	0.964087394464639	-0.243479719221551
10.3	-0.895831496395818	0.402160629759721	7.71883333057357E-06	-5.93790878189141E-06	3.85706477631608E-06	8.19131091875738E-06	0.962606082358877	-0.244718256665594
10.4	-0.840242831531799	0.512044009760801	1.699276601983E-06	2.48687889366639E-07	6.25124181916697E-06	-1.18630740117388E-06	0.961236115394829	-0.245422092561375
10.5	-0.769865868095316	0.618065082561463	8.32059642964692E-06	-4.14270174184033E-06	-4.8998574202052E-07	1.96781149915103E-06	0.961384862229168	-0.247069097693886
10.6	-0.682998767155313	0.709848643485263	8.89252466716421E-06	-1.28189335310932E-06	-1.44209647897903E-06	1.35819533196718E-05	0.960485034945703	-0.248822816553136
10.7	-0.587323267026026	0.788090204801288	7.9717910046285E-06	-1.90013176080412E-06	-3.04208258821553E-06	-5.25010896387729E-06	0.961095531107213	-0.25064198489836
10.8	-0.483542928187571	0.854071831245885	2.43891821338369E-06	5.2203811085318E-06	-3.6091871486141E-06	-2.03630451824804E-07	0.961526927707305	-0.253425467589832
10.9	-0.372311458092779	0.90842216009229	-5.53322983215807E-06	4.84528730780648E-07	1.59083988360379E-06	4.00968235431843E-06	0.960970335396609	-0.256081469877967
11	-0.252817048631861	0.947081506970703	2.04493824492816E-10	-5.19345379263835E-06	-8.3332694046663E-06	2.22426950502679E-06	0.96033585281766	-0.257657760883903
11.1	-0.133180973523035	0.969539597908925	6.2753900734488E-06	4.07010030523339E-06	-1.89769611278129E-06	1.07026658346438E-05	0.959830873261095	-0.259831609860347
11.2	-0.0115028382371878	0.978884570630413	1.57055182058066E-06	1.34929729144654E-06	5.1091068096486E-06	8.86250058562605E-06	0.958749892247489	-0.262012731534905
11.3	0.110889734192648	0.972515825339589	-4.59681476572743E-07	-1.72975160709382E-06	-6.94195981973719E-07	-4.37606883766653E-06	0.957795517747736	-0.264499914166807
11.4	0.231508435361445	0.951308934832379	2.29481775728954E-07	1.18074725677599E-05	2.41470347825626E-06	4.90599099155936E-06	0.955287629580842	-0.26802218394799
11.5	0.34917968866066	0.915462290305337	6.15543341865623E-06	-3.25699694228222E-07	3.13776931426686E-07	-1.87028540812089E-06	0.952534073337083	-0.268087757053153
11.6	0.460283890299031	0.864754477327997	-5.97088525482221E-06	3.04846774018725E-06	-4.84179171975576E-06	1.89953926028703E-06	0.952987618100733	-0.271090338452323
11.7	0.563740315731379	0.801362747167405	3.30971688808417E-06	-1.7821593731071E-06	-1.69926396843094E-06	2.22248198036069E-06	0.951308218895383	-0.275080171491224
11.8	0.658510029660941	0.725209475633211	-8.24438014801538E-07	9.73323131210164E-06	-2.7089633662112E-06	1.0471437974213E-05	0.948710798994519	-0.278040274919439
11.9	0.741558791300848	0.637988289537294	-7.23534933760485E-06	-1.04132833445602E-06	-3.89867710811072E-06	1.11516540325073E-05	0.946124858837627	-0.277329380600506
12	0.816447327955514	0.544821762803551	-6.48210576367631E-07	1.36947179766934E-06	-3.10563382231918E-06	-1.93041376821179E-06	0.949752667244143	-0.274660435702999
12.1	0.880997415662352	0.436406246262116	-3.88166219260474E-06	4.94421687065612E-06	-1.37078348821553E-06	8.36581313556841E-06	0.951645565507964	-0.278606776846503
12.2	0.927740360331346	0.321797514132939	-5.5183008397514E-07	-3.78168578500597E-06	-3.0935357863376E-06	-7.45141779172465E-07	0.951625460124827	-0.281171751971781
12.3	0.960272903543983	0.204430102239346	3.55718710815632E-06	3.44539914349891E-06	-3.468164721073E-06	6.21640537520892E-06	0.951855996395589	-0.283587362759407
