# GHZ S RI R 50
0.2	-0.966857660714351	0.251058939011019	8.82697399454601E-06	5.33073966757949E-06	1.13944878160674E-06	-2.89135563125067E-06	1.0005518601905	-0.00636666247487523
0.3	-0.927801488722268	0.370896673478166	-7.67028629137975E-06	-8.25713889987004E-07	-1.72814539556592E-08	3.66360121455702E-06	1.00070076144295	-0.00930975731970835
0.4	-0.873603841592359	0.484902788864996	-2.20694647291473E-06	6.34759596943439E-06	2.91956343869701E-06	5.7477584825018E-06	1.001045435885	-0.0119849817138807
0.5	-0.805408911116262	0.591849848930588	-2.654528481954E-06	5.49722499014361E-07	1.05413526517059E-05	4.89632773818956E-06	1.00118709634009	-0.0159180924417936
0.6	-0.723694731571749	0.688311919169049	-1.7278036871279E-06	-1.81572016148445E-08	4.16848609295617E-06	-1.03515900008319E-05	1.000371967344	-0.0188707778951616
0.7	-0.631313140973045	0.773889191762787	-2.05022939057425E-06	9.89394594148145E-07	3.78688334821865E-06	1.11774827752015E-05	1.0000279736951	-0.0213347550313804
0.8	-0.52872945962317	0.847446655113041	-5.61572927810332E-06	3.78676706153004E-06	-3.17257636414224E-06	-2.14342455911597E-06	1.00001516618331	-0.0232537118085147
0.9	-0.417843468740044	0.907296391958951	-6.71713165987003E-07	5.25920092268519E-06	3.27220513581877E-06	-2.94101117710768E-07	1.00021024789923	-0.0253391433940315
1	-0.299845287254795	0.952769811808121	1.57225308181669E-05	-3.68568915670909E-06	-9.62007567065998E-06	5.22462591096047E-07	1.00095153149764	-0.0268713096071876
1.1	-0.177950600013611	0.982778684169266	1.34595245510148E-06	-2.99021175410516E-06	9.42136556587599E-06	1.26319377254699E-05	1.00082832040509	-0.0300134929773447
1.2	-0.0523295221234893	0.997224985810775	-7.93031419998024E-06	-3.2644124086482E-06	-3.10751984973471E-06	-4.48903664044391E-06	0.999717834837291	-0.0313590058761289
1.3	0.0743334698821757	0.995581276275166	1.81968107509574E-07	3.34196724082457E-06	1.93403135699193E-06	3.40172093017479E-07	0.999444664603587	-0.0325786026566
1.4	0.199372111048933	0.977705142998909	2.79191242337412E-08	3.77467826939096E-06	-2.54052134979406E-06	-5.62209626868067E-06	0.998680041462382	-0.034791080599673
1.5	0.321243834978017	0.944806642717537	3.19216185434136E-06	-2.72226862446297E-07	2.7103783461445E-06	2.09394009865482E-06	0.999317966407499	-0.0382712194051745
1.6	0.437583516520047	0.896571028267935	1.78653363674034E-06	-1.945552844899E-06	-9.00834256842554E-07	-3.06619803559994E-06	0.998438645311531	-0.0418156098680441
1.7	0.54649055233475	0.834177602625632	-9.15706443422294E-08	-3.52926026656934E-06	2.01614648826121E-06	4.92947593913169E-06	0.998919333464554	-0.0439717432400213
1.8	0.646503216828159	0.759095127987372	-2.06255203708517E-06	-1.81337794831398E-06	-4.61957062706534E-06	1.83471928061397E-05	0.998954714005368	-0.0464857134913188
1.9	0.735951676531082	0.672649597047319	-4.39571256373945E-06	-1.46606087174188E-06	-4.93474900525149E-06	-6.00703834081118E-06	0.999042454077238	-0.0480183101661961
2	0.815638810444072	0.576335601458886	-9.47706534350534E-08	-6.76126719455365E-07	-1.67250106798359E-06	-1.4226229292535E-06	1.00083732015787	-0.0506839107702671
2.1	0.882548338315564	0.466785300045495	-1.12815975874618E-06	9.48262584366545E-06	2.00065613092976E-06	-3.85122139976254E-07	1.00032423682757	-0.0553729096339948
2.2	0.933187026149224	0.351631344863146	-3.6984746106794E-08	-5.94462061252486E-06	-7.32167588216367E-07	2.74609913786696E-06	0.999241298889922	-0.0580130655990319
2.3	0.969186810915345	0.231499147703683	-1.31120822410674E-06	2.77501077036104E-06	-2.41068371447753E-07	1.19992410197262E-05	0.998480772484441	-0.0597744145254401
2.4	0.990014327993309	0.107212761663063	-5.89401996187023E-06	-3.69841981940001E-06	-1.75855023528632E-05	1.46016744285643E-05	0.998151709899756	-0.0627501865670335
2.5	0.995889123337041	-0.0178165066743401	1.8126046716335E-06	-2.97121873661953E-06	-1.77167706640895E-06	7.56117210195523E-06	0.997845999327081	-0.0650059534339877
2.6	0.985722008879056	-0.141925721334114	2.86744343691167E-06	9.14760425719186E-07	-1.74481659007948E-06	4.51144391589812E-06	0.997521294758362	-0.0680564507487056
2.7	0.960145469439419	-0.26434061473558	3.85070880134003E-06	1.04577697159586E-05	2.33475631529823E-06	3.87115531204416E-06	0.997151830175219	-0.0710672278647827
2.8	0.919254588205241	-0.383028885946199	-8.20784626326159E-07	-2.29623416625553E-06	2.15486788402133E-07	-1.89283691104649E-06	0.997247690102246	-0.0733535382041028
2.9	0.863820324421635	-0.49502115418187	3.752568323205E-06	-8.34754595213295E-06	-1.31697103727222E-06	-1.425549284511E-05	0.99674921338467	-0.0755768019416896
3	0.794994687170285	-0.599442827903005	8.03929881349301E-09	6.66437391865024E-06	-1.47873218777484E-05	5.36075286697183E-06	0.996555808421921	-0.0782081930472157
3.1	0.714437592468043	-0.693789160113165	-4.96846162239412E-06	7.85877326396259E-06	5.82167295296512E-06	-1.05654687173674E-07	0.996023664317853	-0.080550961388874
3.2	0.6206125003528	-0.778158484202956	9.70602302353153E-07	2.12622667390328E-06	-4.56830246376485E-06	4.97204341294545E-07	0.995432142609923	-0.0825266696946385
3.3	0.517141874321794	-0.849711612807091	7.14057880455889E-07	-1.46506425650829E-06	-4.58525828962213E-06	7.52922970527564E-07	0.994740881207809	-0.0860352147964377
3.4	0.405056646772979	-0.906606637018866	6.47444178337041E-06	2.03659938231469E-07	-8.17514718696465E-06	-7.14503774257704E-06	0.993911265968422	-0.0881350770908505
3.5	0.289456601195289	-0.948902438207152	-7.68438772053563E-06	1.98866884650163E-06	-5.92690866336175E-06	-7.95297304678073E-06	0.993358157768435	-0.090042493339998
3.6	0.166863579079319	-0.979624693969039	-8.71370195002788E-07	-4.37937890253935E-06	-7.8383757053033E-06	-6.30736698163595E-06	0.993420908572447	-0.0927962509132833
3.7	0.0406854910641226	-0.992823324818874	-6.74296622370087E-06	-6.74428993112176E-06	5.09254092231646E-07	-4.76662949384324E-06	0.992778895471403	-0.0956623721875408
3.8	-0.0855740013339447	-0.988962441440928	-3.63781973064586E-06	1.09761230823173E-06	-3.30555761854964E-06	-2.45102535800457E-06	0.991879933245973	-0.0974274677410553
3.9	-0.208729181930057	-0.969172205222726	-4.66476812100815E-07	3.5071517699153E-06	2.04762208227204E-06	-1.22594141666839E-06	0.991783459043941	-0.0995982726226709
4	-0.328141311447338	-0.935529944352695	1.17144161480729E-05	8.07655831185152E-06	7.25290120705786E-06	-4.06999029888357E-06	0.993562070606674	-0.100988823316726
4.1	-0.443137043168337	-0.88709509904391	5.22194329965092E-06	1.29697281453283E-06	-3.42339350294724E-06	6.66618162357286E-06	0.992634778655505	-0.105122675996901
4.2	-0.550696264781106	-0.824711659417129	-7.09493365146791E-06	-1.16647684363741E-06	-8.25600804867701E-06	-2.36130141774687E-09	0.990790113765948	-0.107771343924275
4.3	-0.649712807526439	-0.748923464785814	6.90772060597062E-07	-2.36737763622165E-06	5.20863767353895E-06	8.560211781645E-07	0.990053410760893	-0.1094647749978
4.4	-0.738595050368954	-0.660931329014606	4.45792487946222E-06	-1.79031724342525E-06	-8.61128363587337E-07	1.348158405323E-06	0.989337787545661	-0.111592205920686
4.5	-0.815638794371268	-0.561742673365404	6.77973914550114E-06	1.83075234724597E-06	-8.18612989863752E-07	-3.24656196669064E-06	0.988976751800885	-0.114194899579776
4.6	-0.879097463873784	-0.454417568022459	2.46129217995639E-06	2.93097190084063E-06	-6.52318165058193E-06	9.74552909459813E-06	0.987325345573593	-0.116722763425614
4.7	-0.929078863577782	-0.339410750567838	-1.39787416386075E-05	5.95208803583166E-06	-3.45026512090017E-06	-2.06323683184773E-08	0.986782066345734	-0.118092177110991
4.8	-0.964296907660044	-0.219235793008503	-3.16905647275889E-06	-5.11256328680047E-06	-5.49517415385232E-06	2.37716090207987E-06	0.986183494689888	-0.120145009580858
4.9	-0.983533992081468	-0.0952268189551774	-1.05024081533319E-06	-8.51555942316331E-06	-4.20226128461247E-06	7.53420357398861E-07	0.985575718866892	-0.121620571565721
5	-0.98478606334038	0.028636538043972	7.50617035837469E-06	-1.59066315656654E-06	-1.75353570893473E-06	-2.70130336594265E-06	0.985184282808839	-0.122963906105417
5.1	-0.973810891162736	0.150435058589048	-2.60257670966195E-06	-6.35464383758393E-06	-1.00806216549861E-06	-1.94057567048774E-06	0.984812397947734	-0.124013182309165
5.2	-0.948349985582256	0.271786311258346	3.97695205405832E-06	-4.42479645132855E-07	-5.3994012738487E-06	6.28791747089703E-06	0.984440434219408	-0.12575433002645
5.3	-0.906998925964386	0.38918759194188	5.12628690667622E-06	5.96728352010099E-06	-9.6301714849595E-07	-3.56659915361683E-06	0.984170144587378	-0.127781912458849
5.4	-0.850776362093667	0.500082909477895	3.04214612108103E-06	-2.01200054914771E-06	-1.12501429878202E-05	2.2113360247172E-06	0.983722138802327	-0.130393995443128
5.5	-0.780784109289256	0.602030655176349	-4.32369593255082E-07	-2.18137694312673E-06	-5.74723985371904E-06	6.09743092656907E-06	0.983449525692496	-0.132184516004097
5.6	-0.699192980945754	0.694508984659739	2.37367004601418E-06	7.26298887473991E-06	-5.32506254990742E-07	2.91409794731154E-06	0.98354653818589	-0.134852432595473
5.7	-0.606803849510047	0.776774595153725	-2.55589269947338E-06	2.34986873248899E-06	7.87009122838572E-06	2.75824246387036E-06	0.982815823398886	-0.136973438451407
5.8	-0.504562570730236	0.84614732885738	-4.6208273591609E-06	5.07541013162996E-06	-3.63723243516808E-07	3.40269732003436E-06	0.982370430327629	-0.138308040628638
5.9	-0.395364213370987	0.902503509359898	6.31866178874279E-06	1.49837256877446E-06	-2.69888320717367E-06	2.52862991513717E-06	0.982523396420591	-0.138802523953938
6	-0.279788088267353	0.946497842187096	3.50475514257285E-06	3.29634491902187E-06	-3.24041487648425E-07	-1.43004033928207E-06	0.985733805982584	-0.140347098530568
6.1	-0.157619358444267	0.973494059114116	9.14805621754653E-06	1.51909906625816E-06	-1.27263592427056E-07	-1.80300985164794E-06	0.985260666344705	-0.144581504214724
6.2	-0.03444398428159	0.984646163666546	2.43000536979315E-06	-1.72360977428541E-06	1.47408280562629E-06	-4.82679414189203E-06	0.983890352118955	-0.146057142317889
6.3	0.0888301466799016	0.981089598341437	-4.34400149330881E-06	4.22692213960682E-06	-6.122589022235E-07	-1.71849477894957E-06	0.983144347438582	-0.147679445168558
6.4	0.210982377836725	0.963301276779178	-4.25140900826017E-06	1.06449487524002E-06	-1.75975594395771E-06	8.81377897406707E-06	0.983091557245837	-0.149325531505789
6.5	0.333050503444373	0.92894010588477	2.44126707632135E-06	-1.33051435206408E-06	1.47731536771559E-06	-2.9221070564475E-06	0.983000181053381	-0.153759741575163
6.6	0.445026774128125	0.877275771362582	-4.70596763457867E-06	-2.23746501580818E-06	-1.85729968725467E-06	-6.59587660937884E-06	0.980129983435733	-0.155578481573378
6.7	0.549863915273223	0.815167564749545	4.13475088306827E-06	-6.51935562527115E-07	-4.64479535983027E-06	9.99163796331862E-07	0.979756050017103	-0.156143158652985
6.8	0.646963676219554	0.740497092239096	3.73519447063421E-06	-2.05763649219161E-06	6.17285062616743E-06	-9.04041121621785E-07	0.979710246554014	-0.157422274032705
6.9	0.733962277853343	0.654487045387587	2.02874577179606E-06	1.63580493925158E-06	8.73005253914042E-06	-2.71028439596247E-06	0.979878692695739	-0.158486309723432
7	0.810418354445748	0.558334812361053	2.14335275789087E-06	4.08260800865376E-06	-1.15417323145461E-07	5.35213580974948E-06	0.981071743959105	-0.160230820506642
7.1	0.873710610435863	0.452524320812007	-1.38530947630662E-07	1.70819433907163E-06	8.23456152033224E-06	-4.5915680782373E-06	0.980082075729274	-0.16307161830822
7.2	0.922845839002998	0.339859944525233	4.82697452950285E-06	-1.36926533175631E-06	7.20537097841017E-06	3.78692396660579E-06	0.97876789638283	-0.164498377565496
7.3	0.957116450552095	0.221794914433398	4.83716903470114E-06	-1.08590589523245E-06	-7.27461231122218E-06	-7.36339745231295E-06	0.97712823330724	-0.165862112049298
7.4	0.975421831602457	0.100411587755634	-1.85750537630687E-06	9.81503940920055E-06	1.43541087015983E-06	-4.03375662917032E-06	0.974557147231907	-0.166864589694677
7.5	0.980106186029553	-0.0191326386891958	8.26663194183689E-07	8.04415722992521E-07	1.65032148488456E-06	9.95121038956411E-07	0.9747199072845	-0.164947099027829
7.6	0.972284457994987	-0.142690781241127	1.46596154497306E-06	-2.585075263691E-06	-5.3533627845114E-06	-3.64533962174824E-06	0.977157864373926	-0.168420494292284
7.7	0.946868015892437	-0.264210662061705	5.51818490313182E-06	2.43872941148024E-06	-6.88102454671788E-06	1.19177567862956E-05	0.977226595800256	-0.171768564680304
7.8	0.906846256094543	-0.380989217435703	-5.63632549926016E-07	-5.21822256127949E-06	3.75471259229956E-06	-4.67718012879496E-06	0.977631617059385	-0.174517088066711
7.9	0.853177669683956	-0.49104355935479	8.79421645730585E-06	1.61385346108104E-06	-9.40068351179675E-06	-8.69617529872053E-06	0.978625404464353	-0.176351607947221
8	0.789216940731908	-0.596687153801522	-6.63834702445292E-06	-1.70465005668657E-06	-1.20360804753114E-05	2.36145712103222E-06	0.983078017334398	-0.180075580890048
8.1	0.705945979940837	-0.69432918508723	5.07589706910558E-06	7.70032758776407E-07	2.8780065089038E-06	2.28618019652114E-06	0.982056302760157	-0.186715936988467
8.2	0.612328131745121	-0.777143487961416	3.5832221947603E-06	-2.55264591466786E-06	-3.60536964979664E-06	-1.16452491749001E-05	0.980614324282001	-0.189542040046437
8.3	0.509688821639472	-0.847672825972198	2.74087803049834E-06	-1.84115862517485E-06	1.6051167903259E-06	5.30510199289039E-06	0.979817835061068	-0.192144138003014
8.4	0.398953231967322	-0.904433668708124	-5.55012435143965E-06	-1.0517800323329E-06	1.0392032561931E-06	2.95897865013317E-06	0.979382325018542	-0.194694196366315
8.5	0.282771153124912	-0.946774728077277	-3.29534606845481E-06	1.60487565328584E-06	-4.76023604053184E-06	-5.02632016202979E-06	0.979078854346294	-0.198166315258681
8.6	0.161216883992208	-0.97564325663492	-8.14714041416195E-06	1.32817524164862E-06	-4.29151918046539E-06	-6.89022648823627E-06	0.97798497475232	-0.200761129944419
8.7	0.0363760468667459	-0.988652469600027	2.26358091304584E-07	-2.13195647296374E-07	6.11952056504625E-06	5.54343363029054E-07	0.97775725955198	-0.202860233231463
8.8	-0.0895898798007849	-0.985809217202196	1.03996996794855E-06	-1.81443139050124E-06	-2.38613185535021E-06	-1.30055030839754E-06	0.977806706396789	-0.204899151531072
8.9	-0.21489677941404	-0.966791873285466	-3.22891186561783E-07	3.04364886721598E-06	-1.22717148971302E-06	-1.65574453113667E-06	0.97821553875332	-0.206819866917042
9	-0.333738668498675	-0.929144405246608	2.97732707483682E-06	1.60966043681255E-06	-1.59224347526823E-06	2.11207009001864E-06	0.978743535447637	-0.208758696827901
9.1	-0.445999520287611	-0.881469046812561	-9.35898261439862E-06	2.21053887986326E-06	-1.58561050734248E-06	2.40730111737983E-06	0.979615117871485	-0.211057911041488
9.2	-0.553433069468464	-0.819066557558046	7.53757721852768E-06	-1.86024794211403E-07	-9.15733054693484E-06	1.91775728814618E-06	0.980021870690085	-0.214334394522271
9.3	-0.65164454702697	-0.743528650947702	1.19936474258412E-07	-7.19300555395024E-06	1.60104420870608E-06	-1.29622099845089E-06	0.979846367245453	-0.217835864803856
9.4	-0.739066375059442	-0.655712431952389	5.87890869434925E-07	2.4949444682646E-06	1.64198457305922E-06	-3.60080695164667E-06	0.97846531420479	-0.221214786002578
9.5	-0.81342712347015	-0.56056860490265	-2.9290441044344E-06	6.64353845623675E-06	4.7482475980789E-06	-1.33785868395443E-06	0.978191458098441	-0.222841354983131
9.6	-0.880415379208001	-0.455040272109455	-5.01370215615171E-06	-5.26645006570482E-06	4.76526066173947E-06	2.93003359275126E-06	0.97856067996628	-0.227017616160572
9.7	-0.931823403522359	-0.339279616425195	-1.98192523166243E-06	-5.11442618867592E-06	2.10859851296161E-06	2.32565164920871E-08	0.977674643122014	-0.230250605681787
9.8	-0.968011310139823	-0.21774724212505	6.21194290513705E-07	-4.30642670767716E-06	-2.94346007430085E-06	-2.54917465727201E-06	0.976993407832811	-0.232284876644473
9.9	-0.988416365904721	-0.0921754632984941	-6.17856276851707E-06	4.19725923033838E-06	-3.11393088810518E-06	1.65615821349335E-06	0.976918329078642	-0.232735425103488
10	-0.992108589268751	0.0345346456534837	3.6039507707595E-06	-2.18197570888764E-08	8.2391330432494E-06	1.12483175394106E-05	0.980717220298961	-0.235355374730263
10.1	-0.979792134471638	0.160000022073717	-2.87527035310996E-06	-2.55489300851292E-06	-2.01907872702696E-06	-2.52696982537356E-06	0.978799702554161	-0.240660037431014
10.2	-0.952080614985936	0.283266959483877	2.37963494773159E-06	-1.02355975171315E-06	-2.78912834582657E-06	-1.08323540462953E-06	0.977034347543807	-0.242294286280782
10.3	-0.909285317434729	0.402243044686149	7.84146828238242E-06	-5.98345421164059E-06	3.87403097238481E-06	8.31174531964627E-06	0.97599408019094	-0.244066025517752
10.4	-0.852716796804408	0.516162428713219	1.72142617168951E-06	2.55931178637766E-07	6.33756931615878E-06	-1.18775816481453E-06	0.975325744776024	-0.246187605678152
10.5	-0.7779190047682	0.623591820122885	8.41951144920399E-06	-4.18652804923907E-06	-4.96710862243173E-07	1.99043730650068E-06	0.974448861265814	-0.250115876551694
10.6	-0.690872887427131	0.714362100444783	8.99419903555161E-06	-1.28396460057299E-06	-1.47712785466342E-06	1.37325311396743E-05	0.972568543828797	-0.252205796851507
10.7	-0.595087148420979	0.794328920478811	8.06802540262073E-06	-1.91668951574388E-06	-3.0742809237064E-06	-5.31484373900467E-06	0.97249479486885	-0.25473230863818
10.8	-0.489608287643962	0.86239001523929	2.46995371535803E-06	5.28152774357412E-06	-3.65219522682807E-06	-2.04651750351972E-07	0.972221882413964	-0.257659926396984
10.9	-0.375286460691444	0.917406779254497	-5.59429058304138E-06	4.96348778832363E-07	1.61321207384212E-06	4.05249105512858E-06	0.971643318999622	-0.260302760792154
11	-0.254541710959765	0.95474562362887	-2.79043417108935E-09	-5.25168666498247E-06	-8.42542437940502E-06	2.25401887706147E-06	0.971273593222389	-0.262366231204881
11.1	-0.133709627427197	0.978341950824103	6.35855822903511E-06	4.10770700415322E-06	-1.90098160397703E-06	1.08352674997019E-05	0.970573428892692	-0.264970396684991
11.2	-0.00983190660116442	0.987550163560911	1.59290940680091E-06	1.36022453896397E-06	5.19540667010359E-06	8.95006753229826E-06	0.969335802876903	-0.267552831342945
11.3	0.114349221207369	0.980677769686725	-4.71490547662083E-07	-1.74660714548479E-06	-7.19010843434127E-07	-4.42056662471086E-06	0.9677750698118	-0.270142003466668
11.4	0.236449913049349	0.958861879729866	2.80903799116313E-07	1.19179240465646E-05	2.45795341436943E-06	4.94220789513418E-06	0.965036220626477	-0.272888266301171
11.5	0.355812967523674	0.922106045220326	6.21431381756042E-06	-3.46798023659136E-07	3.1137806563366E-07	-1.88937823581468E-06	0.964633228364224	-0.273548711679791
11.6	0.468203547583815	0.870037715765908	-6.0204101186072E-06	3.10482332421894E-06	-4.88431439527326E-06	1.93928335327144E-06	0.964408340129415	-0.278709212410023
11.7	0.572659943185984	0.805492261357396	3.33395753695943E-06	-1.81580604697631E-06	-1.70540258945362E-06	2.25272897382425E-06	0.962163249902131	-0.283119520579937
11.8	0.66839499257665	0.728510138099922	-7.87075975342515E-07	9.83188389159728E-06	-2.68651501294336E-06	1.05860699458879E-05	0.959830256097576	-0.286295758323615
11.9	0.753885958496527	0.64133084808799	-7.32274139179057E-06	-1.02446227750622E-06	-3.89907025717658E-06	1.12954937583314E-05	0.959099987674511	-0.286429687901186
12	0.833664035979814	0.543197580109259	-6.46729112268451E-07	1.39419398837196E-06	-3.16531886322339E-06	-1.93365202187746E-06	0.962894308248178	-0.289475758793442
12.1	0.896405959764354	0.429317216750863	-3.87868097132621E-06	5.04827423257657E-06	-1.29959068518549E-06	8.48681604811493E-06	0.960631185665069	-0.294658444220226
12.2	0.941726381932144	0.311401386683878	-6.05830863545485E-07	-3.82016916425292E-06	-3.14000666182771E-06	-7.15331332265113E-07	0.958852635056479	-0.297420339549281
12.3	0.972202163509329	0.190526611985224	3.64600711820388E-06	3.42924825136591E-06	-3.41284355241617E-06	6.33378790877298E-06	0.957356434945099	-0.300401484851581
