# GHZ S RI R 50
0.2	-0.965382282228782	0.251823177353165	8.82020388182504E-06	5.31430567473049E-06	1.13490647511445E-06	-2.88851627046901E-06	0.999033350136679	-0.0072600525674373
0.3	-0.925654216443924	0.371616452056582	-7.65692275466749E-06	-8.14818448773675E-07	-1.27838994470088E-08	3.6567586963726E-06	0.998766059202532	-0.0102231319101352
0.4	-0.870585050695542	0.485157302860536	-2.19245165768726E-06	6.33377939132592E-06	2.91965479000676E-06	5.72854892749895E-06	0.998412228631887	-0.0129582757587344
0.5	-0.802154829208638	0.590549994249102	-2.6447776972248E-06	5.48583529678119E-07	1.05048826122838E-05	4.87531264575102E-06	0.997722618817508	-0.0155888979417734
0.6	-0.721257562976071	0.686797638243367	-1.72313250882431E-06	-1.839576720816E-08	4.15894693500965E-06	-1.03229283046369E-05	0.998256893672671	-0.0181726465609878
0.7	-0.628694943795716	0.772109567397702	-2.04436211869773E-06	9.87201782545621E-07	3.77933178657866E-06	1.11459014882778E-05	0.997960995125088	-0.0213264964082778
0.8	-0.52613441618172	0.844997507449452	-5.59743697715008E-06	3.77720324750217E-06	-3.16369490726433E-06	-2.13585684302058E-06	0.997669711646908	-0.0235555270253126
0.9	-0.415538706508607	0.904173913100054	-6.67203022079228E-07	5.242927051524E-06	3.26175582101066E-06	-2.9466261171899E-07	0.997608541312507	-0.0261294546525078
1	-0.297954616602205	0.948992013160565	1.56575747711406E-05	-3.68763996308315E-06	-9.58212575589317E-06	5.30393972428584E-07	0.996768486392058	-0.0281427447185609
1.1	-0.176800893826826	0.978426595793013	1.33911307375805E-06	-2.97599750166367E-06	9.37760989985632E-06	1.25700368192206E-05	0.996192099693525	-0.0295930229979792
1.2	-0.0520680210961312	0.992512320931429	-7.89066388577772E-06	-3.25382955191769E-06	-3.08999651432418E-06	-4.46965849816508E-06	0.995630067388556	-0.0305054477294016
1.3	0.0733475025563508	0.990781663953034	1.7615430610811E-07	3.32678882385163E-06	1.92458460838632E-06	3.41477250476556E-07	0.99571434164528	-0.0312251739204044
1.4	0.197199271024976	0.97335543255715	1.86490941368852E-08	3.759293420037E-06	-2.51648433092326E-06	-5.6052430477345E-06	0.995673170039764	-0.0330458748210597
1.5	0.317843641442464	0.940808411707097	3.17986339855796E-06	-2.62160719766499E-07	2.69341551057042E-06	2.09297306942214E-06	0.995893208342717	-0.0363278824985804
1.6	0.433529693340721	0.893840150107116	1.78705950015793E-06	-1.93244514210147E-06	-8.86921763620705E-07	-3.05855909658473E-06	0.995677856271415	-0.0392586838396663
1.7	0.542355416608773	0.832083956356558	-7.97753640962601E-08	-3.5185772545563E-06	1.99379601874834E-06	4.92071283238657E-06	0.996207332538435	-0.0418293276263825
1.8	0.642361740975958	0.757563290545811	-2.05136544230407E-06	-1.81430297227194E-06	-4.66045239547195E-06	1.82815548367425E-05	0.996158446252495	-0.0446652704636508
1.9	0.732313660688474	0.670954691350764	-4.38246838331693E-06	-1.47002560155939E-06	-4.91239705111017E-06	-6.00084502677823E-06	0.995971108681597	-0.0474725477848837
2	0.809653986894805	0.573138384307827	-9.42164133988536E-08	-6.72435700262472E-07	-1.66328213084535E-06	-1.4149355445847E-06	0.993832454751884	-0.0504185690048325
2.1	0.874753267750639	0.467411703463419	-1.15478139915023E-06	9.41589552546626E-06	1.98881671098962E-06	-3.75386774437742E-07	0.993572790600333	-0.0508402608163902
2.2	0.92675881237778	0.35426980313627	-9.31396325695393E-09	-5.91358744259766E-06	-7.4101709290548E-07	2.72830033873654E-06	0.994299695899525	-0.0528726397758742
2.3	0.963886397217703	0.235061357702938	-1.31872464041231E-06	2.75582788861864E-06	-2.98567486397921E-07	1.1942809282329E-05	0.994408675150028	-0.0546668675718308
2.4	0.985666348086327	0.111256012146473	-5.84926564107805E-06	-3.71517673454848E-06	-1.75919071852411E-05	1.44448240894421E-05	0.994637279782862	-0.0578711065550076
2.5	0.991945835953431	-0.0132835365505231	1.82523239488652E-06	-2.95342470767772E-06	-1.8108436432994E-06	7.53225385311349E-06	0.994107883588985	-0.060270470436391
2.6	0.982591935988802	-0.13674392071782	2.85709075616793E-06	9.24360810766368E-07	-1.75921603749286E-06	4.49390759581257E-06	0.993986246743068	-0.0629094190648738
2.7	0.957496265319548	-0.258555455209718	3.79710692192361E-06	1.04375250901169E-05	2.31185303397835E-06	3.86719494267223E-06	0.993543438361905	-0.0656831842042053
2.8	0.917559859571991	-0.376237327283677	-8.07132436756214E-07	-2.2906687318358E-06	2.23142346795577E-07	-1.88423156444843E-06	0.993760516754122	-0.0673393281991012
2.9	0.863679019743831	-0.487663985479061	3.78115742498586E-06	-8.29251948416761E-06	-1.23567855444507E-06	-1.42025763580712E-05	0.993741000044766	-0.0691693762065026
3	0.796194667639751	-0.59205950740723	-3.17860909357082E-08	6.63806666037569E-06	-1.47608527599696E-05	5.25125649358086E-06	0.993769140011193	-0.0715928499463384
3.1	0.717295963587977	-0.686153147705537	-5.00110671190372E-06	7.79465484329292E-06	5.79936444472669E-06	-6.65057763828862E-08	0.993646960690409	-0.0733150039016716
3.2	0.625534635184079	-0.771134570588268	9.51165738620094E-07	2.12649811942568E-06	-4.55679458886959E-06	4.60760640730367E-07	0.99372014567795	-0.0748559283186909
3.3	0.524119988734181	-0.843969913773233	7.2487184082598E-07	-1.45544810730434E-06	-4.58070556590272E-06	7.11917308805878E-07	0.993974717219154	-0.0779138564586909
3.4	0.413939992478585	-0.903801511022094	6.46973669879432E-06	2.64806066212328E-07	-8.10406243727786E-06	-7.2192893492939E-06	0.994740699427393	-0.0799929553973634
3.5	0.295581624568698	-0.949565194565293	-7.71454449339987E-06	1.93794936144518E-06	-5.8824524877049E-06	-8.01179844212324E-06	0.994745570986469	-0.083774019950827
3.6	0.17275262422023	-0.978055683321284	-8.44756512186204E-07	-4.38525337820344E-06	-7.80088297268998E-06	-6.35600183913726E-06	0.99394773688593	-0.0859120358245414
3.7	0.0484578105861859	-0.992575759824405	-6.69621869049692E-06	-6.79363360313506E-06	5.433126765494E-07	-4.76392212892942E-06	0.994322759607904	-0.0882912733499066
3.8	-0.0774637253715978	-0.991065865612902	-3.64961391643517E-06	1.07210020087589E-06	-3.29101705763767E-06	-2.47776656506303E-06	0.994589117154562	-0.090564498506899
3.9	-0.201729574799114	-0.97344957456497	-4.89764134928608E-07	3.50935688503306E-06	2.05856203549495E-06	-1.21457120442186E-06	0.995010833027905	-0.094735722464367
4	-0.322611141947084	-0.939976132105213	1.16552550774331E-05	8.15223183716696E-06	7.27739489431736E-06	-4.01947024857132E-06	0.992958368849843	-0.0968189000481762
4.1	-0.437465485203953	-0.892580943140328	5.2157685394188E-06	1.34456451816733E-06	-3.48594777495355E-06	6.64263559771649E-06	0.992811412873027	-0.097037768559585
4.2	-0.546102409525359	-0.831510145113003	-7.10255597718637E-06	-1.23000763639425E-06	-8.27645864542447E-06	-7.29290631321132E-08	0.993031639892105	-0.0995481701207858
4.3	-0.646487368255143	-0.756487210446313	7.120609281092E-07	-2.36929242297996E-06	5.21820706759453E-06	9.00760481119095E-07	0.993287413434853	-0.101670089498297
4.4	-0.736595977976141	-0.668796800917126	4.48675821416273E-06	-1.76215043899602E-06	-8.74393507685819E-07	1.34610988540534E-06	0.992963116452968	-0.104227280900244
4.5	-0.814669183847965	-0.570478613330106	6.78950112820834E-06	1.89488439328591E-06	-7.94213730373072E-07	-3.26556877602814E-06	0.992874440748813	-0.105920435149027
4.6	-0.880256901363945	-0.463204441123321	2.45090154804007E-06	2.96635843738652E-06	-6.63618510123879E-06	9.74516949792148E-06	0.993411918047981	-0.108667992197497
4.7	-0.931576119101559	-0.347674670562656	-1.41023014944437E-05	5.88453372119805E-06	-3.46992164064915E-06	-4.58583130427508E-08	0.993673756836269	-0.11107384892458
4.8	-0.96774495642768	-0.227258310778618	-3.15171989408731E-06	-5.16501442901113E-06	-5.54430206506755E-06	2.35246255945088E-06	0.993534514960255	-0.113746848056659
4.9	-0.98804612274586	-0.104266759948305	-9.91877476638779E-07	-8.57677843882651E-06	-4.23426452191568E-06	7.26088570868028E-07	0.993579438046868	-0.115734934210316
5	-0.994909672193002	0.0198910085559121	7.58543829465342E-06	-1.5468996828506E-06	-1.74832636721151E-06	-2.73894989352277E-06	0.993799044224045	-0.117779758434797
5.1	-0.984394393540635	0.147205372965243	-2.59380276808095E-06	-6.42796480579231E-06	-1.00738697416533E-06	-1.96408168155891E-06	0.994055122463637	-0.119495343528293
5.2	-0.958075345862722	0.269979368159661	4.0152700013541E-06	-4.2808768414394E-07	-5.4777759581563E-06	6.32024195296141E-06	0.994178022169275	-0.122144157171148
5.3	-0.917118188451543	0.388710928734475	5.14913789840157E-06	6.04589738002905E-06	-9.56773164469951E-07	-3.60453430034828E-06	0.994193139484568	-0.124927065742507
5.4	-0.861306193912453	0.50176895696974	3.08117272960297E-06	-2.02145125981653E-06	-1.13749024076441E-05	2.19214127628322E-06	0.994542923922728	-0.128301930171382
5.5	-0.79048829141655	0.606537329063183	-4.33222542907437E-07	-2.2055957740902E-06	-5.81968221648929E-06	6.15301640453687E-06	0.993991253157144	-0.13243420333782
5.6	-0.707172064644355	0.700484637785881	2.38754384157783E-06	7.3368072753475E-06	-5.41412698690335E-07	2.94182220494604E-06	0.993018160933491	-0.134734796230769
5.7	-0.613425991155725	0.783984587276582	-2.58405664155503E-06	2.37073141407985E-06	7.94615270914314E-06	2.79432624360779E-06	0.993133524324651	-0.137151580940601
5.8	-0.509504699094053	0.85481009182011	-4.67076728430892E-06	5.12916245745486E-06	-3.67978381804988E-07	3.43902952538488E-06	0.993447748575468	-0.139927551956207
5.9	-0.397175127392693	0.91237855933386	6.39198253682352E-06	1.49889529582983E-06	-2.72219396646394E-06	2.56327624800098E-06	0.993268100008946	-0.143805616369068
6	-0.278519130170852	0.95334045408144	3.54275525709929E-06	3.30145047334132E-06	-3.32773969056484E-07	-1.43780431580201E-06	0.990168907046472	-0.146362922677687
6.1	-0.157793809687408	0.979901870774448	9.2010150160418E-06	1.51534144285972E-06	-1.30379588748113E-07	-1.81287790641393E-06	0.989961340792208	-0.145860864787527
6.2	-0.0334460860558788	0.991801238719954	2.44347016853186E-06	-1.73754263158741E-06	1.47771418855781E-06	-4.85941584390434E-06	0.990052876280774	-0.147290807481681
6.3	0.0916827978851909	0.987950591793384	-4.36396320140435E-06	4.26109175112446E-06	-6.19107583879915E-07	-1.72823977732803E-06	0.989664509509218	-0.149420932376976
6.4	0.215139379284692	0.967657063635968	-4.27004946039829E-06	1.07794937041165E-06	-1.75118626941046E-06	8.86013815299637E-06	0.988859437150544	-0.151845862545537
6.5	0.332782238311622	0.933375868796947	2.45612519152856E-06	-1.33162247153229E-06	1.49097972791666E-06	-2.93311503591879E-06	0.988306506754029	-0.153143539322369
6.6	0.448469260982999	0.886180005272029	-4.74943505205013E-06	-2.26477353020039E-06	-1.86787868377312E-06	-6.66254848373267E-06	0.990000580995897	-0.156138993954022
6.7	0.556896760088459	0.822523303172937	4.17766415870344E-06	-6.64728791759113E-07	-4.69262274863959E-06	1.01636409437478E-06	0.989962113928533	-0.159679987167872
6.8	0.655888861232802	0.745951974970555	3.76917972401966E-06	-2.09128448602234E-06	6.23666878053072E-06	-9.3271795322738E-07	0.989461064387967	-0.162659179004706
6.9	0.744431836753569	0.657540931329625	2.05927768429061E-06	1.64383927080764E-06	8.81313986877411E-06	-2.78349450259119E-06	0.989025020631769	-0.165626571619628
7	0.820367393566726	0.558385865879164	2.19272440155091E-06	4.10329555290066E-06	-7.6872592956614E-08	5.40088794104581E-06	0.987215670756377	-0.167865031580253
7.1	0.883329124354539	0.452009090045193	-1.29278399453795E-07	1.72154200262638E-06	8.26729292724058E-06	-4.6747036392562E-06	0.98675028704528	-0.168729417395532
7.2	0.932965983485197	0.338055522050236	4.85655252756347E-06	-1.40546890322565E-06	7.28061841436929E-06	3.77743213564498E-06	0.986584770979633	-0.170443426261407
7.3	0.967831436993893	0.21876756753376	4.87269593038853E-06	-1.11710110958976E-06	-7.36915474267686E-06	-7.39178797301903E-06	0.986188141762601	-0.172203376512785
7.4	0.988681984919623	0.0952171233458495	-1.84250086013538E-06	9.93755767081824E-06	1.43715521109891E-06	-4.08663330111698E-06	0.986760087922449	-0.175156568856861
7.5	0.992487043577017	-0.0328733835532042	8.47989498684136E-07	8.08460370041392E-07	1.68655591595485E-06	9.93608544085672E-07	0.985482161972261	-0.180844732595111
7.6	0.978200420491309	-0.157317666000909	1.44727925276136E-06	-2.63237902667131E-06	-5.45944187509062E-06	-3.61320025808784E-06	0.9827702042669	-0.183321443809452
7.7	0.950326791276395	-0.279434887879535	5.60451231041785E-06	2.38650170623306E-06	-6.78370341641706E-06	1.21263161736525E-05	0.982238931069305	-0.186440756476878
7.8	0.907306197179292	-0.397479232890242	-6.48268656375868E-07	-5.25494476788266E-06	3.71586118358423E-06	-4.77519023513705E-06	0.981871493096296	-0.190220354734618
7.9	0.848625295196219	-0.509337379659843	8.8832595987931E-06	1.46148174265527E-06	-9.62524556594904E-06	-8.58013610559368E-06	0.980738832663378	-0.194904228089686
8	0.774430520989949	-0.609457267377774	-6.65673824909741E-06	-1.56725516183625E-06	-1.19599230581965E-05	2.59755570829351E-06	0.976241946042277	-0.197720394074742
8.1	0.694628241142321	-0.699027704067714	5.06302517699364E-06	7.01049160745693E-07	2.89458372521831E-06	2.23875454834237E-06	0.975995489891031	-0.197271126411976
8.2	0.602932475276465	-0.780983890046238	3.54322016112257E-06	-2.58331017757408E-06	-3.7207933960324E-06	-1.15666177972086E-05	0.976351299642219	-0.19939104197241
8.3	0.500573688809467	-0.850704281404144	2.713262828503E-06	-1.86292829222547E-06	1.65364990516843E-06	5.27150430732522E-06	0.975738487825907	-0.202072184951063
8.4	0.389875736954804	-0.907012660119561	-5.54142092868541E-06	-9.99594806666041E-07	1.06185116723957E-06	2.94027548015651E-06	0.97459151292905	-0.204646372756336
8.5	0.27143303897419	-0.948297602437773	-3.27816794571318E-06	1.63232214221997E-06	-4.79993787115934E-06	-4.97980668338116E-06	0.9735910889721	-0.20648270384701
8.6	0.150174461877463	-0.973182650193582	-8.11548271977668E-06	1.41579760359501E-06	-4.35904229266285E-06	-6.82830547288481E-06	0.97375361711297	-0.208941345802729
8.7	0.0270025058917069	-0.983904845555603	2.23083087335535E-07	-2.14866746327291E-07	6.10132231066984E-06	4.840052977096E-07	0.973293489730356	-0.211673574987862
8.8	-0.0966517573192661	-0.979195258148321	1.01487731460157E-06	-1.81492797556713E-06	-2.38607850575065E-06	-1.26793785253465E-06	0.97273781555625	-0.213955789812672
8.9	-0.217812331589855	-0.96027103570759	-2.94922021233723E-07	3.02316190801697E-06	-1.23169696436695E-06	-1.63284262230348E-06	0.9725125564784	-0.216029708277256
9	-0.337479221535984	-0.927544337762527	2.97062619142425E-06	1.58413543823711E-06	-1.57173673714963E-06	2.10988033792095E-06	0.97204138662862	-0.218409438641918
9.1	-0.452181176988146	-0.876976166045618	-9.29671169965092E-06	2.26892404737785E-06	-1.56002339382166E-06	2.40721912145544E-06	0.971328213434007	-0.220346992508137
9.2	-0.558710279688563	-0.813058541188517	7.49484550346116E-06	-2.38659254051854E-07	-9.09337338733237E-06	1.97240876206642E-06	0.970555422695415	-0.222505068396942
9.3	-0.656323388910195	-0.736524847174267	7.1100113763988E-08	-7.1564590837817E-06	1.58404226567621E-06	-1.30022179007165E-06	0.970157530688867	-0.224433354867619
9.4	-0.744186519834996	-0.648603558800471	6.02686653167013E-07	2.48217317871996E-06	1.61185001328947E-06	-3.59921306174897E-06	0.970114018118671	-0.227154248423019
9.5	-0.820017875282736	-0.546637952478614	-2.84097698387727E-06	6.65329039481544E-06	4.71527536914983E-06	-1.38822854189248E-06	0.968872426070101	-0.230925854673971
9.6	-0.8777927703585	-0.438544394572579	-5.02875060372201E-06	-5.16524827470099E-06	4.75653532138547E-06	2.85180619452823E-06	0.96753558577879	-0.232982770233875
9.7	-0.924712038971087	-0.325909060876875	-2.00944374400318E-06	-5.04701550552969E-06	2.08846938208816E-06	3.80415506265615E-09	0.967300535719377	-0.235165626238912
9.8	-0.958425851352072	-0.207045414113948	5.790956429897E-07	-4.26931293111459E-06	-2.93585140158321E-06	-2.49952822453483E-06	0.967338069039759	-0.237510993658421
9.9	-0.977004628473181	-0.0842232878255476	-6.07618660798371E-06	4.2086386573143E-06	-3.06644990008585E-06	1.66670656372571E-06	0.966471073566682	-0.240760140429216
10	-0.980413659619434	0.0402941918769759	3.55334216958051E-06	-5.0212833788885E-08	8.21340283678749E-06	1.10252963527733E-05	0.962614424339013	-0.241376233163551
10.1	-0.966437902004623	0.164297048774102	-2.84837034273067E-06	-2.5063322721097E-06	-2.00370097022679E-06	-2.48289225204502E-06	0.963513320476751	-0.2400651986293
10.2	-0.93719871362224	0.284916173002426	2.34404898121267E-06	-1.02023741572567E-06	-2.75712094407031E-06	-1.05716289890861E-06	0.964364308823089	-0.241678003678972
10.3	-0.892926845151862	0.400758304734851	7.71005010224511E-06	-5.93273950253939E-06	3.85411750983724E-06	8.18230586405975E-06	0.963992839520365	-0.24396474659734
10.4	-0.834496008444765	0.509102521495967	1.69500893064878E-06	2.46753229998714E-07	6.2339560827786E-06	-1.18791543905364E-06	0.96252452383664	-0.246472221711863
10.5	-0.765457794114543	0.60808728094053	8.29490358260587E-06	-4.10135906703216E-06	-4.93212807794322E-07	1.95769386210306E-06	0.961032506314193	-0.247677527843961
10.6	-0.684575982744453	0.700249172921684	8.88710383065497E-06	-1.24553950850563E-06	-1.49362802467557E-06	1.35603498641457E-05	0.960947059059345	-0.250041691256104
10.7	-0.591240740523215	0.780754189392379	7.97522007636085E-06	-1.87766182365675E-06	-3.02687466083403E-06	-5.25731704817438E-06	0.959732990287836	-0.252381539781953
10.8	-0.48799981896322	0.848948632846008	2.42592051880822E-06	5.22310431438982E-06	-3.60682958055353E-06	-2.11621387116648E-07	0.958821026364836	-0.253532493383059
10.9	-0.377007605036425	0.903355459268717	-5.53048758566228E-06	4.66814155849938E-07	1.57704829637634E-06	4.01158053956914E-06	0.958922829249453	-0.254614399202152
11	-0.259775281252411	0.945546703426997	1.60197682382578E-08	-5.20167624125386E-06	-8.35323719285466E-06	2.20241508506303E-06	0.958553962668967	-0.255262738729303
11.1	-0.136076911540642	0.969690329082261	6.27468485066893E-06	4.0799834692304E-06	-1.91132427601923E-06	1.07073133523483E-05	0.95936274439496	-0.25586741875965
11.2	-0.0135001606896615	0.977571412856395	1.56758111455117E-06	1.35118791210614E-06	5.09216264497153E-06	8.86644455891409E-06	0.959826237819594	-0.257491728739721
11.3	0.108351862285675	0.970769677590584	-4.54531046603246E-07	-1.7292970399035E-06	-6.81627498425483E-07	-4.37364576803206E-06	0.960524555524441	-0.259503816379939
11.4	0.228647659835204	0.949997666438564	1.75067071275655E-07	1.18022596799895E-05	2.39086298579782E-06	4.91448985002651E-06	0.961209881537574	-0.263047926256312
11.5	0.34638195291965	0.914666151556749	6.17089277838382E-06	-3.02816805743915E-07	3.21682474791458E-07	-1.8733978549372E-06	0.959090004221179	-0.267928321801793
11.6	0.457752339477315	0.864784254761523	-5.9839919269619E-06	3.03778579470168E-06	-4.85109862830046E-06	1.89029524956899E-06	0.957055761042806	-0.269981315891931
11.7	0.562063667014532	0.802223221540985	3.3173665220188E-06	-1.773331974837E-06	-1.70715628169765E-06	2.2188368752238E-06	0.956855129483979	-0.273317206635267
11.8	0.658669419280003	0.726833009586136	-8.60815184028304E-07	9.74828422343095E-06	-2.75146994031943E-06	1.04811084784157E-05	0.956431914493151	-0.277698364553181
11.9	0.745878189122435	0.638215098273649	-7.26772868188231E-06	-1.05793287996932E-06	-3.93506786209856E-06	1.11978497579572E-05	0.955078721865837	-0.282338266755518
12	0.818253235515784	0.537692125153959	-6.44599448718102E-07	1.37254073199669E-06	-3.11398429188724E-06	-1.92259806113241E-06	0.949742731217189	-0.283255605989105
12.1	0.879390099161687	0.43238756352396	-3.88157851453132E-06	4.94511643419044E-06	-1.37009962025928E-06	8.36682153391051E-06	0.950227019003666	-0.281677872141388
12.2	0.92717640676337	0.318134923544668	-5.57525727429395E-07	-3.78473008409348E-06	-3.09765306390228E-06	-7.41683214488538E-07	0.95080142220339	-0.283519750420081
12.3	0.959282785337014	0.199435083916059	3.56552899649106E-06	3.43284148581246E-06	-3.44763435608318E-06	6.22334155320572E-06	0.950421800914753	-0.285811534065574
