# GHZ S RI R 50
0.2	-0.968244726391891	0.250168547391983	8.83208034265596E-06	5.34463958136212E-06	1.14332189257003E-06	-2.89357299076828E-06	1.00160643705712	-0.00578279583363543
0.3	-0.929884093359734	0.370052848832006	-7.6812514781368E-06	-8.35409344499364E-07	-2.13286943394017E-08	3.66925242245951E-06	1.00202955313738	-0.0086343847293925
0.4	-0.8765107382194	0.484538551965274	-2.21962200224656E-06	6.35933084643247E-06	2.91924332526786E-06	5.76432581356187E-06	1.00300393500502	-0.0112268681905374
0.5	-0.808392940788576	0.592838308044858	-2.6624593826504E-06	5.50761258366676E-07	1.05713032787113E-05	4.91303386683306E-06	1.00366561973926	-0.0163434233204027
0.6	-0.726133586720781	0.689365696550492	-1.73156552300173E-06	-1.82841574716709E-08	4.17808779762349E-06	-1.03739224621611E-05	1.00174383085087	-0.0192954567178223
0.7	-0.633977215224523	0.775285363386764	-2.05542402370927E-06	9.90930708240125E-07	3.79148387155708E-06	1.12051858074028E-05	1.00152518413163	-0.0212161880749092
0.8	-0.531357471776272	0.849479103489287	-5.63194753315112E-06	3.79445932027531E-06	-3.18003812949262E-06	-2.15030065545142E-06	1.00176434366748	-0.0229454825898807
0.9	-0.420203325988976	0.909938617308534	-6.76032195748479E-07	5.27323975093484E-06	3.28127640525132E-06	-2.93357539834485E-07	1.00218229573983	-0.0246372389605391
1	-0.301823871614339	0.956012281960241	1.57798755267249E-05	-3.68463042425879E-06	-9.65364804748548E-06	5.1585029850866E-07	1.00431015465884	-0.0259395136559589
1.1	-0.179218207850984	0.986565065570508	1.35131800782797E-06	-3.00263087403397E-06	9.46101886462474E-06	1.26834581344472E-05	1.0043495522502	-0.0305530261646415
1.2	-0.0526629910755094	1.00129631916495	-7.96477276920981E-06	-3.27138079290469E-06	-3.12352011378085E-06	-4.50468655182168E-06	1.00280527277342	-0.0323071727596339
1.3	0.0751963549515963	0.999481569028741	1.88377440869797E-07	3.35422145973035E-06	1.9418861516617E-06	3.38137965819292E-07	1.00201235407524	-0.0341749704703024
1.4	0.201058586314126	0.980978742314566	3.72425672660705E-08	3.78605600510011E-06	-2.56198551357036E-06	-5.63292621936221E-06	1.00031723518889	-0.0365758306820342
1.5	0.323688908033531	0.947753130194365	3.20088516860974E-06	-2.8111226204061E-07	2.72367228317624E-06	2.09325162145214E-06	1.00128506798213	-0.0399622908204671
1.6	0.440360729710515	0.898667157273527	1.78555878013702E-06	-1.95567302412533E-06	-9.11930963704536E-07	-3.07150637212773E-06	1.00001053112592	-0.0437668472855206
1.7	0.549334629088206	0.835950624549965	-1.00882299813174E-07	-3.53756886157659E-06	2.03372399370989E-06	4.93621756173064E-06	1.00065151755557	-0.0455333547236235
1.8	0.649398979625437	0.760520799788765	-2.07147217809985E-06	-1.81270751204479E-06	-4.58738331691729E-06	1.83997436820483E-05	1.00082991227781	-0.0477668027057834
1.9	0.738546129342074	0.674351197412972	-4.40664907766705E-06	-1.46345346656278E-06	-4.95261127201797E-06	-6.01309924625584E-06	1.001313424389	-0.0481918695695617
2	0.820422985463796	0.579035404815556	-9.53878907552693E-08	-6.79259045173915E-07	-1.68067763689907E-06	-1.42883284079005E-06	1.00640001079239	-0.0510086169272386
2.1	0.888421949654799	0.46633224555066	-1.10488756040305E-06	9.53457976195409E-06	2.00970895254686E-06	-3.93219190463717E-07	1.00529817320274	-0.0589209068271618
2.2	0.937989179686066	0.349811768724951	-5.83931737439899E-08	-5.9685515771809E-06	-7.25310930240441E-07	2.75983339532893E-06	1.00295298706761	-0.0618172747178711
2.3	0.973239546715661	0.229035372554554	-1.30587482568845E-06	2.78997987369442E-06	-1.98097868996192E-07	1.20441274458076E-05	1.00168030268976	-0.0635293164293624
2.4	0.993499424777361	0.104366126429102	-5.92925515834546E-06	-3.68721827916209E-06	-1.75866739787319E-05	1.47231213772517E-05	1.00106982808773	-0.0663517484425649
2.5	0.999219077422592	-0.0211954550478922	1.80433671659252E-06	-2.98539063036158E-06	-1.74427592189384E-06	7.58545063477107E-06	1.00108872332624	-0.0686171857210274
2.6	0.988480172993063	-0.145967190616455	2.87704394925652E-06	9.08610844409232E-07	-1.73588013559352E-06	4.52743981979607E-06	1.00065951752031	-0.0720966681565968
2.7	0.962489958080647	-0.269095860927383	3.89493077871008E-06	1.04805910428085E-05	2.35412027310562E-06	3.8768603834414E-06	1.00034375349975	-0.0754727814627117
2.8	0.920667417551393	-0.388700550050496	-8.32248311308455E-07	-2.30170869851077E-06	2.09334468751345E-07	-1.90062461802373E-06	1.00021954673247	-0.078366459380387
2.9	0.863845599861228	-0.501140432328757	3.72949145809165E-06	-8.39440121096971E-06	-1.38446687859636E-06	-1.43015267922898E-05	0.999214832758005	-0.0809477343101086
3	0.793808181691314	-0.605599518235363	4.10675577979573E-08	6.68612203988375E-06	-1.48091198329549E-05	5.45150566194051E-06	0.998712118445392	-0.083819100049339
3.1	0.711768020450834	-0.700039305290718	-4.9406309808827E-06	7.91026700336641E-06	5.83903371006913E-06	-1.37939331951153E-07	0.997680382055594	-0.0866763082181463
3.2	0.616258541560791	-0.783761113689221	9.86079134721961E-07	2.12547606796821E-06	-4.57646838227631E-06	5.26553887310042E-07	0.996396152500974	-0.0889259469188357
3.3	0.511206417248911	-0.854168367508485	7.05333669216186E-07	-1.47227598887882E-06	-4.58766058487571E-06	7.85104506943663E-07	0.994835006190267	-0.0926745665640788
3.4	0.397786961178373	-0.908633559491566	6.47620509852481E-06	1.56619821201609E-07	-8.22742713086777E-06	-7.08594256958311E-06	0.992695848960253	-0.0945981080205658
3.5	0.2845182746492	-0.948620347583014	-7.66213948576185E-06	2.0256777357316E-06	-5.95923245670936E-06	-7.90976770499194E-06	0.991920444819653	-0.0949526869762099
3.6	0.161630304996606	-0.980916474246601	-8.92234474835766E-07	-4.37524256306281E-06	-7.86844708878692E-06	-6.27004932298322E-06	0.992509707720064	-0.0982807387846371
3.7	0.034128349117908	-0.992788467706919	-6.7789918835267E-06	-6.70552647899469E-06	4.82718771142889E-07	-4.76848320632882E-06	0.991037329519974	-0.101367896178983
3.8	-0.0921891308579113	-0.987104904300538	-3.62863555673914E-06	1.11707678505246E-06	-3.31653122907042E-06	-2.43046171594058E-06	0.9893316267815	-0.1026062881532
3.9	-0.214418616643295	-0.96581897863235	-4.48785497080842E-07	3.50592985381407E-06	2.03955037777813E-06	-1.23476962508345E-06	0.98908443471964	-0.103196774787608
4	-0.333000634295537	-0.93212347068676	1.17638867568081E-05	8.01622186978023E-06	7.23396353834706E-06	-4.1114783218109E-06	0.993828926867801	-0.104499986721189
4.1	-0.448173522482932	-0.882608783268042	5.22679760669347E-06	1.25951180896557E-06	-3.37415303502187E-06	6.68470727613433E-06	0.991951028445284	-0.111361964879908
4.2	-0.554818988475826	-0.819047293346112	-7.08979074000701E-06	-1.11655974200484E-06	-8.24089836165182E-06	5.32421835567154E-08	0.988744586724894	-0.113920736576579
4.3	-0.652630043567298	-0.742543722074893	6.73838646020747E-07	-2.36623736109116E-06	5.20183936304946E-06	8.20336107693918E-07	0.987441273918399	-0.115340112708945
4.4	-0.740432555345153	-0.654297029489521	4.43534179916238E-06	-1.8134725533553E-06	-8.50526861569478E-07	1.35005932934098E-06	0.986521608374445	-0.117274457663205
4.5	-0.816531744871542	-0.554468651044018	6.77228334934422E-06	1.77914222050926E-06	-8.38341497368304E-07	-3.23143270673356E-06	0.985864774540801	-0.12067525522677
4.6	-0.878290945727228	-0.44719533102478	2.46983162796744E-06	2.90306220132887E-06	-6.43376078767783E-06	9.7468257473681E-06	0.982575728640469	-0.122975943802849
4.7	-0.927180162762945	-0.332587163839347	-1.38815761832599E-05	6.00769653538366E-06	-3.43503173005407E-06	-2.77224025472632E-10	0.981468902704929	-0.123653484356283
4.8	-0.961549021651807	-0.212594286139344	-3.18362393452513E-06	-5.0707241183396E-06	-5.45609323341333E-06	2.39758939211351E-06	0.980456353345861	-0.125289040330247
4.9	-0.979747533395192	-0.0879123757259386	-1.09703855758126E-06	-8.46627564072276E-06	-4.17650247405035E-06	7.75330590241048E-07	0.979270235515906	-0.126353625832934
5	-0.976742017095681	0.0352327013253106	7.44357737690239E-06	-1.62403455211223E-06	-1.75718457680267E-06	-2.67175481654716E-06	0.978395049712468	-0.127119900632946
5.1	-0.965772001812169	0.152991993713247	-2.60978423343961E-06	-6.29795703239065E-06	-1.00871868354788E-06	-1.92239022509316E-06	0.977570406009815	-0.127641598181989
5.2	-0.940751693300562	0.273305733924287	3.94711396585536E-06	-4.54138052148379E-07	-5.33773344904361E-06	6.26343031090652E-06	0.976865054239416	-0.128757073220511
5.3	-0.899051586409602	0.389453450292739	5.10884896171472E-06	5.90540557749723E-06	-9.68164185032209E-07	-3.53685101258061E-06	0.976318131346765	-0.130334338915415
5.4	-0.84270110508552	0.498516467338473	3.01164023314567E-06	-2.00464865895028E-06	-1.11526648006471E-05	2.22644298519043E-06	0.975112125878205	-0.132362463465568
5.5	-0.773604325081122	0.598392216864751	-4.31877874810045E-07	-2.16283999765439E-06	-5.69144052049812E-06	6.05538049891113E-06	0.975109448479324	-0.132383495667435
5.6	-0.693308779948881	0.689881153073576	2.3645410451032E-06	7.20548401358744E-06	-5.24995882466392E-07	2.89281071909426E-06	0.975780325387942	-0.135398869185559
5.7	-0.601996143920262	0.771196152907126	-2.53372944587226E-06	2.33411641405091E-06	7.81164539603964E-06	2.72909433944721E-06	0.974362571448278	-0.137152745552767
5.8	-0.50113562611506	0.8395365916792	-4.582090514025E-06	5.03504419581523E-06	-3.60031469817212E-07	3.3750497770251E-06	0.973439695825532	-0.137342320494545
5.9	-0.394342330804974	0.895252961077861	6.26499475369062E-06	1.49670890908519E-06	-2.68121271561899E-06	2.50367351897283E-06	0.974075789222359	-0.135432288555091
6	-0.280617349057191	0.941682285064943	3.47987293636017E-06	3.28981838056199E-06	-3.18865866909608E-07	-1.42415211156587E-06	0.98173316636486	-0.136908743809552
6.1	-0.157199466634991	0.968747700998774	9.10654099069087E-06	1.51180417121209E-06	-1.26762063219149E-07	-1.79480932658564E-06	0.980440722794473	-0.144395368283228
6.2	-0.0347063297109041	0.97911979606897	2.41644132231116E-06	-1.71474780771731E-06	1.46506883430728E-06	-4.80086927356965E-06	0.977852369985658	-0.14575208738391
6.3	0.0872392914080589	0.975376528767409	-4.31985336645683E-06	4.20186371867774E-06	-6.08428177042862E-07	-1.70874607903561E-06	0.976622016447111	-0.146845595815956
6.4	0.208333699356837	0.958998743918189	-4.23020146717434E-06	1.05744236533245E-06	-1.75420692296184E-06	8.76828291032255E-06	0.97692863911219	-0.147749539540023
6.5	0.33293369915173	0.923938503805359	2.4244032891143E-06	-1.32821796198713E-06	1.46250091006656E-06	-2.90860610212574E-06	0.976794467175468	-0.154036508030654
6.6	0.441369011303005	0.869516136531298	-4.66440389224804E-06	-2.21423344041339E-06	-1.8443314924227E-06	-6.5346179154904E-06	0.970969198955438	-0.154283019214097
6.7	0.543430215148993	0.808926379543435	4.09681745914841E-06	-6.39533993610044E-07	-4.60258689262742E-06	9.82720906651882E-07	0.970755179105061	-0.152619085238323
6.8	0.639004868842681	0.735915123456412	3.70601591522911E-06	-2.02779904205204E-06	6.11757225688464E-06	-8.78120664939174E-07	0.9711926061697	-0.152674432015299
6.9	0.72481059821896	0.651933728890038	2.00262161658454E-06	1.62895548471406E-06	8.6590329551847E-06	-2.64759444211283E-06	0.971882276720593	-0.152331406417931
7	0.801618470234131	0.558130147223622	2.10214078467254E-06	4.06331142499718E-06	-1.46452575297241E-07	5.30938029574801E-06	0.975251370558421	-0.153783226909325
7.1	0.864996182382526	0.452994561549388	-1.46111339735987E-07	1.69577899128543E-06	8.20097840950556E-06	-4.51893031354303E-06	0.973762868076742	-0.157852688700342
7.2	0.913746791819051	0.341641122635939	4.79885884485367E-06	-1.33634280775037E-06	7.135510863264E-06	3.79419353116985E-06	0.971752561269064	-0.15884144740461
7.3	0.947660647637137	0.224868496196095	4.8048051873323E-06	-1.05539856414277E-06	-7.18478748314664E-06	-7.33984645061133E-06	0.96938225052553	-0.159739246542002
7.4	0.964428682065243	0.105709677013443	-1.8848086321677E-06	9.70762028363275E-06	1.43987294764247E-06	-3.98646128514438E-06	0.964915568375985	-0.158954559459376
7.5	0.970994794551835	-0.00775762347152536	8.09196869610928E-07	8.0331259410578E-07	1.6214838456129E-06	9.99954719957619E-07	0.967177634549046	-0.152062859489601
7.6	0.967625330317307	-0.131203016857265	1.48356544806765E-06	-2.54841276939286E-06	-5.27058942285173E-06	-3.67703517922033E-06	0.972791113364475	-0.156783994894678
7.7	0.94394654010092	-0.25236583740034	5.45288848600635E-06	2.48421671894746E-06	-6.96820565330453E-06	1.17585423010009E-05	0.973082265021335	-0.160343989148477
7.8	0.906086025494266	-0.368206441857608	-4.96364075778319E-07	-5.19282796884799E-06	3.78865152944425E-06	-4.60235044202077E-06	0.973912788770339	-0.162265495618433
7.9	0.856285721231325	-0.476987112700592	8.7302505168467E-06	1.73384665474809E-06	-9.23128682708077E-06	-8.79227714429454E-06	0.976585149734136	-0.161958946117855
8	0.798804698191474	-0.586922806289292	-6.6230138548775E-06	-1.80456775912284E-06	-1.20883009329574E-05	2.18825006817797E-06	0.986798001019006	-0.166869644376908
8.1	0.713178854447018	-0.689503799943063	5.08078028054568E-06	8.2280119067471E-07	2.86224371282049E-06	2.32069028581357E-06	0.984950302433354	-0.177840606610506
8.2	0.618778139525468	-0.772465429077636	3.61194899492554E-06	-2.52410964898969E-06	-3.50533623888971E-06	-1.16960594915761E-05	0.982407016447265	-0.180594376811009
8.3	0.516530019339737	-0.843530798406056	2.76123191110906E-06	-1.82016551414818E-06	1.56140524523018E-06	5.32742911530258E-06	0.981811257023496	-0.182878447329013
8.4	0.406312684995559	-0.900749714107187	-5.55041811973134E-06	-1.09721534841212E-06	1.01745778887011E-06	2.97176345032115E-06	0.982172527033964	-0.185360349687642
8.5	0.292169793178689	-0.944313058141736	-3.30874617353216E-06	1.57791822457024E-06	-4.71927244222036E-06	-5.06575015049776E-06	0.982508407447719	-0.189970129518942
8.6	0.170467879448703	-0.97637553306593	-8.17033327678787E-06	1.2496398944185E-06	-4.22903576412976E-06	-6.94102358801931E-06	0.980778549385233	-0.192536315018233
8.7	0.0445377229599086	-0.991225895309417	2.29037263636681E-07	-2.11576356140908E-07	6.13067739459283E-06	6.15189672060161E-07	0.981006902420809	-0.194259875223938
8.8	-0.0829113061996505	-0.989925455285973	1.06070867513926E-06	-1.81203247221611E-06	-2.38359262935737E-06	-1.32755937300977E-06	0.981668398883863	-0.196264608419165
8.9	-0.210872459533452	-0.971001475436664	-3.47578092908509E-07	3.05663725050405E-06	-1.22085521543204E-06	-1.67343381918474E-06	0.982637290657816	-0.198253760951249
9	-0.328437462477631	-0.930476034176728	2.97687865553657E-06	1.63236517152005E-06	-1.60973422668318E-06	2.10906592311254E-06	0.983880899572514	-0.20011576619805
9.1	-0.43926728749982	-0.885935296927579	-9.40364520616474E-06	2.146841602079E-06	-1.60845162322213E-06	2.40260253603068E-06	0.985713816735995	-0.202858243704722
9.2	-0.547865015890871	-0.825211305341505	7.56619293431945E-06	-1.30436907378838E-07	-9.20472264372664E-06	1.85633506325855E-06	0.986761620941544	-0.206914814475084
9.3	-0.647183621235054	-0.750762040381146	1.7256684369511E-07	-7.21857317871374E-06	1.61633369036394E-06	-1.28936871845078E-06	0.986646120257127	-0.211378392200406
9.4	-0.7349469059984	-0.663124101861259	5.71039827040567E-07	2.50628686170617E-06	1.6732760852349E-06	-3.59871336772656E-06	0.984378489305983	-0.214810293466133
9.5	-0.809108816693733	-0.573135723602816	-3.01102941963685E-06	6.63501511733108E-06	4.77923373478914E-06	-1.29120736794691E-06	0.985286764637516	-0.215011109282155
9.6	-0.883196034569638	-0.468508787691558	-4.99757096346746E-06	-5.35293920055947E-06	4.77028519460507E-06	2.99753199121269E-06	0.986898730120453	-0.220875204883281
9.7	-0.937682737621391	-0.350266316167388	-1.95461388826841E-06	-5.1702072538091E-06	2.12460635705404E-06	4.09735160292082E-08	0.985703621639114	-0.224826332543638
9.8	-0.975721014170919	-0.226781400284669	6.59570084319641E-07	-4.33548581859644E-06	-2.94680106422096E-06	-2.59212417886105E-06	0.984743475424258	-0.226641554553556
9.9	-0.997578782112123	-0.0992034106895489	-6.26547797509434E-06	4.1826000492309E-06	-3.15398705847641E-06	1.64485647959966E-06	0.985640424266628	-0.22520993992422
10	-1.00172190621758	0.0290900064897811	3.64376993473412E-06	3.45067485820079E-09	8.2501908422744E-06	1.14304361019153E-05	0.994790043954608	-0.230056660496939
10.1	-0.990871470354455	0.15582923424737	-2.89270653782866E-06	-2.59627038471608E-06	-2.02763616326098E-06	-2.56374603930864E-06	0.990464540347999	-0.239570153400185
10.2	-0.964400390905316	0.28125037757811	2.40926082109345E-06	-1.02283859076369E-06	-2.81295196126911E-06	-1.10781400649121E-06	0.98728027304957	-0.241002740153241
10.3	-0.922739707065638	0.40277454586435	7.95524897912601E-06	-6.01395208953576E-06	3.87909285995048E-06	8.42114498830115E-06	0.986185225104055	-0.24254158490822
10.4	-0.867314674363984	0.521001928839337	1.74227182396557E-06	2.65363163779954E-07	6.4219806127908E-06	-1.17996649645031E-06	0.986381696106929	-0.244737557715506
10.5	-0.788128575271255	0.63410151201422	8.52429522208507E-06	-4.23941531483912E-06	-5.02762364898451E-07	2.01532003579701E-06	0.985893444029029	-0.250884328309363
10.6	-0.697349535389176	0.723605921501439	9.08546979673051E-06	-1.2966076406075E-06	-1.49268650559776E-06	1.38717405560164E-05	0.982899215410176	-0.252943531558609
10.7	-0.600495994783257	0.803564802858231	8.15115474933133E-06	-1.93402674493024E-06	-3.10424660254398E-06	-5.37011809112317E-06	0.983584750470049	-0.25596430260861
10.8	-0.493801709512613	0.872487430184236	2.49796378852968E-06	5.33683134297774E-06	-3.69107579602718E-06	-2.05608467637833E-07	0.983365184319684	-0.260259170758918
10.9	-0.376634019991922	0.928728621095568	-5.65118062493827E-06	5.11039908589658E-07	1.6367933688733E-06	4.09155785400197E-06	0.982251505961085	-0.263709545855792
11	-0.253480133159507	0.962954058641823	-8.92332589644686E-09	-5.29808786861745E-06	-8.49725065497341E-06	2.28373522991429E-06	0.981925144730194	-0.266789730617913
11.1	-0.13421034714429	0.987287466969584	6.42910328036646E-06	4.14345824186671E-06	-1.90892510258756E-06	1.09499226796872E-05	0.980191894417848	-0.270870678604558
11.2	-0.00845363213903491	0.997714401311728	1.61351201182184E-06	1.37082115676117E-06	5.27406857555242E-06	9.03321764212284E-06	0.977780259606095	-0.274195792111287
11.3	0.118051961384049	0.990841051773719	-4.83654338563221E-07	-1.7628473802475E-06	-7.44854985988857E-07	-4.46363893820597E-06	0.974441385598304	-0.27723763829438
11.4	0.242096690183994	0.968167619600249	3.51029952921605E-07	1.20234508858326E-05	2.50807928778013E-06	4.97268713923243E-06	0.969357457714842	-0.279228019884085
11.5	0.363170285024138	0.930147473749142	6.25892204941488E-06	-3.74816656015348E-07	3.05946682743449E-07	-1.90464779020276E-06	0.970888085086734	-0.27717807627471
11.6	0.476751661919916	0.876154030075117	-6.05950800994098E-06	3.15854565868426E-06	-4.91858643900898E-06	1.97778737809455E-06	0.971488965378444	-0.285079731162399
11.7	0.581692323436406	0.809839702203653	3.35205162076667E-06	-1.84942065294702E-06	-1.70738168348819E-06	2.28107182186779E-06	0.967704052534927	-0.290182550803483
11.8	0.677100529220281	0.731271006801549	-7.36814003017465E-07	9.90876615387105E-06	-2.64593903338041E-06	1.06793353038496E-05	0.9642018951277	-0.292575193305756
11.9	0.761897649309267	0.644701235056741	-7.3781295729585E-06	-1.00347860797813E-06	-3.88299320702186E-06	1.13898550493881E-05	0.964491388668996	-0.290070450825437
12	0.846857242661105	0.546848733758015	-6.48656025109421E-07	1.41302468397404E-06	-3.20994127283608E-06	-1.943444557856E-06	0.974085908269896	-0.295988759182467
12.1	0.909201167263147	0.426688680562236	-3.87840174780745E-06	5.129263342687E-06	-1.24659197582322E-06	8.58232145215061E-06	0.968363087308972	-0.305306977022365
12.2	0.952506467186731	0.306795493538188	-6.41430191016214E-07	-3.8497602939142E-06	-3.17390442902361E-06	-6.96987026911469E-07	0.964856200858313	-0.308087601618069
12.3	0.982138278998088	0.184710591946502	3.70839799797667E-06	3.43094501471556E-06	-3.39209757871909E-06	6.42107153377467E-06	0.962813098533585	-0.311214369210312
