# GHZ S RI R 50
0.2	-0.965464742539095	0.25180929566653	8.82088593409794E-06	5.31604082035463E-06	1.13538771378894E-06	-2.88880632504409E-06	0.999244212853675	-0.00708294145010116
0.3	-0.925756395341676	0.371601544179581	-7.65825454037288E-06	-8.15856892028161E-07	-1.32097366811099E-08	3.65743830667847E-06	0.999036831524028	-0.0100583855954322
0.4	-0.870715475332101	0.485147445099189	-2.19366508792386E-06	6.33487757825032E-06	2.91960673058007E-06	5.73011816163762E-06	0.998702338537972	-0.0128071099250961
0.5	-0.802356522996236	0.590594430556404	-2.6455912304265E-06	5.48427904319426E-07	1.05072844292181E-05	4.87792861308201E-06	0.99805745271389	-0.0154419848154429
0.6	-0.721403124959774	0.686925381354279	-1.72357341804137E-06	-1.84820364884143E-08	4.16050178010697E-06	-1.03253780799104E-05	0.99852163770615	-0.0180621116438722
0.7	-0.628825582513385	0.772246396663887	-2.04493541430034E-06	9.87239746483536E-07	3.77916260636979E-06	1.11488752290362E-05	0.998209353255563	-0.0211044494456544
0.8	-0.52626038545347	0.845177452936645	-5.59947520662065E-06	3.7774637545365E-06	-3.16426242708606E-06	-2.13687031388511E-06	0.997996256991501	-0.0232432769698229
0.9	-0.415633929926203	0.904408598772305	-6.68236116319757E-07	5.24457991356907E-06	3.26289371085348E-06	-2.94257597319709E-07	0.99806615820666	-0.0257796555483944
1	-0.297988015646406	0.949270733866491	1.56643882686201E-05	-3.68707008777613E-06	-9.58606831803383E-06	5.29347480310283E-07	0.997374928684628	-0.0278492965481862
1.1	-0.176745791857594	0.978705888167792	1.33981663579893E-06	-2.97724635898452E-06	9.38121470589944E-06	1.25759066728971E-05	0.996831829760367	-0.0294842246571444
1.2	-0.051960271530639	0.992722550060317	-7.89347666433524E-06	-3.25465513824109E-06	-3.09121370936858E-06	-4.47107316660781E-06	0.996113719595659	-0.0304820217734628
1.3	0.0734203228765444	0.990938585635328	1.76200607236647E-07	3.32744711599417E-06	1.92496695877553E-06	3.41538280505579E-07	0.99602273520192	-0.0311111514384906
1.4	0.197232072798409	0.97357453303998	1.82254183754071E-08	3.75988840053911E-06	-2.51624509507759E-06	-5.60641260852878E-06	0.995981591174459	-0.0327691352511578
1.5	0.317934958729313	0.941151885732483	3.18065331871698E-06	-2.6162214310219E-07	2.6936480468082E-06	2.09396834934818E-06	0.99630107775922	-0.0360203002670289
1.6	0.433770160926874	0.894255966787803	1.78809490558839E-06	-1.93275006699859E-06	-8.86591307372945E-07	-3.05982252154233E-06	0.996190453439786	-0.0389597333647667
1.7	0.542733385759485	0.832535229539375	-7.89774662641287E-08	-3.52022491958897E-06	1.99355144069036E-06	4.92346366602511E-06	0.996848713753634	-0.0415324396376309
1.8	0.642895114382564	0.758028506804877	-2.052092258319E-06	-1.81590416645308E-06	-4.66797638908007E-06	1.82910489236674E-05	0.996939886195099	-0.0444109512753274
1.9	0.733030883910036	0.671410418952559	-4.38534610413964E-06	-1.47233185833117E-06	-4.91442548111475E-06	-6.00669017143036E-06	0.996897000000763	-0.0473075683786682
2	0.810608454082216	0.57353001428644	-9.41556102194669E-08	-6.73102415906572E-07	-1.6645605888478E-06	-1.41666796928939E-06	0.994873309763119	-0.0504115028007463
2.1	0.875940719521618	0.46757587562906	-1.15639128690157E-06	9.42648147432506E-06	1.99107285660208E-06	-3.75745466673993E-07	0.994608907330609	-0.0510395841467938
2.2	0.92803251358446	0.354171862526106	-1.0184440915355E-08	-5.92045734135582E-06	-7.41481500959637E-07	2.7315781900603E-06	0.99525453240183	-0.0531522461805126
2.3	0.965204164523351	0.234726967994627	-1.31951006165281E-06	2.75944950300725E-06	-2.9557843690417E-07	1.19569886930201E-05	0.995356255833601	-0.0549685212951137
2.4	0.987006581851039	0.110684412786034	-5.85780183572238E-06	-3.71722469290203E-06	-1.760705117304E-05	1.44693637388076E-05	0.995644949495683	-0.0582448585165274
2.5	0.993320775877751	-0.0141233654896363	1.8258177830659E-06	-2.95801979311021E-06	-1.80888241491604E-06	7.5424019384252E-06	0.995133039448834	-0.0608226518261246
2.6	0.983900997542207	-0.137963525050686	2.86122936107823E-06	9.2347255076115E-07	-1.75819142280259E-06	4.50063263093876E-06	0.99492797791082	-0.0636166776278102
2.7	0.958585836331546	-0.260093455412096	3.8107680908828E-06	1.04469498438926E-05	2.31801683540194E-06	3.86990337767042E-06	0.994402076437991	-0.0664904717347666
2.8	0.918358226699448	-0.378027538418809	-8.10490717651676E-07	-2.29256929231927E-06	2.21442269620464E-07	-1.88672108119687E-06	0.99456549582988	-0.0682410912400355
2.9	0.864072575118596	-0.489584722733627	3.77502098561606E-06	-8.30614811394073E-06	-1.25452673370887E-06	-1.42164094344946E-05	0.994468208204931	-0.0701818499760008
3	0.796215818816988	-0.593901565937202	-2.30459441107912E-08	6.64391093545678E-06	-1.47668189697515E-05	5.27534354461097E-06	0.994350912741046	-0.0727044292087756
3.1	0.717081798875781	-0.687861345487891	-4.99470022762973E-06	7.80642615465037E-06	5.80331774887116E-06	-7.39092207103484E-08	0.994042041121039	-0.0743995836235515
3.2	0.625141509820469	-0.772698676436153	9.5424595330822E-07	2.1266465491321E-06	-4.55897561448198E-06	4.66417725138656E-07	0.994027314981321	-0.075818899504901
3.3	0.52358957604801	-0.845388669478888	7.23645254657486E-07	-1.45706835273733E-06	-4.58245393853654E-06	7.17441007594058E-07	0.994275477584956	-0.0787810556934581
3.4	0.413339186570734	-0.905050445257135	6.4733633103129E-06	2.57969153936707E-07	-8.11602923732744E-06	-7.21428233141904E-06	0.995082523183063	-0.0808155505572435
3.5	0.294999398386966	-0.950764506810367	-7.71649881946279E-06	1.94710228644343E-06	-5.89396516136152E-06	-8.00974089985709E-06	0.995112038578913	-0.0846311296767773
3.6	0.172031076303199	-0.979289673380624	-8.4998112981824E-07	-4.38654931132291E-06	-7.81178484865826E-06	-6.35068624053785E-06	0.9943187146698	-0.0867787078570481
3.7	0.0475041149064266	-0.993704394375353	-6.70719853894742E-06	-6.78906645488085E-06	5.38059950956549E-07	-4.76677499863625E-06	0.994745269012606	-0.0892083192886496
3.8	-0.0785979053878921	-0.991957366756922	-3.64977526203657E-06	1.07697069007404E-06	-3.29535300444458E-06	-2.47475788603492E-06	0.995072459660337	-0.0915864223024944
3.9	-0.202922487807556	-0.974014705048861	-4.85478816477205E-07	3.51114637903037E-06	2.05770799560899E-06	-1.21758508531056E-06	0.995579879619615	-0.0959427452214337
4	-0.323640920378892	-0.940255998494563	1.16689417545992E-05	8.13863410590394E-06	7.2737799539097E-06	-4.0301520756612E-06	0.993491635774049	-0.0984189525141223
4.1	-0.438347285511228	-0.892828203523149	5.21815935023536E-06	1.33765474088545E-06	-3.47734205801368E-06	6.64808013880771E-06	0.993002911029691	-0.0988843236963479
4.2	-0.546987815060657	-0.831725008536545	-7.10418522233795E-06	-1.22069903632004E-06	-8.27657371374101E-06	-6.20787496089217E-08	0.992897255680691	-0.101422756213466
4.3	-0.647444172577567	-0.756583169172824	7.09012747370946E-07	-2.37010398918565E-06	5.21914383427865E-06	8.94074077063278E-07	0.992915977868121	-0.103478367337991
4.4	-0.737650484228627	-0.668606291849055	4.48419925260419E-06	-1.76810092393402E-06	-8.72548123927893E-07	1.34722656375693E-06	0.992451615218852	-0.105970973076618
4.5	-0.815547895304971	-0.56983186274531	6.79101372707856E-06	1.88437773918428E-06	-7.98936275684632E-07	-3.26374924460554E-06	0.992189854877477	-0.107673269671724
4.6	-0.880742699446199	-0.462355033271736	2.45437961302095E-06	2.96140309464858E-06	-6.61863324244879E-06	9.75117292147123E-06	0.992512686198829	-0.110353248575554
4.7	-0.931728805069679	-0.34675897242731	-1.40851327332636E-05	5.90200188272795E-06	-3.46791941872751E-06	-4.06689030259991E-08	0.992611943515632	-0.112649230938741
4.8	-0.967585658647976	-0.226288781081389	-3.15681037020064E-06	-5.15656092871174E-06	-5.53671808117628E-06	2.35870439820863E-06	0.992365732722009	-0.115171585844316
4.9	-0.987494797578663	-0.103282821277748	-1.00278838821486E-06	-8.56766780023434E-06	-4.22944126008028E-06	7.31261683405009E-07	0.992385825006602	-0.117023597468771
5	-0.993924287461181	0.0205813794003972	7.57608039342768E-06	-1.55459685726485E-06	-1.74993285944651E-06	-2.73412447515364E-06	0.992608633428844	-0.119027216452295
5.1	-0.983326060982738	0.147555289238989	-2.59859796294818E-06	-6.41880283261332E-06	-1.0086444314772E-06	-1.96103812346931E-06	0.992803964044557	-0.120674382643106
5.2	-0.95699388026819	0.270153251132664	4.01090805971843E-06	-4.32081316332419E-07	-5.46552714231526E-06	6.32013019535837E-06	0.992908704307676	-0.123248156586783
5.3	-0.915990414510143	0.388800879996451	5.15071337665143E-06	6.03428401444404E-06	-9.59793219676414E-07	-3.59993325149102E-06	0.992878692963144	-0.125991406286355
5.4	-0.860018617129175	0.501831080137998	3.07562391988971E-06	-2.02285700262317E-06	-1.13604520043728E-05	2.20286355679694E-06	0.99315739153142	-0.129299741665302
5.5	-0.788853010255481	0.606397194733895	-4.35307436866751E-07	-2.20240413619412E-06	-5.80532985838551E-06	6.15243288194445E-06	0.992545760594632	-0.133393814468978
5.6	-0.705421388235679	0.69988131525504	2.39225419171361E-06	7.32410878205801E-06	-5.37461527880468E-07	2.9383639059962E-06	0.991488411741968	-0.135597160029415
5.7	-0.611725050809068	0.783047092937043	-2.57792269653918E-06	2.3699331192655E-06	7.93752363125842E-06	2.78223126977072E-06	0.991617587810212	-0.137940228046202
5.8	-0.507875991739241	0.853603717894209	-4.6589076304116E-06	5.12616560854761E-06	-3.64090572828044E-07	3.43433066736099E-06	0.991989661954218	-0.140735688348672
5.9	-0.395588114329449	0.910990908106603	6.38443940360079E-06	1.49029891326677E-06	-2.71573998572427E-06	2.56239890614027E-06	0.991908945291996	-0.144798834748085
6	-0.276693101098502	0.951633422755875	3.54206550432112E-06	3.29160443616626E-06	-3.34277084585587E-07	-1.435198802516E-06	0.988573997754159	-0.147936190014169
6.1	-0.1560803147048	0.977358509375748	9.18436587988198E-06	1.49778452342503E-06	-1.32951912299461E-07	-1.80892509641617E-06	0.987504691361682	-0.147561146887951
6.2	-0.0324571273667804	0.988627778694594	2.43481743417149E-06	-1.7362352052506E-06	1.46746517987329E-06	-4.84870519628715E-06	0.986870637265978	-0.1485185953867
6.3	0.0917922915276096	0.98472339185694	-4.34776106984647E-06	4.25280737282201E-06	-6.18871188965893E-07	-1.72276779092447E-06	0.986241134410284	-0.149894303010723
6.4	0.2147399864713	0.964786490445539	-4.25746585854881E-06	1.07748978437647E-06	-1.74099003768541E-06	8.83641331061263E-06	0.985686252103755	-0.151803959487932
6.5	0.332098443312407	0.930560162746763	2.44851069739316E-06	-1.3288727615827E-06	1.48543570181518E-06	-2.92535834687607E-06	0.985315372360159	-0.152961006442802
6.6	0.447296709946204	0.883593276547074	-4.73645721491373E-06	-2.25778904055136E-06	-1.86356283823594E-06	-6.64365418685031E-06	0.987181996724396	-0.155756356189056
6.7	0.5553675073066	0.82028157152029	4.16654403377721E-06	-6.62649454565318E-07	-4.6801514206021E-06	1.01330746043668E-06	0.987323413488657	-0.159173647546335
6.8	0.654099891815281	0.744124815112604	3.76010867088078E-06	-2.08495056841171E-06	6.22099230477125E-06	-9.28690734796428E-07	0.986996036337826	-0.162005549347011
6.9	0.742530421501411	0.656173063287996	2.0535996678346E-06	1.64084916446205E-06	8.79333148621886E-06	-2.77280420094218E-06	0.986822046466429	-0.16484003481174
7	0.818458021366059	0.557347489722182	2.18573107725536E-06	4.09532500263934E-06	-7.9501212702982E-08	5.38886114905123E-06	0.985209609884165	-0.167155773462759
7.1	0.881308903497267	0.451339709158322	-1.30119854755398E-07	1.71755983701542E-06	8.25165806451426E-06	-4.65867542065754E-06	0.98474031871015	-0.167906498540591
7.2	0.930931044231468	0.337885856928669	4.84691058742545E-06	-1.39753991686607E-06	7.26041880268856E-06	3.77597353381672E-06	0.98468515758518	-0.169366799439629
7.3	0.965956572537856	0.219187149348092	4.86367971408259E-06	-1.10765844795158E-06	-7.3424596627625E-06	-7.38627098035455E-06	0.984533759693693	-0.170799227701924
7.4	0.987315018230088	0.0962694073257452	-1.8600266242293E-06	9.91540195973646E-06	1.44311262993739E-06	-4.07609218384856E-06	0.985644575556991	-0.173385112352777
7.5	0.992128717862247	-0.0317540114405425	8.45288963666914E-07	8.09943875184875E-07	1.6827249437923E-06	9.97047182102042E-07	0.985271530732312	-0.179289050410697
7.6	0.978300997198432	-0.156786832037114	1.45283073623668E-06	-2.62943969852944E-06	-5.45206707828287E-06	-3.62473393552129E-06	0.982771798744143	-0.182416497251224
7.7	0.950272493986797	-0.279398926197149	5.60345541276384E-06	2.39506135039329E-06	-6.8028569385001E-06	1.21218247125359E-05	0.981992507999474	-0.185950958201044
7.8	0.906892540024467	-0.397404257743916	-6.44008687667061E-07	-5.25673662200962E-06	3.72075408361154E-06	-4.77320259828274E-06	0.981298023869882	-0.189689399239454
7.9	0.848152568268008	-0.508903132813408	8.88230182900771E-06	1.46693457256383E-06	-9.61990541661609E-06	-8.58599786859264E-06	0.980164020967804	-0.194161240520822
8	0.773980212112472	-0.608704887727313	-6.65350507279403E-06	-1.56907260645133E-06	-1.1956101006235E-05	2.59212887870737E-06	0.97561443336424	-0.197061386761641
8.1	0.694551848790642	-0.697775963138671	5.05827097897449E-06	7.03374205129845E-07	2.89080307794993E-06	2.23850508736537E-06	0.975223849840014	-0.196402458790744
8.2	0.603433906543592	-0.779567354661192	3.54184770532998E-06	-2.5773979080711E-06	-3.70642801141853E-06	-1.15578724804792E-05	0.975614374461778	-0.198318587593251
8.3	0.501620889005891	-0.849306880088753	2.71253175266132E-06	-1.85760467973942E-06	1.64546657239935E-06	5.26770982040861E-06	0.975070960694871	-0.200811139028561
8.4	0.391421199066328	-0.905759467974653	-5.53400524010384E-06	-1.00651482966528E-06	1.05646314737371E-06	2.93863866240983E-06	0.974059294674368	-0.203215834704389
8.5	0.273389206439217	-0.947249915853791	-3.27755558412249E-06	1.62529324023036E-06	-4.78692797425685E-06	-4.98269015606444E-06	0.973203539427933	-0.204916033292932
8.6	0.152644234844175	-0.972378703444464	-8.11037446203587E-06	1.4002444567733E-06	-4.34299308154699E-06	-6.82956154676416E-06	0.973620536617445	-0.207262517467761
8.7	0.0298848834162641	-0.983603045809764	2.23287926869008E-07	-2.14272343565577E-07	6.09521476672455E-06	4.94824038762998E-07	0.973429429641526	-0.210022427673519
8.8	-0.0935274513860543	-0.979438014704244	1.01743900917635E-06	-1.81153402791198E-06	-2.38174063188043E-06	-1.27136030209456E-06	0.973101730445677	-0.212449119930267
8.9	-0.214459700310348	-0.960993598537379	-3.00582272207637E-07	3.0197055492126E-06	-1.22731615642733E-06	-1.63370927144288E-06	0.972969288591043	-0.214749641036197
9	-0.33376334196578	-0.929124054411161	2.96376022489511E-06	1.58980338977249E-06	-1.57531249546399E-06	2.1039117612256E-06	0.972403543785423	-0.217312828928877
9.1	-0.448731928962388	-0.879695337070422	-9.29663186727676E-06	2.24055071765731E-06	-1.56584309180608E-06	2.40101696232351E-06	0.971433694383589	-0.2192580799498
9.2	-0.556053622542707	-0.81656797543037	7.49357947036419E-06	-2.14883346933426E-07	-9.0971613787136E-06	1.94310804099136E-06	0.970431851641625	-0.221109059595242
9.3	-0.654534646069338	-0.740234463062249	9.40550134813138E-08	-7.15741927547568E-06	1.58847367049592E-06	-1.29535933013721E-06	0.970030412277812	-0.222551907863711
9.4	-0.742931874598776	-0.652223244839489	5.9512115342489E-07	2.48526933897648E-06	1.62401100309399E-06	-3.59583699752931E-06	0.970272067553973	-0.224768843886395
9.5	-0.819072745762479	-0.550147587464129	-2.8627981545566E-06	6.64967300274593E-06	4.72281575424615E-06	-1.37522857804006E-06	0.969532951672308	-0.228361726748102
9.6	-0.876864108606918	-0.442229300971791	-5.0172573136186E-06	-5.18344316377748E-06	4.75156840736427E-06	2.86760004632785E-06	0.968566238595883	-0.230358277205378
9.7	-0.924236843909431	-0.329998317948083	-1.99608528835374E-06	-5.05728875889256E-06	2.09022774470609E-06	1.00397486383536E-08	0.968727450028393	-0.23252255411268
9.8	-0.958670933045126	-0.211308690198599	5.92668244715984E-07	-4.27226971556711E-06	-2.93151892044265E-06	-2.51118036402221E-06	0.969194997904379	-0.234896433412386
9.9	-0.978113857951937	-0.088353303331332	-6.09813591353346E-06	4.19662780457567E-06	-3.07614301577355E-06	1.65995192492377E-06	0.96887163558888	-0.238335743702057
10	-0.982231898526808	0.0367223700059093	3.56046858125174E-06	-4.064169484963E-08	8.19955562127804E-06	1.10693357678012E-05	0.965235330300055	-0.239472829237645
10.1	-0.968569134628539	0.161319108028721	-2.84872178605571E-06	-2.51841184618873E-06	-2.00227175580762E-06	-2.49295363206897E-06	0.966282909720339	-0.238341291162295
10.2	-0.939581497180848	0.282499094675475	2.35127218257811E-06	-1.01789100724128E-06	-2.76117221978398E-06	-1.06494374974476E-06	0.967282001310922	-0.240264700678432
10.3	-0.895378550502503	0.398996679623456	7.73667335445385E-06	-5.932696341744E-06	3.8487819062013E-06	8.20647577088908E-06	0.966997583120233	-0.242822763771964
10.4	-0.836607837301381	0.508000475084584	1.69801882216823E-06	2.49599858649283E-07	6.24794159103339E-06	-1.18159140647743E-06	0.965621688693871	-0.245688943909396
10.5	-0.766847571629039	0.60682800568807	8.31351387310045E-06	-4.09553443735165E-06	-4.9681410262256E-07	1.95995914049475E-06	0.963971106807756	-0.247230115533703
10.6	-0.686231119802188	0.698495041127049	8.90342097727925E-06	-1.23135733343372E-06	-1.52063507648017E-06	1.35790786828243E-05	0.963811222180231	-0.249809829722247
10.7	-0.593496965508497	0.779161956768048	7.99376808550388E-06	-1.86585262053109E-06	-3.02244140162931E-06	-5.27298226767919E-06	0.962406279602289	-0.252266311042221
10.8	-0.490359802140459	0.84778867742848	2.42142347690127E-06	5.23873250330939E-06	-3.61412848006121E-06	-2.18750073994315E-07	0.961706560086803	-0.253250797910164
10.9	-0.379470888336546	0.90309061482707	-5.54457445879603E-06	4.58281172362418E-07	1.57383084446593E-06	4.02396020752594E-06	0.961745770126404	-0.254301953178695
11	-0.261758792043595	0.945919829455468	2.43333606404912E-08	-5.21618544919918E-06	-8.3800791118305E-06	2.19529043685106E-06	0.961641991951935	-0.25483965596988
11.1	-0.13742015784628	0.970071130638276	6.28799122480947E-06	4.09947500026186E-06	-1.92988658417262E-06	1.07361522176248E-05	0.962935533600715	-0.255447866689319
11.2	-0.014690074833786	0.977877341055511	1.57076188826136E-06	1.35672777630728E-06	5.09790988750834E-06	8.89747736365821E-06	0.963806136826734	-0.257298017176737
11.3	0.107214130068427	0.971270029615005	-4.54279780673565E-07	-1.73466734127917E-06	-6.79649429637933E-07	-4.3868071691392E-06	0.964758905076992	-0.259545100691592
11.4	0.22764350818792	0.950837423551058	1.65029423280742E-07	1.1835374053489E-05	2.3931562832182E-06	4.93034616732923E-06	0.965748317135112	-0.263341708041171
11.5	0.345826006001727	0.915839673347626	6.18963802274523E-06	-2.9778321431493E-07	3.24447497638062E-07	-1.87869057160301E-06	0.96390018156245	-0.268757395722995
11.6	0.457709917505154	0.86608836820503	-6.00573600621083E-06	3.0428297332714E-06	-4.86827021316453E-06	1.89253585696726E-06	0.961928548938775	-0.27118521836615
11.7	0.562554376022704	0.803705969908717	3.32996001805244E-06	-1.77770730102736E-06	-1.71435877304692E-06	2.22566152683069E-06	0.961882186079726	-0.27505789613261
11.8	0.659960175489754	0.728528701523252	-8.66100387904159E-07	9.78559117448348E-06	-2.76417306673848E-06	1.05208499505249E-05	0.961472570378873	-0.280113909229454
11.9	0.748959517067162	0.639953538963295	-7.3018917643276E-06	-1.05851963715574E-06	-3.9466088297706E-06	1.12518492565152E-05	0.9600622303894	-0.285797355636811
12	0.822638173337666	0.537817696881299	-6.45108938038783E-07	1.37984614927852E-06	-3.13136106019483E-06	-1.92582628417063E-06	0.953733371815042	-0.287363664123167
12.1	0.884065675276215	0.430405760237333	-3.88288445570977E-06	4.97629125553276E-06	-1.35136896331212E-06	8.40450323142041E-06	0.95329225266687	-0.286067624441901
12.2	0.931113375727221	0.314500852405441	-5.72735469176666E-07	-3.79483673654569E-06	-3.11017586272017E-06	-7.33059934789484E-07	0.953048293195855	-0.287820701397429
12.3	0.962001543091296	0.194816967844946	3.5868581237409E-06	3.42719305169458E-06	-3.43189125732769E-06	6.2508742466602E-06	0.951972326618569	-0.289819671103839
