# GHZ S RI R 50
0.2	-0.965713222408762	0.251668872188303	8.82095595417797E-06	5.31648038754143E-06	1.13551480228223E-06	-2.88884926890214E-06	0.999155334093649	-0.00723030109199634
0.3	-0.926138595477348	0.371476636209651	-7.6585534834573E-06	-8.16692839917195E-07	-1.35901122654495E-08	3.65762015689703E-06	0.998954085500028	-0.0101557414638773
0.4	-0.871282337878296	0.485130624240411	-2.1953668870202E-06	6.33560493383538E-06	2.91897749388106E-06	5.73177829665208E-06	0.998793421291089	-0.0127981614255395
0.5	-0.80289360443477	0.590911245329971	-2.64671147337427E-06	5.48633997407609E-07	1.05116667840526E-05	4.88008404513524E-06	0.998529467319613	-0.0157068676949218
0.6	-0.721801278904006	0.687180438030271	-1.72409979905169E-06	-1.83101692195576E-08	4.16070451353406E-06	-1.03289485016001E-05	0.998925329413783	-0.0186498735092606
0.7	-0.629305632643069	0.772548724625796	-2.04544205641621E-06	9.87843043354372E-07	3.78194444000305E-06	1.11518654796973E-05	0.998559264952906	-0.0219288175783315
0.8	-0.526765731552938	0.845595373383857	-5.60013038088302E-06	3.77981341797195E-06	-3.16563277329525E-06	-2.13671699663792E-06	0.998148754105378	-0.0242986620117338
0.9	-0.416133844067429	0.904935456201285	-6.6693083347433E-07	5.24520369109355E-06	3.26309732077643E-06	-2.95130614801796E-07	0.997797709539362	-0.0268443113426691
1	-0.298509954395825	0.949918355821042	1.56643619330496E-05	-3.68564444900001E-06	-9.58590392216323E-06	5.28512843665176E-07	0.996974127696971	-0.0283832775874104
1.1	-0.177263929489238	0.979557049740163	1.34093257398493E-06	-2.97756508500915E-06	9.37994971115459E-06	1.25813385328713E-05	0.996682207786612	-0.0297795839347805
1.2	-0.052360245166475	0.99386018765164	-7.89623470370476E-06	-3.25925527952215E-06	-3.09109523720305E-06	-4.47448573152791E-06	0.99631658310458	-0.0305570248478648
1.3	0.0733958264408362	0.99227254331101	1.75527983736002E-07	3.33042923595347E-06	1.92658176782797E-06	3.42319004102616E-07	0.996759590211502	-0.0313286415012926
1.4	0.197642277717334	0.974733483980521	1.88479165135711E-08	3.76362061414135E-06	-2.51964599669437E-06	-5.61157764329294E-06	0.99683859266447	-0.0334199924890484
1.5	0.318642229494162	0.941938275353134	3.18376484296993E-06	-2.63334022963051E-07	2.69733596213163E-06	2.09487038786063E-06	0.997396731209252	-0.0369045648558755
1.6	0.434400977144168	0.894500615848486	1.78772244355872E-06	-1.935865402524E-06	-8.90052434913523E-07	-3.06138160961115E-06	0.997094530270232	-0.040460212808331
1.7	0.543141301643346	0.832487286619326	-8.29270418099578E-08	-3.52163239533911E-06	1.99987530964786E-06	4.92333737204954E-06	0.997334572000107	-0.0432407552121394
1.8	0.642996003040726	0.757744293927664	-2.05437453083156E-06	-1.81350413402768E-06	-4.64608517270483E-06	1.82974794829825E-05	0.997014010217327	-0.0460747438811112
1.9	0.732583970892055	0.67114014572067	-4.38475376868713E-06	-1.46740186070695E-06	-4.9179857881749E-06	-5.99915871688205E-06	0.996650276587133	-0.0484637647235243
2	0.810241324168888	0.573835011424352	-9.43919101843421E-08	-6.73012171329113E-07	-1.66493572455404E-06	-1.41594614590515E-06	0.995528052410265	-0.0510683626120518
2.1	0.875619138412663	0.467326858619574	-1.14692271844802E-06	9.42795283888773E-06	1.99075840935562E-06	-3.77765503961252E-07	0.995424701482398	-0.0526168214076167
2.2	0.927120360787419	0.353916607775387	-1.65287720595675E-08	-5.91811340603303E-06	-7.38260316288437E-07	2.73129685495691E-06	0.99573048053356	-0.0549691812452303
2.3	0.96388763679538	0.234764054314784	-1.31599575894731E-06	2.75897530364449E-06	-2.83796361986103E-07	1.19496764335457E-05	0.995519319666066	-0.056874292942259
2.4	0.985445028193916	0.111068659746303	-5.85641444262372E-06	-3.70864993280229E-06	-1.75788686602892E-05	1.44738263020704E-05	0.995427091760851	-0.0599475641803139
2.5	0.991484550730002	-0.0134610615389487	1.82094719258532E-06	-2.95533481855544E-06	-1.80042928589132E-06	7.53331656809958E-06	0.99505188856006	-0.0619961975248878
2.6	0.981787603775552	-0.136615233220003	2.85698517484143E-06	9.22063179548467E-07	-1.75551998443812E-06	4.49396047156432E-06	0.995178359092777	-0.0647417860377348
2.7	0.956755023478607	-0.258158148343679	3.80281599404923E-06	1.04361084962834E-05	2.31401885821217E-06	3.86619346820327E-06	0.994889248324632	-0.0676618096109597
2.8	0.91686220433482	-0.375829277973706	-8.08796716218214E-07	-2.29084424979296E-06	2.22035836961155E-07	-1.88492794957461E-06	0.995106544392551	-0.0695744058155521
2.9	0.862960302710394	-0.487332788192242	3.77604622545123E-06	-8.29913952823964E-06	-1.2477349031073E-06	-1.42076555055136E-05	0.994884717997362	-0.0715173357860177
3	0.795299263769381	-0.591959447019199	-2.48312294742117E-08	6.64117706430156E-06	-1.47621815288425E-05	5.2691887406929E-06	0.994874478327794	-0.0738501569589831
3.1	0.715864746847148	-0.686062447596347	-4.99295587066542E-06	7.8051919670857E-06	5.80207163847395E-06	-7.43970101518502E-08	0.994792832460717	-0.0758043910325348
3.2	0.623661466679367	-0.770689686317604	9.55023826222017E-07	2.12549328436722E-06	-4.55730402378906E-06	4.68582405100246E-07	0.994672465710236	-0.0776093410206161
3.3	0.521893844757402	-0.843045945475584	7.21962500871851E-07	-1.45683735886662E-06	-4.57914355622953E-06	7.20975416107718E-07	0.994556827596048	-0.080863379362701
3.4	0.411385852881513	-0.902019484717112	6.46599325261952E-06	2.50302283555578E-07	-8.11462521256165E-06	-7.19651227579616E-06	0.994737377232632	-0.0828554966883469
3.5	0.293897416185841	-0.946604185939585	-7.70065339657392E-06	1.94595256530775E-06	-5.88515817096792E-06	-7.99194922648059E-06	0.994748112020768	-0.0858835646210436
3.6	0.17164763039867	-0.975439622942102	-8.48285830565984E-07	-4.38102142112403E-06	-7.80086198310279E-06	-6.34358571331025E-06	0.994401483021738	-0.0884387466452706
3.7	0.0474889173462364	-0.989691201623012	-6.69957419466944E-06	-6.78070566357243E-06	5.37196660141365E-07	-4.76115329753106E-06	0.994258119571645	-0.0911599031290157
3.8	-0.0779449673700168	-0.987968612381886	-3.64500368630457E-06	1.07556338958831E-06	-3.29104538583804E-06	-2.47152203699682E-06	0.99381746743431	-0.0932337808165462
3.9	-0.201643926033594	-0.970600371724829	-4.85983732297304E-07	3.50647739441149E-06	2.05545469163093E-06	-1.21535852285505E-06	0.993665902586198	-0.0964688462145074
4	-0.322817146970367	-0.937843982415871	1.16601874908935E-05	8.13666167613058E-06	7.27049231662715E-06	-4.02606508372773E-06	0.992685641160281	-0.0974715701298239
4.1	-0.43827767237339	-0.889802771428677	5.21424730083599E-06	1.33451480151345E-06	-3.47183769512125E-06	6.64377748910042E-06	0.993037087946207	-0.0984638643319703
4.2	-0.546515016779666	-0.828136208678947	-7.09679010543436E-06	-1.21689885558523E-06	-8.26748782259815E-06	-5.91480240798703E-08	0.993082665877885	-0.10114421888718
4.3	-0.646285442558605	-0.752980810958751	7.07646550085061E-07	-2.3674078136333E-06	5.21306204935227E-06	8.91867887888626E-07	0.993242199745294	-0.103263325548037
4.4	-0.735813293812301	-0.665676987580342	4.47929923191185E-06	-1.76524268216322E-06	-8.71773986651032E-07	1.34550348271276E-06	0.992944503454027	-0.105676078209912
4.5	-0.814098274051937	-0.567918176786304	6.78628918774078E-06	1.88584591345861E-06	-7.97224525482712E-07	-3.26212634254826E-06	0.993209824365643	-0.107504215433038
4.6	-0.87994928313088	-0.460482713657204	2.45288988234692E-06	2.96136043826571E-06	-6.61977980129655E-06	9.74675271214859E-06	0.993629427509685	-0.110531285752223
4.7	-0.931223169101365	-0.344705840567518	-1.4087307411277E-05	5.89998380650519E-06	-3.46819057900531E-06	-4.12856779077352E-08	0.9938219714358	-0.113048264346557
4.8	-0.967242259975852	-0.22405052559396	-3.15832613818918E-06	-5.15824479196424E-06	-5.53859659617735E-06	2.35995212902617E-06	0.99354030813489	-0.115897873825699
4.9	-0.987355452171767	-0.100535401389314	-1.00863747233137E-06	-8.5712030724015E-06	-4.23103861141039E-06	7.34263872801085E-07	0.993176515104138	-0.117954617573808
5	-0.992786638238829	0.0242002629085036	7.57112093952328E-06	-1.56300740249427E-06	-1.75248119129484E-06	-2.73091489658743E-06	0.993049091496921	-0.119613147188181
5.1	-0.981359941366744	0.150562869449842	-2.60007337804964E-06	-6.41093932146132E-06	-1.00888633906071E-06	-1.95850179477228E-06	0.993263615476167	-0.121167399481472
5.2	-0.954488920227188	0.272727548046623	4.00590642791513E-06	-4.33181183436037E-07	-5.45639688248695E-06	6.31473126930435E-06	0.993076188402747	-0.12364981325455
5.3	-0.913002193526633	0.390507265704582	5.14304132473785E-06	6.02432881860524E-06	-9.58559496675855E-07	-3.59416139677272E-06	0.992800750738391	-0.126038938842001
5.4	-0.857212868647215	0.502164633461019	3.07110771350366E-06	-2.0170916190672E-06	-1.13404280210735E-05	2.19150316429163E-06	0.992911038863945	-0.12881794364523
5.5	-0.787632516223273	0.606021690804259	-4.30958830665558E-07	-2.20022037641076E-06	-5.80814042239232E-06	6.13431450496483E-06	0.992891341608151	-0.131913395625246
5.6	-0.704823447357594	0.700397652848704	2.3803046118752E-06	7.32432369648316E-06	-5.41574328650605E-07	2.93622988422237E-06	0.992729256610098	-0.134627814699766
5.7	-0.610941075986251	0.783609704756835	-2.57963044506565E-06	2.36546411702867E-06	7.92998526705732E-06	2.79090443303022E-06	0.992566162878534	-0.137350953942818
5.8	-0.507193861172321	0.853638331448322	-4.66235087017541E-06	5.11514309964616E-06	-3.68722403354624E-07	3.43091108953125E-06	0.992335699190005	-0.139889205828203
5.9	-0.39585251329114	0.9101529023831	6.37194111642439E-06	1.50313897963462E-06	-2.7179048521266E-06	2.55242628692061E-06	0.991645993505506	-0.142566794646739
6	-0.279196519847064	0.951543003372037	3.5266475726001E-06	3.3051634904174E-06	-3.28071139169432E-07	-1.43599839286726E-06	0.990192386580543	-0.143631356617884
6.1	-0.158847015403575	0.979176783017723	9.18824577843184E-06	1.53828789088547E-06	-1.25450397208785E-07	-1.81149893762901E-06	0.990953772340379	-0.143885989743684
6.2	-0.0346612000251404	0.991765035739923	2.4469425379162E-06	-1.73014904533199E-06	1.49002431735466E-06	-4.85309643204912E-06	0.991427912831496	-0.145503072335067
6.3	0.0904929004997361	0.988470973169543	-4.37535380151395E-06	4.24974993219457E-06	-6.14576314661741E-07	-1.72993533250428E-06	0.991379806002158	-0.147956337873668
6.4	0.213992525276226	0.969030141068336	-4.27610423940269E-06	1.06816918263557E-06	-1.77462790584617E-06	8.86277286480809E-06	0.990852810484884	-0.150537961430064
6.5	0.333427931094837	0.935254012237997	2.4608983869232E-06	-1.33113154980219E-06	1.49593564114193E-06	-2.93583027669893E-06	0.990746194882093	-0.152938325920986
6.6	0.449212458163319	0.886598694561389	-4.74989593448054E-06	-2.26732603293733E-06	-1.8657502393032E-06	-6.66521382411962E-06	0.991265615226133	-0.156373745631555
6.7	0.557212396539295	0.822672802397315	4.17753201660687E-06	-6.62696486476534E-07	-4.6926009541963E-06	1.0140525970467E-06	0.990797436292157	-0.159627149278097
6.8	0.655872278934827	0.745906914777399	3.76845382190673E-06	-2.0886203751496E-06	6.23430814951328E-06	-9.29439922087006E-07	0.990004080393068	-0.162468652147865
6.9	0.743845815060653	0.657502507334919	2.05616842341261E-06	1.64364447683396E-06	8.80649404007523E-06	-2.77482032586293E-06	0.989181275388572	-0.165026975226379
7	0.819616307213699	0.558918565009475	2.1846466248705E-06	4.10331304199743E-06	-8.508999116718E-08	5.39636840491457E-06	0.98790595761507	-0.166702430175275
7.1	0.882707532464855	0.452427453365375	-1.31406949906277E-07	1.72105526085413E-06	8.27157806111342E-06	-4.66348186929486E-06	0.987626740634313	-0.168147342369628
7.2	0.932066694542394	0.338323916208679	4.85680063230792E-06	-1.40147577290163E-06	7.27644571827501E-06	3.78240378210999E-06	0.987145200477323	-0.170230127015987
7.3	0.966368503962633	0.218908399619297	4.87075032289177E-06	-1.11580212032153E-06	-7.36470207829128E-06	-7.38978022579296E-06	0.98613002752793	-0.172373497404423
7.4	0.985865586466351	0.0956589389750188	-1.83397726392966E-06	9.92239577015432E-06	1.43254336721678E-06	-4.08077585344999E-06	0.985227260658956	-0.17528287354061
7.5	0.989130669501087	-0.029740616024104	8.44127041004696E-07	8.06463529060371E-07	1.67951360215627E-06	9.91825357712196E-07	0.98333689557425	-0.178691157394823
7.6	0.976519858626301	-0.153438577327698	1.44942953986858E-06	-2.62205606143144E-06	-5.43663627909628E-06	-3.61602906530854E-06	0.981816120863983	-0.180978890686161
7.7	0.949421361856496	-0.275070068236229	5.58369763419655E-06	2.39639800993991E-06	-6.80105355175004E-06	1.20766895886852E-05	0.981351268092982	-0.183896120364499
7.8	0.907504575476365	-0.392698617644421	-6.27523839853151E-07	-5.24563754720008E-06	3.72513666053781E-06	-4.75091945506544E-06	0.981158468642663	-0.18716240429364
7.9	0.850530996096196	-0.50444534294554	8.86339811503992E-06	1.50258940201528E-06	-9.56969559600689E-06	-8.61463271632563E-06	0.980578794034782	-0.19082440339938
8	0.779332157922781	-0.607023166985031	-6.65941610015592E-06	-1.60737482135419E-06	-1.19951610208117E-05	2.53481547745247E-06	0.978920411109955	-0.193422156569024
8.1	0.697354475746793	-0.699836622056318	5.07577722793055E-06	7.17933260525876E-07	2.8964892332712E-06	2.25378218397856E-06	0.978837075067279	-0.195270400795373
8.2	0.603868900198429	-0.782021474054408	3.5572557568612E-06	-2.58398079022378E-06	-3.71037017522162E-06	-1.16041324708274E-05	0.978726383945923	-0.197888118225145
8.3	0.50046016334478	-0.851532831589293	2.72203448579386E-06	-1.86476951543976E-06	1.65228566752102E-06	5.28648760096954E-06	0.977995210487743	-0.200791455242748
8.4	0.38923482330639	-0.907316322043529	-5.55336270791412E-06	-1.00405478599076E-06	1.06303172510975E-06	2.94725345130868E-06	0.976929512940762	-0.203565512320629
8.5	0.271237299487849	-0.948851157906131	-3.28384681260665E-06	1.63328166895517E-06	-4.80488739217241E-06	-4.98949294835024E-06	0.976007278991697	-0.206100261694178
8.6	0.148636722476537	-0.974679555755133	-8.1333026330533E-06	1.41211329766681E-06	-4.36244924884049E-06	-6.84587231665684E-06	0.975520673593406	-0.208865234883503
8.7	0.0239732241564365	-0.984810248964223	2.23717498988421E-07	-2.1534084806045E-07	6.11664794736525E-06	4.87176227519362E-07	0.974753764010187	-0.21153620459978
8.8	-0.100690438186722	-0.978988295099102	1.01699029930578E-06	-1.82043997052039E-06	-2.39329812385032E-06	-1.27052946380247E-06	0.97403046290504	-0.213756383781855
8.9	-0.22268081277723	-0.958451536625308	-2.9063044412136E-07	3.03259044060387E-06	-1.23812134496832E-06	-1.63555987542162E-06	0.97376618323034	-0.215739592068283
9	-0.341463528300895	-0.923146322299287	2.97983763685934E-06	1.57681103484643E-06	-1.56715563854606E-06	2.11785508785983E-06	0.973475829124811	-0.218078508182248
9.1	-0.454525919251391	-0.872300958060152	-9.29232464919194E-06	2.2949099786724E-06	-1.55372100784389E-06	2.41198184892595E-06	0.973029992641065	-0.22025140121712
9.2	-0.559956492634934	-0.808365637097422	7.49146751532952E-06	-2.57347021043041E-07	-9.08505901380604E-06	1.99445809890589E-06	0.97244171872917	-0.222869291122856
9.3	-0.656595649889883	-0.732445374464441	5.63242212513929E-08	-7.15020344080852E-06	1.57995225702339E-06	-1.30231515982781E-06	0.971914461386159	-0.225446207092539
9.4	-0.74358580462942	-0.645468701242039	6.04847617332896E-07	2.47745358506721E-06	1.60474947814558E-06	-3.59549685217711E-06	0.971173971127838	-0.228581816168017
9.5	-0.819795655845506	-0.546833441710293	-2.84571042813713E-06	6.64350609708777E-06	4.71219465215555E-06	-1.38151688828097E-06	0.969839271384591	-0.231757399628429
9.6	-0.881791992954933	-0.438601970851489	-5.03058788397506E-06	-5.17782859863108E-06	4.76037763187096E-06	2.86080084063579E-06	0.968578906899246	-0.234446028671214
9.7	-0.929794298895815	-0.323408696091057	-2.01299367543259E-06	-5.05722159362913E-06	2.09261932094766E-06	3.99515350985731E-09	0.967669888376824	-0.236828724223677
9.8	-0.962946098018144	-0.202649829996876	5.78351276776942E-07	-4.27786020494128E-06	-2.94264911647448E-06	-2.50309841886703E-06	0.967060162065652	-0.238830097406458
9.9	-0.979958878918768	-0.0789119961251429	-6.08343286435203E-06	4.21899604686593E-06	-3.07037832676607E-06	1.67120024882161E-06	0.966173783356061	-0.240896727611842
10	-0.982104964574709	0.044687804493113	3.55902982184385E-06	-5.24362665841919E-08	8.23326774499764E-06	1.1038085319651E-05	0.964630286360111	-0.241934725801734
10.1	-0.96889640136663	0.168279941966325	-2.85348525196918E-06	-2.50776233141384E-06	-2.00773642864991E-06	-2.48480597082472E-06	0.964355129212907	-0.242678357111838
10.2	-0.939923127336574	0.289553985878856	2.3470836730315E-06	-1.02225210132991E-06	-2.76125213900382E-06	-1.05795990941626E-06	0.964067005844864	-0.243942144129783
10.3	-0.89561973261259	0.405993623504635	7.72497924456681E-06	-5.9449564959793E-06	3.86224265081476E-06	8.19829453171579E-06	0.963390716705354	-0.245530070576319
10.4	-0.837586216046525	0.515065604371129	1.70047227675117E-06	2.47300206476914E-07	6.25374868861088E-06	-1.19261397155026E-06	0.962439851053192	-0.247218172142231
10.5	-0.768173853226014	0.616286670726761	8.32231202385668E-06	-4.13588375749265E-06	-4.91360529889085E-07	1.96713124923019E-06	0.962037314853558	-0.249043912785478
10.6	-0.685584962164255	0.709258156263012	8.91358647555293E-06	-1.27756901640623E-06	-1.45635663465397E-06	1.36113650334095E-05	0.961748693266181	-0.251803519150457
10.7	-0.590951973064107	0.789962480683717	7.99226522843358E-06	-1.91028545266001E-06	-3.05363591044036E-06	-5.26247210434215E-06	0.960869139098756	-0.254594801640456
10.8	-0.48655996150708	0.858027128349647	2.45126144564381E-06	5.22767051288986E-06	-3.61688260517492E-06	-1.98976366264769E-07	0.95990332291424	-0.256722539988108
10.9	-0.374027252141113	0.911964998898956	-5.53927866544888E-06	4.9100620233735E-07	1.5970048647464E-06	4.01274320488557E-06	0.95949090232748	-0.258504471286773
11	-0.257089107417948	0.951783147958336	-2.14100895734584E-09	-5.2035346738983E-06	-8.34844004410446E-06	2.23235110268719E-06	0.958671282557687	-0.260354129446618
11.1	-0.135111202625433	0.977559428719805	6.28935390114623E-06	4.06949357688445E-06	-1.8889837981188E-06	1.07210139483495E-05	0.957557414353803	-0.261855303372962
11.2	-0.0108950122432615	0.987166856305156	1.57294568460542E-06	1.34959159248794E-06	5.11978204786082E-06	8.86779500910673E-06	0.956273855076226	-0.26319687368921
11.3	0.113616313441699	0.980304157944422	-4.5998124474641E-07	-1.73105576303787E-06	-6.94604096647982E-07	-4.37935635078388E-06	0.955575437721597	-0.264341842274996
11.4	0.236060463842219	0.958112771487919	2.13679290909172E-07	1.18204314668825E-05	2.41062182690869E-06	4.91452777988631E-06	0.954929580348934	-0.266341305455896
11.5	0.354598501364786	0.920863431565135	6.17618227792064E-06	-3.21585092950811E-07	3.16399949683813E-07	-1.87624126903946E-06	0.953731472376236	-0.269037532061921
11.6	0.466485636914977	0.869446813245361	-5.98243559937291E-06	3.05953781922194E-06	-4.85155131035701E-06	1.90720773001469E-06	0.952316808377702	-0.271713468226982
11.7	0.57110895008969	0.804762750155665	3.31455299958872E-06	-1.78573069807837E-06	-1.70145068473295E-06	2.22638555226478E-06	0.951341307104904	-0.274531755547465
11.8	0.666743943334115	0.72675740569616	-8.29926848712176E-07	9.75191098458693E-06	-2.71842670727585E-06	1.04908083070226E-05	0.950706621249177	-0.277457707797462
11.9	0.750508938495387	0.636465957570972	-7.26224421450215E-06	-1.04271590953637E-06	-3.90923078614796E-06	1.11938776333557E-05	0.950746496344951	-0.279849226857088
12	0.820592415419487	0.538071442809756	-6.44151546949446E-07	1.37351124852076E-06	-3.11643439271556E-06	-1.92179066835562E-06	0.949973617508497	-0.282030114743869
12.1	0.88103227176985	0.433706697568187	-3.87691285448764E-06	4.95263422364238E-06	-1.35969827134321E-06	8.37266947881995E-06	0.950140114824636	-0.283998162299088
12.2	0.928492325337539	0.320860705919547	-5.61185568081551E-07	-3.78547354344322E-06	-3.09936148575108E-06	-7.39085138573078E-07	0.949866469400191	-0.287075064302564
12.3	0.961322840528705	0.203169763088412	3.57110390890694E-06	3.43349759459799E-06	-3.44648130631063E-06	6.23132755573841E-06	0.949012519453831	-0.290108557477488
