# GHZ S RI R 50
0.2	-0.969979548289439	0.249207855279254	8.83903685267796E-06	5.36173449540121E-06	1.14805120049373E-06	-2.89650102427294E-06	1.00303954509151	-0.00505411478508118
0.3	-0.932429448283185	0.369124125627342	-7.6951496969208E-06	-8.47138954582948E-07	-2.61943265469791E-08	3.67638806824173E-06	1.00387387146966	-0.00787364561153309
0.4	-0.880076595414685	0.484130763724316	-2.23550717372536E-06	6.37376170631806E-06	2.91865174336844E-06	5.78490501394811E-06	1.00560967130186	-0.0103573778068368
0.5	-0.812285877560206	0.594125840539573	-2.67310471450488E-06	5.51627486580754E-07	1.06101544535884E-05	4.93727515182984E-06	1.00731150855166	-0.0168116985411265
0.6	-0.729237674886541	0.690951994688003	-1.73687943305842E-06	-1.82112331318555E-08	4.19013344914977E-06	-1.04060615970096E-05	1.00414584369263	-0.0203433322076716
0.7	-0.637335194136109	0.777259895824251	-2.06218788546291E-06	9.93463323440056E-07	3.80021366310739E-06	1.12415960932227E-05	1.0038662912318	-0.021754223261307
0.8	-0.534708269040154	0.852293600732799	-5.65251653792907E-06	3.80585168243973E-06	-3.19035957916152E-06	-2.15867532892053E-06	1.00429015585907	-0.0233218982432362
0.9	-0.423200300971028	0.913592530113827	-6.8022893828422E-07	5.29141046344578E-06	3.29283188594937E-06	-2.93238394739941E-07	1.00473615014083	-0.0245890180949965
1	-0.304294366795607	0.960435298739733	1.58484602178775E-05	-3.68378702730807E-06	-9.69384502439974E-06	5.08190323484153E-07	1.00825302138028	-0.0251997597119376
1.1	-0.180741923521879	0.991701600040918	1.35830454153625E-06	-3.01782117199491E-06	9.50853158046882E-06	1.27482547938385E-05	1.00874564810287	-0.0314484946258564
1.2	-0.0529827507835736	1.00670116234026	-8.00620266711661E-06	-3.28078249593938E-06	-3.14240313742468E-06	-4.52404951011619E-06	1.00655207191737	-0.0335999189187455
1.3	0.076310565973733	1.0046816026909	1.95563604895235E-07	3.36906251029073E-06	1.95132249755217E-06	3.36003701647926E-07	1.00514881436964	-0.036053617413636
1.4	0.203314813629805	0.985568346971504	4.81841199610056E-08	3.80075253787384E-06	-2.58806466412248E-06	-5.64764434287873E-06	1.00266320538787	-0.0387416302987018
1.5	0.327111196927939	0.95197895789774	3.21326985796205E-06	-2.92240408177155E-07	2.74147096814228E-06	2.09344477932502E-06	1.00454457630797	-0.0422005756016685
1.6	0.444404364356599	0.901792596961703	1.78519763506842E-06	-1.97035753339613E-06	-9.273747368194E-07	-3.08030051088454E-06	1.00318941762328	-0.0469322334952281
1.7	0.553501050655071	0.838608539010319	-1.14013884028426E-07	-3.55069190304459E-06	2.05926407763342E-06	4.94770813996104E-06	1.00400326644581	-0.0484324862010244
1.8	0.653681318515766	0.762683215359277	-2.08504418830322E-06	-1.812476208288E-06	-4.54324370890316E-06	1.84821828244189E-05	1.00440402953379	-0.050385952590914
1.9	0.742446616613194	0.676735876253201	-4.42446157231078E-06	-1.45942196571547E-06	-4.98151170232028E-06	-6.02327645940395E-06	1.00538414542057	-0.0494710165771897
2	0.826931668067236	0.582722692741996	-9.63907533545211E-08	-6.8367972427938E-07	-1.69253397286462E-06	-1.43731542737147E-06	1.0147326031527	-0.0522669978030428
2.1	0.896504891042232	0.46598451627914	-1.07345693564538E-06	9.61072777506474E-06	2.02315112104079E-06	-4.04542327524854E-07	1.01330043508744	-0.0645849825777971
2.2	0.944603306925173	0.34754052892392	-8.91956361644982E-08	-6.00467487414585E-06	-7.15658739841466E-07	2.78037426940285E-06	1.00922845011881	-0.0681598308605057
2.3	0.978793503650895	0.225916280351554	-1.2981740404511E-06	2.81224745072991E-06	-1.35007759135089E-07	1.21112717502496E-05	1.00713568293924	-0.0699617297696198
2.4	0.998309177878531	0.100653319886173	-5.98143563513975E-06	-3.67095483394601E-06	-1.75894237211726E-05	1.4902641109504E-05	1.0060222806379	-0.0726485601289999
2.5	1.00360248297851	-0.0258426819668901	1.79204017431205E-06	-3.00717379384928E-06	-1.70303153065184E-06	7.62305539670562E-06	1.00649665481619	-0.0748666000973968
2.6	0.991700527600659	-0.151369821186547	2.89123056177497E-06	8.98478475591612E-07	-1.72099813795741E-06	4.55117795830684E-06	1.00602779885848	-0.0790722422616197
2.7	0.965040556972718	-0.275127936393427	3.96064029083412E-06	1.05109766660324E-05	2.38262332489426E-06	3.88393347101847E-06	1.00574373493756	-0.0829777838319412
2.8	0.92207052861611	-0.395758434422366	-8.48865199480703E-07	-2.30929040826005E-06	2.00294670058977E-07	-1.91166503722838E-06	1.00532814734312	-0.0867188850655587
2.9	0.863482594540244	-0.508784878961412	3.6959404788212E-06	-8.46123819795583E-06	-1.4816084591832E-06	-1.4366705002521E-05	1.0035139089774	-0.0898026047442809
3	0.791685795148635	-0.613375638137225	8.83388649113858E-08	6.71664257853023E-06	-1.48389722309149E-05	5.5809085311376E-06	1.00239349214405	-0.0928157467029034
3.1	0.707467768498365	-0.707658650836967	-4.90070882241195E-06	7.98221893391654E-06	5.86293570773404E-06	-1.83591745484757E-07	1.00071865538067	-0.0962973866943834
3.2	0.609695946272138	-0.790184946134677	1.00761747545438E-06	2.12418070705826E-06	-4.58736443734496E-06	5.67553212966448E-07	0.998393001443981	-0.0987907560481344
3.3	0.5027146366488	-0.858752131933929	6.93144306906442E-07	-1.48204482705556E-06	-4.5903020694188E-06	8.29561758423696E-07	0.995589151889039	-0.102746642822691
3.4	0.387749579501341	-0.909841358831371	6.47757302478984E-06	9.20626439227808E-08	-8.29781183313541E-06	-7.00372311293557E-06	0.991669384132513	-0.104265959490328
3.5	0.277604035502883	-0.946544772352429	-7.63044120988654E-06	2.0761072292433E-06	-6.00262573425219E-06	-7.84929552353743E-06	0.990834265974966	-0.102368451158894
3.6	0.154850087328274	-0.980622464320504	-9.19938402016625E-07	-4.3687818692731E-06	-7.90697603323324E-06	-6.21882498740759E-06	0.992370205974898	-0.106731485625933
3.7	0.0260203538117813	-0.990817838641363	-6.82668559652134E-06	-6.65235925854554E-06	4.46865920448346E-07	-4.77035357973601E-06	0.98963225645827	-0.110437495823098
3.8	-0.100016875509758	-0.982992109223084	-3.61570207001441E-06	1.1435134520501E-06	-3.33113849737658E-06	-2.40213290357606E-06	0.986541318106678	-0.111087274629633
3.9	-0.220921235699106	-0.96028717275859	-4.24063234132495E-07	3.50386050342098E-06	2.02807974506651E-06	-1.24695448841746E-06	0.9856958948223	-0.109499628730782
4	-0.33899916435163	-0.926888453810321	1.18289747621081E-05	7.92839129888023E-06	7.20461446331204E-06	-4.16823697575759E-06	0.994084411141655	-0.110122624580776
4.1	-0.454768437110347	-0.875556376795549	5.23146427385314E-06	1.20700725772539E-06	-3.30445725261094E-06	6.70777513614956E-06	0.991371538736076	-0.120396406422904
4.2	-0.560074346993068	-0.81017152317412	-7.07941476483042E-06	-1.0471120088494E-06	-8.21622738215984E-06	1.30002227514351E-07	0.986362638690327	-0.122972332705419
4.3	-0.656089607819931	-0.73266210777062	6.50298746989737E-07	-2.36340475206229E-06	5.18973815077599E-06	7.71051026551662E-07	0.984171584383572	-0.123982271414929
4.4	-0.7422433865346	-0.644266901723051	4.40257163985116E-06	-1.84349264760717E-06	-8.35836313126418E-07	1.35184772444011E-06	0.982960627139497	-0.125501482062325
4.5	-0.817360476748643	-0.544051870029471	6.76077817716796E-06	1.71112386204943E-06	-8.63950921430747E-07	-3.21079511625251E-06	0.982236056348783	-0.129769028322851
4.6	-0.877280028042831	-0.436537982664625	2.48185621411072E-06	2.86606530421254E-06	-6.31462334345783E-06	9.75061844232094E-06	0.977109268516646	-0.132112687991767
4.7	-0.92467320472795	-0.322054470656706	-1.37533514832084E-05	6.08805091217632E-06	-3.41555778051875E-06	2.80372090330726E-08	0.975279598064047	-0.132140342373516
4.8	-0.957702664348928	-0.202022570373531	-3.20685058142098E-06	-5.01446412288552E-06	-5.4040712084577E-06	2.42864155414306E-06	0.973652566811839	-0.133399227127934
4.9	-0.974270880395878	-0.0764290412419382	-1.16606662063128E-06	-8.40189273887542E-06	-4.14263722589207E-06	8.07874926975063E-07	0.971544334931329	-0.134005862419324
5	-0.965586761767076	0.0461509992422672	7.35906594477307E-06	-1.67656234303589E-06	-1.76503808145574E-06	-2.63073415248931E-06	0.969918759966208	-0.133810406247886
5.1	-0.953742005580338	0.158733843968343	-2.62482582275144E-06	-6.21744278006561E-06	-1.01117490843537E-06	-1.89642270487023E-06	0.968625147149322	-0.133631456928491
5.2	-0.928690371279765	0.277228363445505	3.90453512578479E-06	-4.72759213713402E-07	-5.24693026964E-06	6.23149365478083E-06	0.96729491787215	-0.133965733144837
5.3	-0.88626073416082	0.391121686363061	5.08489532563143E-06	5.81472222097528E-06	-9.76385992471797E-07	-3.49357904876938E-06	0.966127980825381	-0.134704262621892
5.4	-0.829835706941567	0.497076746341886	2.96772028603078E-06	-1.99342236099252E-06	-1.10115561800427E-05	2.2463274356907E-06	0.963891176364107	-0.135484911389078
5.5	-0.762663439894541	0.594047105034983	-4.30461385902185E-07	-2.13706434370534E-06	-5.61545404281629E-06	5.99466108546829E-06	0.964725022501965	-0.132724433671213
5.6	-0.683961951686503	0.684737801307125	2.35175841859823E-06	7.12732496600434E-06	-5.14915719504313E-07	2.86380847635629E-06	0.966677927712118	-0.136483703073365
5.7	-0.59358916588323	0.764620285020812	-2.50315961027086E-06	2.31304367020999E-06	7.73241772913172E-06	2.68815004537197E-06	0.964384617487679	-0.138167157818997
5.8	-0.49424681898348	0.831014149623903	-4.52710932465935E-06	4.98027725823346E-06	-3.54047340625635E-07	3.33682449150071E-06	0.962603435549504	-0.137095031594494
5.9	-0.390638613969664	0.884963418172873	6.18832755913474E-06	1.49138975910441E-06	-2.65457213762122E-06	2.46894706668178E-06	0.963322921589095	-0.132065208853421
6	-0.28032239362448	0.933599675524817	3.4397305063743E-06	3.27718120744957E-06	-3.10875157882624E-07	-1.41411999018216E-06	0.976208342478919	-0.132610186137697
6.1	-0.156368678119391	0.960961210474243	9.03661106493658E-06	1.51142972657071E-06	-1.23659027581016E-07	-1.78153676129581E-06	0.974245661942568	-0.143712798445202
6.2	-0.0353925718036866	0.970726176989796	2.39842949716017E-06	-1.69704745700294E-06	1.45924052190654E-06	-4.75848853658324E-06	0.970213704767852	-0.144596325608775
6.3	0.0845263110658876	0.967364471800372	-4.29207800605864E-06	4.15736407432619E-06	-5.99731977564334E-07	-1.69556821294631E-06	0.968631776918991	-0.144719995427375
6.4	0.20425658814829	0.953375398469883	-4.20255001307532E-06	1.04001039631788E-06	-1.76223673527478E-06	8.70173144069326E-06	0.969760181462029	-0.144659368340955
6.5	0.332429840172531	0.918294989839552	2.40551738800165E-06	-1.32182334682496E-06	1.44846591219511E-06	-2.8897799268394E-06	0.970211231195829	-0.153501507738276
6.6	0.4372760142324	0.860226846485419	-4.61209968733562E-06	-2.18883688694236E-06	-1.82421180462628E-06	-6.46085115355276E-06	0.960780354840543	-0.152592122883254
6.7	0.535942015842179	0.801222841327049	4.05015194788076E-06	-6.228690726114E-07	-4.55075093207042E-06	9.60896633933791E-07	0.960503765321978	-0.148433966689024
6.8	0.629549744056232	0.730102486066776	3.66965828824209E-06	-1.99021176729886E-06	6.04848370449429E-06	-8.45262858838303E-07	0.961340537456865	-0.147046514188342
6.9	0.713651100271665	0.648490270203395	1.96937520222243E-06	1.61976903493028E-06	8.56728355890287E-06	-2.56873134990782E-06	0.962386958924706	-0.144886639820453
7	0.790563499368765	0.55783166048776	2.04731442412488E-06	4.03736789010817E-06	-1.87587369853343E-07	5.25222378974189E-06	0.968490505121944	-0.145367600392241
7.1	0.854140300814252	0.453673644668005	-1.56763362331728E-07	1.67968429702165E-06	8.15996673574125E-06	-4.42099297664102E-06	0.966887633129213	-0.151036027830234
7.2	0.902297224077929	0.343964316127984	4.76396353370322E-06	-1.29154816743596E-06	7.04440756524424E-06	3.80784007532576E-06	0.964108007854557	-0.151678151358214
7.3	0.935604200204026	0.228942080459924	4.76478414187499E-06	-1.01346296115994E-06	-7.06625541390256E-06	-7.31538166925635E-06	0.960830275327814	-0.152161264289196
7.4	0.950360878217532	0.112928486975153	-1.9279044452054E-06	9.5720550158523E-06	1.44916248106281E-06	-3.92620252242367E-06	0.953921765061111	-0.149284063279246
7.5	0.959703976211779	0.00747347054210577	7.86694045672279E-07	8.03122647690474E-07	1.58479800889154E-06	1.00818559159527E-06	0.958861503844362	-0.136139095017975
7.6	0.962353630787706	-0.115785743012879	1.50983495837647E-06	-2.50201211554003E-06	-5.16511829326398E-06	-3.72581545948981E-06	0.968515739857133	-0.142427487553016
7.7	0.94095033840763	-0.236875356682886	5.37353408532161E-06	2.54915673257622E-06	-7.0960629303709E-06	1.15626860557697E-05	0.968834030878723	-0.146572480696803
7.8	0.905799976461325	-0.351607080713995	-4.07612760814154E-07	-5.16598447967231E-06	3.83880429870333E-06	-4.5090130571697E-06	0.96985484238751	-0.147302115706799
7.9	0.861058744258409	-0.45875618416225	8.65455152431955E-06	1.89579403403261E-06	-9.01552389315588E-06	-8.93013298543859E-06	0.974390738548277	-0.143791260309288
8	0.812005629447485	-0.57482005708923	-6.60913544338898E-06	-1.93988329894841E-06	-1.21701455394308E-05	1.95898733418266E-06	0.992089557587442	-0.149812882081075
8.1	0.722767273176762	-0.684651063017657	5.09460356723444E-06	8.94058705344521E-07	2.84544740172096E-06	2.36986697747867E-06	0.98975385988614	-0.166390310711031
8.2	0.626299758937531	-0.767611824714151	3.65316225700421E-06	-2.49053398812696E-06	-3.38119985926113E-06	-1.17753499003223E-05	0.985575600586666	-0.169223541624264
8.3	0.523956532146688	-0.838815521586698	2.7893484959511E-06	-1.79528187783534E-06	1.50762797762982E-06	5.36029814910906E-06	0.985047994910732	-0.171080974011977
8.4	0.414292080549525	-0.895967662229585	-5.5536437977199E-06	-1.15495206155017E-06	9.90618593316395E-07	2.98937996052393E-06	0.986312400985835	-0.173408267397878
8.5	0.303071720248972	-0.94105353856954	-3.32714637668518E-06	1.54399165824872E-06	-4.66858988538644E-06	-5.11814056716656E-06	0.987555684185842	-0.179478142810675
8.6	0.18055786782052	-0.977567640343086	-8.20551659160061E-06	1.14959177864279E-06	-4.15157209022963E-06	-7.01085104675646E-06	0.984899635690954	-0.182178220814484
8.7	0.0523393356831112	-0.994071677475361	2.32567616255051E-07	-2.09788881352821E-07	6.15050040923944E-06	6.90829541705658E-07	0.985611961524831	-0.183456958688891
8.8	-0.07724023027358	-0.993631210496198	1.08627223161359E-06	-1.8113863238052E-06	-2.38346478458527E-06	-1.36078775671971E-06	0.987003702093235	-0.18545737411266
8.9	-0.208161541712396	-0.97374895221964	-3.74431215285095E-07	3.07515419208466E-06	-1.2159850258227E-06	-1.69485062990118E-06	0.98868019579865	-0.187607281795363
9	-0.323138308422699	-0.928828737402153	2.97803353927561E-06	1.6538380054722E-06	-1.62646079975202E-06	2.10744478040985E-06	0.990744307048401	-0.189601710079274
9.1	-0.431279404473344	-0.888477969952797	-9.44326727829515E-06	2.07738269951771E-06	-1.63137915428417E-06	2.39561088808138E-06	0.993516108180995	-0.193025150118528
9.2	-0.540886780195856	-0.83026313548501	7.58967037814362E-06	-6.69831224389699E-08	-9.24760823242072E-06	1.7841605408842E-06	0.995144407774925	-0.197954496833673
9.3	-0.641352302044886	-0.757706167918469	2.35920420656689E-07	-7.2386606445039E-06	1.63239181375493E-06	-1.27915489031501E-06	0.994996771146797	-0.20352823100312
9.4	-0.729307021100679	-0.670977401817044	5.4814300694584E-07	2.5166799863801E-06	1.71104817930354E-06	-3.5897438472229E-06	0.991516424783655	-0.206739869909755
9.5	-0.803692269662624	-0.589472737062877	-3.12205269952792E-06	6.61140900029588E-06	4.81487241012761E-06	-1.22281605272973E-06	0.993966314073652	-0.204929442106995
9.6	-0.889254100471789	-0.485699184421591	-4.96968571204769E-06	-5.47220320014906E-06	4.77301830125766E-06	3.09171898296474E-06	0.997301363423361	-0.213063662756838
9.7	-0.948306505329027	-0.362786150672797	-1.91559504311572E-06	-5.24756154812805E-06	2.1466416481718E-06	6.59511722673368E-08	0.995665891519289	-0.217947831450212
9.8	-0.98834480647729	-0.235630939571632	7.12388926190825E-07	-4.37651049071359E-06	-2.9521744700153E-06	-2.65173538427726E-06	0.994384377353797	-0.219356707530979
9.9	-1.01106301805655	-0.10469847785384	-6.38378931458035E-06	4.16723786784104E-06	-3.20874614707922E-06	1.63162806898673E-06	0.996818951165701	-0.215353078350706
10	-1.01502582020489	0.0248782709859923	3.69687345828274E-06	3.55645855025307E-08	8.26991323562329E-06	1.16697141781624E-05	1.01355285856809	-0.223562995488121
10.1	-1.00665142155278	0.153039303013301	-2.91578319835631E-06	-2.65131193025133E-06	-2.03892214430328E-06	-2.61265022864072E-06	1.00583085723083	-0.239328066868043
10.2	-0.981941049519267	0.281847864088693	2.44943265383207E-06	-1.02190442404323E-06	-2.84529148301049E-06	-1.14110587616767E-06	1.00029070609046	-0.240624596898097
10.3	-0.941349786905534	0.407190054096017	8.11146494487394E-06	-6.05797681877483E-06	3.88799742118343E-06	8.5717742026113E-06	0.998936395985172	-0.241657136046642
10.4	-0.886952097383643	0.530858709196854	1.77180365869111E-06	2.78081071757276E-07	6.54078531016311E-06	-1.1711841765592E-06	1.0005226568897	-0.243700559844489
10.5	-0.802714999582678	0.651431663246584	8.6783765605342E-06	-4.3222278044739E-06	-5.10823594271134E-07	2.05262321561156E-06	1.00135989975217	-0.253043488263555
10.6	-0.706904744644837	0.740080848424992	9.22314079530211E-06	-1.32936256770245E-06	-1.49599291768859E-06	1.40868468887675E-05	0.996928844013589	-0.255976890657007
10.7	-0.608675115683927	0.820741090017891	8.27449268952145E-06	-1.97420321468067E-06	-3.15895738635325E-06	-5.44905583344203E-06	0.998075192604014	-0.260150775931847
10.8	-0.500123624581758	0.891785011589887	2.54994186233338E-06	5.41600196944338E-06	-3.75026589437868E-06	-2.0041397403064E-07	0.997375388842263	-0.266335251355064
10.9	-0.377523961701746	0.949371575609143	-5.73309795007634E-06	5.43935325152467E-07	1.67948563970894E-06	4.14520043764314E-06	0.995932531758706	-0.27077861481384
11	-0.251596041686186	0.978279679995159	-2.68261726262269E-08	-5.36169249503147E-06	-8.59163913461587E-06	2.33970614997241E-06	0.995654140661169	-0.275766839686954
11.1	-0.13535234287414	1.00525896517218	6.5305893578622E-06	4.18813717619481E-06	-1.91131364869505E-06	1.1111045129953E-05	0.991654435595992	-0.282432604900092
11.2	-0.00564742893002479	1.01865397827383	1.64341845559851E-06	1.38529353288822E-06	5.38974346273116E-06	9.14967797781087E-06	0.986763514701129	-0.286497257269698
11.3	0.126266426330609	1.01252829360964	-5.01494825634784E-07	-1.78671489048118E-06	-7.82748093741715E-07	-4.52693116365577E-06	0.979847590678469	-0.289135846801755
11.4	0.255055816979776	0.987798034197585	4.52213155637654E-07	1.21844982864824E-05	2.58212969499932E-06	5.02034873153923E-06	0.97140720433756	-0.288823306686954
11.5	0.379119758851355	0.946347357128732	6.32947499346187E-06	-4.17876829036799E-07	2.97733056571643E-07	-1.92871443147207E-06	0.976938121866502	-0.282455535224805
11.6	0.495071681231071	0.888690454796766	-6.11887416082648E-06	3.24285585566439E-06	-4.97083328786971E-06	2.03836598565736E-06	0.978794112659881	-0.294513499711062
11.7	0.601405405042615	0.818451318548292	3.37951820361935E-06	-1.90173681179355E-06	-1.70999097281187E-06	2.32497067611613E-06	0.972782817039634	-0.300302455782868
11.8	0.696319856198459	0.735578528067435	-6.56768101489965E-07	1.00279025002697E-05	-2.58070464828425E-06	1.08242603065843E-05	0.967977410323863	-0.301206712051752
11.9	0.778992281510705	0.647699953609096	-7.46722162825759E-06	-9.65241695726475E-07	-3.85002073913601E-06	1.15430283040095E-05	0.971224066038434	-0.295266681351554
12	0.867469233490032	0.549920304850378	-6.49713416925961E-07	1.4413324264297E-06	-3.27752629272447E-06	-1.95375525054335E-06	0.989736783076259	-0.306948299681905
12.1	0.928070524534333	0.422465901489403	-3.86934705331043E-06	5.24927977508053E-06	-1.15784498989529E-06	8.71822998324582E-06	0.978115086210921	-0.323294009129148
12.2	0.968122454868784	0.300661860859939	-6.97981013071762E-07	-3.88757295943713E-06	-3.22064699342279E-06	-6.64998054656827E-07	0.97115396669202	-0.327054612746475
12.3	0.996219571162843	0.177511357459138	3.79666013292256E-06	3.42236565440863E-06	-3.34749916310838E-06	6.54048287992755E-06	0.967278389655422	-0.330666159971276
