# GHZ S RI R 50
0.2	-0.965909041855015	0.251572368599111	8.8217519337631E-06	5.31847714300226E-06	1.13606803914695E-06	-2.88918635170936E-06	0.999321075146964	-0.00712338896527479
0.3	-0.926420450482491	0.371404625680369	-7.66016261344351E-06	-8.17977805759637E-07	-1.41189282398931E-08	3.65844276702334E-06	0.999164824913046	-0.0100404866276222
0.4	-0.871645517336253	0.485139228117777	-2.19691029949701E-06	6.33722077014389E-06	2.91906774645901E-06	5.73391994916204E-06	0.99907085146141	-0.0126872177571376
0.5	-0.803243381879467	0.591057476254734	-2.64764111233208E-06	5.48702678313333E-07	1.05150417801393E-05	4.88222496721826E-06	0.998828621989249	-0.0156949439813543
0.6	-0.722121143112371	0.68734386307578	-1.7245931086703E-06	-1.84228171442859E-08	4.16254115727789E-06	-1.03316515377879E-05	0.999151072260431	-0.0185920353091068
0.7	-0.629647650317652	0.772785933559289	-2.04621047315731E-06	9.87978703442781E-07	3.78215384693413E-06	1.11559052335133E-05	0.998839504052611	-0.0218171162040044
0.8	-0.527085699837422	0.845931339731363	-5.6025786024353E-06	3.78074294895963E-06	-3.16663771742595E-06	-2.13780395421332E-06	0.998491597307641	-0.0241758332598588
0.9	-0.416396842365652	0.905362193521728	-6.67659624934177E-07	5.2473423704443E-06	3.26448867618938E-06	-2.94974474084646E-07	0.998214789078904	-0.0267127472489036
1	-0.298684709735198	0.950422539055952	1.56725028190364E-05	-3.68662225007662E-06	-9.59078783743154E-06	5.28236758034144E-07	0.997512695612621	-0.0283315468099642
1.1	-0.17731958860204	0.980089428357732	1.34143620700111E-06	-2.97912021951317E-06	9.38530773165545E-06	1.25870831534541E-05	0.997151711599303	-0.0298427558999964
1.2	-0.0523116891280362	0.994357052723783	-7.89984778253503E-06	-3.25978011126996E-06	-3.0928441481404E-06	-4.47601669251917E-06	0.996690125313846	-0.0306243227394856
1.3	0.0734785069260026	0.99270129563686	1.75860933306266E-07	3.33139398275806E-06	1.92717734588765E-06	3.42256951204984E-07	0.997023182823383	-0.0313030995531977
1.4	0.197723680041259	0.975186063213692	1.87979454774E-08	3.76456844509107E-06	-2.5201987790564E-06	-5.61302708670203E-06	0.99713378894299	-0.0332258972267869
1.5	0.318851093757086	0.942448686556695	3.18492648299117E-06	-2.63341243377338E-07	2.69825586570469E-06	2.09570469926409E-06	0.997881916836794	-0.0367375844342627
1.6	0.43472233313219	0.894993976009262	1.78841553634189E-06	-1.93667766475512E-06	-8.90461483728373E-07	-3.06260703976081E-06	0.997642584287168	-0.0403684576453383
1.7	0.543594748332194	0.832962319371805	-8.30857247361131E-08	-3.52332554865821E-06	2.00100442199071E-06	4.92564092108618E-06	0.997995284223906	-0.0432224743705281
1.8	0.643572090009332	0.758175492032633	-2.05560236748309E-06	-1.81443647673059E-06	-4.64793342317492E-06	1.83079383267807E-05	0.997774273185442	-0.0461305743168416
1.9	0.733325375246237	0.671547850478863	-4.38796220729624E-06	-1.46833024975515E-06	-4.92171417728774E-06	-6.00334200571648E-06	0.997581839018634	-0.0486052645903756
2	0.811286274527285	0.573968525077232	-9.4693157376084E-08	-6.73636684397006E-07	-1.66699422291788E-06	-1.41680352303259E-06	0.996585283681221	-0.0516209578672153
2.1	0.876506100345958	0.467128509476322	-1.14283720941628E-06	9.43576811132718E-06	1.99208230868418E-06	-3.7910238082595E-07	0.996165040676958	-0.0533021610219243
2.2	0.927932811405672	0.353642639995642	-1.96199236498E-08	-5.9223709802224E-06	-7.37371390781603E-07	2.7336498795451E-06	0.996419819457641	-0.0556095517273241
2.3	0.964701285353255	0.234379602952564	-1.31538788764397E-06	2.76178047323341E-06	-2.77141165078186E-07	1.19587142707518E-05	0.996228124725821	-0.0575390383004984
2.4	0.986271858785681	0.11050930339559	-5.86321287058162E-06	-3.70747032171688E-06	-1.7582158266034E-05	1.44962522234348E-05	0.996179588615006	-0.060690553922927
2.5	0.992240698644165	-0.0143126892793069	1.82026217462018E-06	-2.95877021063718E-06	-1.79658331798724E-06	7.54012118397452E-06	0.99581723689507	-0.0629282067354795
2.6	0.982290052785982	-0.137709037082797	2.86020558131789E-06	9.2034945630703E-07	-1.75308235200015E-06	4.49929238711945E-06	0.995810211284557	-0.0658393190895153
2.7	0.956895086793772	-0.259355451113562	3.81707024390377E-06	1.04394669167219E-05	2.31995441335293E-06	3.86643987459434E-06	0.995324978420444	-0.0688292254976776
2.8	0.91669008036229	-0.376919884838936	-8.11897224531253E-07	-2.29112999419014E-06	2.1996023195794E-07	-1.8861963789043E-06	0.99538817889858	-0.07066830353271
2.9	0.862646875479966	-0.488271215236325	3.76827835932105E-06	-8.30689910372582E-06	-1.26428601314925E-06	-1.42122409664922E-05	0.995137967704308	-0.0725057863301923
3	0.794905063201723	-0.592849726515056	-1.76094253647704E-08	6.64387696405357E-06	-1.47623850378621E-05	5.28738444857088E-06	0.995165933092254	-0.07481407421693
3.1	0.715316526753366	-0.686887653357412	-4.9861640401053E-06	7.81389852456453E-06	5.80428890498476E-06	-8.09471556682805E-08	0.995088021225329	-0.0767858238578112
3.2	0.622975097102327	-0.771393333824565	9.5778770155245E-07	2.12507357373217E-06	-4.55822914504835E-06	4.74000271334931E-07	0.994954493270946	-0.0786045333544856
3.3	0.521113211674834	-0.843570712213655	7.20441774999737E-07	-1.45798578891062E-06	-4.57930951046557E-06	7.26405963720734E-07	0.994796619015721	-0.0818577875549811
3.4	0.410685092509185	-0.90234053427586	6.46693052535838E-06	2.43698422197115E-07	-8.12285864207337E-06	-7.18894907407191E-06	0.994970788120182	-0.0837775884856805
3.5	0.293270528466383	-0.947163007098239	-7.7014599180749E-06	1.953384507845E-06	-5.89413796396847E-06	-7.9893756491204E-06	0.995154307493418	-0.0868695162757042
3.6	0.170591145154416	-0.975840317756322	-8.5367477570456E-07	-4.38151947887539E-06	-7.81089406402424E-06	-6.33665379716373E-06	0.994692171769419	-0.0896085591707767
3.7	0.0464266257848946	-0.989768021680035	-6.70894992179986E-06	-6.7738705229711E-06	5.31563238982004E-07	-4.76266272451735E-06	0.994459883198136	-0.0923317223754495
3.8	-0.078918676496449	-0.98789580855482	-3.64419964463071E-06	1.0799930093156E-06	-3.29437415072038E-06	-2.46795962945005E-06	0.994019029691904	-0.0944181844310047
3.9	-0.202612463206803	-0.970518460606911	-4.81725483497313E-07	3.50774564175247E-06	2.05433679294596E-06	-1.2181392999761E-06	0.99397433667256	-0.0977843603693355
4	-0.324055133479399	-0.937625206424942	1.16733722792283E-05	8.1186341638214E-06	7.26442336331161E-06	-4.03762327573466E-06	0.992793881208077	-0.0993276425841555
4.1	-0.439522075134543	-0.889116677403155	5.21466242063161E-06	1.32634706099491E-06	-3.46089653303945E-06	6.6469445598685E-06	0.992553291489511	-0.100189106400808
4.2	-0.547556007456334	-0.827123450738234	-7.09559962547552E-06	-1.20637615032203E-06	-8.26418215970645E-06	-4.74463824183909E-08	0.992456114976228	-0.102657672413748
4.3	-0.64707328667	-0.751751592185275	7.04027424941643E-07	-2.36718193720205E-06	5.21164695475928E-06	8.84236423227269E-07	0.992534875024532	-0.104677373106755
4.4	-0.736339826995265	-0.664286122401639	4.47416838948897E-06	-1.77031127537517E-06	-8.69402565169315E-07	1.34588328225073E-06	0.992152486958682	-0.107047656728872
4.5	-0.814270120275892	-0.566440259762255	6.78327066867618E-06	1.87551205931891E-06	-8.00819182738462E-07	-3.25846246063624E-06	0.992196567177681	-0.10879464113038
4.6	-0.879886373277599	-0.459056052778324	2.45427106664023E-06	2.95618890927969E-06	-6.6033823063112E-06	9.74640110729297E-06	0.992595414905027	-0.111570902982265
4.7	-0.9309198425011	-0.34325188176143	-1.40691468417183E-05	5.9110293529653E-06	-3.46540223539456E-06	-3.73453213715098E-08	0.992823852216791	-0.114017028115621
4.8	-0.966605166459826	-0.222588580659029	-3.16133232088681E-06	-5.15001068811227E-06	-5.53092557450056E-06	2.36410965382694E-06	0.99253583186228	-0.116825327416591
4.9	-0.986208930530595	-0.0992210504401898	-1.01685967937E-06	-8.5608302559312E-06	-4.22566138842583E-06	7.38066811482957E-07	0.992155314377446	-0.118830563631767
5	-0.991472959976117	0.0247891864171451	7.56141502878253E-06	-1.5671453682756E-06	-1.75264081835927E-06	-2.72648910211978E-06	0.992033991008944	-0.120452847217489
5.1	-0.980285032958459	0.151131071704377	-2.60276738252977E-06	-6.4027212704663E-06	-1.00950453294244E-06	-1.95581799734199E-06	0.992250763939747	-0.121995715488959
5.2	-0.953226031284755	0.273149990834109	4.00146311281444E-06	-4.36078648716774E-07	-5.44557318721219E-06	6.31284405617709E-06	0.992029781329401	-0.124512848851578
5.3	-0.911726937972822	0.390626591051848	5.14216489922383E-06	6.01376101318189E-06	-9.60328956548941E-07	-3.58950662312968E-06	0.991601282134594	-0.126910310614377
5.4	-0.856078147424799	0.502089263855616	3.06631834251162E-06	-2.01691508557844E-06	-1.13262932945601E-05	2.19671729308849E-06	0.991553843446114	-0.129494608453307
5.5	-0.786623830943457	0.605958859394127	-4.3202328590177E-07	-2.19773090539718E-06	-5.79817422069793E-06	6.132135782231E-06	0.991623241327961	-0.132503109116137
5.6	-0.703680537846893	0.700325280605573	2.38331810055566E-06	7.31410850428162E-06	-5.38660250796039E-07	2.93330459962113E-06	0.991285380632506	-0.135134407095859
5.7	-0.609679531625748	0.783359588205945	-2.57465952837371E-06	2.36426667061056E-06	7.92182577056696E-06	2.78172535970591E-06	0.991122751580029	-0.137618104903409
5.8	-0.50591593735179	0.853153966174086	-4.6531451349139E-06	5.11111428203411E-06	-3.66206112251458E-07	3.42657885765202E-06	0.991026893804036	-0.139994289705908
5.9	-0.394588565665688	0.909523737512938	6.36509348285186E-06	1.49781876563618E-06	-2.71322507486574E-06	2.55084865153943E-06	0.990647281836995	-0.14273202664352
6	-0.277635607572009	0.950505159266017	3.52500179906006E-06	3.29704954198996E-06	-3.29037591395875E-07	-1.43366769128098E-06	0.98889409915537	-0.144433258023633
6.1	-0.157771367196508	0.977441794520873	9.1710972091794E-06	1.52946788684471E-06	-1.26343925771929E-07	-1.80784801306546E-06	0.989058349457209	-0.144170979717657
6.2	-0.0341671918263898	0.989926890967795	2.44171419468792E-06	-1.72733934336658E-06	1.48592228000438E-06	-4.84391638725184E-06	0.989630318533299	-0.145394948372301
6.3	0.0905946883677341	0.986738898922578	-4.36698238542043E-06	4.24205305581723E-06	-6.13519262635215E-07	-1.72667984781443E-06	0.989741448926299	-0.147656266395714
6.4	0.214054712046236	0.967280682232572	-4.26797651881118E-06	1.06653332972057E-06	-1.77052378071797E-06	8.84627343740595E-06	0.989351301470088	-0.150283784739922
6.5	0.332778244451776	0.932913523100682	2.4554484819196E-06	-1.32720151343107E-06	1.49327935002334E-06	-2.92837641159769E-06	0.9888621601425	-0.152507464779468
6.6	0.447739966414482	0.885017571166782	-4.73847705737372E-06	-2.26772511619083E-06	-1.85547287796411E-06	-6.65425304947539E-06	0.989794350352883	-0.155420980680757
6.7	0.555623032325504	0.821606573115398	4.17199400471741E-06	-6.57174658024676E-07	-4.6866724898197E-06	1.00744611271075E-06	0.98962655264603	-0.158765175026475
6.8	0.654185666752365	0.745282992199205	3.76616256717049E-06	-2.08193573312587E-06	6.22774120141437E-06	-9.21455788160846E-07	0.988917279269623	-0.161630369193812
6.9	0.742233809089581	0.65731355677436	2.05245211326034E-06	1.64434672982643E-06	8.80127388230457E-06	-2.76262455332434E-06	0.988247573834011	-0.164187972888738
7	0.818106066535554	0.558873835285153	2.17984030124667E-06	4.10186991978024E-06	-8.91629400694227E-08	5.39220237025644E-06	0.986836506211341	-0.166073050142436
7.1	0.881079719527177	0.452741231907985	-1.32610251285797E-07	1.71921664484916E-06	8.26685152288111E-06	-4.65235575709263E-06	0.986394969221904	-0.167128592651917
7.2	0.930542992418014	0.339062992217177	4.85315079738995E-06	-1.39530616699644E-06	7.26525734023795E-06	3.78557611996021E-06	0.986088443788381	-0.168918096024741
7.3	0.965018207599592	0.220094711121596	4.86702434003187E-06	-1.10873821275659E-06	-7.34807204306584E-06	-7.39099842656366E-06	0.985269502664631	-0.170768817145004
7.4	0.984993307148849	0.0975108603297654	-1.85009257520956E-06	9.90968812269734E-06	1.4385280025115E-06	-4.07432909808493E-06	0.984880462147359	-0.173207894246481
7.5	0.989443287459301	-0.0281106411464234	8.42652129022648E-07	8.08252055151528E-07	1.67779256584346E-06	9.95295157487615E-07	0.98397186400721	-0.177140134299743
7.6	0.976767833238803	-0.152277832058326	1.45321239892068E-06	-2.62071615604545E-06	-5.4330510431112E-06	-3.62400656021437E-06	0.982117875788753	-0.179859600268587
7.7	0.949950163420488	-0.273881442510308	5.58151585101474E-06	2.40435754985308E-06	-6.81857085547899E-06	1.2069793881548E-05	0.981770217348244	-0.182695622529739
7.8	0.908393872613445	-0.391837790470409	-6.21414642507053E-07	-5.24877127939819E-06	3.73260868966681E-06	-4.74852539676014E-06	0.981825460367726	-0.18615998052675
7.9	0.851554898727494	-0.504299693793355	8.8692785287089E-06	1.51004641955751E-06	-9.57109060508954E-06	-8.62816283925282E-06	0.981486985425205	-0.1903942462442
8	0.779011036009346	-0.607695240359971	-6.66191537289084E-06	-1.6033607687219E-06	-1.19961051247399E-05	2.54322491319738E-06	0.978906691371182	-0.194110539671121
8.1	0.696609050894823	-0.699049664279919	5.07036728770059E-06	7.16592915453608E-07	2.89360691376714E-06	2.25102284125991E-06	0.97786428645097	-0.1950517958842
8.2	0.603735076865552	-0.78072026842842	3.55417611799931E-06	-2.57888738924245E-06	-3.69964194206908E-06	-1.1591606050008E-05	0.977857619388772	-0.197114372127106
8.3	0.500867514220847	-0.850141027225202	2.72037281062531E-06	-1.86004877131261E-06	1.64552802646782E-06	5.28149653623386E-06	0.977285197236905	-0.199774587081353
8.4	0.390193394786903	-0.90605194103009	-5.54521682726263E-06	-1.00974262688621E-06	1.05803245121334E-06	2.94492295799998E-06	0.976331338353333	-0.20245851472763
8.5	0.272422670954991	-0.948140567747011	-3.28395429901358E-06	1.62602622657296E-06	-4.79187766479089E-06	-4.99380171724603E-06	0.975311709906335	-0.204784653110554
8.6	0.149748847623929	-0.974021792111551	-8.13222985917035E-06	1.39847113507385E-06	-4.34966290156236E-06	-6.85006660272564E-06	0.975119639132863	-0.207217619734644
8.7	0.0252761622321981	-0.984222610641499	2.23961677418867E-07	-2.14933889971882E-07	6.11382836666472E-06	4.9612057203032E-07	0.974641469729408	-0.209836078529998
8.8	-0.0991681743822814	-0.978494572957083	1.0192570799179E-06	-1.81836811230594E-06	-2.39066960756278E-06	-1.27353197997201E-06	0.974145590212283	-0.212031811690113
8.9	-0.220609042512403	-0.958041277522067	-2.94983541436833E-07	3.03055528339532E-06	-1.23503617041055E-06	-1.63653517589014E-06	0.974134281449441	-0.213992966601153
9	-0.338793789050781	-0.924017168346703	2.9753207941504E-06	1.58258812369642E-06	-1.57109069900749E-06	2.11368883101828E-06	0.974168057205926	-0.216428610545595
9.1	-0.452683810321847	-0.87397167567459	-9.29942884786785E-06	2.27603357546748E-06	-1.55915315815473E-06	2.40932807144464E-06	0.973912843573892	-0.218799054469953
9.2	-0.558672187095419	-0.810429763328906	7.49582372492818E-06	-2.42387441672313E-07	-9.09373097761231E-06	1.97717816171728E-06	0.973391023249601	-0.221578492893331
9.3	-0.65599223368697	-0.73475581136317	7.06773560396634E-08	-7.15582112899615E-06	1.5838244924892E-06	-1.3001972946797E-06	0.972872055845433	-0.224134562046927
9.4	-0.743569300457512	-0.647991249407671	6.00343656007484E-07	2.48165670560072E-06	1.61422099438283E-06	-3.59636700091335E-06	0.972402080076196	-0.227048076169688
9.5	-0.82128106597651	-0.549183974565655	-2.86202932794604E-06	6.65238736158367E-06	4.7239057885299E-06	-1.37680526265946E-06	0.971541349565572	-0.23069416686516
9.6	-0.883276868199077	-0.439612109797446	-5.03431339787675E-06	-5.19098239324115E-06	4.76573712233315E-06	2.86985037179994E-06	0.970064375905425	-0.233556789240261
9.7	-0.93098346204417	-0.324184189111466	-2.01138269101769E-06	-5.06664658739028E-06	2.09575317551605E-06	5.91661578648986E-09	0.969292202023335	-0.235864963374272
9.8	-0.964118120598598	-0.203312862429802	5.83233032829602E-07	-4.28419027555586E-06	-2.94505770991827E-06	-2.50983474747047E-06	0.969032969418293	-0.237901069057828
9.9	-0.981140087130785	-0.0794770321474131	-6.09783283736662E-06	4.22257765603823E-06	-3.07732042556168E-06	1.67214929321621E-06	0.968740034188874	-0.24048921407296
10	-0.98353130272966	0.0441384370233313	3.56474859241681E-06	-5.18273669030304E-08	8.24432431100209E-06	1.10573931865187E-05	0.966404863902516	-0.242654474604317
10.1	-0.970536686381228	0.168175930619238	-2.85628481273196E-06	-2.51262909180293E-06	-2.00936348325361E-06	-2.48923818970608E-06	0.965648933419913	-0.242576072122414
10.2	-0.941505525468571	0.289890265402215	2.35134357038423E-06	-1.02273978055025E-06	-2.76515649540205E-06	-1.06100685311894E-06	0.965794796396775	-0.243690946719671
10.3	-0.896957829976259	0.406761498179035	7.74029686902702E-06	-5.95297278206308E-06	3.86647554297783E-06	8.21380032274043E-06	0.96545955959896	-0.245488221910258
10.4	-0.838225813526308	0.516065251117748	1.70330122473184E-06	2.47635631592369E-07	6.26406058877548E-06	-1.19486411922513E-06	0.964681043039506	-0.247684622151755
10.5	-0.768553352969962	0.616179326358982	8.33331896678729E-06	-4.13847134182614E-06	-4.92488951617684E-07	1.96932493243867E-06	0.963899853634858	-0.249782868799161
10.6	-0.687069154306989	0.70932326416833	8.93018382404523E-06	-1.27534109018167E-06	-1.465855837962E-06	1.36349842598685E-05	0.963671634069532	-0.252720295919642
10.7	-0.592668186829022	0.790832963655475	8.00867912485404E-06	-1.91326382598367E-06	-3.05923711639569E-06	-5.27348058615093E-06	0.96238926259475	-0.255780526500294
10.8	-0.487738058153942	0.859550031323918	2.456990882375E-06	5.23752087668917E-06	-3.6240278128206E-06	-1.98737648581704E-07	0.961233501989523	-0.257594679195826
10.9	-0.37490264982814	0.913551461030409	-5.54860393471457E-06	4.92893311860908E-07	1.60048254371993E-06	4.01926278113438E-06	0.960678484008725	-0.259315488607736
11	-0.258372141675463	0.953702424615349	-2.48787071913964E-09	-5.2141817258656E-06	-8.3653752466234E-06	2.23746828811726E-06	0.959855249587525	-0.261216036125263
11.1	-0.135505985866742	0.980280883992459	6.30423929631394E-06	4.07449068168189E-06	-1.88725114663607E-06	1.07437660571988E-05	0.958721371102541	-0.262537822840619
11.2	-0.0104958030257771	0.989779378928565	1.57661097924703E-06	1.35105511142512E-06	5.13446731551046E-06	8.88062244879736E-06	0.957527339703612	-0.263773465964442
11.3	0.114604541627934	0.982706834764539	-4.61697183209309E-07	-1.73363965816987E-06	-6.98175778072354E-07	-4.38615382456333E-06	0.9569759551265	-0.264695192833212
11.4	0.237517094914588	0.960283235169385	2.17064610251522E-07	1.18390554499449E-05	2.41569828931748E-06	4.92167236615489E-06	0.956862689606595	-0.266446873391871
11.5	0.356414286328762	0.922718999117807	6.18950897313123E-06	-3.24124704367948E-07	3.16528387938085E-07	-1.88041315443287E-06	0.956176622934923	-0.270096670178685
11.6	0.468629036248725	0.871021501886766	-5.99181123013497E-06	3.07070445705361E-06	-4.85963920977232E-06	1.91511614072848E-06	0.954150793056849	-0.272945061694377
11.7	0.573621049000506	0.80598038674117	3.31892087904476E-06	-1.79162178910066E-06	-1.70260935792955E-06	2.23171927488338E-06	0.953302734429773	-0.275577236777185
11.8	0.669635179207032	0.727571670212469	-8.25034806248075E-07	9.77047301045708E-06	-2.71653655433296E-06	1.05119796063052E-05	0.953167463656436	-0.278637768012659
11.9	0.754088814923674	0.636615889337523	-7.28121726047136E-06	-1.03937494496626E-06	-3.90982476343334E-06	1.12250060146526E-05	0.953877932829016	-0.282037555026155
12	0.823775787111949	0.536239141779941	-6.42713925349683E-07	1.37789161397545E-06	-3.12733237421203E-06	-1.91954674092933E-06	0.951712314763203	-0.285941459583186
12.1	0.88297169855326	0.432093719876906	-3.87512705867313E-06	4.96831343824983E-06	-1.34739188775205E-06	8.39003281427637E-06	0.950916504768829	-0.287120676387568
12.2	0.930494837014503	0.319234618935318	-5.70422693754003E-07	-3.79185058965899E-06	-3.10715157681224E-06	-7.33922158376898E-07	0.950566397331863	-0.290132877498398
12.3	0.963217954254961	0.20097716421532	3.58668330300917E-06	3.42944968265634E-06	-3.43509024929265E-06	6.25146704076549E-06	0.949443330414517	-0.293318843558121
