# GHZ S RI R 50
0.2	-0.96655988672189	0.251208519573233	8.82482771679899E-06	5.32523459783567E-06	1.13792107373718E-06	-2.89044062683541E-06	0.999947933929784	-0.00684250142502826
0.3	-0.927375080863174	0.3710450422992	-7.66594565761504E-06	-8.22296712478904E-07	-1.58781293436624E-08	3.66138460342702E-06	0.999951348218114	-0.00979390974245009
0.4	-0.872994891689481	0.484960949318164	-2.20282294364873E-06	6.34322642206878E-06	2.91928600593106E-06	5.74200170006834E-06	1.00012182150663	-0.0124320115188589
0.5	-0.804762070576977	0.591547389100823	-2.65192937360904E-06	5.4926547413094E-07	1.05312390760295E-05	4.89125411174556E-06	1.00026663431296	-0.0159747131374192
0.6	-0.723290975960803	0.687984296724766	-1.72672333971199E-06	-1.81756772599248E-08	4.16605910147256E-06	-1.03450473614895E-05	1.00000888281655	-0.0191107526470944
0.7	-0.630894110168775	0.773551757884307	-2.04874203878916E-06	9.89175090767703E-07	3.78669967075446E-06	1.1169690796017E-05	0.999626079320625	-0.0220407724483114
0.8	-0.528324560382011	0.847010434314798	-5.61033240182938E-06	3.78563499043059E-06	-3.17084179611254E-06	-2.140834580249E-06	0.999376241084457	-0.0242495277200069
0.9	-0.4174870336263	0.906761646248942	-6.68938059708387E-07	5.25464642639296E-06	3.26907919536503E-06	-2.95173809029663E-07	0.999181444012111	-0.0265736691195064
1	-0.299536149716716	0.952114453495147	1.56996762691883E-05	-3.68824683765332E-06	-9.60691861291445E-06	5.26352375944673E-07	0.999105006263692	-0.02795275982533
1.1	-0.177747295634749	0.981995176392931	1.34363733704126E-06	-2.98542917366839E-06	9.40667583935937E-06	1.26110518606267E-05	0.998927894995245	-0.0302590510999891
1.2	-0.0522258593121522	0.996283017236642	-7.91702227563447E-06	-3.26052698307815E-06	-3.10176242292526E-06	-4.48236006299651E-06	0.998041656225007	-0.0313950425052981
1.3	0.0741666592632554	0.994444694033573	1.80417382970274E-07	3.33662905341091E-06	1.93077462420624E-06	3.40348823067326E-07	0.997902065804924	-0.0324508130415291
1.4	0.198824347944814	0.97658494589304	2.5426988224302E-08	3.76929443085645E-06	-2.53323325021845E-06	-5.6157008597878E-06	0.997473719454282	-0.0345287697400526
1.5	0.320279632435921	0.94375173724722	3.1885677269696E-06	-2.69269017338996E-07	2.70540945272663E-06	2.093670164258E-06	0.998473896991041	-0.0379072333995042
1.6	0.436325787809073	0.895954868439521	1.78712433640145E-06	-1.94239982580973E-06	-8.97197817204282E-07	-3.06484158999309E-06	0.998278019165278	-0.0416377581288375
1.7	0.545212318844949	0.833819836156285	-8.87644661926623E-08	-3.527595801633E-06	2.01129811206783E-06	4.9286283840528E-06	0.998837549548354	-0.0442087298950899
1.8	0.645218804991173	0.758905743536625	-2.06055310257905E-06	-1.81393449646936E-06	-4.62927335187351E-06	1.83366955473205E-05	0.998827263740589	-0.0468993533700789
1.9	0.734781668133159	0.672406433530326	-4.39393679428278E-06	-1.46685471443338E-06	-4.9315179229139E-06	-6.00658045429076E-06	0.998867837576396	-0.0487820244910481
2	0.813752674811573	0.575605045068049	-9.48017919887168E-08	-6.7533228133221E-07	-1.67087839799015E-06	-1.42064689927956E-06	0.99968941218047	-0.0515455385920595
2.1	0.87993104029885	0.46716607762413	-1.13404621237374E-06	9.4674390007377E-06	1.99795049161888E-06	-3.82941525370494E-07	0.999360754514653	-0.0551347838135837
2.2	0.930841814159576	0.352765538076954	-3.04333718639029E-08	-5.93810431773387E-06	-7.34367564328329E-07	2.74226837010751E-06	0.998849858101068	-0.0577695062710464
2.3	0.967183675115086	0.233084931781645	-1.31318828115674E-06	2.77099231723657E-06	-2.54560372106621E-07	1.19880681281334E-05	0.998297868275703	-0.0596866289215047
2.4	0.988427472201532	0.108980119609108	-5.8846710336962E-06	-3.70301035644564E-06	-1.75902422802807E-05	1.45677914990166E-05	0.998055418560967	-0.0627317306589964
2.5	0.994337343707789	-0.0161070898399646	1.81617560774533E-06	-2.96777405041912E-06	-1.78164676444971E-06	7.55635882800289E-06	0.997885269533559	-0.0648967564598662
2.6	0.984167749045463	-0.139909488149723	2.86619004693766E-06	9.17226335705491E-07	-1.74865114206871E-06	4.50919471270041E-06	0.997929555605862	-0.0680564850788999
2.7	0.958678342427542	-0.262035487172536	3.84133150062612E-06	1.04566596091205E-05	2.33093572336652E-06	3.87143111928916E-06	0.997586916110259	-0.0712813441038813
2.8	0.918027677447366	-0.380356444758301	-8.18439171031045E-07	-2.2955647050213E-06	2.16900775927134E-07	-1.89155952613854E-06	0.997616345491268	-0.0736033860381221
2.9	0.863035410466475	-0.492192250184902	3.75750697012063E-06	-8.3380185699938E-06	-1.30291132613005E-06	-1.42463220721722E-05	0.996992332237722	-0.0758100510958329
3	0.794338471302005	-0.596755505072003	1.43669585180186E-09	6.65868322158165E-06	-1.47799828906983E-05	5.34153392188817E-06	0.996605970039852	-0.0782661045741625
3.1	0.713807438613202	-0.690650187727764	-4.97185343342635E-06	7.84398879252706E-06	5.81510557763203E-06	-9.87912984757849E-08	0.996038666628477	-0.080399801048222
3.2	0.62055672918118	-0.774637515815394	9.66094552467043E-07	2.12515074705845E-06	-4.56350796614006E-06	4.89456263351339E-07	0.995408266887527	-0.0821604638591478
3.3	0.517881850691505	-0.846102345985487	7.16128975562173E-07	-1.46203854168849E-06	-4.58163162423102E-06	7.4311842773261E-07	0.994779659176774	-0.0853783452660395
3.4	0.40668001099895	-0.903522501007657	6.46929347115423E-06	2.18975820945291E-07	-8.15219659756105E-06	-7.1594171793122E-06	0.994279597813222	-0.0871514779366184
3.5	0.290540768609418	-0.946671423395245	-7.68876793348065E-06	1.9732283276936E-06	-5.911109802948E-06	-7.96532686886041E-06	0.994268248131144	-0.0892917031919154
3.6	0.168185106319693	-0.976379066249489	-8.63679914597878E-07	-4.37940018277619E-06	-7.82511798548413E-06	-6.31852407685275E-06	0.994355106251851	-0.0922540396871132
3.7	0.0432148885333114	-0.989837894278587	-6.72790915617996E-06	-6.75499279636119E-06	5.18193937511715E-07	-4.76411887299483E-06	0.993784077654793	-0.0952702437391046
3.8	-0.0822929597493145	-0.986974173605292	-3.63955932898404E-06	1.09043837333994E-06	-3.30044936115773E-06	-2.45717485694932E-06	0.992867874599921	-0.0972285315269259
3.9	-0.205472443797406	-0.968651032281666	-4.72175945236055E-07	3.5066800606484E-06	2.04976541869278E-06	-1.22273421527464E-06	0.992555453532021	-0.0997750898800116
4	-0.32616736450233	-0.935762006621616	1.1696759178381E-05	8.08834811256605E-06	7.25454574716531E-06	-4.05768992221453E-06	0.99308399459912	-0.100936847477218
4.1	-0.441690484122291	-0.886988925464968	5.21692123845837E-06	1.3068359524819E-06	-3.43516430907562E-06	6.65622805727571E-06	0.992583592230762	-0.103674284365803
4.2	-0.549342888013155	-0.824600253072566	-7.09160068252853E-06	-1.18077685026538E-06	-8.25489071445753E-06	-1.91840724219569E-08	0.991440265131436	-0.106297086085776
4.3	-0.648454514384397	-0.74900518740585	6.95602137876056E-07	-2.36609016160703E-06	5.20715013837201E-06	8.66616684465168E-07	0.990952793853572	-0.108082702120078
4.4	-0.737420293323421	-0.661393066356785	4.4627080702063E-06	-1.78118249792336E-06	-8.64192863276443E-07	1.34660967660895E-06	0.990384063462784	-0.110170896881709
4.5	-0.815089339010394	-0.563003664404127	6.78009497320591E-06	1.8495585454267E-06	-8.10873876876153E-07	-3.25109291006043E-06	0.990433658435946	-0.112306982780118
4.6	-0.879766808686421	-0.455365795035824	2.45909348590315E-06	2.94145050046226E-06	-6.55589417249899E-06	9.74800675135367E-06	0.989920670440149	-0.115138231664794
4.7	-0.930117877935618	-0.339687214808951	-1.40166308057898E-05	5.94126900832166E-06	-3.45718551512483E-06	-2.63053433312515E-08	0.989749249440022	-0.117211097716579
4.8	-0.965346804297549	-0.219089045095573	-3.16925059692092E-06	-5.1273484060619E-06	-5.5097613428943E-06	2.37520214444091E-06	0.989209328353067	-0.119747625355056
4.9	-0.98449048105742	-0.0952154327473762	-1.04273286146491E-06	-8.53471887142231E-06	-4.21198458600181E-06	7.5021128184697E-07	0.988543953887714	-0.121482706800406
5	-0.987180110711174	0.0288641634736223	7.52690787988909E-06	-1.58713813702103E-06	-1.75527744385816E-06	-2.70995892460802E-06	0.988195667273791	-0.12272236808104
5.1	-0.975576576699485	0.152707063659329	-2.60672242721834E-06	-6.37031707723601E-06	-1.00982748188016E-06	-1.945427293745E-06	0.988216769764962	-0.123924036171766
5.2	-0.94886790225911	0.274037149068236	3.98461521401806E-06	-4.42294143390539E-07	-5.41127172419686E-06	6.29846104443066E-06	0.987837349938985	-0.126017171417727
5.3	-0.907152132021973	0.390916723183697	5.13190234625744E-06	5.97943873399891E-06	-9.62933883926616E-07	-3.57288646554261E-06	0.987350331160069	-0.128068816732909
5.4	-0.851252430181548	0.501382789886241	3.04924779190074E-06	-2.0126291693291E-06	-1.12715406389407E-05	2.20467104630476E-06	0.987020031500095	-0.130355306043356
5.5	-0.782137834869433	0.603918880000343	-4.31467186092823E-07	-2.18709979687433E-06	-5.76677225690155E-06	6.1071785027134E-06	0.987257272727997	-0.132351811317575
5.6	-0.699965275193763	0.697591747526495	2.37670610140378E-06	7.28242197117226E-06	-5.35060994183126E-07	2.9212826694929E-06	0.987534452159296	-0.13525400278781
5.7	-0.60652887351003	0.780033273067357	-2.56267670175477E-06	2.35536123477661E-06	7.88940255829485E-06	2.76640576378017E-06	0.987049960757302	-0.137838322854107
5.8	-0.503447752441289	0.849123034174778	-4.63136775901415E-06	5.08873598218813E-06	-3.64037876606899E-07	3.41116243175789E-06	0.986560627184665	-0.139852736948137
5.9	-0.393409765594912	0.90481231957439	6.33363524235718E-06	1.49577941798295E-06	-2.70236185373044E-06	2.53655457469251E-06	0.98605462112698	-0.141399599302771
6	-0.277803842001061	0.946909182672338	3.50916441629291E-06	3.29280026730134E-06	-3.25759551965434E-07	-1.42989581921669E-06	0.986677708551018	-0.142777058666317
6.1	-0.157267366562638	0.973665945227155	9.14391284064268E-06	1.52401027604894E-06	-1.26144586180032E-07	-1.80244736605474E-06	0.986043175066589	-0.144784959262016
6.2	-0.0346003574434978	0.985361259252232	2.43193597673301E-06	-1.72061596022395E-06	1.47977083122451E-06	-4.82477833401229E-06	0.985079047983286	-0.14558529021671
6.3	0.088689064571957	0.982326066658583	-4.35079534420847E-06	4.2214613703677E-06	-6.09913090496209E-07	-1.71966951122733E-06	0.984648686263993	-0.146785486593007
6.4	0.211100188099641	0.964508611701611	-4.25402045052643E-06	1.05837467869657E-06	-1.77339133845421E-06	8.81324546073306E-06	0.984802560523693	-0.148370566807265
6.5	0.331947984077931	0.930861649231637	2.44684877196627E-06	-1.32505560059716E-06	1.48637646090425E-06	-2.92054643257111E-06	0.985149910201198	-0.151776779926888
6.6	0.445655123655852	0.881129570085497	-4.71562920799474E-06	-2.25366041597742E-06	-1.84962556215797E-06	-6.61945876140576E-06	0.984397179304254	-0.154344306327991
6.7	0.552106721297288	0.818488745349803	4.14999260024379E-06	-6.51318960982582E-07	-4.66210736293236E-06	9.9942467621007E-07	0.984339521531929	-0.156404312201123
6.8	0.649961626360601	0.743053909810954	3.74856535036206E-06	-2.06579117416298E-06	6.1953521278951E-06	-9.08358312459562E-07	0.984088964211232	-0.158547302361661
6.9	0.737384069493284	0.656174746092	2.03748385807821E-06	1.63982656449828E-06	8.75884734845088E-06	-2.72786983765156E-06	0.983884342859234	-0.1602661388181
7	0.813525852164724	0.559179829713064	2.15523262835503E-06	4.09070263304711E-06	-1.07893330467613E-07	5.36703345398208E-06	0.984075347292341	-0.161839063225198
7.1	0.876768954908168	0.453372730592756	-1.37592181422247E-07	1.71232901032924E-06	8.25059607088513E-06	-4.60850773938871E-06	0.983701200387681	-0.163834053675552
7.2	0.926117844876287	0.340375677238352	4.83915964830374E-06	-1.37461485915703E-06	7.22567644794871E-06	3.79425824312649E-06	0.983119049383711	-0.165509985375648
7.3	0.960594801652975	0.222119521742386	4.85188624244378E-06	-1.08857980078655E-06	-7.29563001969826E-06	-7.38649779831018E-06	0.982113222731935	-0.167196593035731
7.4	0.979951444678618	0.100508502497535	-1.87390466530966E-06	9.85649276682193E-06	1.44509585186747E-06	-4.05022757112479E-06	0.980806676942534	-0.168981719748517
7.5	0.985413453425667	-0.0216174471091058	8.32760167660192E-07	8.09040319240237E-07	1.66199676601171E-06	1.00033176740328E-06	0.980973309411202	-0.169926016999878
7.6	0.97609869021232	-0.146372720061632	1.46897273886388E-06	-2.60390197041885E-06	-5.39371804703812E-06	-3.65523894292217E-06	0.981668755729138	-0.173930739265484
7.7	0.949796070730941	-0.268814283344492	5.55853655886813E-06	2.43683151478597E-06	-6.88659447068992E-06	1.20097334487559E-05	0.981009770775579	-0.177639456432438
7.8	0.908541268951547	-0.386367539295742	-5.87288679782483E-07	-5.24549844794301E-06	3.7575809968593E-06	-4.71833963762047E-06	0.980570482788737	-0.180589568091121
7.9	0.853278380785141	-0.497429422430533	8.8466574265904E-06	1.57623407683993E-06	-9.49296956278E-06	-8.69088224876945E-06	0.980638693554985	-0.182948726863171
8	0.785462998612646	-0.602728713383061	-6.66409458018596E-06	-1.66564964716759E-06	-1.20476192258039E-05	2.44429149929342E-06	0.982176877953437	-0.18639499338041
8.1	0.701469224971411	-0.697723828471028	5.08313016625846E-06	7.46523555675806E-07	2.89087214167845E-06	2.27415662038584E-06	0.980949922580757	-0.190510435402449
8.2	0.607541630510822	-0.779613969550193	3.57439346146926E-06	-2.56918022264963E-06	-3.65654338513682E-06	-1.16363754118085E-05	0.980027938280889	-0.192890780578963
8.3	0.504454575542108	-0.849158250239202	2.73386243131535E-06	-1.85256867626652E-06	1.62688194211551E-06	5.29946152415365E-06	0.979248140486392	-0.195432838724258
8.4	0.393739410335876	-0.905020338247062	-5.55225879960803E-06	-1.03177754822157E-06	1.049406460685E-06	2.95443778127694E-06	0.978565195339316	-0.197968597495603
8.5	0.277107323343556	-0.94731679815227	-3.2920923208122E-06	1.61557486204476E-06	-4.77766522655926E-06	-5.0143901676426E-06	0.977972496660056	-0.200965806721439
8.6	0.154447716396826	-0.974949407597477	-8.14756095051119E-06	1.36252214802039E-06	-4.32284756138882E-06	-6.87759711978524E-06	0.977298323700153	-0.203537245174813
8.7	0.0292584693520303	-0.986098261760895	2.25358677599893E-07	-2.14325611419648E-07	6.1231375226467E-06	5.24754239995469E-07	0.97703286435895	-0.206003128127341
8.8	-0.0961004921281653	-0.981090949583718	1.02928650209525E-06	-1.81877002247974E-06	-2.39147092008053E-06	-1.28655032131649E-06	0.976880677614679	-0.208375160917944
8.9	-0.219175846542242	-0.96056165580014	-3.05094817670335E-07	3.03890400860575E-06	-1.23382965377674E-06	-1.64528165118301E-06	0.977019318360745	-0.210693614279707
9	-0.336682634396844	-0.924396763204595	2.97681104040947E-06	1.59055910816751E-06	-1.57742406999721E-06	2.11390725958053E-06	0.976986924881936	-0.213299578493303
9.1	-0.449241603882953	-0.876168449288437	-9.31530721281715E-06	2.24804135186939E-06	-1.5683735366725E-06	2.40649199784175E-06	0.97665741688903	-0.215805616216788
9.2	-0.555982087293382	-0.813722607119876	7.50638027000385E-06	-2.15252417706722E-07	-9.11270102510935E-06	1.94642976798152E-06	0.976029199640516	-0.218541323599364
9.3	-0.653946374242244	-0.738450804691947	9.74110970020508E-08	-7.16547417836871E-06	1.5908589336509E-06	-1.29610363314533E-06	0.975417118661956	-0.221113664505744
9.4	-0.741434396930214	-0.651496623295499	5.91428000456034E-07	2.48592245139319E-06	1.62913578917611E-06	-3.59314147268359E-06	0.974462953977728	-0.223797616790731
9.5	-0.818166101078466	-0.555722570225732	-2.90535743414019E-06	6.6398262508488E-06	4.73605933615943E-06	-1.34866674987569E-06	0.974224776598676	-0.22603198936616
9.6	-0.884438947114831	-0.447571540636998	-5.01911701863008E-06	-5.23912785316343E-06	4.76391061410581E-06	2.90864784590732E-06	0.973916428821199	-0.229646788714382
9.7	-0.934325519876255	-0.330689429235295	-1.99309634506216E-06	-5.09723306382699E-06	2.1040578004894E-06	1.68130568469495E-08	0.973132898747898	-0.232409697562183
9.8	-0.968622719634325	-0.208550241355003	6.06093578756161E-07	-4.2992385584825E-06	-2.94534394293513E-06	-2.53432651487129E-06	0.972759680924212	-0.234327515004593
9.9	-0.98648447887467	-0.0833802339626494	-6.14638501675256E-06	4.21127126216252E-06	-3.09953787882498E-06	1.66437246081531E-06	0.97296677624749	-0.235645083747069
10	-0.988966424722184	0.041226394451053	3.58734497621238E-06	-3.59439275223418E-08	8.24576198121198E-06	1.11642393856101E-05	0.974522265166731	-0.238683232529155
10.1	-0.976793882394594	0.165908352190894	-2.86697061307728E-06	-2.53648677355277E-06	-2.01482164352071E-06	-2.51053295836769E-06	0.972713677086832	-0.242145459746162
10.2	-0.948473941499713	0.288954546772208	2.36782666397202E-06	-1.02327099438616E-06	-2.77916624944844E-06	-1.07391356696531E-06	0.971479781947288	-0.243592977038135
10.3	-0.904389941994684	0.407340327740698	7.80000951339627E-06	-5.97291541398386E-06	3.87270770260167E-06	8.27199704614861E-06	0.970655700962435	-0.245251020354547
10.4	-0.846203194857729	0.518962042039398	1.71458081475875E-06	2.52191270459549E-07	6.30907215924431E-06	-1.19256696135435E-06	0.97020188675156	-0.247237465294898
10.5	-0.773767422998947	0.622480192171612	8.38796344666809E-06	-4.17224979393209E-06	-4.94615801629654E-07	1.98317851763078E-06	0.969900770820164	-0.250675045987879
10.6	-0.689729197360286	0.71419350510199	8.97481068287406E-06	-1.28654068700935E-06	-1.46607029322164E-06	1.37049301902037E-05	0.968811619649896	-0.253728740603861
10.7	-0.595200488192196	0.795104910186695	8.05008412110309E-06	-1.92224015835153E-06	-3.07440426544942E-06	-5.30093910532448E-06	0.967947846418821	-0.256902571485786
10.8	-0.490252902601231	0.864280893211131	2.47088698354728E-06	5.26736211643402E-06	-3.64464547921022E-06	-1.99926786901731E-07	0.966932902985484	-0.259436537561281
10.9	-0.376140868694668	0.91924599486076	-5.58059157633922E-06	5.00006723129467E-07	1.61288812677275E-06	4.04148395179601E-06	0.966309565953834	-0.261612273444789
11	-0.2578627667359	0.957720304923359	-5.29709041899883E-09	-5.23952062982983E-06	-8.40482958999229E-06	2.25282966691834E-06	0.965726136105997	-0.263941797215891
11.1	-0.136347414860624	0.984430439330609	6.34107225139307E-06	4.09743955999341E-06	-1.89713091216502E-06	1.08060526156018E-05	0.964146461742555	-0.266098270312699
11.2	-0.0105701014964425	0.995025797882591	1.5876065910154E-06	1.35827310425375E-06	5.17388865021805E-06	8.93228264230949E-06	0.962416889364236	-0.267701135448572
11.3	0.115975310033065	0.988405499462874	-4.67558540265982E-07	-1.74377595911922E-06	-7.10044423870377E-07	-4.41259924977328E-06	0.960979267914102	-0.268826023185099
11.4	0.240157211971564	0.965700124448292	2.50662265346623E-07	1.19049310249262E-05	2.44272141420954E-06	4.942697857973E-06	0.959473510536245	-0.270236082015824
11.5	0.360139918309605	0.927506451646561	6.21652174945927E-06	-3.37298899236433E-07	3.14378334529018E-07	-1.88940612500619E-06	0.959846373011958	-0.271933999247553
11.6	0.473235834218553	0.874909990907834	-6.02012791920758E-06	3.09820839138636E-06	-4.88359344031102E-06	1.93419761360087E-06	0.959031692988848	-0.276449839595083
11.7	0.578797634260423	0.808948656604888	3.3337756672923E-06	-1.81083755681352E-06	-1.70680082946613E-06	2.24930304186552E-06	0.957365118376226	-0.280050411615618
11.8	0.674962546277975	0.729591710595307	-7.97231925359748E-07	9.82710991829421E-06	-2.69671382470442E-06	1.05789711551341E-05	0.9562259786023	-0.283072183211911
11.9	0.759452456958528	0.638761414823452	-7.32292665894331E-06	-1.02244575222946E-06	-3.89592964219329E-06	1.12964138803788E-05	0.957135432626546	-0.285118639699749
12	0.832481340346819	0.53880944518851	-6.43201190509766E-07	1.3905867357036E-06	-3.15763851819523E-06	-1.92420207004412E-06	0.958590705347787	-0.289996780201805
12.1	0.892457136886256	0.429370680996743	-3.86645880124124E-06	5.02776793603821E-06	-1.29848608775166E-06	8.45463995741772E-06	0.955877545671303	-0.29516873893022
12.2	0.937604738430123	0.313999797389346	-6.00746940397159E-07	-3.8046951929756E-06	-3.12647296910597E-06	-7.14466293964069E-07	0.953247890798245	-0.298554423879578
12.3	0.968189179751324	0.19489420204523	3.62391594047877E-06	3.41606499930425E-06	-3.40271330759551E-06	6.29822363858927E-06	0.950700896780832	-0.301462678321776
