# GHZ S RI R 50
0.2	-0.965247207679622	0.252027079792127	8.81962592581337E-06	5.31335351665979E-06	1.13465265417727E-06	-2.88829658087135E-06	0.999022168299249	-0.00716688074925882
0.3	-0.925421359624839	0.371801120348274	-7.65579683019103E-06	-8.14598419756328E-07	-1.27346787767325E-08	3.65621611192488E-06	0.998801470847379	-0.0100940300097304
0.4	-0.87032790302417	0.485266087724991	-2.19268924815019E-06	6.33242801500169E-06	2.91856265423187E-06	5.72781424950541E-06	0.998503667932952	-0.0127248821168773
0.5	-0.801989502934832	0.59072337829895	-2.64499554009173E-06	5.48185586255568E-07	1.05046146936564E-05	4.87723924451393E-06	0.998212883369959	-0.0153517002031988
0.6	-0.720909941481246	0.686997519111232	-1.72314771742811E-06	-1.82440230058511E-08	4.15806979188012E-06	-1.03233763013229E-05	0.998755943408076	-0.0183869614103981
0.7	-0.628338666317539	0.772174774166871	-2.04402136476178E-06	9.87267679979836E-07	3.77988748165629E-06	1.11441902089371E-05	0.998289163288581	-0.0216798213327145
0.8	-0.525846761023797	0.844994974600762	-5.59604755190485E-06	3.77688071872238E-06	-3.16323205053065E-06	-2.13519662400229E-06	0.997842939407745	-0.0240018536339757
0.9	-0.415344727227747	0.904136322559787	-6.66738826556416E-07	5.2411710914362E-06	3.26063132481821E-06	-2.94709610101873E-07	0.997479360104289	-0.0265659349482691
1	-0.297932208952451	0.948951690745975	1.56509219267283E-05	-3.68057809986686E-06	-9.57748032128195E-06	5.26940972690999E-07	0.996501309687589	-0.0280088338287025
1.1	-0.177010363410072	0.978539176017297	1.34102179810677E-06	-2.97458963005743E-06	9.36724143015701E-06	1.25747703004094E-05	0.996419030582232	-0.0291955835907372
1.2	-0.0524908385530613	0.992995001745133	-7.88938736626653E-06	-3.26265605499433E-06	-3.08625947857186E-06	-4.47393290847708E-06	0.996333907268346	-0.029839410724113
1.3	0.073021664756437	0.991815471936736	1.7227889238848E-07	3.33005303662707E-06	1.92593496124401E-06	3.44125776420983E-07	0.997300425848829	-0.03050504294296
1.4	0.197360457345854	0.974537231563869	1.53196724791001E-08	3.76437310937412E-06	-2.5148718145931E-06	-5.61503777634015E-06	0.997704158805281	-0.0328923707861329
1.5	0.318359885773383	0.9416953840223	3.18411748599816E-06	-2.60911586031932E-07	2.69586194014389E-06	2.09703283012747E-06	0.997856811579616	-0.0365824702672227
1.6	0.434143840206113	0.894165331821716	1.78865482492482E-06	-1.93451699733669E-06	-8.88072874305314E-07	-3.06150599341699E-06	0.997158912664908	-0.04020067045686
1.7	0.542753495789683	0.832042489958337	-8.12094184406653E-08	-3.5203606104121E-06	1.99677242014131E-06	4.92246172500401E-06	0.996984074860452	-0.0429489040350653
1.8	0.642473940892319	0.757282901948367	-2.05264218346303E-06	-1.81325276780262E-06	-4.64999795222547E-06	1.82860726627618E-05	0.996353383705329	-0.0457544455338394
1.9	0.731870417673637	0.670582302286814	-4.38099247049875E-06	-1.46664254317276E-06	-4.91332116124742E-06	-5.99472196717634E-06	0.995540310115939	-0.0481629127990746
2	0.808921057809204	0.573617720913675	-9.39684168469774E-08	-6.72071598744334E-07	-1.66190805843064E-06	-1.41459030403852E-06	0.993890327336709	-0.0500610491512864
2.1	0.874633083420594	0.467689729236491	-1.15297170490805E-06	9.41643497390833E-06	1.98880910315525E-06	-3.75789589698153E-07	0.994299104366628	-0.0512794040621211
2.2	0.92630295030952	0.354294699235451	-1.24452742250719E-08	-5.91160381998742E-06	-7.39323045193938E-07	2.72778021707372E-06	0.994660726351693	-0.0536848170421532
2.3	0.963055065013578	0.235211631597081	-1.31647089478907E-06	2.75471678518008E-06	-2.9230212486862E-07	1.19352402001047E-05	0.994424726513676	-0.0555369514776684
2.4	0.984513743250592	0.111705326845053	-5.84609169037823E-06	-3.70933432474518E-06	-1.75704198464488E-05	1.44409095312661E-05	0.994262542308025	-0.0585477522696845
2.5	0.990561359891317	-0.0123628876641678	1.82116353438604E-06	-2.95027841283959E-06	-1.80441140339076E-06	7.52274930940171E-06	0.993721173467423	-0.0603692272456406
2.6	0.981161038287988	-0.135130889505981	2.85158745817907E-06	9.23556398930298E-07	-1.75739327679292E-06	4.48515706299307E-06	0.993866893590593	-0.0627718858339967
2.7	0.956586815726449	-0.256384559808002	3.78203196438165E-06	1.04255540873632E-05	2.30493105831541E-06	3.86358042707899E-06	0.993787841388141	-0.0654083033525154
2.8	0.917194256094017	-0.374064237843606	-8.04018353981047E-07	-2.28911174188843E-06	2.24789548969548E-07	-1.88206707703751E-06	0.994284764846723	-0.0672743577977704
2.9	0.863602962722774	-0.485693086830551	3.78544484722142E-06	-8.28337542348502E-06	-1.22280069829614E-06	-1.41934261665641E-05	0.994248175955886	-0.0693038692894809
3	0.796237834573942	-0.590327608412874	-3.57828581947386E-08	6.6344628044519E-06	-1.4756057073243E-05	5.23949510231364E-06	0.994347432548558	-0.0716913376632264
3.1	0.717261118608696	-0.684662343026066	-5.00204700683632E-06	7.7903153213386E-06	5.79741777316965E-06	-6.45201556703374E-08	0.994438851583705	-0.0736683453117913
3.2	0.625335883872993	-0.769701641383368	9.50943166685686E-07	2.12585757486391E-06	-4.55546151240653E-06	4.60741183572162E-07	0.994513079355547	-0.075563275647514
3.3	0.523700528174708	-0.842536609582479	7.24061424291886E-07	-1.45520654097415E-06	-4.57880808321994E-06	7.13404735600921E-07	0.994593915046982	-0.0789623619054645
3.4	0.412980545066351	-0.902065947145159	6.46554929366429E-06	2.59077628139462E-07	-8.10472330857072E-06	-7.20741425834755E-06	0.994874232767756	-0.0812739530545694
3.5	0.295088403378045	-0.946362503199533	-7.69975121667142E-06	1.93810552235063E-06	-5.87565294357674E-06	-7.99460798676489E-06	0.994440275246256	-0.0844296008558894
3.6	0.173429963269807	-0.975454013737651	-8.41632301105192E-07	-4.3801396457343E-06	-7.78808988734136E-06	-6.35168319925853E-06	0.994117824319237	-0.0865955009202973
3.7	0.049092579037416	-0.990243308005799	-6.68764377008041E-06	-6.78966971773013E-06	5.44469305692378E-07	-4.75931670746186E-06	0.99411874782948	-0.0892324281878814
3.8	-0.0766842078693649	-0.988680755321553	-3.64633068525348E-06	1.06987008389832E-06	-3.28695679245724E-06	-2.47635580253496E-06	0.993735444112518	-0.0912758156729137
3.9	-0.200564834845909	-0.971099464416832	-4.91561398192223E-07	3.50500841746434E-06	2.0570204731878E-06	-1.21179682049535E-06	0.993439184458009	-0.0944138706259301
4	-0.321179956793176	-0.938251231540065	1.164221002518E-05	8.16315899792994E-06	7.27977332984315E-06	-4.00981229562168E-06	0.992632887273731	-0.0945735061765482
4.1	-0.436510023162026	-0.890981318213251	5.21520108078594E-06	1.34645273319238E-06	-3.48832681442581E-06	6.64126420484503E-06	0.993953926564908	-0.0957157250634575
4.2	-0.545109714007489	-0.829777855182839	-7.10119024823249E-06	-1.23136199166625E-06	-8.27516302192074E-06	-7.47176151500344E-08	0.994285033506684	-0.0987196340105219
4.3	-0.645295823897018	-0.754827701996883	7.12448579313362E-07	-2.36877086468461E-06	5.21719903961903E-06	9.01718920215751E-07	0.994653083051099	-0.101050648715443
4.4	-0.735175848816739	-0.667602644330072	4.48722739964398E-06	-1.76015206151997E-06	-8.74907535921312E-07	1.34565931774031E-06	0.994476788510604	-0.103645758687206
4.5	-0.813818401032684	-0.569842900063817	6.79235309082283E-06	1.89822112042535E-06	-7.93490563184655E-07	-3.26753264236348E-06	0.994960420879041	-0.105650566404201
4.6	-0.879831215696855	-0.462404914768937	2.45190485761495E-06	2.96797866315126E-06	-6.64009616303205E-06	9.74950541868227E-06	0.995246563515296	-0.108996005389636
4.7	-0.931419940558111	-0.346784818232566	-1.41113635821099E-05	5.88680523058831E-06	-3.47201518579599E-06	-4.62024518754036E-08	0.995308981760868	-0.111465563736041
4.8	-0.967930442930324	-0.226254802542008	-3.1542815556632E-06	-5.16935911731826E-06	-5.54895278824725E-06	2.35435327347138E-06	0.995043729154178	-0.114260682700251
4.9	-0.98888728739987	-0.10266387523662	-9.96479847921217E-07	-8.58588311197814E-06	-4.23866285725617E-06	7.28622837876997E-07	0.994762943882319	-0.116342069255614
5	-0.994750478047314	0.0231733925454413	7.58611935241043E-06	-1.55695613889633E-06	-1.75236893641338E-06	-2.73770235383294E-06	0.994637097851927	-0.118122082771541
5.1	-0.98307553829589	0.149519038869621	-2.59656318964129E-06	-6.42391120111055E-06	-1.00814593146038E-06	-1.96271673353385E-06	0.994772713749361	-0.119683366824631
5.2	-0.956711808879418	0.272027526252105	4.01337776590046E-06	-4.29159716497808E-07	-5.47339523763164E-06	6.31919303212769E-06	0.99466236816258	-0.122054324015628
5.3	-0.915309009456952	0.390528332094997	5.14670774999579E-06	6.04136596089081E-06	-9.56661542429638E-07	-3.60212219984671E-06	0.994723229043649	-0.12442519810614
5.4	-0.859166151632711	0.502752779440354	3.07884992969397E-06	-2.01901168649213E-06	-1.13652322312445E-05	2.18782667752492E-06	0.995189869741148	-0.127637737351391
5.5	-0.789014350608462	0.606603514151013	-4.30474504548902E-07	-2.20417542374327E-06	-5.82133449449407E-06	6.14147850009319E-06	0.994869093889538	-0.131055185531522
5.6	-0.706391413882481	0.700709581398723	2.37847936231685E-06	7.33935155686973E-06	-5.44972362700346E-07	2.94101508892458E-06	0.994835458090366	-0.133790878952947
5.7	-0.612873544533214	0.784174580413661	-2.58670770384906E-06	2.36824583434418E-06	7.94388410914598E-06	2.80275504142607E-06	0.994652637584845	-0.136788649245683
5.8	-0.509283978985866	0.854720707455134	-4.67572704624243E-06	5.12342931815224E-06	-3.71662201984914E-07	3.43818430793307E-06	0.994267056720927	-0.139506349706181
5.9	-0.397910219244388	0.911739119231082	6.38466527155534E-06	1.50958008761126E-06	-2.72496522386039E-06	2.55644136876694E-06	0.993190861420669	-0.142089385341681
6	-0.281572591743853	0.954017089002647	3.53166320252627E-06	3.31773145360819E-06	-3.2719741534818E-07	-1.44002868576649E-06	0.992330457551234	-0.142075617392595
6.1	-0.160156503647356	0.983010599415083	9.22167446168479E-06	1.54846512951637E-06	-1.25038527661939E-07	-1.8182974429525E-06	0.994417543794892	-0.143244754243084
6.2	-0.0345440924835978	0.995833217504715	2.4557976506751E-06	-1.73788852225266E-06	1.49388608624531E-06	-4.87264134959004E-06	0.995079481213254	-0.145841401056534
6.3	0.091722802934378	0.9920210770448	-4.38733151962171E-06	4.26997895463895E-06	-6.18610800448396E-07	-1.73574833802615E-06	0.994848847365111	-0.149124146503683
6.4	0.21539846290341	0.971907783587564	-4.28953542663599E-06	1.07640524420338E-06	-1.77115605412636E-06	8.89489603665335E-06	0.993782394925924	-0.151974387143992
6.5	0.335581750833563	0.938577689444562	2.46843305939398E-06	-1.34003182748941E-06	1.49729021556714E-06	-2.94949668636293E-06	0.993858806395184	-0.154602191020958
6.6	0.452231713787743	0.888463683262469	-4.76898154215164E-06	-2.26243394695531E-06	-1.88711125387229E-06	-6.67987727414489E-06	0.993353983822431	-0.158632676620101
6.7	0.560029023208163	0.823745158335838	4.18459126589491E-06	-6.73572286103379E-07	-4.69991630928041E-06	1.02682242784901E-06	0.992234571022137	-0.1614352207517
6.8	0.658635407944983	0.746375509233977	3.76990386837623E-06	-2.10000834215873E-06	6.24213416266311E-06	-9.44299665250314E-07	0.991253378338054	-0.164051780628165
6.9	0.746386159260655	0.657344753577544	2.06201158744962E-06	1.64121495906942E-06	8.81084189634182E-06	-2.79658682728337E-06	0.990144277016872	-0.166555172013832
7	0.821879906087322	0.558558719330026	2.19339638392425E-06	4.10313619014919E-06	-7.61002984063688E-08	5.40110347195379E-06	0.988953575772748	-0.167895965632617
7.1	0.885043493396886	0.451566748913603	-1.28528748733551E-07	1.72334416938593E-06	8.27324042150859E-06	-4.68364391510897E-06	0.988768782462679	-0.169910026437998
7.2	0.93417305239692	0.336881280941807	4.85956288220946E-06	-1.41357997927241E-06	7.29322561442146E-06	3.7712624892406E-06	0.98789743583681	-0.172340071448569
7.3	0.968190189117875	0.216788129004823	4.87354509494874E-06	-1.13006981035564E-06	-7.39305706987317E-06	-7.37894288616314E-06	0.986526425385711	-0.174860950427322
7.4	0.986884972539768	0.0923585489306589	-1.79756403325905E-06	9.9392400011458E-06	1.41823626328277E-06	-4.09031610585736E-06	0.984767985915276	-0.178539262188374
7.5	0.987695146250431	-0.0327818581992482	8.4676441873337E-07	8.01593250356773E-07	1.68195651614333E-06	9.82900158186067E-07	0.980908670189969	-0.181064096275767
7.6	0.974820075139826	-0.155160675009316	1.43773415750791E-06	-2.62166498354665E-06	-5.43787340923514E-06	-3.59055637502093E-06	0.979809411534127	-0.182179417119474
7.7	0.947351605100295	-0.276245030420917	5.57800420885058E-06	2.37402600247948E-06	-6.74892359441523E-06	1.20692521093472E-05	0.979373978939159	-0.184871133415086
7.8	0.905187096013235	-0.393100193391481	-6.39006627386299E-07	-5.22983436612159E-06	3.70309309581256E-06	-4.74739808610528E-06	0.979157033584104	-0.187847997638641
7.9	0.848093470855871	-0.503616283384197	8.83741599980075E-06	1.48369712032346E-06	-9.55275297099806E-06	-8.57185432016565E-06	0.978304683307867	-0.190844258745016
8	0.779067317823136	-0.604408051759495	-6.64189270208073E-06	-1.6086414791401E-06	-1.19678322100739E-05	2.51926756971253E-06	0.977919429713781	-0.191709566676925
8.1	0.698483525360284	-0.699414678058679	5.07554563003987E-06	7.19414254246694E-07	2.89581789386037E-06	2.25461943271741E-06	0.979593221602015	-0.194911620810184
8.2	0.604475522674535	-0.782543490288083	3.55768372469951E-06	-2.58764658974445E-06	-3.71964449334674E-06	-1.16084417989007E-05	0.979468543497574	-0.198402519383675
8.3	0.500553817850045	-0.852433641954984	2.72201471670043E-06	-1.86937752818481E-06	1.65969031384718E-06	5.28872478652529E-06	0.978656842272095	-0.201723303212605
8.4	0.388604014393483	-0.908338278448148	-5.56088366390086E-06	-9.95692713374122E-07	1.06914180215844E-06	2.94853954826924E-06	0.977516800770162	-0.20471587791105
8.5	0.270220478096818	-0.949029277402034	-3.28125367253855E-06	1.64295046188687E-06	-4.82083496486031E-06	-4.97933746939093E-06	0.976789596639296	-0.207608325552792
8.6	0.148102372054742	-0.974809677308349	-8.1277684448568E-06	1.43018159175979E-06	-4.37674942318287E-06	-6.83400568636295E-06	0.975816377433345	-0.210887481487517
8.7	0.023469472071426	-0.985153825782473	2.23240126706845E-07	-2.15659055022694E-07	6.11509907596435E-06	4.75945726185596E-07	0.974561048748841	-0.213528216388585
8.8	-0.101319837365732	-0.979674135007759	1.01421156346935E-06	-1.82121504816263E-06	-2.39422770209274E-06	-1.26689794810491E-06	0.973471257210684	-0.215610622543236
8.9	-0.224230940101795	-0.959676933781966	-2.87747918724387E-07	3.03372627305912E-06	-1.24006774533755E-06	-1.63480907260751E-06	0.972876415234345	-0.217409672506192
9	-0.344544436662082	-0.92271512451848	2.98494187616124E-06	1.57229229112989E-06	-1.56426161945793E-06	2.12232791298022E-06	0.972265483269755	-0.21937776776853
9.1	-0.456628558361429	-0.870508594198011	-9.28865065869396E-06	2.31478879524174E-06	-1.54883046373449E-06	2.41555984434113E-06	0.971886292663783	-0.221146745474959
9.2	-0.561376771938824	-0.805792973163642	7.49005399667986E-06	-2.74989087247106E-07	-9.07937668800068E-06	2.01567187821195E-06	0.971561980470562	-0.223671137351552
9.3	-0.657002552805991	-0.729353455981516	3.73272097455826E-08	-7.14664822989595E-06	1.57567892079053E-06	-1.30583165753349E-06	0.971267089459985	-0.226547176633035
9.4	-0.743290165123264	-0.64186143286539	6.12159271709563E-07	2.47295293621592E-06	1.59157006852347E-06	-3.59691881209337E-06	0.970229276885549	-0.230375399308905
9.5	-0.816874863755092	-0.542958985568134	-2.81935254502589E-06	6.63359344357127E-06	4.69560184332682E-06	-1.39104358271416E-06	0.967959790207127	-0.233051042207705
9.6	-0.878370919333622	-0.437086152741961	-5.02708236456656E-06	-5.15662445004588E-06	4.75359739380967E-06	2.84572080531714E-06	0.967033621437804	-0.235480225964517
9.7	-0.92682602023767	-0.322601024074586	-2.01686642069809E-06	-5.04228374965524E-06	2.08784091797599E-06	4.78844172154335E-10	0.965932800206383	-0.238036116511814
9.8	-0.960194583133373	-0.202264601647223	5.69807490791238E-07	-4.26811395869812E-06	-2.93943724032108E-06	-2.49195275595633E-06	0.964768431099039	-0.240099326446856
9.9	-0.977594849380377	-0.0787131542419179	-6.06023238047051E-06	4.21430385663418E-06	-3.05924841773832E-06	1.67017740250445E-06	0.962731934938371	-0.241458401655095
10	-0.979539020681355	0.0452687493983159	3.5504132245655E-06	-5.35302428644582E-08	8.21716197732388E-06	1.10085935018787E-05	0.962165251041099	-0.240317848005289
10.1	-0.965682458038122	0.168254556008393	-2.84980490043988E-06	-2.50002118209682E-06	-2.005788788007E-06	-2.47786606201901E-06	0.962859887863569	-0.242077777088086
10.2	-0.93667928018268	0.288608359835999	2.34032830348684E-06	-1.02171207766078E-06	-2.75524949596595E-06	-1.05293580954422E-06	0.962123448176115	-0.243457571395951
10.3	-0.892872307602588	0.404108825013907	7.70063488798494E-06	-5.93174044536975E-06	3.85508324770523E-06	8.17355647864484E-06	0.961106157302698	-0.244771320846443
10.4	-0.836241752521936	0.512717613530486	1.69573401664876E-06	2.47045321493205E-07	6.2368486442811E-06	-1.18777042664077E-06	0.959835491549714	-0.245783258227915
10.5	-0.767455695684104	0.615964613247874	8.30518230143798E-06	-4.1282241931185E-06	-4.9020750336211E-07	1.96320310599731E-06	0.959820087674403	-0.247031914705047
10.6	-0.682935545326359	0.708912618184766	8.88644288381932E-06	-1.27708118516514E-06	-1.44690850360348E-06	1.35711902790938E-05	0.959398659138325	-0.249175953807058
10.7	-0.587543306217553	0.788350367855612	7.96549958953688E-06	-1.90150925715445E-06	-3.04172232654786E-06	-5.24535399516847E-06	0.959361296823901	-0.251280081567088
10.8	-0.483445608186908	0.854947055684662	2.43867029259871E-06	5.2126762950497E-06	-3.60485626652942E-06	-2.01477963531209E-07	0.959247273928234	-0.25362782737204
10.9	-0.372052210121477	0.908624987519435	-5.52412021228946E-06	4.84613373918206E-07	1.58887738377502E-06	4.00288483743537E-06	0.958803723169511	-0.255942670942913
11	-0.254241320612684	0.948100113121184	4.38881090786043E-10	-5.18728225331675E-06	-8.32346722986549E-06	2.22124986060611E-06	0.957941501364163	-0.257642780718564
11.1	-0.133590580214289	0.971958431892285	6.26576821405919E-06	4.06268259628703E-06	-1.89321075067231E-06	1.06855897865561E-05	0.957100508247346	-0.259414283099985
11.2	-0.0111327892073619	0.981362065919001	1.5671753511423E-06	1.34727276870607E-06	5.09668701277776E-06	8.84753166398145E-06	0.955904848958459	-0.26110095299913
11.3	0.111841404733242	0.974797813039904	-4.57327850924722E-07	-1.72696849058476E-06	-6.89104346347733E-07	-4.36861935042076E-06	0.955222172778545	-0.262917948623212
11.4	0.232994968601483	0.953244951506529	2.09640714106793E-07	1.17917501723362E-05	2.40329662162781E-06	4.90329428281614E-06	0.953807667399288	-0.265898760712754
11.5	0.350734964775979	0.916903617712484	6.15485864920219E-06	-3.19055218054339E-07	3.15733868497067E-07	-1.86966851571894E-06	0.951294455075899	-0.267428064786491
11.6	0.461909837518023	0.866126270493754	-5.96680543525984E-06	3.04286981205542E-06	-4.83821607529372E-06	1.89552753646768E-06	0.950727156258609	-0.269756023295859
11.7	0.565697575813818	0.802354616668591	3.30709947750372E-06	-1.77689195162741E-06	-1.69910167655191E-06	2.21810738953603E-06	0.949505444610847	-0.272953475245282
11.8	0.660666503080478	0.725501493769458	-8.36360722340442E-07	9.72154489086977E-06	-2.71980599997079E-06	1.0456465276935E-05	0.947910732603503	-0.275806882678477
11.9	0.743567356687387	0.636760847321976	-7.23038183943511E-06	-1.04752991863885E-06	-3.90696984465499E-06	1.11418496221971E-05	0.946256411457305	-0.276573943485599
12	0.814785283610892	0.541875444891778	-6.46860214105467E-07	1.36598374446178E-06	-3.09764117782446E-06	-1.92621784372508E-06	0.947294424714672	-0.275095743366678
12.1	0.877553808811487	0.437199690837732	-3.88389999310077E-06	4.92449736623399E-06	-1.38625138603095E-06	8.34397022720522E-06	0.949317841263243	-0.277263635629283
12.2	0.925393176357662	0.324485349687941	-5.42752876921592E-07	-3.77796729213072E-06	-3.08784983020822E-06	-7.51004820176085E-07	0.949933865959432	-0.279921201420572
