# GHZ S RI R 50
0.2	-0.965669300070668	0.251710224110359	8.82122400960277E-06	5.31833942880793E-06	1.13605370584298E-06	-2.88902254638579E-06	0.999385888155927	-0.00688993964479377
0.3	-0.926057532639078	0.371524647064405	-7.65956377747849E-06	-8.17852740259259E-07	-1.40889512866441E-08	3.65815379642504E-06	0.999238465325853	-0.00977998124666306
0.4	-0.871138414971568	0.485163715078869	-2.19621206617153E-06	6.33623238225623E-06	2.91884900367464E-06	5.73277986436569E-06	0.999056954236386	-0.0124537475744259
0.5	-0.802732548325798	0.590846884152197	-2.64676008708377E-06	5.48330214211281E-07	1.05110572492713E-05	4.88125383465011E-06	0.998554988463266	-0.0152894082486291
0.6	-0.721681832196082	0.687123281623387	-1.72403719185612E-06	-1.87305204614475E-08	4.16308620576553E-06	-1.03275843029357E-05	0.998878954309292	-0.0179032720211143
0.7	-0.629160664725243	0.772485542758764	-2.04576851104122E-06	9.87133370298257E-07	3.77808561384655E-06	1.11530938731947E-05	0.998625323996207	-0.0209134292316517
0.8	-0.52660711767017	0.845504303933685	-5.60215365808293E-06	3.77763169440269E-06	-3.1649167818683E-06	-2.13823899561036E-06	0.998436031120281	-0.0230849547166373
0.9	-0.415978424500762	0.904820451900446	-6.69689478936568E-07	5.24616733963984E-06	3.26404798662186E-06	-2.93589531029241E-07	0.998481484209634	-0.0255769389017891
1	-0.29835142532295	0.949792141859582	1.56728938355863E-05	-3.68253919288398E-06	-9.59059098214148E-06	5.25797616205871E-07	0.997993636140224	-0.0275220634185819
1.1	-0.177119371159348	0.979391808354139	1.34186950181045E-06	-2.97862439221012E-06	9.3822136577629E-06	1.25877464663601E-05	0.997580829814742	-0.0292277695510648
1.2	-0.0523099746537459	0.993658683521538	-7.89839825129231E-06	-3.26142505758241E-06	-3.09150029047572E-06	-4.4763939298309E-06	0.997102812262469	-0.0300849217001133
1.3	0.073247397959729	0.992121219851657	1.74440907422735E-07	3.33123110095037E-06	1.9268955355216E-06	3.43046811216025E-07	0.99740886615544	-0.0306973588496879
1.4	0.19733254375275	0.974784519392166	1.63441361505655E-08	3.76439144240694E-06	-2.51641482777826E-06	-5.61438698653296E-06	0.997510875046688	-0.0324962999318371
1.5	0.31834530397382	0.942206407683456	3.18453388259295E-06	-2.6092957866507E-07	2.69620282406465E-06	2.09731976432941E-06	0.997860637966652	-0.0359896281680008
1.6	0.434280245218647	0.894958646549645	1.78981064895113E-06	-1.93458537457451E-06	-8.87422087460819E-07	-3.06274652340571E-06	0.997377839592711	-0.0392470747763059
1.7	0.543244078884407	0.83302135317474	-7.96918311277735E-08	-3.52285293584855E-06	1.99596424683426E-06	4.92678884467844E-06	0.997710869500747	-0.0419441145234459
1.8	0.643354344544446	0.758345809133119	-2.05386652360975E-06	-1.81621045685053E-06	-4.66426822766785E-06	1.83028855013725E-05	0.997508505105036	-0.0448481361496807
1.9	0.733345226687087	0.67172450365796	-4.38728671505575E-06	-1.47146880638916E-06	-4.91795249734936E-06	-6.0071969286477E-06	0.997285092333007	-0.0475108637308937
2	0.811239512979842	0.574024915978684	-9.43581209367518E-08	-6.73522238405292E-07	-1.66594439413386E-06	-1.41724433150067E-06	0.995752299165662	-0.0505516508575534
2.1	0.876646798391275	0.467519739013261	-1.14991506331455E-06	9.43252770203847E-06	1.99188224710156E-06	-3.77453680658159E-07	0.995326896437706	-0.0517091408706825
2.2	0.928464426735812	0.353973158974967	-1.48149049250163E-08	-5.92189476207254E-06	-7.39527267009232E-07	2.73282467033013E-06	0.995761948558442	-0.0538356449222441
2.3	0.96545745816739	0.234514814945824	-1.31765330431063E-06	2.76074681062074E-06	-2.86878117470899E-07	1.19586486439828E-05	0.995764449378127	-0.0556616666604968
2.4	0.987114532762972	0.110500992480102	-5.86074500317781E-06	-3.71298305294701E-06	-1.75968317956967E-05	1.44828979640652E-05	0.995935395421506	-0.0588914589592766
2.5	0.993301295883262	-0.0142930641625056	1.82329152906945E-06	-2.95847710283809E-06	-1.80320886335435E-06	7.54161088184834E-06	0.995445142671302	-0.0613680934321523
2.6	0.983691740819678	-0.138006542846129	2.86075707703262E-06	9.22104822426287E-07	-1.75595164101732E-06	4.50000729645242E-06	0.995226277474449	-0.0641662894273304
2.7	0.958332314448426	-0.259999950766722	3.81369632156856E-06	1.04433481195654E-05	2.31890755050037E-06	3.86824435703302E-06	0.994701999029	-0.067040403658679
2.8	0.918063373750186	-0.377844998846546	-8.11241532059667E-07	-2.29173136493531E-06	2.20627156858256E-07	-1.88639217863267E-06	0.994832827069045	-0.068826608735969
2.9	0.863810576580398	-0.489344550346183	3.77062956293954E-06	-8.30628175455781E-06	-1.26060920637331E-06	-1.42132105114108E-05	0.994728091058116	-0.0707614389102184
3	0.796006636257112	-0.593750192910099	-1.94772185963242E-08	6.64330490010284E-06	-1.47626125859232E-05	5.28277963767092E-06	0.994736734482423	-0.0733015592304986
3.1	0.716721098969602	-0.687871571418842	-4.98903405721476E-06	7.81049019668867E-06	5.80349362903152E-06	-7.82724755184891E-08	0.994546307779296	-0.0752176587847914
3.2	0.624538487251346	-0.772712372350589	9.56390444472539E-07	2.12564880318647E-06	-4.55843903992864E-06	4.71036894532575E-07	0.994508039008032	-0.0769044325435241
3.3	0.522717090784116	-0.84529156949872	7.21759762321495E-07	-1.45771865700692E-06	-4.58085987761703E-06	7.22899366562127E-07	0.994581349256262	-0.0800995282511805
3.4	0.412212746630597	-0.904586970040057	6.47069805097968E-06	2.49245132945677E-07	-8.12184670093054E-06	-7.2001423759631E-06	0.995054755534896	-0.0822021336372646
3.5	0.294269591633707	-0.949868541021386	-7.70879332005329E-06	1.95243721961772E-06	-5.8965021686586E-06	-7.99830784540348E-06	0.994973952426434	-0.0857254651445543
3.6	0.171274000118889	-0.978626302838917	-8.52864926222476E-07	-4.38401519462771E-06	-7.81310353995211E-06	-6.34213735354299E-06	0.994199335040365	-0.0880150693812889
3.7	0.0466551280560809	-0.992766048491074	-6.70953849725734E-06	-6.7806017347577E-06	5.34010303460747E-07	-4.76501796934449E-06	0.994307202170551	-0.0904189398197086
3.8	-0.0792911055342037	-0.990788855518116	-3.6471325578833E-06	1.07895382711107E-06	-3.29536745914703E-06	-2.47117968702037E-06	0.994348882640158	-0.092532889213835
3.9	-0.203401281655862	-0.972803175154271	-4.83544510335817E-07	3.50987726248531E-06	2.05622590248034E-06	-1.21807365936438E-06	0.994742452357403	-0.0963428144025753
4	-0.324217262094266	-0.939213647070079	1.16741165374678E-05	8.13148182785005E-06	7.27135768764175E-06	-4.03470821458108E-06	0.993320574905554	-0.0984417251523716
4.1	-0.439173843795604	-0.891367001558178	5.21884890547781E-06	1.33226770093997E-06	-3.47025837063876E-06	6.6507326586372E-06	0.992975069958291	-0.0992308480871131
4.2	-0.547581981155777	-0.829816173247451	-7.10386271018701E-06	-1.21272586404962E-06	-8.27472562457091E-06	-5.31045173074124E-08	0.992978682948966	-0.10174749225718
4.3	-0.647619487147256	-0.754454670795565	7.06059621102518E-07	-2.37015765060091E-06	5.21849478460351E-06	8.87785480005367E-07	0.993173512878441	-0.103902416257341
4.4	-0.73737459463795	-0.666550146955617	4.48036531963559E-06	-1.7723451608879E-06	-8.7068767373261E-07	1.34763412555943E-06	0.9927910281259	-0.106539453013488
4.5	-0.815082921751625	-0.567971610986285	6.79006380070884E-06	1.87592662051958E-06	-8.02229951904159E-07	-3.261384537706E-06	0.99252484217896	-0.108486200609896
4.6	-0.880165969690253	-0.460640407948973	2.4559599108058E-06	2.95733705940719E-06	-6.60531882691572E-06	9.75235122392899E-06	0.992582369428468	-0.111191867024927
4.7	-0.931087358764789	-0.345123882121026	-1.40725291234397E-05	5.9115960233847E-06	-3.46615825546432E-06	-3.75323567609843E-08	0.992582240529195	-0.113431362659176
4.8	-0.966873835151993	-0.224689783277545	-3.1598207713959E-06	-5.15119155377739E-06	-5.53186858200731E-06	2.36244951513494E-06	0.992216402235164	-0.115955219053414
4.9	-0.986687230416171	-0.101564749562899	-1.01085274031658E-06	-8.56188883118206E-06	-4.22635071491771E-06	7.35111147275874E-07	0.992011001570277	-0.117785470321265
5	-0.992447658946859	0.0222629024865805	7.56694787597307E-06	-1.56082370898282E-06	-1.75099723496348E-06	-2.7296087710724E-06	0.992018588339415	-0.119630665419344
5.1	-0.981807495154261	0.148651528692063	-2.60017726174749E-06	-6.41000175562086E-06	-1.00889233731057E-06	-1.95820145886488E-06	0.992091784232955	-0.121158534899671
5.2	-0.955401757499374	0.271072148363774	4.0060663486878E-06	-4.34022452319074E-07	-5.45545080373078E-06	6.3162315482441E-06	0.992065092048121	-0.123603421072331
5.3	-0.914231817572438	0.389354321264647	5.14707700244975E-06	6.02406108766435E-06	-9.60323516210575E-07	-3.59486549515701E-06	0.991940477037986	-0.126201601729712
5.4	-0.858297513989154	0.501818691713888	3.07073426018104E-06	-2.02074701754545E-06	-1.13437136108308E-05	2.20257670066981E-06	0.992082098565572	-0.129325323188265
5.5	-0.787617140495438	0.605930162093224	-4.34351644470445E-07	-2.19956175471057E-06	-5.79869930168434E-06	6.14328382474526E-06	0.991590774959339	-0.133012267133629
5.6	-0.704564415396815	0.699429972672931	2.38830513784532E-06	7.31663388112029E-06	-5.37426859541175E-07	2.93508657781535E-06	0.990698617559495	-0.135321454763559
5.7	-0.611153601940807	0.78247520183052	-2.57569060247504E-06	2.36668931485668E-06	7.92812550376107E-06	2.78117019907327E-06	0.990621584524433	-0.137602063018905
5.8	-0.507723336403139	0.852914424359716	-4.65607532508755E-06	5.11826195145748E-06	-3.65279371686139E-07	3.43031713034804E-06	0.990822930393095	-0.140059041966546
5.9	-0.396127566297642	0.910360916693633	6.37643797496498E-06	1.49471908695832E-06	-2.71532176846134E-06	2.55720970065514E-06	0.990811835907661	-0.143381990070536
6	-0.277903619702839	0.951963199349023	3.53708373450956E-06	3.29599571411703E-06	-3.3227012081891E-07	-1.43545972473877E-06	0.988691142795294	-0.146016507409155
6.1	-0.156870432630598	0.978593867551064	9.18746936818172E-06	1.50686975766608E-06	-1.3137062266122E-07	-1.80992574347637E-06	0.988326261480832	-0.146183401464972
6.2	-0.0324971816452992	0.990300537567136	2.43780110203621E-06	-1.73649632144123E-06	1.47119567929425E-06	-4.85214409123359E-06	0.988288744466099	-0.147672974141713
6.3	0.0924998754383409	0.986113571371425	-4.35212737772329E-06	4.25655460551084E-06	-6.19349385446522E-07	-1.72443227022296E-06	0.987828782467952	-0.149861075107338
6.4	0.215666747557444	0.965671567997126	-4.26057001185371E-06	1.0791201097312E-06	-1.74069388070865E-06	8.84359764724209E-06	0.98693773959515	-0.152202344756749
6.5	0.333409748524626	0.930723072608557	2.44836662124805E-06	-1.33095375080494E-06	1.48390473787297E-06	-2.92727957908276E-06	0.986044874596086	-0.153768896817756
6.6	0.447725083186842	0.882886272985667	-4.73417609781419E-06	-2.25506318967838E-06	-1.86428763696621E-06	-6.63903656034844E-06	0.986972426205804	-0.156117114503518
6.7	0.555117420580942	0.819637239407352	4.16303340973901E-06	-6.6138423460837E-07	-4.67625255186132E-06	1.01165256860925E-06	0.986885418658758	-0.158996818127003
6.8	0.653416677859677	0.743592813458138	3.75708408780754E-06	-2.08131502583702E-06	6.21498402289313E-06	-9.25260351435585E-07	0.986403596369067	-0.161557147185905
6.9	0.741446480909416	0.65585696815597	2.05016100176055E-06	1.64013367700445E-06	8.78452527968285E-06	-2.76418865310747E-06	0.986045837329267	-0.164110945529494
7	0.817251146399519	0.557396958918152	2.17985467289183E-06	4.09304363445473E-06	-8.41905922398683E-08	5.38324233239982E-06	0.984586963305172	-0.166267201689879
7.1	0.879996572487113	0.45144849562003	-1.31041576808496E-07	1.71594046844296E-06	8.24707275653797E-06	-4.64950747959208E-06	0.983892405487611	-0.167201428776167
7.2	0.929412149682064	0.338108643119289	4.84246664016536E-06	-1.39449686174275E-06	7.25179239705821E-06	3.7745825201266E-06	0.983547600640444	-0.168657966111419
7.3	0.964114921072624	0.219471074445547	4.85743749760333E-06	-1.1065358908341E-06	-7.33356560200862E-06	-7.37646031094904E-06	0.982979635173584	-0.170140351940921
7.4	0.984663320361013	0.0968061237962448	-1.8505763902645E-06	9.89544421901314E-06	1.43779135838612E-06	-4.06826501296013E-06	0.983200354526506	-0.172526784570082
7.5	0.989014375640756	-0.029703907902743	8.42281853376455E-07	8.07376559350369E-07	1.67685784531433E-06	9.94011182695775E-07	0.982462642056346	-0.177116966329307
7.6	0.975727059675058	-0.153897175018386	1.45004806730117E-06	-2.61928886013007E-06	-5.43051543698968E-06	-3.61687884029456E-06	0.980369529097721	-0.179837411871505
7.7	0.948322531406423	-0.275537006867565	5.57904654176688E-06	2.39526769540101E-06	-6.7973520186072E-06	1.20664181126376E-05	0.979865508706445	-0.182799287474873
7.8	0.906067538959417	-0.39304111497976	-6.29124122167008E-07	-5.24057828544694E-06	3.71975927150827E-06	-4.74811704356412E-06	0.979727013436939	-0.186233608499592
7.9	0.848642384000789	-0.504551459741155	8.85430658493101E-06	1.491000842978E-06	-9.56758443436118E-06	-8.59364223803073E-06	0.979221242962922	-0.190458644570206
8	0.776030401840717	-0.605624370626688	-6.64232080758225E-06	-1.59029202991127E-06	-1.19543853000661E-05	2.54923649475636E-06	0.976023539223273	-0.193663958673902
8.1	0.695976290226658	-0.695933867882008	5.05534885330279E-06	7.15220364992687E-07	2.88476890682742E-06	2.244821080051E-06	0.975570079396014	-0.193895190172
8.2	0.604667085069798	-0.777909027693945	3.54715242652635E-06	-2.57017096082371E-06	-3.68280513508217E-06	-1.15655554474077E-05	0.976016867465673	-0.19581399642343
8.3	0.502869807503812	-0.847909204385843	2.7165903943423E-06	-1.85345907157668E-06	1.63681531481491E-06	5.2721818748665E-06	0.975792563888452	-0.198393731172107
8.4	0.392700917298364	-0.904592922642672	-5.53499444336813E-06	-1.01463024959505E-06	1.05283975744351E-06	2.94137222482013E-06	0.975098631064519	-0.201036652412775
8.5	0.274939445316354	-0.946555761457011	-3.28051350790724E-06	1.62109810061313E-06	-4.7810480945417E-06	-4.99039825422861E-06	0.974343141851115	-0.203213197941395
8.6	0.153751665293319	-0.97236406540806	-8.11687793240761E-06	1.38796770958601E-06	-4.33431578618239E-06	-6.84011387636562E-06	0.97448263317247	-0.205690596761925
8.7	0.0305293258364544	-0.983714088265944	2.2378825600484E-07	-2.14091028320996E-07	6.09908921049161E-06	5.04600278870354E-07	0.974174447659547	-0.208386319994706
8.8	-0.0932757561142348	-0.979559413960165	1.02108339958339E-06	-1.81180962308383E-06	-2.38220011114037E-06	-1.27608716960688E-06	0.973770334959036	-0.210680536554125
8.9	-0.214730072878215	-0.960892398503188	-3.04381536778281E-07	3.02317315705558E-06	-1.22701349804994E-06	-1.63715958655686E-06	0.973689666231768	-0.212775706060982
9	-0.333898737363491	-0.928223805987687	2.96564351327211E-06	1.59307915345518E-06	-1.57806402300513E-06	2.1049834772459E-06	0.973427113520556	-0.215172081937991
9.1	-0.448563172010564	-0.878819783284258	-9.30578377790524E-06	2.23740088047946E-06	-1.56848632117653E-06	2.40221303559828E-06	0.972942992525262	-0.217243765462707
9.2	-0.555614099639966	-0.815632863081403	7.49894284253427E-06	-2.12973789664352E-07	-9.10413530471285E-06	1.94198060690784E-06	0.97233922917437	-0.219582179002553
9.3	-0.653827121747616	-0.73959909794641	9.55277118647184E-08	-7.1608534513445E-06	1.58949831189976E-06	-1.29566747493636E-06	0.972018596369767	-0.221661603979456
9.4	-0.74210512564761	-0.651957991185807	5.94503077891097E-07	2.48594833274654E-06	1.62540742469873E-06	-3.59608113552745E-06	0.971977082979387	-0.224334371195498
9.5	-0.8185994507225	-0.551147041332163	-2.87105568483789E-06	6.64967767940339E-06	4.72638900945682E-06	-1.3709031239644E-06	0.97118901911698	-0.227926513022506
9.6	-0.87814861988158	-0.442973656851814	-5.01986411300392E-06	-5.19369916387327E-06	4.75552558259423E-06	2.87471460062848E-06	0.97012816740705	-0.230384163399401
9.7	-0.925933358814568	-0.329738485676053	-1.99719071480055E-06	-5.06449342229283E-06	2.09295718025998E-06	1.06744615301671E-08	0.969899946704567	-0.232694625823909
9.8	-0.960279383115531	-0.210361029810026	5.93821530095286E-07	-4.27726144285759E-06	-2.93472140382018E-06	-2.51446152250575E-06	0.96999575107485	-0.234970806597053
9.9	-0.979352882177599	-0.0870055379105296	-6.10488407890587E-06	4.20008326532896E-06	-3.0794866174872E-06	1.66123088400545E-06	0.969530966481474	-0.237895502392033
10	-0.983061157475826	0.0379522066814455	3.56423897540337E-06	-4.02850944547781E-08	8.20698582238267E-06	1.10819637963906E-05	0.966666492436918	-0.239145246933954
10.1	-0.969570714121915	0.162447898888772	-2.85045091298562E-06	-2.52081551959167E-06	-2.00336247034212E-06	-2.49519202965653E-06	0.96708465943432	-0.238397980674521
10.2	-0.94068700493878	0.283734287879101	2.35372520489356E-06	-1.01742061674797E-06	-2.76281233872126E-06	-1.06731719780352E-06	0.967966081800995	-0.23981586293557
10.3	-0.896725544335943	0.40035260261246	7.75034552795062E-06	-5.93332206730787E-06	3.84663024217463E-06	8.21901693759585E-06	0.967914014016175	-0.242059340149725
10.4	-0.838472221758632	0.509864112004847	1.70081955617958E-06	2.51411175429249E-07	6.25994138398321E-06	-1.17863941792663E-06	0.966872967324061	-0.244703955530106
10.5	-0.76849451491827	0.60995621585355	8.33130967349654E-06	-4.10409204925514E-06	-4.97912314931794E-07	1.96412498645243E-06	0.965512094328814	-0.246465581558046
10.6	-0.687168430978054	0.70216499478133	8.91904519834466E-06	-1.23614891524352E-06	-1.51942759015642E-06	1.36038933735978E-05	0.965323357302077	-0.248892720991571
10.7	-0.593604770650984	0.783141025195408	8.00586672262478E-06	-1.87283258800188E-06	-3.0299635203292E-06	-5.28007961275975E-06	0.964250854208945	-0.251476889809112
10.8	-0.489723442951041	0.851669147355858	2.42850153704897E-06	5.24452168051749E-06	-3.61943046441386E-06	-2.16559412735857E-07	0.963574505067866	-0.252947123220593
10.9	-0.378177176994235	0.906591140813091	-5.55020761902513E-06	4.64036747020551E-07	1.57936622137497E-06	4.0268722565454E-06	0.963378349315504	-0.254460657653625
11	-0.260507562858349	0.948394816913508	2.04422338910172E-08	-5.2190565879464E-06	-8.38301926123065E-06	2.2027638060615E-06	0.962965717128876	-0.255569746383083
11.1	-0.136819872963172	0.973025298938988	6.2952010123662E-06	4.09904129820423E-06	-1.92522704026719E-06	1.07455575567315E-05	0.963441724217589	-0.256608367399005
11.2	-0.0135661781955503	0.98131144044817	1.5732171848881E-06	1.35662819053375E-06	5.10951690121439E-06	8.90103659763734E-06	0.963594812859377	-0.258498096970595
11.3	0.109076243983338	0.974584613117224	-4.56550580150806E-07	-1.73565523776181E-06	-6.84991490808354E-07	-4.38981475108714E-06	0.963951749278595	-0.260666692362361
11.4	0.230072900209006	0.953674453798461	1.81632636486859E-07	1.18431526813567E-05	2.40164564789564E-06	4.93034770839117E-06	0.964274425272993	-0.264107353635033
11.5	0.348459403885275	0.918048663591027	6.19146556844473E-06	-3.05778950958649E-07	3.22168537853542E-07	-1.87977403166391E-06	0.962588958451059	-0.268810757829666
11.6	0.460338507362755	0.867729509327217	-6.0039202646067E-06	3.05209783493757E-06	-4.86757318557559E-06	1.89982958474785E-06	0.960552959019118	-0.271507430767728
11.7	0.565035328251136	0.8046642998262	3.32741910068811E-06	-1.78230420791555E-06	-1.71122740564807E-06	2.22800154902082E-06	0.960022147384919	-0.274998635068554
11.8	0.661811902662309	0.728774793558589	-8.55153015546195E-07	9.78091507129064E-06	-2.75135395813891E-06	1.05177802552241E-05	0.959443287079422	-0.279284501615868
11.9	0.749082460003496	0.6399297169351	-7.29159230544645E-06	-1.05745179103228E-06	-3.94171644356561E-06	1.12358462426698E-05	0.958272500621832	-0.283566006936046
12	0.822367649336995	0.539008868088164	-6.46249742874778E-07	1.3786407558133E-06	-3.1281574581913E-06	-1.92823058535627E-06	0.953743370575934	-0.28538417318049
12.1	0.883220879836103	0.432678559615301	-3.89011309921254E-06	4.96881583858818E-06	-1.36477086942774E-06	8.40037210732781E-06	0.953406966277557	-0.28428800066193
12.2	0.930862605558694	0.31832078115156	-5.64046943151383E-07	-3.79878509741988E-06	-3.11053544301553E-06	-7.40997871351733E-07	0.953832641164078	-0.285868518997001
12.3	0.963405638177513	0.199420280465966	3.58545396222935E-06	3.44314166566456E-06	-3.45456239571113E-06	6.25482958079174E-06	0.953774208755453	-0.288129975506547
