# GHZ S RI R 50
0.2	-0.965822925390939	0.251593440009084	8.82099747705256E-06	5.31789130165176E-06	1.1359319561934E-06	-2.88893266463119E-06	0.999227782946548	-0.00710288319130976
0.3	-0.926301437028071	0.371405850757372	-7.65922398405532E-06	-8.17917885091684E-07	-1.41362404577197E-08	3.65799644296545E-06	0.999058348645311	-0.00998974135149424
0.4	-0.871484887880931	0.485088648516424	-2.19670790807919E-06	6.33601086357997E-06	2.91836606314347E-06	5.73297525013241E-06	0.998918802031111	-0.0126028934200349
0.5	-0.803127545079929	0.590881813413634	-2.64716319568366E-06	5.48129272113269E-07	1.0511930700081E-05	4.88297621541885E-06	0.998670199155044	-0.0154455126094046
0.6	-0.722097457788323	0.687194909872451	-1.72440281302106E-06	-1.87655250371404E-08	4.16415576915949E-06	-1.0329701594744E-05	0.999145381081463	-0.0183409628820673
0.7	-0.629639316345898	0.772638812245891	-2.04618211111893E-06	9.87492506849865E-07	3.77967040054454E-06	1.11554501845313E-05	0.998846084786116	-0.0216055404569806
0.8	-0.527112666381314	0.845775510270568	-5.60277300554552E-06	3.7792042163551E-06	-3.16587213340777E-06	-2.1382312089264E-06	0.998504832725502	-0.0239688843351452
0.9	-0.416464207508256	0.905214153590043	-6.68693383312247E-07	5.24675237516024E-06	3.26426933926505E-06	-2.94270275985797E-07	0.998235441125702	-0.0265384608959303
1	-0.298779857891706	0.950287104529502	1.56710326456145E-05	-3.68333758640134E-06	-9.58958116430577E-06	5.26461000525249E-07	0.997418533342741	-0.0281635607996901
1.1	-0.177447547444869	0.97996669525749	1.34201777173035E-06	-2.97824738707217E-06	9.38028385440615E-06	1.25874896360166E-05	0.997089988402299	-0.029529687760814
1.2	-0.0524773264556187	0.994234264070961	-7.89752385721816E-06	-3.26192687384397E-06	-3.09085939450646E-06	-4.47635942495381E-06	0.996686811671111	-0.0302803838330939
1.3	0.073212300779119	0.992591137865501	1.74354966435454E-07	3.33095334454459E-06	1.92672538305262E-06	3.43059009190242E-07	0.997050894436869	-0.0308797380501671
1.4	0.197343829103403	0.975176883127182	1.65261005183561E-08	3.76427971802814E-06	-2.51661278037836E-06	-5.61409957582218E-06	0.997287428226605	-0.0327032309556786
1.5	0.318389945548093	0.942562467294473	3.18514195152154E-06	-2.61122494158038E-07	2.69682112091667E-06	2.09760756392303E-06	0.998119057398197	-0.0361786431459539
1.6	0.434285333303193	0.895333860217778	1.7903032983756E-06	-1.93570597940809E-06	-8.88275835810906E-07	-3.06395674071858E-06	0.998088454152849	-0.0398126634188956
1.7	0.543274032397655	0.833436455964481	-8.05877515275844E-08	-3.52465730804874E-06	1.99819278414956E-06	4.92885510519712E-06	0.998509678829649	-0.0427710233124062
1.8	0.643400803403505	0.758738410525112	-2.05540677968525E-06	-1.81660312475888E-06	-4.66182599225137E-06	1.83135600068752E-05	0.998329498036075	-0.045759674505774
1.9	0.733359275009557	0.67209388626572	-4.38980036901451E-06	-1.47128659082498E-06	-4.92168559462128E-06	-6.00918238141775E-06	0.998164598486632	-0.0483931219814823
2	0.811266062238733	0.57435373544992	-9.45295622582083E-08	-6.73920161907852E-07	-1.6672067290935E-06	-1.41783444511613E-06	0.996881440491411	-0.0514615994105097
2.1	0.876505746796807	0.467769812977123	-1.14833328878142E-06	9.4387230765195E-06	1.99303910059182E-06	-3.78176653243377E-07	0.996567774468891	-0.0528487476056494
2.2	0.928182756490663	0.354337287674455	-1.64519230236221E-08	-5.92562706635662E-06	-7.39242731938575E-07	2.73475218989931E-06	0.997013888091444	-0.0551793217812856
2.3	0.965168112775779	0.235020831627013	-1.31758337459759E-06	2.76292831235344E-06	-2.83139888423674E-07	1.19663212722745E-05	0.996940145795549	-0.0571693684315835
2.4	0.986932901138249	0.111017390207387	-5.86579089818502E-06	-3.71293103380252E-06	-1.76018433690036E-05	1.44986984197013E-05	0.996998663811597	-0.060403803551207
2.5	0.993006405473992	-0.0139914711415444	1.82315542603601E-06	-2.96081278436769E-06	-1.8012927549978E-06	7.54646696110244E-06	0.996690023363754	-0.0627373992202884
2.6	0.983128019612046	-0.13758220268156	2.86289829497179E-06	9.21700557756002E-07	-1.75551024160223E-06	4.50348132402699E-06	0.996759869245691	-0.0657477424833541
2.7	0.957715770151669	-0.259438734168321	3.82056361448985E-06	1.04493363829446E-05	2.32210177122747E-06	3.87010403228788E-06	0.996288486960012	-0.0688643546418115
2.8	0.91744659223136	-0.377191007875274	-8.12894830554821E-07	-2.29308839900919E-06	2.19935357655167E-07	-1.88791324573662E-06	0.996349313253549	-0.0708212240259709
2.9	0.863265121741027	-0.488715282891117	3.76910016970567E-06	-8.31447345041824E-06	-1.2689983778881E-06	-1.42231872823613E-05	0.996041438326055	-0.0728032781799943
3	0.795291185585041	-0.593367031384127	-1.53437461804917E-08	6.64800524244975E-06	-1.47697326861837E-05	5.29572355714125E-06	0.995922066478999	-0.0752034072020393
3.1	0.715558291252827	-0.687294969326899	-4.98609249519664E-06	7.81858259252804E-06	5.80671486172701E-06	-8.25968632407819E-08	0.995711576003864	-0.0771460246122177
3.2	0.623231946547954	-0.771724065105099	9.58417920375841E-07	2.12572832407792E-06	-4.55984071718658E-06	4.74771769178693E-07	0.995517902466038	-0.0788765680827379
3.3	0.521442896927263	-0.843921631460919	7.2074404758146E-07	-1.45860009171235E-06	-4.58123683870132E-06	7.26714993678025E-07	0.995390874036788	-0.0820406764593826
3.4	0.411083600172214	-0.902878394175135	6.47070078896401E-06	2.44416688397577E-07	-8.12698194666411E-06	-7.19388708367662E-06	0.995694533325607	-0.0839274426008359
3.5	0.293321766564941	-0.947933167359929	-7.70739560150672E-06	1.95589222145462E-06	-5.89984031169346E-06	-7.9950603469404E-06	0.995954503049182	-0.0871833865655515
3.6	0.170524763078345	-0.976336932985209	-8.55288964856377E-07	-4.38409285341021E-06	-7.81740447644672E-06	-6.33876632866371E-06	0.995439339392954	-0.0899347168709806
3.7	0.0464174237430599	-0.990282436427875	-6.71467890702507E-06	-6.77662647646066E-06	5.30832588595078E-07	-4.76577363307127E-06	0.995274080613035	-0.0927035394438774
3.8	-0.078985328769665	-0.988498641934942	-3.64632906292696E-06	1.08172223771154E-06	-3.29725326685725E-06	-2.46869175683661E-06	0.994892560724354	-0.0949147648581437
3.9	-0.202853550788856	-0.971203046952257	-4.8054972936224E-07	3.51028430526057E-06	2.05518366428655E-06	-1.219825796341E-06	0.994840819565926	-0.0985326980514592
4	-0.324541076958541	-0.938195562435725	1.16824801097099E-05	8.1166270694194E-06	7.26571340205753E-06	-4.04291975073798E-06	0.993272910093278	-0.100205406092908
4.1	-0.440073797847215	-0.889574413814087	5.21774964332932E-06	1.32513137220141E-06	-3.46023270125874E-06	6.65151772261144E-06	0.993049259473941	-0.100820133372588
4.2	-0.548230185046901	-0.82750175138458	-7.100165769704E-06	-1.20402973433615E-06	-8.26891961545315E-06	-4.39386146415879E-08	0.993031695183245	-0.103360130389236
4.3	-0.647885463749662	-0.751990002868439	7.03226001921403E-07	-2.36896564966863E-06	5.21522986152607E-06	8.82072679554705E-07	0.993096032016821	-0.105470906404353
4.4	-0.737258137623561	-0.664304208211777	4.47576345690509E-06	-1.77416063307268E-06	-8.69089416542419E-07	1.34723499413181E-06	0.992666966116089	-0.107904153825428
4.5	-0.815219086531683	-0.566247925963484	6.78860013356868E-06	1.87215871182879E-06	-8.03456014027845E-07	-3.25989761306952E-06	0.992683776605004	-0.109614823953179
4.6	-0.88084245336884	-0.458550466998428	2.4583174207913E-06	2.95606446870946E-06	-6.59956093304526E-06	9.75820193010456E-06	0.993188800061646	-0.112511335769726
4.7	-0.931695085655255	-0.342466836232339	-1.40709535841169E-05	5.92790604114954E-06	-3.46730131693447E-06	-3.39910658940172E-08	0.993337252918134	-0.115111934449526
4.8	-0.967133007926586	-0.221625083050363	-3.16793591924425E-06	-5.1488747543649E-06	-5.5307672492662E-06	2.37077741819648E-06	0.99292792508082	-0.117961949375546
4.9	-0.986467942414433	-0.0982753528973472	-1.02565117737502E-06	-8.5624114500524E-06	-4.22620785147518E-06	7.42477743973809E-07	0.992460477829277	-0.119956937820881
5	-0.991856762816771	0.0257630311724827	7.56282652127902E-06	-1.57513161828208E-06	-1.75598229711221E-06	-2.72583948484099E-06	0.992293113114715	-0.121552179243776
5.1	-0.980311400856947	0.152502382862155	-2.61090503394094E-06	-6.40155935573145E-06	-1.01205200042105E-06	-1.95521559340804E-06	0.992502208970028	-0.123091019976075
5.2	-0.952821926047001	0.274457198384937	4.00149711358219E-06	-4.4079402765388E-07	-5.43896399567924E-06	6.32003510333996E-06	0.992240847544778	-0.125640228115383
5.3	-0.91105884430222	0.391790819047077	5.14920533029702E-06	6.00808759018205E-06	-9.64461049111629E-07	-3.58852919520059E-06	0.991740335929379	-0.128042491198113
5.4	-0.855219253457246	0.503122647500594	3.06401836969541E-06	-2.02030588309673E-06	-1.13236617009492E-05	2.20932540277028E-06	0.991680568316459	-0.13060862305373
5.5	-0.785565038303081	0.606912240161705	-4.34657289155076E-07	-2.19708565916595E-06	-5.79043371599222E-06	6.13880618506803E-06	0.991701226226052	-0.133753233984073
5.6	-0.702346303888918	0.701090303651516	2.39174641624747E-06	7.30962552596772E-06	-5.34959319882382E-07	2.93333338689054E-06	0.991244015584163	-0.136367905250913
5.7	-0.608163162751966	0.783833112377679	-2.57110727870361E-06	2.36672834513837E-06	7.92302447210047E-06	2.77141398089322E-06	0.991080459167657	-0.138933152651207
5.8	-0.504279420584178	0.853357099890762	-4.64526930851075E-06	5.11560930644589E-06	-3.61714000803698E-07	3.42606708759153E-06	0.990938123737551	-0.141518710169497
5.9	-0.392757890369504	0.909464895480568	6.36528867517991E-06	1.48732003808075E-06	-2.70830195289382E-06	2.55424363267277E-06	0.990332591786391	-0.144680683467154
6	-0.275628154206858	0.949791686516169	3.52797712362434E-06	3.28732778772527E-06	-3.31445665247407E-07	-1.43171798020528E-06	0.987657608202096	-0.146590613205959
6.1	-0.156064986450467	0.97622104421755	9.16112871391378E-06	1.51191084864444E-06	-1.29219495953002E-07	-1.80516154692459E-06	0.9873134227069	-0.145866811665188
6.2	-0.0327692932425859	0.988290725485235	2.43477712389789E-06	-1.72816512789603E-06	1.47576546183657E-06	-4.83784226618596E-06	0.98747899151437	-0.146745105973698
6.3	0.0915843885569149	0.984811439587471	-4.35233792203501E-06	4.23910208881986E-06	-6.14547128828917E-07	-1.72230255478527E-06	0.987362701036754	-0.148511011369186
6.4	0.214602807547132	0.965142476819525	-4.25706786050037E-06	1.06861407739019E-06	-1.75709006334677E-06	8.82788311749966E-06	0.986924843739867	-0.150741793241523
6.5	0.33249198203063	0.930892054476132	2.44919590448578E-06	-1.32531193339742E-06	1.48848067286403E-06	-2.92236416591685E-06	0.986552617668284	-0.152387980773731
6.6	0.447403531198095	0.88352056057715	-4.7306551182034E-06	-2.26168720672434E-06	-1.85468185588594E-06	-6.64128294993458E-06	0.988049262442561	-0.155246160485493
6.7	0.555220145122083	0.820134351421959	4.16434158382459E-06	-6.5794513019103E-07	-4.67795161962683E-06	1.00783745638581E-06	0.9880133579549	-0.158730230472604
6.8	0.653580978384322	0.743867775358207	3.7586032326532E-06	-2.07995191754287E-06	6.21636654472981E-06	-9.22613736366828E-07	0.987336465141958	-0.161613261663366
6.9	0.741432358423122	0.655983798270868	2.0495580866292E-06	1.64052588045823E-06	8.78448879436988E-06	-2.76166605471859E-06	0.986669578736013	-0.164193646886745
7	0.816956966635332	0.557643036373642	2.17725903488072E-06	4.09275363209077E-06	-8.66650433314581E-08	5.38148969396036E-06	0.985065592915245	-0.165943020545603
7.1	0.879672231808882	0.451901068042053	-1.32257998258729E-07	1.71551739750473E-06	8.24885901737429E-06	-4.64265123150822E-06	0.984778526328842	-0.166641708110671
7.2	0.929039401191398	0.338634485931631	4.84334890418078E-06	-1.3905981774958E-06	7.24847080060657E-06	3.78015213445926E-06	0.984710043656126	-0.168258469039539
7.3	0.963602919118883	0.220175606213364	4.85849199218129E-06	-1.10231047004845E-06	-7.32725063233052E-06	-7.38300246356706E-06	0.984231707500817	-0.169935230600168
7.4	0.984122918182061	0.0979960008262753	-1.86197540676578E-06	9.89402929850323E-06	1.44252516355124E-06	-4.06691232875559E-06	0.984489550677097	-0.172424131167164
7.5	0.989135635935513	-0.0281425176570383	8.41543237052873E-07	8.09047605373655E-07	1.67629023202018E-06	9.97010406066763E-07	0.983907604198739	-0.177231418295955
7.6	0.976265662986799	-0.152614549082574	1.45498901093006E-06	-2.61979113130943E-06	-5.43072488128212E-06	-3.62770041129183E-06	0.981669220128415	-0.180279697209203
7.7	0.949060943402483	-0.274447730835064	5.58226396984631E-06	2.4051769107377E-06	-6.82061212372073E-06	1.2071290017898E-05	0.980903725911025	-0.183338064064753
7.8	0.906980188476553	-0.392194230321278	-6.23348523308191E-07	-5.24782607494119E-06	3.73028115447666E-06	-4.74932109866173E-06	0.980484837269622	-0.186656871836469
7.9	0.849789330944563	-0.504237971175649	8.8650203836612E-06	1.50328276177131E-06	-9.57112633056288E-06	-8.61671551601824E-06	0.979836712432295	-0.190681026367032
8	0.776648732545924	-0.606745715999376	-6.65233108620031E-06	-1.59586702290683E-06	-1.19748500475617E-05	2.54794445817161E-06	0.97652068947342	-0.193964786614453
8.1	0.694999936258754	-0.697033042983844	5.06032204234502E-06	7.15744815863622E-07	2.88767060161219E-06	2.24691816339227E-06	0.975690449963394	-0.193968840830947
8.2	0.602823876571376	-0.778416367345956	3.54856940444951E-06	-2.5720951026322E-06	-3.68663776111533E-06	-1.15709548210944E-05	0.976008755483639	-0.195739030835049
8.3	0.500553290948687	-0.847693459373033	2.71654253702513E-06	-1.85429832832459E-06	1.63818571337481E-06	5.27251831015548E-06	0.975637381598401	-0.198219272926736
8.4	0.390479061511669	-0.903624867159285	-5.53347124309926E-06	-1.0138922787342E-06	1.05277040617925E-06	2.94043511491696E-06	0.974827902302742	-0.200760253132501
8.5	0.273080417298419	-0.945874223208261	-3.28070979156533E-06	1.61912805655412E-06	-4.77761038482325E-06	-4.99186922646992E-06	0.973965992783163	-0.2028447749457
8.6	0.15085675234101	-0.971735668654965	-8.12084934631829E-06	1.38656549315893E-06	-4.33454772144649E-06	-6.84424902427846E-06	0.974115921114794	-0.205216116504714
8.7	0.0269003091430865	-0.982066059046045	2.23840660895933E-07	-2.1429888780916E-07	6.10285034200006E-06	5.02651626445616E-07	0.973848413702209	-0.207910925904413
8.8	-0.096960510067791	-0.97652335001882	1.01962016716274E-06	-1.81367606746307E-06	-2.38458413558127E-06	-1.27413428534209E-06	0.973489717558039	-0.210243101056413
8.9	-0.217576200403695	-0.956523028911843	-2.98850888055774E-07	3.02342084544518E-06	-1.22986764458358E-06	-1.63476163434728E-06	0.973497669389113	-0.212419760811318
9	-0.3353840060341	-0.923721676231997	2.96549577551113E-06	1.58507970319756E-06	-1.57186580383094E-06	2.10580569517295E-06	0.973310106183376	-0.215092878547216
9.1	-0.449477983880906	-0.874480497246101	-9.28454248281894E-06	2.2491747217205E-06	-1.56143328398112E-06	2.40041001333588E-06	0.972592371845651	-0.217412888964326
9.2	-0.555846305988797	-0.811697386852747	7.48198433873001E-06	-2.20913091724306E-07	-9.08165786429213E-06	1.94786603648822E-06	0.971736475012921	-0.21974721477599
9.3	-0.653725375917017	-0.736472586887366	9.25558665682129E-08	-7.14476232351432E-06	1.58541960339369E-06	-1.2933612362115E-06	0.971249631533414	-0.221692009702115
9.4	-0.74188714937589	-0.650050653814537	5.91827827295935E-07	2.48111758239374E-06	1.62410391129153E-06	-3.58765569916485E-06	0.971195838810291	-0.224139590813561
9.5	-0.820301206486209	-0.551013745876219	-2.8790459861025E-06	6.6400854969786E-06	4.72481733666184E-06	-1.36256774465615E-06	0.97065923931853	-0.227789963204303
9.6	-0.882138102276126	-0.441342552951473	-5.015894251274E-06	-5.20148473427685E-06	4.75410536903116E-06	2.88128617758937E-06	0.969417922191232	-0.230387354844898
9.7	-0.930016937847723	-0.326220043820862	-1.99527700317159E-06	-5.06987649087411E-06	2.09460512900421E-06	1.21265408501569E-08	0.969067818136689	-0.232578377652155
9.8	-0.963470983172846	-0.20555079443137	5.95813919666E-07	-4.28119046054357E-06	-2.93671789897547E-06	-2.5178611070526E-06	0.969237007116275	-0.23465239495106
9.9	-0.980845752047989	-0.0819063501140521	-6.10927548210756E-06	4.20472413575609E-06	-3.08178414061613E-06	1.66318617849808E-06	0.969272465105548	-0.237568846472219
10	-0.983752366435177	0.0416062419943562	3.56412123567861E-06	-4.17267430281941E-08	8.21123821677785E-06	1.10783262548491E-05	0.966605637293898	-0.239802845883366
10.1	-0.971211968069773	0.165806325313772	-2.84869085335037E-06	-2.5213695174013E-06	-2.00182486050466E-06	-2.49540048883527E-06	0.966309779162165	-0.239342497920279
10.2	-0.942493685809837	0.287766196276346	2.35502237096582E-06	-1.01604002477877E-06	-2.76276331922446E-06	-1.06950476448837E-06	0.966890140462881	-0.240620789880596
10.3	-0.898039891335592	0.404896914570151	7.76018248589109E-06	-5.93321956116678E-06	3.84458019313162E-06	8.22793019545023E-06	0.966835579952111	-0.24260204626524
10.4	-0.839150442315519	0.514106281410401	1.70309689948941E-06	2.52509425321464E-07	6.26924524772547E-06	-1.17755069676526E-06	0.966261589248251	-0.244993136400776
10.5	-0.770083785246365	0.613559861209906	8.34984693265671E-06	-4.1124970344164E-06	-4.99140819292037E-07	1.96839232826011E-06	0.965695027700161	-0.247110755401305
10.6	-0.689600313467604	0.706939467663498	8.94221559042036E-06	-1.24597212452635E-06	-1.51363323325397E-06	1.3641710861676E-05	0.965784776089277	-0.250401084889426
10.7	-0.596088212247981	0.789008989626523	8.02495686322037E-06	-1.8881809739452E-06	-3.04490698581749E-06	-5.29035695256205E-06	0.964427243780906	-0.253699434443496
10.8	-0.491744671030736	0.85869949496502	2.44301392293511E-06	5.25403356277698E-06	-3.6289984880696E-06	-2.11367190160601E-07	0.963271398124502	-0.255470912275274
10.9	-0.379104976193457	0.913655569379069	-5.56080758532754E-06	4.75108456454621E-07	1.58996181527749E-06	4.0322982099225E-06	0.962936948861885	-0.257132328730181
11	-0.262671755747948	0.955121239877632	1.40565270209082E-08	-5.22632201972964E-06	-8.39194174926497E-06	2.21612214472614E-06	0.962297326659825	-0.259069507899268
11.1	-0.139062576258832	0.982692613648421	6.30736331017584E-06	4.10308986834608E-06	-1.92376534094407E-06	1.07641280015904E-05	0.961440533723945	-0.260384445730237
11.2	-0.0133984120153077	0.992794443063884	1.57670354858977E-06	1.35917647442628E-06	5.12159063574658E-06	8.91862678284581E-06	0.960546980326346	-0.261694830276049
11.3	0.112370507906262	0.986299956012091	-4.57908207475264E-07	-1.73984542757813E-06	-6.87274213614202E-07	-4.4004772213552E-06	0.960269847588162	-0.262722892957473
11.4	0.236112724160106	0.964219984821	1.82962743102767E-07	1.18769324828891E-05	2.40883627762085E-06	4.94425091304595E-06	0.960674989917262	-0.264675425093432
11.5	0.355819855840511	0.926761377908972	6.21258236485748E-06	-3.0949957529421E-07	3.22463201109705E-07	-1.88636429229765E-06	0.960188205285292	-0.268994254758604
11.6	0.468888977775642	0.875171822978457	-6.02037034246283E-06	3.06851900624064E-06	-4.88152268044484E-06	1.91125684751277E-06	0.958139439427069	-0.272007102145383
11.7	0.574837430524933	0.810013700114925	3.33527859447041E-06	-1.7918683964211E-06	-1.71362962571497E-06	2.2368961240688E-06	0.957539610993092	-0.274987998865409
11.8	0.671844758542247	0.731203607449758	-8.43936208738016E-07	9.80989282115783E-06	-2.74449564094333E-06	1.05514967427395E-05	0.957595183165856	-0.278648298146743
11.9	0.7574154102006	0.639188852929486	-7.31329798208438E-06	-1.04792083364081E-06	-3.93334195985487E-06	1.12732309938218E-05	0.95824109162822	-0.283223245368786
12	0.826679446135613	0.537501245470978	-6.44749573953041E-07	1.38293779294133E-06	-3.13887281735583E-06	-1.92581379602913E-06	0.954806525513547	-0.287480967549104
12.1	0.885764764346842	0.432966181493291	-3.88522880073262E-06	4.98584492149772E-06	-1.34792582214892E-06	8.41731526734851E-06	0.953552405391613	-0.288703674477557
12.2	0.933029445033266	0.319626087481456	-5.74320320180571E-07	-3.80147810367196E-06	-3.1157994665686E-06	-7.33892695805178E-07	0.952682824169515	-0.29168934799674
12.3	0.965445535898501	0.201144537379855	3.5962279277328E-06	3.43480113714835E-06	-3.43898867452052E-06	6.26670525007103E-06	0.951186934113398	-0.294631130893718
