# GHZ S RI R 50
0.2	-0.96557639596484	0.251837793879596	8.82141494264874E-06	5.31753733980833E-06	1.13580575374771E-06	-2.88903888568848E-06	0.999421921275345	-0.0069130322129543
0.3	-0.925899335621284	0.371635907653426	-7.65927900292755E-06	-8.17105385003146E-07	-1.37497385584705E-08	3.65798294521676E-06	0.999288864063149	-0.0098458670813359
0.4	-0.870965204869276	0.485219250577479	-2.19568993117454E-06	6.33598573141586E-06	2.91902582646768E-06	5.73225488857805E-06	0.999110022780565	-0.0125124716334052
0.5	-0.802635117578801	0.59096184543597	-2.64696902200432E-06	5.48579634559818E-07	1.05124141232956E-05	4.88092974324132E-06	0.998804237321377	-0.0154041568161573
0.6	-0.721418600805028	0.687278134733963	-1.72407754635753E-06	-1.82412069401628E-08	4.16023736536639E-06	-1.03289766502749E-05	0.999015655523037	-0.0183013148335089
0.7	-0.628856026797569	0.772530396760727	-2.04530228696631E-06	9.87611708858404E-07	3.78084309124938E-06	1.1150999282828E-05	0.998604037029022	-0.0213196219855652
0.8	-0.526319064008103	0.845480808417536	-5.60034139381191E-06	3.77855976143976E-06	-3.16502015346125E-06	-2.13709268479454E-06	0.998321720173701	-0.0234813093289677
0.9	-0.415719031843762	0.904741701178759	-6.68217679078963E-07	5.24512758426322E-06	3.26322268989745E-06	-2.94341712827293E-07	0.998220366178834	-0.0259230358671825
1	-0.298164090304339	0.949665319179696	1.56677563215835E-05	-3.68218139734137E-06	-9.58753594693491E-06	5.26124136923413E-07	0.99772836407845	-0.0275516965788796
1.1	-0.177024475692151	0.979286695397464	1.34186439837202E-06	-2.97819996848687E-06	9.38044253451606E-06	1.25867346557532E-05	0.99756828918571	-0.0292884010817818
1.2	-0.0522971128817658	0.993669240995772	-7.89833200461691E-06	-3.26204204009864E-06	-3.09125134813374E-06	-4.47670067076395E-06	0.997172768577579	-0.0301388103924058
1.3	0.0733693556554821	0.992332748677059	1.7452645257079E-07	3.3321332650351E-06	1.92742246805555E-06	3.43117825959197E-07	0.997736403724664	-0.030866752441034
1.4	0.197735219311305	0.974944600878452	1.76837531062369E-08	3.76574370773495E-06	-2.51931183145602E-06	-5.61552089034653E-06	0.997826580650099	-0.0330542786211434
1.5	0.318853746914439	0.942166094968429	3.18504094912151E-06	-2.62682906441585E-07	2.69786994512622E-06	2.09630584969905E-06	0.997997862816337	-0.0366347523474262
1.6	0.434772570506114	0.89457710905336	1.78831757279194E-06	-1.93584317773566E-06	-8.8965782768691E-07	-3.06198449542346E-06	0.997236926552453	-0.0400718716663057
1.7	0.543494736309559	0.832440630894236	-8.21819863735954E-08	-3.52161502777904E-06	1.99881503562718E-06	4.92371122886224E-06	0.997279801413195	-0.0426445563441015
1.8	0.643335732682178	0.757652500784997	-2.05385174764709E-06	-1.81383973484965E-06	-4.64978731064788E-06	1.82953323560452E-05	0.996869597250851	-0.0454077124370584
1.9	0.732857123454316	0.67102239581752	-4.38370002953718E-06	-1.46805469345368E-06	-4.91590618014538E-06	-5.99914519154237E-06	0.99632670874444	-0.0477418569199036
2	0.810526670823729	0.574080353696518	-9.40140851515871E-08	-6.72975157559433E-07	-1.66394850318211E-06	-1.41666449725647E-06	0.995261714121557	-0.0499879816518494
2.1	0.87648850178889	0.46741960712274	-1.14997931745811E-06	9.43025289035357E-06	1.99142400447167E-06	-3.77293218612464E-07	0.995342396417831	-0.05181396304575
2.2	0.928043263244784	0.353626970243832	-1.62589469478963E-08	-5.91910624327137E-06	-7.38509880725467E-07	2.73172070744597E-06	0.995413830670726	-0.0541892770098871
2.3	0.964704984731025	0.234241072270384	-1.31607250899041E-06	2.75914360803714E-06	-2.83801081469318E-07	1.19503997501052E-05	0.995117637082119	-0.055973381361496
2.4	0.986061920575319	0.110494253500301	-5.85667277703801E-06	-3.70860095544104E-06	-1.75789807014408E-05	1.44746827263028E-05	0.995007352809723	-0.0590069102010587
2.5	0.992147212483355	-0.0138313992835375	1.82019338679811E-06	-2.95529078404768E-06	-1.79886213622533E-06	7.53269794148672E-06	0.994474432373394	-0.0610623755250499
2.6	0.982651767066515	-0.137079625907922	2.85587146716564E-06	9.21788743457844E-07	-1.7549720082966E-06	4.49220041739217E-06	0.994399383821713	-0.0636150656515933
2.7	0.957759763540299	-0.258751525266132	3.79943839418937E-06	1.04339511804053E-05	2.31250815124517E-06	3.86559269722807E-06	0.99417415886757	-0.0663171060950712
2.8	0.917907045289186	-0.376711651758655	-8.08265946066978E-07	-2.2907109936031E-06	2.22362102190199E-07	-1.88465167130268E-06	0.994547132756863	-0.0682269254943304
2.9	0.863775158870358	-0.488395162769608	3.7762516730954E-06	-8.29839834647614E-06	-1.24688452984178E-06	-1.42068044461786E-05	0.994440936483955	-0.0702870223312002
3	0.796037320207231	-0.592839588853012	-2.4760286067128E-08	6.64043962287869E-06	-1.47604876592917E-05	5.26875500756879E-06	0.994456441409504	-0.0727819972170013
3.1	0.716814829849848	-0.68710452820071	-4.99302269112674E-06	7.80466560011972E-06	5.80181925686816E-06	-7.41808735832972E-08	0.994343216366928	-0.0747678344617191
3.2	0.624565564157694	-0.772026544934692	9.5508678519169E-07	2.12565058601519E-06	-4.55763652498809E-06	4.68602675884326E-07	0.994303318237633	-0.0765642321838236
3.3	0.522601524951227	-0.844638527466877	7.21988711389239E-07	-1.45716345336314E-06	-4.57994543164906E-06	7.21451796242347E-07	0.994314300634813	-0.0798969486845011
3.4	0.411683054086745	-0.903709643127512	6.46775316088218E-06	2.48333738223467E-07	-8.11899843043352E-06	-7.19583126170224E-06	0.994508660956114	-0.0821539626073137
3.5	0.294216232023123	-0.947841440747818	-7.69834812355463E-06	1.94892815684322E-06	-5.88751337442159E-06	-7.98787783981618E-06	0.994060502794439	-0.0852011388102538
3.6	0.172185541503186	-0.977307287518941	-8.48280330096072E-07	-4.38040402357843E-06	-7.79995970734305E-06	-6.34252682928863E-06	0.993717088927874	-0.0873709478418363
3.7	0.0473462923289357	-0.991792199405533	-6.69983441705502E-06	-6.78051689372407E-06	5.37040672300286E-07	-4.76119548790862E-06	0.993734000545311	-0.0899533894862756
3.8	-0.0786806244489074	-0.9896985739297	-3.64483119952259E-06	1.07576455328952E-06	-3.2911086472895E-06	-2.47124211902149E-06	0.993457610460811	-0.0919912786675304
3.9	-0.202491549882111	-0.971457385997575	-4.86244904796929E-07	3.50569934744808E-06	2.05515351285035E-06	-1.21489401045469E-06	0.993423960046554	-0.0951863866046964
4	-0.322601994233077	-0.938216352914218	1.16565491472266E-05	8.14446962823729E-06	7.2736540214492E-06	-4.02214660972474E-06	0.992991017046712	-0.0960838916656728
4.1	-0.437600957784742	-0.890955647218285	5.21616460022516E-06	1.33680283533449E-06	-3.4755510540175E-06	6.64564735838373E-06	0.993504218209237	-0.0978439464660184
4.2	-0.546065611715841	-0.829745531192913	-7.09961008729931E-06	-1.21911605525387E-06	-8.27109537607626E-06	-6.11358861552929E-08	0.993244623436323	-0.100706983367513
4.3	-0.646206898718297	-0.754716974083787	7.08427905248362E-07	-2.36841257766831E-06	5.21539884465334E-06	8.93268468125813E-07	0.993296893551995	-0.102833236917097
4.4	-0.73611269936861	-0.667199079532829	4.48155657525633E-06	-1.76599296504636E-06	-8.72240289928087E-07	1.34614380653032E-06	0.99295070765062	-0.105299469578536
4.5	-0.814323399197052	-0.568845888736213	6.78882658034179E-06	1.88424256709307E-06	-7.98482764513058E-07	-3.26280804400905E-06	0.993085857330015	-0.107384801457546
4.6	-0.879582665916916	-0.461483335706311	2.45286417722319E-06	2.95984289167684E-06	-6.61533611294916E-06	9.74538123592154E-06	0.992884339385604	-0.110373931829586
4.7	-0.930783499359951	-0.3461212809056	-1.40803293566577E-05	5.89543178028004E-06	-3.46632562667438E-06	-4.1604831325594E-08	0.992801470968228	-0.112465122650148
4.8	-0.967040556436982	-0.225768945720869	-3.15450852044828E-06	-5.15651015420279E-06	-5.53633337007205E-06	2.35644514140912E-06	0.992495385631097	-0.114950885627733
4.9	-0.987617796210338	-0.102212804840565	-1.00320464191904E-06	-8.56816320506244E-06	-4.22967607241202E-06	7.31481967856186E-07	0.992285382428168	-0.116798398881708
5	-0.99269273646208	0.0228823948207024	7.56894606615481E-06	-1.55848566126587E-06	-1.75038211446893E-06	-2.73074371978931E-06	0.992237523359884	-0.118554875985088
5.1	-0.981548428606702	0.148279964832368	-2.59398434542282E-06	-6.41110085528728E-06	-1.00695983907082E-06	-1.95872804317997E-06	0.992281906298484	-0.120002755806317
5.2	-0.955669368347314	0.270677146140423	4.00653522214721E-06	-4.29781558989246E-07	-5.46215153307217E-06	6.31046960211981E-06	0.992240429465699	-0.122231120912958
5.3	-0.914500140591409	0.389226005139247	5.14104670504569E-06	6.02989329625039E-06	-9.5658721813418E-07	-3.59611482309155E-06	0.992342280297406	-0.124618109407242
5.4	-0.858343483907708	0.501598023183824	3.07280041541911E-06	-2.01749143590434E-06	-1.1345827149122E-05	2.19064129925236E-06	0.992670237328676	-0.127841029742236
5.5	-0.787806574566581	0.605256665109915	-4.30992139936101E-07	-2.19983283791995E-06	-5.80687853306146E-06	6.13356912699169E-06	0.992225115998021	-0.131142798883616
5.6	-0.705301751512517	0.698771630777289	2.3769183077502E-06	7.32333035144407E-06	-5.42545088887481E-07	2.93526579109026E-06	0.992003188786924	-0.133715821204319
5.7	-0.612148713030633	0.782019993839399	-2.58056684548014E-06	2.36402719391165E-06	7.92799949149589E-06	2.79451382744749E-06	0.991806417105991	-0.136393156574643
5.8	-0.508872111479908	0.852522533217179	-4.66526359309324E-06	5.11330233831719E-06	-3.70436263070973E-07	3.43102861093775E-06	0.991616652282446	-0.138857766883739
5.9	-0.397765038726262	0.909721084055328	6.37280442738446E-06	1.50723101508593E-06	-2.72011919166225E-06	2.55154903966381E-06	0.991065942282621	-0.141340269119016
6	-0.280941623923107	0.952323497001663	3.52881156781067E-06	3.31163623490732E-06	-3.27515238728564E-07	-1.43800266344015E-06	0.990742994638481	-0.142384683082317
6.1	-0.159212570410399	0.980324965429096	9.20476045918658E-06	1.53469753431341E-06	-1.26880543797342E-07	-1.81446641784863E-06	0.991636960671625	-0.144216104040107
6.2	-0.0343658880302541	0.992415485959157	2.44767222273484E-06	-1.73547851016962E-06	1.48548556758053E-06	-4.86099812012201E-06	0.991456975653784	-0.146353417039589
6.3	0.0908938797339076	0.988600918874179	-4.37267616253274E-06	4.25956555299973E-06	-6.17597941933368E-07	-1.73043279403419E-06	0.990952924454396	-0.148897740375191
6.4	0.21408929374318	0.969073685402752	-4.27734205318484E-06	1.0743206075548E-06	-1.76431415594857E-06	8.87046766828653E-06	0.990201227073761	-0.151244948705467
6.5	0.334294791100154	0.935441491131935	2.46007926339153E-06	-1.33649297576936E-06	1.49155701660132E-06	-2.94048063767832E-06	0.990216426219295	-0.154016755130942
6.6	0.449725110755159	0.885472420112043	-4.75099728025956E-06	-2.25704600101161E-06	-1.87688192444921E-06	-6.65740766864292E-06	0.989536508451419	-0.15734543153126
6.7	0.556949649311612	0.82160683138931	4.17182346407771E-06	-6.66707808508686E-07	-4.68587898360488E-06	1.01823913271606E-06	0.988806713161144	-0.159688697941927
6.8	0.65534477202659	0.745073523540507	3.76206655822012E-06	-2.08821749199057E-06	6.22535003928613E-06	-9.32163005937602E-07	0.988205293816408	-0.162025272982797
6.9	0.743176481863906	0.656893903251795	2.05376961790743E-06	1.64088955096279E-06	8.79378135150515E-06	-2.77322018586981E-06	0.987618880774626	-0.164301327684199
7	0.819098823034091	0.558629052770707	2.18161085087904E-06	4.09927984525089E-06	-8.59090894459059E-08	5.39056519945421E-06	0.986940775265409	-0.166002398141701
7.1	0.882336346914036	0.451973659082358	-1.31118012111262E-07	1.71978178907169E-06	8.26487123249081E-06	-4.66090777143632E-06	0.98648598690658	-0.168080512866908
7.2	0.931638642730366	0.337867453491032	4.85239327478471E-06	-1.40169310022203E-06	7.27150747099971E-06	3.77722082069377E-06	0.985623659444013	-0.170129301813698
7.3	0.96599569292574	0.218354021825759	4.86617244065343E-06	-1.11711248494146E-06	-7.3619572576036E-06	-7.38022468251433E-06	0.984429107224123	-0.172204163087574
7.4	0.985142837458524	0.0946375061290294	-1.82148052746834E-06	9.91331155905642E-06	1.42665069117764E-06	-4.07775485461418E-06	0.983016230977647	-0.17515614367094
7.5	0.9873604310317	-0.029940383864443	8.42610227130226E-07	8.03846906764039E-07	1.67605261369945E-06	9.88143558546481E-07	0.980599354734367	-0.177263956988107
7.6	0.975402696121007	-0.153168202770729	1.44665583885596E-06	-2.61661446920924E-06	-5.42531174110783E-06	-3.60903362399804E-06	0.980117952565419	-0.179303288891969
7.7	0.948138287889926	-0.274775477761764	5.57283776827548E-06	2.39091854540249E-06	-6.78596942367524E-06	1.20534016743086E-05	0.979709301591114	-0.182387762565412
7.8	0.905994659836537	-0.391829203570623	-6.26258830434404E-07	-5.23348075709871E-06	3.71635048113557E-06	-4.74006191373063E-06	0.979468884979396	-0.185493676212084
7.9	0.849134095234306	-0.502244433097122	8.83795830339155E-06	1.50451199908276E-06	-9.53744694130479E-06	-8.59744974927046E-06	0.978893500696536	-0.188499609903036
8	0.780535154453491	-0.603587600166657	-6.64455201144694E-06	-1.62074645343609E-06	-1.19814546646341E-05	2.50176395299566E-06	0.978996878765065	-0.19022879606992
8.1	0.699804943291504	-0.698210417198865	5.07393623164928E-06	7.26110946978364E-07	2.89243313693623E-06	2.25820503030661E-06	0.979802543720308	-0.193679697443428
8.2	0.60645759643637	-0.781196833186415	3.56042559866596E-06	-2.58016144663471E-06	-3.69756766889511E-06	-1.16091568529916E-05	0.979462534602015	-0.196874243034484
8.3	0.503178880400232	-0.85134094098623	2.72452794288269E-06	-1.86267367382161E-06	1.64769453505186E-06	5.28945712807017E-06	0.978666594521103	-0.199959499252153
8.4	0.391683149262722	-0.907643514086974	-5.55609997933553E-06	-1.00790527470591E-06	1.06194366651729E-06	2.94963995034272E-06	0.977673181850867	-0.202779912511308
8.5	0.273711571804031	-0.948685941266101	-3.28363127302323E-06	1.6338166500435E-06	-4.80572891203159E-06	-4.9888012235866E-06	0.977017818652853	-0.205615677709184
8.6	0.152163813173087	-0.974960327689714	-8.12885507448849E-06	1.40674981548352E-06	-4.35589721899129E-06	-6.84386800077029E-06	0.976224603402751	-0.208626394331941
8.7	0.0279502302807473	-0.986205964185742	2.23857259322834E-07	-2.14960276762572E-07	6.11285036777889E-06	4.94230367488744E-07	0.975344314936049	-0.211181703130231
8.8	-0.0968573260722364	-0.981775146781047	1.02001877672329E-06	-1.81829237901382E-06	-2.39059242270522E-06	-1.27452363168604E-06	0.974608027400148	-0.213342196654997
8.9	-0.220139666247515	-0.962502447039903	-2.97466971976978E-07	3.03373092583547E-06	-1.23525263319467E-06	-1.63924105761165E-06	0.97425275190463	-0.215299966917585
9	-0.340268229730139	-0.926218224981521	2.98038470458513E-06	1.58376077985495E-06	-1.57258952650936E-06	2.11746429226913E-06	0.973789708781691	-0.217364753063031
9.1	-0.452965266913715	-0.875409154844022	-9.30819123701084E-06	2.28051173872895E-06	-1.56014219697609E-06	2.41210700844666E-06	0.973512293960533	-0.219232079452799
9.2	-0.558927197757583	-0.811363825979993	7.50395620189126E-06	-2.46298525667114E-07	-9.10277878434883E-06	1.98377551896915E-06	0.97317760082573	-0.221743264897269
9.3	-0.655702772608017	-0.734875557401962	6.32071742019474E-08	-7.16158478790764E-06	1.58371620510203E-06	-1.30289687270175E-06	0.972871739397961	-0.224447722593647
9.4	-0.742614924037119	-0.646846947200862	6.05400841034696E-07	2.48050206344643E-06	1.60695724332984E-06	-3.59974041039732E-06	0.971953707525856	-0.227878756540386
9.5	-0.816243052373343	-0.547743842855601	-2.84633302088995E-06	6.6405516054847E-06	4.71091553648508E-06	-1.37991299896474E-06	0.970296412723028	-0.230370240099745
9.6	-0.877744577703483	-0.441980549288446	-5.02405112363378E-06	-5.18147759511767E-06	4.75623426038627E-06	2.86480114751841E-06	0.96971894179102	-0.233001291093641
9.7	-0.926622240334679	-0.327991999683479	-2.00719811209667E-06	-5.0583154620564E-06	2.09218178796512E-06	6.21999705342706E-09	0.968919874206412	-0.235630683061978
9.8	-0.960929852424813	-0.207928952698519	5.83278103419996E-07	-4.27594867597162E-06	-2.93882820041591E-06	-2.50588556162166E-06	0.968123111912289	-0.237760927091623
9.9	-0.979645172488057	-0.0840788805408816	-6.08954303472476E-06	4.20757680443039E-06	-3.07266597005534E-06	1.66552883977743E-06	0.966676845631936	-0.23924798891879
10	-0.982429094157087	0.0410072467562698	3.56334011676835E-06	-4.49647182350306E-08	8.21961781056389E-06	1.10685365702275E-05	0.966563941501168	-0.239032413113167
10.1	-0.968651534599822	0.164846893021882	-2.85594388544019E-06	-2.51380879826881E-06	-2.00891290446833E-06	-2.49016735010118E-06	0.966943623724794	-0.241118862858674
10.2	-0.939813956933454	0.285815412897301	2.3496826573506E-06	-1.02238654092825E-06	-2.76350216700581E-06	-1.05995323223816E-06	0.96626560122228	-0.242717587430263
10.3	-0.89614789684179	0.402098226374889	7.73110757535799E-06	-5.94439884941828E-06	3.86051704677855E-06	8.2037491724542E-06	0.965300908424473	-0.244370220399545
10.4	-0.839180976794621	0.511898970251593	1.7007158398495E-06	2.48522114332929E-07	6.25608076778921E-06	-1.18863019307659E-06	0.964018842128735	-0.245928242426105
10.5	-0.768620490322106	0.615317714264213	8.32284631485665E-06	-4.13443409372132E-06	-4.91676836869204E-07	1.96701475581326E-06	0.963397390565004	-0.247711422832708
10.6	-0.68397190052047	0.707075192553094	8.90304142569026E-06	-1.27022895767843E-06	-1.46322137294982E-06	1.35930791911278E-05	0.962610117415202	-0.249739162009948
10.7	-0.589045100800218	0.786377780762634	7.98407275890651E-06	-1.89553615305607E-06	-3.04143366305293E-06	-5.25979658930622E-06	0.962367729315299	-0.251808721322536
10.8	-0.485009649943545	0.853252067366057	2.4387314280693E-06	5.22735689077887E-06	-3.61298603995593E-06	-2.05806501905689E-07	0.96226560218777	-0.253951246975052
10.9	-0.373502011384021	0.90750029791025	-5.53799158683027E-06	4.80367892169206E-07	1.58880245470096E-06	4.0141508401738E-06	0.9618190178702	-0.256068661501316
11	-0.254851739592419	0.947127187678072	4.97318485934265E-09	-5.20209975031165E-06	-8.34918497059921E-06	2.22032134379319E-06	0.961240538517983	-0.257419378814149
11.1	-0.133639729452089	0.970251634108898	6.28382841195277E-06	4.0760056124769E-06	-1.90082662807241E-06	1.07173020163487E-05	0.961097853931114	-0.259072908461158
11.2	-0.0115029897627878	0.978946907372823	1.57176461347605E-06	1.35062706178779E-06	5.11258044532851E-06	8.87068582915282E-06	0.960496647409648	-0.261074058623696
11.3	0.11074727038019	0.972312923300734	-4.59131005149469E-07	-1.73093808102454E-06	-6.92540068401397E-07	-4.37885133766858E-06	0.960073574343171	-0.263365251469311
11.4	0.231296059931009	0.951192935112499	2.15074141203572E-07	1.18143462462459E-05	2.41001183380933E-06	4.91170226665976E-06	0.958770733881042	-0.266745699892831
11.5	0.349099135982612	0.915447824994701	6.16635221749933E-06	-3.19333383180912E-07	3.16418857379846E-07	-1.87313869120358E-06	0.956544355749975	-0.268757425891717
11.6	0.460342420064025	0.86491228004597	-5.97985140501191E-06	3.04988695132568E-06	-4.84882216258206E-06	1.89995310193016E-06	0.955911366531158	-0.271625181478899
11.7	0.564142445534901	0.801739036678201	3.31442266990667E-06	-1.78193187119105E-06	-1.70252567460729E-06	2.2237688123282E-06	0.95469012991781	-0.27536749442427
11.8	0.65963809905588	0.725855305301005	-8.34687546080587E-07	9.74696156674052E-06	-2.72270352389641E-06	1.04845207642296E-05	0.952940939899641	-0.278843255231039
11.9	0.744490101042154	0.638218356102785	-7.25540446182834E-06	-1.04670836965906E-06	-3.9134384277043E-06	1.1181789988374E-05	0.951067560391371	-0.280233420537697
12	0.81899602440356	0.54164456169856	-6.46596560320622E-07	1.37307425113549E-06	-3.11471499974981E-06	-1.9275332176848E-06	0.951177746676063	-0.279693064275555
12.1	0.882018471470145	0.433962775156134	-3.88119945210843E-06	4.95537547463488E-06	-1.36298010996321E-06	8.37869587014359E-06	0.952070910701106	-0.281577596195075
12.2	0.92908801231627	0.319200154760901	-5.60087845206975E-07	-3.78702961252208E-06	-3.10022396447243E-06	-7.40415571370225E-07	0.952118631464967	-0.283859620886516
12.3	0.961318342867838	0.200901394989389	3.57078212861954E-06	3.43827328465137E-06	-3.45323346278105E-06	6.23264901500535E-06	0.951960526010442	-0.286322727239628
