# GHZ S RI R 50
0.2	-0.966614112513387	0.251176162510619	8.82507797585659E-06	5.32659121448404E-06	1.13831158094815E-06	-2.89058331276936E-06	1.00008391505704	-0.00669394407756911
0.3	-0.927456987864315	0.370999942917277	-7.66676322103832E-06	-8.23358512853529E-07	-1.63399926209592E-08	3.66182242852149E-06	1.0001313948297	-0.00962633368476175
0.4	-0.873125773353567	0.484919986635271	-2.20411261162739E-06	6.34394250783292E-06	2.91892311960139E-06	5.7433694661096E-06	1.00034818897451	-0.0122519915658759
0.5	-0.804927140561652	0.591572190849646	-2.65255609474342E-06	5.49098626285438E-07	1.05329692785811E-05	4.893430982461E-06	1.00052717293233	-0.0158497399187887
0.6	-0.723431378843045	0.688017755801433	-1.72700094511575E-06	-1.83607931899069E-08	4.16782493397772E-06	-1.03462824941245E-05	1.00018474478132	-0.0189618874786666
0.7	-0.631069153860835	0.773596571159813	-2.04926141565015E-06	9.89017254892972E-07	3.78555738330375E-06	1.11722626345359E-05	0.999820247171574	-0.021803259146514
0.8	-0.528528460528641	0.847096935843292	-5.6122841400042E-06	3.78534849655389E-06	-3.17110426130537E-06	-2.14191836143979E-06	0.999625461852761	-0.0239572617290563
0.9	-0.417710273094032	0.906898963326071	-6.70315177161529E-07	5.25586154109596E-06	3.26999800160442E-06	-2.94502286872649E-07	0.999503326410112	-0.0262332393687691
1	-0.299779398270852	0.952314939762633	1.57061908500929E-05	-3.68524861630554E-06	-9.61043192528467E-06	5.23910754489664E-07	0.999578146192231	-0.0276010879713838
1.1	-0.178003707641009	0.982277196912855	1.34494245616513E-06	-2.98642991325868E-06	9.40783458450523E-06	1.26188699252227E-05	0.999451914938326	-0.0300138222907886
1.2	-0.0524940791929882	0.996685811243806	-7.9201583799029E-06	-3.26415905464073E-06	-3.10218102114682E-06	-4.48538621600166E-06	0.998593825306626	-0.0311279654750565
1.3	0.0739623657269221	0.995020650845024	1.79647052427614E-07	3.33873144863343E-06	1.9318737078555E-06	3.41068464404228E-07	0.998572207775378	-0.0321725052798046
1.4	0.198802059886885	0.977268018130082	2.47933150585744E-08	3.77195604434047E-06	-2.53404830241713E-06	-5.62009764853353E-06	0.998212421152426	-0.0343470378548852
1.5	0.320479640877492	0.944434741071899	3.19084308048526E-06	-2.69351318253888E-07	2.70726059272356E-06	2.09525069732577E-06	0.999174522628658	-0.0378567548879925
1.6	0.436678977368814	0.896496360428677	1.78795668988243E-06	-1.94371862801132E-06	-8.9804486988462E-07	-3.06652760592316E-06	0.998781131695595	-0.041646896067331
1.7	0.545626284107128	0.834262607338846	-8.92536341888259E-08	-3.52932815314633E-06	2.01291437027467E-06	4.93081052760822E-06	0.999271769351975	-0.044173600845767
1.8	0.645683046026251	0.759274967044914	-2.06176298534086E-06	-1.81448268724578E-06	-4.62882409260416E-06	1.83458351320464E-05	0.999241086791453	-0.0468544255849641
1.9	0.73526324554847	0.672737953501517	-4.39595420151371E-06	-1.46693486296886E-06	-4.93431190089374E-06	-6.00849550528446E-06	0.999262246591139	-0.0486809737729139
2	0.814398866585101	0.575987293245886	-9.48903775943251E-08	-6.7569716635894E-07	-1.67187098777658E-06	-1.42133464413581E-06	1.00026748852469	-0.0514142771049553
2.1	0.880740500310812	0.467275961608921	-1.13206808704239E-06	9.47333702929253E-06	1.99902122060841E-06	-3.83725797926877E-07	0.999916884162861	-0.0552368444732016
2.2	0.931602821679226	0.352682283227352	-3.24850371574781E-08	-5.94094162160244E-06	-7.33779009061762E-07	2.74383540839599E-06	0.999304415143758	-0.0578943428450186
2.3	0.967881384742244	0.232864789726078	-1.31276813080069E-06	2.77263661255237E-06	-2.50431526354983E-07	1.19932637131257E-05	0.998715281876644	-0.0598158372524445
2.4	0.98903116308574	0.108664479897458	-5.888379945592E-06	-3.7021969277174E-06	-1.75915067601652E-05	1.45802002547762E-05	0.998437488654453	-0.0628787787053602
2.5	0.994880528254814	-0.0164680421812084	1.81543773440122E-06	-2.9693439086024E-06	-1.77898875071764E-06	7.55917225706362E-06	0.998219689371494	-0.0650681066227174
2.6	0.984634883161791	-0.140324399663178	2.86707993410098E-06	9.16526173180534E-07	-1.74761402554773E-06	4.5106899882701E-06	0.998171034313006	-0.0682069566350993
2.7	0.959095362758525	-0.262458762489377	3.84486488273535E-06	1.04580722363027E-05	2.33245146660386E-06	3.87172330385835E-06	0.997808028302573	-0.0713621700705904
2.8	0.918423503813226	-0.380798879150044	-8.19129512579601E-07	-2.2959934970328E-06	2.16564427880391E-07	-1.89209800003429E-06	0.997865007565107	-0.0736340264670697
2.9	0.863439115461684	-0.492666355542033	3.75750954926952E-06	-8.34153893213097E-06	-1.305618091863E-06	-1.4251117561942E-05	0.997323766725578	-0.0758007163310576
3	0.794806702283299	-0.597319057412285	2.4957684600538E-09	6.66211277924137E-06	-1.47867468495227E-05	5.34663439822131E-06	0.997087811966674	-0.0782843106941127
3.1	0.714254236445531	-0.691466660349037	-4.97316840440943E-06	7.85093817801026E-06	5.81919393468743E-06	-1.00495349335025E-07	0.99665487195604	-0.0805439020614963
3.2	0.620780283846461	-0.775670474196714	9.67935807849802E-07	2.1262921372717E-06	-4.56677637925244E-06	4.92187198135759E-07	0.996085181451616	-0.0824894828980601
3.3	0.517801103877031	-0.847231486771632	7.15612183518868E-07	-1.46363271681882E-06	-4.58448898982645E-06	7.46947775470901E-07	0.995436691465118	-0.0859054549034609
3.4	0.406264845494226	-0.904581642598413	6.47357267387068E-06	2.13391631000035E-07	-8.1636778284565E-06	-7.15672740663902E-06	0.994823790914945	-0.0878502483240217
3.5	0.290058841503777	-0.947541432755333	-7.6905372132647E-06	1.98075425888791E-06	-5.92065262596131E-06	-7.96382291591787E-06	0.994654993377185	-0.0900150565199705
3.6	0.167507037072471	-0.977369244684761	-8.67811362504568E-07	-4.38091839792247E-06	-7.83445233362913E-06	-6.31517332133E-06	0.994676619278479	-0.0930133771269515
3.7	0.0421958771925495	-0.990673830155561	-6.73743877029755E-06	-6.75205629003192E-06	5.14036863859483E-07	-4.76691928115224E-06	0.993997198269677	-0.0960367580022522
3.8	-0.0835373966540694	-0.987525566765867	-3.64008508475015E-06	1.09439482182787E-06	-3.30422675860151E-06	-2.45507373309837E-06	0.992998200975671	-0.0979544257823573
3.9	-0.20681029557425	-0.96883833016392	-4.69098466665173E-07	3.50850505752408E-06	2.04943715594231E-06	-1.22512525105632E-06	0.992649615602957	-0.100397974455405
4	-0.3274123553114	-0.935669421475746	1.17105036784701E-05	8.08145860073851E-06	7.25446635357961E-06	-4.06667608955039E-06	0.993388921985541	-0.101528909913299
4.1	-0.442926846276686	-0.886684538773402	5.22087927990026E-06	1.3014633622742E-06	-3.42914236196349E-06	6.66330726318159E-06	0.992831084863279	-0.104504284822513
4.2	-0.550508553012463	-0.824010630932429	-7.09560921411544E-06	-1.17246835465671E-06	-8.25788766903385E-06	-9.02451026723998E-09	0.991593947764237	-0.107139521161926
4.3	-0.649446323858512	-0.748149032737004	6.92697044277754E-07	-2.3675693388032E-06	5.20954240149594E-06	8.60061802278909E-07	0.991083822894589	-0.108964929910818
4.4	-0.738176896086555	-0.660343323606286	4.46078537316454E-06	-1.7873454492374E-06	-8.62478722396214E-07	1.34790710716531E-06	0.990460992466045	-0.111136893319586
4.5	-0.815565522380449	-0.561793489666685	6.78221494866016E-06	1.840003989083E-06	-8.1534197145873E-07	-3.24974789858126E-06	0.990376656084806	-0.113409532426674
4.6	-0.879916457456837	-0.454184743361917	2.46220376931158E-06	2.93744166441393E-06	-6.54144161905864E-06	9.75373613822649E-06	0.98958593381759	-0.116201272516644
4.7	-0.930091575499246	-0.338573543032012	-1.40046596023278E-05	5.95585945153097E-06	-3.45600689535342E-06	-2.218457612508E-08	0.989305207521168	-0.118156796151801
4.8	-0.965173016409252	-0.218007763394689	-3.1738580435253E-06	-5.12167331778879E-06	-5.5048430339506E-06	2.38056433180818E-06	0.988708630547125	-0.120640729775397
4.9	-0.984181427790363	-0.094109310612107	-1.05208179195016E-06	-8.52968862787062E-06	-4.20923109323652E-06	7.54719334612259E-07	0.987972558390431	-0.12237676767333
5	-0.986461923291451	0.029923565384211	7.52049753760926E-06	-1.5948792523241E-06	-1.75734501548068E-06	-2.70628171106624E-06	0.987511546523704	-0.123657499076678
5.1	-0.974818948707822	0.153357018131299	-2.61159278779988E-06	-6.36352571881803E-06	-1.01117691693633E-06	-1.94313341807284E-06	0.987363541212553	-0.124848959660803
5.2	-0.948166884760316	0.274625247763999	3.98161445102041E-06	-4.46102960396687E-07	-5.4013459291861E-06	6.29999205196215E-06	0.986875006454687	-0.126881409603614
5.3	-0.906360999387711	0.391472200984992	5.13474913372166E-06	5.97001683890722E-06	-9.66048614045078E-07	-3.56947140609742E-06	0.986325579580575	-0.128905193165909
5.4	-0.850300349314394	0.501840112505255	3.04472902637865E-06	-2.01446651990613E-06	-1.12606009076939E-05	2.21541632006766E-06	0.985887270988881	-0.13121290720059
5.5	-0.781011533049939	0.604109338423785	-4.33366178103497E-07	-2.18463757858837E-06	-5.75506447455261E-06	6.10761989624298E-06	0.985963902849907	-0.133115625757969
5.6	-0.698905051150113	0.697456639100986	2.38137987988378E-06	7.27305819246814E-06	-5.31738263830128E-07	2.91895427729625E-06	0.986137308821581	-0.135943590581556
5.7	-0.605632154336683	0.779711694011818	-2.55791961379735E-06	2.35517986214485E-06	7.88363796468183E-06	2.75653061506646E-06	0.985494564670212	-0.138358076477273
5.8	-0.502728600043785	0.848674547788644	-4.6223735147167E-06	5.08657778191751E-06	-3.61055650181019E-07	3.40764495430399E-06	0.984928531786145	-0.140099450809245
5.9	-0.392942867424274	0.904314339828182	6.32727019739089E-06	1.49100954089036E-06	-2.69809515716714E-06	2.53503295442602E-06	0.984517844754623	-0.141225645137525
6	-0.277550952196461	0.946697982727339	3.50738203700176E-06	3.28968173855669E-06	-3.25840445703356E-07	-1.42880414214951E-06	0.98578655710568	-0.142340001848568
6.1	-0.156816822285305	0.973631028419047	9.14084276294067E-06	1.51968864501341E-06	-1.26824426890874E-07	-1.80166926500229E-06	0.985556878405314	-0.144651631068298
6.2	-0.033916494741018	0.985333500786331	2.43044018638426E-06	-1.72161616231649E-06	1.476729687205E-06	-4.82457103176209E-06	0.984897068532263	-0.14575416386736
6.3	0.0895931237606012	0.982038171266637	-4.34676042562589E-06	4.22417156053719E-06	-6.11160430063872E-07	-1.71890502777871E-06	0.984533620671545	-0.1474103536105
6.4	0.211983098382582	0.963838940082223	-4.25176759685949E-06	1.0619891090236E-06	-1.76471473980353E-06	8.8122435707526E-06	0.984458117469511	-0.149278482556365
6.5	0.332840573009133	0.929720203213697	2.44384551636686E-06	-1.32708444452254E-06	1.48210833318874E-06	-2.92050555753998E-06	0.984423482833356	-0.152922202725707
6.6	0.445878319508806	0.87942905147842	-4.71208803073543E-06	-2.24651379559014E-06	-1.85363699821797E-06	-6.60976765527551E-06	0.983005279177408	-0.15523597433078
6.7	0.551703439104912	0.816841722302578	4.14368958727417E-06	-6.52898085961145E-07	-4.6548648386174E-06	1.00081741534481E-06	0.982718224659578	-0.156873069048773
6.8	0.649127804827823	0.741566295332671	3.7420619386841E-06	-2.06400961186516E-06	6.18552795348219E-06	-9.09251950131354E-07	0.982372644243746	-0.158736533306656
6.9	0.736200322673168	0.654912636002473	2.03453317559423E-06	1.63684103142247E-06	8.74438416254144E-06	-2.72511331739479E-06	0.982103969049188	-0.160229354842898
7	0.812152779125709	0.558203657775403	2.15208995733835E-06	4.08451169563379E-06	-1.07609035287854E-07	5.35897779162181E-06	0.982369714887886	-0.161708490289878
7.1	0.875206768006897	0.4525446203998	-1.37130494822076E-07	1.70984982791039E-06	8.23784765297557E-06	-4.60303552927662E-06	0.98179313468084	-0.163767590848483
7.2	0.924338207810993	0.339761884760383	4.83124593720531E-06	-1.37377616756983E-06	7.21543554420683E-06	3.78639657887245E-06	0.980974786253797	-0.165328240015218
7.3	0.958580095815292	0.221683503388833	4.84294387671734E-06	-1.08901477410679E-06	-7.28650631258593E-06	-7.3701828954514E-06	0.979699967887707	-0.166905635264286
7.4	0.977437717196363	0.100304646889625	-1.861894225126E-06	9.83565293701284E-06	1.43863206012369E-06	-4.04219607883531E-06	0.977888430370025	-0.168450231820041
7.5	0.982379400226845	-0.020898962387675	8.30506278428642E-07	8.06042596173877E-07	1.657191872113E-06	9.96309612794932E-07	0.977738173718301	-0.168541472694829
7.6	0.973269565640426	-0.144707506561121	1.46407820192261E-06	-2.59452044514861E-06	-5.37421416763787E-06	-3.6429340243925E-06	0.978732241321889	-0.171958877303331
7.7	0.947502248488097	-0.266229549841999	5.53557839930749E-06	2.43250001834216E-06	-6.87115331459708E-06	1.19587272872951E-05	0.978470197467479	-0.175157515714811
7.8	0.907113917372582	-0.38333113466844	-5.77199667663382E-07	-5.2280260539459E-06	3.75164546450075E-06	-4.69606051589885E-06	0.978569998064239	-0.177971491821486
7.9	0.852663571331125	-0.494292963914949	8.81658736144829E-06	1.58898672194758E-06	-9.44681462952077E-06	-8.68324954171014E-06	0.979052885896851	-0.180359364897222
8	0.785890282463922	-0.59971417732529	-6.64502867079181E-06	-1.67769709879382E-06	-1.20261055591197E-05	2.41014132648072E-06	0.98120062956364	-0.183884089073341
8.1	0.702200271981127	-0.695349517243196	5.07289393345792E-06	7.55700472320927E-07	2.88124644305976E-06	2.27620974642044E-06	0.980065655608461	-0.188497089275317
8.2	0.608544157716306	-0.777420653484699	3.57413011299714E-06	-2.55818545182461E-06	-3.62784114509285E-06	-1.16261351310504E-05	0.979112954729282	-0.190884535607964
8.3	0.505784468681876	-0.847210744725503	2.73399734746452E-06	-1.84479519283658E-06	1.61434067012038E-06	5.29585049940606E-06	0.978438358131279	-0.193392153174576
8.4	0.395306425030589	-0.903354672344546	-5.54419067270415E-06	-1.04120022266974E-06	1.042634602476E-06	2.95318396503877E-06	0.977889296317255	-0.195918285485489
8.5	0.278980938335023	-0.945854357366108	-3.29131449440219E-06	1.60754666394375E-06	-4.76276124795303E-06	-5.01754233460029E-06	0.977393379568864	-0.198991056542266
8.6	0.156625916132304	-0.973939440947554	-8.1417508321284E-06	1.34350613706777E-06	-4.30339000299888E-06	-6.87952804232136E-06	0.976640795568308	-0.201498869530849
8.7	0.0315943601623391	-0.985596233111817	2.25673632996942E-07	-2.13606312591735E-07	6.11662560202472E-06	5.38838314711833E-07	0.976395159010354	-0.20376834977429
8.8	-0.0937923368247168	-0.981191186793737	1.03346067452283E-06	-1.81510044716564E-06	-2.3868198547865E-06	-1.29207526251009E-06	0.976326909043089	-0.20588486480646
8.9	-0.21727399932421	-0.961170713487801	-3.13313629410926E-07	3.03796501980558E-06	-1.22932804783112E-06	-1.64856215271307E-06	0.976665565934469	-0.207877579768147
9	-0.335113531193649	-0.924862539869126	2.97390075143318E-06	1.59852723988074E-06	-1.58324013504706E-06	2.11072586567236E-06	0.977062320361365	-0.210143846136813
9.1	-0.447611439394947	-0.876759204919732	-9.32640717946321E-06	2.22792644097981E-06	-1.57493160561811E-06	2.40439023967316E-06	0.977396832816461	-0.212579559459532
9.2	-0.55429040985037	-0.814401175731459	7.51227405638311E-06	-2.00594660130934E-07	-9.12318178753935E-06	1.92986307068492E-06	0.977361536645989	-0.215630019612397
9.3	-0.652142161024267	-0.739415958023359	1.10116845696657E-07	-7.16997324423506E-06	1.59418271339382E-06	-1.2941417218731E-06	0.977042931418365	-0.218696196959028
9.4	-0.739691960341721	-0.652732049506796	5.87672209025431E-07	2.48819600411475E-06	1.63586945733289E-06	-3.59236430545486E-06	0.976060125086463	-0.221782088777852
9.5	-0.816290632832894	-0.557483557383359	-2.91842121098315E-06	6.63707145972565E-06	4.74026481834155E-06	-1.34062923767727E-06	0.975798543902569	-0.224127406890989
9.6	-0.883142905132859	-0.449904302154815	-5.01250015083085E-06	-5.25143474526732E-06	4.761411594857E-06	2.91910296613707E-06	0.975570148805818	-0.227972836559127
9.7	-0.933575402372956	-0.333203227289544	-1.9853407824493E-06	-5.10411075275116E-06	2.10540464122534E-06	2.05637526692618E-08	0.974730498279814	-0.230875940860083
9.8	-0.968432050217748	-0.211164549672344	6.14225592542541E-07	-4.30115917635709E-06	-2.942860416764E-06	-2.54137992644756E-06	0.974285142380741	-0.232842491884642
9.9	-0.986964306923957	-0.0859270668078422	-6.15949500444656E-06	4.20282092103273E-06	-3.105262516058E-06	1.65973880203158E-06	0.974419518505817	-0.233998939883323
10	-0.989880249561627	0.0390156143625807	3.59167990536154E-06	-2.89379005950036E-08	8.23362722816231E-06	1.11937124489443E-05	0.976399037230179	-0.236934316009505
10.1	-0.977989314132774	0.163861145535172	-2.86616446720479E-06	-2.54469859474926E-06	-2.01298392175401E-06	-2.51722394283467E-06	0.974552043787114	-0.240665883063279
10.2	-0.950076788511107	0.287026978951053	2.37273296907441E-06	-1.02035941432715E-06	-2.78085118554784E-06	-1.08028432849647E-06	0.973339221246571	-0.242035016554733
10.3	-0.90658363435459	0.405644735140106	7.82261943399116E-06	-5.96710453347248E-06	3.86293242554298E-06	8.29137473232178E-06	0.97264009456322	-0.243699038869317
10.4	-0.849136551768657	0.51795491705447	1.71716559159542E-06	2.55805630416016E-07	6.32249848764149E-06	-1.18304000556208E-06	0.972267490605695	-0.245736770195477
10.5	-0.776676977851112	0.622806670892414	8.4105269024596E-06	-4.168486445445E-06	-4.98434441910039E-07	1.986391887408E-06	0.971960771442455	-0.249289350462415
10.6	-0.692060078301051	0.715167828425426	8.99278716048482E-06	-1.27761077354623E-06	-1.48596044033081E-06	1.37280710691498E-05	0.970834817690639	-0.252154429868364
10.7	-0.596862605716266	0.796481686325999	8.06671688831665E-06	-1.9166142618745E-06	-3.07394942332281E-06	-5.3139316717154E-06	0.970303606770867	-0.255275827021587
10.8	-0.491351175062279	0.865658702771358	2.4699862603215E-06	5.27914380137327E-06	-3.65088767549917E-06	-2.0392538290275E-07	0.969559376741519	-0.258068640048523
10.9	-0.376868600936672	0.920652906116061	-5.59093597812587E-06	4.96099963014356E-07	1.61228104176647E-06	4.05005013237959E-06	0.969009095013245	-0.260539587687376
11	-0.258048882626638	0.958931922218777	-1.39837109250861E-09	-5.24862988552081E-06	-8.42111589394746E-06	2.25047587499393E-06	0.968422664097867	-0.263073335609025
11.1	-0.136553061927063	0.985354860052355	6.35050529588381E-06	4.10882406849964E-06	-1.90703288499358E-06	1.08251201807663E-05	0.966855681949048	-0.2654996443266
11.2	-0.010782258285575	0.995921856066037	1.59018206617789E-06	1.36137043087979E-06	5.18081715590582E-06	8.95093921176364E-06	0.965090009403743	-0.267387703150647
11.3	0.115733740754561	0.98939079837596	-4.68323572238343E-07	-1.74711808138283E-06	-7.11082468351866E-07	-4.42102325975916E-06	0.963497377479678	-0.268871773993221
11.4	0.23994380614332	0.966807656594621	2.53742850497883E-07	1.1926279905479E-05	2.44820514931233E-06	4.95104487150407E-06	0.961690654204302	-0.270599002367625
11.5	0.360111607066009	0.928712296490583	6.22611158189343E-06	-3.39090206757329E-07	3.14481624953371E-07	-1.89240577616484E-06	0.961906080175223	-0.27216951705792
11.6	0.47335766906595	0.876055900594769	-6.02939990252201E-06	3.10461534040385E-06	-4.8912393340916E-06	1.9384390865914E-06	0.961106729382052	-0.276858221445051
11.7	0.57894378754439	0.810104423428738	3.33844845571218E-06	-1.81472160225968E-06	-1.70878098913868E-06	2.25336872086294E-06	0.959264912562773	-0.280521765965074
11.8	0.675113513896559	0.730882622079031	-7.96141819613754E-07	9.84107690270644E-06	-2.69811978218134E-06	1.05944199395788E-05	0.957957710143186	-0.283433654599795
11.9	0.759441221836767	0.640427094907302	-7.33005026071738E-06	-1.02579303121576E-06	-3.9034507886833E-06	1.13066721225279E-05	0.958503680775569	-0.284835700545765
12	0.833625564000558	0.541003686942264	-6.45483520484412E-07	1.39268732175694E-06	-3.16204835093544E-06	-1.93025154196217E-06	0.960912250198388	-0.289437303193637
12.1	0.894259779628957	0.431231325731226	-3.87971921066096E-06	5.03603526934687E-06	-1.30877658254801E-06	8.47303114905523E-06	0.958546348655242	-0.29453208808371
12.2	0.940103666739187	0.315588037775982	-5.99170045607497E-07	-3.8164926014239E-06	-3.13510173458272E-06	-7.19339923286828E-07	0.956544598468616	-0.297970258330618
12.3	0.971444075657481	0.195865749108863	3.63515590299842E-06	3.43057260342531E-06	-3.41870103885994E-06	6.31920693691513E-06	0.954587889960239	-0.301295695167898
