# GHZ S RI R 50
0.2	-0.966323371471218	0.251315990000486	8.82325825372944E-06	5.32330245744232E-06	1.13742599158907E-06	-2.88987696199188E-06	0.999706947740283	-0.00683096265191706
0.3	-0.927039052128244	0.371154298361128	-7.66368274616522E-06	-8.21500164577678E-07	-1.56118185868312E-08	3.66027688256692E-06	0.999660215118826	-0.00969184790946393
0.4	-0.872529423650645	0.485022755600027	-2.20150091318473E-06	6.34088836728959E-06	2.91854928446576E-06	5.73953266749894E-06	0.999793597450467	-0.0122827190168972
0.5	-0.804169950472209	0.591400113507509	-2.65036618546872E-06	5.48887382094602E-07	1.05248924811169E-05	4.88855790939637E-06	0.999774876883853	-0.0156917873961059
0.6	-0.7228189711073	0.68770261733138	-1.72580920210958E-06	-1.85205258872399E-08	4.16598601728764E-06	-1.03387378475406E-05	0.999682427014619	-0.0186209636279469
0.7	-0.630415703628477	0.773212172893918	-2.04789330309268E-06	9.88309809772819E-07	3.78278743494253E-06	1.11647739045409E-05	0.999387814004643	-0.0216234246249203
0.8	-0.527861982288283	0.846536709676155	-5.60799920066253E-06	3.78256037764465E-06	-3.16873660267441E-06	-2.14026146255126E-06	0.999130049095632	-0.0238848654734097
0.9	-0.417118949746281	0.906150107843483	-6.69706189647514E-07	5.25162592077808E-06	3.26735359510918E-06	-2.94306581973376E-07	0.998940344391642	-0.0262546420975203
1	-0.299334604844221	0.951411459637773	1.569174140627E-05	-3.68308502387426E-06	-9.60171863501792E-06	5.24149345928799E-07	0.998777784823294	-0.0277247070729079
1.1	-0.177798583434484	0.981295864226037	1.34403714020204E-06	-2.98312329594291E-06	9.3960557758949E-06	1.26073508142842E-05	0.998602879412145	-0.029763615603328
1.2	-0.0525424381702696	0.995764564711957	-7.91183869885838E-06	-3.26499699397008E-06	-3.09744557941289E-06	-4.48295440748958E-06	0.998109987191781	-0.0306864455692984
1.3	0.0736738290096117	0.994195435340439	1.76987983446836E-07	3.33666902998701E-06	1.93034168750688E-06	3.42313948409396E-07	0.9984515137436	-0.0316231548115647
1.4	0.198285327043218	0.976487875371477	2.09104384533431E-08	3.76983088129208E-06	-2.52683920309105E-06	-5.61949240170703E-06	0.998270663548492	-0.033736568702362
1.5	0.3197007728975	0.943590112969177	3.18890145273816E-06	-2.65675499011134E-07	2.70307371114705E-06	2.09674104380662E-06	0.998994976011683	-0.037272167780459
1.6	0.435690371212116	0.895757174886455	1.78880221945385E-06	-1.94020698074852E-06	-8.93877660443019E-07	-3.0652113403308E-06	0.998435684788762	-0.0410354362761314
1.7	0.544536497813053	0.833561141735329	-8.58319538987197E-08	-3.52654719156564E-06	2.00660080313263E-06	4.92871711103786E-06	0.998652868329007	-0.0437368463751864
1.8	0.644474245743631	0.75863858374412	-2.05853202928152E-06	-1.81437708297521E-06	-4.63834742633624E-06	1.83257038942057E-05	0.998322726426151	-0.0465013703426116
1.9	0.734011919980704	0.672124316313863	-4.39093304063223E-06	-1.46753146071879E-06	-4.92664715171373E-06	-6.0048598587749E-06	0.998094531416274	-0.0484677107854166
2	0.81269599095623	0.575184398687582	-9.46639063680984E-08	-6.74632870599253E-07	-1.66905251456496E-06	-1.41926043721719E-06	0.998348530184421	-0.0512060296104269
2.1	0.878590750118391	0.467235408726844	-1.13696474332277E-06	9.45388647522018E-06	1.99538475121352E-06	-3.8147010591828E-07	0.997938086299596	-0.0541716133007426
2.2	0.929663505125605	0.35316184905748	-2.62736371290452E-08	-5.93052223719409E-06	-7.35330280245716E-07	2.73824752921751E-06	0.997684872879	-0.0566350994597464
2.3	0.966132769532888	0.233650150995259	-1.3138131705855E-06	2.7665600453019E-06	-2.63878384382771E-07	1.19732513618927E-05	0.997266869271046	-0.05852924956501
2.4	0.987449474565797	0.109704478640403	-5.87423863060875E-06	-3.70416726889283E-06	-1.758315566513E-05	1.45340480236318E-05	0.997075419670697	-0.0615717169240907
2.5	0.993408947252513	-0.0151457472693518	1.81744329551072E-06	-2.9628020136392E-06	-1.78779861781639E-06	7.54670303235877E-06	0.996825709872071	-0.0636894659259728
2.6	0.983413068155717	-0.138699606108347	2.86236580363273E-06	9.18934595403895E-07	-1.7510216011537E-06	4.50289465577633E-06	0.996856417272208	-0.0666696381413065
2.7	0.958084163638827	-0.260623594758175	3.82686433157909E-06	1.04474503228513E-05	2.3244673383876E-06	3.868870235742E-06	0.996526507084419	-0.069774414078327
2.8	0.917673490778342	-0.378704397116482	-8.14918648371416E-07	-2.29330519714056E-06	2.18590964169765E-07	-1.88876243050399E-06	0.996611414209527	-0.0719546203135218
2.9	0.863079182658491	-0.490395030495782	3.76251371125266E-06	-8.32238526479788E-06	-1.28405803007018E-06	-1.42288895889654E-05	0.996175368395439	-0.0740751115890999
3	0.794826397870605	-0.595010946469679	-7.07739154978768E-09	6.65113977618947E-06	-1.47700635797539E-05	5.31658643936329E-06	0.996032380650018	-0.076562671753367
3.1	0.714704069746369	-0.689126777602279	-4.97709754770202E-06	7.83046322683801E-06	5.80983440020813E-06	-9.13921538308234E-08	0.995715160977893	-0.0787778864421516
3.2	0.621743536051464	-0.773460946601933	9.62806940636427E-07	2.1247371657726E-06	-4.56070386813273E-06	4.83575998666699E-07	0.995295104903344	-0.0807049363971946
3.3	0.519260096649183	-0.845307519684331	7.17501715098967E-07	-1.46033870550475E-06	-4.57993891915846E-06	7.37123536790596E-07	0.994809538591012	-0.0840779902728887
3.4	0.40816906554163	-0.903221922843167	6.46708739909724E-06	2.27086070784576E-07	-8.14071766490696E-06	-7.16758434159833E-06	0.994434140407477	-0.0860116813221792
3.5	0.291640602458632	-0.946837980246032	-7.69061130095712E-06	1.96555147712873E-06	-5.90309699018164E-06	-7.97108209809328E-06	0.994326695225527	-0.0884244559767908
3.6	0.169173935648936	-0.976338274234676	-8.59375788913257E-07	-4.37910734810435E-06	-7.81725718576019E-06	-6.32424193602943E-06	0.994152693339171	-0.0912198445814692
3.7	0.0443886757413181	-0.989963190344585	-6.71838597028955E-06	-6.7613491084572E-06	5.23686619910307E-07	-4.76240060336309E-06	0.993628050330352	-0.0940034768178404
3.8	-0.0811089995139315	-0.987389634437953	-3.64077044469525E-06	1.08551194192895E-06	-3.29695213156806E-06	-2.46141214111996E-06	0.992848803780113	-0.0958293886419949
3.9	-0.204443962779969	-0.969299042739525	-4.76949665989152E-07	3.50640838297657E-06	2.05162590039456E-06	-1.22009960862846E-06	0.99267775360378	-0.0984048346238467
4	-0.325266133483482	-0.936422305983678	1.16862398758488E-05	8.10610435746057E-06	7.26115815379275E-06	-4.0476004512543E-06	0.992978591938031	-0.099478195955574
4.1	-0.440800425675877	-0.887825633015094	5.2174255273472E-06	1.3159032842232E-06	-3.44761825534085E-06	6.65402065423868E-06	0.992841700558336	-0.101671863545322
4.2	-0.548630651365185	-0.825553789684822	-7.09579263981998E-06	-1.19166487131738E-06	-8.26166521009565E-06	-3.07415019360531E-08	0.992300574939854	-0.104308363773954
4.3	-0.647864232701377	-0.7500001598411	6.99022507079304E-07	-2.36749038148295E-06	5.21100909230285E-06	8.73522394785689E-07	0.992225301266654	-0.106334481090054
4.4	-0.736900262099853	-0.662461384589316	4.46860365940224E-06	-1.77818808883797E-06	-8.66369881299299E-07	1.34693988957361E-06	0.991823941124481	-0.108722332071904
4.5	-0.814646828994105	-0.564272652461666	6.78393886076547E-06	1.85875690483654E-06	-8.07943863863464E-07	-3.25483544988005E-06	0.991862467518358	-0.110944813608924
4.6	-0.87960561594404	-0.45683196425503	2.4581848742061E-06	2.94727126201497E-06	-6.573798614036E-06	9.75030336143151E-06	0.991488196405802	-0.113847300511057
4.7	-0.930280993630706	-0.341223228372745	-1.40385748925852E-05	5.93168071032071E-06	-3.46089384385928E-06	-3.0283328567825E-08	0.991347271786641	-0.116031290903973
4.8	-0.965814823938442	-0.220649339827675	-3.16682892193006E-06	-5.13677124885396E-06	-5.51868791374893E-06	2.37144733132573E-06	0.990800328574477	-0.118636500425576
4.9	-0.985306903445835	-0.0968754319397835	-1.03324689874018E-06	-8.54617802933154E-06	-4.21793591568802E-06	7.4581001369054E-07	0.990137665883125	-0.120451819770339
5	-0.988785962512773	0.0273396198999749	7.54035406310973E-06	-1.58012586039033E-06	-1.75455492895893E-06	-2.71628295102729E-06	0.989761052456631	-0.121818436492807
5.1	-0.977388899410996	0.151891296373078	-2.60490258074321E-06	-6.38293205045788E-06	-1.00961290935746E-06	-1.94948045356477E-06	0.98973915410912	-0.123088378038186
5.2	-0.95067631154676	0.273543864977012	3.99125071805634E-06	-4.39650426075281E-07	-5.42505779221392E-06	6.30382921489508E-06	0.989391393267226	-0.125252099966299
5.3	-0.909013270405444	0.390718621802425	5.135654447737E-06	5.99314027964811E-06	-9.61747936147745E-07	-3.57945144180125E-06	0.988976416140707	-0.12741108744686
5.4	-0.853125331147868	0.501534021062563	3.05584424569294E-06	-2.01415591919635E-06	-1.12925435512164E-05	2.20122126412477E-06	0.988744128006236	-0.129893537462326
5.5	-0.783842265933765	0.604389919554037	-4.31353041371911E-07	-2.19097577883944E-06	-5.77891412633001E-06	6.1153053601905E-06	0.988816147306298	-0.132230581828008
5.6	-0.701599598074376	0.698149137409136	2.37729991418767E-06	7.29468464935572E-06	-5.37123700016241E-07	2.9255721805087E-06	0.988844254981046	-0.135029007194182
5.7	-0.608301796238785	0.780819002825414	-2.56804588532622E-06	2.35799873073548E-06	7.90106396241061E-06	2.77480007101869E-06	0.988367495824735	-0.137552342061571
5.8	-0.50529717435197	0.850357055613455	-4.64224126955254E-06	5.0960186243536E-06	-3.66266588121389E-07	3.4172947767697E-06	0.987960494366146	-0.139552168382994
5.9	-0.395109354740686	0.90669274923982	6.3466050725954E-06	1.50052128523358E-06	-2.70869274615478E-06	2.54122078201535E-06	0.987573179161541	-0.14121495752371
6	-0.279130388565045	0.949251410092193	3.5162244906709E-06	3.29984061699058E-06	-3.26344146637313E-07	-1.43287763371315E-06	0.98803691614743	-0.142473957324862
6.1	-0.158151202910282	0.976807029600858	9.16712950610373E-06	1.52935959306197E-06	-1.26184365242136E-07	-1.80709099954811E-06	0.988248840818742	-0.14416553682511
6.2	-0.034228419124978	0.988946200544677	2.43873616403222E-06	-1.72685187170693E-06	1.4824336687685E-06	-4.84017980688405E-06	0.988135858548391	-0.145697487699251
6.3	0.0903293035585333	0.985387143258945	-4.35955036195461E-06	4.23875089903249E-06	-6.13547088047918E-07	-1.7242322191446E-06	0.987835697153449	-0.147903303111544
6.4	0.213280979616666	0.966353823777178	-4.26287237842339E-06	1.06660237853419E-06	-1.76591454484728E-06	8.83687449482565E-06	0.987396245292197	-0.150108011959914
6.5	0.333520349959452	0.931944087872591	2.45035694241279E-06	-1.32961445688134E-06	1.48672979732656E-06	-2.9273117713441E-06	0.987069156614928	-0.153194934261572
6.6	0.447300002857082	0.88217589494951	-4.7265009539924E-06	-2.25438218998391E-06	-1.85831962834229E-06	-6.63084782746658E-06	0.986291479778696	-0.155650404709025
6.7	0.553849709120997	0.819076903864929	4.15646291336296E-06	-6.5605194095193E-07	-4.6691420566748E-06	1.00519587239854E-06	0.985950194540816	-0.157799028499389
6.8	0.651671186370754	0.743225761118019	3.75222146215756E-06	-2.07245732099646E-06	6.20377965572215E-06	-9.15617269147049E-07	0.985405432963069	-0.160006678279958
6.9	0.739043702470119	0.655925639586847	2.04219754367971E-06	1.63975678473407E-06	8.76785928321517E-06	-2.7417337615314E-06	0.984895381538706	-0.161892325505171
7	0.814937351203668	0.558485096052497	2.16359910430508E-06	4.09180572165053E-06	-1.00012025099827E-07	5.37285373689355E-06	0.984537191978176	-0.163521325482619
7.1	0.877953516125297	0.452482686162841	-1.35124677279062E-07	1.71385422551922E-06	8.25002263231156E-06	-4.62445586918964E-06	0.983951977571531	-0.165350448331729
7.2	0.927132295215128	0.339193756220978	4.84010294731386E-06	-1.38358855069593E-06	7.23681806281835E-06	3.78476352797048E-06	0.983200219691559	-0.167102971817992
7.3	0.961330534192893	0.220602137430149	4.85225591708906E-06	-1.09856572114714E-06	-7.31372042771528E-06	-7.3761038763533E-06	0.981941780040936	-0.168896448973908
7.4	0.98032806987028	0.0985678927941923	-1.85146351786879E-06	9.86465066525636E-06	1.43613156668085E-06	-4.05516571083679E-06	0.980376827642564	-0.170902952411804
7.5	0.984667269644658	-0.0241235952281077	8.35214283915478E-07	8.06096946343558E-07	1.6648727699801E-06	9.94611334151172E-07	0.979613203116939	-0.172195973429997
7.6	0.974122989034999	-0.147911115342201	1.45818315857066E-06	-2.60400335393967E-06	-5.39586322253081E-06	-3.6318215570252E-06	0.979516152297245	-0.175245899018048
7.7	0.947767611325013	-0.269333456426298	5.55140884269262E-06	2.41790552633205E-06	-6.84192865805202E-06	1.19981999411166E-05	0.97908428367135	-0.178242697952718
7.8	0.906839554381066	-0.386454366647781	-5.95759429075219E-07	-5.23232105860304E-06	3.74009349553889E-06	-4.71451242072162E-06	0.97909025036668	-0.181103601693951
7.9	0.851708349599667	-0.497610778949952	8.83140210146995E-06	1.55714573017312E-06	-9.48915338695615E-06	-8.65609259581787E-06	0.979385867223596	-0.183860874902442
8	0.783301480386223	-0.602074244698597	-6.64930302096299E-06	-1.65110012960023E-06	-1.20125165347336E-05	2.45639567626929E-06	0.980191920786292	-0.187153535696949
8.1	0.700379648478239	-0.69663209054639	5.07368735718389E-06	7.41813364047457E-07	2.88668558614587E-06	2.26786804914022E-06	0.979548949501879	-0.190648632365911
8.2	0.606982251214528	-0.778829799405651	3.56864478125294E-06	-2.56800209505054E-06	-3.65843521104484E-06	-1.16202256830776E-05	0.979159175776913	-0.193063797311453
8.3	0.504086925582113	-0.848687538260528	2.73050286973222E-06	-1.85295622750111E-06	1.62915807585802E-06	5.29426094301575E-06	0.978723536502498	-0.195785281072581
8.4	0.393361021873502	-0.90487252919813	-5.5502064986236E-06	-1.0271025936265E-06	1.05108120691023E-06	2.95215091225219E-06	0.978178340964669	-0.198565899690541
8.5	0.276377081397476	-0.947204786776524	-3.28979613428155E-06	1.61840280165165E-06	-4.78145741646831E-06	-5.00864963690323E-06	0.977579024772651	-0.201633627233626
8.6	0.153801778807068	-0.974532829452893	-8.14222779629639E-06	1.37160156561477E-06	-4.32906667808442E-06	-6.86931801142268E-06	0.976926985895079	-0.204368793309812
8.7	0.0288218738598846	-0.985647832583073	2.24980089396265E-07	-2.14403654397477E-07	6.11933087069242E-06	5.18131922726554E-07	0.976436852659685	-0.206924944589648
8.8	-0.0963668384572615	-0.980694084689834	1.02711700287592E-06	-1.81797930670351E-06	-2.39038328693071E-06	-1.28375386891489E-06	0.976021401032875	-0.209189145781864
8.9	-0.219315555302889	-0.960389297655711	-3.03925021353734E-07	3.03661256807267E-06	-1.23336508542573E-06	-1.64361274126251E-06	0.976009048413665	-0.211271606891136
9	-0.337393460709824	-0.92445206058568	2.97658004776077E-06	1.58966715801032E-06	-1.57670784922755E-06	2.11383318539267E-06	0.976014041546712	-0.213654736431822
9.1	-0.450176981175001	-0.875361427049414	-9.31301589043818E-06	2.25515534964053E-06	-1.5664104732157E-06	2.40757155481391E-06	0.975909042932618	-0.216052956059086
9.2	-0.556445444363497	-0.812393539962234	7.50405489850194E-06	-2.23564354832285E-07	-9.10799865909877E-06	1.9560522783478E-06	0.97553017835801	-0.218964106344404
9.3	-0.653932093445269	-0.737010154189757	8.82702074854715E-08	-7.16226140434529E-06	1.58847297409342E-06	-1.29751950025124E-06	0.97503038960946	-0.221824812440318
9.4	-0.741327611018161	-0.650124639437739	5.94714868299369E-07	2.48394521611011E-06	1.62325462244128E-06	-3.59383681001873E-06	0.974083082124412	-0.224871568240163
9.5	-0.817890267000739	-0.553522097688401	-2.88934446212379E-06	6.64064561401601E-06	4.72956424399489E-06	-1.35741289315227E-06	0.973432799731027	-0.22750886219067
9.6	-0.882874776948714	-0.445441829471145	-5.02137956772523E-06	-5.22155633010459E-06	4.76213512635786E-06	2.89513427297362E-06	0.972728879378497	-0.230938586973148
9.7	-0.932246590233874	-0.329229777882583	-1.99768058089016E-06	-5.08498947839508E-06	2.10034268599033E-06	1.34277045076655E-08	0.9717715213153	-0.233611974328326
9.8	-0.966357198819091	-0.207643321984005	5.98826003429886E-07	-4.29175303071066E-06	-2.94321809467702E-06	-2.52523471452281E-06	0.971160676033602	-0.235527938838736
9.9	-0.98420506573306	-0.0829218003338011	-6.12759581264033E-06	4.21014778520194E-06	-3.09066029843212E-06	1.66480058290583E-06	0.970859469550674	-0.236903852742979
10	-0.986679488191115	0.0415099728934409	3.57810542134218E-06	-3.9134518860683E-08	8.23481640754675E-06	1.11280413371056E-05	0.971433437018566	-0.239071362809514
10.1	-0.974124048466203	0.165837215543994	-2.86069116192684E-06	-2.52887877093968E-06	-2.01070095380447E-06	-2.50333321144237E-06	0.970125288393811	-0.241363555416058
10.2	-0.945670267084479	0.288152838109615	2.36183759971142E-06	-1.02083845511303E-06	-2.77226279173966E-06	-1.07106901159855E-06	0.969456118891956	-0.242470261787181
10.3	-0.901832853314373	0.405808625136324	7.78235008102188E-06	-5.95611900027308E-06	3.86096682110869E-06	8.25261777988211E-06	0.968949779545942	-0.244008995843692
10.4	-0.844135370144793	0.516857173389333	1.71013002590347E-06	2.52551080453871E-07	6.29392286176801E-06	-1.18591900885928E-06	0.968480611359675	-0.245861982752248
10.5	-0.772674135312229	0.620189155553222	8.37308118067725E-06	-4.15322855585256E-06	-4.9566720740948E-07	1.97801527119405E-06	0.968164524212572	-0.24870098881521
10.6	-0.688889134422081	0.712593890031612	8.95829677147817E-06	-1.27498910117773E-06	-1.47690439822082E-06	1.36762726547687E-05	0.967443943476438	-0.251452598074715
10.7	-0.594089920452587	0.793470442600807	8.03435684785939E-06	-1.91140820639217E-06	-3.06337885878765E-06	-5.29208690026565E-06	0.966740073820918	-0.254633269354846
10.8	-0.48889920164399	0.862223979863387	2.46044471075667E-06	5.25734603062429E-06	-3.63600829113672E-06	-2.02720288362192E-07	0.965948692687637	-0.257065012756909
10.9	-0.375321499358565	0.916734437543746	-5.56803733313998E-06	4.92836767888772E-07	1.60476140084181E-06	4.03373623315334E-06	0.96527486112091	-0.259376338996
11	-0.257378120013966	0.955502701503564	-7.24577855281273E-10	-5.22827585054123E-06	-8.38874534381538E-06	2.2406761572764E-06	0.964490658231392	-0.261715065029949
11.1	-0.135783386284373	0.981676811990116	6.32277027123444E-06	4.09183107933122E-06	-1.89997817020703E-06	1.07783813219346E-05	0.962968429093511	-0.263821625170919
11.2	-0.010714719511558	0.991790816860209	1.58240772491944E-06	1.35601176273615E-06	5.15336295826139E-06	8.91322365443763E-06	0.961277100210341	-0.26553189109136
11.3	0.114861415305049	0.985037720616899	-4.64655987264409E-07	-1.73967730257907E-06	-7.03933971189144E-07	-4.40177114919804E-06	0.959951100193765	-0.266897202907475
11.4	0.238197958508259	0.962583508705655	2.36950532457497E-07	1.18757346259779E-05	2.43123896444176E-06	4.9331477604896E-06	0.958489212142888	-0.268665034657446
11.5	0.357560056871681	0.924851617018996	6.20170671627491E-06	-3.31068123214567E-07	3.15258852925259E-07	-1.88454047271522E-06	0.958122291032724	-0.27063878851242
11.6	0.47006060241818	0.872722807558147	-6.00643408420664E-06	3.08341280838366E-06	-4.87189559089137E-06	1.92381580433712E-06	0.956947778598112	-0.274506886130885
11.7	0.57505710424934	0.80734983128631	3.3263327428176E-06	-1.80084302463905E-06	-1.70481297065367E-06	2.24024413028085E-06	0.955364779526959	-0.277700507837803
11.8	0.670798426454591	0.728758131889943	-8.12321154063799E-07	9.79552296709056E-06	-2.70731428106172E-06	1.05416867696098E-05	0.954291641557213	-0.280472701758963
11.9	0.754603127634375	0.638569477272035	-7.29389887412748E-06	-1.03610839352017E-06	-3.9085827620862E-06	1.12461332413285E-05	0.954570805624974	-0.281966742313477
12	0.827075250247252	0.539784708565759	-6.45442405072678E-07	1.38314999801155E-06	-3.13919133572085E-06	-1.92753333226357E-06	0.955839584863533	-0.285709083863642
12.1	0.887284931633868	0.43264346125249	-3.88037416414766E-06	4.99233645007402E-06	-1.33796859901819E-06	8.42182781078084E-06	0.954306606049768	-0.288954323125641
12.2	0.933881225072726	0.31893920743968	-5.77053704514474E-07	-3.80202378990047E-06	-3.11706801837067E-06	-7.31949334041793E-07	0.953333228552662	-0.291762883688164
12.3	0.966467166413584	0.200710967475468	3.60190002443903E-06	3.43797223977739E-06	-3.44129273923358E-06	6.27575750623999E-06	0.952441695369663	-0.294702772834793
