# GHZ S RI R 50
0.2	0.000822458478719035	0.00242863733518054	4.79445159225153E-06	-2.98504657291668E-06	-1.37294072727543E-05	1.31204143286263E-05	0.999575586358179	-0.00692840086320515
0.3	0.0012665132076437	0.00167897647736072	2.86540894232749E-06	6.62775478227496E-06	-1.66263930839441E-06	-9.32254516037597E-06	0.999501398709763	-0.00979681699745734
0.4	0.001558278144456	0.00121776335003503	-1.86284227933542E-06	-4.01716079295815E-06	-9.01832882524099E-06	4.40435084396545E-06	0.999551910646677	-0.0124671699281995
0.5	0.00169409742324299	0.000790497104372692	-5.35969056285572E-06	3.2640979210242E-06	-2.12667490685077E-06	6.75889657457998E-06	0.999276715411615	-0.0156308665109069
0.6	0.00176558965128506	0.000464535938181243	-1.39951148587626E-07	2.8063884581942E-06	-5.81582236698447E-07	-1.34190079185893E-07	0.999354290999841	-0.0184375196305695
0.7	0.00175039709420697	0.00021914173776026	8.76374090444056E-08	2.21978825145658E-06	4.90543401990171E-06	-3.40192714510233E-06	0.999095238154018	-0.0214010535365382
0.8	0.00177346734087684	1.97125974827787E-06	4.53004816280027E-06	8.27017832031552E-07	2.74469122826458E-06	2.0017320440084E-06	0.998869021647269	-0.0235934337959543
0.9	0.00172224929743073	-0.000194397448551414	-1.51145551980733E-07	-4.22029716879761E-06	-3.41896695176345E-06	-3.11155007243657E-06	0.998758128223478	-0.0259980899978277
1	0.00166788033244559	-0.000411354224083527	1.0601560481948E-06	4.29396352255186E-06	3.32851036001106E-06	9.34270755925143E-07	0.998505758009166	-0.0276208526113276
1.1	0.00146481135669084	-0.000685836056108495	9.04655817864967E-06	5.18957695419035E-07	-3.57953635490929E-06	-4.99637466652388E-07	0.998207526746455	-0.029627961408539
1.2	0.00114319357442022	-0.0012217015594843	3.76207643948899E-06	-1.19997413603963E-06	-4.09792083731887E-06	-2.43868423486653E-06	0.997608427752811	-0.0306206687562967
1.3	0.000501624428391803	-0.00205608636757158	-7.62007515205677E-07	-1.42730762580864E-06	-2.58869072231614E-06	-8.7097789144369E-06	0.997786551102565	-0.031470709876921
1.4	-0.000292196947642724	-0.00291491518602648	1.48717418737297E-08	3.44904703893326E-06	-4.28423915061809E-06	-4.12831593820495E-06	0.997638034404958	-0.033551650622808
1.5	-0.000788817238919617	-0.0033390158203969	-1.29794210465567E-06	4.43207801574216E-06	6.55434502185278E-06	-7.41822791481904E-06	0.998211112062316	-0.0369856098922037
1.6	-0.00103135247792525	-0.00338205110036564	1.63038924716572E-06	-4.8956061291435E-07	4.24382085444979E-06	-5.39755234078212E-06	0.997788544557009	-0.0404727695699395
1.7	-0.00110522005442239	-0.0033245070730688	5.32226734833001E-07	3.95962461327467E-06	-8.28913271319757E-06	3.13245235087699E-06	0.998068438953591	-0.0430470887648782
1.8	-0.00116292486677171	-0.00320782315385283	1.83366426579457E-06	1.07883277028408E-06	5.6557944028769E-07	-1.76301778639816E-06	0.99801721039931	-0.0458092931667847
1.9	-0.00123807031307224	-0.00319537115651192	3.23852244558634E-06	3.0195305255764E-06	-1.83362781637021E-07	-2.33183476734497E-06	0.997870561049754	-0.0480688084592994
2	-0.00137832604380032	-0.00322342109134281	-1.72885593363731E-07	2.0059361994274E-07	-1.21729176195735E-05	5.42249103867903E-06	0.997460501822115	-0.0508229960044104
2.1	-0.00157048431092939	-0.00329334159181972	6.68077366859952E-07	-1.38366931789285E-06	1.38213389394823E-05	4.96351202126866E-06	0.997207520977038	-0.0531329348980122
2.2	-0.00185856614402058	-0.00334169569707618	1.64475337632712E-06	-1.51880304171112E-06	2.68482654967269E-06	-6.21635631868657E-06	0.997181369631179	-0.0555665252594278
2.3	-0.00225834689207505	-0.00339280029896367	-1.69089099270631E-06	-3.42805517881711E-06	-1.79494813046202E-06	-4.59359688103735E-06	0.996865511737887	-0.0574185886305891
2.4	-0.00272983879576812	-0.0033952704677363	-1.20716818930169E-06	-4.40275235903622E-06	3.04892495472766E-06	1.0851165591199E-06	0.996848742839786	-0.0605320631351817
2.5	-0.00326391243420627	-0.00330497470791716	5.39017205169015E-06	5.66855627463474E-06	-2.59760094232365E-06	1.61598804576064E-05	0.996483630355024	-0.0628137152477851
2.6	-0.0037530646812678	-0.00306508609367145	-2.27622273097976E-06	2.71518326893948E-06	4.30992339656239E-07	-4.31461895433584E-06	0.99651497615245	-0.0657034376602911
2.7	-0.00404510668952612	-0.00271493511174004	-2.41115021797941E-06	-3.63734968070631E-06	2.15421418856378E-06	-2.57409717147612E-06	0.996127718716652	-0.0687388427170285
2.8	-0.00415185743874839	-0.00235851197821179	4.00687983814421E-06	2.309894510229E-06	9.83773691822146E-06	-6.96742194772795E-07	0.996267566005594	-0.0707757268522956
2.9	-0.00404625185228857	-0.00208748477994925	1.28892863946527E-05	6.98072676550543E-07	2.43037246575293E-06	-1.17257557513579E-05	0.996006437045014	-0.0728716752916785
3	-0.00387871260059589	-0.00197687673281356	-3.85472711739174E-06	1.05130203425221E-06	-4.14960573870459E-06	-1.59513307573517E-06	0.995858799224629	-0.0754321670632605
3.1	-0.00371722213140602	-0.00196500273171262	4.77177435559363E-06	-9.85346091216325E-06	1.06910022790686E-05	2.40035160593303E-06	0.995536607409539	-0.0774713341289395
3.2	-0.00368033091740557	-0.00205623403442069	-5.38062985138739E-06	-7.40649898214031E-06	1.56492748149742E-05	5.37230882967937E-06	0.995276225108945	-0.0793190406975722
3.3	-0.00375852043324372	-0.00218963479362455	-8.79328593745352E-06	2.5552906378267E-06	-8.57076601045233E-06	-1.73227101884248E-06	0.995036934279735	-0.0826164642150576
3.4	-0.00400070980448953	-0.00229887981556066	9.05507189773697E-06	-7.57356729951028E-06	-7.34332993320945E-06	4.24388588973365E-06	0.994955586984181	-0.0846194867810436
3.5	-0.00432826737078714	-0.0023836356556583	3.12909825040341E-07	-5.32314856747109E-06	-4.40948331494948E-06	-8.92674845183757E-06	0.994758939763162	-0.0874769640111541
3.6	-0.0047196750932376	-0.00231467429906924	4.07746986789887E-06	4.89647754178625E-06	-7.09947528435065E-06	9.00101113611795E-06	0.994391075477159	-0.0900479428710362
3.7	-0.0050916467128058	-0.00213197741262677	1.52354515754028E-06	-4.52817132874911E-06	-5.10947564461139E-06	-6.58121919908316E-06	0.994181004941078	-0.0927436395999183
3.8	-0.00539165782272165	-0.0018533661349182	7.27346279247518E-06	-5.20227249226944E-06	-5.88139106508791E-06	-2.41261568044423E-06	0.993785761356864	-0.0947982709763993
3.9	-0.00553396963571507	-0.00151345417587155	-4.02941056899187E-06	-3.46688468451805E-07	-2.52934494682373E-06	1.13498006931893E-06	0.993685616859404	-0.0979101152761184
4	-0.00557151275557379	-0.0012463623213621	-3.38426396083306E-06	-7.92114260852327E-08	1.2119130013128E-06	8.66878245735264E-06	0.993407706556783	-0.0994029444382675
4.1	-0.00555821328820194	-0.00101308597854857	-2.90422217607925E-06	-3.85805539797142E-06	5.88215408033357E-06	3.03215477046594E-06	0.993194733697925	-0.101238953877136
4.2	-0.00555335099303816	-0.000871920843378845	-7.75528964497556E-07	-2.15615743231117E-06	5.69771130016342E-06	-1.84971980587582E-06	0.992632525369429	-0.103909989577601
4.3	-0.00558222042824821	-0.000757863303988083	-5.07263872799821E-07	3.23515918006497E-06	2.13126132377735E-06	1.77746441564816E-06	0.992435524948639	-0.105938413535374
4.4	-0.00573879905374707	-0.000664303690829274	2.57985838362758E-06	3.43816294877612E-06	7.18513992162916E-06	3.90253635989877E-06	0.99204097213665	-0.108319872033914
4.5	-0.00594771640443297	-0.00048812582699123	-6.4698662263181E-06	-2.2214891719289E-07	-8.57936521083222E-06	-2.1019183542612E-06	0.991869383549085	-0.110452143538841
4.6	-0.00627100371042627	-0.00026473853184613	-9.95058619936712E-06	-9.21046241541364E-06	3.23131728186219E-06	-2.73296823637957E-06	0.991611967403072	-0.113305182265913
4.7	-0.00650490568132349	9.33048495500938E-05	1.28183828588271E-07	1.86423538709E-06	6.05055279345432E-06	-6.73824506406404E-06	0.991485999053588	-0.115432820196944
4.8	-0.00666565971218159	0.000524601529379988	-6.3889669586052E-06	2.08616587253921E-06	7.68280245419772E-07	-1.27432167445458E-05	0.991050078276182	-0.117981773357663
4.9	-0.00662608305884949	0.000964244773788271	-3.41376147452273E-06	8.14322891290111E-06	5.75484316619831E-07	9.37123364493938E-06	0.990561307290994	-0.119830835650154
5	-0.00639631805794055	0.00127273861186792	9.63280912637844E-06	-4.07158166042417E-06	-6.92775584715207E-06	3.58442129611932E-06	0.990386523516341	-0.121397484800445
5.1	-0.00604877234192164	0.00145522655216643	-3.70538080244617E-07	-3.24972386165606E-06	-3.87437410958203E-06	-1.78661467568093E-06	0.990351792347633	-0.122834319648648
5.2	-0.00570234909702299	0.00148499214082157	-1.07217715198649E-06	-4.48245361248013E-06	8.78747063104943E-06	5.56243989922752E-06	0.990106109134725	-0.12506270129647
5.3	-0.00544332798230674	0.00143306205521853	2.29293537078552E-06	6.78485375786493E-06	8.79121838242708E-06	3.12036468351748E-06	0.989862050716327	-0.127412991107089
5.4	-0.00530620976511555	0.00138481647319814	2.70040240130888E-06	-3.14211026437638E-06	-2.67214998416089E-06	1.56562135768749E-07	0.989776440838934	-0.130255433274068
5.5	-0.00532437579060838	0.00140640750242535	2.11585361964956E-06	9.30867222907057E-06	-3.92416661481582E-06	-5.02589753532652E-06	0.989500845736093	-0.13311358899729
5.6	-0.00540609074325121	0.00153246697737219	-5.85192722511823E-06	-1.12678468081476E-06	4.87047894449689E-06	1.93744440368288E-06	0.989152759466845	-0.135634430377866
5.7	-0.00557836312920495	0.00176305776809158	3.33277696864081E-06	-1.42501373118737E-06	-5.04798014312781E-06	-4.28432240486991E-06	0.988821704048112	-0.138121904189409
5.8	-0.00572229965595676	0.00209152451459396	-2.0569988236004E-06	-4.74055081079876E-06	9.45138613706449E-07	-5.82554268016031E-07	0.988579447407951	-0.140320759736183
5.9	-0.00584469097572332	0.00253595032148245	-3.87536407492942E-06	6.22727675360752E-07	3.86033701172873E-06	1.24442056747833E-06	0.988256345916743	-0.142569394474533
6	-0.00593021510477207	0.00295950813990331	-5.92506519171338E-06	5.04911842373692E-06	-1.48318232660115E-06	1.97869227027764E-07	0.98775806254808	-0.144292369333916
6.1	-0.00596477461128909	0.00337300156938956	-5.92754531613371E-06	-4.68668689182392E-06	-4.00225712529531E-06	4.36335695979985E-07	0.987543812912974	-0.145541595760274
6.2	-0.00593923068777878	0.00366214305749518	2.82056625690979E-06	3.11989546661681E-06	1.05239877828933E-06	7.21148060037836E-07	0.987238379380837	-0.146947778418244
6.3	-0.00580613197227685	0.00384093434948995	1.63909137867788E-06	-7.48775666179758E-07	-1.32059128771948E-07	1.37431925984104E-06	0.986803954503899	-0.148898786579204
6.4	-0.00573089237392852	0.00386557491176975	-5.18264735784681E-06	-5.61040140246506E-06	3.81656442629442E-06	6.8988842829312E-06	0.986268483194588	-0.150969862245488
6.5	-0.00562640878666502	0.00385540880346865	9.05720070978925E-06	-2.53312619099022E-07	-7.31608995980436E-06	-8.92676077362485E-07	0.986005032050616	-0.153549541087484
6.6	-0.00554783828097395	0.00392137776883194	-1.48644502140436E-06	4.66184447390421E-07	3.36738651241686E-06	-9.36992393559951E-06	0.985801318955333	-0.156147703920414
6.7	-0.00544492380956066	0.00409333443066389	4.76555547029552E-08	7.74132839070292E-06	-4.93449035205879E-07	-6.07798829528669E-06	0.985461534214985	-0.158485441513314
6.8	-0.00534011873158554	0.00432641385448168	4.24175551277986E-06	1.6553850208612E-06	2.15028928523085E-07	-5.22848233846157E-06	0.985037031856109	-0.160754878143792
6.9	-0.00523984108665424	0.0046237871607184	-7.5454531158028E-07	2.47347556071885E-07	5.75296284206062E-06	-2.67546403546801E-06	0.984642705200141	-0.162827959010456
7	-0.00507568822447638	0.00497037082984666	8.01400952336862E-06	-4.74818817608684E-06	4.35509394996232E-07	-3.01648588543651E-06	0.984019882571008	-0.164602030786644
7.1	-0.00493788953550023	0.00527782441608455	3.84102074247971E-06	2.04260967147757E-06	7.69546133847588E-07	7.22186750734715E-06	0.983510895770084	-0.166205581267353
7.2	-0.00481063971111282	0.00560078625112053	-2.44760361679901E-06	3.68655147008937E-06	-1.32932426252646E-06	-3.82392106835195E-06	0.982909822101397	-0.167865821188541
7.3	-0.00475881043180895	0.00591255058208458	3.43630479555674E-06	-4.91611039171407E-07	-2.44639945250151E-06	-1.91687511914801E-06	0.981919997037853	-0.169542076513463
7.4	-0.00483722093168054	0.00621149062699264	-6.18043257001979E-06	-2.69905472642896E-06	3.76602365618972E-06	2.48475351642374E-07	0.980998648875026	-0.171676059429625
7.5	-0.00492454541994416	0.00654868740492422	6.75002076646054E-06	-6.42264878721747E-06	-2.47559162460699E-06	7.9745176506889E-07	0.980174134395886	-0.173973747280845
7.6	-0.00491218338451977	0.00688210561781248	3.47270486126513E-06	5.19977935831581E-06	-1.02322171735724E-05	4.90777522396325E-06	0.979648869351284	-0.176876939385185
7.7	-0.00491280219501356	0.00716937003085257	6.00242891014246E-06	1.0929539436974E-05	3.48125771350088E-07	-1.13395957877052E-05	0.979235602253944	-0.179980607576615
7.8	-0.00464178228817657	0.00730374773197611	2.15114587378257E-06	9.85663465833161E-07	-3.11451610220117E-06	8.8021575523134E-06	0.979012075641549	-0.183086351033324
7.9	-0.00421372819635944	0.00729385025592144	2.55299215856509E-06	-2.30619999292589E-06	3.68214727126206E-06	3.48333557126306E-07	0.97888918195871	-0.186213958114427
8	-0.00374341703777072	0.0071824579353351	-2.81233973522935E-06	1.32325113227884E-06	6.87346534323077E-06	-1.84516494907597E-06	0.978496146121853	-0.189193082336878
8.1	-0.00331692164968037	0.00705757629154843	-1.79061403332148E-06	7.52057074518324E-07	-3.70271405054433E-06	-1.25801465532975E-06	0.978003324266841	-0.191756273405519
8.2	-0.00300890987804426	0.00691919289813659	-8.02382725611917E-07	6.32611580273433E-06	4.86472428430961E-06	4.35623996243584E-06	0.977736471374528	-0.194058679908171
8.3	-0.00278042527587961	0.00683621728692578	-8.35547042873356E-07	-1.41993569419672E-05	6.81115067473139E-06	5.42987154303014E-06	0.977239117416939	-0.196759407671474
8.4	-0.00264755521938141	0.00687686958417274	3.76015966154065E-06	-3.4201118201217E-06	-6.96194577530967E-06	-1.22638102204848E-06	0.976566262908007	-0.199375308242277
8.5	-0.00251304917659772	0.00698515829824796	4.66758104844394E-06	5.92662281678416E-07	8.41486965567476E-06	-6.8118293979203E-06	0.975929693324848	-0.202017667421932
8.6	-0.00238569493719661	0.00719300334308748	-3.27197182255248E-06	4.10738584020896E-06	9.89905847863145E-07	1.10869772181604E-05	0.975503374039812	-0.204596237369095
8.7	-0.00213451796734779	0.00741597670077076	2.68452089465891E-06	-1.99370115893857E-06	4.7911000903623E-07	-5.52665420443135E-07	0.975211066932922	-0.207157372119515
8.8	-0.00177963334405031	0.00763649447081796	1.23734841214184E-07	-1.25227064731092E-06	-9.85349074492845E-07	9.76164773074652E-06	0.974840384380293	-0.209408767513075
8.9	-0.00128868360948669	0.00772277136073	-3.66593279897588E-06	2.28679977058473E-06	4.83448883330197E-06	-1.79568183847162E-06	0.97490501019009	-0.211407480207498
9	-0.000717590568967718	0.00758824801938712	-1.89066395453663E-06	4.9397458197596E-07	-3.18957854030536E-06	-1.05398782891794E-05	0.974865969761413	-0.213758078891586
9.1	-0.000165436499854047	0.00720906646682207	5.25001790780569E-06	5.99602549279948E-07	9.12122542323584E-07	3.83534757345762E-07	0.974632053757771	-0.215940661994566
9.2	0.000236109139522382	0.00669283707058986	-8.71549640686661E-06	-4.59422696292265E-06	-8.69976562203515E-07	-6.13014423394429E-06	0.974226224322278	-0.218522938994673
9.3	0.000429161222565924	0.00616441118798615	1.76111149517833E-07	6.21842453464598E-06	4.64494663000559E-06	-2.1857231041557E-06	0.97387299372476	-0.221039313026512
9.4	0.000461623340165061	0.00569005803545277	-1.94118905540464E-06	5.88433378988296E-06	-1.05255632857746E-05	7.72576277181123E-06	0.973269430277329	-0.223987158440996
9.5	0.00032312465849581	0.00544583121842406	3.20469660680455E-06	-7.56678803685523E-06	3.69190607827331E-06	-2.73619798414552E-06	0.972566162291275	-0.226805251651221
9.6	0.000107690307775652	0.00533442466231579	4.49321125260272E-06	5.59312397529796E-06	-6.56415883179501E-07	7.07936797381322E-06	0.971910263499031	-0.229831495382684
9.7	-9.22883673156349E-05	0.00538104674279018	-2.60110254251109E-06	-3.94952947547101E-06	3.71288929841169E-06	-7.52732738549789E-06	0.971303876594879	-0.232387593899918
9.8	-0.000309616110731335	0.00554060971381109	-5.1770785703406E-07	-4.22320852203381E-06	6.28535227259756E-06	9.0291566203785E-07	0.971128398128476	-0.234523466286362
9.9	-0.000461557897484764	0.00587145684642745	-2.6932277562206E-06	-6.00893435331597E-07	-8.53262329972932E-06	5.48306204759854E-06	0.970738704452573	-0.236434680437488
10	-0.000517830450385871	0.00622869142070104	4.3287759128499E-07	-1.75481753593725E-06	-3.07722348536951E-06	-7.99478872956382E-06	0.970394331122303	-0.238093371829477
10.1	-0.000457876544978301	0.00664061772542115	2.24175040684012E-06	4.78519266551199E-06	-3.12640038336228E-06	9.86611532711646E-06	0.969988645896378	-0.239724352013056
10.2	-0.000243116065737899	0.00699632259077828	-5.37300885155928E-07	-1.05216897481573E-06	-1.20717522555616E-06	-3.12622129533118E-06	0.96963941277324	-0.241196898308742
10.3	5.77259271191702E-05	0.00730611330126709	1.13407798377816E-05	-2.91986684381332E-06	1.00902359050311E-05	-4.83999257621546E-06	0.969135900521732	-0.243072233674253
10.4	0.000458683614688979	0.00751643430435912	-6.33291299274985E-07	2.1528256764764E-06	3.04253357820472E-06	-2.18683396966714E-06	0.968372673231887	-0.245219453981284
10.5	0.000860973565783787	0.00765003439043554	-6.13436887658542E-06	4.64834176600487E-06	1.56995256661152E-06	4.32094196724245E-06	0.967687433930507	-0.247744359878808
10.6	0.00126518532008306	0.00772387618542482	-7.13786001321027E-06	1.07104702570399E-05	7.04310492840631E-06	4.29018338809419E-06	0.967062687054203	-0.250360520431217
10.7	0.00167397840450485	0.00782909287188473	-3.22649321570781E-06	1.56905321515818E-06	-5.38827571801766E-06	3.17557345248746E-06	0.966388264877723	-0.253143176202031
10.8	0.00213265323703334	0.00792898701536817	-1.93777563595475E-06	5.00662961070366E-06	8.56203126377765E-07	-3.21322388549377E-06	0.965746502190246	-0.255304974587103
10.9	0.00256104294649766	0.00800997254557703	-5.76542465196838E-06	-1.05658579871917E-05	4.94378079709989E-06	1.07448812875973E-05	0.965395893081022	-0.257375426161651
11	0.00311702543334579	0.00804802450543655	2.97520450534479E-06	2.62520510985948E-06	7.95038168986674E-07	-1.12739010802655E-05	0.964898383365292	-0.259176761259234
11.1	0.00369599271072515	0.00801271205912461	3.87067034918774E-06	1.46379770176572E-06	2.5849364629036E-07	-7.39876162998405E-06	0.964295577821203	-0.260891324415095
11.2	0.00432160888731082	0.00781968672582214	-4.43080017706232E-06	-1.97847189317635E-06	-7.34722900197395E-06	-4.86790320012776E-06	0.963576461744139	-0.262764291555302
11.3	0.00495602584362996	0.00745540735674562	6.64830307441839E-07	-6.39979402352563E-06	3.78059630604294E-06	1.41873021283508E-05	0.96300942678252	-0.264651140571313
11.4	0.00537536481120406	0.00696861142523746	-5.13206197198661E-06	8.16889559662783E-06	-1.46272711224018E-06	4.08978713173793E-06	0.962070770872751	-0.267264362163305
11.5	0.00561626125382132	0.00642879291802474	4.53741947190298E-06	8.11578940093147E-06	-9.31465759734686E-06	1.58644068159229E-06	0.961149291273695	-0.270137177628175
11.6	0.0057930104558534	0.005860516925974	-3.85242302182959E-06	1.40636516947064E-06	5.09613869344431E-06	8.15837412502698E-06	0.959943218925815	-0.273737893881046
11.7	0.00585933716482282	0.00530174477809477	2.26129042297322E-06	1.05572726393834E-05	5.40165245934367E-07	-3.6598930920383E-06	0.958776018658726	-0.277369273719288
11.8	0.0058956271120954	0.00486551347514251	1.43672574482209E-06	4.47299069812323E-06	2.26018198111151E-06	4.54652170114961E-06	0.957718783043137	-0.280986336530544
11.9	0.00598482380349248	0.00448662345512037	7.47484254166589E-06	1.05901026167682E-05	3.89365046914474E-06	4.02749009460146E-07	0.957215462402281	-0.283544925891908
12	0.00592123527469294	0.00410407172504538	2.35483902501271E-06	-5.17394885290873E-06	-4.0342182952619E-07	1.75701746915323E-06	0.956553780719625	-0.286223295196168
