# GHZ S RI R 50
0.2	0.000831748488037812	0.00241256004423647	4.79437463222382E-06	-2.9850619283108E-06	-1.37291434050098E-05	1.31204119781001E-05	0.999574659298295	-0.00695387848623984
0.3	0.00127805452312045	0.00166975824689879	2.86557864760668E-06	6.62754831607608E-06	-1.66291807626707E-06	-9.32233269548811E-06	0.999495665226885	-0.00983870201908074
0.4	0.00156704008556362	0.00120689063949383	-1.86296646087737E-06	-4.01696820246612E-06	-9.01788674318625E-06	4.4046234750805E-06	0.999532464879863	-0.0125213180875988
0.5	0.00169529664769263	0.000792139994328031	-5.35939872185262E-06	3.26431087162885E-06	-2.12626858935935E-06	6.75886049295043E-06	0.999255014683602	-0.0156819096705133
0.6	0.00177840179655428	0.000468144855228688	-1.3972468744308E-07	2.80629669647883E-06	-5.81571516375428E-07	-1.34139295421816E-07	0.999329058553926	-0.0185118997076892
0.7	0.0017623509198334	0.000221432625662528	8.78232610420017E-08	2.21966210959859E-06	4.90487988291951E-06	-3.40216641226266E-06	0.99905201858434	-0.0214832243166017
0.8	0.00178714831838229	6.6606087661851E-06	4.5298220614855E-06	8.26543715026325E-07	2.74469299718331E-06	2.00134455100701E-06	0.998813878319115	-0.0236793829317644
0.9	0.0017404467519751	-0.000192767042659799	-1.51544454223787E-07	-4.21992912581689E-06	-3.41898416434405E-06	-3.11095617678341E-06	0.998690257577898	-0.0260915471937281
1	0.00167632224045165	-0.000413327285765886	1.06045234242153E-06	4.2934422084802E-06	3.32827008161797E-06	9.33868330641808E-07	0.998413532121967	-0.0277131373323369
1.1	0.00147590807496617	-0.000681032636385256	9.04559942000517E-06	5.18038668551883E-07	-3.5791850096772E-06	-4.99241029859355E-07	0.998104709309846	-0.0297147670880649
1.2	0.0011466567711563	-0.00121819402153355	3.76148031456815E-06	-1.20014204542146E-06	-4.09759507684852E-06	-2.43801100454253E-06	0.997478507315405	-0.0306991750732045
1.3	0.000496116900710993	-0.00203756189333545	-7.6199835448224E-07	-1.42705050302837E-06	-2.588929282624E-06	-8.70835386527272E-06	0.997636223815531	-0.0315175987583335
1.4	-0.00029017701756258	-0.0028806748411677	1.50763425099954E-08	3.4485298304759E-06	-4.28384536730676E-06	-4.12744102575074E-06	0.997488598807143	-0.0335730066204493
1.5	-0.000772923952397901	-0.00329519670888194	-1.29747179356061E-06	4.43142966855705E-06	6.55284204293895E-06	-7.41739810416793E-06	0.998061457079463	-0.0369945119939532
1.6	-0.000992211426706725	-0.00334523455505611	1.63007120894802E-06	-4.89555435419177E-07	4.24278348838719E-06	-5.39679746173146E-06	0.997645994232277	-0.0404805790089087
1.7	-0.00105257753726693	-0.00330166855452854	5.32282378938615E-07	3.95884897001901E-06	-8.28742891335064E-06	3.13218424055841E-06	0.997928909303547	-0.0430565445250506
1.8	-0.00110024003802224	-0.00320597358134488	1.83333789512575E-06	1.0785689221627E-06	5.6541778815169E-07	-1.76269026415897E-06	0.997883749269651	-0.0458283663403678
1.9	-0.00117975268059364	-0.00322200077657884	3.23795653517017E-06	3.01884408386111E-06	-1.83387421892903E-07	-2.33136545473834E-06	0.997728678108908	-0.0481129138481173
2	-0.00134440088367447	-0.00326533694266281	-1.72845231895227E-07	2.00553721108513E-07	-1.21702244454835E-05	5.42154063342555E-06	0.997280147008981	-0.0508721001202158
2.1	-0.00155621807185181	-0.00333861546505216	6.67919994282492E-07	-1.38338722970717E-06	1.38184999712235E-05	4.96229887198351E-06	0.997011509437366	-0.0531804578798236
2.2	-0.00186573944220845	-0.00337878899395166	1.64435860854285E-06	-1.51849619508431E-06	2.6841113954284E-06	-6.21502379747547E-06	0.996950768940168	-0.0556113805245938
2.3	-0.00227434311525217	-0.00341431725014685	-1.69054172438705E-06	-3.42719202915754E-06	-1.7945944976704E-06	-4.5924487088528E-06	0.996605611804331	-0.0574455585972758
2.4	-0.00274469465028423	-0.00340728161230948	-1.20689068859044E-06	-4.40157123432751E-06	3.04812582923761E-06	1.08479851760695E-06	0.996567459393834	-0.0605385177574729
2.5	-0.0032847904295458	-0.00331134182623464	5.38864584037187E-06	5.66698071658845E-06	-2.59691449606943E-06	1.61553422201475E-05	0.99618214094525	-0.0628007091013499
2.6	-0.00377316484864194	-0.00306240449724184	-2.27557870360933E-06	2.7143370850693E-06	4.30924118729149E-07	-4.31331934550557E-06	0.996195314820548	-0.0656678269692165
2.7	-0.00406591200640157	-0.00270541612268468	-2.4102510611991E-06	-3.636294980396E-06	2.15363332667318E-06	-2.5732032975232E-06	0.995793416501675	-0.0686701691290124
2.8	-0.00417026921379932	-0.00234118227539929	4.00543082139438E-06	2.30941644478689E-06	9.83460544151612E-06	-6.95858741794684E-07	0.995929794240245	-0.0706690726186849
2.9	-0.00406174611474317	-0.00206398760956767	1.28850232097002E-05	6.99120559180026E-07	2.43074156519307E-06	-1.17216998128769E-05	0.995672374535467	-0.0727263035033466
3	-0.00389081349729431	-0.00194170202053462	-3.85361609360363E-06	1.05046144499354E-06	-4.14805576531063E-06	-1.59515548797008E-06	0.995532415353324	-0.0752438482667861
3.1	-0.00371211377416543	-0.00192062824834454	4.77182938003899E-06	-9.84946448993584E-06	1.06871205529971E-05	2.40131757808774E-06	0.995226604927751	-0.0772347458991803
3.2	-0.00366372220376617	-0.00201047728540897	-5.37743823775845E-06	-7.40524068173598E-06	1.56432465927921E-05	5.37376036950216E-06	0.994992176138994	-0.0790474748078644
3.3	-0.00372539696367858	-0.00214371691362342	-8.79120939488693E-06	2.55244417861428E-06	-8.56774870418393E-06	-1.73375955304867E-06	0.994784469179947	-0.0823107916882524
3.4	-0.00395063076142567	-0.00226034793183716	9.05449326842693E-06	-7.56898347939424E-06	-7.34235504811234E-06	4.24071277496837E-06	0.994740770058971	-0.0842908974022099
3.5	-0.00426630562420639	-0.00235353586185479	3.14346445498786E-07	-5.32161927024161E-06	-4.40573947711536E-06	-8.92559398206956E-06	0.994573953879952	-0.0871386579603203
3.6	-0.00464113079645815	-0.00230142519162377	4.07490146574558E-06	4.89649960022176E-06	-7.10047092767949E-06	8.99649861362255E-06	0.994241447249687	-0.0897001617629885
3.7	-0.00500709438959329	-0.00214257260216055	1.52467264999321E-06	-4.52662071761313E-06	-5.10613522745999E-06	-6.58136169806965E-06	0.99406249122792	-0.0924056906731984
3.8	-0.00530893370017911	-0.00188891002259533	7.2736145688824E-06	-5.1987575100247E-06	-5.87933221432519E-06	-2.41403570016723E-06	0.993683930935344	-0.0944839025965955
3.9	-0.00546238561507832	-0.0015751847857516	-4.02844422926082E-06	-3.47905947066148E-07	-2.52917174333938E-06	1.13392873754364E-06	0.993575549605531	-0.097630465797801
4	-0.00552363209156105	-0.00132698761279585	-3.38344534961099E-06	-8.0279936306326E-08	1.20884442683288E-06	8.66714004556807E-06	0.993252629394819	-0.099138880319719
4.1	-0.00553659325654725	-0.00110878213653769	-2.90219005164448E-06	-3.85804168199301E-06	5.87963778778574E-06	3.03334806785859E-06	0.99299458635253	-0.100974134924616
4.2	-0.00557367482915449	-0.00097091276602073	-7.7452274848508E-07	-2.15582972681843E-06	5.69677249838754E-06	-1.84711738750421E-06	0.992367006500361	-0.103615042322364
4.3	-0.0056444846077593	-0.000835900944704774	-5.08452588148858E-07	3.2339947203739E-06	2.12989710732309E-06	1.77782164539865E-06	0.992121201748455	-0.105572262121787
4.4	-0.0058272743416964	-0.000704000694748391	2.57751825510219E-06	3.43839169957435E-06	7.18127401139732E-06	3.90478563033018E-06	0.991718273327634	-0.10786222399726
4.5	-0.00604488217987213	-0.000480127955364452	-6.46814463594804E-06	-2.25408747291937E-07	-8.57615625125549E-06	-2.10579192700016E-06	0.991579767244021	-0.109905094777916
4.6	-0.00634947527970404	-0.000212157709427394	-9.94352452886587E-06	-9.21390638441856E-06	3.23211607134893E-06	-2.73064971396205E-06	0.991386589155518	-0.112687824345648
4.7	-0.00655620049058259	0.000172357218493493	1.27107923865777E-07	1.86399103508829E-06	6.05333457866555E-06	-6.73367863328755E-06	0.991331478658785	-0.114768055210351
4.8	-0.00668510877557871	0.000613978065644596	-6.3893838468854E-06	2.0821755708404E-06	7.75621416107264E-07	-1.27411713321977E-05	0.990974785301636	-0.117295379121128
4.9	-0.0066158495000388	0.00105180899481883	-3.41840393609712E-06	8.14056232221021E-06	5.69802870188346E-07	9.37087476057215E-06	0.990569147491997	-0.119134329007577
5	-0.00636637229262498	0.00135269545037469	9.63511891554675E-06	-4.06559502927115E-06	-6.92981944131703E-06	3.58010305903477E-06	0.990472169072951	-0.120703914787844
5.1	-0.00600117794927438	0.00152068471751571	-3.68517595389714E-07	-3.25005298411011E-06	-3.87337340176458E-06	-1.7890903718336E-06	0.990506689943455	-0.12214976388354
5.2	-0.00564991605620358	0.00153580187082784	-1.06940687627721E-06	-4.48350810307779E-06	8.78464950522196E-06	5.56850454879091E-06	0.990321149942427	-0.124387332683698
5.3	-0.00538867019940612	0.00147636476274834	2.28885160429291E-06	6.78724534827083E-06	8.79037541201729E-06	3.12647108493341E-06	0.990132683481443	-0.126742886228925
5.4	-0.00524576966736016	0.00142414794897131	2.70294929795525E-06	-3.1409299938061E-06	-2.67274539412644E-06	1.54849073985709E-07	0.990105823908985	-0.129591738947274
5.5	-0.00525261020029586	0.00144667527930378	2.11035110249818E-06	9.3121398560458E-06	-3.92182567010635E-06	-5.02955730922274E-06	0.989883734216626	-0.132464520550285
5.6	-0.00530564513398874	0.00156108688224305	-5.85268948913201E-06	-1.13083099106698E-06	4.87047105429032E-06	1.9410659804302E-06	0.989593324796142	-0.135001630138117
5.7	-0.00544533880671068	0.00176779533415409	3.33464107370579E-06	-1.4232580651277E-06	-5.04663159272274E-06	-4.28880133989954E-06	0.989324392872461	-0.137511156048169
5.8	-0.00556485763708226	0.00203972780800229	-2.05451041350407E-06	-4.74329253739411E-06	9.45797836001905E-07	-5.82109022852602E-07	0.9891218682189	-0.139763922307496
5.9	-0.00569303097631358	0.0023926677061363	-3.8769364388413E-06	6.20301174606693E-07	3.86064657843142E-06	1.24739230584757E-06	0.988800086646128	-0.142084279185886
6	-0.00585667766942276	0.00271995235830332	-5.93058490054424E-06	5.04631991946134E-06	-1.48378208049513E-06	1.96841940486859E-07	0.988243186151986	-0.143846733778873
6.1	-0.00603084165052184	0.00309348004145411	-5.92597679817158E-06	-4.69314188108879E-06	-4.00407444150447E-06	4.33298733191066E-07	0.98796014546782	-0.145080539451476
6.2	-0.0061548290138527	0.00344746116784461	2.81926406070233E-06	3.1237156530346E-06	1.05228444161974E-06	7.22366964814454E-07	0.98761118598999	-0.146397334725173
6.3	-0.00608802878560618	0.00377264688845927	1.64066812371047E-06	-7.47876070053824E-07	-1.33260552155362E-07	1.37501998622653E-06	0.987231206977435	-0.148246066097111
6.4	-0.00596541153332607	0.00391634193995279	-5.18215641403373E-06	-5.61818471575362E-06	3.81415869943442E-06	6.90656677463246E-06	0.986847522034905	-0.150296300764669
6.5	-0.00577853609901366	0.0039578113722215	9.06460684440641E-06	-2.47819379770856E-07	-7.32138230731917E-06	-8.97991288112475E-07	0.986744878749562	-0.152950290851301
6.6	-0.00563211924921147	0.00402151014386928	-1.48795543446001E-06	4.65833798285546E-07	3.37500597553775E-06	-9.37626094032632E-06	0.986647715009477	-0.155685117333771
6.7	-0.00549571331771392	0.00418242694214428	4.45598944221263E-08	7.7482735275777E-06	-4.91426515957687E-07	-6.08362603916609E-06	0.986362805930261	-0.15814086974491
6.8	-0.00536990817078067	0.00441106926820231	4.2451515004087E-06	1.65828350902982E-06	2.16910920093618E-07	-5.23325583920376E-06	0.985977393993636	-0.16050513258712
6.9	-0.00525241659939008	0.00470458891287371	-7.55328227848192E-07	2.47393853326707E-07	5.75913087686099E-06	-2.67657114241083E-06	0.985617030046804	-0.162658052320703
7	-0.00507632535823386	0.00506066581590283	8.02277236256829E-06	-4.75136763612918E-06	4.36498296558274E-07	-3.01937110470412E-06	0.985022866069737	-0.164494750572586
7.1	-0.00491103494548063	0.0053745877967349	3.84464498309758E-06	2.04514773630629E-06	7.69427818571122E-07	7.22925320434587E-06	0.98455640446326	-0.166159565241229
7.2	-0.00475654978097472	0.00569925600107867	-2.4503804056329E-06	3.69020835541034E-06	-1.33044969275115E-06	-3.82796828879367E-06	0.98399770467729	-0.16788232088579
7.3	-0.00466943273758207	0.00600832661750255	3.43996032516671E-06	-4.92100244747631E-07	-2.44898009436655E-06	-1.91893520227522E-06	0.983058793254718	-0.169623574317
7.4	-0.00470309932067383	0.00628766107479174	-6.18732956673728E-06	-2.70173340376267E-06	3.77016307999706E-06	2.48577151069944E-07	0.982205033589676	-0.171836780168766
7.5	-0.004758193534376	0.00659112883160393	6.75677488464534E-06	-6.43057376756069E-06	-2.47825024756605E-06	7.98626531366512E-07	0.981413209370241	-0.174243606664127
7.6	-0.00472395981236559	0.00688248690844939	3.47749761066357E-06	5.20494205619605E-06	-1.02427208710003E-05	4.91506429715586E-06	0.980899099916793	-0.177261664889475
7.7	-0.00472763069345536	0.00710945217546581	6.0118927714185E-06	1.09402302783424E-05	3.45650968243758E-07	-1.13523483162332E-05	0.980471257981466	-0.180495383015955
7.8	-0.00448586069009956	0.00720223637038078	2.15383605882998E-06	9.86012194550566E-07	-3.11493713112204E-06	8.81285338867305E-06	0.980180466423077	-0.183726704792961
7.9	-0.00410377761338647	0.00717592972699205	2.55466385173346E-06	-2.30971988233525E-06	3.68615122615196E-06	3.4710185588274E-07	0.979937974043994	-0.186969423506923
8	-0.00365983864337116	0.00704484930521276	-2.81445418038534E-06	1.32603463728541E-06	6.8793563521848E-06	-1.8505834057518E-06	0.979462637425261	-0.190032283246038
8.1	-0.0032712614153763	0.00690875293062657	-1.79183292023682E-06	7.53846661183672E-07	-3.70694079969649E-06	-1.25694564020514E-06	0.978845317729815	-0.192685474301921
8.2	-0.00301864136462949	0.00675749953943933	-7.98744819262689E-07	6.33220252121975E-06	4.87197024508366E-06	4.35671478162808E-06	0.978446709515621	-0.195068505767144
8.3	-0.00286031486058155	0.00669163801673882	-8.46972760096219E-07	-1.42102785966556E-05	6.82080212716913E-06	5.42913525215036E-06	0.977802323521901	-0.197810890609244
8.4	-0.00278613078071627	0.00678602133407884	3.7601896085608E-06	-3.42577025402227E-06	-6.96819607298042E-06	-1.22159923930334E-06	0.9769963374174	-0.200423720649988
8.5	-0.00267808779221383	0.00697575572439882	4.67137932719942E-06	5.88962413663744E-07	8.41476860148844E-06	-6.824029987986E-06	0.976267135501722	-0.203036252626854
8.6	-0.00252854193538175	0.00725689113168649	-3.27017650314452E-06	4.11310428626174E-06	1.0010253452781E-06	1.10931223437197E-05	0.975784978354372	-0.205592417962039
8.7	-0.00223809695425444	0.00752906363077634	2.68408365005795E-06	-1.99753385168222E-06	4.78835492978051E-07	-5.53463303771783E-07	0.975458105382163	-0.208144485407531
8.8	-0.00183249143086719	0.00777282994379962	1.22491388949505E-07	-1.25304798404532E-06	-9.75666941530283E-07	9.76772892792164E-06	0.975066007926244	-0.210404745843745
8.9	-0.00129586337901581	0.00785570034435851	-3.66514159852673E-06	2.29180035351867E-06	4.83476172961546E-06	-1.80171862639519E-06	0.975107325595357	-0.212428064855282
9	-0.000698410953417748	0.00770643438429139	-1.89087536790744E-06	4.96265511268421E-07	-3.20252455235191E-06	-1.05405744325499E-05	0.975031049918759	-0.214808844357958
9.1	-0.000127282430557196	0.00730519236578284	5.25245618095604E-06	5.93887672647072E-07	9.12860969838496E-07	3.82635661684502E-07	0.974745776143701	-0.217018335068903
9.2	0.000275319654566849	0.00677501021739225	-8.72309945605133E-06	-4.5855694558164E-06	-8.77185196483305E-07	-6.13082782758172E-06	0.974274788451713	-0.219610337803036
9.3	0.000469611751058655	0.00624474985104738	1.83274291529496E-07	6.21949388436436E-06	4.6433910404859E-06	-2.19149364478062E-06	0.973851612348591	-0.222121528884094
9.4	0.000511901400120761	0.00577352005719389	-1.9346325752203E-06	5.88732980258196E-06	-1.05179735437078E-05	7.73892042211959E-06	0.973178034953213	-0.225057289715828
9.5	0.000390390866920415	0.00554068086522758	3.19605713129947E-06	-7.57079422260874E-06	3.68888053683697E-06	-2.74058054475916E-06	0.972402210481263	-0.227845244802954
9.6	0.000212506981817275	0.00542753294609435	4.49935188081531E-06	5.58766279285874E-06	-6.482794711413E-07	7.07971262994537E-06	0.971690464731743	-0.230836007471426
9.7	5.65986689193472E-05	0.00545728388257362	-2.60515191363007E-06	-3.94602238086297E-06	3.70388515158482E-06	-7.53038003451222E-06	0.971042105998274	-0.233366213867904
9.8	-0.000110187930365431	0.00557390102880752	-5.22199766105619E-07	-4.22163953678793E-06	6.28484578734158E-06	8.95832870913648E-07	0.970835200813565	-0.235494084395701
9.9	-0.000227480804749109	0.0058240196665445	-2.69299786717645E-06	-5.97852146617922E-07	-8.52408308211312E-06	5.4903239342498E-06	0.970404450602672	-0.237431163114622
10	-0.000298801998006625	0.00607443471136826	4.30961080362115E-07	-1.75457120038196E-06	-3.08400445972375E-06	-7.98863295286077E-06	0.969994659645796	-0.239120689857753
10.1	-0.000316760096869312	0.00638661585365262	2.24540438588789E-06	4.7811174868733E-06	-3.11572843496774E-06	9.86509999992489E-06	0.969501399826177	-0.24080294561294
10.2	-0.000236427960072218	0.00670770934948574	-5.38077063840256E-07	-1.05123403877513E-06	-1.20963945868609E-06	-3.1238112584789E-06	0.969017336277277	-0.242299583703726
10.3	-5.35142627102799E-05	0.00707030411894478	1.13333027720389E-05	-2.92979948146612E-06	1.00813847722528E-05	-4.8479177669775E-06	0.968385094300772	-0.244153826371432
10.4	0.000295701325415404	0.00736932902823126	-6.30763436421294E-07	2.15254239045408E-06	3.03891248866044E-06	-2.1890535658335E-06	0.967521725599533	-0.246264056233185
10.5	0.000694317409398642	0.00757910050337538	-6.12614306892715E-06	4.65279135698064E-06	1.57394345910648E-06	4.31703319478812E-06	0.966754197908318	-0.248753130885688
10.6	0.00106643880048897	0.00766586003527312	-7.12054173575989E-06	1.07116849308372E-05	7.04343066016942E-06	4.27906452056012E-06	0.965946981047969	-0.251438149583444
10.7	0.00147829238657083	0.00781580918285423	-3.22216846365161E-06	1.57163840692466E-06	-5.38040084482736E-06	3.17946382267061E-06	0.965174416394085	-0.254161470259883
10.8	0.00200899129794185	0.00797644146625737	-1.93069121053901E-06	5.0047683846435E-06	8.51966203545804E-07	-3.21160103031025E-06	0.964565678070023	-0.256110688701623
10.9	0.00245217773225125	0.00809206658779575	-5.7714020825091E-06	-1.05504542095082E-05	4.95067359099214E-06	1.07301808264366E-05	0.964153381244996	-0.258070681144202
11	0.00303213749689801	0.00816347674391095	2.97493700383976E-06	2.61976929949231E-06	7.83199042329891E-07	-1.12638936186837E-05	0.963626867763302	-0.259752591485301
11.1	0.0036505516291254	0.00815214992796607	3.86802937607158E-06	1.45879312031864E-06	2.51529731936548E-07	-7.39141405518148E-06	0.963017651029145	-0.261347445334747
11.2	0.00431760589046095	0.00797260045283012	-4.42762790721621E-06	-1.97270131537866E-06	-7.34326909018083E-06	-4.85661731882083E-06	0.962307729547119	-0.26310511261266
11.3	0.00500253130334114	0.00760031341312937	6.59408754630825E-07	-6.39308369642578E-06	3.78670698073957E-06	1.4168588916367E-05	0.961788104930782	-0.264899110053516
11.4	0.00546396139316125	0.0070986546776721	-5.12084110950033E-06	8.162686454303E-06	-1.45839720908307E-06	4.08596747930572E-06	0.960879089063161	-0.267431445199584
11.5	0.0057358555192685	0.00654462778889452	4.53647761165114E-06	8.10341552985343E-06	-9.30248740160139E-06	1.5897450754853E-06	0.959955918744077	-0.270223175383388
11.6	0.00594163832382929	0.00594444773279151	-3.84695058664423E-06	1.40643350606196E-06	5.09364086119398E-06	8.14578275321456E-06	0.958767375722871	-0.273756466662424
11.7	0.00602094037784118	0.00535240204456656	2.26265588976193E-06	1.0542911120755E-05	5.3800474985814E-07	-3.65544700661072E-06	0.957606583078046	-0.277341241594773
11.8	0.00606349561077295	0.00488896353713218	1.4364098374089E-06	4.46667482810533E-06	2.25882068064068E-06	4.53982438176933E-06	0.95654082296134	-0.280918665014047
11.9	0.00618044963562223	0.00445632343224514	7.46861356157671E-06	1.05735441199197E-05	3.8886464978349E-06	4.00877512526861E-07	0.956058488394638	-0.283523472672588
12	0.00612333136919364	0.00406536391041283	2.34999015105456E-06	-5.16754316609627E-06	-4.02321624278962E-07	1.75471950127185E-06	0.955342492429959	-0.286149772975004
