# GHZ S RI R 50
0.2	-0.000192427156367192	-0.000107194388858058	0.949128558628892	-0.307985673644936	0.948906287451981	-0.307960234053854	-0.000210654218365553	1.56106101936755E-05
0.3	-0.000262373118844166	-4.74262010385316E-05	0.88914683624683	-0.4516458785715	0.888990638066898	-0.451550495510791	-0.00035583467677961	-8.28152789888588E-05
0.4	-0.000114941547764114	-1.1124240955827E-05	0.807686588165202	-0.583904745510635	0.80769838015891	-0.583929862857794	-0.000328098103964628	-6.08438306058779E-05
0.5	-0.000161510214193059	2.01497096854976E-05	0.706990491483546	-0.70225791641123	0.706835462501856	-0.702156437826735	-0.000335073098180379	-2.51507762373374E-05
0.6	-6.65111657216547E-05	9.20285471658171E-05	0.588974274937666	-0.803305720206181	0.58885502930432	-0.803144005318531	-0.000346957099997208	-1.4321447632035E-05
0.7	9.37588745015504E-06	0.000215031795573123	0.456876612424381	-0.884620736371052	0.456857851189527	-0.88450824491967	-0.000293883980214747	-3.42975464086525E-05
0.8	0.000214867101173661	0.000147958961042587	0.313862792369599	-0.944598308994912	0.313831438010111	-0.944408584848257	-0.000315636313645086	1.17784597692424E-05
0.9	0.000253324620550502	0.000129494122232458	0.163323179976441	-0.981585371040672	0.163258149279131	-0.9814934611334	-0.000411275040575028	-6.28255176960615E-05
1	0.000123882007200253	5.26305110585824E-05	0.00882974712741474	-0.994682677215258	0.00877810872438829	-0.994651207357124	-0.00061692938451866	-0.000115976331940474
1.1	0.000140707321130059	0.000244088322373741	-0.145559477225914	-0.98381362660738	-0.145575212355154	-0.983683211924938	-0.000980556450233714	0.000101691463265126
1.2	0.000385281115607874	-0.00022230055111033	-0.296612027668035	-0.949028387056915	-0.296535670306739	-0.94900230479953	-0.000877100499971068	0.000819216605478522
1.3	0.00071741676710772	-0.00130240028606875	-0.4402710596695	-0.891230005682971	-0.440248032458	-0.89122339531529	0.000368372651469976	0.00187979265548115
1.4	0.000979228726789359	-0.00311395014749543	-0.572979413812682	-0.811901161782336	-0.572955243734967	-0.811879537843989	0.00231556919051071	0.00175432775755375
1.5	0.000974821202191114	-0.004330998142168	-0.691987661155391	-0.712898801717504	-0.691885939347551	-0.712813883983405	0.00402687954346995	0.000643083621473621
1.6	0.000545743275587126	-0.00539094523206124	-0.794072545386184	-0.596728621763472	-0.793998506848506	-0.596668619440679	0.00412941108863949	-0.00094574471325555
1.7	-0.000264732510531272	-0.00562028586736854	-0.876562580127447	-0.466642353102071	-0.876726767402436	-0.466126407718918	0.00374686142544448	-0.00206681294526733
1.8	-0.00116590558723242	-0.00555546845194852	-0.938406306337717	-0.324440587327552	-0.938295094505482	-0.324439234850533	0.00292251910533331	-0.00306784822403834
1.9	-0.00206345406091712	-0.00512715442505951	-0.977087442506405	-0.175268497164914	-0.977180247003561	-0.174781142924403	0.00185996093315756	-0.00366295933864769
2	-0.00263458806589166	-0.00437546311813891	-0.992213812502594	-0.0210293789447551	-0.992225739210356	-0.0209835448720429	0.000956034061442462	-0.00382391963672769
2.1	-0.00298318580546843	-0.00412114872622713	-0.983372580095548	0.133293579020674	-0.983410665537552	0.133330665087476	0.000130322485653523	-0.00397736079071269
2.2	-0.00394621756908098	-0.00377924236018279	-0.950676878133862	0.284214950985142	-0.950601804298872	0.284277712942008	-0.00060043411629911	-0.00389373031430955
2.3	-0.00489568869470829	-0.0030065154219576	-0.895101324727971	0.427638845789621	-0.894719199102031	0.42815178181941	-0.00134394618751389	-0.00390887835984309
2.4	-0.0059225007826061	-0.00195026090595961	-0.817013458956903	0.562311622233668	-0.817280053766878	0.561726071572396	-0.00229746511627636	-0.00385301620868603
2.5	-0.00640703215541321	-6.91398266745214E-05	-0.720118694054285	0.682255214624426	-0.720332382623103	0.681745558850739	-0.00300953695218098	-0.00363401604594782
2.6	-0.00587612055026766	0.00138555576264615	-0.605670413045772	0.78530750468402	-0.605564399054023	0.785124815930537	-0.00325348190713371	-0.00327437541605162
2.7	-0.00512849903314751	0.00232472142702255	-0.475894378916593	0.869827688620918	-0.476343388702174	0.869421104891144	-0.00346110307542823	-0.00301989833341056
2.8	-0.0041878840240451	0.00290256218823258	-0.336411549406083	0.932564571306394	-0.335744105247574	0.932723088684157	-0.00374353659511929	-0.00269169500050195
2.9	-0.00283593501443952	0.003256120601477	-0.187022966057631	0.973524807342812	-0.187054236751483	0.97343748502632	-0.00347657191001879	-0.00187061215071863
3	-0.00127392486697899	0.0031446641798755	-0.0326969221116841	0.990665024058295	-0.0333977929706115	0.990506991852449	-0.00276782181011268	-0.00108613670127092
3.1	0.000142225491314237	0.00261603209046402	0.119831524890322	0.983509835017778	0.120421827250993	0.983491682039216	-0.00173185966865722	-0.000666385803625833
3.2	0.00120583458204535	0.00180135759287461	0.271495268506325	0.952853270273335	0.271440463320161	0.95279302349083	-0.000966994908061096	-0.000577782985744717
3.3	0.00225842334131824	0.000820533349032718	0.416255602133038	0.899057524525378	0.416118491752741	0.899043418787361	-4.2988893332337E-05	-0.000679988074670246
3.4	0.00287728160159121	-0.000354802821336205	0.550740084635421	0.823420759939731	0.550578028791238	0.823538756232108	0.000875040631143555	-0.00128629899765095
3.5	0.00367787097349981	-0.00164760175125599	0.671510222181052	0.727934301218074	0.671430720308654	0.727973094061065	0.00163026714646166	-0.00197137449824763
3.6	0.00353782831306955	-0.00347963181454212	0.77586281169004	0.615575492656951	0.776103311875799	0.615126923296196	0.00192834192431003	-0.00302494486603588
3.7	0.00290635162887538	-0.00494007620486834	0.862353032618114	0.487067977015244	0.862234921884346	0.487211111589943	0.0019321574818625	-0.0038895037466691
3.8	0.00181343007181573	-0.00611251957227766	0.927222275156504	0.347795304308206	0.927278673195269	0.347416263577602	0.00167499715839712	-0.00487079977828654
3.9	0.000625236497495571	-0.0069105701613196	0.969961813033184	0.198527997603697	0.969724190774977	0.199195248939548	0.00065813875405318	-0.00605471766439452
4	-0.000564827799053636	-0.00712161612738437	0.989069740662179	0.0466294116621515	0.989030885832618	0.0467322524445893	-0.000291744510292887	-0.0066426862308605
4.1	-0.00173665918620932	-0.00798103741505958	0.984535267684582	-0.107618341557131	0.984350953910934	-0.107491062751683	-0.00136695250770744	-0.00746408362450139
4.2	-0.00389616756665057	-0.0082989593718058	0.95541209147603	-0.25979951874984	0.955447806417041	-0.25914610875553	-0.0027955044291173	-0.00792226931999199
4.3	-0.00606235855430539	-0.00813894649341677	0.903742984480122	-0.404205803538945	0.903607314567736	-0.404094613696533	-0.00429962059729082	-0.0083070028487278
4.4	-0.00854191626777856	-0.00726775310341558	0.830157779042405	-0.539404388950619	0.8299927795904	-0.539270997701756	-0.00606959845390263	-0.00846360949567252
4.5	-0.0105209978283479	-0.00537227377927771	0.736548645747343	-0.662027660027211	0.736360030107807	-0.661854377373086	-0.007880764289318	-0.00808535205158494
4.6	-0.0116427986898104	-0.00349878016883132	0.624053690800009	-0.768694783245932	0.624396157887815	-0.767997478160416	-0.00941738892744891	-0.00768696812555564
4.7	-0.0126314700095419	-0.00178493602699206	0.497592604299956	-0.855828651567792	0.497609360102556	-0.855472977313829	-0.0111187496807416	-0.00722948089957068
4.8	-0.0133839788754269	0.00037579053283819	0.358527028628149	-0.92251477984659	0.358748738930001	-0.922198630906186	-0.012615768053262	-0.00644918351614136
4.9	-0.0134011757698906	0.00252317806649455	0.211401683566154	-0.966557976745069	0.211181714045821	-0.966565588006825	-0.0136955239793153	-0.00537060989946928
5	-0.0126753965825234	0.00463723352798169	0.0583263816155381	-0.987385725369928	0.0585037902526359	-0.987140676195028	-0.0141061482780901	-0.00381293057851162
5.1	-0.011513142349779	0.00614265339133283	-0.0951334412417036	-0.984333597661546	-0.0948017961199112	-0.984108694311079	-0.014111906437105	-0.00241862529068009
5.2	-0.010262271793317	0.00794552996769402	-0.246787433546274	-0.9577479257618	-0.246295718222	-0.957721439909119	-0.0140543499161022	-0.00087648097314453
5.3	-0.00848237144101522	0.00963049510223038	-0.392451668825533	-0.907875877479211	-0.392111248773922	-0.908092240759587	-0.0136129595751696	0.000617665621719013
5.4	-0.0060390378995201	0.0114796459279756	-0.528712259562683	-0.835845850541288	-0.528499738133845	-0.836046686993163	-0.01309796762835	0.00208050848517508
5.5	-0.0023205914124936	0.0122851215174113	-0.651648714683759	-0.743489138636949	-0.65141003019597	-0.743683837795338	-0.0121065792873365	0.00330338521684921
5.6	0.000368061220321872	0.011498925432611	-0.759047977821545	-0.63364138917257	-0.758858378938887	-0.633813197941707	-0.0116335839339616	0.00385141714104801
5.7	0.00230067708662162	0.0109072342372325	-0.848355623071984	-0.508092439435865	-0.848226377428372	-0.508312205762065	-0.0113465665113987	0.00495070688988627
5.8	0.00412152009016915	0.0103981067043804	-0.916773197188864	-0.370050449655069	-0.91670541920395	-0.370335301829454	-0.0109321472765602	0.00610154297434861
5.9	0.0057281705324603	0.00982224023628325	-0.962856791686875	-0.223428609220176	-0.962871253856969	-0.223512184444726	-0.0107085430232172	0.00731556633398089
6	0.00837041344200475	0.00955957090113332	-0.986098478336267	-0.0717439541926668	-0.985979252857359	-0.0718019144230293	-0.0100490748338086	0.00920044443450324
6.1	0.0108510370045067	0.0069323987863361	-0.985376717874156	0.0824960715354257	-0.98525009633554	0.0823476604887297	-0.0087435834352702	0.0102222857898153
6.2	0.0117359987048486	0.00413746658859694	-0.960350267752835	0.234519033796534	-0.960336569095301	0.234316321524027	-0.0075368090418519	0.0109565594951704
6.3	0.0116791170418174	0.00115468526086482	-0.912256901941057	0.380594857934692	-0.91225236695098	0.380409641028153	-0.0061322675117073	0.0110871557731574
6.4	0.0107465825069791	-0.00161984329658984	-0.842303674437781	0.517469734557746	-0.84227196363862	0.517259197025818	-0.00508552577959843	0.0105714997428189
6.5	0.00928084006476681	-0.00406177823391022	-0.751804131292899	0.642384539593179	-0.75182829813723	0.642180486027235	-0.00434184139454066	0.00992596134685037
6.6	0.00742885833066856	-0.00594098594192453	-0.642486612737067	0.751201085057982	-0.642560577287881	0.750949106088015	-0.00382861401215619	0.00939382979918669
6.7	0.00551373706332564	-0.00713188995055802	-0.518049263927892	0.841562352223312	-0.518152109903237	0.841341373595437	-0.00347548985666143	0.00909397179290047
6.8	0.00392158887223798	-0.00793527317366112	-0.381200175995093	0.911764415169101	-0.381341797210394	0.91159383751506	-0.00314508706178185	0.00901117685263459
6.9	0.002262744949234	-0.00861206586150933	-0.234921071991491	0.959980208764439	-0.235147664597915	0.959869970840518	-0.0026483343887428	0.00907974594433582
7	0.000839999887104546	-0.00912601422408868	-0.0826280851415356	0.984377867360942	-0.0828378322692199	0.984288348465768	-0.00188181662839296	0.00894194107283177
7.1	-0.00109100302839425	-0.00934323793849397	0.0707791072187363	0.984938578499449	0.0705772540929401	0.984805624360834	-0.00130685142761143	0.00885144898225007
7.2	-0.00271082691381759	-0.00895552801559361	0.222723922078362	0.962025628644612	0.222442081011253	0.961991272660288	-0.000384109290785426	0.00896892485324579
7.3	-0.0042459149262428	-0.00841394040551241	0.369342598990051	0.915697651440932	0.369106798989078	0.91572402183091	0.000658298131453551	0.0088478274560218
7.4	-0.00543613047662474	-0.00752758234208859	0.506993870674891	0.846893946965994	0.506780771085024	0.846945209021662	0.00158996948195229	0.0084789734077613
7.5	-0.00607861831311775	-0.00674499939685414	0.631552573990175	0.757723837283528	0.631383356862676	0.757793459318366	0.00282908442084703	0.0080400027386768
7.6	-0.00676106784996546	-0.00639009201600922	0.741508697472992	0.650946253919911	0.741251480802397	0.651028576815377	0.00401325840492511	0.00676471413897094
7.7	-0.00773083580826658	-0.00536089151755859	0.833535391995451	0.527877877472414	0.833350127329762	0.52809483026901	0.00455890338013	0.00538323534270582
7.8	-0.00809877363436922	-0.00383131650167598	0.905259347229061	0.391949659571438	0.905156456410953	0.392174826667106	0.00483291618528505	0.00386989248634841
7.9	-0.00814378373136926	-0.00177945644165373	0.954793443892872	0.246943346645899	0.95465550569697	0.247122767579168	0.00443941001418206	0.00263111918468583
8	-0.00606585228617313	0.000607261790109837	0.98173225569972	0.0963194311084522	0.981708986629067	0.0965819732584098	0.00399460721660991	0.00204311295877901
8.1	-0.00389151772433939	0.000516133877805783	0.985108303376343	-0.0576517499398497	0.985137070560459	-0.0573962084242049	0.00341045391157376	0.000855756809069052
8.2	-0.00278916528919919	0.000159131539734722	0.963933677937092	-0.209962905163433	0.963981834968114	-0.209645888051485	0.00199593878661356	0.000209972651337238
8.3	-0.00222329633773099	1.81360307156142E-05	0.919539644561813	-0.356883539656539	0.919590793477732	-0.356596434945665	0.000525335131511334	0.000248397813804499
8.4	-0.00192326874199813	0.000103261142511798	0.853217236891563	-0.495156065257078	0.853314841516875	-0.494953998314643	-0.000910112285914545	0.000697945538821554
8.5	-0.00114517690473172	0.00138600584083742	0.766083086819889	-0.622129221661268	0.766134426728769	-0.62197838476258	-0.00193221002922231	0.0022029528191479
8.6	0.00111135413503737	0.00101736197912527	0.659424183140692	-0.733274790108657	0.659592653356821	-0.73303762264361	-0.00169393265491208	0.00340961212668837
8.7	0.00214425364144276	7.02667359471742E-05	0.537527292494962	-0.826338303519133	0.537786409238805	-0.826122789120954	-0.00126857822774285	0.00456427380404273
8.8	0.0030058846518051	-0.000839089436927348	0.402941397970268	-0.899611404507663	0.403126630360993	-0.8994722479894	-0.000326109065990582	0.00542427146995846
8.9	0.00349090525821713	-0.00175321243007939	0.258355995974327	-0.951446650446926	0.258535091136571	-0.951276505030677	0.00116146836479618	0.00593973091893796
9	0.00435220608607585	-0.0024211149899101	0.106924408972364	-0.979335327049454	0.107232619810063	-0.979288864426514	0.00303866074498469	0.00610097802634147
9.1	0.00540025979599464	-0.00350379515604288	-0.0456765126933782	-0.98367723738803	-0.0453675729363606	-0.983636190081175	0.0052658054475336	0.00551901786098859
9.2	0.00655199373899309	-0.00452631832071107	-0.197746521304979	-0.964757001810762	-0.197399096641026	-0.964734572868714	0.00760037377646338	0.00434312649203223
9.3	0.00792942823666912	-0.00582272217528145	-0.345171191979296	-0.922311877847785	-0.344819395717003	-0.922286240658217	0.00990451763398237	0.00227999833134227
9.4	0.00907951126842908	-0.0076602609229671	-0.484108096261952	-0.857149629245674	-0.483785106326574	-0.857240421299884	0.0112561883253124	-0.000753984565613666
9.5	0.0102341690485039	-0.00994138336845737	-0.610273640554578	-0.771359372634469	-0.610036954704296	-0.771409437263525	0.0115863312957038	-0.00401107386811994
9.6	0.00914592051091598	-0.0133225375303411	-0.722627588896349	-0.667815573811973	-0.722316038706304	-0.6679538449307	0.0100692478562198	-0.00741481827222821
9.7	0.00705327310694645	-0.0144937040263937	-0.817516675960793	-0.54749446102717	-0.817229074767618	-0.547727009915206	0.00749903845498532	-0.00977900469206564
9.8	0.00523179788710241	-0.0148904088647255	-0.892346918723913	-0.413942015614477	-0.892093607439041	-0.414110617745305	0.00433036533842704	-0.0114035055003316
9.9	0.0033950426762299	-0.0140532569637529	-0.94535562172001	-0.270697596671772	-0.945103206762038	-0.270905882299553	0.000512800757026629	-0.0119669230417711
10	0.00359879647146317	-0.0125404877242857	-0.976318497851949	-0.121409568229743	-0.976164144445899	-0.121771546883551	-0.00277022092160478	-0.0108978973275493
10.1	0.00356049643445806	-0.0133386624199603	-0.983491066834376	0.0321258956641707	-0.983426961336773	0.0316943720089329	-0.00590996217659773	-0.00995491929258388
10.2	0.00244405755510344	-0.0134822697244883	-0.966379654886026	0.184417767487114	-0.966257281278855	0.1839866943816	-0.00895923092369151	-0.00779286697433797
10.3	0.00129214456152381	-0.0129972516161046	-0.925938247599742	0.332001236728639	-0.925954990022155	0.33145973584152	-0.0113189239313364	-0.00516627165187946
10.4	0.000219282810114393	-0.0123348495172624	-0.863475573346889	0.471391286664489	-0.86361157453787	0.470879658100749	-0.0131154429558236	-0.00235254508250849
10.5	9.99397459493223E-05	-0.0106924497290937	-0.779932731740006	0.600468268427136	-0.780105657179137	0.600035800079342	-0.013803983489611	0.00105198574137835
10.6	0.00118772193269126	-0.0105988383395282	-0.67649216860797	0.71385959291788	-0.676764691449481	0.713529663003776	-0.0132020936209488	0.00395018409309276
10.7	0.00172116878498983	-0.0112476897356524	-0.55752367859858	0.80977447898891	-0.557824229132122	0.809465253282123	-0.0119500315399817	0.00645247755051909
10.8	0.00151772630784758	-0.0124939496005563	-0.425230390000115	0.886288337809971	-0.425581065966672	0.885990281941949	-0.0104135990613633	0.00849390882080286
10.9	0.000593407869937188	-0.0131507049548021	-0.282501072541624	0.941711019726473	-0.282891265946899	0.941588279636417	-0.00872288186681757	0.0104398144819962
11	-2.37089976886555E-05	-0.0137753554722145	-0.132306911776231	0.973464690615724	-0.132743572869771	0.973374617006962	-0.00619315081521833	0.0120075643094052
11.1	-0.00108876515483448	-0.0142893520893454	0.0195936813339482	0.981639419857349	0.0191056838351484	0.981653013755235	-0.0034047939092012	0.0129023270225435
11.2	-0.00214487189682371	-0.0146335591487501	0.17140472842095	0.966915668154104	0.170948239316635	0.966988671838001	-0.000131561307408952	0.0131197582347662
11.3	-0.00324472049646443	-0.0146749348615866	0.319339601809561	0.928677953679814	0.318881165701012	0.928814476098285	0.00330094496921548	0.0124904878236192
11.4	-0.00443869126739067	-0.0143382424992843	0.459630770449466	0.867505973219214	0.459227646900958	0.86761915765105	0.00633893472814535	0.0113460715425912
11.5	-0.00438802433219202	-0.013988959475751	0.587541909810299	0.78547650843092	0.587223997513592	0.785777975424593	0.00954843432338624	0.00953790933382061
11.6	-0.00585030510998396	-0.0151608430700776	0.702351403351248	0.685605499399464	0.702136221892323	0.685932500524535	0.0114105801658102	0.00653318413791013
11.7	-0.00801096128146144	-0.0146610383858821	0.800415502999622	0.568283765515748	0.80021246352555	0.568589680497362	0.0124843036126191	0.00368291761471706
11.8	-0.010127469200905	-0.0135419856968151	0.878817663920774	0.436941410239499	0.878635996355155	0.437391315074254	0.0126695136558642	0.00054801739782987
11.9	-0.011858248717971	-0.0109760875584687	0.935472315646703	0.29556328445939	0.935366372318291	0.296012128233365	0.0116463503550397	-0.00207591375027113
12	-0.0114354959324613	-0.00781077979079229	0.970602311392151	0.147801239529271	0.970573029366149	0.148165145799623	0.0109003539062573	-0.00383634477500956
12.1	-0.0106054429132076	-0.00736868415024596	0.982034295805664	-0.00525759536836688	0.981963109430511	-0.00487333946385992	0.00957626828645858	-0.00669336554049341
12.2	-0.0111596673315524	-0.00691508731055316	0.969012340453733	-0.157634710109363	0.969029620253488	-0.15733700682388	0.00700764277541715	-0.00868548621100307
12.3	-0.0119583624187407	-0.00594057612159163	0.93259456717413	-0.305769374965457	0.932713669347653	-0.305462980428863	0.00410117316309686	-0.00993198808151654
12.4	-0.0132471421875849	-0.00450014577566689	0.874532968707237	-0.446515751757818	0.874595553264471	-0.446146303306674	0.000805452137800165	-0.0103082074465417
12.5	-0.0132162818856342	-0.00142302901884325	0.794705646469214	-0.57781028857332	0.795045868769326	-0.577419584547038	-0.0021379328276844	-0.00914014042664882
12.6	-0.0117912129866411	-0.000319317622809764	0.694682498243238	-0.693629152657432	0.69493377349368	-0.693386610159458	-0.00399666503951474	-0.00819814696874922
