# GHZ S RI R 50
0.2	-0.000172149054616906	-2.77972543389678E-05	0.948844844210583	-0.30810229769521	0.94862263018802	-0.308076819851081	-0.000144033014453016	4.29779603708614E-05
0.3	-0.000214901001260472	2.12335125058946E-05	0.888750865674018	-0.451720045509234	0.888594741002912	-0.451624654558827	-0.000249761127093755	-0.000127160513426313
0.4	-4.81806279069482E-05	9.48660399106135E-06	0.807193458551649	-0.583858008785441	0.807205239165794	-0.583883118343411	-0.000221004160738464	-0.000212437641285461
0.5	-0.000227444345440093	-3.90820352896487E-05	0.706540708899852	-0.702045873297	0.706385769768797	-0.701944416522679	-0.000372990638110212	-0.000265799283039784
0.6	-0.000222737735068953	0.000180663764000249	0.58853245183853	-0.803056799651406	0.588413295459825	-0.802895134739008	-0.000422505816088329	-0.000163981712332872
0.7	-0.000133799794689311	0.000394859304075747	0.456438248364292	-0.884238224604642	0.456419521490551	-0.884125790257417	-0.000363565967216015	-0.000210363761783732
0.8	0.000122107504395892	0.000419037652937926	0.313506311748754	-0.944079772268824	0.313475009734365	-0.943890157845946	-0.00041345145480228	-0.000190349175104754
0.9	0.000341958521447305	0.000414524624346614	0.163116874233719	-0.980987365255512	0.163051894014892	-0.980895506085044	-0.000516858471059308	-0.000329374510249202
1	0.000246851721880594	2.5149224355046E-05	0.0086871855104018	-0.994112828964064	0.00863558108643884	-0.994081370042023	-0.000962151660376195	-0.000511970597792679
1.1	0.000127408411110096	0.000196084908571681	-0.145618551947788	-0.983099870736647	-0.145634254697307	-0.982969544935276	-0.00139753262163134	3.04323599479703E-05
1.2	0.000426556513545824	-0.000383067484196373	-0.296473863370156	-0.948281454732207	-0.296397561552512	-0.948255399241523	-0.00101203151182053	0.000827460272782963
1.3	0.000874976195732883	-0.00159119522664167	-0.439965877478275	-0.890520915141644	-0.439942867868545	-0.89051431083533	0.000698451564933609	0.00178520204513324
1.4	0.0012724643841405	-0.00360081262531626	-0.572566258943918	-0.811250828682051	-0.572542106783953	-0.811229222393858	0.00307874437288447	0.00122573587799164
1.5	0.00106256544189951	-0.00469116694272787	-0.691409066745097	-0.712196368293206	-0.691307431486333	-0.712111535657587	0.00484021778156649	-0.000124100073135077
1.6	0.000723007079077537	-0.00555239581292406	-0.793228789089595	-0.596230142230308	-0.793154829712992	-0.596170190649129	0.0049004326470441	-0.00216425910228907
1.7	-0.000131239714343055	-0.00566545988908803	-0.875649285056283	-0.466360648412301	-0.875813410948672	-0.465845220497366	0.00400033517755984	-0.00342262862806827
1.8	-0.00103466681023569	-0.00552871362073885	-0.9374461158327	-0.32432764147837	-0.937335010067812	-0.324326267087554	0.00275857878641634	-0.00429370067928069
1.9	-0.0020476311786745	-0.00517769913632763	-0.976037018164131	-0.175314645398389	-0.976129840119922	-0.174827816334746	0.00129819157829028	-0.00465441058408014
2	-0.00299203647869099	-0.00412406176348683	-0.991073946984645	-0.0214600152835217	-0.991085881113014	-0.0214142388828044	0.000236791768038537	-0.00411985402619036
2.1	-0.00309900269638791	-0.00355523538363874	-0.982476425449091	0.132593787559591	-0.982514494627851	0.132630814935337	-0.000108961198610537	-0.00419458116596633
2.2	-0.00390395222535749	-0.00317249679549108	-0.949929770359143	0.283356337029488	-0.949854807795096	0.283419084206411	-0.000892819565192584	-0.00423008533417195
2.3	-0.00469104298186389	-0.00243811919532481	-0.894527001011612	0.426599757009129	-0.894145604335778	0.427112459265379	-0.00177056497637518	-0.00418144490176518
2.4	-0.00563362031739978	-0.00162427313354693	-0.816697467242408	0.561071280450341	-0.816963305626571	0.560486072147375	-0.00289584145946129	-0.00396056607785563
2.5	-0.00644866448739915	0.000193997501218409	-0.720262573541057	0.681026256944385	-0.720475593346905	0.680516768265276	-0.00367521533100185	-0.00306899236635034
2.6	-0.00577579567094655	0.00186977396934386	-0.605946127103911	0.784222698360982	-0.605840024691728	0.784040230988169	-0.00298582955882112	-0.00239538923239415
2.7	-0.00480623086774523	0.00268111876517933	-0.476391763547895	0.868747062109353	-0.476840060518162	0.868340336750814	-0.00251814008173462	-0.00263318458804614
2.8	-0.00381024935045551	0.00298038731613181	-0.33719186993907	0.931587459974478	-0.33652503670845	0.931746590128903	-0.00261008678210796	-0.00302037517798374
2.9	-0.00262234358204153	0.00310433853648071	-0.18807234224053	0.972819753826783	-0.188103494856713	0.972732438360629	-0.00255831558876378	-0.00276032581197026
3	-0.00125732338185961	0.0029875571505022	-0.0336869334929097	0.990279623839392	-0.0343873953054241	0.99012093920305	-0.00208678943888748	-0.00230277872570566
3.1	7.75120293476023E-06	0.00244972516066228	0.118714298589064	0.983169174470712	0.119304338527591	0.983151666364738	-0.00148967354620658	-0.00220759100416322
3.2	0.000887096745453373	0.00173191416269879	0.270265459643532	0.952809942702492	0.270210746596781	0.952749654177661	-0.00123492089142418	-0.00206022968819903
3.3	0.00181770056311558	0.000843014353841649	0.41507157390782	0.899324753493204	0.414934515706679	0.899310487151187	-0.000638146725184189	-0.0019623252918387
3.4	0.00221985749678071	-0.000222702196309397	0.549741001010005	0.823893128260799	0.54957884159956	0.824010926346041	3.14422950491537E-05	-0.00224761621059422
3.5	0.00291865419677831	-0.00110153590881576	0.670477125932541	0.72839381862601	0.670397611230204	0.728432511291754	0.000983099836603229	-0.0025069020185671
3.6	0.00289857971098973	-0.00278681180594612	0.774830089871707	0.61646301704368	0.77507113317394	0.616014888956736	0.00134982515520153	-0.00379348532058903
3.7	0.00229140048309668	-0.00408407355546483	0.861598649484999	0.488192193571286	0.861480356064467	0.488335152139615	0.00105990255339749	-0.00456786290921394
3.8	0.00126699560128946	-0.00512481454089933	0.92671609440589	0.349037492126425	0.926773003504142	0.348658542178531	0.000598626882331211	-0.00525159034852345
3.9	4.79262097694804E-05	-0.00586032556613219	0.969616456420605	0.199861189299477	0.969377924286973	0.200528062682462	-0.000574309166970971	-0.00594894213532577
4	-0.00121312767463861	-0.00562487608817257	0.989021261300336	0.0483492861907759	0.988982226523758	0.0484520628531651	-0.00110516799436786	-0.00561278564880689
4.1	-0.00191624459278459	-0.00627187829648746	0.985149787002328	-0.106017613377346	0.98496517883671	-0.105890586978021	-0.00117513833033004	-0.00654544907613968
4.2	-0.00371575135622615	-0.006655485397392	0.956345569994713	-0.258451409610262	0.956380284524239	-0.257797582847555	-0.00221417922664911	-0.00741946097217954
4.3	-0.00561070681795533	-0.00676135514898617	0.904934929414329	-0.403072857893291	0.904799002972446	-0.402961806214084	-0.00357530779220639	-0.00825265864352894
4.4	-0.00811132396382472	-0.00634466085282212	0.831657288880424	-0.538459824184435	0.831491948838069	-0.538326601029162	-0.00561572344683593	-0.00878810770065389
4.5	-0.0105837007334479	-0.00451452776746075	0.738466262155192	-0.661685230533515	0.738277149630952	-0.661512031030023	-0.00776512551209188	-0.00797992029591287
4.6	-0.0117130384672589	-0.0024109701331518	0.625695354439882	-0.76888094107843	0.626037414430104	-0.768182405231288	-0.00863950807839312	-0.00744341911451121
4.7	-0.0126313188838373	-0.000646705032419365	0.499132578311501	-0.856242619418887	0.499148949718526	-0.855886519471357	-0.00995811150465717	-0.00740399860590792
4.8	-0.0133145623405139	0.00146728922575149	0.360021456606643	-0.92322825399835	0.360243074763062	-0.92291146556918	-0.0113440585206901	-0.00717278797774925
4.9	-0.0133431250315692	0.00351466452612356	0.212773032910153	-0.967730744941848	0.212552751912278	-0.967738609403447	-0.0126102346892436	-0.00662299579392519
5	-0.0126391174373563	0.00568542478118191	0.059070238301075	-0.988841296570645	0.0592477527205657	-0.988595758747434	-0.0132256965874994	-0.00539799505343026
5.1	-0.0114021551484448	0.00714557854144946	-0.0945305484876319	-0.985666028731985	-0.0941986436729944	-0.985440592714527	-0.0137425515445966	-0.00453737783461799
5.2	-0.0101386313388767	0.00890139832088411	-0.24639630115795	-0.959301327179034	-0.245903907010202	-0.959274422637452	-0.0145349060753558	-0.00296204791066519
5.3	-0.00840650975583367	0.0105280254172297	-0.392466296780716	-0.909556512553201	-0.392125200836471	-0.909772989664589	-0.0147273798627103	-0.000899678557449745
5.4	-0.00618836549724593	0.0124072969606768	-0.529231988530198	-0.837401536089709	-0.529019045219042	-0.837602611609392	-0.0143638537803425	0.00151560774041393
5.5	-0.00235882482367684	0.0136763729719538	-0.652178834193507	-0.744672606853656	-0.651939775390081	-0.744867458004317	-0.0122343166887415	0.00343877022163982
5.6	0.00051269883557294	0.0126795719414152	-0.759786850610902	-0.635086246218933	-0.759596854995763	-0.635258192522439	-0.0114620735924693	0.00294488294107057
5.7	0.00235513501944559	0.012076800065948	-0.849567238979986	-0.509380836313403	-0.84943766371366	-0.509600917633331	-0.011801848367705	0.00387519795850686
5.8	0.00410118109436973	0.0115763996158044	-0.91830468011554	-0.370981098984411	-0.918236697454771	-0.371266440802592	-0.0119072841058954	0.00540690357585692
5.9	0.00541557517114438	0.0110477160023526	-0.964435623262846	-0.223960492102872	-0.964450096127883	-0.224044209857699	-0.012037848732207	0.0075773168971113
6	0.0080122742307321	0.0116253628719603	-0.987866774206672	-0.0723212535129944	-0.98774730486107	-0.0723792655894564	-0.0101441258618742	0.0111436412919979
6.1	0.0113468537282435	0.00902152907441872	-0.987569601605573	0.0826346171542207	-0.987442692124691	0.0824858821934812	-0.0067394932473145	0.0112860224359373
6.2	0.0125945887071472	0.00571933110708664	-0.962323509068002	0.235302069696867	-0.962309841358639	0.235098922283783	-0.00504203635628874	0.010433534669969
6.3	0.0123974337835425	0.00212086182464872	-0.913891410358826	0.381756681645308	-0.913886949439153	0.381571096321542	-0.00423130523748578	0.00916486541540599
6.4	0.0109282979426831	-0.000927001145903487	-0.843721165017698	0.518782042089643	-0.843689473548753	0.518571089069023	-0.004471864676638	0.00813393269317072
6.5	0.00903873339445693	-0.0030973643811628	-0.753148230080663	0.644327906318349	-0.753172577425559	0.644123396207257	-0.00469896486391343	0.00790071762596275
6.6	0.00710806816144928	-0.00466503435291226	-0.642957802120527	0.753363980625724	-0.643032179642942	0.753111583020963	-0.00478084959366517	0.00797025362541041
6.7	0.00535255486911759	-0.00560499248316962	-0.518111322159948	0.843575902817704	-0.518214574166257	0.843354637874575	-0.00443996617261668	0.00851401583383766
6.8	0.00398202295826158	-0.00641349505694924	-0.380994444407923	0.913763184899711	-0.381136484348171	0.913592440361835	-0.00362638601118882	0.00888854482061048
6.9	0.002379735813808	-0.00718726556645378	-0.234345188816715	0.962171216373207	-0.234572358458052	0.96206100401462	-0.00257345637653324	0.00900979541835575
7	0.00102293813236679	-0.00777286385488084	-0.0810757060484606	0.986349641885827	-0.081285997936046	0.986260320198638	-0.00127898298866348	0.00848178650747527
7.1	-0.00103184852470572	-0.0081142974787127	0.0724327082729259	0.986234728456973	0.0722303570922054	0.986101902472	-0.000839153431050606	0.00787195594033057
7.2	-0.00276843722640173	-0.00769820598265127	0.224550639655587	0.96310680193086	0.224268326931406	0.96307283331194	-9.28712180775647E-05	0.00780599110057539
7.3	-0.00436894447889884	-0.00709664499626848	0.371486870650886	0.916439247285694	0.371250760556558	0.916466066117971	0.000813066629681167	0.00753223104039999
7.4	-0.00563024233488709	-0.00615244769473049	0.509463457361714	0.846977118685717	0.509250176313249	0.847028898551302	0.00158281143508183	0.00703990046776232
7.5	-0.00616867150810198	-0.0052240933556534	0.6334743053449	0.756986100002156	0.63330511190407	0.757056103165097	0.00290453060288921	0.00644691987359064
7.6	-0.00680457360007602	-0.00508998744211929	0.743251341223754	0.650344071571504	0.742994020396954	0.650426888256526	0.00361769555795818	0.00446939793220332
7.7	-0.0079924536958902	-0.00403318646560181	0.835357070149052	0.526901187271278	0.835172010381524	0.527118701535854	0.00311734127139147	0.00311594129706873
7.8	-0.0085735874856363	-0.00243042673253198	0.906904109470009	0.390458103738226	0.906801584631895	0.390683691008153	0.00250275865130526	0.00231765951562783
7.9	-0.00912924772765067	-0.00024496457641595	0.955870552216727	0.245039317909431	0.955732919281133	0.245219137369142	0.00156995404516188	0.00263500221202552
8	-0.00714244768294589	0.00326568874634966	0.982551317450347	0.094707292809191	0.982528481166808	0.0949700497476506	0.00224121121144959	0.00421087830547597
8.1	-0.00423206868400251	0.00353617700050335	0.985862984945818	-0.0598962359671229	0.985892346738629	-0.059640529428197	0.00404820384340857	0.00277984293363134
8.2	-0.00254369628730676	0.00321980241175849	0.963898259923279	-0.212485419360376	0.963947235916248	-0.212168361533069	0.00364871365517873	0.00116648315568162
8.3	-0.00137525679367896	0.00278652763007244	0.918755726506634	-0.359196109269749	0.918807590994964	-0.358909100233066	0.00267084333899282	7.3232674498014E-05
8.4	-0.000873093225285871	0.00208639632470924	0.8521097995622	-0.496936729282018	0.852207827176935	-0.496734882836061	0.000864750440303885	-0.000653662079415703
8.5	-0.000623960087286525	0.00318924473154093	0.764938386526303	-0.62412053632153	0.764990092071396	-0.62396976132814	-0.000665879532668244	0.00111085102484453
8.6	0.00170957662891533	0.00266932074857164	0.657370186675014	-0.734883725943723	0.657539252662452	-0.734647045767137	0.000320934946591797	0.00139418527519102
8.7	0.00256860496914392	0.00160033860394748	0.535289413684169	-0.827234374249484	0.535548924053044	-0.827019583932918	0.000100061059466641	0.00126380188110901
8.8	0.00341418968054003	0.000608224636178907	0.400771457950447	-0.900026440954221	0.40095689835853	-0.899887760203675	-0.000190569866718979	0.00133540992672603
8.9	0.00379158601599933	-0.000640318861176964	0.2562210196143	-0.951737680727498	0.25640043290183	-0.951567971526809	-0.000404297718084219	0.00164537515612546
9	0.00412006021215877	-0.00133462694438785	0.104163475036101	-0.979032392404099	0.104471625801759	-0.978986806492841	-9.86297604311204E-05	0.00290297966880656
9.1	0.0047893181057685	-0.00204389433199452	-0.0478457145140872	-0.982523650615717	-0.0475370121602339	-0.982483343748468	0.00139233624668103	0.00378294461072248
9.2	0.00600033500574026	-0.00235198156964151	-0.199587199631461	-0.96347106668752	-0.199240042048516	-0.963449385239117	0.00391113724724224	0.00460265105765213
9.3	0.00800912156392385	-0.00331255643279457	-0.346950139956253	-0.92078455613483	-0.346598574618749	-0.920759726397756	0.00772706097841366	0.00391800641876829
9.4	0.00943574798985857	-0.00541434887055566	-0.485887425407009	-0.854967741923997	-0.485565013657593	-0.855059299912382	0.0107674641989992	0.00124143395561588
9.5	0.0109371359189057	-0.0075879689881165	-0.610930604482897	-0.768433588151343	-0.610694491544122	-0.768484117499711	0.0134417745310341	-0.00267319791336049
9.6	0.00977590884600445	-0.0114965767220709	-0.722713495024372	-0.665344383041852	-0.722402719161638	-0.665483020107276	0.011986948889011	-0.00859253733111219
9.7	0.00754467695301796	-0.0126405477498888	-0.817281386942795	-0.544920073713518	-0.816994736045194	-0.54515282460159	0.00834571935414446	-0.0117288100771662
9.8	0.00576849436027294	-0.0131991115120066	-0.891490662658628	-0.411244416592914	-0.89123820117134	-0.41141322841785	0.00429057545322527	-0.0134807945597418
9.9	0.00351985749239459	-0.0127063080280139	-0.943496403883358	-0.26821566347844	-0.943245020075626	-0.268423907063888	-0.0005076656181425	-0.0134292453292678
10	0.00352924405130193	-0.0105749379036639	-0.974161422030517	-0.120103208566233	-0.974007808819216	-0.120464501976189	-0.00287023082640592	-0.0107929486228436
10.1	0.00372433395204818	-0.011727371277109	-0.981350131317707	0.0334125584815403	-0.981286757091263	0.0329818664307867	-0.00504801605047249	-0.0112427771978823
10.2	0.00236703628681129	-0.0120897443901864	-0.963713942671577	0.185167515957378	-0.963592418947119	0.184737374789511	-0.00892487928454119	-0.00991700215848124
10.3	0.000862656224905161	-0.0118184512520526	-0.923143013052449	0.331835670869935	-0.923160143378338	0.331295662605432	-0.012447164704632	-0.00736082057103051
10.4	-0.00095354181173588	-0.0112098611701401	-0.861251189147763	0.470296206429179	-0.861386902449914	0.469785880729701	-0.0156007021643655	-0.00366129350472301
10.5	-0.00179855338891031	-0.00855220293177679	-0.778479491903992	0.599766120266988	-0.778652284689188	0.599334404202416	-0.0163780134539061	0.00221772447226213
10.6	-0.000168371389838293	-0.00745554609065215	-0.674563951250193	0.712916575871351	-0.674836168712007	0.712587528600107	-0.0137431861399115	0.00630062239142818
10.7	0.00131377581591082	-0.00789519687388309	-0.55583615288646	0.808240840191969	-0.556136188287075	0.80793247184633	-0.0105022407481164	0.00836051476483017
10.8	0.00163201350112985	-0.00959966750655298	-0.424051608034817	0.884431904094613	-0.42440158372388	0.884134603009984	-0.00800323530027094	0.00900211864551981
10.9	0.000685345886581818	-0.0105934066156738	-0.281735891449787	0.940040894450149	-0.282125394261809	0.939918481952658	-0.00624945641929727	0.00982705142423593
11	0.00010951363217263	-0.0112369492924149	-0.131118916432166	0.97133378488443	-0.131554649507669	0.971244315213065	-0.00363304395153985	0.0105225886877394
11.1	-0.000956786295497165	-0.0118383247557713	0.0197004720239806	0.978903742229576	0.0192138351358103	0.978917378504737	-0.0013760747127167	0.01039756829338
11.2	-0.00192487165825508	-0.0122134089338277	0.170811701544502	0.964488567249439	0.170356359597556	0.964561311075308	0.00119534628613956	0.0101142039176451
11.3	-0.00298974441248537	-0.0124488209611144	0.318425926209998	0.926543974538359	0.317968547193835	0.926680095712538	0.00386759068132374	0.00924978912790213
11.4	-0.00449278546799383	-0.0122137228028688	0.458586028835638	0.86527127479639	0.458183931152168	0.86538422569968	0.00610058285321073	0.00843830091804917
11.5	-0.00424005549460828	-0.0115403534011321	0.585173467666007	0.783179542324632	0.584856451241872	0.783479839258814	0.00998131415353101	0.0069330241896626
11.6	-0.00581150633603547	-0.0130922925285596	0.699718093453477	0.68459096038528	0.69950310952428	0.684916853498066	0.0110967344580779	0.00259068685265668
11.7	-0.00823513412737663	-0.0125918499378946	0.79789682515351	0.567711877632433	0.797693969850225	0.56801684428879	0.0105720177743896	-0.000157249382547237
11.8	-0.010671188157475	-0.0115336743527917	0.876157132267291	0.436674221941642	0.875975494349569	0.437122805240865	0.00929764260500879	-0.00236449969645053
11.9	-0.0133738980764048	-0.00879210668193876	0.932258799522748	0.29587614136368	0.932152597522713	0.296323489703066	0.00689904716878543	-0.0026959949586748
12	-0.0130406757249156	-0.00401029304142384	0.967857310599229	0.149699278351074	0.96782725238416	0.150062216379212	0.00794795586230947	-0.000859940395520041
12.1	-0.0114505820652793	-0.0029264089003032	0.9800594239813	-0.00331395550567719	0.979987625161924	-0.002930616512805	0.00929898317614821	-0.00360752655358826
12.2	-0.0110596807837534	-0.00204883318224283	0.967284489882306	-0.155227349887034	0.967301096460633	-0.154930244023307	0.00848432604703212	-0.00599538793687291
12.3	-0.0106422929167517	-0.00135978082672328	0.931505350564919	-0.302757743229877	0.931623425807413	-0.302451658623657	0.00713793803476954	-0.00830913436192461
12.4	-0.011276500302643	-0.00108800052345706	0.874692660559627	-0.443098507599965	0.874753982700684	-0.44272939167999	0.00437381474809866	-0.0103106593424345
12.5	-0.0115417795092151	0.00128447556278806	0.795997198156917	-0.575615832848134	0.796336327543489	-0.575224349018199	0.00163415494288418	-0.00978027109226845
12.6	-0.010158362726677	0.00159549424176832	0.695612947347059	-0.69168701718774	0.695863537898675	-0.691444130995742	0.000361655005190001	-0.0108908813360894
