# GHZ S RI R 50
0.2	-0.000321849958321639	3.42075339030869E-05	0.948520366753804	-0.308144683562167	0.948298222147899	-0.308119181964096	-0.000289701577855851	0.000100328949977862
0.3	-0.000312680963474491	0.000135991684506573	0.888370887413279	-0.451722474770217	0.888214832298854	-0.451627088824608	-0.000342473775745535	-2.22343484080725E-05
0.4	-4.53979288948669E-05	0.00014780006234396	0.80673432222625	-0.583793462770778	0.806746092534105	-0.583818564561857	-0.000214664226312842	-8.90081112929538E-05
0.5	-0.000133598502200837	-5.35032423628008E-05	0.706034567453434	-0.701768424040122	0.705879730892314	-0.701666998877952	-0.000276669753246744	-0.000295915751562157
0.6	-0.000275846922448141	0.000167834187439055	0.588180462915331	-0.802697900351922	0.588061377744127	-0.802536307640802	-0.000468550310970337	-0.000197477630528752
0.7	-0.00014282152626484	0.000458609506803289	0.456104811519954	-0.883839831213394	0.456086107029888	-0.883727452008663	-0.000366266972642263	-0.000177316454947626
0.8	0.000171188024903319	0.000499718380241989	0.313213345596386	-0.943571569100612	0.313182084148985	-0.943382060500189	-0.000364724181642225	-0.000150489797180994
0.9	0.000499661381639595	0.000550753615147691	0.162955524006536	-0.980343877678922	0.162890591968153	-0.980252076086561	-0.000375791663999074	-0.000240791854403635
1	0.000676785676260849	-0.000110149912353131	0.00877916402269099	-0.993533176972132	0.00872758659639992	-0.993501741414382	-0.000572036917758659	-0.000679517158681094
1.1	8.54234080544641E-05	-0.000118636927336887	-0.145592842147468	-0.98257990989178	-0.1456085300434	-0.982449651243496	-0.00147088356710522	-0.000285531984134728
1.2	0.000180307407670718	-0.000373938761427271	-0.296346484827751	-0.947657685951187	-0.29627022994939	-0.94763165203663	-0.0012745877482726	0.000849094387017553
1.3	0.000459652898642746	-0.0012668990233904	-0.439656435333583	-0.88990162649446	-0.439633441774856	-0.889895026725603	0.000294699395217882	0.00212495880940861
1.4	0.000780597752047927	-0.00293616655797379	-0.572109535640972	-0.81076744019816	-0.572085401537106	-0.81074584594632	0.00262548663679351	0.00188696110722352
1.5	0.000363450212026074	-0.00389809087107038	-0.691070384680571	-0.711772686284658	-0.690968800234535	-0.711687905143491	0.00420933239070248	0.000629329473401964
1.6	0.000429614193162645	-0.00426536062087531	-0.792640495179986	-0.595636400472427	-0.792566590108555	-0.595576507905883	0.0046621154572633	-0.000975641228786232
1.7	9.90134847423434E-05	-0.00467690424050893	-0.87480790455182	-0.465961648712185	-0.874971899065676	-0.465446711253505	0.00424101118679282	-0.00255241798674545
1.8	-0.000589482151154985	-0.00490745466766972	-0.936520803924455	-0.324165532588715	-0.936409802234173	-0.324164142780572	0.00317542457958821	-0.00378520357446921
1.9	-0.00144294158986163	-0.00502472623680132	-0.97513914705341	-0.175297501249186	-0.975231955637261	-0.174811120819343	0.00185015804074936	-0.00458646199280438
2	-0.0030062686924935	-0.00458314536175172	-0.989921418467754	-0.0214770273824677	-0.989933340662735	-0.0214313047061334	0.000186221014475712	-0.00463009605085864
2.1	-0.00342055707710936	-0.00333173339671717	-0.981266303886443	0.13197890076346	-0.9813043405753	0.13201586307601	-0.000446558025118346	-0.00403831313772734
2.2	-0.00386348922969658	-0.00282828773069941	-0.949012575614741	0.282452225231026	-0.948937737309335	0.282514946097709	-0.000885707925177264	-0.00396538034383142
2.3	-0.00441485780749955	-0.00219769652973127	-0.893832120537754	0.42556135807386	-0.893451467402835	0.426073750199262	-0.00155281057791731	-0.00401097835764253
2.4	-0.00507588444537137	-0.00165322775132444	-0.816107371554846	0.559893759961313	-0.816372524692004	0.559309061978095	-0.00241509710011559	-0.0040213854801984
2.5	-0.00619431045814974	-0.000677991954045146	-0.71998505593354	0.679367912596008	-0.720197266187361	0.678858895197885	-0.00347089873419287	-0.00390429261753129
2.6	-0.00643762562630487	0.00135986743853257	-0.606352534938412	0.782728912650109	-0.606246305092251	0.782546749357009	-0.00362746269325165	-0.00286601884225749
2.7	-0.0056145656959308	0.00281492530881168	-0.47701067909742	0.867475025051702	-0.477458132208793	0.867068113098953	-0.00327035804340916	-0.00249532264158394
2.8	-0.00437332894378723	0.00363323921406615	-0.338022308498963	0.930401421991593	-0.337356225914125	0.930561215674132	-0.00310754382970594	-0.00239942686234774
2.9	-0.00278425942993774	0.00391241669739372	-0.189271043437968	0.971701830319853	-0.189302046280304	0.971614547849188	-0.00265243967769387	-0.0020133268683594
3	-0.00125561939710423	0.00385420374999436	-0.0353818084473814	0.989774861554713	-0.0360816803367529	0.989615038886249	-0.00201752918053543	-0.00153020172704404
3.1	0.000479892300803878	0.00331896075105944	0.117361726746932	0.983115296925986	0.117951661841756	0.983098588852436	-0.000975177566837266	-0.00144921038230455
3.2	0.00159483486523503	0.00226093806014918	0.26891980162772	0.952862604307617	0.268865185751162	0.95280226274122	-0.000515750689242212	-0.001657500359778
3.3	0.00258265641945348	0.00103990668099649	0.413652295423797	0.899661662553807	0.41351529778872	0.899647202521103	0.000119273380594303	-0.00188435518420831
3.4	0.00289456473166537	-0.000450785007397207	0.54839627125813	0.824728391789063	0.548233932119117	0.824845924704598	0.000694380016799592	-0.0025785798289964
3.5	0.00292797643621162	-0.00143380035630701	0.669811927039284	0.729437515807955	0.66973234009087	0.729476124797764	0.00100261614829945	-0.00293994653742178
3.6	0.00302535560285011	-0.00263994207670922	0.774106510583914	0.617224081123936	0.774348004829859	0.61677624950936	0.00148216991751691	-0.00377708120636034
3.7	0.00261279180988705	-0.004044025802732	0.860877618600764	0.489243367259572	0.860759154876467	0.489386158367827	0.00135895160570731	-0.00466480374940622
3.8	0.00165173216863065	-0.00521557716624312	0.926283141738189	0.350321266548361	0.9263405716931	0.349942376302937	0.0009362092804581	-0.0054643561025116
3.9	0.000537914956750067	-0.0062523938726557	0.969614602329471	0.201093520348286	0.969375197421917	0.201760269193718	-0.000143307376556044	-0.00642557032815521
4	-0.00140385798618348	-0.00648913762212761	0.988831013528099	0.0492746438877699	0.988791887568557	0.0493773687135655	-0.00131300319705422	-0.00651875521118271
4.1	-0.0023934617703231	-0.00635544907519752	0.98509573619604	-0.104487901091904	0.98491097429416	-0.104361184863716	-0.00162329636053809	-0.00669700160348918
4.2	-0.00384541905786072	-0.00654235842787428	0.95688535367335	-0.256916892562024	0.956919001789857	-0.256262929260334	-0.00231152469889709	-0.0074018680782622
4.3	-0.00550168495148197	-0.00666219772490373	0.905824172245275	-0.401804744069265	0.90568803472602	-0.401693867759561	-0.00344230926140663	-0.00826561581035302
4.4	-0.00763997843936396	-0.006424800526237	0.832567299136317	-0.537422360128166	0.832401742104916	-0.537289337945135	-0.00514045992502126	-0.00897155306420803
4.5	-0.0102803177540526	-0.00545267851540995	0.739685156399881	-0.660252670706845	0.739495724619545	-0.660079838248795	-0.00743842985322891	-0.0089738038476449
4.6	-0.0121712059142113	-0.0030830668417254	0.627715692183443	-0.768081230964426	0.628056518232223	-0.767381518709157	-0.00901097925544623	-0.0081841499322515
4.7	-0.0131636884347312	-0.000983269670233157	0.501143487439428	-0.856089338853703	0.501159221447146	-0.855732892648092	-0.0103744318487469	-0.00785472637093799
4.8	-0.0138519318808406	0.00136499242639212	0.36194031754938	-0.923444772825943	0.362161590362819	-0.923127314816073	-0.0117592791718228	-0.00743519788666888
4.9	-0.0138045662181519	0.00357661096166544	0.214795598466348	-0.968166008975641	0.214575141340146	-0.968174298629719	-0.0129615534236868	-0.00676278923910842
5	-0.0132315806718479	0.00595439686392018	0.0613577939905098	-0.990261634671139	0.0615350419240479	-0.990015317592979	-0.0137196244142863	-0.00537886532373091
5.1	-0.011562886308854	0.00786532393614046	-0.0932354646120049	-0.987670406102575	-0.0929032695217293	-0.987444047723161	-0.0138663251653471	-0.00411633063626146
5.2	-0.00975541336018898	0.00945595583227255	-0.245564351069573	-0.961290909773985	-0.245071137126437	-0.961263311845658	-0.0141944906948991	-0.00269969844240697
5.3	-0.00773956530225398	0.010556780928565	-0.391939582635002	-0.911705611871501	-0.391597587350928	-0.911922014901602	-0.0141587901783636	-0.00111189315534322
5.4	-0.00579520765041553	0.0115973817229985	-0.529194736696888	-0.839941113000796	-0.528981054392008	-0.840142321828159	-0.0140679701002738	0.00053758895221972
5.5	-0.00354037335952769	0.0130170462564134	-0.653434170009295	-0.747029169257946	-0.653194363569541	-0.747224385309527	-0.0134434724686924	0.00263387515618488
5.6	-0.000228791481756259	0.0134088128869484	-0.761106753988313	-0.636553890184159	-0.760916334883319	-0.636726122190011	-0.0122209513774798	0.00347223296634963
5.7	0.00232179033277708	0.0128333949100425	-0.850965766600501	-0.510728819040048	-0.850835846625696	-0.510949263796193	-0.0119000730388085	0.00441748179402351
5.8	0.00454266289655317	0.0121309195987311	-0.920067842396247	-0.37212489491896	-0.91999960279056	-0.372410803838571	-0.0115768008679941	0.00578228078459321
5.9	0.00633605921593472	0.0108835025507194	-0.966669422761112	-0.22449267636024	-0.966683928045426	-0.224576588636297	-0.0112404759752326	0.00732372942064093
6	0.00770270770665501	0.0104282193426697	-0.989537315383081	-0.0718945627202926	-0.989417680933583	-0.0719527367748646	-0.0104546005772403	0.00994710101881001
6.1	0.0105336376481672	0.00909554549552285	-0.98902043247793	0.0826753653713318	-0.98889332540217	0.0825264230884172	-0.00744175088682543	0.011271765205786
6.2	0.0122630667473965	0.0061448002701373	-0.964049241088182	0.235665308375971	-0.964035537399015	0.235461800232334	-0.00525709505550167	0.0106802654191265
6.3	0.0124359649098138	0.00263544375945164	-0.915503606275521	0.382661157683522	-0.915499177053342	0.382475227273553	-0.00411469233387938	0.00943886234658521
6.4	0.0113706224878874	-0.000534809676039355	-0.844745046043356	0.520032201567656	-0.84471341834359	0.519820906369195	-0.00400758557741704	0.00826684204116609
6.5	0.00955833866381096	-0.00294365618138304	-0.754054196510438	0.644935198742092	-0.754078544164855	0.644730461978771	-0.00420420528100367	0.00779638557237343
6.6	0.00787599496358675	-0.0047374839106723	-0.644357338841494	0.754666078577003	-0.644431803106293	0.75441318055989	-0.00409889329451378	0.00767834949091208
6.7	0.00594854669624224	-0.00617135041769321	-0.518957891074335	0.845416507460945	-0.51906140694208	0.845194818161242	-0.00393887264942384	0.00779206901041443
6.8	0.00412008901713524	-0.00714555100638576	-0.381264971568391	0.915628931018134	-0.38140735428062	0.915457938695422	-0.00355078890512722	0.00804578470689534
6.9	0.00207127079036325	-0.00783242416413042	-0.23445616331513	0.963765411223038	-0.234683724271848	0.963655085337815	-0.00288705847113965	0.00825819377165419
7	0.000396465732580732	-0.00788012611306166	-0.0813483117773665	0.988684884439963	-0.0815590956939041	0.988595333569686	-0.00187420703773366	0.00825023767217887
7.1	-0.00130390987714972	-0.00792710888284532	0.0735133178190283	0.988694707065517	0.0733103278594129	0.988561724549778	-0.00106075941090891	0.00790549806064037
7.2	-0.00288400156113008	-0.00752866785469238	0.226156282317572	0.964946323186348	0.225873314727863	0.964912607657999	-0.000153543759729885	0.00779401765118216
7.3	-0.00438507027239577	-0.00695557266307741	0.373279980727512	0.917893875149923	0.3730434181608	0.917921015120145	0.000849586997975595	0.00746706454291703
7.4	-0.00560887935415611	-0.00616108802279914	0.511535309196098	0.848436743126755	0.511321581420974	0.84848886523639	0.00164999089407798	0.00680252312819654
7.5	-0.00658224535992836	-0.00518747508184137	0.636833181245776	0.75774522294386	0.636663666632048	0.757815778281173	0.00255399042382731	0.00622190156439795
7.6	-0.0069110957509217	-0.0044595439691796	0.746164970402619	0.649624137565332	0.745907408106475	0.649707739439602	0.00352284647501058	0.00477166552145598
7.7	-0.00756702806957975	-0.00348771012506409	0.837802216675295	0.525795576394967	0.837617373152222	0.526013835872511	0.00347191960715556	0.00333528887029152
7.8	-0.00771704221069524	-0.00226124745612113	0.909198277096895	0.388957590221007	0.90909611722197	0.38918376065331	0.00322505098177327	0.00221525298754675
7.9	-0.00787201728013437	-0.00102247837059798	0.958091821825064	0.242732019510736	0.957954476493432	0.242912515331421	0.00260852721949014	0.00166135015803967
8	-0.00772832119212434	0.0012862360042334	0.983288334733711	0.0913692720821211	0.983266392157465	0.0916322175527988	0.00165630555418134	0.00213680727712701
8.1	-0.00577801399157891	0.00305926826666645	0.985714333933438	-0.0624092266526242	0.985744347585279	-0.0621535939116516	0.00255739845404212	0.00219763417223761
8.2	-0.0037459036849816	0.00370271670259711	0.96353770190699	-0.214872360286832	0.96358745961587	-0.214555370016888	0.00255263689408669	0.00146012838682457
8.3	-0.00196121971801977	0.00379612908062461	0.917880088303531	-0.361627414025326	0.917932708037248	-0.36134052050781	0.00218196486827114	0.00082386575915586
8.4	-0.000402611466785028	0.00309134478612366	0.850262188512865	-0.499109561789791	0.850360740832038	-0.498908096969611	0.00138443513181693	6.87827517198267E-05
8.5	-0.000210956119650343	0.00270403858591507	0.762915389806041	-0.624764624225754	0.762967306116862	-0.62461411955028	-0.00018423616683347	0.000390375463717517
8.6	0.00113134232028241	0.00293238328403253	0.656033403806798	-0.735697371364967	0.656202790335436	-0.735461023410416	-0.000131744699351779	0.00134296480006985
8.7	0.00241765536268458	0.00248595791415733	0.533536962599862	-0.828039309171382	0.533796816262087	-0.827825081755511	2.75560950408558E-05	0.00173660617167825
8.8	0.00385298814250637	0.00172697845675433	0.398705294493578	-0.900297263792736	0.398890904462443	-0.900159042525754	0.00022480950734899	0.00198373124601757
8.9	0.00505709246992581	0.000389750953287563	0.254449696507315	-0.951196137083138	0.254629201056658	-0.95102688293177	0.000705767241368396	0.00221727788403547
9	0.00578559465228325	-0.00115810828707301	0.103148388175349	-0.979078023413676	0.103456566490632	-0.97903275781623	0.0013233488780107	0.00271324368189237
9.1	0.00659711671748625	-0.00239435063208929	-0.0499074409515107	-0.982420727204532	-0.0495986548043869	-0.98238106825532	0.00293529113125919	0.00316032881277836
9.2	0.00755151261564365	-0.00375371977733627	-0.201586775697531	-0.962462037156906	-0.201239775959121	-0.962441131604967	0.00521343613671976	0.00303338289963968
9.3	0.0084577223884964	-0.0053517426285255	-0.348415208758471	-0.919323839532586	-0.348063899656504	-0.919299705089632	0.00800052042531973	0.00179051889445656
9.4	0.00868560541895186	-0.00756243384084716	-0.486927359386571	-0.85377359110572	-0.48660525860961	-0.853865590084322	0.00995619740842688	-0.000946698916407018
9.5	0.00816818542781916	-0.00844174529549838	-0.61289337368973	-0.766803684061128	-0.612657404927134	-0.766854824146053	0.010784121258609	-0.00363255662021928
9.6	0.00814219474480073	-0.0101018454737596	-0.723635794453401	-0.662482729846554	-0.723325802431029	-0.662622053043922	0.0104687503483184	-0.00746868354996181
9.7	0.00716090729839173	-0.0111422378079842	-0.817275262972839	-0.542172718668183	-0.81698959930159	-0.542405773339686	0.00799147161197096	-0.0105622845907478
9.8	0.00620421546429364	-0.0119226627821713	-0.891050435146404	-0.408688324447293	-0.890798719257435	-0.408857432754214	0.00467496043732512	-0.0125248039936791
9.9	0.00478198744453664	-0.0123555415308621	-0.942873310678424	-0.265380315101399	-0.942622821815264	-0.265588922015769	0.000656347499543116	-0.01330119175226
10	0.0032335068676451	-0.0114132254070892	-0.971762936844528	-0.116787973680889	-0.971610862718056	-0.117148710680561	-0.00314650456016255	-0.0117682149718084
10.1	0.00326957677248435	-0.0108736800375389	-0.978159497900746	0.0350002696365606	-0.978097069644887	0.0345708430778522	-0.00541393955989917	-0.0106296350974931
10.2	0.00288326060781562	-0.0110415823724182	-0.960640646737179	0.186001422786373	-0.960520090423737	0.185572362318125	-0.00836670598572034	-0.00916383190829588
10.3	0.00207771460342108	-0.0110622685499151	-0.91992908910542	0.332197529431079	-0.919946954656533	0.331659143639885	-0.0112505126430164	-0.00688900655378772
10.4	0.00097237831420637	-0.0112295020725144	-0.85742892044941	0.469912435835975	-0.857564921788321	0.469404157092832	-0.013726896226304	-0.0038936690752812
10.5	-0.000530013040957353	-0.0100783930768596	-0.775155724500395	0.597202684055736	-0.775327778514451	0.596772811526177	-0.015092708287411	0.000491655828420994
10.6	-0.000185048305390381	-0.00902528627594996	-0.67283358165928	0.710374174053145	-0.673104792670326	0.710046008677308	-0.0136629839932485	0.00462878067730558
10.7	0.000581808871905537	-0.0087669161683277	-0.554461560060667	0.805751172258918	-0.554760642320802	0.805443608600149	-0.0110457675478659	0.00734584774804706
10.8	0.00097972005465523	-0.00965333914222037	-0.423048825682708	0.881588216957591	-0.423397633180504	0.881291708473929	-0.00841006989226009	0.00871338221419337
10.9	0.000468434101337905	-0.0103984951679079	-0.281747184684454	0.936620828023445	-0.282135264678449	0.9364984297704	-0.00627665282343118	0.00964972581533434
11	-0.00011451367230254	-0.0109441112395063	-0.132560900854845	0.969177757925802	-0.132995613054198	0.969087702172815	-0.00369895536966229	0.0104040459121444
11.1	-0.000732008326741744	-0.0114408770338903	0.0190576362102514	0.97718158229384	0.0185718530557756	0.977194892184619	-0.00101832290563615	0.0103227515324515
11.2	-0.0014905602688685	-0.0120751439758871	0.169822656821697	0.962438675567039	0.169368287604778	0.96251097012226	0.00169063243851349	0.00973671297636296
11.3	-0.00248982666366327	-0.0126159714457077	0.316715051570928	0.9247229289332	0.31625859355475	0.924858254540583	0.00438740553727832	0.00854262959761576
11.4	-0.00408613947860797	-0.0130824454582354	0.456485891901389	0.864490620699445	0.456084309396384	0.864602766796643	0.00647728504167824	0.00708983596964508
11.5	-0.00542285504703526	-0.0122376592322422	0.584366326246927	0.782475609025952	0.584049580140461	0.782775511316557	0.00879424975692057	0.0057763874104373
11.6	-0.0064192488511326	-0.0123951041186453	0.697907144325101	0.683111536954748	0.697692602322501	0.683436608798316	0.0104170360110419	0.00274133874393486
11.7	-0.00809887619266982	-0.0119533619166165	0.795421373638029	0.567011504699915	0.795218751077816	0.567315537688736	0.0104986628457864	-4.14083644695649E-05
11.8	-0.0100194224849017	-0.0111993563317892	0.873774777279257	0.436770354900465	0.873593000698309	0.437217767630476	0.00965077386305495	-0.00243725589408795
11.9	-0.0122392309586433	-0.0094956576812446	0.930472527935282	0.296002171667606	0.930366204541038	0.296448686873942	0.00772730254365032	-0.00363049227781017
12	-0.0140136148859281	-0.00603063117843247	0.964727272189221	0.149486683896654	0.96469721037135	0.149848455351371	0.00680089958610566	-0.00294823417083064
12.1	-0.0132211074981887	-0.00291665377044811	0.976903450392216	-0.00158058622055653	0.976831209377561	-0.00119861012150216	0.00751626558273407	-0.00368189140065242
12.2	-0.0122071477471497	-0.00116753681939571	0.965040600442485	-0.152838555884861	0.965056555558299	-0.15254220277495	0.00741504227766791	-0.00526219143025139
12.3	-0.0110430672650799	-3.91996185813833E-05	0.929820139084043	-0.300212514921918	0.929937332626823	-0.299906948007453	0.0068528000141868	-0.00719947028472065
12.4	-0.0104834976723041	3.31545391213504E-05	0.87289003839637	-0.440228148032815	0.872950521586762	-0.439860016589203	0.00527168390488899	-0.00943835391190732
12.5	-0.0110106880440156	0.000770279462131661	0.795277969405283	-0.570887963144147	0.795614582254925	-0.570496638531433	0.00233747124796646	-0.010510747696374
12.6	-0.0105516363460746	0.00169958321527032	0.696921247537733	-0.687770468099926	0.697170453578688	-0.687527090858345	0.000235715005638853	-0.0111276894760787
