# GHZ S RI R 50
0.2	-0.000115613386726887	-0.000724884142569011	0.951169823822496	-0.307402672707113	0.950947130034535	-0.307377452067972	-0.000141395797594477	-0.000593426554326058
0.3	-0.000580387200878918	-0.000721996983436457	0.891819252344855	-0.451344911085826	0.891662560911657	-0.451249544763794	-0.00068347602149173	-0.000739307628010669
0.4	-0.000943660016796711	-0.000452553029644338	0.811017039119575	-0.584315893112687	0.811028906673909	-0.584341065408178	-0.0011641467332661	-0.000474824514557461
0.5	-0.000771117014300484	0.000465725224448715	0.710212592081993	-0.704046635898342	0.710056909343985	-0.703944951983676	-0.000949704765615603	0.000450155219458948
0.6	-0.000112890736572506	5.16049240516852E-06	0.591669894676743	-0.805406986456668	0.591550104142165	-0.805244849206942	-0.000406984927334506	-6.29120805296346E-05
0.7	-0.000366295176119478	-0.000111947798964043	0.459510040636267	-0.88739195948762	0.459491089543262	-0.887279073454788	-0.000681951452558435	-0.000304578663176002
0.8	-0.00043784250763856	-0.000236695111407117	0.316004806542814	-0.948264405653551	0.315973154191517	-0.948073917279525	-0.00096908310601267	-0.000296619813704786
0.9	-0.00113075010685634	-0.000246656101385733	0.164367537250717	-0.985974409750747	0.164302183773129	-0.98588210438678	-0.00176572145148583	-0.000348663979473381
1	-0.00158726241707555	0.00166713857902707	0.00879465099504511	-0.998586143073982	0.00874281218045561	-0.998554546138777	-0.00225561178003111	0.00155846254742649
1.1	0.000787769350539396	0.00156906778371079	-0.14566546375407	-0.988118474175592	-0.145681335408055	-0.987987507391949	-0.000284363157093279	0.00142324440136394
1.2	0.00145814354790717	-0.000290220857994892	-0.297892215468621	-0.953695290954039	-0.297815491219587	-0.953669068773981	0.000219452665169336	0.00071981652472462
1.3	0.00186651182702453	-0.00286867074313595	-0.442784792814542	-0.895574118430298	-0.442761647442071	-0.895567482383878	0.0014813708959247	0.000290929103120632
1.4	0.00139680077381621	-0.00559307269573893	-0.576284278067765	-0.815384700553986	-0.576259977385824	-0.815362989999582	0.00264502636141307	-0.000694143456556045
1.5	0.00191516946333434	-0.00742474231042641	-0.695352680444174	-0.716369230353082	-0.695250463950858	-0.716283899142589	0.0048414789358587	-0.00236445618059099
1.6	-0.000828832533514008	-0.00929786657813042	-0.799227266370346	-0.599865841435983	-0.799152744626027	-0.599805520158467	0.00267107542043054	-0.00462193930519516
1.7	-0.00271905959486079	-0.00781336725606441	-0.882571328494716	-0.468196961898817	-0.88273575944698	-0.467677641183777	0.0013015690200175	-0.00401362917074871
1.8	-0.00381280912827271	-0.00637286034507347	-0.944561149412063	-0.324578278926159	-0.944449278438456	-0.324577129119175	0.00035003168425242	-0.00366238238540906
1.9	-0.00444648880436834	-0.00406670325469706	-0.983167435199518	-0.174499726953868	-0.983259887982295	-0.174009330176705	-0.000401854601762253	-0.00243665786021198
2	-0.00177539036714293	-0.00272254974759334	-0.999317241827142	-0.0189613300530376	-0.999329150948714	-0.018915143338705	0.00190749915134764	-0.00207650738857424
2.1	-0.00256106628117768	-0.0050975677550253	-0.989539385061659	0.138021641068301	-0.989577585274185	0.138059127322339	0.000601038581059688	-0.00483406165362772
2.2	-0.00463802410440975	-0.0045323121098237	-0.955390751042011	0.290055642348642	-0.95531494035061	0.290118474587226	-0.00120921790771241	-0.00450602229146148
2.3	-0.00603087465640006	-0.0032595923864697	-0.898654999493659	0.434320276601595	-0.898268204043487	0.434834627723207	-0.0023481024957763	-0.00404744863177642
2.4	-0.00746208396532954	-0.00110655478229801	-0.819508500695853	0.570076417538323	-0.819779772373704	0.569488393492472	-0.00367828009008622	-0.00297234665288839
2.5	-0.00563288558142301	0.00239731045128557	-0.719968588259334	0.691536059586162	-0.720187142830058	0.691024653941312	-0.00213216196992306	-0.00127449899136124
2.6	-0.00369599926502956	0.00121514726282955	-0.602985731146488	0.793305562794905	-0.602880506816776	0.793121260042551	-0.00111009414983852	-0.00355327446131895
2.7	-0.00383913290301377	0.00076119630136273	-0.47193571831928	0.877086165138349	-0.472389604081534	0.876680899793338	-0.00229019643070476	-0.00462616891232522
2.8	-0.00397900987118389	0.000886514383728853	-0.330893347520929	0.939178455070967	-0.330221786639847	0.939332662218455	-0.00368549495536956	-0.00467085215797637
2.9	-0.00330642412609694	0.00149673690730278	-0.17944998019169	0.978967460871009	-0.179482119965685	0.978880060584865	-0.00410126753785781	-0.00351363488013362
3	-0.00194016245184449	0.00112595039432846	-0.0239078313297103	0.992859643513262	-0.0246114602079878	0.992707570318034	-0.00357874649839092	-0.00291153367082587
3.1	-0.00169561928667549	0.000977499925479141	0.127758384879677	0.984344118418029	0.128349609528703	0.984321304718913	-0.00366547362718294	-0.00210549421153895
3.2	-0.000776255182386821	0.00103390826987863	0.279838217027168	0.952338808261809	0.279782816277576	0.95227890417697	-0.00296808876778106	-0.00109534134543599
3.3	0.000352343541306333	0.000726484358639713	0.424613993615951	0.89649372001008	0.424476595887781	0.89648079615046	-0.00192835597899737	-0.000538497911549305
3.4	0.00156557028627126	0.000415574123762584	0.55803524651243	0.818485268922955	0.557874247421627	0.818604700508692	-0.000402862639983827	-0.000317427575341249
3.5	0.00381658396175448	-0.00179140103373198	0.6765042623605	0.722584399000548	0.676425090198728	0.722623756316044	0.0017575794783121	-0.00192749922205949
3.6	0.00225507080233277	-0.00436437678075155	0.781028848503985	0.609662060624542	0.781265886519013	0.609211418383351	0.000643626207872348	-0.00366085332945246
3.7	0.00115559213751192	-0.0049802587559277	0.866242195493189	0.479517692400026	0.866125350266688	0.479661791841705	0.000237544789976336	-0.00367403693966508
3.8	3.04329068180467E-05	-0.00539047585828081	0.929100390338631	0.339459084044627	0.929153481873186	0.33908000875567	-6.71359828505351E-06	-0.00392990554965017
3.9	-0.000773329486090984	-0.00487802748150156	0.969894531073457	0.190580123876823	0.969662545666446	0.191248122278413	-0.000623883403920262	-0.00387506989903965
4	0.000814415715673854	-0.00494196327626117	0.988955090774086	0.038711135387268	0.98891707600609	0.0388142357086715	0.0011228394887211	-0.00439376660966365
4.1	-0.000575679983485192	-0.00804722606056036	0.981946593792259	-0.116824630629562	0.981763785015968	-0.116695798474097	-0.00026035755953507	-0.00741566050038021
4.2	-0.00343088971645779	-0.00855575498867157	0.950315560769251	-0.267994924859999	0.950357277391202	-0.267343674754926	-0.00239452841812166	-0.00801534454600999
4.3	-0.00597847484234597	-0.00844263929890263	0.897077930312421	-0.410949060528389	0.896943713859155	-0.410837028334426	-0.0042744237649518	-0.00842439531850256
4.4	-0.00902406891959926	-0.00699243238125686	0.822631966405135	-0.545035419447153	0.822468696074186	-0.544900994740939	-0.00659105781174121	-0.00801457324574425
4.5	-0.00937732988117353	-0.00394103372905927	0.726554318220815	-0.667121867149535	0.726368301590238	-0.666947295213123	-0.00681810489803901	-0.00655069339925842
4.6	-0.00974958085814368	-0.00426916938619047	0.612549131737194	-0.769863016157971	0.612896213382382	-0.769173523058268	-0.00771560338418208	-0.00830662685350676
4.7	-0.0117512309626426	-0.00343988587787979	0.486631399532012	-0.854291009601636	0.48665116642379	-0.853937939675782	-0.0104818699653383	-0.00863507372920144
4.8	-0.0134009714778192	-0.00144704078952275	0.348125489112162	-0.918898392228022	0.348348278705205	-0.918586401932008	-0.0128900759284398	-0.00792907762412804
4.9	-0.0140743001514783	0.0010859779514573	0.201188698272708	-0.960812517121835	0.200970394441997	-0.960818123177341	-0.0145988322848304	-0.00637433759427807
5	-0.0132183701679183	0.00317022564969652	0.049611225211183	-0.977586534656966	0.0497887993638262	-0.977345493113811	-0.0148460523981363	-0.00475412436566307
5.1	-0.0132557053021279	0.00479394478788871	-0.100016447179434	-0.973580568856994	-0.0996868933373776	-0.973359969699796	-0.0159259597139827	-0.00314656436833524
5.2	-0.0123407430373925	0.00775012323922794	-0.249604329352199	-0.946608236676974	-0.249117480205724	-0.946584758985615	-0.0160410386882802	-0.000457903893596105
5.3	-0.0101635901079226	0.0105919445647895	-0.393014414093618	-0.896048846126497	-0.392678793265095	-0.896264676391364	-0.0150849423229761	0.00210031938215992
5.4	-0.00614399688616036	0.0136255800118782	-0.52610906564808	-0.823462128151453	-0.525899989678764	-0.82366150656417	-0.0129666176702351	0.00461226447087051
5.5	0.000333871324969152	0.0119423663776165	-0.645109330939527	-0.733405287552883	-0.644873858368334	-0.733598061788159	-0.00933963362207449	0.00327064064921933
5.6	0.000243999873998293	0.00948964291698893	-0.752119770747136	-0.625585558905151	-0.751932484805087	-0.625755880895077	-0.0116597341173946	0.00227562753696661
5.7	0.00116487969218087	0.00995865859365563	-0.839868528626001	-0.50104019449886	-0.839741083709487	-0.501257758090188	-0.0122541178953295	0.00444208896326053
5.8	0.00282809788620006	0.0104058151546323	-0.906499442687983	-0.36495201135165	-0.906432702919303	-0.365233629114453	-0.0118956620521021	0.00645844780112042
5.9	0.00503255724777302	0.0115246275509732	-0.951532526507532	-0.221550228864045	-0.951546759398408	-0.22163284604354	-0.0110483453670262	0.00916806286941313
6	0.0117097469772798	0.0105317264006125	-0.976624464101008	-0.0722252083130355	-0.976506305510014	-0.0722824757136749	-0.00658486102870171	0.0101454614495483
6.1	0.0127078315841769	0.00403143810545606	-0.975249518744519	0.0815760487776183	-0.975124188530773	0.0814291734078103	-0.00696004085682844	0.00742228324559635
6.2	0.0113315396069558	0.00108967796489887	-0.949995495850607	0.231014685794753	-0.949981753634446	0.230814220009098	-0.00804591767188643	0.00814539910556216
6.3	0.00985997881062172	-0.00111118697810184	-0.903031824117487	0.374589003828454	-0.90302696561177	0.374405824741655	-0.00796844436349004	0.00914935374988325
6.4	0.00835233727220545	-0.00237101158040029	-0.835199560864287	0.510060176442992	-0.835167616029688	0.509851837262193	-0.00742845375163262	0.0101654451608019
6.5	0.00758829103376372	-0.00396517742385371	-0.744829225368917	0.634823904099387	-0.74485289144977	0.634621928558278	-0.00589984562687079	0.0103376109818946
6.6	0.00597967564981716	-0.00528543092910271	-0.636837081407221	0.740356704617937	-0.636909452155307	0.740107556427442	-0.00508354092827982	0.010267313969908
6.7	0.00490750361526194	-0.00610282794113872	-0.515637891295022	0.829535302526812	-0.515738589150609	0.829316454387575	-0.00391579491512865	0.0102353993029276
6.8	0.00404503641939039	-0.00710001579225844	-0.38153083067537	0.89982305335245	-0.381670043596328	0.89965365155209	-0.00293871246831803	0.00988773138290861
6.9	0.00305790650229887	-0.00815507913187045	-0.236943207701942	0.948419062768422	-0.237166810190131	0.948308943464823	-0.0018794998215546	0.0095704279019247
7	0.00170019773462507	-0.00990267577154977	-0.0873584069494145	0.971255379849025	-0.0875649349340942	0.971165776231366	-0.00117391625395196	0.00820927738840458
7.1	-0.00104681201041758	-0.0101712879493312	0.0615436849546707	0.974102491590999	0.0613453122158776	0.973969357618291	-0.00148912156983522	0.00817283498865947
7.2	-0.00278251271606732	-0.00970438380607232	0.211694315719448	0.953992106329724	0.211415729345649	0.953955559434544	-0.000697538763634412	0.008453917986413
7.3	-0.00446815610872366	-0.00918749980016651	0.357022406827656	0.909965582487816	0.35678872903686	0.909989471222833	0.000184072407789191	0.00837409774268879
7.4	-0.00566708265436642	-0.00811149401894497	0.492962797144594	0.843233360426434	0.49275140400295	0.843281891932802	0.00108635961782416	0.00827131884048937
7.5	-0.00585728537339455	-0.00799228115227777	0.615650846201155	0.759121701010363	0.615482266104756	0.759188431216948	0.00271047563904393	0.00724502224785058
7.6	-0.00796612336802338	-0.00801317736588712	0.728146340750453	0.656257636869502	0.727889759881363	0.656336075695088	0.00261680288061269	0.00571287722452198
7.7	-0.00963526615886728	-0.00606767689783443	0.821699473983067	0.53522568362593	0.821512591234532	0.535438947347784	0.00259662144510311	0.00531859905609231
7.8	-0.0102500421558113	-0.00341137045875269	0.894816681747601	0.401708895597768	0.894711394728543	0.401931393524451	0.00276551013892387	0.0048785761750575
7.9	-0.00970906856045207	0.000529293607777338	0.946583378051367	0.259824388074534	0.946443457675301	0.26000091795401	0.00321606562811148	0.00538077212791285
8	-0.00363903147939347	0.00292081930033806	0.978842520372457	0.110362917704514	0.978815491891408	0.110624723042705	0.00645894804050451	0.00461842447143796
8.1	-0.00168056436193732	-0.000422831337729491	0.984166918111104	-0.0448939204677661	0.984192352270734	-0.0446384456564264	0.00540009700093709	0.000136691718071421
8.2	-0.00180068542669588	-0.0013767849215077	0.965139393040221	-0.196720355395244	0.965183229622969	-0.196403221242342	0.00270480854272109	-0.000927434044383842
8.3	-0.00219644519113588	-0.00173484313800796	0.92390821332703	-0.34372840871397	0.923955296854768	-0.343440786095505	0.000307703892522026	-0.000979866670431182
8.4	-0.00327856624508479	-0.000713181416088869	0.861250562312622	-0.48381351455123	0.861345455677073	-0.483609820991854	-0.00240562958641046	0.00045543766451291
8.5	-0.000276135546431508	0.00254522501644841	0.774602083075433	-0.614231161583294	0.77465175004385	-0.614079476615937	-0.00118833196941089	0.00381766822382433
8.6	0.00262710113064379	-0.00077613010386262	0.66914133754498	-0.725312137900959	0.669306888240207	-0.725072687791365	-0.000467891488161431	0.00215444700231218
8.7	0.00203403109584329	-0.00244929770906327	0.549667901964921	-0.820616184368143	0.549924590970158	-0.82039677615617	-0.00163198861322493	0.00280646218967037
8.8	0.00156342729711098	-0.00312344277826606	0.416162755649125	-0.897198516763107	0.416346747176829	-0.897056455381107	-0.0018491378027388	0.00405102287079676
8.9	0.000882510457796446	-0.00286154418395622	0.270718728721497	-0.952164186067278	0.270896511641407	-0.951991228916488	-0.00124702571764179	0.0057636612814282
9	0.00256641785027019	-0.00186425320687691	0.119171754354376	-0.980209715064122	0.119480083256795	-0.980159369426801	0.00162403542491438	0.00738904977213451
9.1	0.00409425060738893	-0.00285346634036971	-0.0320826050128165	-0.988479074413166	-0.0317729335647196	-0.988433523394347	0.00435965784691403	0.0067427186811607
9.2	0.00598855129344856	-0.00349922641871695	-0.186022913432447	-0.97304216061384	-0.185673755402898	-0.973014961871061	0.00744002629941962	0.00575481596627744
9.3	0.00810457955324581	-0.00491163039542651	-0.33584710472707	-0.932631127880455	-0.335493344950961	-0.932600912445139	0.0103703083611023	0.0034218590666336
9.4	0.0102830739348183	-0.00626641622816265	-0.476423850054545	-0.868370100574976	-0.476097768401036	-0.86845743930311	0.0126241692250709	0.000756457621982886
9.5	0.0137565808802636	-0.0118984849335373	-0.603592203188697	-0.786214717623387	-0.603352975295059	-0.786261684983897	0.0148242522145127	-0.00579779029802459
9.6	0.00895885711205152	-0.0168030008146674	-0.721518399076291	-0.684269600167747	-0.72120176650524	-0.684405261941386	0.00956112593139492	-0.0103726901850408
9.7	0.00551533136091403	-0.0166515113637609	-0.820128311966311	-0.56308605603004	-0.819834822027747	-0.563317806767155	0.00579522650428651	-0.0112810867057396
9.8	0.00307020883972697	-0.0158484396962291	-0.897851176117468	-0.428672216919718	-0.897593089654551	-0.428839892981952	0.00214635598927984	-0.0117178099327431
9.9	0.00135349370806221	-0.0126414552485078	-0.953970021000124	-0.28515385225612	-0.953712017494341	-0.285361776219973	-0.00136186237980483	-0.0100835346451983
10	0.005864573321431	-0.011568514735326	-0.990612624626957	-0.133116229178163	-0.990452193970948	-0.133482412444583	-0.000571780111618209	-0.00967881094962329
10.1	0.00414479988174762	-0.0154782260795536	-0.99868758185698	0.0255415142791027	-0.998619397355175	0.0251038854435141	-0.00557324381831184	-0.0116789625011726
10.2	0.00142247137315161	-0.0151376908759467	-0.982145613024829	0.180715200254674	-0.982018510930213	0.180278465638546	-0.010194464738599	-0.00891407524555242
10.3	-0.000467147161690146	-0.0137083864587325	-0.942637543381438	0.331494110407012	-0.942651184927264	0.33094394624998	-0.0132138492471943	-0.00532895505708852
10.4	-0.00166800235025221	-0.0113413114061288	-0.880898326212377	0.475474606895444	-0.881034234139531	0.474953349105036	-0.0150790224673926	-0.000897120980489317
10.5	0.000948278670056551	-0.00862335238726008	-0.793798964510091	0.609924206343391	-0.793974408938465	0.609484206387775	-0.0130975801590328	0.00336645560033143
10.6	0.0030623627809639	-0.0108254580094092	-0.687580507759165	0.723869325961123	-0.687856767077672	0.723534077634038	-0.0116856450975363	0.00401695031927539
10.7	0.00288097065051275	-0.0127815304892476	-0.567058849422872	0.821922967121947	-0.567363808490392	0.821608598594001	-0.0113180174115411	0.00538441767212843
10.8	0.00158280968418164	-0.0142851250338774	-0.431945722286861	0.900839874538065	-0.432302187473754	0.900537045643069	-0.0110078964000331	0.00744356927411545
10.9	0.000304577172346291	-0.0145622681409988	-0.284570711456539	0.957541662303012	-0.284967479003328	0.957417973535656	-0.00948853949216701	0.00994894442313452
11	-0.000310122713056643	-0.0155617394164405	-0.131395179705185	0.98659362773624	-0.131837813588179	0.986503560080573	-0.00687516652393027	0.0112326743180169
11.1	-0.00224197696282996	-0.0157982569774325	0.0215301100117219	0.995800014422707	0.0210350796024001	0.995814626842227	-0.00483984295063248	0.0125889654004352
11.2	-0.00348206862844717	-0.0156169644005491	0.177057031432127	0.980971581368744	0.176593881444222	0.98104713393516	-0.00153056091560274	0.0134252723234707
11.3	-0.0046026684962746	-0.0149852064673426	0.328363894198124	0.940743607535118	0.327899402780965	0.940884276214231	0.00208776649799047	0.0135086340066508
11.4	-0.00492031723306772	-0.0135031126631144	0.470174580126744	0.876301365219514	0.469766837726036	0.87641814970437	0.00617319093939606	0.0133307451683306
11.5	-0.00282496216927458	-0.0152963921466854	0.59821194427038	0.794331116125314	0.597890658491043	0.794637776712043	0.011339698213801	0.00927491397230477
11.6	-0.00686045736619458	-0.0175454267011107	0.717141959589402	0.692084188070626	0.716925363128168	0.692417471758733	0.0107996361180449	0.00539250344849038
11.7	-0.00991287872651883	-0.0158701776796735	0.816264656351252	0.570472721096028	0.8160609848983	0.57078458696209	0.0112696818475532	0.00360506468868455
11.8	-0.0122987663666898	-0.0136460531252382	0.894162960690651	0.435663056357787	0.89398251151929	0.436120475613257	0.0113798870764362	0.00138429713511493
11.9	-0.0127207921590554	-0.00871902074348186	0.950291085265921	0.292383830201242	0.95018714911776	0.292839509994569	0.0117041889118712	0.000503667093684145
12	-0.00829347085963172	-0.00660598496907983	0.987252470799987	0.140734207500716	0.987226248211848	0.141104103681942	0.0146738940773069	-0.0026677059281771
12.1	-0.00925607305615412	-0.00961631922591658	0.995329903197587	-0.0174507059882528	0.995262491335114	-0.0170603436368092	0.0111665563308314	-0.00899103929957714
12.2	-0.0114517974636091	-0.00901622549553507	0.978904109858844	-0.171922708519581	0.9789253967007	-0.171621569194171	0.00672388680919496	-0.0107221176276868
12.3	-0.0130692573054322	-0.00746529851370741	0.93965040149635	-0.321704837164654	0.939774960784424	-0.32139637041056	0.00284858326567837	-0.0112810114781462
12.4	-0.014981584920545	-0.00467392787353393	0.87887963525737	-0.464814492254503	0.878948385087208	-0.464441369221408	-0.00113126195168827	-0.0102071596838312
12.5	-0.0123580089508401	-0.000566136452554236	0.79223580447914	-0.598262386264023	0.792586654887183	-0.597873924843318	-0.00163060160104991	-0.00791603176681599
12.6	-0.0108102530044625	-0.00173990040828894	0.687433814951936	-0.710744985181922	0.687691130590845	-0.710505133261598	-0.00351498187378923	-0.00907394561422928
