# GHZ S RI R 50
0.2	-0.000365794947594107	-0.000158075630843338	0.949107288036573	-0.307956063014838	0.948885022851461	-0.307930628984079	-0.000305119704584976	-0.000123677862949761
0.3	-0.000488842069474643	-3.25072832343741E-05	0.889148837943495	-0.451619744853098	0.888992639022487	-0.45152436654567	-0.000482486384335857	-0.000260148717082524
0.4	-0.000343918313702986	9.17982793898889E-05	0.807691655706067	-0.583902910877516	0.807703447847602	-0.583928028250069	-0.00048835824902823	-0.000251011965994958
0.5	-0.000343169954813279	0.000109740781050915	0.706955861043584	-0.702226454990996	0.706800839544799	-0.702124980845608	-0.000469056122895886	-0.000244387620363276
0.6	-0.000389359734572165	0.000229055736691072	0.589011067551088	-0.803259873355119	0.588891814518256	-0.803098167741498	-0.000532548034385403	-0.000283067130998314
0.7	-0.000313796288915976	0.00053928756180926	0.456916608263799	-0.884619363268288	0.456897842613444	-0.884506870570247	-0.000492010317547928	-0.000316084847795658
0.8	-3.09811927070559E-07	0.000635503262599239	0.313882510653195	-0.944606814889496	0.313851152777471	-0.94441708853271	-0.00053962521527235	-0.000306311658474307
0.9	0.00029855179594005	0.000768552886332532	0.163338760310225	-0.981565169598919	0.163273729007109	-0.981473262523744	-0.000696869169655544	-0.000362908447192233
1	0.00075098760157888	0.000449795409598418	0.00893818160343444	-0.994691214208417	0.00888653926381842	-0.994659749677057	-0.000788141631213528	-0.000347999555523835
1.1	0.000767817366165904	-3.8650176790729E-05	-0.145531503913051	-0.983916002630153	-0.145547246187131	-0.983785575880281	-0.00104224002608921	-0.000222111647823316
1.2	0.000900025367436019	-0.00106767538063428	-0.296626799456931	-0.94909428127791	-0.296550437085261	-0.949068196826859	-0.000664011529077147	0.000264856355554494
1.3	0.000736413059491312	-0.0027918707730976	-0.440279034629535	-0.891283353250026	-0.440256006346419	-0.891276742156466	0.000680567413962636	0.000734092732310586
1.4	0.000200228117914231	-0.00458616419601309	-0.572976521195005	-0.81199758235984	-0.572952350512033	-0.81197595533085	0.00234286503220621	0.000229103435994974
1.5	-0.000548432181837067	-0.00518494055116475	-0.692143867750065	-0.71303630597601	-0.692042123317031	-0.712951372172993	0.0037444619942915	-0.000903905109715442
1.6	-0.00088803840080934	-0.00485979381589051	-0.79423449879665	-0.596674351655405	-0.79416044455312	-0.596614353954869	0.00372840849352692	-0.0022166928674366
1.7	-0.000938312333779058	-0.00454747428019255	-0.876640456610787	-0.466574092673137	-0.876804599638057	-0.466058112208845	0.00329151482136373	-0.00322717601935601
1.8	-0.00123222038960648	-0.00441801087335861	-0.938470373711705	-0.324398202727469	-0.938359156570889	-0.324396856998842	0.00235907218741285	-0.00405926123762838
1.9	-0.00160099720194457	-0.00428817059695171	-0.977210165325413	-0.175208208574418	-0.977302940348882	-0.174720792662572	0.00134613856115845	-0.00442272554886397
2	-0.00245349057184787	-0.00424617595309099	-0.992241440823045	-0.020793212747918	-0.992253356860962	-0.0207473747737724	0.000528508130312726	-0.0046286766435208
2.1	-0.00320445454126005	-0.00343362644513488	-0.983263730112043	0.133357567174087	-0.983301808822885	0.133394652528342	-0.000296645087646549	-0.00462495136070056
2.2	-0.00372531484360695	-0.00283921034273131	-0.950654214992848	0.284226977756012	-0.950579141397861	0.284289737195533	-0.000943355187199564	-0.00456215351059253
2.3	-0.0042100227275774	-0.00220593579455963	-0.89511169884065	0.427695816887675	-0.894729535879696	0.428208752376962	-0.00172639149416133	-0.00454742167012732
2.4	-0.00473872306739672	-0.00166159988790509	-0.816943638114678	0.562427024002229	-0.817210314546179	0.561841504863502	-0.0026176301016688	-0.00431197662705974
2.5	-0.00539505662968832	-0.00109965085543952	-0.719972736102046	0.682151995172503	-0.720186399622439	0.681642435796574	-0.00305234576619173	-0.00416253112617668
2.6	-0.00616110030175416	0.000124163591249686	-0.605772006478033	0.785258312722534	-0.605665969654097	0.785075631514731	-0.00324841336218382	-0.00388370110237869
2.7	-0.00608084458698167	0.00154739316241228	-0.475946910075165	0.8699062277998	-0.476395959038555	0.86949960165901	-0.00336673074251809	-0.00377155617027609
2.8	-0.00532145348962497	0.00269783490765001	-0.336381051912901	0.932642090965148	-0.335713556841252	0.932800581301859	-0.00361506946038586	-0.00360273824888897
2.9	-0.00388595237434104	0.00341764706446677	-0.186992468494087	0.973490008353143	-0.187023740001881	0.973402690275372	-0.00333638721407233	-0.00296901111602413
3	-0.00236482690033619	0.00364762910393857	-0.0328930520175092	0.990758767001088	-0.0335939629509928	0.990600582399019	-0.00273292418718951	-0.00238855164419032
3.1	-0.000540161622793288	0.00351163846170628	0.119909611293844	0.983754329130111	0.120500062994027	0.983736142964278	-0.00177763334207216	-0.00212371414100522
3.2	0.000838096825271684	0.0026314766826206	0.271636089919172	0.952954959975369	0.271581270643991	0.952894710847884	-0.00125241292573413	-0.00215726184888305
3.3	0.00201738672169367	0.00151317553346033	0.416341640043761	0.899112544789364	0.416204516966904	0.899098445430811	-0.000554236736002342	-0.00221086805584447
3.4	0.00261377998901231	8.95283515617214E-05	0.550778885989076	0.823591543041343	0.550616795924699	0.82370954855529	0.000287021597525662	-0.00270519099849089
3.5	0.00276431410615366	-0.0011838728520642	0.671915188272856	0.728165071601806	0.671835656271602	0.728203893178152	0.000901272942800628	-0.00335934810366908
3.6	0.00273248012281064	-0.00218678287122694	0.776214646402246	0.61541509825861	0.776455033356533	0.614966365602688	0.00121557208537159	-0.00421736266645938
3.7	0.00261304340539323	-0.00346842326396181	0.86255597581593	0.486904778326084	0.862437888541068	0.487047955687734	0.00119241390591063	-0.00502616512953085
3.8	0.00193960250925784	-0.00472880150422871	0.927429629657366	0.347657646554407	0.927485958793581	0.347278538530711	0.000891514993598192	-0.00581383734189412
3.9	0.00113192086823735	-0.00596838421553325	0.970285164077362	0.198287263543864	0.970047680017474	0.198954768007375	4.15356728478773E-05	-0.00671654151361257
4	-0.000670323626499476	-0.00698188732914497	0.98912066988489	0.0460178360663711	0.989081877887477	0.0461207032082091	-0.000685827765695085	-0.0072948320697198
4.1	-0.00248322370824922	-0.00710799482280644	0.984315297822854	-0.10789707992711	0.984131057787768	-0.107769769316466	-0.0014894494748734	-0.00793499277852391
4.2	-0.00435302054288731	-0.00695496328350705	0.955293481659396	-0.260004526644307	0.955329345503223	-0.259351164941143	-0.00257893674458005	-0.00852040283241448
4.3	-0.00609917455934894	-0.00664451220953343	0.903600468469927	-0.404482025406945	0.90346483578469	-0.404370794981947	-0.00388836869784808	-0.00906765766740966
4.4	-0.00790392168735715	-0.00601817281581745	0.82977884912967	-0.539712800858801	0.829613937290827	-0.539579352269908	-0.00541027675538475	-0.00933957755816407
4.5	-0.00985891579208723	-0.00547205373916322	0.736040902923215	-0.661808504864583	0.735852417974025	-0.661635280316523	-0.00693478896710143	-0.00945909829672252
4.6	-0.0122892193554667	-0.00385700218247264	0.624013125160052	-0.768505670628321	0.624355470854728	-0.767808456614693	-0.00864039745193894	-0.00947484309991864
4.7	-0.0140539169849087	-0.00167926590812257	0.497532276841481	-0.855799460859115	0.497549045166889	-0.8554438071983	-0.0105903147480333	-0.00934777985698703
4.8	-0.0152390676950161	0.00120529069623025	0.358387246706052	-0.922462050839674	0.358608970168109	-0.922145958676901	-0.0124464879629192	-0.0086931757523268
4.9	-0.0152353013925937	0.00411546412823058	0.211335049609512	-0.966311909509039	0.211115136599159	-0.966319516023322	-0.0138054699585349	-0.00756860897721828
5	-0.0144266137930931	0.00693481694375097	0.0586761362217928	-0.987421489512417	0.0588534689850481	-0.98717636413525	-0.0144306781269164	-0.00596708790547079
5.1	-0.0123651385439943	0.00937653310477381	-0.0952264601983387	-0.984617410338782	-0.0948947024929503	-0.98439246259951	-0.0145374077247893	-0.00446915640280202
5.2	-0.00977540740418163	0.0111090020974133	-0.246980656677646	-0.957823064514485	-0.246488876702067	-0.957796659121328	-0.0146019630147953	-0.00285125825791462
5.3	-0.00704482535984697	0.0118970129059483	-0.392556980036745	-0.907890512962607	-0.392216560857635	-0.908106919587356	-0.0141977818954549	-0.00118807121222946
5.4	-0.0045770836231391	0.0122849075497667	-0.528762656266307	-0.836053358747713	-0.528550077494001	-0.836254221587336	-0.0135230533565838	0.000375182824532671
5.5	-0.00270396226316758	0.0126540404813038	-0.652281542424634	-0.743718086561335	-0.652042779679013	-0.74391298021863	-0.0126438326074817	0.00155429640624945
5.6	0.000101172266322109	0.0134739604364587	-0.759511183956397	-0.633262871868642	-0.759321665495127	-0.633434812901079	-0.0118484478793029	0.00232490554165482
5.7	0.00306124611071662	0.0129724380156341	-0.848543281122291	-0.507725551001014	-0.848414130501762	-0.507945364917754	-0.0114268116008641	0.00324736396195507
5.8	0.00569089567909271	0.0118293866830612	-0.916915183383992	-0.369775026706802	-0.916847492395783	-0.370059908199273	-0.0109475367431113	0.00438553962073845
5.9	0.00773807677197031	0.00966292456731012	-0.963167701420676	-0.223072684996796	-0.963182202137741	-0.223156272823264	-0.0103844818661409	0.00554886764565788
6	0.00818032478268991	0.00730020345869471	-0.986012331560165	-0.0709057610673895	-0.985893172401413	-0.0709638126780733	-0.00973091223312563	0.0067706435779874
6.1	0.00823397893458838	0.00618418945867355	-0.984973153386034	0.082813346696543	-0.984846632478058	0.0826649472727223	-0.00871586558850716	0.00773402013537261
6.2	0.00858890094973238	0.00513387498942928	-0.960124860897124	0.234742743430722	-0.960111220096044	0.234540061459317	-0.00782667445248671	0.00835322618712133
6.3	0.00896592719739039	0.00367138370764373	-0.912021205800959	0.380916874282512	-0.912016743963601	0.380731673159825	-0.00677418681749651	0.00865607972373441
6.4	0.00920184787666843	0.00164162406219693	-0.841743973830605	0.51784405329751	-0.841712402389693	0.517633556032922	-0.00583748668967733	0.00846658062901124
6.5	0.00868547106198167	-0.000835114049495286	-0.7511158736331	0.642015883726954	-0.751140056235156	0.641811991678721	-0.00507260445564902	0.00799821021773524
6.6	0.0078387034628207	-0.00306831002901982	-0.642413569482537	0.750951019991973	-0.642487488954099	0.750699093589358	-0.00447422990037919	0.00760563060816533
6.7	0.00627069093658995	-0.00520213921179111	-0.517878934654691	0.841512787572264	-0.517981793536045	0.841291850756094	-0.00407966397666385	0.00738274215813276
6.8	0.00436454613137404	-0.00663977874942311	-0.380896782262248	0.911601231587198	-0.381038402552548	0.911430731209208	-0.0036212724620736	0.00745776903844578
6.9	0.00219158539993488	-0.00752061250499169	-0.234779863218489	0.959471145780072	-0.235006336542097	0.959360970443832	-0.00280161114867783	0.00755577701868354
7	0.000261663815853163	-0.00760146386405798	-0.0831165983385879	0.984277922469672	-0.0833262881236415	0.984188303730527	-0.00179229585239229	0.00732006260984525
7.1	-0.00134257590867454	-0.00744580245452237	0.0708414886014034	0.985138913689753	0.0706395872503318	0.985005941814726	-0.00090285209309759	0.00695749527355769
7.2	-0.00278852482377594	-0.00710833498406646	0.222842273421299	0.961975491910525	0.222560434251076	0.961941172834257	9.48481159492122E-05	0.00666989398123371
7.3	-0.00429290886819816	-0.00660123862583169	0.369283874113745	0.91562574163684	0.369048094536532	0.915652103084359	0.00104577891418483	0.00615901012594003
7.4	-0.00551908164047179	-0.00576200814359017	0.506833313496537	0.847188586393384	0.506620162116573	0.847239794891159	0.00172983196452712	0.0054582557509955
7.5	-0.00664981379833555	-0.00466717533217031	0.632256079310409	0.758111110532384	0.632086754525538	0.758180835527002	0.00247810917073122	0.00483990727565604
7.6	-0.00679202979866325	-0.00321668442816768	0.74205126846356	0.650538807807235	0.741794070986081	0.650621315427397	0.00338991407897116	0.00371715809887829
7.7	-0.00649177430811989	-0.00215664323591346	0.833757836908868	0.527469845581162	0.833572679921117	0.527686878769147	0.00374593035024429	0.0025049739418844
7.8	-0.00583638297881328	-0.00142206078891721	0.905446317886256	0.39161247544024	0.905343510727498	0.391837691133179	0.00391084107790069	0.00131641511676678
7.9	-0.0053791979818029	-0.00114862160869445	0.955180567131854	0.246416696990746	0.955042705348918	0.246596246982613	0.00382244067081332	0.000432673302500108
8	-0.00557190721114088	-0.00100914656618557	0.981429394652302	0.0951427295943083	0.981406439205466	0.0954051878643301	0.00351055193098802	-0.000306980183605952
8.1	-0.00570189326951806	0.000406852603412591	0.984321537719155	-0.0580415823862975	0.984350395345884	-0.0577862510534047	0.00316946030838199	-0.00109448737938462
8.2	-0.00492316007915385	0.00161756361818832	0.963373434682583	-0.210078168169777	0.963421640692623	-0.209761330397934	0.00221040484567516	-0.00187067678190759
8.3	-0.00397967162305167	0.00267560498737975	0.919056980364793	-0.357021410496636	0.919108196777375	-0.35673443795818	0.000950208081275776	-0.00206775778016494
8.4	-0.00246723381303571	0.0033239288027934	0.852415150836045	-0.49531703472176	0.85251280580098	-0.495115146937129	-0.000240584736231253	-0.0017264669176404
8.5	-0.00147275255165773	0.00313845856053526	0.765269192982631	-0.621314801519503	0.765320455106554	-0.62116413346085	-0.000987379296648248	-0.000928461858319828
8.6	-0.000592808576638913	0.00376936907663691	0.659470952906957	-0.732692770824924	0.659639252575477	-0.732455627489426	-0.000983404731146198	-6.32226669057048E-05
8.7	0.00101605013521555	0.0042189507103333	0.537522800699281	-0.826068779883048	0.537781826104672	-0.825853277771682	-0.000800337435224614	0.000493602650477904
8.8	0.0031595838207271	0.00412149413962678	0.402804705984104	-0.899306256802388	0.402989875542816	-0.899167147486333	-0.00064875550414216	0.000961049580626083
8.9	0.00554796635529488	0.00325734651359034	0.258387074909621	-0.950794336907093	0.25856602251939	-0.950624262221047	2.43367820025796E-05	0.00175166423310414
9	0.00788964033131949	0.00110413336860343	0.10765104038904	-0.979271043273632	0.107959221516228	-0.979224351772974	0.00160308285973225	0.00233838129856552
9.1	0.00957007015087579	-0.00155254171221927	-0.0457175320458811	-0.983881725437838	-0.0454085262875051	-0.983840679413256	0.003857615516248	0.00203752362804195
9.2	0.0103607016538392	-0.00477686198690945	-0.19780226153368	-0.96455867737632	-0.197454899291564	-0.964536285917202	0.0060572775531528	0.000838376748317649
9.3	0.00990859742031126	-0.00751128304416863	-0.344888410784765	-0.922062217513536	-0.344536738036786	-0.922036525658149	0.00802517443571746	-0.000898908882472676
9.4	0.00890409236134463	-0.00976432882444073	-0.483562353771625	-0.857442984043916	-0.483239310888675	-0.857533571718753	0.0096089566606094	-0.00329713698105043
9.5	0.00688691325261245	-0.0105476111837336	-0.610735635908575	-0.771855531215869	-0.610498790164671	-0.771905643483968	0.0101732849046546	-0.0063302437728669
9.6	0.00642853703305263	-0.0104114993054513	-0.72283360478803	-0.667544027746979	-0.722522112768248	-0.667682401816289	0.00953156170312291	-0.00959058318670745
9.7	0.00612088132206012	-0.0107361812643087	-0.817443983858403	-0.547397649799094	-0.817156425617907	-0.547630183499965	0.00716638989486046	-0.0124752997745181
9.8	0.00573689203477946	-0.0112476492441115	-0.89240132734142	-0.414041948901312	-0.892147981038577	-0.414210549321596	0.00384762961063415	-0.0141720290144287
9.9	0.00515545567626127	-0.0118150884850191	-0.945853662386156	-0.270565032698983	-0.945601190004306	-0.270773479889107	0.000300012332211034	-0.0145175191058771
10	0.00343311695041185	-0.0123053246337479	-0.976090093580826	-0.120471992213433	-0.975936125841038	-0.120833986497739	-0.00300966406444962	-0.0138323620521784
10.1	0.00236306057344932	-0.0110385091087853	-0.982888066864219	0.0321914725821221	-0.982824037936717	0.0317602066915664	-0.00594679808996433	-0.0126174000021747
10.2	0.00235285285256682	-0.0104071098778458	-0.966112843814592	0.184354545641948	-0.965990499051201	0.183923594090239	-0.00891639213067997	-0.0107335746703164
10.3	0.00241848584453357	-0.0101328091420797	-0.925698364100883	0.332125009741858	-0.925715212133334	0.331583613585346	-0.0114605150916552	-0.00805765750406865
10.4	0.00259920976024742	-0.0107973422035418	-0.862696600977781	0.471580007127596	-0.862832800375835	0.471068761702145	-0.0130439012687585	-0.00494390176784633
10.5	0.00176894179274066	-0.0120019379793333	-0.779111974499262	0.599343087786892	-0.77928449326373	0.598911138099499	-0.0133475847980879	-0.00193484508728915
10.6	0.000185463931781289	-0.0125721672434346	-0.67679828622714	0.712929496976112	-0.677070391076678	0.71259948402542	-0.0129452954096048	0.0006344354141375
10.7	-0.00144026294073786	-0.0122003212227249	-0.557958911267334	0.80924832297663	-0.558259198058968	0.808938955075602	-0.0120898924630335	0.00312144122404139
10.8	-0.00249183178777334	-0.0115375649260018	-0.425627482581664	0.885869766964417	-0.425977921662397	0.885571581035822	-0.0105903754545494	0.00551025612025106
10.9	-0.00320421153254303	-0.0106721467914044	-0.283182574525369	0.941045612918534	-0.283572487273744	0.940922592899986	-0.00855713564905435	0.00754086619919756
11	-0.00360888673222154	-0.0101154343315822	-0.133805411492788	0.973791073114397	-0.134242173914217	0.973700310801151	-0.00577476763137808	0.00889204385982407
11.1	-0.00361070184749294	-0.00951911999429553	0.0191478524422679	0.982488823599274	0.0186594308449017	0.982502199107071	-0.00275453725650762	0.00936012090052788
11.2	-0.00354195570935951	-0.00953825974551033	0.171211473839141	0.967459730031586	0.170754730153435	0.967532638414811	0.000340967381722192	0.00909392915291277
11.3	-0.00360717669634752	-0.00970108293236421	0.319024205734431	0.929189316280463	0.318565527176005	0.929325674817401	0.0034909778651867	0.008273065699547
11.4	-0.00407984443672062	-0.0102720769228895	0.459266664501588	0.868583703349341	0.458863124653311	0.868696638624249	0.0064386826602241	0.0069914523324238
11.5	-0.00538582214353175	-0.0100356405343652	0.588563102103248	0.786557350862848	0.588244763395025	0.786859327044153	0.00911012048441638	0.00500373591178354
11.6	-0.00575443708591069	-0.00935868359127352	0.703044807063558	0.685637667965965	0.702829665592134	0.685964943034677	0.0110032386184682	0.00218028936986041
11.7	-0.00590426115305472	-0.00907067890578365	0.80077921408621	0.568439593616474	0.800576120638576	0.568745646407291	0.0118018039727453	-0.000730159116117944
11.8	-0.00631539310980483	-0.00927076088114092	0.879341644313986	0.437291950880335	0.879159824086653	0.437742127403571	0.0117560119779695	-0.00349541015464663
11.9	-0.00667279004366323	-0.00986474399951037	0.936575422470768	0.295593522639555	0.936469503434653	0.296042884543378	0.011366057123715	-0.00572469329622373
12	-0.00986620556173745	-0.0103182785600049	0.970885130627057	0.14683690533774	0.970856213705453	0.14720089111162	0.010174324419278	-0.00793523725449564
12.1	-0.0122238216373503	-0.00874542851326506	0.982016637910426	-0.00532013446157638	0.981945477278483	-0.00493588079792826	0.00893769446452266	-0.0104173840830091
12.2	-0.0141864868391699	-0.00666465178970852	0.969434829683522	-0.157753331171794	0.96945213207886	-0.157455496521976	0.006382261160345	-0.0121847266481966
12.3	-0.0153811699183746	-0.00387436420451635	0.933018245939589	-0.306322112094989	0.93313754062104	-0.306015585826109	0.00365257310475117	-0.0129874727576755
12.4	-0.0156999069798141	-0.00123556369094656	0.874229451474211	-0.447346280768096	0.874292373110151	-0.446976847861725	0.00105575966492167	-0.0129769908233767
12.5	-0.0156738124563243	0.000956467128708338	0.794261828246448	-0.577327405308623	0.794601776393769	-0.576936912074182	-0.00110152971843037	-0.0124094000929188
