# GHZ S RI R 50
0.2	-0.000151376718833562	-0.000601529039125904	0.950708240335347	-0.307532593635975	0.95048564219593	-0.307507323906004	-0.0001766343514148	-0.000470668946786968
0.3	-0.000535619441571951	-0.000579847363975518	0.891213706018726	-0.451415803296633	0.891057126391124	-0.451320432689167	-0.00063802535617401	-0.000598334871025693
0.4	-0.000772022643217046	-0.000354443958631108	0.810243480674433	-0.584228328768879	0.810255330570831	-0.584253488496294	-0.000991855327327516	-0.000378496300635679
0.5	-0.000647302205932386	0.00031010130193702	0.709454558695298	-0.703591985676863	0.709299031022573	-0.703490356233018	-0.000825407579287103	0.000292381980147805
0.6	-0.000197028902893952	-6.10826280702391E-06	0.591092604000147	-0.804886876641972	0.590972930196289	-0.804724843986723	-0.000490082503663773	-7.68571350169571E-05
0.7	-0.000379772939719129	-8.16133890029426E-06	0.458949492903648	-0.886743581822844	0.458930580166078	-0.8866307861592	-0.000694521834825442	-0.000204641630587957
0.8	-0.000365164209922954	-6.40417337329847E-05	0.315553841106318	-0.947410514421331	0.315522249008747	-0.947220202600578	-0.000896190715593671	-0.000129258497053483
0.9	-0.000791963533144849	4.85519893912748E-07	0.164196727851737	-0.984932163998696	0.164131443156426	-0.984839956349724	-0.00142881870858833	-0.000108147293875362
1	-0.000910427351709325	0.00130051002676425	0.00896037437923983	-0.997734626720654	0.00890857419762548	-0.997703065669471	-0.00158339782928255	0.00118683367249184
1.1	0.000825233156050998	0.000980183126406475	-0.145575425424412	-0.987254047685645	-0.145591278429116	-0.987123194146121	-0.000247008272836842	0.00083561788609829
1.2	0.00132153607681906	-0.000779018687692332	-0.297567230175082	-0.952732471895182	-0.297490584531713	-0.952706274589026	7.66803913234728E-05	0.00022551647575945
1.3	0.00146216798374723	-0.00322929086637844	-0.44217758137371	-0.894695301411878	-0.442154461498532	-0.894688668802448	0.00107156990903783	-7.6635900161753E-05
1.4	0.000937046693342191	-0.00565780896543729	-0.575509331109549	-0.814771515241982	-0.575485059563659	-0.81474981852896	0.00218409406550261	-0.000767463553204257
1.5	0.00113884316645575	-0.00715275879029792	-0.694749088542941	-0.715778043998826	-0.694646960351438	-0.715692782808021	0.0040830507629294	-0.00210128998918684
1.6	-0.000946690322778005	-0.0083587140926052	-0.798210314170183	-0.59918982146404	-0.798135887570223	-0.599129568593415	0.00255574530145053	-0.00370210272162699
1.7	-0.00230373956683605	-0.00716116360832621	-0.881324293472184	-0.467888028154363	-0.881488681220418	-0.467369406597064	0.00171341504506524	-0.00338018321432914
1.8	-0.003153194074412	-0.00603004386523977	-0.943324574968692	-0.324599862033017	-0.943212834700703	-0.324598666264028	0.00100237326259447	-0.0033392340710356
1.9	-0.00362291110555124	-0.00430198285239948	-0.982043886696979	-0.174648331698369	-0.982136407750702	-0.174158497189068	0.000411028098442677	-0.00268673339665296
2	-0.00193849647948694	-0.00348786582663586	-0.997840971220923	-0.0191872206472427	-0.997852874535514	-0.0191411049592924	0.00173344186866619	-0.00285176705392406
2.1	-0.00285040080473504	-0.00490183428419574	-0.988148078999342	0.137057478096458	-0.988186250047846	0.137094878481075	0.00030398109399932	-0.00464630077028781
2.2	-0.00448991044448775	-0.00427715062737135	-0.954378425385278	0.288832146058315	-0.954302770403653	0.288894961530475	-0.00107068904287288	-0.00425965706197668
2.3	-0.00563443209937972	-0.00314422075148806	-0.897886045363524	0.432967096162502	-0.897500201826499	0.43348112954534	-0.00196458136906828	-0.00393854882721086
2.4	-0.00676108031792124	-0.00138467416167954	-0.818841384549007	0.568511726687704	-0.819111732400917	0.56792430602828	-0.00298659135662454	-0.00324824439761855
2.5	-0.00556102519147363	0.00112563867791232	-0.719829754881108	0.689358408842928	-0.720047201984868	0.68884750448913	-0.00206287449219642	-0.00252905795681806
2.6	-0.00462292395246131	0.00060945837331182	-0.603659569275032	0.79146641533709	-0.603554151430544	0.791282482151559	-0.00202860422869223	-0.00414601488253732
2.7	-0.00476812609003849	0.000858196959448983	-0.472851778228344	0.875502079712062	-0.473304592432837	0.875096495669614	-0.00320611296065861	-0.00452269184238791
2.8	-0.00453057807322377	0.00140343312591757	-0.332116044481046	0.937703983675596	-0.331445401951751	0.937859146551971	-0.00422003891961683	-0.00415275542409767
2.9	-0.00346793385794527	0.00197423528506033	-0.181213610051505	0.97764788727166	-0.181245544962294	0.977560509327799	-0.0042436261722445	-0.00304253751422839
3	-0.00208189470352815	0.0016171759885472	-0.0262177350281093	0.99250558862096	-0.0269207976357767	0.992351919011958	-0.00370017110419207	-0.00243864892148555
3.1	-0.0014456409551367	0.0014700927684262	0.125956542354628	0.984499830001925	0.126547762369362	0.984478094327193	-0.00340039553656726	-0.00162667639732906
3.2	-0.00041809911270686	0.00127186788138517	0.278056864283605	0.952697545949938	0.278001581601558	0.95263755036543	-0.00260386324326405	-0.000881224366471125
3.3	0.000746374370542311	0.000779757852487694	0.422831410693662	0.897287549170998	0.422694044699542	0.897274355697168	-0.00153314546118793	-0.000509234703507695
3.4	0.00187076680777928	0.000133847391703756	0.556518165426749	0.819936858676556	0.556356860597413	0.82005599521007	-0.000100420941362458	-0.000621289142666729
3.5	0.00344501421389009	-0.0019006105473741	0.675951309250612	0.724116201678462	0.675872020199741	0.724155472409047	0.0013840484406712	-0.00205506265436599
3.6	0.00233752997111693	-0.00390438687031877	0.780384513382463	0.610880286114214	0.780622226307426	0.610429858533945	0.000724457878998267	-0.00322202598753532
3.7	0.00159802853946662	-0.00472312028842065	0.865756998281469	0.481049535143508	0.865639886344786	0.481193494886507	0.000672655625180312	-0.00343760304382575
3.8	0.000654051965553013	-0.00540128857400387	0.929075419853214	0.341124975517079	0.929129143739312	0.340745774573309	0.000605406532377381	-0.00395697832217313
3.9	-4.75202199209116E-05	-0.00545504991483698	0.970389362832622	0.191964220757988	0.970156347477603	0.192632431289877	8.95237193782829E-05	-0.00446210962124602
4	0.000499840036325348	-0.00606907373681764	0.989078083259996	0.0396881332212822	0.989039961106097	0.0397912130130815	0.000800942595773631	-0.00552506399008138
4.1	-0.00124398268502188	-0.0082599881427143	0.982298302267955	-0.115211018150046	0.982115250004314	-0.11508246922213	-0.000928856485911552	-0.00763240889437958
4.2	-0.00390782328092638	-0.00851882111153444	0.951277054900982	-0.266504583343838	0.951317675315667	-0.265852918045406	-0.00286833764971766	-0.00798503948922701
4.3	-0.00634348426513745	-0.00822913867712905	0.898342864755431	-0.409812952240291	0.898208379148585	-0.409701055355413	-0.00463420484392559	-0.00822481806671587
4.4	-0.00905680853051472	-0.00675941045078916	0.823843734476654	-0.54414067841445	0.823680185996716	-0.544006417568223	-0.00661825971639896	-0.00779474789709474
4.5	-0.0097050574454625	-0.00431330264908441	0.728214403566011	-0.665796398589451	0.72802795388498	-0.665622164765435	-0.00713806819392021	-0.00693236391515616
4.6	-0.0105880779724261	-0.00385730017470153	0.614997116435748	-0.769470770977971	0.615343113824624	-0.768779662851915	-0.00853263787132385	-0.00790293652933601
4.7	-0.012148014257939	-0.00257244687320943	0.488897948352914	-0.85462586785869	0.488917095908324	-0.854272254306054	-0.0108522320728332	-0.00778818859524673
4.8	-0.0133666399194665	-0.00050801327221783	0.350193485101064	-0.919606163762448	0.350416056467651	-0.919293349087594	-0.0128279469320503	-0.00701943250631779
4.9	-0.0137038254063248	0.00186017152428339	0.203350105409283	-0.96175796146922	0.203131508255725	-0.961764002708933	-0.0141996126661469	-0.00563897967077339
5	-0.0129334842641979	0.00386308933767743	0.051906769065955	-0.979758977500774	0.0520842204860689	-0.979516977099018	-0.0145323333612463	-0.00411568492980286
5.1	-0.0124208280905054	0.00563087226586964	-0.0990232396042133	-0.976225203433499	-0.0986931176986112	-0.97600361048647	-0.0150797051176148	-0.00237693119789279
5.2	-0.0110374063989242	0.00807482022941975	-0.24916034786143	-0.949146964901265	-0.248672360020582	-0.949122895647225	-0.0147452050575507	-0.000200182408914523
5.3	-0.00876084082850524	0.0101262942918299	-0.392988168101905	-0.898707805909568	-0.392651474749098	-0.898923796387615	-0.0137041864988326	0.00157478426819004
5.4	-0.00531465239009255	0.0121253073880186	-0.526774403896299	-0.826469796760314	-0.526564492996601	-0.826669538893211	-0.0121690249840788	0.00305894986691527
5.5	-0.000772433704307343	0.0108231439072654	-0.647297472640059	-0.735871292265987	-0.647061208100341	-0.736064720612716	-0.0104820405032929	0.00211782028790247
5.6	-0.000282243718688637	0.00976540664402467	-0.754225821813583	-0.626958760876187	-0.754038108436017	-0.627129573387146	-0.012213085650568	0.002518837321567
5.7	0.0011722669116242	0.0101644118023824	-0.84205937883833	-0.502144311387498	-0.841931653794397	-0.502362442134549	-0.0122887758752224	0.00461696804156404
5.8	0.003048821239001	0.0104494311798598	-0.909038660561419	-0.365629946498832	-0.908971834733444	-0.365912337896671	-0.0117283615253276	0.00648121880859824
5.9	0.00543489158359784	0.0109663828047216	-0.9544013060332	-0.221302480666908	-0.954415654272918	-0.221385316378741	-0.010705068957522	0.00861615029219419
6	0.0104853738439573	0.0095070084320414	-0.978461250367898	-0.070934867085306	-0.978342965425267	-0.070992407675614	-0.00783633005373932	0.00915553094185695
6.1	0.0114432074325452	0.00490033469386163	-0.97674557916981	0.0823205540998865	-0.976620142790029	0.0821733665443647	-0.00822550567272707	0.00831078343190061
6.2	0.0110684786799833	0.00233468099102098	-0.951654558717261	0.23205332466619	-0.951640917071728	0.23185246932005	-0.00830151526225664	0.00939720893039366
6.3	0.0103007829430131	-3.43699197562386E-05	-0.904459585012081	0.376124303127139	-0.904454880362051	0.375940762435083	-0.00753575760274086	0.0102208432689479
6.4	0.00925413276271449	-0.00186760840321262	-0.835898426055997	0.511833082722984	-0.835866676176479	0.511624382483313	-0.00652828749365276	0.0106599335997974
6.5	0.00832481710987899	-0.00400440979977699	-0.745501846396858	0.635802009198209	-0.745525603755366	0.635599804549075	-0.00517576288728307	0.0102786821814409
6.6	0.00669152828845919	-0.00567317760044003	-0.637954657704796	0.742177647394641	-0.638027271539623	0.741927986320722	-0.00440272967969673	0.00988198959725609
6.7	0.00520084623227015	-0.00691965276605011	-0.516024077052681	0.83184492454056	-0.516125197821172	0.831625683131239	-0.00364489890098933	0.00943539365355564
6.8	0.00377053672325112	-0.00792642116610165	-0.381241785211914	0.902022464878773	-0.381381465371348	0.901852891870119	-0.0032233454401926	0.00908468659419789
6.9	0.00229807661111185	-0.00875898520910537	-0.236521015897426	0.950217654220869	-0.236745089316674	0.950107543275507	-0.00263571592966536	0.00898755785116666
7	0.000645361009956384	-0.00977135268064458	-0.0870379749377698	0.973913203930232	-0.0872451086150066	0.973823477718888	-0.00221508985905609	0.00837847963319023
7.1	-0.0016375223751732	-0.00966039284037719	0.0634503647603372	0.976633704059951	0.0632512163851582	0.976500563364222	-0.0020360839432407	0.00871399111947012
7.2	-0.00315478333686422	-0.00909957249249709	0.214085997823807	0.955680307803516	0.213806720222773	0.955644241251919	-0.00101971228896806	0.00906738605856622
7.3	-0.00460652639615302	-0.00847724958036897	0.359537474372428	0.911124860015785	0.359303365853789	0.911149256061055	9.53632583486624E-05	0.00908100907479739
7.4	-0.00555320144992425	-0.00748862929172594	0.495759667837404	0.844316610534452	0.495547859615802	0.844365662880043	0.00125506035471942	0.00888644325186474
7.5	-0.00595890983423059	-0.00726719637799459	0.619684816907481	0.759106646234494	0.619516015115057	0.759174091158575	0.00270361232134929	0.0079600613965302
7.6	-0.00742400708552603	-0.00683710649265555	0.731382833604242	0.654658942943564	0.731126172008465	0.654738366507528	0.00321747535810064	0.00685423086680194
7.7	-0.0083825966915778	-0.00522369748881146	0.824271320909782	0.533293953447917	0.824084885679026	0.533508032511813	0.00390592392735533	0.00610687454907578
7.8	-0.0084505953223179	-0.00324051340555034	0.897117247251336	0.399393218329045	0.897012529694734	0.399616305118236	0.0046097027214711	0.00498949910758446
7.9	-0.00766248501351526	-0.000674782444821807	0.948662768896036	0.256616028789213	0.948523339137222	0.256793286038209	0.00517062646075145	0.00402348129360495
8	-0.00369405323823017	0.000242808944229218	0.979034122346966	0.106280758342194	0.979008185022717	0.106542604620858	0.00644518161521789	0.00187943008253611
8.1	-0.00309717302426465	-0.00154664932339132	0.983498918367694	-0.0478685294168853	0.983525117252367	-0.0476132699979198	0.00395978636574462	-0.000989366592212693
8.2	-0.00318557709064903	-0.00157926566136933	0.964290292859106	-0.199511022992905	0.964335052225028	-0.199194106509395	0.00133294859656128	-0.0011457242356161
8.3	-0.00331025788033899	-0.00120207574362385	0.92248235101375	-0.346551423684077	0.922530334775251	-0.346264053895458	-0.000786481416523384	-0.000476119841892865
8.4	-0.00344208920244222	0.000112027115120066	0.858684041333706	-0.486266453513241	0.858779535329394	-0.486063299817064	-0.00255237653507775	0.00124259177768573
8.5	-0.000684552480695074	0.0020745522635462	0.77193425257117	-0.614879193678522	0.77198416702526	-0.614727876415792	-0.00158905173833265	0.00332007653250508
8.6	0.00133058612951865	2.36025129369969E-05	0.667164077315599	-0.726197686856104	0.667330010593639	-0.725958748689162	-0.00173535023367286	0.00293552901796558
8.7	0.00153517820917088	-0.000881018800356297	0.54715493217168	-0.82131461074267	0.547411958674332	-0.821096027909937	-0.00208952757125453	0.00432263719570897
8.8	0.00194028334211567	-0.00142214328444989	0.413372364331452	-0.897096675920543	0.413556477683796	-0.896955259405989	-0.00143426894339056	0.00567811792734616
8.9	0.00223861132405857	-0.00154520773716979	0.268486797888893	-0.951028873471556	0.268664595913252	-0.950856543573217	0.000119130857238313	0.00698623392797302
9	0.00409158806519299	-0.00171091009434358	0.117886585124207	-0.979896717592277	0.118194831715087	-0.979846782285828	0.00313500675807613	0.00746561509731463
9.1	0.00557535180969666	-0.00315147756411123	-0.0345054854195881	-0.987850861318751	-0.0341958734868721	-0.987806100195218	0.00583448590071763	0.00637442848278119
9.2	0.00717581704292132	-0.00466746619923665	-0.188195384846549	-0.971427277115421	-0.187846575141727	-0.971400969653645	0.00860536832270387	0.00452950726579552
9.3	0.00837527764104643	-0.00655412462554624	-0.337314645160518	-0.930611166690515	-0.33696132319407	-0.930581731061608	0.010618735121377	0.00173506303941335
9.4	0.00960271142642132	-0.00813987814291739	-0.477450477345957	-0.866759950023073	-0.477124845478065	-0.866847759176354	0.0118976194993862	-0.00112840662207724
9.5	0.0109932051189891	-0.0123108664418689	-0.605661441109929	-0.783941204123807	-0.60542248780906	-0.783988876355064	0.0120840516817368	-0.00621043373919032
9.6	0.00778446330000676	-0.0150910877147514	-0.722162459856732	-0.680743159026683	-0.721846861066658	-0.680879509231011	0.00842839828395813	-0.00868826577274493
9.7	0.0056443451709376	-0.0151286756406324	-0.819709355035316	-0.559854793725515	-0.819417071978534	-0.56008675364602	0.00596092935468024	-0.00979835576675901
9.8	0.00401055459707574	-0.0147659028456185	-0.896974818032884	-0.42576564736926	-0.896717639943806	-0.425933561399054	0.00311687043079631	-0.010679235700752
9.9	0.00304115530879485	-0.0128215803850997	-0.95289354341727	-0.281954754404789	-0.952636620238987	-0.282162985997674	0.000324169222706708	-0.0103082041119213
10	0.00544655851838191	-0.0129574948020871	-0.987458245244445	-0.129651337134232	-0.987299494625352	-0.130016689704456	-0.000966675585174684	-0.0110786770984203
10.1	0.00359489595836896	-0.0149859875095981	-0.9949703535786	0.0269876822347274	-0.994903095139746	0.0265515598112794	-0.0060816074851115	-0.0112188797865989
10.2	0.00179117897377497	-0.0145332713805388	-0.97867701049166	0.181435251269946	-0.978550910240784	0.180999781571511	-0.00978069287358847	-0.00835575643870278
10.3	0.000473507563426638	-0.0135179200210103	-0.938997070393758	0.331773663569156	-0.939011476465596	0.331225359369864	-0.012229682295199	-0.00519734498763773
10.4	-0.000312626638223491	-0.012106431154081	-0.876518204970937	0.474859637334267	-0.876654351450505	0.474340747732905	-0.0136830125042657	-0.0017350625226479
10.5	0.00104784378943433	-0.0109030650737142	-0.790170088660289	0.606825523271324	-0.79034458970453	0.606387574757003	-0.0129972280336755	0.001025438334713
10.6	0.00153612027512989	-0.0122341622579698	-0.685673159755733	0.720986856855559	-0.685948275046819	0.720652584744728	-0.013276050053061	0.00254576978603756
10.7	0.00097489881270649	-0.0129113855585646	-0.565458195054105	0.819010639487361	-0.565762038522212	0.818697209055195	-0.0132570412943995	0.00522832250434025
10.8	0.00026753078345385	-0.0134604017462997	-0.43082037123412	0.897401120271044	-0.431175413380973	0.897099210270875	-0.0122232644092211	0.00818649051740403
10.9	-0.000404341944106436	-0.0136150770521142	-0.284823285912355	0.953452429651235	-0.285218350915178	0.95332865844732	-0.010179691782363	0.0107405669197063
11	-0.000838638736986832	-0.0144813716697948	-0.133253413282813	0.98420860289053	-0.133694909593929	0.984117767799817	-0.00742957886132076	0.0121932220112571
11.1	-0.00209238479191872	-0.0147132648927804	0.0205863023199154	0.993777890339302	0.0200922734946495	0.993792025383229	-0.00469969228953228	0.0135593050445293
11.2	-0.00299430445380601	-0.0148731103200233	0.175579354726054	0.978704024349772	0.175117283699453	0.978778899417166	-0.00107139420759924	0.0140413716726009
11.3	-0.0038789508626556	-0.0146782105358419	0.326077852532058	0.938954390721892	0.32561427835285	0.93909398334663	0.00278056345050391	0.013679873054272
11.4	-0.00427066414925203	-0.0141177639749019	0.467639340724142	0.875904275785387	0.467231992952066	0.876020039349427	0.0067563628597783	0.0126191424388641
11.5	-0.00396508673860529	-0.0155914590248018	0.59731759642126	0.793818610349314	0.596996491519111	0.794124847552975	0.0101465714483556	0.00893937986032683
11.6	-0.00713398067567643	-0.0164093829758627	0.715057434539518	0.690899682898366	0.714841143778436	0.691232060560757	0.0104896197703494	0.0064237720042401
11.7	-0.00939520901605071	-0.0149389101476509	0.813713007383529	0.570246388581509	0.81350939055511	0.570557297865697	0.0117051974218069	0.00444593390613131
11.8	-0.0112418202237436	-0.0130167208955039	0.891996704551787	0.436198978265717	0.891815908211303	0.436655350324846	0.0123509631942807	0.00192838983825956
11.9	-0.0116034810203177	-0.00936635858986548	0.948770570439612	0.292678422906538	0.948666443139789	0.293133400133993	0.0127770172094631	-0.000171352854945697
12	-0.00899104151800494	-0.00825211670772775	0.984255452011623	0.140613755423026	0.984229195232042	0.140982536775611	0.0138753715935666	-0.00432510001399926
12.1	-0.00991850379996699	-0.00920351952968074	0.992460978917286	-0.0156803868524993	0.992393089031627	-0.0152912779633105	0.0104340377019454	-0.00853257444604016
12.2	-0.0112580979440129	-0.00861299179735074	0.976862715023196	-0.169672446689187	0.976883385923758	-0.169371994605768	0.00688749647633078	-0.010291974714797
12.3	-0.0126645360497279	-0.00740844333043511	0.937967343241489	-0.31931357919806	0.938091072369403	-0.319005632189986	0.00323970223002867	-0.0112011226044781
12.4	-0.0142455505752039	-0.00500847513921973	0.876909066705118	-0.461869036663755	0.876976969432435	-0.461496967820432	-0.00040174047724506	-0.0105409284791627
12.5	-0.0127110232124701	-0.00202792778097699	0.79171071977076	-0.593190327435634	0.792058881858802	-0.592801907364106	-0.00197662797637785	-0.00944242367010328
12.6	-0.0121334609287984	-0.00204334591102345	0.689125065285171	-0.706710614472952	0.689380957049002	-0.706470134519702	-0.00480675292821105	-0.00936640223418293
