# GHZ S RI R 50
0.2	-0.000300757346988762	-6.10098178012137E-05	0.948822278514913	-0.308008529155164	0.948600073624557	-0.307983070911658	-0.000321006079844258	6.38923229703623E-05
0.3	-0.00032882173257508	2.88014738303706E-05	0.88878470212936	-0.451615454157227	0.888628569769212	-0.451520081856566	-0.000424807122594909	-1.80158050026814E-06
0.4	-9.07548791048323E-05	6.2644806980973E-05	0.807245512557864	-0.58377988042362	0.807257295496975	-0.583804988779692	-0.000305573188016582	2.02619304114177E-05
0.5	-0.00011876426548423	-9.95167200509531E-05	0.706562618965773	-0.701872120178361	0.706407682345657	-0.70177069586929	-0.000293462496675731	-0.000137161674571945
0.6	-0.000223301972535197	4.30347370715846E-05	0.588755212325642	-0.802878352093915	0.588636011118539	-0.802716723296442	-0.000507056805009532	-5.31955394468104E-05
0.7	-0.000107398019314879	0.000287899513932851	0.456704713684159	-0.884172803116796	0.456685955471166	-0.884060366544969	-0.00041362339754922	5.37286725576373E-05
0.8	0.000174742028725181	0.00029610267797861	0.313770815104714	-0.944064481503572	0.313739462172071	-0.943874862003989	-0.000355331194502827	0.000179850274570579
0.9	0.000435038228600719	0.00038154716442196	0.16342292946535	-0.980955688559546	0.163357919658363	-0.980863847701845	-0.000221281494220256	0.000211943321795693
1	0.000748583570796098	-0.00013540838528145	0.00922328580098216	-0.994249539890546	0.00917165713560637	-0.994218104260556	2.74792447495621E-05	-0.000289850955352983
1.1	0.000344171706109403	-0.000323140651987646	-0.145292331840795	-0.983516501831254	-0.145308090654117	-0.983386134323722	-0.000757187873140508	-0.000464314992000181
1.2	0.000484238063170661	-0.000866877833079482	-0.296270240037271	-0.948693937059142	-0.296193920964871	-0.948667848466555	-0.00077485581791867	0.000163236474426628
1.3	0.000528996098823386	-0.00212196229831027	-0.439797567274794	-0.890983652722576	-0.439774552139032	-0.890977037916899	0.00016450903309528	0.0010481795034454
1.4	0.000469536655802896	-0.00377573400819857	-0.572457533811576	-0.811887061169904	-0.572433380439671	-0.811865433861047	0.00177775007290304	0.00109284924075793
1.5	-2.63520773385754E-05	-0.00465396688593024	-0.691777427665716	-0.712945570223664	-0.691675733094492	-0.712860643359282	0.00299526358143353	0.000335033909348319
1.6	-3.27826495803324E-05	-0.00479056691190279	-0.793681594029119	-0.59654687642009	-0.79360759234046	-0.596486892896567	0.00352708427812697	-0.000310604992031784
1.7	-0.000259230434363954	-0.00508267947258052	-0.876015859949397	-0.4666435090002	-0.876180101533376	-0.466127856718784	0.00374307057754986	-0.00147944712195453
1.8	-0.000874073531610357	-0.00521440126946174	-0.937898129277627	-0.324625997226377	-0.937786964913219	-0.324624607094221	0.00322284179393786	-0.00267706062887437
1.9	-0.00150995853407283	-0.00521238946108779	-0.976725342999855	-0.175471859665075	-0.976818247180508	-0.174984687465773	0.00243443692093198	-0.00371115658011935
2	-0.00284065791402783	-0.00508907304120621	-0.991565880933024	-0.0211019898696272	-0.991577803847445	-0.0210561867000443	0.000759897517855141	-0.0045177757214298
2.1	-0.0034587222952942	-0.00389642232230129	-0.982692859567758	0.132641812263582	-0.982730936530978	0.132678848588115	-0.000345463603618715	-0.00371854311603822
2.2	-0.00391960397318151	-0.00338129403990734	-0.950347582094709	0.283398080908305	-0.950272593379108	0.283460860181132	-0.000564317697734136	-0.00345389693690173
2.3	-0.00451100281656873	-0.00271545034052949	-0.894987209699077	0.426846845577688	-0.894605599337487	0.427359808157782	-0.000937074491713211	-0.00357960445862789
2.4	-0.005090089013993	-0.00203516657526032	-0.81690702467446	0.561520070985272	-0.817173125971764	0.56093467799333	-0.00142625833581397	-0.00391539141401594
2.5	-0.00592510671059347	-0.00132206882933364	-0.720274585521233	0.680986506702665	-0.720487582216998	0.680477019612033	-0.00249746056803164	-0.00489057259065687
2.6	-0.00650168901873086	0.000481788715162728	-0.606503995931792	0.784383979679568	-0.606397780190286	0.78420146269192	-0.00388216719530603	-0.00419130860729357
2.7	-0.00593142386344813	0.00206219935011982	-0.476780616152029	0.869254470835976	-0.477229159198714	0.868847442184306	-0.00429037231305366	-0.00328303852917202
2.8	-0.00473103276080414	0.00310187312341769	-0.33733792268389	0.932123657166878	-0.336670709388145	0.932282845873397	-0.00431939388906793	-0.00247326922350957
2.9	-0.00301428323494108	0.00349344369863631	-0.188196907512532	0.973135437577873	-0.188228065121271	0.973048090747313	-0.00368127920889338	-0.00160236333695905
3	-0.00142738640798781	0.00339825713659805	-0.0342776788219644	0.991011298729161	-0.034978581202339	0.990852093979746	-0.00294472077805542	-0.000792733956584546
3.1	0.000404204709989059	0.00287221067310923	0.118908928895787	0.984296060440808	0.11949964828293	0.984278497504208	-0.00147900199878577	-0.000353548040805678
3.2	0.00158593179494551	0.00172757312091433	0.270759735562528	0.953610354846907	0.270704956877198	0.953550025441885	-0.00059263740246058	-0.000594155106051651
3.3	0.00258892261428146	0.000476015004913232	0.415578588110663	0.899977325805788	0.41544141583035	0.899963073730381	0.000290667684325287	-0.000970941175238611
3.4	0.00302292239184099	-0.00107134942170021	0.55028024252513	0.824754438913416	0.550117913304322	0.82487235297609	0.00102479030639476	-0.00195833381992228
3.5	0.00294482453489896	-0.0023010204548225	0.672015501863872	0.729247449245949	0.671935874678078	0.729286251655592	0.000889246469126116	-0.0025757478415581
3.6	0.00298176740834441	-0.0033623897330974	0.776291276865862	0.616225350350703	0.776532066599376	0.61577650498305	0.00137014978737102	-0.00284292370593782
3.7	0.00262959084981104	-0.004784731497682	0.862726821599063	0.487782125173389	0.862608566868407	0.487925305309304	0.00166753848848928	-0.00366731621055012
3.8	0.00169607298682042	-0.00594382547264116	0.927835639511157	0.348514352364501	0.927892259873249	0.348135021239292	0.00158192752292312	-0.00464260548027869
3.9	0.000770491206572556	-0.00696705384287271	0.970934973598499	0.198902729702825	0.970696988578121	0.199570632937153	0.000833560092572453	-0.00607071153811129
4	-0.00113322650356619	-0.00763882302163447	0.989512537904921	0.0463793839913535	0.989473694287027	0.0464822801101046	-0.000850970479982022	-0.00714184250873827
4.1	-0.00243356146719048	-0.00742344856427439	0.984840757877573	-0.107241564197471	0.984656342810102	-0.107114327508273	-0.00207902995016289	-0.00687447238800743
4.2	-0.00392020010583396	-0.00750515604113819	0.956123028275644	-0.259512155837166	0.956158459136017	-0.258858326137071	-0.00283699693633477	-0.00707998745389023
4.3	-0.0055650393250368	-0.00746491917514885	0.90451423887855	-0.404279099731654	0.904378440532991	-0.404167861438117	-0.00380748854605684	-0.00758765916698047
4.4	-0.00741480305328572	-0.00701817212416274	0.830538077559678	-0.539685661391123	0.830373003277334	-0.539552201749595	-0.00494165461062077	-0.00817189050492971
4.5	-0.0095782619835039	-0.00649872980573862	0.736968370861916	-0.661571432499598	0.736779645389544	-0.661398266646987	-0.00694767523580622	-0.00918625467017839
4.6	-0.0117870672143693	-0.00452932246790102	0.6252065965866	-0.768787917822254	0.625548750989083	-0.768089760762924	-0.00959837357912484	-0.00868285877963469
4.7	-0.0130861772948182	-0.00251995470512432	0.498497809654565	-0.856416233331976	0.498514406706468	-0.856060204859851	-0.011623012504787	-0.00791183743564942
4.8	-0.0140466585857224	-5.33692887073815E-05	0.359153000842959	-0.923188235210171	0.359374794103531	-0.922871737269226	-0.013323015202329	-0.00680492730765325
4.9	-0.0140910630875475	0.00237872433786154	0.212112135760713	-0.967081939386461	0.211892023168034	-0.967089685156587	-0.0144201066532977	-0.00542543558494155
5	-0.0135745466007817	0.00485376172211774	0.0594306553951432	-0.98879511374115	0.0596080755592884	-0.988549517051018	-0.0150285393524971	-0.00350059415953253
5.1	-0.0118250317490037	0.00701212373469396	-0.0952081571048633	-0.986096023954893	-0.0948759429088171	-0.985870688095313	-0.0144308694537468	-0.00143965246629332
5.2	-0.00979734654428337	0.00864536549294291	-0.247259368667756	-0.959123976118512	-0.246766929263022	-0.959097507928283	-0.0135690942007098	-7.10663422915187E-05
5.3	-0.00755748169332685	0.00965213651395763	-0.393037886541203	-0.909139965570849	-0.392696995049742	-0.909356646126749	-0.0126505498035797	0.000719562387467565
5.4	-0.00538481503021774	0.0103831505964088	-0.52959103996824	-0.837377971259491	-0.529378123842506	-0.837579149632747	-0.0124171181215679	0.00102372773232613
5.5	-0.00364635881171562	0.0113478629957881	-0.653840359439647	-0.744597422172865	-0.65360130566142	-0.74479279152081	-0.0134626886385385	0.00241219446088242
5.6	-0.000356911322869715	0.0122831325664604	-0.760897674554453	-0.633487970196781	-0.760708048656675	-0.633660258544863	-0.0123822613160076	0.00473009675223034
5.7	0.00248137767392543	0.0116893032380468	-0.849856142829289	-0.507769533869729	-0.849726983524193	-0.507989686436275	-0.0111640910418332	0.00583260714771393
5.8	0.00494055017555761	0.0108882652236885	-0.918306730870579	-0.369560857088484	-0.918239164151134	-0.369846136714413	-0.0100972836801015	0.00667641771806634
5.9	0.00718566273565841	0.00929141101219712	-0.964606892722904	-0.222320005412522	-0.96462150090317	-0.222403682054187	-0.00923906306664524	0.00684185263751596
6	0.00814886455880401	0.00755662716812498	-0.986726426158869	-0.0696327564475305	-0.986607269724207	-0.0696910039719669	-0.0102993396190449	0.0072402142836606
6.1	0.00978381001467448	0.00648900332641143	-0.985401833768537	0.0837616896351451	-0.98527538458901	0.0836130976448683	-0.00987996585068567	0.00985184040180856
6.2	0.0110309132781314	0.00418062107769075	-0.960476596602042	0.235813050030122	-0.96046314373364	0.235610232613442	-0.00831741549605955	0.0111192071966119
6.3	0.0112392786004507	0.00144509521630568	-0.91205068393076	0.382140575419102	-0.912046429352153	0.381955275775971	-0.00661178003502534	0.011537626084502
6.4	0.010691282416565	-0.00127645058434368	-0.841217211569782	0.518954798725494	-0.841185896185107	0.518744234029156	-0.00512847393198766	0.0110763255986732
6.5	0.00931994685550707	-0.00379829131925542	-0.750596093922602	0.642431948123198	-0.750620408421429	0.642228097834103	-0.00426593601704428	0.010318441384106
6.6	0.00790806566275773	-0.00579397730115424	-0.64213443156502	0.751614600704103	-0.642208539223761	0.751362640152675	-0.00331079857993192	0.00966405254313942
6.7	0.00594863953930432	-0.00752734821387313	-0.517295320756727	0.84219546163317	-0.51739839945412	0.841974552207808	-0.00299300731476254	0.00879793868784609
6.8	0.00396675801315477	-0.00852529993574533	-0.380118689565973	0.91201886413577	-0.380260473770733	0.911848475024031	-0.00306091360686946	0.00849794758534191
6.9	0.00192879679549826	-0.00914285414280685	-0.234166895422317	0.959556314909233	-0.234393422965305	0.959446287748601	-0.00296459568247795	0.00861039096248868
7	0.00023527014155633	-0.00908949434506688	-0.0827066059082412	0.984791040246366	-0.0829164378950749	0.9847014741317	-0.0024944956192196	0.00907170064734573
7.1	-0.00116848958002497	-0.00909092170172792	0.071868882181913	0.985512022889427	0.0716667553346746	0.985379195005865	-0.00137109885953079	0.00921173457281049
7.2	-0.00258582060108857	-0.00889023573077096	0.223912903686896	0.961922962951654	0.22363097350493	0.961888938342701	-0.000243126774198823	0.00913627738598651
7.3	-0.00405995748978392	-0.00852950123223139	0.370228610616966	0.915358607054398	0.369992831882155	0.915385204426916	0.000858064865231541	0.00883718875800192
7.4	-0.00531376198780797	-0.00791884785995207	0.507785938505275	0.846963808168182	0.507572771570406	0.847015233454322	0.00171040356838786	0.00820557997901639
7.5	-0.00665910540870476	-0.00705781340136749	0.633701617816901	0.75737461312246	0.63353234298193	0.757444634893462	0.00228648246210814	0.0078571915789451
7.6	-0.00701569344854619	-0.00588939481410824	0.742861002490194	0.649128992424611	0.742604021804824	0.649211888664064	0.00381693286293572	0.00736957430434988
7.7	-0.00731649522322245	-0.00488662637229918	0.83412582687564	0.526079228050328	0.833941052849397	0.526296423575112	0.00505092688096603	0.00597792768406766
7.8	-0.00713593344205366	-0.00375911886307086	0.905627645764512	0.390202057622995	0.905525191579611	0.390427325906102	0.00589351697170438	0.00402716580441211
7.9	-0.00673678086801738	-0.00281242111849805	0.955171408715513	0.244683005473526	0.955033913839409	0.244862709322315	0.00585592203204837	0.001589000268854
8	-0.00693300243769392	-0.00196472104445796	0.980348596030906	0.0931861711956392	0.980326160630086	0.093448335787638	0.00316224596424667	-0.000575309581420346
8.1	-0.00593894692657221	0.000129350914913185	0.982818933355496	-0.0591944515803925	0.982848069994629	-0.0589395273662372	0.00126064032886486	0.00053953703831404
8.2	-0.00422674741473122	0.00106642733799775	0.961763387437498	-0.210898423170795	0.961811892837754	-0.210582090677407	0.000486726646748702	0.00122947477507416
8.3	-0.002676994730712	0.00157321818560122	0.917179018118179	-0.357530998529847	0.917230489362233	-0.357244541785388	2.17483856460536E-05	0.00193739305977109
8.4	-0.00083924058845468	0.00151540209249546	0.850115635482459	-0.495217891388318	0.850213307600812	-0.495016526899941	0.000153912970535432	0.00224727202984749
8.5	-6.50914366864418E-05	0.000590546079273885	0.763382488335655	-0.619986675445185	0.763433654922375	-0.619836367446239	-0.00088142694781138	0.00152118425888065
8.6	0.000829483895722292	0.000927440465090476	0.658332765645656	-0.731383818805467	0.658500762067446	-0.731147087624819	-0.00203183253274316	0.00347520293964603
8.7	0.00222557309136899	0.000585017541938729	0.536560797781852	-0.824632592156667	0.536819373949632	-0.824417474042919	-0.00121827162429081	0.00527786121787699
8.8	0.00358912833068931	-0.000112828792678755	0.402159664765885	-0.897546910560244	0.402344464634589	-0.89740804061986	0.000281063475707121	0.00636736988036003
8.9	0.00493926050652998	-0.00110403774946687	0.258490191699192	-0.94876213381309	0.258668678873737	-0.948592278110597	0.00269076694442037	0.00678328949067756
9	0.00622971242707655	-0.00282955152978847	0.108469242386402	-0.978035158401233	0.108777022242771	-0.977988224221118	0.00501850476998743	0.00584179782741851
9.1	0.00737100487389208	-0.00457207348748186	-0.0452371427949018	-0.982833909257955	-0.0449284903788971	-0.982792772493406	0.00735904983711091	0.00455677450599367
9.2	0.00808588417452473	-0.00687259404032533	-0.197092545046694	-0.96344490649425	-0.196745628738265	-0.963422376754569	0.00923533867299475	0.00205768311381623
9.3	0.00800861831715105	-0.00879841113137168	-0.343844955362455	-0.921174963024588	-0.343493727469679	-0.921149064313014	0.0100458877730003	-0.000669310927575571
9.4	0.0077128346298091	-0.0105951581062136	-0.482464548697644	-0.857139514442982	-0.482141695270855	-0.857229763291188	0.00990026857968769	-0.00366177787421148
9.5	0.00642965780033917	-0.0111243396583989	-0.610318389836021	-0.771424840966224	-0.610081684657522	-0.771474908406941	0.00772452023926589	-0.00513444126962394
9.6	0.00694464957746317	-0.0116025779402349	-0.72186552813579	-0.666754865922453	-0.721554419972022	-0.666893040218909	0.00782022005231773	-0.00556191498905238
9.7	0.00654234476335562	-0.0126501111811519	-0.81617511210501	-0.546960742934304	-0.815887852040011	-0.547192869616619	0.00698014670272294	-0.00777691751887434
9.8	0.00584673298442235	-0.013337751991603	-0.89115796391441	-0.413893898198471	-0.890904857431312	-0.414062194330444	0.00497504065359542	-0.00970199824279314
9.9	0.00515506713156154	-0.013752498576598	-0.944696101757518	-0.270314992853713	-0.944443916012179	-0.270523169501059	0.00232556104155682	-0.0115590541606047
10	0.00335961989517814	-0.0139052409280803	-0.974017793762769	-0.120234192923299	-0.973864145879329	-0.120595416766703	-0.00298987218992828	-0.0121836871065346
10.1	0.00305210289789603	-0.0126190246168558	-0.980765290963295	0.0312567598996889	-0.980701022942518	0.0308264941515169	-0.00642197098226738	-0.00913141768386939
10.2	0.00307093938254007	-0.012596378673167	-0.964409740228255	0.182894721210355	-0.964287149151932	0.182464761237736	-0.00831347723104585	-0.00679179892280207
10.3	0.00266931347309039	-0.0125105406110426	-0.924316779355567	0.330331368576693	-0.924332922169328	0.329791000822467	-0.00989488783818213	-0.00458245420896859
10.4	0.002396280572316	-0.0128235091876156	-0.86145241288568	0.469320495431855	-0.861587590220503	0.468810189278264	-0.0108697171838788	-0.00280304683521311
10.5	0.00141273320158992	-0.0132573405839499	-0.778895868776936	0.596105099904067	-0.779066940996577	0.595673665653167	-0.0125068663733262	-0.00154748703792046
10.6	0.00059432234310778	-0.0129994529858998	-0.677786827591711	0.710292726804238	-0.678057741404838	0.709962426222483	-0.0138909276366765	0.00158109527207103
10.7	9.2886100612068E-05	-0.0126015013361739	-0.559316709559588	0.807081704392321	-0.559615948173236	0.806771937996104	-0.0136750440399063	0.00517245352032594
10.8	-2.22575242099417E-05	-0.0125818364202566	-0.427349335868204	0.883926518157259	-0.427698690274225	0.883627783959682	-0.0120464413590331	0.00848716491477779
10.9	-0.000265853341846962	-0.0127057314381126	-0.285632562276592	0.939339761993554	-0.286021751967505	0.939215732281985	-0.00975432486224555	0.0109580128906214
11	-0.000682667237958651	-0.0131259783753929	-0.136832599126486	0.973489869046977	-0.13726913147671	0.973397745599511	-0.00706648098189115	0.0128249159822787
11.1	-0.000995901537918587	-0.0135228582714981	0.0168102771441039	0.982802702883532	0.0163216903338946	0.982814917470668	-0.00346115807051814	0.0139040165650645
11.2	-0.00163125004216438	-0.0142585055290187	0.168975884453672	0.968036195186579	0.168518887208381	0.968108046731621	0.000273038538048271	0.0137420067513693
11.3	-0.00250923744977643	-0.0147732775339818	0.316823890345512	0.93030203697393	0.316364715038673	0.930437302097062	0.00397416781541357	0.0126232249008499
11.4	-0.0037425061632008	-0.0154811022392374	0.45751214368536	0.870549743689859	0.457107942924126	0.870661769986387	0.00698426285577671	0.0104540172186318
11.5	-0.00576820132655282	-0.0150310771155392	0.588075991989555	0.788390052893329	0.587756814951796	0.788691908236381	0.00814456192452899	0.0087971293198922
11.6	-0.00649791033455907	-0.0144562904946188	0.702402467385317	0.687051517518382	0.7021867236153	0.687378648303366	0.0107735016900954	0.0075330521558355
11.7	-0.00770862327013438	-0.0140571392684993	0.800286902960295	0.57014720499537	0.800083165344516	0.570453093806701	0.0128313324608013	0.00458505568775158
11.8	-0.00914356525041608	-0.013346627281314	0.87937405762927	0.439128613812002	0.879191333391613	0.439578876715667	0.0137660881771718	0.00102911067385121
11.9	-0.0103083224846932	-0.0122426488509112	0.937182159979008	0.296948853112017	0.937075626740021	0.297398546688362	0.0133450322169747	-0.00322699548011257
12	-0.0128566283536378	-0.0108270036509031	0.970788580672105	0.147771886536572	0.970759314425812	0.148135861075889	0.00952552727339633	-0.00679413678990897
12.1	-0.0132027801889578	-0.00765431493982871	0.982130094671031	-0.0036201928255571	0.982058261104041	-0.00323602162677558	0.0069564251242266	-0.00686557773612609
12.2	-0.0130629193851211	-0.00572571118873143	0.970151081414637	-0.156048274777023	0.970167846235954	-0.155750277147408	0.00507549197587939	-0.00736080306130074
12.3	-0.0126657836554578	-0.00383922937281547	0.934090239547986	-0.304894452639409	0.934209076089663	-0.304587542077388	0.0033557049852059	-0.00768054216828544
12.4	-0.0119787875896871	-0.00259594120868249	0.875217726613277	-0.446040759770796	0.87528005995591	-0.44567111632098	0.00203711805835685	-0.0082518768481049
12.5	-0.0119196110013639	-0.00195650148686932	0.796029158425647	-0.5754316218165	0.796368192507678	-0.575040112725373	-0.000888552286292777	-0.00952701953879872
