# GHZ S RI R 50
0.2	-0.000370894813426308	-9.30294730395821E-05	0.948637427945894	-0.308083469506467	0.948415260340134	-0.308057986569377	-0.000369589853286591	7.6981044284274E-06
0.3	-0.000420424721376734	-2.86726408458201E-05	0.888548292160529	-0.451670756017559	0.88839220384566	-0.451575376990427	-0.000489138267748196	-0.000111790034212604
0.4	-0.000253689342214769	-1.5235013070265E-05	0.806992495630598	-0.583795027013208	0.807004272201877	-0.583820132326404	-0.000449731698649425	-0.000137678642252556
0.5	-0.000350743153135191	-7.43084519894511E-05	0.706284841804823	-0.701929818425586	0.706129953619301	-0.701828373224163	-0.000512413797043087	-0.000196239886971777
0.6	-0.000391962579378868	8.32040830625734E-05	0.588350384210124	-0.80286469321735	0.588231264665426	-0.802703066956172	-0.000638205336944962	-0.000123752296627739
0.7	-0.000294606537082347	0.000308827831713367	0.456278740418453	-0.884045424640517	0.456260024172094	-0.883933016914832	-0.000566682469077279	-9.06776078758952E-05
0.8	-3.13778400644934E-05	0.000292521867671245	0.313356256666914	-0.94385668465368	0.313324976550657	-0.943667117332621	-0.000563677369310889	-4.34052344763206E-05
0.9	0.000118427118517626	0.0002636808831916	0.162983340493027	-0.980717499157232	0.162918387184374	-0.980625660886636	-0.000627648231948345	-0.000161411526288989
1	6.76960776666472E-06	-2.34600781929912E-05	0.00863438604885127	-0.993792484266843	0.00858279986345722	-0.993761032902617	-0.000930580711672118	-0.000347236826602282
1.1	-0.000150070911349776	0.000231519803149281	-0.14565341857635	-0.982798348406453	-0.145669106374028	-0.982668059807267	-0.00143816999226571	8.0338225567914E-05
1.2	0.000300155069838436	-0.000111054328521104	-0.296464778383449	-0.947922471225649	-0.296388500502513	-0.947896432353196	-0.00102735391037793	0.00100579857337884
1.3	0.001034299681803	-0.00135947592999034	-0.43987021757611	-0.89013751019933	-0.439847216349255	-0.890130910408071	0.000771006867466068	0.00190500717462069
1.4	0.00140539372398834	-0.00360965504023284	-0.572376901332264	-0.810873929232933	-0.572352757950219	-0.810852333544849	0.00295129641072175	0.00123653020258083
1.5	0.00100138115410298	-0.00482397476859182	-0.691160153059974	-0.711863373414165	-0.691058555450299	-0.711778581481694	0.00435662960696322	-2.49077554700919E-05
1.6	0.000551190823919548	-0.00562409493508157	-0.79288659438171	-0.595868285061184	-0.792812666533176	-0.595808369379424	0.00438927937460151	-0.00164319982475241
1.7	-0.000301539535216774	-0.00580470557707315	-0.875163503103082	-0.466071137858864	-0.875327521417893	-0.465555998915294	0.00375723334551677	-0.00281752405242656
1.8	-0.00129557430589769	-0.00573065671418931	-0.936857263243201	-0.324163764466403	-0.936746225847956	-0.324162386713176	0.00266355774135022	-0.0037768083784564
1.9	-0.00239680010945445	-0.00532636855726195	-0.975388725411132	-0.175310682284559	-0.975481541917331	-0.174824177191869	0.00127682555403525	-0.00426303143760203
2	-0.00330858045465544	-0.00421706100391187	-0.990405569041489	-0.0216105262799008	-0.990417502779704	-0.021564782582082	0.000122423175016088	-0.00389765275762109
2.1	-0.00338558451413489	-0.00359570408359987	-0.981830184715805	0.132210556793024	-0.981868238290113	0.132247547062903	-0.000330682615321984	-0.0037813842840685
2.2	-0.0041222537747878	-0.00323394099702213	-0.949430307131168	0.282803051463354	-0.949355417245098	0.282865787627504	-0.000924393192290848	-0.00374331543396868
2.3	-0.0049183968004421	-0.00252322166681614	-0.894187366306648	0.425942318553009	-0.893806427877567	0.426454887916468	-0.0016393111376727	-0.00377429487444316
2.4	-0.00588873377061086	-0.00163585638109918	-0.81653099507328	0.560349535061617	-0.816796391323298	0.559764514858256	-0.00264801258456583	-0.00371408849797927
2.5	-0.00657789134029318	0.000323148419224249	-0.720279537179028	0.680260569424267	-0.720492154626418	0.679751222725663	-0.00345225566399165	-0.00310227117467675
2.6	-0.00569356570486072	0.00199809906681154	-0.606197465446953	0.783518413098868	-0.60609129034627	0.783336087433451	-0.00300513033947842	-0.00248158709425905
2.7	-0.00459103172852731	0.00265062181410696	-0.47677654242083	0.868163724551324	-0.477224438037435	0.867756853652038	-0.00266183365496754	-0.00266834531480779
2.8	-0.00363334882304198	0.00281003259238175	-0.337674428935043	0.93111901912557	-0.33700788011789	0.931278517627122	-0.00286693336318392	-0.00294604044013311
2.9	-0.00250798486198377	0.00291508309445007	-0.188627698217011	0.972475580990233	-0.188658789712808	0.972388266818268	-0.00284298200703563	-0.00252298263786668
3	-0.00112263160837074	0.00279402648705817	-0.0342936945681956	0.990078873833227	-0.0349939309172749	0.989919784513775	-0.00232974419987349	-0.00188634488030826
3.1	0.000189911150541356	0.00215703790289073	0.118141810384767	0.983084867432629	0.118731769436986	0.983067694636599	-0.00151587240855199	-0.0017009574761706
3.2	0.00101854574827233	0.00128821413138665	0.269675042847024	0.952801356777961	0.269620373592424	0.952741047315394	-0.00112983683146699	-0.00169076043325178
3.3	0.00181316734150966	0.00030376750869905	0.41446790515333	0.899431873088328	0.41433087704038	0.89941752693413	-0.000551604491174093	-0.00175155654824845
3.4	0.00207573723079204	-0.000755446555584045	0.549164887015052	0.82412765442732	0.549002675540228	0.824245337913409	-4.11317940503286E-06	-0.00215152222900656
3.5	0.00271970432280223	-0.00160292100398679	0.669973194983069	0.728729102079551	0.6698936645133	0.728767743030555	0.000721085014620474	-0.00238448434941191
3.6	0.00264009202070998	-0.00329683439483037	0.774350256509936	0.616863773123073	0.774591546286574	0.616415851125222	0.00105731936465372	-0.00346235295760002
3.7	0.0019224855678255	-0.00457848406347033	0.861173301754775	0.488728471242921	0.861054923334001	0.488871333770249	0.000840204800615024	-0.00417930664614713
3.8	0.000785631268300614	-0.00551733931064283	0.926407958155893	0.349687368475904	0.926465138138795	0.349308482412929	0.000423627267248691	-0.00485662655946908
3.9	-0.000480485918723686	-0.00604420750840264	0.969451729071498	0.200586891291686	0.969212699336057	0.201253575419905	-0.000724195899522608	-0.00559111171431004
4	-0.00157440862204638	-0.00556222826106245	0.988997022076946	0.0491256278699617	0.988957906153139	0.0492283753382258	-0.00137219526588824	-0.00528383961046252
4.1	-0.00196637140317207	-0.00616262086604695	0.985331181504407	-0.105179218515369	0.985146447095076	-0.105052339419596	-0.00144221562453672	-0.00598221515770168
4.2	-0.00351260247554108	-0.00667404478309297	0.956764629076044	-0.257678272415168	0.956798785961576	-0.257024281791739	-0.00224687520104888	-0.00677778875513223
4.3	-0.00524509671870175	-0.00698340641550302	0.905522228372379	-0.402425170751549	0.905386171366315	-0.402314202442015	-0.00336548893399597	-0.00770701641035758
4.4	-0.00767122341313183	-0.00681279699585766	0.832371524865869	-0.537938668026392	0.832206021016391	-0.537805540125314	-0.00518538010513289	-0.00853219374111813
4.5	-0.0101317936364753	-0.00523694299633611	0.739324454921048	-0.661291649522528	0.739135119349258	-0.661118549386905	-0.00741097341687119	-0.00826498944587271
4.6	-0.0113674518235522	-0.0034650057997233	0.626688711812979	-0.768728272225964	0.627030336459908	-0.768029078884364	-0.00877735085987969	-0.00801379622645739
4.7	-0.0126220488209728	-0.0019181394216187	0.500148207358606	-0.856354103041544	0.500164293719431	-0.855997771146142	-0.0106126584213039	-0.00792384754373751
4.8	-0.0136720355446594	0.000224302202485895	0.360998678726076	-0.923595960151069	0.361220204554525	-0.923278774964501	-0.0123853151170888	-0.00737484622866279
4.9	-0.0139654368625115	0.00244818965885755	0.213651368255108	-0.968352442848101	0.213430916088905	-0.968360474660723	-0.0138163498890112	-0.00640637111538572
5	-0.0133705513817617	0.00484043468419692	0.059753926510675	-0.989708648269465	0.0599314470446618	-0.989462772708208	-0.0144379450427108	-0.00473790585103878
5.1	-0.0121982334974783	0.00643776438324962	-0.0941357862405325	-0.986650643271765	-0.0938036763946647	-0.986424829467464	-0.0146835855668563	-0.00345978796574376
5.2	-0.0110412496901736	0.00838560384414975	-0.246238709813376	-0.96031302367434	-0.245745858990114	-0.960285892573523	-0.0150872964618476	-0.0017414401264978
5.3	-0.00932797874951073	0.0103123095428172	-0.392536135226096	-0.910568891587309	-0.392194636054362	-0.910785461849636	-0.0149638367906378	0.000257033846421458
5.4	-0.00693712906412376	0.0125325890833112	-0.529538167132487	-0.838363527556593	-0.529324962069503	-0.838564746502761	-0.0144766192347187	0.00248010372624606
5.5	-0.00264941922815068	0.0139668184228908	-0.652692996791934	-0.745492797069647	-0.652453676933176	-0.745687799265862	-0.0124850593097656	0.00443456028828051
5.6	0.000570300937097214	0.0127475218836845	-0.76039290404578	-0.635760347614011	-0.760202713934352	-0.63593242506575	-0.01143650095358	0.00419604762202822
5.7	0.00254153735041146	0.0119107570145694	-0.850277200994294	-0.509959602367671	-0.850147477941064	-0.510179867920524	-0.0113418282540664	0.00498589194494283
5.8	0.00436228387875011	0.0112109943010027	-0.919126847492291	-0.371426997979328	-0.919058770592704	-0.371712600327266	-0.0111209623131103	0.00610736913830822
5.9	0.0056868993164715	0.0104846082357026	-0.965339520559368	-0.224245008157557	-0.965354001031271	-0.224328806935879	-0.0112092875282538	0.0075562876266186
6	0.00833166618700906	0.0108776894057753	-0.988822388433871	-0.0724599542940179	-0.988702798883531	-0.0725180145847785	-0.0100161965496475	0.0104541195664525
6.1	0.0115308140308969	0.00788186561032225	-0.988633549777953	0.0826775687717015	-0.988506497160667	0.0825286799709582	-0.007476561231156	0.0107374806245765
6.2	0.0123361860819711	0.00446213253515298	-0.963406529137065	0.235644830466988	-0.963392861311405	0.235441449538328	-0.0062998667106222	0.0104056457210185
6.3	0.0117901076831163	0.00106809602856711	-0.914856315963017	0.382373410931758	-0.914851886901394	0.382187613304221	-0.00556281085136343	0.00981253322059074
6.4	0.0101720811029402	-0.00161644342052222	-0.844512501801673	0.51957666986399	-0.844480831347893	0.519365476176388	-0.00551037801084769	0.00929121815149814
6.5	0.00838370139364831	-0.00344921044757481	-0.75380820489237	0.645267752677026	-0.753832638435824	0.645063020006795	-0.00531376441216096	0.00932262395103486
6.6	0.00663301835010614	-0.00483319829569836	-0.643412171976696	0.754495731893197	-0.64348673548757	0.754243068956773	-0.00490161553936243	0.00940930591818277
6.7	0.00509663470434087	-0.0056624927943692	-0.518287118999705	0.844800937020559	-0.518390599316432	0.844579469458523	-0.00423290773042806	0.0097193294952315
6.8	0.00397573051359041	-0.00647364431110626	-0.380905227313019	0.915008756304031	-0.381047524159886	0.914837900009141	-0.00331448926442777	0.00982327965811834
6.9	0.00260297845486188	-0.0073437263760462	-0.234000035493984	0.963412517520606	-0.234227533084643	0.963302324348405	-0.00231711565484273	0.00976071376249449
7	0.00144947067847201	-0.00816015311553234	-0.0804186269725001	0.987552051481413	-0.0806292300603693	0.987462786581304	-0.0010714153265881	0.00918420884168341
7.1	-0.00056728219268574	-0.0088036256555408	0.0733942542197441	0.987238293689117	0.0731915648805073	0.987105505001224	-0.000580705259414163	0.00848978202206134
7.2	-0.00236491251201693	-0.00866452079774226	0.225701973906428	0.96387050873496	0.225419341666036	0.963836776187684	0.00014415626506906	0.00826353665335651
7.3	-0.00413898274381677	-0.00833068364889851	0.372793544624348	0.916968288297733	0.372557227713934	0.916995375443862	0.000925187473252086	0.00783811894942692
7.4	-0.00569335491384352	-0.0075366373003874	0.510930567486399	0.847221853144736	0.510717137281451	0.847273927683331	0.00145717059667537	0.00728618047341582
7.5	-0.00651624363204457	-0.00660194200261002	0.635012094258867	0.756819317478703	0.634842844792546	0.756889602048258	0.00250381154127975	0.00686057785953369
7.6	-0.00744031237297526	-0.006404041665539	0.744685044253789	0.649794938692934	0.744427650341682	0.64987816919555	0.00322735953270096	0.00520932713824676
7.7	-0.0089072906610505	-0.00524636545070479	0.836641758033178	0.526037463377095	0.836456892838466	0.52625538077228	0.00292034524553616	0.00395552522283411
7.8	-0.00974455221746652	-0.00332585216005125	0.907953091011121	0.389301954457508	0.907850850988381	0.389527810734997	0.00242175616449611	0.00308950031845552
7.9	-0.0103995354122007	-0.000533156663505619	0.956586396997137	0.243652223767195	0.956448992631698	0.243832319023455	0.001471593621817	0.00330143066317564
8	-0.00798447690773057	0.00361202799658396	0.982877790215025	0.0932615989154388	0.982855341014492	0.0935244394509795	0.0017343334962374	0.0047926839884183
8.1	-0.00425600040917944	0.00391758772883709	0.985916758318046	-0.0613351064562093	0.985946495288646	-0.0610794060308544	0.00350294501985428	0.00377554953437848
8.2	-0.00205939906597863	0.00325226078907655	0.963641845816314	-0.213908142889097	0.963691288605258	-0.213591138792715	0.00333745339200828	0.00239308765954081
8.3	-0.000648133485563885	0.00234470627870498	0.918183009532868	-0.360498211403672	0.918235284408817	-0.360211294337611	0.00265756925905363	0.00131536482417785
8.4	-0.0002201931899587	0.0011907254859215	0.851304188681081	-0.498015968846244	0.851402474981338	-0.497814286526619	0.00110286484380164	0.00036656169569171
8.5	-0.000107319923733018	0.00217396300044003	0.764043458773708	-0.625007789930926	0.764095348773611	-0.624857100808427	-0.000578275853535046	0.00176527182296633
8.6	0.00230364076246582	0.00135149688442208	0.656332559872913	-0.735656144733979	0.656501915211409	-0.735419713334996	0.000103729042322651	0.00219643911006478
8.7	0.00291503096141777	-0.000130720719557554	0.534096501330003	-0.827815623067105	0.534356256695928	-0.827601214592297	-8.81917892634751E-05	0.00233551052591282
8.8	0.00326714493009659	-0.00131225795533095	0.399473517459742	-0.900387477571924	0.399659108141274	-0.900249075531895	-0.000166505560437467	0.00261930501981766
8.9	0.00310467183618284	-0.00241024602513637	0.254842674537498	-0.951889131715508	0.25502228517156	-0.951719708471396	1.10341146795342E-06	0.0030017598479701
9	0.00319596984096687	-0.00264456671467805	0.102636706132233	-0.978926526471575	0.102944843170107	-0.978881424585024	0.000675733376835078	0.00406973447867057
9.1	0.00390078541551822	-0.003094868405051	-0.0493866496726647	-0.981962051555198	-0.0490780356469214	-0.981922256175783	0.00240902990863796	0.00457966601483391
9.2	0.00508803556159527	-0.0031913617677402	-0.200929272829868	-0.962523992547138	-0.200582313208036	-0.962502857000366	0.00483383507704664	0.00486551692189211
9.3	0.00717694417820117	-0.00389052744758339	-0.348031368964846	-0.91957633111431	-0.347680035114939	-0.919552033986388	0.008214277038882	0.0038344306503212
9.4	0.00877534852863163	-0.00576652346398525	-0.486730080718069	-0.853556997615565	-0.48640806765999	-0.853648948834375	0.0106140660701782	0.00102223447850472
9.5	0.0107986311608474	-0.00789768154153207	-0.611430252646095	-0.766771391948235	-0.611194451123093	-0.766822213161518	0.0126539630823665	-0.00240286160953725
9.6	0.00978848031051992	-0.0122731007159192	-0.722772813525211	-0.663630497738589	-0.722462574616436	-0.663769388835943	0.0112703617030157	-0.00764319905572524
9.7	0.00734243544035304	-0.0136335612926221	-0.816976012061185	-0.543247335187567	-0.816689995692158	-0.543480162792405	0.00794977096581071	-0.0105336536409983
9.8	0.00531198247487502	-0.014189423372728	-0.89083041800017	-0.409643180179501	-0.890578485591448	-0.409812076449188	0.00417991943847453	-0.0122976618041798
9.9	0.00286342466291624	-0.0133950781841642	-0.942437988211427	-0.266755628162271	-0.942187204392778	-0.266963856661827	-0.00049648069728819	-0.0124946984926737
10	0.00318595654013416	-0.0108006735920652	-0.972727573720571	-0.118996498189745	-0.972574544157747	-0.119357362384251	-0.00318751251656861	-0.00993609982367732
10.1	0.00379723055970052	-0.0121798158249739	-0.979753650358271	0.0341329273001402	-0.979690717162291	0.0337028743654697	-0.00535480427435741	-0.0100014998905167
10.2	0.0024032534612039	-0.0127517894086626	-0.961996553468096	0.185512410086575	-0.961875521042966	0.185082897582522	-0.0089125412762845	-0.00853340287530696
10.3	0.00078729014817517	-0.0124460791790419	-0.921381232162958	0.331753786865799	-0.921398618686762	0.331214715584704	-0.0120695659296856	-0.00603262899853124
10.4	-0.00100141876478485	-0.0116093934572411	-0.859586776829324	0.469746157589592	-0.859722415387635	0.469236772224113	-0.0148354020957588	-0.0026555000158043
10.5	-0.00142896014282951	-0.00874072595348334	-0.777113826521495	0.598866494499943	-0.77728638566237	0.598435516097468	-0.0155510487086303	0.0025875509012831
10.6	0.000685242345735479	-0.00804303728007544	-0.673460436190574	0.711805675152814	-0.673732232258347	0.711477163257473	-0.0132833342082733	0.00613557443958277
10.7	0.00209873812251334	-0.00904640777114492	-0.555041437468238	0.806950074585992	-0.555340985743171	0.806642158718948	-0.0107282879245635	0.00798072359469615
10.8	0.0020516238986917	-0.0110114644482017	-0.423597519884139	0.883067473915291	-0.423946931840231	0.882770540877191	-0.00887379866330914	0.00889931103999952
10.9	0.000821386294850369	-0.0119601381885407	-0.281590460698267	0.938730284870132	-0.281979419098776	0.938607940134942	-0.00747285678846935	0.0102380832504961
11	0.000193255133303615	-0.0125110329533428	-0.131111971066619	0.970111375782871	-0.1315471508803	0.970021947141918	-0.00493305297693172	0.0115104377400665
11.1	-0.000936458178412441	-0.0131724769188091	0.0195191981019539	0.977630299900298	0.0190331936605912	0.977643841048921	-0.00245199835660403	0.0118516034781977
11.2	-0.00203183302017569	-0.0135678035658112	0.170371519722764	0.963255347017976	0.169916761748497	0.96332789344266	0.000432522936645292	0.0118220731792987
11.3	-0.00324908967799881	-0.0137582418434678	0.317764137887446	0.925424341767503	0.317307317201351	0.925560163650221	0.00340724103058734	0.0110146604029016
11.4	-0.00484389270589581	-0.0133284163818299	0.457768400763121	0.864258633202792	0.457366799049377	0.864371334813733	0.00582009164424092	0.0101487860781385
11.5	-0.00428864345950755	-0.0125027307020689	0.584095002825925	0.782207354849639	0.583778361628385	0.782507122835616	0.00971295769444115	0.00882664920391836
11.6	-0.00575823574846205	-0.0143967709076755	0.6983320943116	0.683890972633239	0.698117279347166	0.684216269972475	0.011278105638493	0.00470855801122561
11.7	-0.00837400055680287	-0.0140627573125568	0.796343884036643	0.567346711315523	0.796141146984618	0.567651093109838	0.0113259523712375	0.00175734538312545
11.8	-0.0110125577456099	-0.0130417014965034	0.874493159525201	0.436661147562931	0.874311464226682	0.437108910215909	0.010508817829192	-0.00103876509699927
11.9	-0.0138529474730604	-0.0102661738102081	0.930470657308525	0.296301606924098	0.930364193495044	0.296748131878804	0.00815845030021247	-0.00251490450819014
12	-0.0135772205821018	-0.00508896704000877	0.966197808760108	0.150738020971326	0.966167321606376	0.151100370793292	0.00811334536989244	-0.00141285719240818
12.1	-0.0121361578773979	-0.00415824346526717	0.978861690686953	-0.00181542007748617	0.978789395439273	-0.00143266102844866	0.00822583490886775	-0.00400008178162602
12.2	-0.0120260468697817	-0.00289539301674738	0.966583341331269	-0.153529371218503	0.966599456857971	-0.153232530368578	0.00668326910873144	-0.00551807305539502
12.3	-0.0113969673732299	-0.00162912297708063	0.931262322674298	-0.300997632217771	0.931379804846254	-0.300691597123669	0.00537762662620215	-0.00680965646371249
12.4	-0.011543875293484	-0.00110171119124469	0.874907757399342	-0.441340189927017	0.874968414773866	-0.440971196722395	0.00318159461092268	-0.00829423946107558
12.5	-0.0109894361307928	0.00134743933723336	0.79669056655447	-0.574056275903962	0.797028908848473	-0.573664355806109	0.000983041880295542	-0.00768448727501312
12.6	-0.00907715440673525	0.00112839483000232	0.696553697813661	-0.690444386080451	0.696803852542938	-0.690201157120928	-8.64881813307126E-05	-0.00861307375770373
