# GHZ S RI R 50
0.2	-0.00035723912674998	-0.000128319925634281	0.949034735607278	-0.307998691989687	0.948812484468091	-0.307973245362704	-0.000304941876536825	-8.45733076331025E-05
0.3	-0.000458698251721009	-2.77249761491526E-06	0.889044214213121	-0.451662471796235	0.888888035046639	-0.451567087171954	-0.000462955128232662	-0.000210019874306976
0.4	-0.000285458516108231	0.000109789571303942	0.807543800189495	-0.583928844166574	0.80755558838071	-0.583953960175574	-0.000437198597023073	-0.000201895206473771
0.5	-0.000279032018034528	6.81134672892288E-05	0.706785886415381	-0.702184398090818	0.706630897449375	-0.702082925250506	-0.000409951722566848	-0.000253234543600842
0.6	-0.000376417231299467	0.000188364854652035	0.588869661306221	-0.803196361633327	0.588750436832874	-0.803034668752774	-0.000534162137165378	-0.00028074641330756
0.7	-0.000305554651726901	0.000512322777265856	0.456766029915721	-0.884534701484653	0.45674727771286	-0.884422223302691	-0.000497122301654798	-0.000278752824998007
0.8	1.9791374560487E-06	0.000616694936940063	0.31373245596477	-0.944476876709316	0.313701122798209	-0.94428717967852	-0.000536507896825981	-0.000239588054808302
0.9	0.000318580315657161	0.000775930011932903	0.163225356503451	-0.981378378919236	0.163160345961448	-0.981286485273663	-0.000641871512744241	-0.000255803406179019
1	0.00083104820858737	0.000365582460943122	0.00889981330485314	-0.994523136752965	0.00884818087847289	-0.994491675634151	-0.000623199508627225	-0.000365509688749536
1.1	0.000663919312698502	-0.000165346738231059	-0.14560515511318	-0.983753163199327	-0.145620882326463	-0.983622754630566	-0.00107178062834094	-0.000344212194221663
1.2	0.000687826018097599	-0.00106065061916878	-0.296678548241937	-0.948878980842152	-0.296602197483138	-0.948852910103347	-0.000849946923675186	0.0002305872728569
1.3	0.000482229675920229	-0.00257937558926584	-0.440274923421322	-0.891042903023521	-0.440251899489093	-0.891036295759061	0.00038469843045857	0.000900678128320704
1.4	0.000105690241367333	-0.00420701806136381	-0.572917574669112	-0.811778558903661	-0.572893407464267	-0.811756938410832	0.00215263639592431	0.000609373537993314
1.5	-0.000535577867021249	-0.00487386496476183	-0.692119667544525	-0.712812525926211	-0.692017929437679	-0.712727621472377	0.00363331747337702	-0.000520641331652793
1.6	-0.000747138920589226	-0.00457958652414287	-0.794109220144533	-0.596373893833531	-0.794035176855906	-0.596313925386808	0.0037545480303176	-0.00173945100531827
1.7	-0.00073173803532381	-0.00442414166886811	-0.876417207279306	-0.46632293146512	-0.876581237527805	-0.465807095405859	0.00347319699164453	-0.00286384325562783
1.8	-0.00103104521898519	-0.00439854111378154	-0.938206574964981	-0.324205388760216	-0.93809539267614	-0.324204054218358	0.00261364918326226	-0.00381605861629306
1.9	-0.0013912113417105	-0.00439679892661922	-0.976935694322905	-0.17503162454701	-0.977028379634949	-0.174544344859827	0.0016601155111724	-0.00436381297041716
2	-0.00248834559647644	-0.00453795042599537	-0.991824778199179	-0.0205940471802155	-0.991836680389012	-0.0205482263590152	0.000557446033872405	-0.00482422070683589
2.1	-0.00337821609517632	-0.00347421184202473	-0.982760557249001	0.133346286771329	-0.982798614660905	0.133383355593443	-0.000450327780812596	-0.004524950591838
2.2	-0.00381783257535165	-0.00280133210997697	-0.950198509201368	0.284092623357282	-0.950123471442431	0.284155352606599	-0.000977709141029171	-0.0043537313709079
2.3	-0.00425032507676217	-0.00215167428491742	-0.894684991978458	0.427485430750879	-0.894303015314155	0.427998122530274	-0.00165488290820337	-0.00433999368669435
2.4	-0.0046967801576494	-0.00164142391437698	-0.816499866372442	0.56212360244265	-0.816766399283897	0.561538401130163	-0.0024145005227977	-0.00420754410341222
2.5	-0.00545960002529941	-0.0013132274687932	-0.719602707738016	0.681596362705946	-0.719816154589938	0.681087105612666	-0.00299929337130309	-0.00442208318206775
2.6	-0.0065273028855167	0.000112945177069868	-0.605651631778405	0.784680883145791	-0.605545604280533	0.784498327210224	-0.00363711870218639	-0.00396074081026395
2.7	-0.00641285406298335	0.00184503219092315	-0.475924877968308	0.869337265670083	-0.476373592044283	0.86893073362276	-0.00380212111058085	-0.00347742921356367
2.8	-0.00540358499603686	0.00317448309928789	-0.336478703145636	0.932034461405327	-0.335811618234967	0.932193066301037	-0.00382510559290149	-0.00305409085212185
2.9	-0.00370183522486455	0.00379476239346141	-0.187302355277017	0.972857404345571	-0.187333571715519	0.972770122476295	-0.00327776884426587	-0.00245419199538091
3	-0.00216010473816729	0.0038598260771568	-0.0334784164602445	0.990363936774405	-0.034178966664943	0.990205389118691	-0.00264267654579144	-0.00198311050882237
3.1	-0.000312291635371146	0.00366555527047269	0.119416373422795	0.98357475408306	0.120006691949164	0.983556851045739	-0.00161578513719318	-0.00171901907622517
3.2	0.00106653443233726	0.00271553313989113	0.271148821662608	0.952826561679763	0.271094042959787	0.952766304204334	-0.00102883056764111	-0.00181553774344529
3.3	0.00226379343021094	0.00154363240233825	0.415813750658258	0.899086104178698	0.415676668257875	0.899071943562229	-0.000273242869072235	-0.00194448347934461
3.4	0.00285984888384788	-1.02215063391849E-05	0.550255650491306	0.823756264900301	0.550093522902827	0.823874165944165	0.000573722574514835	-0.00261070312042597
3.5	0.0027900783868866	-0.00133672543876127	0.671643064666588	0.728414268741287	0.671563518320178	0.728453060644517	0.000908518943720724	-0.00331965654727463
3.6	0.00278292795130353	-0.00218015283065525	0.775902056170087	0.615533789026625	0.776142531682817	0.615085203625033	0.00125766472035235	-0.00395008383078517
3.7	0.00271533394360367	-0.00348999596704098	0.862194873699445	0.487127851991383	0.862076757101335	0.487270955426004	0.0013431167584237	-0.00477339389284595
3.8	0.00205518701714398	-0.00477689668581468	0.927132693613866	0.347990609743494	0.927189172815396	0.347611587068561	0.00110407822818357	-0.00561689388609049
3.9	0.00129327285868766	-0.00610152081759018	0.97012248251641	0.198628499227443	0.969884772998482	0.199295854329425	0.000322383363600908	-0.00668116541123282
4	-0.000732485724386093	-0.00728831426690117	0.988846642743493	0.0462633956440094	0.988807834216846	0.0463662254258573	-0.000717368412569542	-0.00751873870905165
4.1	-0.00265473533281687	-0.00716131076771389	0.984046762566854	-0.107353382251552	0.983862517496739	-0.107226208691399	-0.00172803371005922	-0.00784717728732675
4.2	-0.00444340321957021	-0.00697520260249959	0.955260756414291	-0.259376548082807	0.955296218935354	-0.258723294414271	-0.00274213531704474	-0.00833502689219981
4.3	-0.00622199489087314	-0.00668069517147076	0.903740857419104	-0.403903417467522	0.903605173786091	-0.403792279416371	-0.00405955692955565	-0.00886419963412101
4.4	-0.00808031170850892	-0.00598209460730975	0.829959002891118	-0.53919933492993	0.829794041262769	-0.539065991797936	-0.00558927220835804	-0.00907611166977015
4.5	-0.0101410415201402	-0.0053986465081869	0.736357387523699	-0.661107540429718	0.736168818752505	-0.660934496266833	-0.0072435243333236	-0.0092467241863278
4.6	-0.0125564830970905	-0.00332201487066751	0.624678294332394	-0.768020845475606	0.625020075944468	-0.767323316974372	-0.00905432374311974	-0.00878417929081267
4.7	-0.0138400006907898	-0.000975110979958342	0.498222322365701	-0.855539287534642	0.498238831444242	-0.855183577759169	-0.010577877771815	-0.00840437763296045
4.8	-0.0146309247956197	0.00171157742585498	0.359089122054907	-0.922303637626704	0.359310642092371	-0.921987352009104	-0.0120478847564725	-0.00785877899372835
4.9	-0.0144514211134639	0.00427796647518989	0.2121637984682	-0.966205652163273	0.211943875570033	-0.966213444282821	-0.0131959014750335	-0.00700277438233915
5	-0.01375367420936	0.00680525856636522	0.0597294620839731	-0.987731631312985	0.0599066055486476	-0.98748622852449	-0.0138963841785843	-0.00562974295539986
5.1	-0.0117254531793796	0.00916536516155217	-0.0944990084513294	-0.985249028298812	-0.0941672418661401	-0.985023690292819	-0.0139329931447511	-0.00412815420300711
5.2	-0.00915376570704194	0.010705536616937	-0.24641282720134	-0.958526481118217	-0.245920798437396	-0.958499700639101	-0.0138604536466721	-0.00271914472565831
5.3	-0.00653263810163755	0.0112402082757145	-0.392096051513327	-0.908736833147023	-0.391755261887357	-0.908953108503519	-0.0134611942885254	-0.00142562923766437
5.4	-0.00437121177300168	0.011303719434703	-0.52850902222344	-0.837152565682316	-0.528296110112823	-0.837353417310291	-0.0131086783178871	-0.000358514578016262
5.5	-0.00330860495113065	0.0117383024640471	-0.652618433378186	-0.74483308351042	-0.652379319729238	-0.74502806978278	-0.013234431046653	0.000841665199837839
5.6	-0.000618687981876446	0.0131772551554608	-0.759969803263382	-0.634035086763757	-0.759780070450678	-0.634207117682283	-0.0125787661636633	0.00238604915480129
5.7	0.00234609711984894	0.0129291233364317	-0.849094785042757	-0.508442815578164	-0.848965450635706	-0.508662773207096	-0.0120583356931056	0.00358981640469559
5.8	0.0049575621178561	0.0121351918911927	-0.917683135284804	-0.370389396937424	-0.91761529839285	-0.370674530572516	-0.0115241737323739	0.00501213598837534
5.9	0.00725537209788214	0.0103430632196426	-0.964181659376174	-0.223371334519341	-0.964196170332973	-0.22345501252491	-0.0107055961385674	0.006393270454967
6	0.00783563288253932	0.00817648491858937	-0.986773415628156	-0.0707169503692517	-0.986654180892771	-0.0707750751043066	-0.0101410417017465	0.00766769795687768
6.1	0.00865441882548937	0.00757465871701081	-0.985547192727982	0.082845465959277	-0.985420595897079	0.0826969822766935	-0.0085875562585175	0.00930629555416991
6.2	0.00992133706628627	0.0059985337820578	-0.960792581568477	0.234836341207207	-0.960778917683802	0.234633522608193	-0.00681230073355529	0.00960215206938964
6.3	0.0104926934278293	0.00368979184356853	-0.912675086508108	0.381190685967729	-0.912670621618874	0.381005352030952	-0.00547951234579554	0.00920297801924048
6.4	0.010463688077173	0.00103209879876384	-0.842191837688654	0.518250407501474	-0.842160270999704	0.518039780108123	-0.00466576806526034	0.00843027651888749
6.5	0.00944543322973262	-0.00172627742793772	-0.751543796103701	0.64213025179519	-0.751567949033188	0.64192627264838	-0.00430264634271546	0.00764862088729338
6.6	0.00826857544610705	-0.00397376166163358	-0.64314155042835	0.751348964158149	-0.643215452809594	0.751096818023796	-0.00394797824764758	0.00719109099683536
6.7	0.00636023249812112	-0.00612959834342859	-0.518445994832735	0.842204735062645	-0.518548919058942	0.841983587519597	-0.0038623030379867	0.00684372401670039
6.8	0.00411366448787191	-0.00744413647551018	-0.381247715297457	0.912379684475975	-0.38138945380212	0.912209033391996	-0.00378878886121875	0.00695986121595089
6.9	0.00168292529038925	-0.00813188155078793	-0.235075712736126	0.960200543450618	-0.235302351855217	0.960090255083198	-0.00330396778778797	0.0072302286971299
7	-0.000427560961459503	-0.00784515884721709	-0.0834971276850268	0.985409847835858	-0.0837070379193603	0.985320063533264	-0.00255976307766849	0.00742289210466434
7.1	-0.00192445808333183	-0.00739477103407067	0.0710854326730988	0.986452087428233	0.0708832399192615	0.986318967315755	-0.0015534534518213	0.00742814413464715
7.2	-0.00326730848892961	-0.00686322551438622	0.2234257809242	0.963084266464194	0.22314358480054	0.963049996083951	-0.00043891384547534	0.00736875351922086
7.3	-0.00458135272585268	-0.00618677469842333	0.370044964363701	0.916569873729896	0.369808917108327	0.916596350381721	0.000713898726254899	0.00706373696130734
7.4	-0.005546469643128	-0.00535091708129565	0.507773629420402	0.848122611906708	0.507560217731629	0.848173957711375	0.00170560777564834	0.00638683143409806
7.5	-0.00661993951765238	-0.00441228917160814	0.633789937512161	0.758774368818358	0.633620410043905	0.758844328362778	0.00251654375895996	0.00566048792118869
7.6	-0.00664340663735102	-0.00298901368976781	0.743497166071369	0.650562938152517	0.743239759252038	0.650645781698455	0.00360023698969303	0.00464710497960889
7.7	-0.00629136086552519	-0.00202024271657059	0.835097174887181	0.527309464101006	0.834912008906401	0.527526887237732	0.00418138220587706	0.00328437360583352
7.8	-0.00553746136618719	-0.00140183638930958	0.906852104736738	0.391225549929118	0.906749387599734	0.39145112029455	0.00456441358043757	0.00186355525086629
7.9	-0.00496212708766432	-0.00144705345137068	0.956663088671299	0.245547917803023	0.956525277126013	0.245727858908605	0.00457240806714496	0.000390938209430366
8	-0.00583484646919997	-0.00182589875855767	0.982320157638804	0.0936258145684976	0.982297609723965	0.0938885070260839	0.00340699119631366	-0.00106735153545478
8.1	-0.00637221132632582	0.000255997159599976	0.984739152348054	-0.0593639257824477	0.984768359915892	-0.0591085042529363	0.00232807100952221	-0.0010656390760191
8.2	-0.00543707830341168	0.00188399772850527	0.963619085188947	-0.211440651151889	0.963667728066475	-0.211123705501113	0.0014427612141421	-0.00124237638713123
8.3	-0.00420486338863519	0.00316815643275218	0.918984963779613	-0.358489536229313	0.919036610221567	-0.358202500941607	0.000484428457751065	-0.00105785120375216
8.4	-0.00222757290690254	0.00381120969606268	0.851794099431608	-0.496728836325912	0.851892085335943	-0.496527065073966	-0.000140693259407832	-0.000640173305533518
8.5	-0.00119234353750023	0.00299288111802981	0.764435360539013	-0.622039811868817	0.764486779126542	-0.621889229509777	-0.000838882667108602	-0.000547753723464661
8.6	-0.000688002992201936	0.00383144329558826	0.658885068624517	-0.733436069335286	0.659053620082952	-0.733199046628408	-0.00133359323291299	0.000657171989115714
8.7	0.00109023104628466	0.00444012226624161	0.536718098452732	-0.82679433315876	0.536977402353615	-0.826579075309261	-0.000907694183946872	0.00159072829786119
8.8	0.00342818156120664	0.00428948337310005	0.401826076327362	-0.899768710417319	0.402011402795742	-0.899629801349919	-0.000337723840995783	0.00214140347173362
8.9	0.00595468689541038	0.00320559591083087	0.257552045535622	-0.950877902152464	0.257731110897464	-0.950708001680866	0.000770844406602933	0.00269204839572984
9	0.00806155928022504	0.000707189851106189	0.10718421577578	-0.979676728147074	0.107492531185106	-0.979630178982096	0.00230972498325955	0.00272393069782574
9.1	0.00947476855519565	-0.00176715772405462	-0.0467160912962902	-0.984389761287327	-0.0464068712036629	-0.984348997729178	0.00436095817226021	0.00240731903431477
9.2	0.0102900376795053	-0.00490674888073529	-0.199007062912376	-0.964735526074391	-0.198659528152296	-0.964713529007166	0.00656909315187835	0.00106088458515554
9.3	0.00980043559649899	-0.00768565627506683	-0.346085813252605	-0.921970438987281	-0.345733991272905	-0.921945150533335	0.00834486297174505	-0.000915402495931683
9.4	0.00868724626551286	-0.0100399318166609	-0.48474288082683	-0.857314405686501	-0.484419784851093	-0.8574053945532	0.00957297276430688	-0.00352954862064769
9.5	0.00606510108589586	-0.0105256316496234	-0.612466067652507	-0.77136836954675	-0.612229139956536	-0.771418916278132	0.0091650352773567	-0.0061426565441034
9.6	0.00606745954450607	-0.00967949622609333	-0.724203182178754	-0.666249846521514	-0.72389191400374	-0.666388833708325	0.00894484280630296	-0.00833241279004695
9.7	0.0062425425202273	-0.0100546279378819	-0.818364436870244	-0.545890048884542	-0.818077317409576	-0.546123080862433	0.00722247431264773	-0.0111142821169071
9.8	0.00617211840561191	-0.0107179112455348	-0.893039080628985	-0.412403679434807	-0.892786063581505	-0.412572712594528	0.00438274291813499	-0.0129578574991489
9.9	0.00592410015830517	-0.0116847156726793	-0.946281042171587	-0.268608448315747	-0.946029025870099	-0.268817381388995	0.00126957989306038	-0.0138581646841993
10	0.00361547860295241	-0.0127575446209954	-0.975555719655957	-0.118118337989479	-0.975402715667093	-0.118480386433376	-0.00281097506799381	-0.013924575406847
10.1	0.00239829780721111	-0.0109680572434021	-0.981711763914348	0.0338653442462858	-0.981648558511782	0.0334344584509535	-0.0060239042732173	-0.0120033104273949
10.2	0.00262666355713914	-0.0103906176193392	-0.964772883292921	0.185652601849585	-0.964651340713129	0.185221930549242	-0.0086436985680545	-0.0100584601635772
10.3	0.00267866536349936	-0.0103291110484967	-0.924146287721855	0.333163691989	-0.924163943465816	0.332622932671727	-0.0110441136293922	-0.00761987062173908
10.4	0.00268620882521073	-0.0111689178667078	-0.860747836145727	0.472258431514231	-0.860884639333138	0.471748117998918	-0.0126745448921342	-0.00485841461124028
10.5	0.00127857923130094	-0.0124318807755275	-0.777228699271064	0.599026284428974	-0.777401316384691	0.598595233001494	-0.013666629783198	-0.00219581962474117
10.6	-0.000587567767606015	-0.0121558655619469	-0.675454310973045	0.712571278545597	-0.675726332235518	0.712241864927683	-0.0138362776485001	0.00117879921025897
10.7	-0.00165285592567625	-0.0111562267700452	-0.556562983183802	0.808800200976637	-0.556863196941564	0.808491471921381	-0.0126199267223169	0.00441974548938674
10.8	-0.00191249973019366	-0.010485328355066	-0.424238091677736	0.885035204661073	-0.424588318382589	0.88473774722177	-0.0104012936941729	0.00699405562223813
10.9	-0.00213874610983013	-0.0100475458787794	-0.282205020950205	0.939702724222928	-0.282594380520744	0.939580118353647	-0.00789686363602575	0.00867964574625047
11	-0.00250346111964536	-0.0100057656143868	-0.133517708322628	0.972798446452376	-0.133954030292318	0.972707845208213	-0.00510227043473766	0.0096766738337006
11.1	-0.00249070284306438	-0.00979242113108711	0.0197258332178933	0.981575491674675	0.0192378679872058	0.981589151028774	-0.00197369060808281	0.00993967309459142
11.2	-0.00257228696845523	-0.0102100216198858	0.171613553098858	0.966264591498842	0.171157368786321	0.966337698657836	0.00110985496586651	0.00936422378697779
11.3	-0.00288444005915966	-0.0107317865361056	0.319038954947113	0.927956623926553	0.318580875990532	0.928093014711041	0.0041998152557652	0.00821938461551359
11.4	-0.00371012474245856	-0.0117124596557141	0.459032105998593	0.867710597254003	0.458628951271733	0.867823513661468	0.00688862793853708	0.00644164644145864
11.5	-0.00600369156542594	-0.0114641248461334	0.588839055191627	0.785623353090915	0.588521145163057	0.785925403144183	0.00845352722030684	0.0044473770546946
11.6	-0.00660762161570398	-0.0101828442962326	0.702832799775342	0.684203819978598	0.702618203650883	0.684530903293919	0.0102009446783435	0.00239231512382856
11.7	-0.00695931035269688	-0.00964451839950552	0.800128462701174	0.567197735551627	0.799925825873609	0.567503530455244	0.011024609543187	-0.000275918170995954
11.8	-0.00759309569378633	-0.00939274690866032	0.878576675272349	0.436285510927103	0.878395321779351	0.436735271818939	0.0109581875101331	-0.00275819869548424
11.9	-0.00829133591682993	-0.00934944753149012	0.935919229825234	0.294475697760485	0.935813811943536	0.294924713070611	0.0103522668359094	-0.00476089583062702
12	-0.0113245722659457	-0.00942785870854868	0.969299257172202	0.14539750592859	0.9692708324405	0.145760865573398	0.00899451420795826	-0.00686353131365005
12.1	-0.0128089170313346	-0.00629201086185963	0.979918937454866	-0.00586338604773559	0.979848145619196	-0.00547991185707602	0.0082294195868947	-0.00774314022789099
12.2	-0.0131112359719296	-0.00438852514299746	0.967375043242936	-0.157702743077167	0.967392394847075	-0.157405532344294	0.00715410567516495	-0.0095260901091256
12.3	-0.0133531344982274	-0.00255460887953167	0.931021371046287	-0.305843142682754	0.931140469479193	-0.305537275641481	0.00531231154076545	-0.0111152441151483
12.4	-0.0132365525137208	-0.00106094415536241	0.872097851401287	-0.446386044475743	0.872160667133641	-0.446017497425943	0.00318109576702611	-0.0121396309024927
12.5	-0.0137769807358845	-0.000317470814512755	0.792605880479861	-0.57517891892522	0.792944623602781	-0.574789196180126	0.000390541943118647	-0.0130595067177033
