# GHZ S RI R 50
0.2	8.55394289054678E-05	-0.000784423372563527	0.951828515652755	-0.307338500936152	0.951605679976202	-0.30731332371347	0.000116660456919921	-0.000716651470956325
0.3	-0.000469380267201945	-0.000802275770513116	0.892599666580342	-0.451386811283059	0.89244283296177	-0.451291426103175	-0.00050006673216362	-0.000958317167751907
0.4	-0.000974558948539841	-0.000492856305107403	0.811938433677337	-0.584546670162757	0.811950320550869	-0.584571860504504	-0.00114476002115283	-0.000727223950535399
0.5	-0.00083445154578826	0.000694995514700167	0.711124930863284	-0.704700857960279	0.71096905749126	-0.704599088977411	-0.000978388156199897	0.000455364522722796
0.6	1.77200803011005E-05	0.0001537289542015	0.592302299784628	-0.806177911865373	0.592182381272786	-0.806015619446074	-0.000176992385120162	-0.000208124055452875
0.7	-0.000354868403716931	-2.20107660016252E-05	0.460076341625798	-0.88828123119225	0.460057360018805	-0.888168228310519	-0.00057960464139779	-0.000653919817142817
0.8	-0.000516043471699287	-0.000102530960777005	0.316416520660407	-0.949364695091125	0.316384823006912	-0.949173984322259	-0.00105363918837315	-0.000746638753929992
0.9	-0.00135625790329001	-0.000101872965028454	0.164450083776184	-0.987264893605169	0.164384658282206	-0.987172460883633	-0.00223147343578193	-0.000885039349320661
1	-0.00200874793724538	0.00229713755707923	0.00846325272033172	-0.999671782575641	0.00841136852859192	-0.999640133642357	-0.00325962125787869	0.00173276569558978
1.1	0.00101281862949034	0.00215371814901663	-0.145942793799041	-0.989182704762564	-0.145958667116944	-0.989051592768525	-0.000565872603700094	0.0019788600226583
1.2	0.00156785807048236	-7.75671229151209E-05	-0.2984736654182	-0.95484595572934	-0.298396837934702	-0.954819716504211	0.000102831885750242	0.00113250034267897
1.3	0.00191629380364814	-0.00267260675944393	-0.443715573807332	-0.896580591161535	-0.443692395416013	-0.896573955412371	0.0017301172655315	0.000725757574149477
1.4	0.00166572414199419	-0.00538276024330104	-0.577422670890737	-0.816045050154341	-0.57739832919299	-0.816023326931536	0.00347931911792661	-0.000524866988040904
1.5	0.00270266687941495	-0.00747883300964492	-0.696312681605217	-0.716925998889622	-0.696210330034729	-0.716840607196745	0.00653940426458029	-0.00291418303396797
1.6	-0.000656415475705099	-0.0100117569758757	-0.800630461835726	-0.600470542406277	-0.800555807683317	-0.600410158205358	0.00357579532294235	-0.00661472306268522
1.7	-0.00301990111437942	-0.00801719947093454	-0.884234855659362	-0.468336967008873	-0.884399198338103	-0.467816740357148	0.00115114048522193	-0.00581895322483793
1.8	-0.00415376298075838	-0.00617749485668563	-0.946214516101074	-0.32426318503122	-0.946102480504651	-0.324262127101468	-0.000349353060892163	-0.00500751854896127
1.9	-0.00480491836075225	-0.00341272308054406	-0.984663677764129	-0.173914649229987	-0.984755846155123	-0.173423501598344	-0.00146711405197706	-0.00293780780924639
2	-0.00131472566315332	-0.00174359803594334	-1.00106146192726	-0.0181643952337844	-1.00107335330326	-0.0181181187567707	0.00193435938977489	-0.00177165281786123
2.1	-0.0022193374912491	-0.00493509694049024	-0.991022817259229	0.139672855297721	-0.991061028722223	0.139710459929859	0.000797724138610053	-0.00564482341598921
2.2	-0.00470724752176695	-0.00421163149651293	-0.956289043058488	0.291979054623638	-0.95621302528686	0.292041856192868	-0.00168871019735445	-0.00535707980086639
2.3	-0.00617886328878547	-0.00274209671370153	-0.899127082884385	0.436340891072117	-0.898738950317045	0.436855288921751	-0.00327395154562715	-0.00457478489082494
2.4	-0.00774763062449505	-0.000382767454425863	-0.819688911725662	0.572233154671094	-0.819961540528379	0.571644771043102	-0.00504650400732924	-0.00279089633500603
2.5	-0.00547933332803734	0.00367537266139392	-0.719445558404474	0.694162085209308	-0.719665584464763	0.693650434857391	-0.00273656105927337	0.000360993102882971
2.6	-0.00311256813608046	0.0018469356017331	-0.601540243512718	0.795357698299302	-0.601435381560333	0.795173002498619	-0.000301149337876115	-0.00245055437060993
2.7	-0.00345999044492411	0.00112817623155215	-0.470248238718006	0.878660303202623	-0.470703299965991	0.878255816266487	-0.00112676289121084	-0.00425058453828749
2.8	-0.00376052431828846	0.0011375012495149	-0.328952325013678	0.940433675257911	-0.328280052596755	0.940586449887417	-0.00252883714872408	-0.00496205004997421
2.9	-0.00320643141045153	0.00174552422055414	-0.177105977677316	0.979895797457506	-0.177138350453848	0.979808433960122	-0.00315540475510738	-0.00418148358738952
3	-0.0019271848969694	0.00119725654941427	-0.021206624123471	0.992746019822866	-0.0219105395324897	0.992595885246521	-0.00277183922881961	-0.00414113291187643
3.1	-0.00221628828873666	0.00123014965419039	0.129824432655155	0.983782288840244	0.130415435083003	0.983758218392631	-0.00374771059560075	-0.00360064608252574
3.2	-0.00133218973869482	0.00176613584813685	0.2818817140472	0.951573633924699	0.281826190774251	0.951513860844826	-0.00349098119897377	-0.00209829012491045
3.3	-3.93026885180408E-05	0.00172566706089363	0.426615584103387	0.895234129815192	0.426478194783282	0.895221534862613	-0.00253654046902081	-0.00113315991268827
3.4	0.0013952638357969	0.00164156021556437	0.559683816833453	0.816531848364232	0.559523226010895	0.816651597544242	-0.000824862496813146	-0.000417665228710614
3.5	0.00413129563309871	-0.00078850736414884	0.677131997622316	0.7205594131175	0.677052982648411	0.720598876051548	0.00220032519894713	-0.00224652216590975
3.6	0.0021106174712642	-0.00366212851256344	0.781696034059687	0.607877707956118	0.781932108748386	0.607426891183076	0.000559319350545688	-0.00475476976229214
3.7	0.000881410861463606	-0.00395934933756161	0.866603373467437	0.477371839358313	0.866486912291863	0.477516075741473	-0.000371174789748416	-0.00453219193884363
3.8	-0.000198376905378295	-0.00417523503404245	0.928850920949858	0.337212108453841	0.92890318252564	0.336833309786343	-0.000902926652714971	-0.00438622024173011
3.9	-0.000962771025792222	-0.00338668676550592	0.969015388924554	0.188675746756852	0.968784840450079	0.189343312813479	-0.0016291606637351	-0.00353250304483454
4	0.00134452277929837	-0.0033074135816447	0.988315878508079	0.0372500480599848	0.988278039956783	0.037353131003024	0.00144005601754161	-0.00333038019032137
4.1	-0.000169539537371571	-0.00715997712504855	0.980904132350251	-0.118763386816928	0.98072173946294	-0.118634281018344	0.000588689133949242	-0.00749787490960568
4.2	-0.00336907417935039	-0.00768783950274394	0.948626596657249	-0.269583376996124	0.948669573543036	-0.268932998665393	-0.00185423358730915	-0.00855347695101206
4.3	-0.00618483162468196	-0.00759042433003811	0.89513600677791	-0.412024442583677	0.895002172374538	-0.411912316995202	-0.00416312281959466	-0.00919780142309913
4.4	-0.00975548847647896	-0.00588078697227835	0.820784995593793	-0.545772365055079	0.820622135306698	-0.545637824209567	-0.00730789607715704	-0.00844223201028574
4.5	-0.00998490221318322	-0.00181834907594916	0.724260888489589	-0.668167261203365	0.724075467899806	-0.667992425367118	-0.00723663981807697	-0.00537307861754528
4.6	-0.00973972731313596	-0.00210121144301699	0.60953775537665	-0.769809469731738	0.609885788901796	-0.769122139576214	-0.00671466868898065	-0.00717830181841514
4.7	-0.01129775249408	-0.00125179785265484	0.483894286868685	-0.853379610199968	0.483914702693393	-0.853027349921789	-0.00866511687022601	-0.00805323139230862
4.8	-0.012525612556365	0.000422774037606153	0.345726620373374	-0.917451070300148	0.345949459864251	-0.917140171922614	-0.0106064902235737	-0.00827085068996109
4.9	-0.0130620822931551	0.00255566146092692	0.198948623322799	-0.958995508485478	0.198730806692489	-0.959000696991417	-0.0124016654907046	-0.0076140299075051
5	-0.012113326277232	0.0042115475749559	0.0475916182727502	-0.974583829665242	0.047769089043963	-0.974343890098918	-0.0127677617983964	-0.0068548802429409
5.1	-0.0126583582765938	0.00555221502224898	-0.100521929587071	-0.970326670570978	-0.100193259997854	-0.970107070644798	-0.0150425802925367	-0.00613227209323865
5.2	-0.0119587341739246	0.00866231023008455	-0.24945916576147	-0.943643868704783	-0.248973745750823	-0.943620766713735	-0.0164169250100844	-0.00318374292229323
5.3	-0.00984579237572632	0.0116168288135929	-0.39236417949459	-0.89316365359823	-0.392029678850191	-0.89337903668196	-0.016222889465452	0.000259820678693543
5.4	-0.00575837847050114	0.0148507210062151	-0.524743403205909	-0.820495853769194	-0.524535110416633	-0.820694667613595	-0.0139303747891191	0.00410610145668239
5.5	0.00128110240339206	0.0125282742453622	-0.642397897964616	-0.731255556983623	-0.642163124655381	-0.731447510690199	-0.00844771260125071	0.00239973405885454
5.6	-0.000205683857064128	0.00959930501160513	-0.749719177610724	-0.6245486345804	-0.749532243477079	-0.624718378538402	-0.0120205858063586	-0.000109271963947531
5.7	3.4238696133843E-05	0.0108577648923072	-0.837489005207904	-0.500279457297413	-0.837361751520203	-0.500496405859551	-0.0139629161962025	0.00263905204341512
5.8	0.00140850431362585	0.0121282380744437	-0.903922344170091	-0.3646136363729	-0.903855589417917	-0.364894484514112	-0.0144217001330698	0.0059290507431062
5.9	0.00364343441635554	0.0145407804577859	-0.948773418414675	-0.222012051341278	-0.948787522787543	-0.222094465834739	-0.0136109407773875	0.0110251221050937
6	0.0122132313338678	0.0145937351251476	-0.974837560191758	-0.0735092309960065	-0.974719522641354	-0.073566229377286	-0.00570264743496883	0.0140697692533309
6.1	0.0142751150014422	0.00705159508674096	-0.973592689876556	0.0808045882514783	-0.9734674848328	0.0806580510433756	-0.00346680258809091	0.00920501848583222
6.2	0.0133950588544719	0.00323403503319322	-0.948147955252796	0.229782008367705	-0.948134086438749	0.229581981150444	-0.00388758348068141	0.00770086884685691
6.3	0.0117613122819378	-2.99641026896157E-05	-0.901498983124019	0.372759795074905	-0.901493928692872	0.372577018218083	-0.00454994289461925	0.00667471480059292
6.4	0.00952001340850553	-0.00181111474610362	-0.83444184122899	0.507965011041569	-0.834409656488311	0.507757087574164	-0.00565995234943323	0.00686315818480577
6.5	0.00822140891158445	-0.00344186712239012	-0.744152539580996	0.633353622203326	-0.744176029778801	0.633151933355732	-0.00532678330509407	0.00716216280832919
6.6	0.00610582769381978	-0.00451853453070105	-0.636026209482881	0.738000046361426	-0.636098173377767	0.737751420604759	-0.00565322187400539	0.00765778828160522
6.7	0.00498275398904507	-0.00503612986376718	-0.515763138592653	0.826856896356532	-0.515863268066004	0.826638386367351	-0.00477339157308091	0.00863045881104558
6.8	0.00409625474813874	-0.00600446465625473	-0.382421764667742	0.897423904158206	-0.382560407997898	0.897254574703612	-0.00352727477919542	0.00887108623698347
6.9	0.00299755657182247	-0.00703708304949438	-0.238060621126515	0.946544689627055	-0.2382836963124	0.946434392786542	-0.00201661873322671	0.00878674532867796
7	0.00140234017529452	-0.0089051864988962	-0.0885219770395837	0.968793941042694	-0.088727881175479	0.968704260998217	-0.000989989151564473	0.00693360173074852
7.1	-0.00188392598752609	-0.00879508921243576	0.0589318796621523	0.972159777669528	0.0587342733754268	0.972026425801723	-0.00187809732248381	0.00679470126200996
7.2	-0.00368458981405245	-0.00777496637566787	0.208866531630347	0.953050180531092	0.208588477728256	0.953012962020046	-0.00124097393526833	0.00738598228064208
7.3	-0.00519045055119694	-0.00676707150228146	0.354267884146639	0.909599478325466	0.354034468879836	0.909622753046974	-0.000280275470720761	0.00755942398071759
7.4	-0.00598240628692814	-0.00534520081107513	0.490056192250167	0.843026913227859	0.489845035685382	0.843074842592099	0.000931197768731741	0.00761500602321806
7.5	-0.00545665753711436	-0.0054265595613009	0.611803791975846	0.760147570108526	0.611635244225728	0.760213562554382	0.00326572172888464	0.00605125516361969
7.6	-0.0077379797113628	-0.00607955236659738	0.725414461173331	0.658784598306314	0.725157672099224	0.65886204002449	0.00238497993944717	0.00333961192107719
7.7	-0.00973534862494282	-0.00394273605228753	0.819786114186776	0.538055684567834	0.819598499802996	0.53826828460056	0.00104878565979882	0.0031096562466208
7.8	-0.0104625915896306	-0.00111147232770363	0.893534139607055	0.40480477881772	0.893428082236944	0.405026939389173	0.000289421469387351	0.00362169562234725
7.9	-0.010018890997519	0.00317082138970098	0.945878546081733	0.263440575480145	0.945737925451293	0.263616631594909	0.000583393825112161	0.00609211592161704
8	-0.00303790365188312	0.00590461959000135	0.98003818747366	0.114214594075684	0.980010132898159	0.114476728556887	0.00619609144124007	0.00711913114658419
8.1	-0.00122097765758988	0.00154406445430843	0.985954126472065	-0.0424105126413178	0.985978939366546	-0.042154538058157	0.00710129917126954	0.000814548662899174
8.2	-0.00181617582717071	0.000731647421402094	0.966963350501612	-0.194620155628178	0.967006468093511	-0.194302473300468	0.00446990409068026	-0.00136002313181041
8.3	-0.00230147305007865	0.000506690361698997	0.926114842589754	-0.341822079357483	0.926161247345519	-0.341533925170402	0.0018566136530699	-0.00232945616219393
8.4	-0.00368463593649311	0.00166151880670544	0.864264920824312	-0.482437635951777	0.8643594501395	-0.482233282380753	-0.00187326913886951	-0.00128098915530585
8.5	-0.000178085588230119	0.00571205383332023	0.777386191397715	-0.614511494400847	0.777435744913558	-0.614359372215517	-0.000182130542639909	0.00344030691930321
8.6	0.00300676672198217	0.00147644879834818	0.671233524095067	-0.7252375103543	0.671398918275385	-0.724997462838198	0.00172527559948363	-2.89664230379879E-05
8.7	0.00194275170101504	-9.46066911861115E-05	0.552222951523822	-0.820764714392519	0.552479588920816	-0.820544432716611	-0.000456143321085881	-0.000794479143795501
8.8	0.0015707650840246	-0.000550436482202898	0.418886231415079	-0.898102341364599	0.419070288415514	-0.897959608710624	-0.0020833398597671	-0.000257363672294009
8.9	0.000936648096463508	-0.000396180544140792	0.272930161225141	-0.95401297522709	0.273108088762665	-0.953839310547086	-0.00346138321412725	0.00146529197879086
9	0.00255653374692206	0.000699111651563532	0.120651956591374	-0.981463413290548	0.120960662808977	-0.981412583788772	-0.0019846027914595	0.0046132304570406
9.1	0.00370387476880485	2.99832117179723E-05	-0.0297445475756631	-0.990577651186924	-0.0294343538913847	-0.990531253956352	-7.55833343659388E-05	0.00563977005564546
9.2	0.00605086732664498	0.000244309016477622	-0.184540216520086	-0.976266358659411	-0.184190096945386	-0.976238353957262	0.00359043330987222	0.00712316966350521
9.3	0.00917919511196874	-0.00114412551334794	-0.335605362662575	-0.936099627672418	-0.335250510235588	-0.936068815022658	0.00862692667897494	0.0061283244420138
9.4	0.0119483997548789	-0.00298973280642166	-0.477034428013689	-0.871165576454796	-0.476707371887478	-0.871252891063541	0.013129739266565	0.00376463873459539
9.5	0.0160757371992255	-0.00995726606020204	-0.603720300713272	-0.789356311728973	-0.603480368005141	-0.789402962775132	0.0185711695450898	-0.00499707634721855
9.6	0.00949093203784467	-0.0155100044563456	-0.723339921178138	-0.687847837462884	-0.723021899710045	-0.687983587010258	0.0117503353260124	-0.0127196648571337
9.7	0.00557360520382273	-0.0145805809353806	-0.822899578597271	-0.565720112178613	-0.822604833752477	-0.565952564599418	0.00637867432553873	-0.0138786319940313
9.8	0.00317143652316663	-0.013448408045291	-0.90090763380439	-0.430457670328625	-0.90064858253595	-0.430625864793124	0.00162053531239898	-0.0139854772580759
9.9	0.00138074756101115	-0.00982955052291144	-0.957018399368987	-0.286677517826983	-0.956759403475657	-0.286885990790813	-0.00279336141794404	-0.0108533770235504
10	0.00715494169304981	-0.00880542443918705	-0.995188452373205	-0.134232820800158	-0.995027087758694	-0.134600640241218	0.000589102003534361	-0.00925621930385884
10.1	0.00465336732322417	-0.0140398037831892	-1.00300973829208	0.02654685551345	-1.00294164882323	0.0261072617728262	-0.00427205484650378	-0.0138379496530808
10.2	0.00119961524980563	-0.013547824891945	-0.985710315253232	0.18234841405168	-0.985583149630432	0.181909894427878	-0.0103595252348776	-0.0116926595881627
10.3	-0.00118279794076682	-0.012061908951146	-0.945970436672362	0.333492007898309	-0.945984559334433	0.332939758231364	-0.0149025770919475	-0.00787150417486099
10.4	-0.00326628113515271	-0.00930074663807231	-0.884520668853664	0.478307861071528	-0.884657594598314	0.477784347860697	-0.0184558421999693	-0.00185615695626265
10.5	-0.000766764358732991	-0.0051568524838918	-0.796217126133451	0.614937186216478	-0.796394541548343	0.614495439332291	-0.0158166210628934	0.00574211620313519
10.6	0.00214884023712295	-0.0065846593560989	-0.688035360283072	0.728474728968358	-0.68831358455977	0.728139040610705	-0.0117572350855033	0.00736198513521941
10.7	0.00313148353722229	-0.00834689412158219	-0.56676817453509	0.826321979898697	-0.5670750507948	0.826007359395745	-0.00894026636886842	0.00815004542060205
10.8	0.00264255341413372	-0.010488019306402	-0.430775858807608	0.905241014470614	-0.431134456077356	0.904938191313305	-0.00715785599490389	0.00841634819076013
10.9	0.00154960567249774	-0.0114983563429411	-0.281971499048348	0.961879053272109	-0.282370085387076	0.961756421770413	-0.0052156574753772	0.00924137484068899
11	0.000806324084050963	-0.0131631004979352	-0.127537274958862	0.988835951066798	-0.127981043482543	0.98874756050045	-0.00268050767763896	0.00877025998432051
11.1	-0.00170847604067721	-0.0135258012886971	0.0244970947809043	0.997561728376266	0.0240011998434112	0.997577823076036	-0.001885683646653	0.00883834662490719
11.2	-0.00311381675052351	-0.0132615744886355	0.180556320774092	0.98256587601602	0.180092392612057	0.982643063133377	0.000313623045677751	0.00915071475726418
11.3	-0.00433050422174365	-0.0126769310800233	0.332453308159667	0.941486976936853	0.331988371837035	0.9416296205981	0.00280299978083493	0.00919582927024783
11.4	-0.00477919309184756	-0.0110104979035277	0.474257920253099	0.875513057331898	0.473850137460057	0.875631615134221	0.0061396762419949	0.00974344985853422
11.5	-0.00228585545178226	-0.0134173745658693	0.60075925209432	0.793525912532178	0.600438455904446	0.793833661317433	0.012397182733215	0.00494620488177955
11.6	-0.00788073251461349	-0.0159442762994699	0.720757504455988	0.691328359930896	0.720541478140905	0.691663001958814	0.00952845261878105	-0.000473756631108089
11.7	-0.0116140333963096	-0.01338471277734	0.819902046471328	0.568399933903142	0.819699192680997	0.568713135236024	0.00764560679327536	-0.00131183617193827
11.8	-0.0144403479358397	-0.0102804256533116	0.89705445200418	0.432585677499342	0.896875630492964	0.43304440400483	0.0058823173437344	-0.00148187393823411
11.9	-0.0158192283326149	-0.0038484138254816	0.95199861028498	0.289170526176712	0.951896240131109	0.289626894392356	0.00458751996073628	0.00180652203826061
12	-0.0084843467183988	-3.23585438151287E-05	0.989627308676738	0.1372528793324	0.989602439877959	0.13762356477565	0.0129506998449052	0.00284935446396918
12.1	-0.0087359157820297	-0.00340991420668168	0.996254615221207	-0.022424710719901	0.996189078663387	-0.022033615940765	0.0122998091340777	-0.00463432209846425
12.2	-0.00943458299853835	-0.00312573722105737	0.978193182430342	-0.17658470711052	0.978215900057145	-0.176283636576236	0.0103646745833606	-0.00764162399701097
12.3	-0.0100268345485012	-0.00302090051118105	0.93814624693874	-0.325654478347087	0.938272100056227	-0.325346585957882	0.00794489711108633	-0.0105931565228173
12.4	-0.0121624088353651	-0.00177657383184808	0.877344339418244	-0.468497560966889	0.877414605750345	-0.46812457583829	0.00364329550011785	-0.0116529697454694
12.5	-0.0100770591266421	0.0016953599820358	0.789231770011873	-0.602953469265732	0.789584945508983	-0.602566802561249	0.00306158243389337	-0.0100765494908583
12.6	-0.00942607800649827	-0.000914781245092862	0.682850374050026	-0.713537957882649	0.683108653048789	-0.713299754612863	0.00100289356393004	-0.0140434063489482
