# GHZ S RI R 50
0.2	-0.000256003343736306	9.1289470143849E-05	0.948458259129027	-0.308183795166421	0.948236126430394	-0.308158282209956	-0.000227655489568378	0.000161651285780757
0.3	-0.000217562819665582	0.000184482926782303	0.888269657668668	-0.451750102820298	0.888113621471267	-0.451654713271751	-0.000252169922248514	3.55118051828396E-05
0.4	7.48601660494611E-05	0.000165603456080015	0.8066001237415	-0.583777385385295	0.806611890998475	-0.583802484974285	-9.77129199125558E-05	-5.70787286509585E-05
0.5	-5.83948763956183E-05	-6.77892798779252E-05	0.705934251199049	-0.701700041407992	0.705779435466972	-0.701598624950824	-0.000203762525646831	-0.000295318036209346
0.6	-0.000185424525962025	0.000198717798327346	0.588073740298792	-0.802635413940757	0.587954676690367	-0.802473833775408	-0.000384724690194105	-0.000146997003742724
0.7	-2.96851765066452E-05	0.000470683276218757	0.455998675588459	-0.883730730503747	0.45597997884259	-0.883618366920788	-0.000259120291202282	-0.000135988221192888
0.8	0.00028989734349226	0.000500024991817781	0.313140579322398	-0.943422133460648	0.313109327247744	-0.943232655573787	-0.000245515568630372	-0.000111384706001232
0.9	0.000645058018495067	0.000523777653756816	0.162940464875756	-0.980180506739507	0.16287554242896	-0.98008872104393	-0.000214425967617795	-0.000222654995794001
1	0.000744611026791939	-0.000225299189931331	0.00877579228782262	-0.993401980288251	0.00872422174434331	-0.993370548772053	-0.000465694321626854	-0.000764267623051051
1.1	9.39884146210956E-05	-0.000122340531389675	-0.145570651760385	-0.982402223702569	-0.145586336292972	-0.98227198846759	-0.00142910494911846	-0.000286930377600232
1.2	0.000201440724238949	-0.000330739083396044	-0.296260512008302	-0.947493514399337	-0.296184272001327	-0.947467482728586	-0.00123733047140456	0.000883079490198626
1.3	0.00050815566472239	-0.0011365428541037	-0.439533783942553	-0.889774964706634	-0.439510794631551	-0.889768364807098	0.000333470044145264	0.00224290652614262
1.4	0.00091546205810545	-0.00278559410830738	-0.571985040712937	-0.81067870973364	-0.571960911218651	-0.810657117391918	0.00272687840075838	0.0020409890355474
1.5	0.000538692318976867	-0.00373001210746605	-0.690925091628171	-0.711659248291492	-0.690823528034956	-0.71157448017267	0.00432121084113048	0.000830579952882895
1.6	0.000702948955100131	-0.00421571722067801	-0.79243535853883	-0.595593382116382	-0.792361472983634	-0.595533494394731	0.0048877987102836	-0.000844141308418538
1.7	0.00030364676051814	-0.00472236189322978	-0.874619052330467	-0.465972978719134	-0.874783071465481	-0.465458141434402	0.00443459608813348	-0.00249279225233426
1.8	-0.000443248663402233	-0.004987667590008	-0.936345711784232	-0.324204133384959	-0.9362347273423	-0.324202733293229	0.00334480868016411	-0.00376265956969713
1.9	-0.00138087817008213	-0.00513524144630185	-0.974955176226928	-0.175350897324819	-0.975048010512263	-0.174864609122205	0.00195840184563587	-0.00461994476905862
2	-0.00303136611549329	-0.00454565999923212	-0.989717403718679	-0.02162496889788	-0.989729330535309	-0.0215792573291843	0.000189535883080482	-0.00454707065384182
2.1	-0.00329502335095332	-0.0032961631478348	-0.981158001393316	0.131797327422044	-0.981196039209885	0.131834278465383	-0.0003114153928062	-0.0039380416522184
2.2	-0.00375922070670084	-0.00285980039343747	-0.948930340900644	0.282272196347945	-0.948855521879333	0.282334920237307	-0.000754713145103975	-0.00391927930558985
2.3	-0.00434470159000491	-0.00224060622939521	-0.893774167304537	0.425357931025714	-0.8933936500862	0.425870311851328	-0.00143183374612835	-0.00398422106584855
2.4	-0.00505490593151577	-0.00170926599264187	-0.816098990611914	0.559647448123798	-0.816363987374687	0.559062783399946	-0.0023225817391423	-0.00404234527153444
2.5	-0.00627714910376726	-0.000599724638258337	-0.720099951489834	0.679150340882009	-0.720312025733164	0.678641306463202	-0.00350483471501037	-0.00385129786594453
2.6	-0.00633413068945665	0.00154852285658135	-0.606453439852576	0.782576257951319	-0.606347184452405	0.782394124083181	-0.0035410211073745	-0.00270948235891481
2.7	-0.00539617635019589	0.00291194990545663	-0.477139193870226	0.867318253730511	-0.477586535545708	0.866911287752248	-0.0031054277483786	-0.00239849577565415
2.8	-0.00416303671302623	0.00361831059837512	-0.338198836159259	0.930272178821293	-0.337532828658878	0.930432103967079	-0.00296008378308899	-0.00237828914579144
2.9	-0.00264830577685518	0.00387221898325213	-0.189487993637628	0.971642270244927	-0.189518976168344	0.971554982249215	-0.0025729476526916	-0.00199396151186553
3	-0.0011119604347259	0.00385740365094106	-0.0355268410253238	0.989779110862833	-0.0362266962115751	0.989619184360291	-0.00192874446525189	-0.00144122370279203
3.1	0.000631888491700313	0.00327223254211191	0.117183043809632	0.983067121899497	0.117772940680652	0.983050517304616	-0.000855348203244139	-0.00138226133040307
3.2	0.00171534079791506	0.00219744548050364	0.268694319142132	0.952881332002265	0.268639719185786	0.952820980819406	-0.00040064366946412	-0.00160508581109864
3.3	0.00267331332239462	0.000968908291250891	0.413440609502752	0.899756288260525	0.413303615593701	0.899741796185562	0.000221233898831484	-0.00184779901698578
3.4	0.00293528579549044	-0.000501960933323822	0.548248039823795	0.824863262527638	0.548085672219316	0.824980766558518	0.000749189045369325	-0.00253858769689775
3.5	0.00302141760014162	-0.00139998793639849	0.669644227202326	0.729531280015454	0.669564636531373	0.729569872252091	0.00108709678134803	-0.00281511804882784
3.6	0.00315756596526808	-0.00271552065263179	0.773935515209027	0.617444761852199	0.774177136669063	0.616996996573012	0.00161001121458267	-0.00373144679355281
3.7	0.00266907113067872	-0.00414701192540222	0.860804238300427	0.489502697520273	0.860685729137471	0.48964546659441	0.00143691946235199	-0.00464090617641896
3.8	0.00164983962443298	-0.00530428901026616	0.926278141604787	0.350569069867181	0.926335665727079	0.350190161416695	0.000978667345616808	-0.00543974311057231
3.9	0.000454098336195469	-0.00629849025196922	0.969627783435363	0.201320449908923	0.969388216457438	0.201987185400123	-0.000172113522139434	-0.00639338147433711
4	-0.00148191725161939	-0.00632692641709509	0.988891241941502	0.0495974013458737	0.988852079834395	0.0497001214572147	-0.00137599038362551	-0.0063176648402835
4.1	-0.0022849932748045	-0.0062107345318255	0.985318812410726	-0.10424324818308	0.985133979816177	-0.104116556644287	-0.00154350571491249	-0.00648706756388786
4.2	-0.00369669913540791	-0.006445331882036	0.957124403104726	-0.256764720219579	0.95715791980053	-0.256110623478755	-0.00219396720079008	-0.0072106457742903
4.3	-0.00529750594929327	-0.00660707623726022	0.906063807506294	-0.401695025258561	0.905927623911228	-0.401584156544601	-0.00325789849683157	-0.00810147058226483
4.4	-0.00741936875821343	-0.00648208067851642	0.83284301590728	-0.53731816942277	0.832677397792167	-0.537185163335491	-0.0049186514162873	-0.00892614759433021
4.5	-0.010147960227272	-0.00551757362584051	0.740064144513577	-0.660284482310642	0.739874614811923	-0.660111640558273	-0.00731745114193543	-0.00897768715993243
4.6	-0.0119877055019225	-0.00321724740241752	0.627976777825004	-0.76821578560654	0.62831761389753	-0.767515843112304	-0.00889507855118694	-0.00825174508902429
4.7	-0.0130922984304057	-0.00119337878053657	0.501379371652624	-0.856233504176245	0.501395062545645	-0.855876968370618	-0.0103963255909322	-0.00796023963826568
4.8	-0.0138834051492394	0.00118828454443972	0.362171518880106	-0.923641871158328	0.362392805578204	-0.923324295432081	-0.011885660147667	-0.00746637755445382
4.9	-0.0138948306141082	0.0034609066810529	0.214993026607515	-0.968470782131224	0.214772494893146	-0.968479102801818	-0.0131330278122345	-0.00669959423432846
5	-0.0133026162129597	0.00591683461992048	0.0613507277518463	-0.990602502384014	0.0615280433692651	-0.990356105978067	-0.013859492698195	-0.00520565971809648
5.1	-0.011646880438533	0.00778346568841814	-0.0932468066252974	-0.98790449851749	-0.0929145355820798	-0.987678083132354	-0.0139715879650587	-0.00394673135663661
5.2	-0.00993743900485165	0.00942044043607414	-0.245596695322553	-0.961560195168057	-0.245103348682823	-0.961532572205958	-0.0143285505777611	-0.00249143198407126
5.3	-0.00797984195364924	0.0106608477870327	-0.392056216092045	-0.911982840236592	-0.3917141166533	-0.912199308043787	-0.0143047784976524	-0.000815166381417242
5.4	-0.00600138546454209	0.0119215524228863	-0.529417801811243	-0.84014695655424	-0.529204072440512	-0.840348241782445	-0.0141877867837344	0.000980161496818423
5.5	-0.00336602409576424	0.0135331504491637	-0.653578842596803	-0.74709567615885	-0.653339013857089	-0.747290936516575	-0.0132651859746229	0.00325163431712058
5.6	0.000154725151899479	0.0135948055525122	-0.761247451302947	-0.636728938030383	-0.761056982292854	-0.636901199804234	-0.0118438389504119	0.00382409459228272
5.7	0.0026683305575518	0.0128606600373179	-0.851198305906475	-0.510872471055008	-0.851068349361516	-0.511092976043963	-0.0115180889855153	0.00462482470859941
5.8	0.00485486855553172	0.0120257982383723	-0.920331358142726	-0.372190367033448	-0.920263111002457	-0.37247635601631	-0.0111935685449824	0.0058288549991691
5.9	0.00648450982726047	0.0106658109243956	-0.966885377920372	-0.224500169010094	-0.966899889790828	-0.224584098633517	-0.0110150287480332	0.00718401850545146
6	0.00779219405143086	0.0103923613547785	-0.989797123419847	-0.0720170019674002	-0.989677450604118	-0.0720751793059054	-0.0103948713769932	0.00991861154005164
6.1	0.0106756333504037	0.00887995911605255	-0.989438503394188	0.0827280507287278	-0.989311345057191	0.0825790429842003	-0.00743426476685966	0.0111422544265036
6.2	0.0122095554364955	0.00592570858668668	-0.964401475928239	0.235874247294717	-0.964387791305501	0.235670657154022	-0.00545482143278958	0.0106386905404141
6.3	0.0123012749637839	0.00251866000546672	-0.915765043443215	0.382937436226892	-0.915760641548216	0.382751439957304	-0.00435441980137122	0.00956809031858697
6.4	0.0111961296231633	-0.000557220752704816	-0.844968918378114	0.520309363640959	-0.844937305249741	0.520097993089936	-0.00422483519242046	0.00851171669953046
6.5	0.00941446055933103	-0.00284981555571799	-0.754290730769895	0.645396761449097	-0.754315130875029	0.645191930516905	-0.00434631333440348	0.00815099956104481
6.6	0.00775410177586204	-0.00458632918539918	-0.644316870906747	0.75515948061579	-0.644391450875575	0.754906520020049	-0.00416923919400752	0.00806815219936873
6.7	0.00590726588318234	-0.0059071583195265	-0.518824948028788	0.845808844487473	-0.518928562742921	0.845587129256679	-0.00391099295075914	0.00824497006215031
6.8	0.00423669252320113	-0.00685141439985428	-0.381101758290087	0.915979592889039	-0.381244227700585	0.915808596566325	-0.00338484947215779	0.00849039293281641
6.9	0.00231937448066579	-0.00758093492813541	-0.234234066783419	0.964157023730215	-0.234461737312232	0.96404673212213	-0.0026309464789023	0.00864404427175342
7	0.000782205616685375	-0.00776530428517111	-0.0808729319474581	0.988979971511507	-0.0810838150310808	0.9888905034377	-0.00151210664135237	0.00852436716072702
7.1	-0.000954081481720131	-0.00798716308973163	0.0739153964333068	0.988768689565196	0.0737123322110175	0.988635774140083	-0.000734106576096354	0.00803221808932303
7.2	-0.00259409555564652	-0.00768031585824307	0.226523756941195	0.965001955820717	0.226240738204151	0.964968334132259	0.000118553767490474	0.00784627664239617
7.3	-0.00418057746921846	-0.00718559301567748	0.37368890177145	0.917912025363522	0.37345230860328	0.917939258821631	0.00104539736516743	0.00745726026501327
7.4	-0.00552639970710143	-0.00639366824500017	0.512020106887354	0.848315513764916	0.511806372650074	0.848367746655928	0.00172420706136123	0.00679906156916729
7.5	-0.00651263666438182	-0.00534692909027885	0.637123819698733	0.757419675562992	0.636954346533439	0.757490300437169	0.00261611055051829	0.00631467940022992
7.6	-0.00689101757174731	-0.00469863637470992	0.746401384714294	0.649410193970388	0.746143839323165	0.649493881463327	0.00359109530401833	0.00481796179744792
7.7	-0.00768049511902251	-0.00373526598751747	0.838060934236451	0.525501480297529	0.837876164289846	0.525719825884947	0.0034637269057412	0.00337756716928709
7.8	-0.00798001517320318	-0.0024213851553691	0.909372820179499	0.388562435340649	0.909270758574424	0.388788651552586	0.00311990660708498	0.0022878559752843
7.9	-0.0083253268741537	-0.000941575944470454	0.958081808411896	0.242309265985788	0.957944553246714	0.242489797679183	0.00233463765374125	0.00189071291661028
8	-0.0079139695639805	0.00188304275605152	0.983258844907214	0.0911680556340601	0.983236956017635	0.0914309927198283	0.0015055083267673	0.00276487104953238
8.1	-0.00548483799078794	0.00351820320795346	0.985773304963055	-0.0627516264804955	0.985803408538742	-0.062495983179154	0.00278621353481451	0.00274417049045804
8.2	-0.00331710600461917	0.00391469625383014	0.963449867219562	-0.215273049420495	0.963499756717692	-0.214956079350187	0.00287504325429509	0.00183941217370697
8.3	-0.00151259211724556	0.00378723839444307	0.917666122742789	-0.361964827407295	0.917718852554984	-0.361677976741874	0.00253103002327139	0.0010512366092677
8.4	-0.000105561836739421	0.00287527974002572	0.850047781902682	-0.499318635287253	0.850146385340682	-0.49911721549636	0.0016278446154567	0.000120498585087771
8.5	-8.38518449477704E-05	0.0026901504206326	0.762755292642395	-0.625125418333941	0.762807272552734	-0.62497491771013	-0.000116924101561764	0.000606219216199983
8.6	0.00149664158291042	0.00281631625365909	0.655599336696421	-0.735989573948498	0.655768835367481	-0.735753332060409	0.000118628829654974	0.00152365183209901
8.7	0.00269161375653285	0.00216479463949947	0.533075169820262	-0.828152781630972	0.53333508045243	-0.827938706484708	0.000228000872705607	0.0018093872188716
8.8	0.00396047963843331	0.00132759772933685	0.398279130610201	-0.900322499859529	0.398464768533683	-0.9001843749581	0.000357178951341809	0.00203496096024244
8.9	0.00497107625027765	-4.88753378983555E-06	0.254011563478105	-0.951238836574373	0.254191129557733	-0.951069673966902	0.000773179777689242	0.00226294543763646
9	0.00558024402830411	-0.00137256005460946	0.102474068106877	-0.978925781175903	0.10278220701208	-0.978880730716529	0.00135822355315684	0.00285104241122794
9.1	0.00636341184270743	-0.0025425624578126	-0.0503536229534254	-0.981975388404532	-0.0500449504389319	-0.981935893445841	0.00297266062364799	0.00327340299703088
9.2	0.0072504094849492	-0.00371151805654537	-0.201862554603057	-0.962007759350826	-0.201515684095872	-0.961986990161199	0.00517167717463179	0.00323108815669299
9.3	0.00829109296597099	-0.00509410521221348	-0.348622502006183	-0.918869257553553	-0.348271309835732	-0.91884525857436	0.0080200755935733	0.00211868425036729
9.4	0.0086985849345564	-0.0072172567413784	-0.487122498091223	-0.853212148905257	-0.486800567359264	-0.853304257986677	0.0100411866084652	-0.000582453933285821
9.5	0.00863777061333906	-0.00813162856817522	-0.612728596019489	-0.766112431409243	-0.612492797570426	-0.766163610806677	0.0111633433857529	-0.00323918536216865
9.6	0.00855609800751361	-0.0103283035106455	-0.723361388674039	-0.662067069151342	-0.723051566496883	-0.66220636205255	0.0107810723798981	-0.00745177288633191
9.7	0.00729123060906778	-0.0114530929862715	-0.817009702499466	-0.541799891680252	-0.816724202222268	-0.542032892526013	0.00809609006941822	-0.0105653319932691
9.8	0.00614300668681886	-0.0122047914030293	-0.890704706599858	-0.408320986025977	-0.890453143423928	-0.408490062461863	0.00466472406270381	-0.0125014717735871
9.9	0.00447871964608762	-0.0124744637546243	-0.942337303180204	-0.26510424775665	-0.942086991074145	-0.26531275975411	0.000448757699944856	-0.0131918641400539
10	0.00314625610047431	-0.0110520302836566	-0.97129604009261	-0.116875368607714	-0.97114398389551	-0.117235916439969	-0.00323108586224187	-0.0112558397949124
10.1	0.00346678813217987	-0.0107935466877185	-0.977845770866201	0.0350213216855236	-0.977783376713184	0.0345920303039913	-0.00527225662562642	-0.0103084032806187
10.2	0.00297044228926741	-0.0110672584448407	-0.960228835353319	0.185995496729097	-0.960108360766997	0.185566605111639	-0.00828311974104045	-0.00889753752295938
10.3	0.0020904480713213	-0.0110662482709763	-0.919482523362457	0.332040884936094	-0.919500382663956	0.331502759710439	-0.0111729923414176	-0.0066138647402231
10.4	0.000911566517494622	-0.0111575436708214	-0.857125026512273	0.469564365191341	-0.857260884779888	0.46905628980908	-0.0136726413274209	-0.00362133648578737
10.5	-0.000383609266112721	-0.00984937730761672	-0.775035730404136	0.597045699261293	-0.775207728377881	0.596615901609431	-0.0149006254159658	0.000883375112675249
10.6	0.000198343379699294	-0.00881281608674224	-0.672527345440054	0.710141652567806	-0.672798472208129	0.709813631745203	-0.0133272276063233	0.00490797576392119
10.7	0.00102039990894956	-0.00883484012251214	-0.55426180796928	0.805364145616811	-0.554560740861612	0.805056701048747	-0.0107390215349861	0.00738516590055098
10.8	0.00126479818210381	-0.00987666055430635	-0.423014343171054	0.881185455289777	-0.423362972407011	0.880889010369033	-0.00832364413378938	0.00860145173738982
10.9	0.000517163727119624	-0.0106788379181743	-0.281792152391224	0.936371063514215	-0.282180128232324	0.936248647938572	-0.00641589034977367	0.00962921114578542
11	-0.000118564472538307	-0.0111121875926368	-0.132390976622483	0.968823014806067	-0.132825533466775	0.968733046985717	-0.00388782887985107	0.0105599954137463
11.1	-0.000815407135901747	-0.0115728631037403	0.0189333180897442	0.976668869495969	0.0184477893713602	0.976682115563918	-0.00125149852460217	0.0105820527369197
11.2	-0.00161339212993811	-0.0120976579599631	0.169552102795673	0.962066434898554	0.16909791094167	0.962138605058719	0.00147617229984719	0.0101439608922676
11.3	-0.00261294408642464	-0.0125351616958254	0.316437108437948	0.924456869488992	0.315980785552133	0.924592065244798	0.0042294466842339	0.00905473022122245
11.4	-0.00420647509899958	-0.01281612340635	0.456251694722499	0.864170268588338	0.455850266907152	0.864282346017951	0.0063583823750699	0.00775005140805684
11.5	-0.00511852103515945	-0.0118244575116286	0.583765075240962	0.782116256153504	0.583448457302246	0.782415873045838	0.00905977309286063	0.00659405766652846
11.6	-0.00601255260124013	-0.0123628307114061	0.697305886624218	0.683149416531757	0.697091284190391	0.683474255825832	0.0108365994065117	0.00326219058070799
11.7	-0.00777858597827281	-0.0120462582591971	0.794937552995205	0.567132996413106	0.794734879323119	0.567436849955526	0.0109449050027216	0.000350403266183084
11.8	-0.00977126775312914	-0.0114039513192703	0.873293377362198	0.436921987740038	0.873111507576434	0.437369169015835	0.0101206110908364	-0.00223849421174571
11.9	-0.0121890379422361	-0.00977605571515994	0.929820221329524	0.29630394476491	0.929713733717461	0.296750164724479	0.00800475575261524	-0.0036691778397459
12	-0.0138986284273725	-0.00598112505164003	0.964371847432871	0.150245453198804	0.964341494838744	0.150607112800423	0.00699876488578352	-0.00281877546321876
12.1	-0.0131010569512353	-0.00325177755908331	0.97688776011064	-0.000973190750020077	0.976815282852494	-0.000591266082847902	0.00758490370027599	-0.00388850071728942
12.2	-0.012431014624152	-0.00144110675322392	0.965095400289757	-0.152290058710088	0.965111187976638	-0.151993706219649	0.00708020391783096	-0.0053420443229186
12.3	-0.0113672430222242	-5.92571766941679E-05	0.929977999089901	-0.299646033279541	0.930095006020476	-0.299340403340997	0.0063954952928648	-0.00696543137715645
12.4	-0.0108314619808734	0.000195847681123232	0.873309691563073	-0.439638997988733	0.873369912277114	-0.439270781114888	0.00480520036710556	-0.00898748668421852
12.5	-0.0111815113386707	0.00139930268478972	0.795901477446642	-0.570761309145254	0.796238052603413	-0.570369651182899	0.00201134238855952	-0.00960821932018748
12.6	-0.0102539587197123	0.00221839926082507	0.697268759140002	-0.687713796004137	0.697517947307888	-0.687470294785911	0.000316798039788588	-0.0102346669490693
