# GHZ S RI R 50
0.2	-0.000121307254929105	-0.000744688589531415	0.951434122539191	-0.307370701066166	0.951211372095749	-0.307345499214659	-6.29162261177505E-05	-0.000707326602848246
0.3	-0.00064385585738146	-0.000693832092117132	0.892140897595348	-0.451365141934161	0.891984147604511	-0.451269767297577	-0.000639940629894178	-0.000916136575275276
0.4	-0.00104835810036735	-0.000343295335278982	0.811390829042483	-0.58443145159087	0.811402704140325	-0.584456631742203	-0.00119451662486906	-0.0006787695810376
0.5	-0.000842692885099911	0.000686259223232969	0.710550414538029	-0.704327227779666	0.710394659779616	-0.704225505384677	-0.000970058975747029	0.000339740627219013
0.6	-0.000160478128714086	0.000219501717257444	0.591909799715655	-0.805723156359785	0.591789960618752	-0.805560955465	-0.000307564428327607	-0.000282412178887075
0.7	-0.000445776874420479	0.000177273462194735	0.4597114168551	-0.887766503204959	0.459692456957809	-0.887653569265091	-0.000626956766228822	-0.000663866736465931
0.8	-0.000481235604830805	0.000154463759568716	0.316123318997461	-0.948714813650917	0.316091657644216	-0.948524235753786	-0.00102125424667316	-0.000768098645211603
0.9	-0.00108308601441448	0.000224138882715901	0.164342342685332	-0.986469203114485	0.164276967382598	-0.98637684612061	-0.00207204396410208	-0.000884150412504757
1	-0.00131269349720139	0.00218963910329442	0.00864502687460389	-0.998984886596728	0.00859317228918646	-0.99895326913402	-0.00283975122596547	0.00140701137749963
1.1	0.00125413038346047	0.00171488542075613	-0.145819912958568	-0.988525892617262	-0.145835779116037	-0.988394868563854	-0.000559208984436395	0.00152769489400908
1.2	0.00169599193563157	-0.000492563901620464	-0.298169232962574	-0.954100714681349	-0.298092468888418	-0.954074491215829	0.000131750394177271	0.000828768039080871
1.3	0.00170149327660669	-0.00320456806984338	-0.443173878969799	-0.895899759609167	-0.443150721488487	-0.895893125221399	0.00162497465291036	0.000321350048598602
1.4	0.000888856130923372	-0.0057090776182338	-0.576716753524579	-0.815582899393556	-0.576692437640197	-0.815561185703532	0.00299053082376128	-0.000865884481103126
1.5	0.00130624297636686	-0.0072528817679367	-0.695748989921211	-0.716555997038411	-0.695646718261789	-0.71647064657968	0.00556807538247519	-0.00293419334311838
1.6	-0.00152509387426534	-0.00865377573866741	-0.799777827648948	-0.600005131700418	-0.799703253613382	-0.599944795137154	0.00307085131246275	-0.00590670521505344
1.7	-0.00306028644150524	-0.00676674645112709	-0.883170225069617	-0.468167203258961	-0.883334581257958	-0.467647564267271	0.00117936781816925	-0.00535565648905217
1.8	-0.00375066027127674	-0.00524477413948818	-0.94514055836779	-0.324406697152043	-0.94502863187217	-0.324405586041297	-0.000128159968888957	-0.00481417475432567
1.9	-0.00404705331467262	-0.00305719245496446	-0.983715331506431	-0.174238680082841	-0.983807656765554	-0.173748008101921	-0.00105600123566998	-0.00313543660334492
2	-0.00121687404414769	-0.0021061099287399	-0.999938525000924	-0.0185434869473145	-0.999950421589617	-0.0184972667802552	0.00181341847605532	-0.00245640976665414
2.1	-0.00233033195170176	-0.0045813538118711	-0.989987397566766	0.138712050663787	-0.990025595072238	0.138749580939463	0.000608472441146608	-0.00575011764742577
2.2	-0.00437062158977172	-0.00385143501800347	-0.955618467933627	0.290824151276579	-0.955542581628321	0.290886960478896	-0.0015545498550759	-0.00554963556981214
2.3	-0.00557255892374672	-0.00261693238129572	-0.898703260163349	0.435117476958429	-0.898315954367834	0.435631759222393	-0.00304427493014739	-0.00494189702934027
2.4	-0.00684338424232564	-0.000710373916109493	-0.819396842168325	0.570911612751159	-0.819668659952635	0.57032356539159	-0.00466517098123385	-0.00337186253949945
2.5	-0.00503833824321785	0.00225084448064746	-0.719539647611461	0.692414194844557	-0.719758744285435	0.6919028397557	-0.0026611392580736	-0.000879354143253132
2.6	-0.0038011767207346	0.000724185983989787	-0.602323540383274	0.793923074436167	-0.602218473075034	0.793738659741413	-0.000887065973056494	-0.00334211180123702
2.7	-0.00451189021355449	0.000574471681109341	-0.471195753634775	0.877524693584839	-0.471650005284182	0.877119805418865	-0.00181612246405604	-0.00479435379828885
2.8	-0.00484841377488154	0.00116068921579935	-0.33006913030672	0.939457718095358	-0.329397441733294	0.939611336748239	-0.00318339924745807	-0.00518295533991841
2.9	-0.00412055963723739	0.00212117727708828	-0.178519270607927	0.979046516340247	-0.178551489110312	0.978959153971049	-0.00365412460870169	-0.00424501677495328
3	-0.00271542750154317	0.0020013362549201	-0.0230148477000629	0.992564696561812	-0.0237183880535089	0.992413299251595	-0.00316964467452022	-0.00396969554170863
3.1	-0.00233122426107062	0.0022543955877012	0.128443287834681	0.983955745599545	0.129034318828243	0.983932504390241	-0.00364034051676862	-0.00339012723012654
3.2	-0.00107027993334553	0.0024559476137356	0.280469510564668	0.951843872198989	0.280414081409834	0.951784027623144	-0.00321155059057388	-0.00224461389012003
3.3	0.000337827415052903	0.00214983853925505	0.425142795956252	0.89583929082846	0.425005438919934	0.895826476721375	-0.00226515529474615	-0.00147746026757339
3.4	0.00175090934323615	0.00171784707398936	0.55835057834955	0.817677575783681	0.558189745115362	0.8177970646191	-0.000594829141214633	-0.000980632492255542
3.5	0.0039280980419295	-0.000654112111813509	0.676550362628924	0.721870579149804	0.676471250364945	0.721909958708326	0.00205404241591398	-0.00275011081376287
3.6	0.00233421280069381	-0.00298204096123878	0.781074883062188	0.608966306954926	0.781311565002692	0.60851570494177	0.000806761826353346	-0.00492904179505199
3.7	0.00156429870161379	-0.00353173464645572	0.866135530806686	0.47875987032847	0.866018828882702	0.47890397492313	0.000148824663627962	-0.00499878513766021
3.8	0.000735269636376385	-0.0041492293701953	0.92880111475374	0.338732875062549	0.928853955783834	0.338353971907052	-0.000289911819032495	-0.00515444049700041
3.9	8.8277089934515E-05	-0.00406749494623007	0.969448826392737	0.189989923640787	0.969217303638973	0.190657665329068	-0.000968381413614491	-0.00475793256286926
4	0.00138138544655583	-0.00478968067487599	0.988535397355836	0.0381541874767532	0.988497455795562	0.0382572625861653	0.00137665589338271	-0.0050793996865667
4.1	-0.000808811153291308	-0.00789966023511083	0.98126706462108	-0.117397245096346	0.981084452617915	-0.117268372083189	0.000165775621166873	-0.00869582796226848
4.2	-0.00402438769926002	-0.00803270879373072	0.949456170434479	-0.268335506315937	0.949498226071093	-0.267684764494371	-0.002278211900037	-0.00956357645892199
4.3	-0.00670150575018124	-0.0075648478017836	0.896183916295971	-0.411046761550868	0.896049857228745	-0.410934754291805	-0.00452383192146802	-0.0099460960258142
4.4	-0.00966852496070357	-0.00582632916098857	0.821791663923433	-0.544980298720601	0.821628571497832	-0.54484590440108	-0.00720870944382857	-0.00911664324808249
4.5	-0.00991014378117506	-0.00282650455483424	0.725585324812181	-0.666967104344838	0.725399558343947	-0.666792575164489	-0.00706120025956102	-0.00681678582465473
4.6	-0.0106306996833978	-0.0030453159714964	0.611627917307646	-0.769320629546217	0.611974915411127	-0.768631971064862	-0.0071152961532525	-0.00862259341282442
4.7	-0.0127022074995007	-0.00177634299794991	0.485911943727717	-0.853550021895114	0.485931783300306	-0.85319731627345	-0.00939910833351355	-0.00935323204749336
4.8	-0.0142065183045385	0.000571625848535314	0.347582892572574	-0.918034310161376	0.347805519276582	-0.917722683092353	-0.011583852081062	-0.00919225930193043
4.9	-0.0145965782295011	0.00335394940238066	0.200776001031495	-0.959821412029029	0.2005579305919	-0.959826967401043	-0.0133407041427564	-0.00813290082615737
5	-0.0135032746255434	0.00556032274338486	0.0495071719389987	-0.976333307636799	0.0496845280257542	-0.97609258293357	-0.0136620931406208	-0.00704744831028904
5.1	-0.0131448747436465	0.00749663307272709	-0.0997003567387697	-0.972459137020592	-0.0993712344543696	-0.972238729302954	-0.0153813956151086	-0.00602295021524184
5.2	-0.0115054285267588	0.010341674418831	-0.249087818120265	-0.945626277148546	-0.248601512640446	-0.945602701519688	-0.016324402869232	-0.00328925014967362
5.3	-0.00882551658050643	0.0125794559568442	-0.39230149602682	-0.895180802583848	-0.391966178994748	-0.895396289982322	-0.0159071543286552	-0.000195574919869112
5.4	-0.00482139915313472	0.0147481478659107	-0.525144081962236	-0.822739077813801	-0.524935161032383	-0.822938135205108	-0.0136594021136348	0.00312072300147512
5.5	0.0007438855793788	0.0124781299222111	-0.643946546515189	-0.733110792934489	-0.643711178467925	-0.733303208369666	-0.00905998631739973	0.00161234915514989
5.6	7.54907979671089E-05	0.0107285752847959	-0.751106595114839	-0.625529483379645	-0.750919359872619	-0.625699547738123	-0.0117391429901461	-0.000191293632503796
5.7	0.00129596063242479	0.011543268941207	-0.838856429072741	-0.501125978778994	-0.838728959979499	-0.501343281627972	-0.013020174898067	0.002024292451139
5.8	0.00323059795208991	0.0118605885177431	-0.905481634265953	-0.365253670562715	-0.905414761146051	-0.365535003630073	-0.0131777739697248	0.00457944069215493
5.9	0.00551461860890724	0.0124995498423138	-0.950601886155781	-0.222148722664283	-0.95061604073043	-0.222231286226138	-0.0123560344314931	0.00844084867325507
6	0.0114293233275736	0.0107681209100871	-0.976003273243314	-0.0729296120802652	-0.975885139434838	-0.0729867560161457	-0.00634327902999648	0.010210233965066
6.1	0.0111884587342109	0.00495689470594104	-0.974617376516899	0.0808321141337566	-0.974492031679288	0.080685430860648	-0.00566514310221946	0.0065406967516437
6.2	0.00972536050177441	0.0031037496706645	-0.949505567346376	0.230027577554349	-0.949491662211037	0.229827269165531	-0.00658882092901298	0.00636594020368921
6.3	0.00879246602867337	0.00163396142954054	-0.902849541747345	0.373456427371458	-0.90284450328297	0.373273366070698	-0.00682905630186915	0.00667266708374074
6.4	0.00806513364043564	0.000519246644069194	-0.835366735188744	0.508994421423314	-0.835334591602124	0.508786202669342	-0.00684769757123816	0.00738626668852935
6.5	0.00783896116965384	-0.00139963482315374	-0.745049943568112	0.633904472860242	-0.745073425310823	0.633702565354085	-0.00575674607866416	0.0074669970460581
6.6	0.00657670759937075	-0.00309467336758983	-0.637291021821138	0.739332632997636	-0.637363098772234	0.739083532367816	-0.00554481439194879	0.0075218779156141
6.7	0.00555110992451672	-0.00447674256250551	-0.516383831412262	0.828668290945203	-0.516484249422376	0.82844940704624	-0.0046623884310279	0.00797845721715952
6.8	0.00433954050384057	-0.00586570833005063	-0.382433242338604	0.899193793744254	-0.382572236318788	0.899024277956715	-0.00358402711448216	0.00806787724926649
6.9	0.0028698251365691	-0.00699346301599968	-0.237864385835632	0.94798074193235	-0.238087829471209	0.947870416642943	-0.00216312328756054	0.00796165960476689
7	0.00100463383112186	-0.00844011392725989	-0.0884495031212265	0.970825784154648	-0.0886558577783882	0.970735972569111	-0.00114027501673598	0.00636201735838411
7.1	-0.00181414863974125	-0.00816308481425272	0.0602683917035727	0.974074569771876	0.060070214370651	0.973941192207726	-0.00154751076810153	0.00616057750310382
7.2	-0.003441680159236	-0.00732561308552784	0.210500366791321	0.954269351724543	0.210221822823552	0.954232454919773	-0.000766642691379864	0.00643602410299196
7.3	-0.00494124700413564	-0.00646865421135655	0.3559175245909	0.910446767730435	0.355683806729769	0.910470369642249	0.000163599412110896	0.00633158954084954
7.4	-0.00582880918185989	-0.00514385647595835	0.491857432970565	0.84389937517047	0.491645972016942	0.843947628271896	0.00118650476928157	0.00619290397730452
7.5	-0.00579526607180611	-0.00487979380265633	0.614648198243889	0.760271007599374	0.614479470526189	0.760337496453158	0.00305909012317335	0.00481515548856067
7.6	-0.00744626168322923	-0.00449969926725651	0.727611941403017	0.657602338633346	0.727355120230383	0.657680462626582	0.00256023427351059	0.00272334055943205
7.7	-0.0082412337108881	-0.00262675188256557	0.821433118882941	0.536619193253391	0.821245848174936	0.536832323616875	0.00189886856514781	0.00233392431990003
7.8	-0.00810555905844145	-0.000638076723842322	0.894830996098079	0.403174450986123	0.89472534128797	0.403396945140809	0.00160987192255903	0.00237709616096631
7.9	-0.00733357783916812	0.00204431346770502	0.946985545669909	0.26137421397538	0.946845261899917	0.261550689509889	0.00204510151921802	0.00385677439557878
8	-0.00213386991087562	0.00272610840359784	0.979812374679542	0.111686326987298	0.979784995041554	0.11194839477454	0.00681824706329188	0.00371985984487515
8.1	-0.00222298414848928	-0.000510121751227313	0.985240168581872	-0.0439106778394017	0.985265361874005	-0.0436549100068642	0.00663953381040493	-0.00185732151759969
8.2	-0.00331265229623647	-0.000552575869909143	0.966426619028712	-0.195917590566773	0.966470168576574	-0.19560005548767	0.00380338457407389	-0.00385570761273391
8.3	-0.00409200039603853	0.000100423906996818	0.925446961593584	-0.343245303419203	0.925493817298706	-0.342957261908995	0.000845880247447952	-0.00444879958438241
8.4	-0.00493354644250107	0.00203040626581216	0.862932218998134	-0.48385017207998	0.863027091686286	-0.483646096447379	-0.00268108473730738	-0.00287452487548889
8.5	-0.00160074395711088	0.00533621787217943	0.775966018240894	-0.614753369769505	0.776015687921825	-0.614601448992654	-0.00116876666967391	0.00138228052178128
8.6	0.00074719777616433	0.00268347282012258	0.67036935722438	-0.725930233277466	0.670535006534188	-0.725690389790677	0.000327038394882339	-0.000946752107363769
8.7	0.000645385705593042	0.00229354711087914	0.550779247040254	-0.82151830227755	0.551036197977237	-0.821298480688795	-0.0011657787791042	-0.00124776318829432
8.8	0.00144132676333349	0.00238897343365938	0.417013473837633	-0.898357087670859	0.417197686658584	-0.898214771027579	-0.00233566134570408	-0.000594494009692802
8.9	0.00239328356737875	0.0026079765818679	0.271181293977165	-0.953424169282303	0.271359299741911	-0.953250960247846	-0.00309008777752087	0.00125508432984354
9	0.00526569855461207	0.00251961073954669	0.119528872841295	-0.981319184384069	0.119837547828103	-0.981268711515649	-0.000985351580708823	0.00390059765326263
9.1	0.00718525869605164	0.000452825897990033	-0.0318900783226542	-0.989875651053452	-0.0315799826919665	-0.989829961600751	0.00149171918037069	0.00415791142037063
9.2	0.00911310592238726	-0.00147454411025293	-0.186244234948904	-0.974481771135533	-0.185894565364417	-0.974454513805215	0.00480534198615142	0.0042566147974756
9.3	0.0104714495990652	-0.00402341767413567	-0.336404233759076	-0.933918996247619	-0.336049971548988	-0.93388876948674	0.00858006841017429	0.00271374086403665
9.4	0.0114887423673845	-0.00603464858341894	-0.47710594153018	-0.869441435692953	-0.476779449972739	-0.869528913381447	0.0121269621731386	0.000559637432819245
9.5	0.0130658533552985	-0.0114833235867478	-0.604442912892997	-0.78741733052004	-0.604203326971061	-0.787464353676401	0.0162477889515926	-0.0070795892441604
9.6	0.00768918023117362	-0.0145075068379274	-0.722824574864521	-0.685200058771549	-0.722507467131831	-0.685336008521626	0.0107469773382754	-0.0134656455778695
9.7	0.00502226886568352	-0.0134593837632962	-0.821576222379208	-0.563661500047578	-0.821282364668812	-0.563893706641974	0.0060838368557669	-0.0149981443909893
9.8	0.00340576396363576	-0.0125598107804642	-0.899363829385469	-0.428980099665043	-0.899105417516702	-0.429148125148913	0.00156127081629944	-0.0153413344428735
9.9	0.00241883946536634	-0.00999172408727494	-0.955627479818878	-0.285270951909132	-0.955369131840335	-0.285479308419747	-0.00244199798587587	-0.0127126942722007
10	0.00623223108149982	-0.0101500181329803	-0.99254186311734	-0.132665542224364	-0.992381392957634	-0.133032516955373	-0.000362886562186373	-0.0117009987728456
10.1	0.00344735787822868	-0.0132854467872291	-1.00032814566683	0.0265272541619908	-1.00026026077947	0.0260888314320292	-0.00506020442223621	-0.0148050894213145
10.2	0.00112755919524591	-0.0122166923150682	-0.983553504671242	0.182043124797847	-0.983426655518758	0.181605545681136	-0.0103583360079905	-0.0124555524202677
10.3	-1.36201653067827E-05	-0.0108163907643327	-0.943763245782346	0.333191710924277	-0.943777585707531	0.332640668744556	-0.0141425046923381	-0.00863703334047864
10.4	-0.000616610187304246	-0.00923858323498068	-0.881592471492513	0.477590215855881	-0.881729396541408	0.477068324772072	-0.0165713637465863	-0.00324941925341867
10.5	0.00156814269345996	-0.00797290875689284	-0.793617527043249	0.612175662741952	-0.793794019966051	0.611735455354913	-0.0138833069804294	0.00233387961402222
10.6	0.0021471252834926	-0.0104422192517432	-0.686922421353435	0.725771153885679	-0.687199536856094	0.725436089193651	-0.0112693062206438	0.00303399057273361
10.7	0.000864990691579909	-0.0116657242263405	-0.566043335226428	0.82362437834711	-0.566349113200255	0.823310300857768	-0.0100891770344434	0.00396222445106718
10.8	-0.000785168307340154	-0.0121504876907629	-0.430526493217626	0.902287232936931	-0.430883782681258	0.90198487436716	-0.00919868315697413	0.00530401752672337
10.9	-0.00206688267016185	-0.0117183497147858	-0.282752653594273	0.958525222894124	-0.283149840351093	0.95840228501763	-0.00745668111684615	0.00709296244987891
11	-0.00267398677213332	-0.012017533924081	-0.129638832962451	0.986904648922286	-0.130081662096614	0.986815366977121	-0.00479494012316128	0.00751638320968087
11.1	-0.00418151426088515	-0.0113691154492658	0.0232257450572572	0.995936585454035	0.0227306536196948	0.995952041431747	-0.0032730369394385	0.00805453412426048
11.2	-0.0047105538461482	-0.0106949629048665	0.17880367857927	0.980739403442624	0.178340624032149	0.980815779863919	-0.000668113321876398	0.00847773302070805
11.3	-0.00501397086187638	-0.00996378641416738	0.329992182761063	0.940070146353257	0.329527985907089	0.940211621124416	0.0022046744914351	0.00860956809397219
11.4	-0.00470770884348905	-0.00884670672045005	0.471438888006184	0.875273572291804	0.471031459776987	0.875390976678382	0.00598012948182311	0.00893230640228831
11.5	-0.00305581469786228	-0.0109095301893205	0.599248879124282	0.793416513451765	0.59892805297356	0.793723586503456	0.0117222239569512	0.00449882287820021
11.6	-0.0068251589555035	-0.0121256131816066	0.718189741994513	0.69085667051795	0.717973705627491	0.691190271368767	0.0103343065139873	-0.000220517864880491
11.7	-0.00860473280506772	-0.010324437262735	0.816999458924092	0.568988671151276	0.816796350911936	0.569300794286964	0.00958058153624779	-0.00175383118551133
11.8	-0.00984803310151069	-0.0087972586762887	0.894556968385166	0.434091422849362	0.894377308972198	0.434548976070102	0.0087166689563248	-0.00289758484986702
11.9	-0.0095238252709007	-0.00563789158810146	0.950474641627249	0.290835319681806	0.95037143781768	0.29129103152029	0.00882907650278362	-0.00155536336193054
12	-0.00604080160257912	-0.00576951351821557	0.987316147809658	0.138838267574527	0.987290630140709	0.139208137485332	0.0144354826011743	-0.00343456187613096
12.1	-0.00873474611803802	-0.00881481271689422	0.994681683636098	-0.0194914345149034	0.994615117809372	-0.0191011733407316	0.0125722018301644	-0.0107397815923099
12.2	-0.011867468414	-0.00807448005547337	0.977698412088337	-0.173735075925975	0.977720284251587	-0.173434244115285	0.00872632431886371	-0.0138068679862069
12.3	-0.0144692043183535	-0.00624993013200027	0.938021667435271	-0.323179963733499	0.938146690687056	-0.32287206833854	0.00453016420270854	-0.0155238142029208
12.4	-0.0170538602801679	-0.00278206359618479	0.876916625568962	-0.465962817478773	0.876986017917444	-0.46559027785486	-0.000315530146158283	-0.0146949229149253
12.5	-0.0150545758273599	0.00180381780498432	0.789766041718213	-0.598865446589629	0.790117094704873	-0.598478310258727	-0.000740256854383213	-0.0118331410819129
12.6	-0.014254572444298	0.00193167988522752	0.685051924626754	-0.710498746144967	0.685309137069747	-0.710259739832262	-0.00222967651103291	-0.0138383902446282
