# GHZ S RI R 50
0.2	-3.98298197356432E-05	-0.000724023480320509	0.951406366438739	-0.307370509720304	0.951183622103269	-0.307345306676217	5.68055725213582E-06	-0.000672330551410018
0.3	-0.000551316949401282	-0.000708369118868322	0.892093223563782	-0.451339541945672	0.891936481927112	-0.451244172677701	-0.000563792030724339	-0.000899331841799261
0.4	-0.000959113208605684	-0.000410057882967601	0.811334715449071	-0.584350741005775	0.811346590265896	-0.584375918435164	-0.00111661014358234	-0.000697643289311458
0.5	-0.000854750187304106	0.000574686922905334	0.710579318953362	-0.70418402175003	0.710423564278133	-0.704082326514647	-0.000989875267221467	0.000278792453945775
0.6	-0.000199050287095161	0.000187974410909268	0.591979968204242	-0.805622626054223	0.591860115006948	-0.805460445467716	-0.000368545048232612	-0.000247628623066014
0.7	-0.000484530676582808	0.000158357180168338	0.459814268807228	-0.88765815027236	0.459795293892317	-0.887545224524483	-0.000686137637644565	-0.000583667966869009
0.8	-0.000518883529320895	0.000165649937447487	0.316286803067518	-0.948616144289485	0.316255107542968	-0.948425580265963	-0.00105744678593653	-0.000625251692733632
0.9	-0.00104903901244042	0.000240483270098565	0.164586545995666	-0.986419027022362	0.16452114830262	-0.9863266871631	-0.00198385161869465	-0.000714601364760517
1	-0.0012774140793545	0.00205947982585173	0.00890158665665654	-0.999065312171751	0.00884971968120336	-0.999033705332269	-0.0026731672575735	0.00137908738397203
1.1	0.00130889725500589	0.00159118207282067	-0.1455840756977	-0.988640481751321	-0.145599975836811	-0.988509451279026	-0.000392071444507452	0.00140915007925179
1.2	0.00186674724572357	-0.00083810548243794	-0.297932871766718	-0.954301154321377	-0.297856105854077	-0.954274905779135	0.000349972544641741	0.000432609182635068
1.3	0.00192421809759485	-0.00382030872590257	-0.442980045139267	-0.896197735333846	-0.442956885474504	-0.896191092686881	0.00179779673148195	-0.000353414369893062
1.4	0.00113901109512837	-0.0065266061749386	-0.576624973564741	-0.815968736667252	-0.576600657790674	-0.815947010052992	0.00310808382904089	-0.00167787508481147
1.5	0.00146344010938068	-0.00802115644182582	-0.69577776031201	-0.716914982635707	-0.695675479854242	-0.716829584969986	0.00551913913391946	-0.00358777255242937
1.6	-0.0013688840594438	-0.00937222299694948	-0.799853101440328	-0.600401295502419	-0.79977852160944	-0.600340920688927	0.0030559185897891	-0.00632790284550516
1.7	-0.003056641959427	-0.00738483136785802	-0.883377373969856	-0.468573268525112	-0.883541927619769	-0.468053478549826	0.00114788609403415	-0.00560622977521541
1.8	-0.003833547624849	-0.00572224205694	-0.945476137726944	-0.324758003743521	-0.945364163169032	-0.324756867128836	-0.000127162897597102	-0.0049413891892292
1.9	-0.00420781340613444	-0.00344033026554015	-0.984136339854055	-0.174477068813656	-0.984228786499281	-0.173986187706523	-0.00105413549378302	-0.00325654417781864
2	-0.00149800158987809	-0.00223977994000395	-1.00035829784934	-0.0187290806941884	-1.0003702076896	-0.0186828430917647	0.00163356382734596	-0.00243726434178299
2.1	-0.0024179784326601	-0.00458626771599811	-0.990527046591325	0.138594324992744	-0.990565271094688	0.138631867393007	0.000556700351117116	-0.0055362364738988
2.2	-0.00442119820539387	-0.00386376455854087	-0.956205041018943	0.290851580938166	-0.956129120576521	0.290914436905572	-0.0015098226379027	-0.00529907917611472
2.3	-0.00559666871274871	-0.00260439785417118	-0.89929071493146	0.435287730168758	-0.89890322820272	0.435802362839852	-0.00289070553306932	-0.00469538175760715
2.4	-0.00683318284708746	-0.000717162626969503	-0.81994654442839	0.571198486983327	-0.820218483168783	0.570610056025291	-0.00440868995375337	-0.00325724549884238
2.5	-0.00509477604427919	0.00230280491091482	-0.720114936623005	0.692828347822603	-0.720334135800107	0.692316611362396	-0.00254460433025128	-0.000910853845163553
2.6	-0.00364482565594351	0.000855732430186191	-0.602781033636825	0.794543041636204	-0.602675886997658	0.794358483290207	-0.000779758607385959	-0.00331959654311982
2.7	-0.00417274065417105	0.000536088912358936	-0.471504219765162	0.878245806773	-0.471958855917471	0.87784063266341	-0.00165118666692081	-0.00483730600840301
2.8	-0.0044613425061767	0.000862307115444271	-0.330230165134435	0.940253294452224	-0.329557917004609	0.940406961729191	-0.003004491551229	-0.00536325016077383
2.9	-0.00383980373422635	0.00159910756294211	-0.178540160401007	0.97991037722806	-0.178572418352029	0.979822944281389	-0.00356779123269048	-0.00456334988482667
3	-0.00258257876450428	0.00137548195040375	-0.022784978176313	0.993523021255517	-0.0234892320961445	0.993371657254779	-0.00322023247535062	-0.0043027809817627
3.1	-0.0023681900356258	0.00155040790180142	0.128908736484123	0.984814983966236	0.129500302623399	0.984791512740763	-0.0037760228089068	-0.00370923275527107
3.2	-0.0013214709863098	0.00179534461628379	0.28111809474422	0.952622268386084	0.281062589389353	0.952562390188407	-0.00347391161403069	-0.00251298490151568
3.3	-5.47738341816337E-05	0.00159184827479033	0.425986132200406	0.896503623403536	0.425848635777336	0.896490862951455	-0.00261156189183198	-0.00167380760788414
3.4	0.00123499785277758	0.0012896194544516	0.559404519768567	0.818174285997615	0.559243594595118	0.818293991942681	-0.00105487571898395	-0.00110757118079926
3.5	0.00337362598038538	-0.000863867079709425	0.677743949022835	0.722042848447912	0.677664791430281	0.722082325711176	0.00146927414946637	-0.00265908684632325
3.6	0.00181969638716021	-0.00312999146261847	0.782261366609107	0.608903297765702	0.782497908367577	0.60845210145012	0.000278480427589728	-0.00467105041573061
3.7	0.000988686284410712	-0.00355355464160251	0.867335531229684	0.478435659542346	0.867218849796943	0.478579996146328	-0.000351441012930369	-0.0045958809706496
3.8	0.000148564613184677	-0.00398975677898496	0.929943555613788	0.338125666840147	0.929996074241142	0.337746380664082	-0.000725716699940925	-0.00461722402096047
3.9	-0.0004728723528406	-0.0037084555704113	0.970438046802821	0.18909293104	0.970207060547216	0.189761463165822	-0.00134498344644955	-0.004139094028526
4	0.000948162286297802	-0.00410011397125799	0.989275122433302	0.0371117989481029	0.989237265565198	0.0372149879292266	0.000992511040592639	-0.0042622049581337
4.1	-0.000832767839666351	-0.00711105237629507	0.981870727374078	-0.118600809475204	0.981688124684407	-0.11847163208973	4.13166499894868E-05	-0.00769041384069649
4.2	-0.0037589450829222	-0.00734289136217459	0.949801029727161	-0.269715660008483	0.949843929611303	-0.269064504357114	-0.00212057560171311	-0.00855890246623385
4.3	-0.00622491653983078	-0.0070668654794057	0.896205925165081	-0.412525007890687	0.896071931175414	-0.412412746895313	-0.00411985066959976	-0.00908480349957621
4.4	-0.00913493523433106	-0.00560241183962012	0.821463249669018	-0.546433571353862	0.821300259470858	-0.546298874520158	-0.00667933155299651	-0.00855033077413641
4.5	-0.00951486858797937	-0.00273971677823044	0.72501835890209	-0.668352734384035	0.724832742953019	-0.668177848449487	-0.00670981440092683	-0.00652651298310679
4.6	-0.010219261002176	-0.00301393367346517	0.610695109792179	-0.770628697349203	0.611043346457448	-0.76994027335295	-0.00693569790766204	-0.00836405238384455
4.7	-0.0123242792170289	-0.00187699627194558	0.484679949177247	-0.854617945902643	0.484700369403255	-0.8542651581663	-0.00934223090498656	-0.00909854768567169
4.8	-0.013895334577155	0.000371430132918674	0.346141359161126	-0.9188054694198	0.346364548334494	-0.918494143110191	-0.0116084615298772	-0.00889691176004768
4.9	-0.0143921265512974	0.00307558910228237	0.199228114919698	-0.96029556659179	0.199010002616882	-0.960300764274228	-0.0134243473622647	-0.00779889878404958
5	-0.0133831855900716	0.00528141362112967	0.0478019244705263	-0.976540731328383	0.0479797244271229	-0.976300287757304	-0.0137855292031743	-0.00661153571711447
5.1	-0.0130932434258058	0.00716228445261141	-0.101436260603735	-0.972230275313874	-0.101106760750361	-0.972010468264675	-0.0154176921705227	-0.00549952232810968
5.2	-0.0115712629719627	0.0100322151709694	-0.250739456437052	-0.945047048931791	-0.250253178226526	-0.945024344312314	-0.0162407338999712	-0.00275865379149601
5.3	-0.00896960796756766	0.0123634503640499	-0.393825710924253	-0.894279923255324	-0.393490854601505	-0.894495966636088	-0.0157398548522284	0.00025958242768179
5.4	-0.00500199313029387	0.0146771834051881	-0.526519034310661	-0.821532020947478	-0.526310541635771	-0.821731408792353	-0.0135470209022907	0.00346927813967998
5.5	0.000747562932044406	0.0126230842077877	-0.645039713382028	-0.731521842704299	-0.644804828022052	-0.731714616042536	-0.00904925422730936	0.00211547582730582
5.6	0.000224818395769672	0.010682774584872	-0.751806753238822	-0.62378537104444	-0.751619939880287	-0.623955677377722	-0.0116150555226371	0.000356346891007894
5.7	0.00134581643862789	0.0114447018921753	-0.839210322053077	-0.499263444724536	-0.839083333911047	-0.499480834983181	-0.0128389400975126	0.00256784587746064
5.8	0.00321756987623099	0.0118228269276709	-0.90546508050737	-0.363319159961956	-0.905398773197038	-0.363600402536545	-0.0129322637279108	0.00508552068615627
5.9	0.00545092105051913	0.0125791749561522	-0.95016378428081	-0.220182048858567	-0.950178079746312	-0.220264512170706	-0.0121345229721234	0.0088165725361415
6	0.0115152327724315	0.0111806876462423	-0.975100514477549	-0.0711483022280015	-0.974982605151024	-0.0712055921873691	-0.00631502213826228	0.010678150022712
6.1	0.0117507571353258	0.00520747489162086	-0.973436211270106	0.0824445362179209	-0.973311255970204	0.0822977909378094	-0.00550768888177126	0.00709035909543939
6.2	0.0103618725024522	0.00293497604975078	-0.947954764579363	0.231437245236955	-0.947941232091741	0.231237153070954	-0.00639250826628444	0.00679372568039365
6.3	0.00918097805698398	0.00111865586266534	-0.90094199649618	0.374527211699663	-0.900937287175388	0.374344395160892	-0.00674523886065944	0.00697268645653126
6.4	0.00803633513856175	-6.04019662996169E-05	-0.833192873511785	0.509565731299073	-0.833161125803707	0.50935779133994	-0.00697440403146902	0.0076852156491487
6.5	0.00751761626902688	-0.0017527029757699	-0.742870115732803	0.633978355792302	-0.742893861937125	0.633776816363746	-0.00602683833540224	0.00795044496135631
6.6	0.00616551135847733	-0.00319192580424688	-0.635060911513493	0.73894921502521	-0.635133226719458	0.738700666381876	-0.00575786192796823	0.00817949087388695
6.7	0.00522241363436921	-0.00432385385699671	-0.514281234228596	0.827746724399485	-0.514381748222744	0.827528398560735	-0.00474122647157558	0.0087186185257759
6.8	0.00421422763043676	-0.00559793547953423	-0.380615868645289	0.897800932747113	-0.380754774693268	0.897631923096275	-0.00352876837940579	0.00878834533206059
6.9	0.00292877014040167	-0.00673769858976343	-0.23645815705618	0.946253430425019	-0.23668124594466	0.946143548622643	-0.00206435966094992	0.00861717948288885
7	0.00124277079640905	-0.00829261927297871	-0.0873693136617501	0.968906524310166	-0.0875753260684797	0.968817088701645	-0.000994063752628783	0.0069869566911951
7.1	-0.00155143538542011	-0.00820628395157125	0.0608890069027116	0.971894698304277	0.0606911605219524	0.971761766005359	-0.00138144298719744	0.00669963068938292
7.2	-0.00321524928001311	-0.00749296378782644	0.210613480106719	0.952035344674056	0.210335528688537	0.951998697996141	-0.000626461675153304	0.00690723113881948
7.3	-0.00477767355528154	-0.00674233645681754	0.355561343868376	0.908275999487814	0.355328151472498	0.908299659114698	0.000254481314947507	0.0067524991083601
7.4	-0.00576630315768826	-0.00549043436397139	0.491121619907569	0.841866652142207	0.490910638529928	0.841914884150443	0.00119162984054764	0.00658844181056432
7.5	-0.00580113251384508	-0.00524348851383845	0.613468168542394	0.758325469639546	0.613299850749792	0.758391857879153	0.00298819716015646	0.00526909471339383
7.6	-0.00758301045533314	-0.00498660977431046	0.725992833732	0.656020162936713	0.725736611937428	0.656098129824301	0.00249080358693398	0.00320746048935599
7.7	-0.0086340957256434	-0.00307506411649001	0.81955563782145	0.535421561753729	0.819368786876453	0.535634203798811	0.00179491224023404	0.00285150160012485
7.8	-0.00872479732291767	-0.000887757011776167	0.8927697495979	0.402365132660848	0.892664308205509	0.402587113699411	0.00146109544500248	0.00292451765029611
7.9	-0.00809620989250627	0.00210002247210828	0.944748582452269	0.260941661318641	0.944608591023387	0.261117703373503	0.001843426172083	0.00441407901213289
8	-0.0028305220906809	0.00349751421485053	0.977442551223202	0.111809633841636	0.977415132686988	0.112071068767067	0.00623422620775004	0.00456953266474785
8.1	-0.00226782445624465	0.000438544205797073	0.983004827985224	-0.0433111933462384	0.98302983404281	-0.0430559988215362	0.00631806573388191	-0.000615673389783011
8.2	-0.00291599592819272	0.000314863742738455	0.964283098530893	-0.194870468976452	0.964326352783416	-0.19455365086287	0.00379322058680038	-0.00241219214067373
8.3	-0.00331149492189725	0.000699838710846541	0.923485859258046	-0.341692743251008	0.923532376270568	-0.341405359139444	0.00124632102667982	-0.00303230581333731
8.4	-0.00400158584553109	0.00215706765815663	0.861331972090701	-0.481744462964304	0.861426394741042	-0.481540786607813	-0.00196309038521541	-0.00180876482377249
8.5	-0.00080962068995775	0.00521164399874521	0.775024826008751	-0.61231544236517	0.775074179150983	-0.612163800675627	-0.000579618116338697	0.00206485879216575
8.6	0.00161695349902156	0.00221680516522986	0.669950681052246	-0.723336919302041	0.670115610923996	-0.723097363760283	0.000794169525426087	-0.000404432833357174
8.7	0.00125085559884333	0.0014082434875967	0.551007791957017	-0.818832108821237	0.551263821686268	-0.81861231688113	-0.000826703321902474	-0.000786398975817561
8.8	0.00164851628887584	0.00126357802255006	0.41792251141801	-0.895771386540796	0.418106084297727	-0.895628996059155	-0.00205684601892901	-0.000175761956529387
8.9	0.00211910927421281	0.00139373861790439	0.272757852444767	-0.951177792326508	0.272935175291536	-0.951004502804794	-0.00284111172055325	0.0015465379279299
9	0.00452355543854609	0.00152860012062842	0.121463377348072	-0.97957126920919	0.121771474765333	-0.979520207372575	-0.00091578218833906	0.00408697362573316
9.1	0.00619180985085024	-0.000202765227031445	-0.0295287223727633	-0.988547624465106	-0.0292191730482617	-0.988501274187377	0.00140220608840316	0.00439299652183762
9.2	0.00805948487389599	-0.00160182437624649	-0.183609183503941	-0.973800741585414	-0.183259991625129	-0.973772649090809	0.00462030951877072	0.00465962816819008
9.3	0.00971916147221183	-0.00370780933791567	-0.333713099267243	-0.933927345593417	-0.333359236952939	-0.933896241777809	0.00845084062142635	0.00326970168841185
9.4	0.0110833781719095	-0.00553654662672243	-0.474603443165902	-0.870078458466988	-0.474276943603283	-0.870165056069435	0.0119686870602812	0.00111867345053898
9.5	0.0132290670550629	-0.0109209738805865	-0.602112757564363	-0.788459251470302	-0.601873197105647	-0.788505647165305	0.0160755245225667	-0.00626179991832421
9.6	0.00804384057749538	-0.014418264789558	-0.720767289582645	-0.686837719619097	-0.720449942960916	-0.686972790172131	0.0107143584547821	-0.0125540700847308
9.7	0.005264476794892	-0.0135340929947898	-0.819990628515604	-0.565707373414179	-0.819696212730797	-0.565938782880346	0.00619778401174133	-0.0140158565626049
9.8	0.00356946200161817	-0.0127013685972745	-0.89829031383625	-0.431277155488148	-0.898031469189425	-0.431444526816551	0.00186058940396183	-0.014424940839779
9.9	0.00239557979436617	-0.0101406904502747	-0.955001910106367	-0.287679217168865	-0.954743019459094	-0.287886948226528	-0.00213377080114647	-0.0120674737366799
10	0.00631158824321611	-0.00998374226369429	-0.992387345402289	-0.13532190671328	-0.99222587097444	-0.135688529074954	-0.000257679136156209	-0.0110290550571723
10.1	0.00378398161226657	-0.0134335132845996	-1.00081444620027	0.0239152767951194	-1.00074538346645	0.023476849404217	-0.00491353510520503	-0.014166829504925
10.2	0.001269623069864	-0.0126419170683181	-0.984554094347982	0.179528385990344	-0.984426017081601	0.179090913395088	-0.0102511050650903	-0.0119241517092062
10.3	-0.000207207742863515	-0.0113382413324341	-0.945316048694166	0.330827181124028	-0.945328886096928	0.330275726850543	-0.0141511589371284	-0.00824431101441448
10.4	-0.00122183914239864	-0.00961482444421734	-0.883764708998725	0.47546453005626	-0.883900245142634	0.474941775275132	-0.0168283932029115	-0.00297591673792624
10.5	0.000761991158755146	-0.00777152529252203	-0.796491580597612	0.610681523973665	-0.796667022973955	0.610240200479073	-0.0145288768784804	0.00277029200249611
10.6	0.00170671060635714	-0.00984775045227609	-0.690034213502669	0.725041587296633	-0.690310849309485	0.724705217250493	-0.0119893423691054	0.00381962157958782
10.7	0.000858069846068703	-0.0110377959824566	-0.569303893100737	0.823621829240545	-0.569609390543196	0.823306349396818	-0.0106777437375324	0.00498212337879317
10.8	-0.000515015725206482	-0.0117290183805677	-0.433791287925891	0.903053108515526	-0.434148535524742	0.902749180501803	-0.00964176408036577	0.0063989571193679
10.9	-0.00167665878000326	-0.0114895957008696	-0.28585547451154	0.960140036791721	-0.286253315879133	0.960015799172244	-0.00779119048956126	0.0082338442900254
11	-0.0022038521609233	-0.0119681054411957	-0.132164984886687	0.989262638324429	-0.132608803399731	0.989172139374641	-0.00504721086324598	0.00872564353266777
11.1	-0.00373548138798308	-0.0115426896016543	0.021197418982564	0.998791165274911	0.0207009000123032	0.99880562408164	-0.00340043065430854	0.00931290550950976
11.2	-0.00432180280223803	-0.0110317566605626	0.177457590808772	0.984095918751584	0.176992967014572	0.984171635099316	-0.000620457043433041	0.00972574630748587
11.3	-0.0047396532544161	-0.0104444864380802	0.329490328119945	0.943743291353725	0.32902435401725	0.94388444723445	0.00239907433995837	0.00975762637471668
11.4	-0.00462298115391496	-0.00936836366685637	0.471915535464667	0.878997904213624	0.471506511791596	0.879115170638363	0.00616075271418301	0.00990083524362727
11.5	-0.00290081417831605	-0.0113644271513254	0.600472658973735	0.796832253497331	0.600150381155991	0.79714004696753	0.011821025646463	0.00552523996855742
11.6	-0.00683129470032231	-0.0128995158746082	0.720192748966214	0.694054078694901	0.71997561256856	0.694388706312422	0.0104617978687418	0.00076773180714958
11.7	-0.00900211659633627	-0.0110904552360255	0.819750615969591	0.571646165837871	0.819546546819163	0.571959348722971	0.00971489835955867	-0.000785904632984244
11.8	-0.010594430272562	-0.00937669493767285	0.89786919693311	0.436022308949002	0.897688712800588	0.436481568717327	0.00884129080392124	-0.00202152904997537
11.9	-0.0107407354627721	-0.00573248429388067	0.954035780365435	0.291938049597763	0.953932183752897	0.292395469310531	0.00863817727933692	-0.000861207347859164
12	-0.00713241026811915	-0.00491036870724829	0.991045014953872	0.139309100306607	0.991019420765129	0.139680365722766	0.0138075793548697	-0.00229533253699079
12.1	-0.00934170990260394	-0.00758074267942787	0.998539581455592	-0.0198563669148077	0.998472870549081	-0.0194645705241346	0.0119182388391866	-0.00916651602999155
12.2	-0.0118623855366814	-0.00654139772657525	0.981430188810298	-0.174904845895433	0.98145229752879	-0.174602849973864	0.0084345144222278	-0.0117140591554751
12.3	-0.0136545077877936	-0.00477256674250658	0.941499865287509	-0.325120588646059	0.941625600386478	-0.324811564968521	0.00493188136117853	-0.0132724513245497
12.4	-0.0156162974286348	-0.00186586121461036	0.880021028783174	-0.468604443500609	0.880091027983708	-0.468230471626116	0.000733171208327348	-0.0128628514486633
12.5	-0.013415183900696	0.00217422444949784	0.792375412578582	-0.602352286561735	0.792728417616452	-0.601963940866349	0.00038958373254041	-0.0106044663714652
12.6	-0.0125260284366719	0.0014922751317608	0.686729313435453	-0.714543166127383	0.686987975453105	-0.714303589712002	-0.00121127035205133	-0.0130727472749911
