# GHZ S RI R 50
0.2	-0.000386363603634302	-0.000123516584732097	0.949100790781097	-0.307937029245698	0.948878527871083	-0.307911599107936	-0.00032491323909203	-8.99732900009205E-05
0.3	-0.000488664884650121	2.64342458904966E-05	0.889157858237604	-0.451598767565294	0.889001657366415	-0.451503392965107	-0.000481361955100045	-0.000203014663599896
0.4	-0.000313579491874416	0.000170597396775296	0.80771494588404	-0.583893959687408	0.807726738715887	-0.583919077153208	-0.000457334094627698	-0.000174928292695124
0.5	-0.000246525143371941	0.000189035535416865	0.706963018000842	-0.702230032300847	0.706807995069774	-0.702128557766323	-0.000371959720123194	-0.000167961965962162
0.6	-0.000269844750580893	0.000258348110357514	0.58903080437978	-0.803251784226845	0.588911547378982	-0.803090080248447	-0.000411708981634314	-0.00025757577552103
0.7	-0.00018348306515392	0.000538957975292815	0.456941526596913	-0.884628109201361	0.456922758550619	-0.884515614665757	-0.000360525766810074	-0.000322103677713922
0.8	0.000121880925723444	0.000593414613956816	0.313899232502491	-0.944628191796972	0.313867872102229	-0.944438460846043	-0.000417490713483947	-0.000355961757879319
0.9	0.000358493584370273	0.000705122956883476	0.163337768254557	-0.981589642048837	0.163272735872096	-0.981497732425226	-0.000639940778069198	-0.00043508574149484
1	0.000740462166186504	0.000451942243741564	0.0089404122062142	-0.994699237377291	0.00888876941127928	-0.994667772700814	-0.000805994622265772	-0.000351771886177597
1.1	0.00062983677894202	6.7602554856437E-05	-0.145534211638635	-0.983944132566303	-0.145549954521863	-0.983813702144009	-0.00118636734837956	-0.000116607509048896
1.2	0.000620264140688037	-0.000625671256364044	-0.296647999813696	-0.949116446637229	-0.296571634954782	-0.949090362519759	-0.000946890129662121	0.000707150616041755
1.3	0.000452086154593935	-0.00190212604310683	-0.440305459000529	-0.891292558218373	-0.440282430110887	-0.891285947455581	0.000396681716825483	0.00162463600188719
1.4	7.98639155713248E-05	-0.00343013192905652	-0.57299459901974	-0.811995707976046	-0.572970427762878	-0.811974081150368	0.00222733926164693	0.00138462309112645
1.5	-0.000445052870792622	-0.00414674373368845	-0.69215739289118	-0.713052271026336	-0.692055646427435	-0.712967335310008	0.00386202627023412	0.00012824207899315
1.6	-0.000689204665621439	-0.00407066026714429	-0.794261102899989	-0.596671986569121	-0.794187046083136	-0.596611989023157	0.00393602652648372	-0.00144138962490447
1.7	-0.000679189744874945	-0.00400881358204873	-0.876653286385624	-0.466565155241823	-0.876817423347265	-0.466049168797735	0.00355310016583066	-0.00270779069560664
1.8	-0.000977258871498962	-0.00408277642576102	-0.938477203916676	-0.324393595478583	-0.938365986203228	-0.32439225050373	0.00260974698194425	-0.00374367049293669
1.9	-0.00137149273297361	-0.00408724096325407	-0.97722331424206	-0.175211832568945	-0.97731609114041	-0.174724410124469	0.00156683858685818	-0.00423653083898458
2	-0.00224406655786791	-0.00419040250948035	-0.99227232100983	-0.0207733846472724	-0.992284236463405	-0.0207275450356341	0.000732564885574225	-0.00458157846737406
2.1	-0.00310645170922161	-0.00344167592091224	-0.983267520303718	0.133385452407941	-0.983305598286366	0.133422539072601	-0.000200457314488996	-0.00464536955706556
2.2	-0.00367681977732915	-0.0028606577269383	-0.950654455341294	0.284250515952466	-0.950579379794597	0.284313274125419	-0.000899973880001953	-0.00459833582636356
2.3	-0.00421539109452588	-0.00223621243957488	-0.895107753011002	0.427720784799825	-0.894725574744835	0.428233714676834	-0.00174137631956662	-0.00459087660523922
2.4	-0.0048062195970043	-0.00165891904602493	-0.816933519273057	0.56245702197202	-0.817200216008304	0.56187150589725	-0.00269859328463204	-0.00431523965051548
2.5	-0.00549231701340828	-0.0010544089112395	-0.719934260200725	0.682170385349803	-0.720147940877389	0.681660842405356	-0.00315815003404201	-0.00411131559271232
2.6	-0.00635608210044598	0.000257179965527606	-0.605753532844012	0.785253324607242	-0.605647499768575	0.785070644970371	-0.00343838949265846	-0.00374349579051069
2.7	-0.00630937741895993	0.00186752819829951	-0.475934590122692	0.869907798054026	-0.476383641754958	0.869501179009491	-0.00358262539347757	-0.00345112427882293
2.8	-0.00548377954999155	0.00321578555830946	-0.33636771667544	0.932644124938729	-0.335700221225385	0.932802605945787	-0.0037633334738842	-0.00309243168583538
2.9	-0.00389778523284334	0.00405939255534789	-0.186975452858451	0.973487823238284	-0.187006725614231	0.973400506142234	-0.00333738169292109	-0.00233718042570753
3	-0.00222222251301032	0.00432084073769193	-0.032899737173992	0.990752009789904	-0.0336006423729245	0.990593821344125	-0.0025790079770877	-0.00173086586481265
3.1	-0.000250378309227261	0.00417911416923592	0.119915652554044	0.983779888308085	0.120506119761529	0.983761699930674	-0.00148068417838147	-0.00147352595834353
3.2	0.00128028265048386	0.00322501036904628	0.271667416052905	0.952973543322196	0.271612593796597	0.952913293970515	-0.000808472227891355	-0.0015846315960619
3.3	0.00257263580223779	0.001988490497219	0.416379902693387	0.899115827150986	0.416242776506718	0.89910173213601	-3.94161265598056E-08	-0.00175520948382555
3.4	0.00324715188094233	0.000416169344751147	0.550809169845091	0.823583668785154	0.550647081617221	0.823701680359899	0.00091884993592671	-0.00239540647631484
3.5	0.00341220465783446	-0.00103782969883773	0.671954989620351	0.728172090328843	0.671875455997869	0.728210915132126	0.00155092937120109	-0.00323192119690894
3.6	0.00335356827080045	-0.00216499022293274	0.776267189308185	0.615385372456891	0.776507556433525	0.614936615942204	0.00183815544291006	-0.00421864877515849
3.7	0.00321299333174404	-0.0035886149791838	0.862589403617174	0.486861204695461	0.862471323286348	0.487004389652	0.00178869642974645	-0.00517044318850553
3.8	0.00248161571077143	-0.00499639150771924	0.927451699726128	0.347609464124359	0.927508008842066	0.347230351657514	0.00142555586336977	-0.0061028774759369
3.9	0.00158544865699228	-0.00637708520985074	0.970302561981672	0.198234803013253	0.970065113344303	0.198902325046682	0.000485136524289268	-0.00713989437769625
4	-0.000361251188561216	-0.00755142739147864	0.989123857222017	0.0459305418013934	0.989085074333045	0.0460334122751076	-0.000378403836710245	-0.00787171179431753
4.1	-0.00241469551443693	-0.00772982803625907	0.984260932398573	-0.107966419774144	0.984076710636469	-0.107839101212339	-0.00141393486535459	-0.00857030863460521
4.2	-0.00449545407523708	-0.00753785750335992	0.95522857288866	-0.260037960174651	0.955264467320008	-0.259384635793872	-0.00271435768602461	-0.00912343575973246
4.3	-0.0064307766176285	-0.00711072722133182	0.903542108177401	-0.404490138924101	0.903406485845008	-0.404378909829322	-0.00421634148837854	-0.00955595433746158
4.4	-0.00835306544641359	-0.006275028683321	0.829732530112052	-0.539714404413982	0.829567628179618	-0.539580956510469	-0.00586013245906417	-0.00961753178486144
4.5	-0.0102915019013502	-0.00550159285151317	0.735983275885174	-0.661789585050383	0.735794805782491	-0.661616365558857	-0.0073661418592916	-0.00950178778126194
4.6	-0.0126230657441653	-0.00367598945298482	0.623994240891729	-0.768476506871067	0.624336572014933	-0.767779315901271	-0.00896234040679315	-0.00930708853869542
4.7	-0.0141818625930294	-0.00137910420483682	0.497519728465216	-0.855787027901585	0.49753649815217	-0.855431380449018	-0.0107014750306113	-0.00906764605085647
4.8	-0.0151700383783134	0.00149510910534283	0.358370623275025	-0.922453904232592	0.35859234769328	-0.922137819230709	-0.0123603550861336	-0.00843144126101718
4.9	-0.0150367375929029	0.00432426504907151	0.211312739583804	-0.966294724036134	0.211092831227182	-0.966302326356449	-0.0135922065804491	-0.0073940389442246
5	-0.0141897332841185	0.00703243441915736	0.0586852558486876	-0.987401219641618	0.058862582530076	-0.987156097298101	-0.0141813452372883	-0.00590955214452748
5.1	-0.0121543613291014	0.00940440087690244	-0.095236715498777	-0.984629567181757	-0.0949049513465585	-0.984404619498815	-0.0143231617752391	-0.00448905282750606
5.2	-0.00961404138192598	0.0110816381159433	-0.247008808821981	-0.957821187496412	-0.246517025511304	-0.957794795752161	-0.0144500147579358	-0.00292476368002285
5.3	-0.00695036580194159	0.011835897958023	-0.392584633255595	-0.90787434475145	-0.392244222355131	-0.908090761478157	-0.0141214038017822	-0.00128571727375664
5.4	-0.00454870530279082	0.0121991818622709	-0.528779459936802	-0.836033505878136	-0.528566887861354	-0.836234372476869	-0.0135116610257552	0.000266876137588866
5.5	-0.00279469552301159	0.012543979602766	-0.652322283472032	-0.743712381673115	-0.652083522021924	-0.74390728810078	-0.0127362272172183	0.00142469450206937
5.6	-6.5753234841036E-05	0.01346116824452	-0.759558606595762	-0.633204400825058	-0.759369101377704	-0.633376356148578	-0.0120152037675225	0.00228106250618414
5.7	0.00288215644238949	0.0130164514037997	-0.848562382316206	-0.507647429236183	-0.848433251824704	-0.507867247975731	-0.0116126791415965	0.00326027414319031
5.8	0.00548931356734368	0.011929700780245	-0.916907725069243	-0.369686172621034	-0.916840059711244	-0.369971048073188	-0.0111611193420437	0.00445943930009206
5.9	0.00755459239729385	0.00985914344221827	-0.963133914273741	-0.222978521282869	-0.963148421239355	-0.223062103388309	-0.0105808680555322	0.00573060267427417
6	0.00806401676457877	0.00755309869132567	-0.985925591812497	-0.0707877811502003	-0.985806450574149	-0.0708458407309503	-0.00984082216702412	0.00702170942888234
6.1	0.0082323862153731	0.00655030436817367	-0.984809290056231	0.0828576003075084	-0.984682798199075	0.0827092173195078	-0.00869283737999903	0.0080829792389277
6.2	0.00882041056980273	0.00550330116208418	-0.959973237364412	0.234699864161218	-0.959959597548057	0.23449721443553	-0.00756991189412329	0.00869004006639133
6.3	0.00940095112023595	0.00393342530328266	-0.911914827844659	0.380823347551842	-0.911910358131044	0.380638171681382	-0.00632083487652055	0.00887121256865309
6.4	0.00977149698692602	0.00170785361035861	-0.841689268433923	0.517744091543725	-0.841657688150103	0.51753361709377	-0.00526031931844833	0.00848199693042904
6.5	0.00924736371191569	-0.00099577361634149	-0.751084029467897	0.64189619650825	-0.751108195097081	0.641692323724862	-0.00451058793867199	0.00778833308147999
6.6	0.00828181391136949	-0.00338791564095731	-0.642455883994475	0.750849219830213	-0.642529774701802	0.750597298732063	-0.00404001300031828	0.00724014618521717
6.7	0.00653289999664601	-0.00560920511838327	-0.517935373631481	0.841461782110304	-0.518038214373655	0.841240840563189	-0.00383007476571154	0.00693825597685809
6.8	0.00442718192060702	-0.00703905515272695	-0.380941386669667	0.911579876764299	-0.381082998102086	0.911409369700944	-0.00356832557069898	0.00702789701613656
6.9	0.00208736699814976	-0.00783535399665066	-0.234809606404974	0.959452888941676	-0.235036073597963	0.959342707143859	-0.00290748152516407	0.00721516777143896
7	3.80630014236961E-05	-0.00777757564355511	-0.0831728575164378	0.984273112973631	-0.0833825421820283	0.984183482228964	-0.00201153470089005	0.00711349079479804
7.1	-0.00159733944461766	-0.0074538359613472	0.0708285822649149	0.985170220154647	0.0706266767461958	0.985037241095791	-0.00115319525740039	0.00691362875237394
7.2	-0.00301487963469188	-0.0069670874179828	0.222858162138175	0.961981963825494	0.22257631965498	0.961947648398953	-0.000128665354902809	0.00677178435062517
7.3	-0.00443275473957268	-0.00633342617688889	0.369298308032748	0.91560322677048	0.369062532735218	0.915629593009376	0.000906151907133687	0.00638452101626785
7.4	-0.00552275531311581	-0.00542917885503082	0.506818527045708	0.847154785940761	0.506605383810333	0.847205993546598	0.00172938472784134	0.0057472991763751
7.5	-0.006536042415062	-0.00436539734191332	0.632247711620257	0.758098258142226	0.632078389576584	0.758167982371684	0.00259377577145388	0.00509387960205996
7.6	-0.00659474674678678	-0.0029556110676871	0.742023660445464	0.650494854970317	0.741766477172952	0.650577362303264	0.0035765809104732	0.00393279042631068
7.7	-0.00623534253055523	-0.00197472569068338	0.833690894942518	0.527447460128434	0.833505747108985	0.527664475073147	0.00398307276589683	0.00263342051093165
7.8	-0.00552559499863222	-0.0013482929386778	0.905370709671226	0.39162622195026	0.905267899448055	0.391851418602068	0.00419399778688344	0.00134880081475765
7.9	-0.00502828750740172	-0.00122294707164704	0.955126200086404	0.24646221759271	0.954988333581504	0.246641752010591	0.00413593744621486	0.000310247699234038
8	-0.00529798679411262	-0.00135791867304954	0.98138002564313	0.0951759915897055	0.981357061188872	0.095438436748484	0.003792789187391	-0.00064815885217542
8.1	-0.00563795638183896	-3.44357148037677E-05	0.984264496648287	-0.0579427081288854	0.984293327750797	-0.0576873902605537	0.00324462362645579	-0.00155341386025868
8.2	-0.00507064676198978	0.00116857037764505	0.963387827694333	-0.209951298564002	0.96343599225531	-0.209634458750673	0.00208358928162346	-0.00235139320579196
8.3	-0.00433160631360808	0.00233430038531335	0.91913636752866	-0.356923789908921	0.919187551097579	-0.356636799902176	0.000618811709239777	-0.00245454628343313
8.4	-0.00292715101551683	0.00320088292846178	0.852513367047596	-0.49528260195322	0.852611012507436	-0.49508069248507	-0.000688524962042382	-0.00190261660322945
8.5	-0.0019170865896148	0.00320195565473931	0.765341528321236	-0.621285547374017	0.765392781965248	-0.621134869996103	-0.00141949466293947	-0.000911448004668584
8.6	-0.00100611424770901	0.00406683309415131	0.659577193907084	-0.732693927426866	0.659745487047394	-0.73245675343648	-0.00137557553218446	0.000174949474087452
8.7	0.000779894377597086	0.00471686543975662	0.537605995531181	-0.82610854792251	0.537865031118981	-0.825893015975051	-0.00102521184173092	0.000917310652234149
8.8	0.00316387907259167	0.00471115657962422	0.402861332319282	-0.899352883773416	0.403046509621095	-0.899213759053865	-0.000648777654842586	0.00146663304343594
8.9	0.00577369491494163	0.00382686097288017	0.258436879856412	-0.950825298229834	0.258615828372283	-0.95065520888137	0.000224304253568269	0.00223763247597508
9	0.00824955172253496	0.00156770223603686	0.107748765678251	-0.97933296401141	0.108056965114272	-0.979286240822051	0.00192175294448691	0.0027304028876542
9.1	0.00999394046217968	-0.00118091199176645	-0.0456779624222689	-0.984007292515321	-0.0453689197842289	-0.983966227116157	0.00422733875676063	0.00235676883856668
9.2	0.0108231639635906	-0.00453220912745584	-0.197815797744793	-0.964674470201952	-0.197468394765737	-0.964652072575754	0.00646777870308008	0.00105129502343827
9.3	0.0103209790922922	-0.00742830427186238	-0.344926208143147	-0.922154508562662	-0.344574499720559	-0.922128815199462	0.00839958270073773	-0.000830664889606373
9.4	0.00918882991629504	-0.00979540340081164	-0.483597173484694	-0.857526681734921	-0.483274100089504	-0.857617274147196	0.00987818031309512	-0.00333373155881283
9.5	0.00697496305600356	-0.0106212310051457	-0.610823647790299	-0.771951789636057	-0.610586771227423	-0.772001910757089	0.0102764820174136	-0.00642011066235828
9.6	0.00643486070345814	-0.0103696485378656	-0.722921007443046	-0.667574007005449	-0.72260949390943	-0.667712404759126	0.009556005311069	-0.00959480747991747
9.7	0.00612850804672053	-0.0106525051593688	-0.81750508071519	-0.547426361210744	-0.817217505364507	-0.547658913644037	0.00717853270909727	-0.0124503445002382
9.8	0.00574868428663456	-0.0111380783754878	-0.892465279012349	-0.414087696335115	-0.892211910301667	-0.414256306237369	0.00384927012411614	-0.0141212826930742
9.9	0.00519998240898301	-0.0116912179111036	-0.945957945696636	-0.270618734794475	-0.945705438905417	-0.270827200463888	0.000326499470532106	-0.014437118359957
10	0.0034462571066911	-0.0122215121277774	-0.976207998000156	-0.120466882085709	-0.976054019181525	-0.120828922284904	-0.0029966629957051	-0.0137772797917555
10.1	0.00235749399531798	-0.0108225312065681	-0.983007982223743	0.0321818995781789	-0.982943939577742	0.031750582114662	-0.00594048635718385	-0.0124477679906749
10.2	0.00247215187419177	-0.0101006520400205	-0.96628021776988	0.184387972914132	-0.966157852410719	0.183956946371173	-0.00879531279383707	-0.0104846069851254
10.3	0.00269643406876965	-0.00981839833897812	-0.925867824264479	0.332241114646888	-0.925884704358324	0.331699609969465	-0.0111946060956067	-0.00779841250541093
10.4	0.00301525557726596	-0.0105510240254124	-0.862804689844239	0.471776402024573	-0.862940978082231	0.471265074966848	-0.0126498784245106	-0.00473796275138743
10.5	0.00224188210986498	-0.0118783766261376	-0.779128894684177	0.599520447597773	-0.77930149202139	0.599088467322041	-0.0128875602373562	-0.00182916726813949
10.6	0.000662086012018819	-0.0124910350084852	-0.676800805389921	0.713115945850628	-0.67707299064074	0.712785921887317	-0.0124600124100774	0.000700092543527581
10.7	-0.000909659654616271	-0.0121842928650703	-0.557893515145628	0.809434776445973	-0.558193887787446	0.809125420606883	-0.0115380686010315	0.0031143824123122
10.8	-0.00194722027845249	-0.011645099550931	-0.425507068226981	0.886014149098879	-0.425857587095616	0.88571600041671	-0.0100148360194648	0.00536943146165674
10.9	-0.00273890022382795	-0.0108984439010727	-0.283041992032999	0.941121894867519	-0.283431937391022	0.94099893284374	-0.00805654568286798	0.00726147464253353
11	-0.00328360479639956	-0.0104239097548261	-0.133718509898365	0.973854263630723	-0.134155303725362	0.973763538669522	-0.00541401213837544	0.0085172616440603
11.1	-0.00341991099535839	-0.00982306532798337	0.0192816460323877	0.982564541686226	0.0187931872421545	0.982577984017039	-0.00253711307394461	0.00897588791393752
11.2	-0.00346702749955	-0.00980221795686781	0.1713605405909	0.967491087610693	0.170903780923782	0.967564065929874	0.000430485439638454	0.00874411929609378
11.3	-0.00361158263864893	-0.00990780356845177	0.319161155577397	0.9291872050698	0.318702475252502	0.929323630310924	0.00349275237589792	0.0079857628397391
11.4	-0.00412459685618487	-0.0104194236771336	0.459381981449303	0.868584278369401	0.458978430940226	0.868697261664947	0.00639539905043905	0.0067724391800414
11.5	-0.00551477158900147	-0.0101181010323193	0.588741489030929	0.786566734148457	0.588423155430764	0.786868789958344	0.00898792568161062	0.00483636374187541
11.6	-0.00588413110197682	-0.00931534892732526	0.703217848742702	0.685564603170756	0.70300274900431	0.68589194045928	0.0108662019034548	0.00212241916759931
11.7	-0.00599451792139667	-0.00897389678317315	0.80092819644864	0.568347442670475	0.80072513920571	0.568653550080623	0.0116797411115754	-0.000733790641300476
11.8	-0.00636518338999105	-0.00911545056669922	0.879494569917829	0.437179574237162	0.879312810944466	0.437629821830993	0.0116473964224801	-0.00342727089643805
11.9	-0.00671898230281006	-0.00968837137097817	0.936762598456742	0.295427840262667	0.936656763617666	0.295877284138666	0.0112766894293624	-0.00559969922661505
12	-0.00965453345999816	-0.0101825709210538	0.971002934074964	0.146533954308002	0.970974132624793	0.146897975806931	0.0103575715861835	-0.00783302645147218
12.1	-0.0118977720615451	-0.00867961965947039	0.982008347613304	-0.00563382347060249	0.981937310216567	-0.00524954965258807	0.00928221294101436	-0.0103748712589113
12.2	-0.0137779867544521	-0.00692631406190564	0.969333033170473	-0.158059070029987	0.969350431126908	-0.157761256562933	0.00681380656244517	-0.0124847218089968
12.3	-0.0152228944896934	-0.00442902774001876	0.932818872157558	-0.306588819311489	0.932938252442832	-0.306282364542512	0.00383664287047597	-0.0135935180566071
12.4	-0.0159163929108813	-0.00179466851216466	0.873936907453111	-0.447540549339742	0.873999933264278	-0.447171200735627	0.000858519912375965	-0.0135932932773097
12.5	-0.0162050852785327	0.000589622318020855	0.793927638966315	-0.577348948461005	0.794267582983717	-0.576958631763034	-0.00160676519501287	-0.0128107539684853
