# GHZ S RI R 50
0.2	-0.000101596675055736	-0.000225625101168646	0.94957238436548	-0.307928544210593	0.949350018202718	-0.30790313692481	-0.000105251211151498	-0.000119028907228414
0.3	-0.000261111051341859	-0.000205684173429982	0.889685865684834	-0.451660879595618	0.889529569100287	-0.451565486060988	-0.000336148992908353	-0.000276595656084366
0.4	-0.000257941007432821	-0.000150427431829234	0.808340098169075	-0.584060913595566	0.808351903969298	-0.584086043565509	-0.000458583917404598	-0.000254368823961227
0.5	-0.000335967879203882	0.000108506313659723	0.707618906823491	-0.702739238747385	0.70746374538121	-0.702637695992979	-0.000500889377850637	6.23467925002256E-06
0.6	-9.08154502073678E-05	9.93480287183125E-05	0.589395325198545	-0.803847595221147	0.589275994328691	-0.803685771267637	-0.000346091295653688	-8.19051629896834E-05
0.7	-0.000112347625215486	0.000163451123166523	0.457255424334828	-0.885246374255499	0.457236643747596	-0.885133801299608	-0.000392636950763939	-0.00019793362821019
0.8	1.26676045076093E-05	0.000103528325839373	0.314129275013915	-0.9453777909684	0.314097893336085	-0.945187910045152	-0.000519796271605647	-0.000181450451290308
0.9	-0.00011664055652804	6.36589955333447E-05	0.163336892682851	-0.982506278855855	0.163271815161331	-0.982414275849069	-0.000842765011246731	-0.000301750592802594
1	-0.000465920248244808	0.00045517610621831	0.00851931548567657	-0.995418036976722	0.00846764905665923	-0.995386527494265	-0.00135512161298508	0.000171189330227469
1.1	0.000194413334610046	0.000707992652645553	-0.145799450074211	-0.984499454104359	-0.145815178550158	-0.984368943682558	-0.0010587040104977	0.000556906438131717
1.2	0.000634647190845706	-0.00013061990053218	-0.297047552983747	-0.949771479885923	-0.296971126107205	-0.94974539051004	-0.000683572068146559	0.000961352967707076
1.3	0.00119422805835043	-0.00159215565225995	-0.44094509484624	-0.891860410433115	-0.44092204547832	-0.891853801844252	0.000898992671517046	0.00164999006847492
1.4	0.00152959215354419	-0.00381898995049975	-0.573784369951335	-0.812256160894894	-0.573760171683263	-0.812234531547842	0.00301088726743638	0.00103740294462055
1.5	0.00174043688001911	-0.00529605204142227	-0.692594752512298	-0.713174638129577	-0.69249294634243	-0.71308969224674	0.00501798460927473	-0.000444299698471532
1.6	0.00061788865407478	-0.00682904110367467	-0.794991064164122	-0.597081271848997	-0.79491693879819	-0.59702123246408	0.00438708381263341	-0.00270206873166019
1.7	-0.000758102029883986	-0.0065761084597486	-0.877649386908637	-0.46665461356003	-0.877813474026704	-0.466138084077972	0.00329553424552552	-0.00342736603851149
1.8	-0.00187829995429983	-0.00604646573446778	-0.939431176898129	-0.324140830286966	-0.939319866701975	-0.324139545854239	0.00212331122208651	-0.00394901749511458
1.9	-0.00291240235142663	-0.00500647556053448	-0.977934978562545	-0.174846950365095	-0.97802757692539	-0.174359170323564	0.000834837499096065	-0.0038359378998904
2	-0.00266069475623453	-0.00367345676386715	-0.993285207163258	-0.020582656340091	-0.993297124965507	-0.0205367675863838	0.000823418544233215	-0.00329281536504
2.1	-0.00288247562972466	-0.00415190919299883	-0.98431011706289	0.134347578946504	-0.98434820927092	0.134384740283856	0.000197767857554002	-0.00425736298455733
2.2	-0.00418183715892622	-0.00375585138136576	-0.951221947378208	0.285422821815762	-0.951146744533994	0.285485562945996	-0.000936736798397367	-0.00417043032469882
2.3	-0.0052496204632154	-0.00281354372282907	-0.895402964342516	0.428876418921967	-0.895020018209713	0.429389391479362	-0.00189229149775347	-0.00398469492177399
2.4	-0.0064439602802969	-0.00146277666681512	-0.817213395892621	0.563644633301114	-0.817480819478779	0.563058803904087	-0.00309827568133462	-0.00350781504570802
2.5	-0.00637258709010921	0.0011896791222725	-0.7198705071822	0.684047300010664	-0.72008517854615	0.683537420581755	-0.00317522140059057	-0.00229179054642501
2.6	-0.00498951427658718	0.00201021319469036	-0.604715314150633	0.786705786443441	-0.60460954078708	0.786522829057897	-0.00231918139990142	-0.00253154076314563
2.7	-0.00420602764486365	0.00230519640865161	-0.474788170730198	0.870899505523018	-0.475237974807299	0.870493426401497	-0.00234723335392853	-0.00303451315405175
2.8	-0.00351595859891898	0.0024040078758557	-0.335128316597369	0.933462209098499	-0.334460355424234	0.933619774140983	-0.00283933843472247	-0.00332333122820901
2.9	-0.00251318194128844	0.00258669999414862	-0.185387454517857	0.974247003991114	-0.185418891337183	0.974159701353104	-0.00294275164405097	-0.00277206329732175
3	-0.00113899908053402	0.00230070415528619	-0.030691303784856	0.990556715867488	-0.0313923703491187	0.9904001263287	-0.00243547196438802	-0.00225611206713302
3.1	-0.000296268703477165	0.00178102346132406	0.121290826709889	0.982986592858496	0.121880897065826	0.982967545400428	-0.00206348994221132	-0.00194118156860104
3.2	0.000513144130341862	0.0013067606541999	0.272880214647814	0.952202611380561	0.272825331246631	0.952142463110812	-0.00164777359883965	-0.00151088406225552
3.3	0.00146038917370954	0.000614169505232571	0.417593870542197	0.898066290755857	0.417456783611313	0.898052415518768	-0.000892206043739889	-0.00128971316005602
3.4	0.00209164420939971	-0.000171279059675205	0.55180216577838	0.821893726663411	0.551640427259192	0.822011925398608	3.05221218493598E-05	-0.00143903492289079
3.5	0.00339864731886205	-0.00146832262673603	0.671663102314659	0.726370539791166	0.671583730323234	0.72640938580925	0.00138869369286074	-0.00212666334758379
3.6	0.00281869349486869	-0.00361475895055536	0.776052568793437	0.614373190127905	0.776292443611779	0.613924634542878	0.00123017996234453	-0.00361695529771629
3.7	0.00189619719491921	-0.00469783081922067	0.862370721627741	0.485658391247085	0.862252870363954	0.485801575267053	0.000844508792989082	-0.00412812775799781
3.8	0.00071990221088754	-0.00545884724848742	0.926806071463625	0.346362717932459	0.926861961206264	0.345983950864274	0.000418649653852362	-0.00464826391801342
3.9	-0.000452518706715883	-0.00562030870954314	0.969083129734566	0.197458607628872	0.968846352873662	0.198125343452725	-0.000622468083853935	-0.0050639404564384
4	-0.00061308001007792	-0.00520620872100544	0.988573348664244	0.0460663018324824	0.988534570323355	0.0461691095189521	-0.000390008027941593	-0.0048777484718975
4.1	-0.00127863195500327	-0.00676733258694211	0.983937894142019	-0.10866916266903	0.983753812218308	-0.108541739024242	-0.000792643514300832	-0.00650492429759112
4.2	-0.00336263526657444	-0.00732703988748141	0.954385066639307	-0.260678390375122	0.954421491675035	-0.260025522528559	-0.00213992091222064	-0.00731543280763787
4.3	-0.00548083024796998	-0.00749296669489891	0.902573733935142	-0.40475587320272	0.902438289525284	-0.404644643780645	-0.00363598025028452	-0.00807972032036585
4.4	-0.00829242298201644	-0.00680822043170751	0.829148575767615	-0.539760402045548	0.828983799337118	-0.539626957283089	-0.00581920791063967	-0.00840102965707012
4.5	-0.0101335826853471	-0.00437779748073648	0.735222448808877	-0.66282717230902	0.735034178389945	-0.662653686620903	-0.00744914676533508	-0.00733377572226516
4.6	-0.0107907765230362	-0.00305999128678321	0.622067147552362	-0.768696051555034	0.622410268643973	-0.768000161291919	-0.00831120989351578	-0.00751135045498823
4.7	-0.0119600799753447	-0.00172763748476242	0.495831254107513	-0.855200777613446	0.495848419423543	-0.854845636869488	-0.0100972736959038	-0.00757818034243858
4.8	-0.0129333941260029	0.000186218058146974	0.35702601496665	-0.921582090142885	0.35724774770692	-0.921266630295492	-0.0118058754116765	-0.00719487828214327
4.9	-0.0132390227033359	0.0022423808116032	0.209919313215623	-0.965477778718594	0.209699639354397	-0.965485108782126	-0.0132295045635957	-0.00633616748487976
5	-0.0125591950858143	0.00428481015512012	0.0568092899655858	-0.985321587031462	0.056986658016497	-0.985077320317194	-0.0137418436792794	-0.00496139618920101
5.1	-0.0119413819182316	0.00564730276722817	-0.0954282407590232	-0.981999307629167	-0.095097247524511	-0.98177509994849	-0.0144642540805653	-0.00386055517793576
5.2	-0.011086661818602	0.0078571691431302	-0.246597734436317	-0.955682895700613	-0.246107027959592	-0.955656629512818	-0.0150656873791579	-0.00188671232627895
5.3	-0.00940985100034626	0.0101198739110444	-0.391942744922197	-0.905868246210364	-0.391603100716079	-0.906084275579265	-0.0149039284899819	0.000381501539846582
5.4	-0.00660255216984033	0.0127300328726435	-0.527690933353789	-0.833677790418308	-0.527478983047225	-0.833878207496577	-0.0139926983095577	0.00289736190220785
5.5	-0.00148236453654675	0.0131923725280087	-0.649395786951106	-0.741916424505699	-0.649157617021728	-0.742110439513682	-0.0112619621997138	0.00383750211514953
5.6	0.000432731472176273	0.0113805680465091	-0.757063127579217	-0.633146769744423	-0.756873726639557	-0.633318087541661	-0.0115299820696809	0.00308847256151171
5.7	0.00177506249165009	0.0111294749879522	-0.846493903536273	-0.507853586336351	-0.846364715647729	-0.508072872141601	-0.011995290368606	0.00447281757020672
5.8	0.00335790946625246	0.0111021090184496	-0.914815608368741	-0.370159563981467	-0.914747711764202	-0.370443847692125	-0.0119522393330638	0.00621428626776309
5.9	0.00491802217145789	0.0114725844849877	-0.960802141568185	-0.22424700601659	-0.96081647052022	-0.224330446105813	-0.0117931708589139	0.00864052045355731
6	0.00941379330973061	0.0120158272522085	-0.985110910252336	-0.0733397435047757	-0.984991692143473	-0.073397452171037	-0.00889838500974561	0.0115795293834794
6.1	0.0126355864691169	0.00773147124897152	-0.984757557497395	0.0816014762298095	-0.984630898526834	0.0814532765865121	-0.00647117812616923	0.0106649392543999
6.2	0.0131716285768249	0.00402061049744376	-0.959587153013311	0.233528017236599	-0.959573307639302	0.233325516086541	-0.00558331083388471	0.0101425891306978
6.3	0.0123749644617028	0.000422854992665252	-0.911672547863234	0.37931170111372	-0.911667837883031	0.379126682313167	-0.00505368482301675	0.00941520382451028
6.4	0.0105102532703122	-0.00220585273081711	-0.84231723268542	0.516091335307854	-0.842285292993642	0.515880986929571	-0.00518677517235193	0.0089730936070436
6.5	0.00871323310200357	-0.00409588026702474	-0.751771952389348	0.641819963302279	-0.751796025410275	0.64161598052809	-0.00494126660163644	0.0089331297808414
6.6	0.00667650388381791	-0.00543042864546808	-0.642028284965504	0.749930180860726	-0.642102033151312	0.749678488327066	-0.00476722351015543	0.0090205055228431
6.7	0.0051081428041988	-0.0060944466222481	-0.518230746494878	0.839970507147121	-0.518333240126022	0.83974970747532	-0.00413322799354745	0.00942805128250851
6.8	0.0040073819177823	-0.00683679498113062	-0.381923732843476	0.910403874771303	-0.382065008351399	0.910233294767943	-0.00323954652408605	0.0095522686426748
6.9	0.00273773228784206	-0.00769101726897018	-0.235665660911057	0.959105480502271	-0.235891995422419	0.958995104149506	-0.00220510019428705	0.00950222396462638
7	0.00148374484994026	-0.0087785885494373	-0.0831542287308382	0.98285841619727	-0.0833636046817115	0.982768892247211	-0.00112939940256832	0.00867939254363919
7.1	-0.000883475790730923	-0.00920953141958475	0.0690252190474809	0.983653682444498	0.0688238767408021	0.983520579049467	-0.00101500142169453	0.00825737691004496
7.2	-0.00268305855223256	-0.00879405612277507	0.220795671163434	0.961541958565341	0.220514150299763	0.961507129078445	-0.000296330541003592	0.0083510030137033
7.3	-0.00435384818504674	-0.00823939670188421	0.367559308036849	0.915645218367406	0.367323635313851	0.915671179357908	0.000585362090924277	0.00818579981218099
7.4	-0.00563912049611087	-0.00726954825079129	0.505196406560755	0.846814880605722	0.504983442933021	0.846865766994421	0.00140446544199738	0.00785320221329491
7.5	-0.00601525125431011	-0.00666799455583778	0.628797958794288	0.75848183117934	0.628628760735997	0.758550923577043	0.0028794585305259	0.00713939086916481
7.6	-0.00731670310328199	-0.00680972081024878	0.739713499748885	0.652977221005204	0.739456059328316	0.653058836511618	0.00328120824014736	0.00525128225311059
7.7	-0.00902773330114414	-0.0054359630459733	0.832512070992867	0.52998076688292	0.83232624634434	0.530197340570205	0.00284922150680756	0.00420293590234477
7.8	-0.00990940251361971	-0.00322850338162714	0.904649865651835	0.394091730243788	0.904546440434195	0.394316733654552	0.00239906691507557	0.00357090916047865
7.9	-0.0102288032672907	6.18751827256886E-05	0.954440816459244	0.249463456345176	0.954302377812404	0.249642576370822	0.00184569128919491	0.00409966171128022
8	-0.00643625033842447	0.0038745112680185	0.982968700825483	0.0991754417762539	0.982944671788095	0.099438321454773	0.00335722027921693	0.0051988761139685
8.1	-0.00316376298807185	0.00279572973866955	0.986832693784212	-0.0561879235829767	0.986861104143028	-0.0559319128885712	0.00447435721689418	0.00279402515915715
8.2	-0.00175963168868376	0.00196956621951718	0.965444719715079	-0.208887116333556	0.965492496520434	-0.208569631348164	0.00347556231653103	0.00136400537685774
8.3	-0.000959819316684332	0.00121440903674898	0.921173082606901	-0.355877937559039	0.921223846721659	-0.355590416255917	0.0022019524278619	0.000523925139370934
8.4	-0.0010972480670074	0.000753208825952144	0.85550201796576	-0.494462497670828	0.855599425883526	-0.49425992444027	0.000144751980853431	0.000301360301827671
8.5	-1.52885978323074E-05	0.00265410974113315	0.768125392014313	-0.622932148809707	0.768176739215034	-0.622780957684537	-0.000570768416217574	0.002559148209679
8.6	0.00271166571524011	0.000873106072709935	0.660651463884341	-0.733696146247549	0.66081997611346	-0.733458598304762	0.000343256806699013	0.0021101982423122
8.7	0.00286715760785957	-0.000773015462009202	0.539063412471743	-0.826794747303072	0.539322622862204	-0.826578693091535	-0.000261117138882745	0.00221201152784916
8.8	0.00290651902809092	-0.00184562739287378	0.404570958924074	-0.900623092455076	0.404756338422227	-0.900483509804301	-0.000529116568385987	0.00268926950552955
8.9	0.00245520545238525	-0.00260331199330828	0.259403456244483	-0.953208339865571	0.259582815329834	-0.95303775390912	-0.000477124976311226	0.00341007625590434
9	0.00282809130143142	-0.00239530293745512	0.107075321070283	-0.980294869061931	0.107383833307371	-0.98024834631593	0.000588653690701593	0.00479862544129658
9.1	0.00358535022078337	-0.00278873698003153	-0.0446643574681588	-0.984855289608474	-0.0443551076748005	-0.984813860866959	0.00240576473580799	0.00525466519546002
9.2	0.00507801711482954	-0.00263817864487957	-0.197191179704294	-0.966659820164255	-0.196843157860881	-0.966637024592244	0.00513143035433505	0.00565584608390682
9.3	0.00755789891863204	-0.00336955270398756	-0.34543282926057	-0.924298965247301	-0.345080347174256	-0.924273115989947	0.00881969436629407	0.00448493885267099
9.4	0.00972690319711905	-0.00514526860105365	-0.484887705483376	-0.858421304616719	-0.484564231505916	-0.858512251729624	0.0116444389339388	0.00170306642463728
9.5	0.0125510761101428	-0.00872216885770349	-0.61018124825184	-0.772807311867036	-0.609944253809116	-0.772857197541546	0.0142553940497588	-0.00310245095579781
9.6	0.0100688300043179	-0.013723198827326	-0.723715158736964	-0.669911620866694	-0.72340279239841	-0.670049950066945	0.0113867865887429	-0.00874756920958348
9.7	0.00705440581214457	-0.0145957863170964	-0.819292284405524	-0.548890082900364	-0.819003984096271	-0.549123113798831	0.00760153474380778	-0.0110675458972216
9.8	0.004771704320898	-0.0146665309541882	-0.894166488071451	-0.414695627207115	-0.893912683909706	-0.414864587887409	0.00367486147877933	-0.0123560344815202
9.9	0.00244652425820028	-0.0129742975404923	-0.946887449346109	-0.271431396395385	-0.946634544508692	-0.271639964022644	-0.000802408547668739	-0.0117773302066283
10	0.00435407539459543	-0.0107243887350654	-0.979122328181153	-0.122266244601548	-0.978967336222142	-0.122629206758627	-0.00205450857432578	-0.00967723348108863
10.1	0.00418955212941728	-0.0132422012137841	-0.98617010399629	0.032990698136178	-0.986106162870185	0.0325579373002821	-0.00509625487523055	-0.0107621273184929
10.2	0.00215412586278193	-0.0135770250431897	-0.968327035674931	0.185604068795708	-0.968204747099647	0.1851719605193	-0.00925331227850536	-0.00897982426806015
10.3	0.000230324936842839	-0.0129045124038723	-0.927719044592681	0.333163948824496	-0.927736093935011	0.332621317468727	-0.0126492953554436	-0.00611019519749188
10.4	-0.0017037087467543	-0.0114097652930423	-0.86575945404332	0.472940243073794	-0.865895973000641	0.472427222770908	-0.0155097231026937	-0.00214635336236886
10.5	-0.00129674208477432	-0.00801191840549823	-0.781482918989285	0.603884998618812	-0.781657200249683	0.603451384362171	-0.0154412892415204	0.00349276907080443
10.6	0.00120268965570119	-0.00774297623483766	-0.676468650832489	0.716810951640581	-0.676742449500953	0.716480875769623	-0.0129489417074783	0.00660369984363426
10.7	0.00274981084630673	-0.00894089777008391	-0.557147219059859	0.81244275451553	-0.557448949592447	0.812133462077603	-0.0103666425372916	0.00836007248027452
10.8	0.00279755050743697	-0.0111007172419522	-0.424415131257508	0.889028440258875	-0.424767144932138	0.888730427338895	-0.00843480517895562	0.00921730993934631
10.9	0.00168523008943077	-0.0122601370975296	-0.28061654468177	0.94463425427405	-0.281007964569975	0.944512281986514	-0.00683889884212984	0.0104274689909908
11	0.00105272035558347	-0.0133499846695026	-0.129228726483807	0.974611716688701	-0.129666002302258	0.974523001266203	-0.00428436724451574	0.0112215598864907
11.1	-0.000565592552680887	-0.0141602407766578	0.0216402320651231	0.982226845321477	0.0211519505257265	0.982241459107754	-0.00223177948256521	0.0115162585894527
11.2	-0.00192183038662792	-0.0144758355677313	0.173670382953271	0.967524393896015	0.173213589355809	0.967598459207684	0.000504954675798304	0.0116138277990115
11.3	-0.00329325477467191	-0.0144641592369712	0.322030196010939	0.928718273058681	0.321571685581719	0.928856104032241	0.00342495388674514	0.0110313116067389
11.4	-0.00467014980075829	-0.0136579287307149	0.462251510843624	0.866257083539427	0.46184867099547	0.866371473188191	0.0061287172272717	0.0104545563149681
11.5	-0.00360469383568465	-0.0137090277094742	0.588441472050562	0.784235365247584	0.588124157100335	0.784537166781621	0.0104812226735583	0.00821084027506487
11.6	-0.00628103221699513	-0.015868576563844	0.70398549653127	0.684948781172546	0.703770696139303	0.685276372316548	0.0109249959934295	0.00392866017442366
11.7	-0.00942866243778071	-0.0148955095929612	0.802124197302514	0.566807676346767	0.801921729737652	0.567114212757302	0.0106018986481094	0.00156912099706143
11.8	-0.0122866212250519	-0.0130965825144486	0.879862895619308	0.434888312466792	0.879682280017975	0.435338653809248	0.00968270131446281	-0.000582493299396384
11.9	-0.0148503329163023	-0.00894845740062118	0.935492332887726	0.293857074957154	0.93538719017822	0.294305868734001	0.0076499970550228	-0.000937787306080781
12	-0.0122505634823956	-0.00388445703010916	0.971609257899837	0.146706747265667	0.971580408378887	0.147070998206104	0.009727654075566	-0.000221598444744458
12.1	-0.0107736049988153	-0.00413715069639569	0.982551752651055	-0.00760897534270778	0.982481446809236	-0.00722434180517636	0.00959993226947888	-0.00395262634698927
12.2	-0.0106825569934617	-0.00345502410246547	0.968639279030324	-0.159772816968324	0.968657216497276	-0.159475159436639	0.00792145891293588	-0.00595538563214239
12.3	-0.010423483284359	-0.00279683633664414	0.932026507382429	-0.307434001491584	0.932146156047108	-0.307127826997742	0.00617844397415613	-0.00777281304639585
12.4	-0.0112766591762146	-0.00218795492413451	0.874494548122286	-0.448219991107277	0.874557757544747	-0.447850361785702	0.00326711701714184	-0.00911591621661781
12.5	-0.0105336083470976	0.000580738203883629	0.79370726358044	-0.581123270402931	0.794049179843541	-0.580733243902071	0.00122219536943182	-0.00826064689107205
12.6	-0.00892330142946973	-0.000333237801075603	0.692068023876486	-0.695738245176739	0.692320032158862	-0.69549664646258	-0.000283182409462167	-0.00972644164128395
