# GHZ S RI R 50
0.2	-0.000121453197099367	-0.00041712678863626	0.950124143579229	-0.307731045342125	0.949901664959946	-0.307705706010034	-0.000155773253900641	-0.000276151867427058
0.3	-0.000385498361161632	-0.000392244614656952	0.890422386909611	-0.451539515712215	0.890265953833193	-0.451444133819409	-0.000499407954521501	-0.000388548233208063
0.4	-0.000465369165188147	-0.000254825538935753	0.809231312854564	-0.584132434804114	0.809243139394324	-0.584157578540424	-0.00069302431554989	-0.000244964628864305
0.5	-0.000440497962620413	0.000125001120558132	0.708484980307393	-0.703062525354631	0.708329649029774	-0.702960956097455	-0.000624087309343017	0.000142918690201686
0.6	-0.000153067853953933	1.71118371663936E-06	0.590268253684571	-0.804281054104075	0.590148746495071	-0.804119143197417	-0.000461838528336149	-2.19515702964712E-05
0.7	-0.000222901860753802	6.38203431308383E-05	0.458128241107808	-0.88591822477479	0.45810938893919	-0.885805547929135	-0.000551953946982903	-6.22461365557571E-05
0.8	-0.000117818105946473	2.76303473774248E-05	0.314880838686062	-0.946295000103359	0.314849341306821	-0.946104921465186	-0.000647379789501875	5.57092736779506E-05
0.9	-0.00028296026879963	9.56320928032802E-05	0.163873366915944	-0.983579940934239	0.163808181821791	-0.98348785504552	-0.000881226801978338	9.5219120390677E-05
1	-0.000250979711099009	0.000723265392814255	0.00897709208371953	-0.996550288207747	0.00892535250393527	-0.996518766026436	-0.000831053378871877	0.000682239714153444
1.1	0.00082344167808399	0.000437191617040984	-0.145544658163844	-0.985930176846548	-0.14556046895736	-0.985799493030239	-0.000164995777771042	0.000299741471520662
1.2	0.00125796144156888	-0.00111669920713059	-0.297158232339771	-0.951299229254457	-0.297081700135867	-0.951273073880467	4.84191388833181E-05	-0.000138805208644851
1.3	0.00126669159306037	-0.00337224658798343	-0.441381590925533	-0.893375384461531	-0.44135850747882	-0.893368759078155	0.00084507224752719	-0.000255189927016925
1.4	0.000760093477001568	-0.00558149462498622	-0.574476998191029	-0.813740793656744	-0.574452767025559	-0.813719122170859	0.00191973476796723	-0.000687939612165381
1.5	0.000673593566682244	-0.00674131753081381	-0.693739870174678	-0.714741880612916	-0.69363789028743	-0.714656742806117	0.00346645389694406	-0.00161671223050012
1.6	-0.000658427478467177	-0.00750974060826725	-0.796639388787686	-0.598236729909567	-0.796565109464329	-0.598176573946275	0.00272370328032449	-0.00267189273223865
1.7	-0.0016550865698226	-0.00675533065943368	-0.879493013421312	-0.467421619117932	-0.879657330870532	-0.466904025521352	0.00232633585561811	-0.00273087628406393
1.8	-0.0024150686621219	-0.00596966403349465	-0.941454089051106	-0.32456710463963	-0.941342548781145	-0.324565846302898	0.0017878990582851	-0.00303781311689611
1.9	-0.0029005105164802	-0.0047805183091871	-0.980210806244418	-0.174876986935352	-0.980303431778971	-0.174388069706429	0.00123675078425148	-0.0029836294388569
2	-0.00220119618366271	-0.0041495953236322	-0.995658772094594	-0.0197839588384441	-0.995670679018712	-0.0197379510475722	0.00153032475255643	-0.00340664915673574
2.1	-0.00291063067122007	-0.00473194989794384	-0.986246058606298	0.135619528468849	-0.986284193605779	0.135656806302479	0.000258975520980617	-0.00431967571140072
2.2	-0.00418487467936647	-0.00421968715314526	-0.952918860740673	0.287060669980895	-0.952843430868292	0.28712346168207	-0.000709082503309539	-0.00401324536844512
2.3	-0.00518969314198344	-0.00325418292877497	-0.896766208250802	0.43094217498886	-0.896381785323654	0.431455752405531	-0.00140560764395637	-0.00387687740048083
2.4	-0.00615170724450011	-0.00184686821581526	-0.81801132945437	0.566149200052419	-0.818280262352088	0.56556257724024	-0.00220919811685917	-0.00361639457244192
2.5	-0.00564971535072035	6.75279703648226E-05	-0.719803872790852	0.686467466669822	-0.720019818465515	0.685957145248411	-0.00203268447547139	-0.0036296951344427
2.6	-0.00517187524163535	0.000310032523924269	-0.604436164109953	0.788976100177296	-0.604330512917599	0.788792671185231	-0.00261314661368235	-0.00451010356516757
2.7	-0.00509227088870825	0.00091439624208234	-0.47400554465978	0.87322464067607	-0.474456841544209	0.872818695438296	-0.00365365982883907	-0.00445881214012069
2.8	-0.00460360126028941	0.0015602966502042	-0.33374214910436	0.935594760473033	-0.333072829875326	0.935751205994587	-0.00443873443871497	-0.00390350759488999
2.9	-0.00341945629113407	0.00206974143638904	-0.183488311408224	0.97584067424451	-0.183519977074334	0.975753333610517	-0.00432405755297789	-0.00280033978731821
3	-0.00200460997666219	0.0018576199680191	-0.0289276313267897	0.991693048892575	-0.0296297468282233	0.991537560457189	-0.00374602052819511	-0.00199552049119385
3.1	-0.00097245290465962	0.0016010446443587	0.123503488449943	0.98407494650791	0.124094324087619	0.984054644165258	-0.00299553818230148	-0.00121021505701212
3.2	6.91790864327248E-05	0.00111709635367528	0.275394434081997	0.952669019465571	0.275339348497565	0.952608928708773	-0.00212829553030467	-0.000758591375714988
3.3	0.00116848284585502	0.000444332204037466	0.420084238866155	0.897919422889365	0.41994699252435	0.897905855943447	-0.00108155915941409	-0.000589084024209469
3.4	0.002099768070514	-0.000425080915355684	0.554039897329493	0.821380378354948	0.553878280645838	0.82149902541995	0.000163852728170671	-0.000965616947433734
3.5	0.00321025515821092	-0.00213081431599817	0.67422198990638	0.725752288652298	0.674142605205484	0.725791369469348	0.0011267239585788	-0.00206907978294502
3.6	0.00258495496756161	-0.00385494541467367	0.778572427703022	0.612703968992294	0.778811228331299	0.612254291386239	0.000960796289805886	-0.00288409291865697
3.7	0.00200653976094168	-0.00491673086409157	0.864337371106173	0.483446651202517	0.864219863444895	0.483590270506446	0.00113139218683144	-0.00332821751040527
3.8	0.00109378857332784	-0.0057887288604549	0.928307921984025	0.343819596558859	0.928362727681937	0.343440467480575	0.00114920479155007	-0.00407163440184048
3.9	0.000334165396087172	-0.0062097893848392	0.970282590126717	0.194558490742207	0.97004774771632	0.195226366231173	0.000602227055008486	-0.00502707926614764
4	5.02439247951376E-05	-0.00688011835088603	0.988965867788658	0.0422368445265136	0.988927480353928	0.0423398250329371	0.000388061106755448	-0.00624068644049232
4.1	-0.00156551767955961	-0.00831892154110018	0.982954189267287	-0.112184732153022	0.982770681092321	-0.112056714816121	-0.00131854142573424	-0.00753201763718536
4.2	-0.0039276147289284	-0.00850662734228543	0.952751122432417	-0.263772434043162	0.952789773162687	-0.263120194097876	-0.00296204334468038	-0.00774204128607757
4.3	-0.00612258569327591	-0.00820071676804334	0.900319588707544	-0.407522169526571	0.900184658488353	-0.40741057219071	-0.00445664865300761	-0.00792839869412231
4.4	-0.0084579508423367	-0.00700703818028533	0.826069814653925	-0.542171919834303	0.825905747992044	-0.542038029297666	-0.00600866532959894	-0.00778637543642512
4.5	-0.00950934322370868	-0.00526703229184606	0.731241409243753	-0.663852603033652	0.731054171266374	-0.663678863376632	-0.00695401173608702	-0.00772692069974647
4.6	-0.0108359502664415	-0.0044419812926186	0.618645377625349	-0.768743462856585	0.618989657449897	-0.768049994753384	-0.00892574761679132	-0.00832744529955095
4.7	-0.0124479502178521	-0.0029825394091791	0.492455647346788	-0.854770833196898	0.492473748460568	-0.854416481324365	-0.0113562181304838	-0.00795109170971933
4.8	-0.0137001729496479	-0.000713440088200183	0.353634684014039	-0.920428453718756	0.353856776901885	-0.920114344250777	-0.013366714309676	-0.00688410026688144
4.9	-0.0139591337567762	0.0017848245797476	0.206802598833339	-0.963244575936	0.206583538301208	-0.963251313253025	-0.0146243295084111	-0.00529904713689185
5	-0.0132170470635278	0.00400763611671929	0.0550238766626352	-0.982611383523156	0.055201142535304	-0.982368104184348	-0.0149521992452226	-0.00349216199702434
5.1	-0.0122234431813704	0.00588250190875731	-0.0971250063107658	-0.979463758508067	-0.0967943651500195	-0.97924073586432	-0.0149151757374169	-0.00155624992021595
5.2	-0.0106168254850849	0.00803798339624788	-0.247870363650801	-0.952550642323604	-0.247380953363511	-0.952525450126835	-0.014197906085876	0.000312071101885466
5.3	-0.00833109385791067	0.00976495301539222	-0.392356692167997	-0.902406744350221	-0.392018468591237	-0.902622718095211	-0.01304181446213	0.00163644431294956
5.4	-0.00522148727724934	0.0113796533607074	-0.527104577166762	-0.830479561162939	-0.5268935215612	-0.830679626626191	-0.0118699073239421	0.00254962408334455
5.5	-0.00146511368401601	0.0108110040273743	-0.648975870626307	-0.73927509778538	-0.648738527746813	-0.739469011178523	-0.0111843923263685	0.00230594641529071
5.6	9.22349490122565E-05	0.0102494888637093	-0.756026635743411	-0.629736926251719	-0.755838145833525	-0.629908100671265	-0.0118747374220105	0.00336573764591359
5.7	0.00201147155632511	0.0101551564981122	-0.844368773487185	-0.504713068553805	-0.844240390948661	-0.504931799989091	-0.0113976654899725	0.00500440211236998
5.8	0.00406198145958273	0.00991017331038259	-0.911981152398248	-0.367698759066873	-0.911913851018994	-0.3679821037253	-0.0105917991692164	0.00627624249406001
5.9	0.00630271055572125	0.00950732516136789	-0.957827134782326	-0.222440386127543	-0.957841507363927	-0.22252353061905	-0.0097109621278244	0.00733494289060057
6	0.0096957398063522	0.00776003534654817	-0.981393972424426	-0.07128889134225	-0.981275323418778	-0.0713465879771917	-0.00874305830485473	0.00743747646141712
6.1	0.0104336858942633	0.0043728402598202	-0.980005310328481	0.0820219874625173	-0.979879375687508	0.0818743890074417	-0.00960095422274577	0.00799916746751219
6.2	0.0102542731316097	0.00228185195221622	-0.955160884845512	0.232623940241834	-0.955147137223109	0.232422362489406	-0.00950372622135646	0.00979102736189304
6.3	0.00984014848096615	0.000260779782578505	-0.907721787683602	0.377593191508634	-0.907717085304344	0.377408980221254	-0.0082951006854998	0.0111322185718736
6.4	0.00923186002556354	-0.00163477082174909	-0.838511520385405	0.513872470170516	-0.838479743622183	0.513663056535383	-0.00668417377095002	0.0115651231399379
6.5	0.00840712497257738	-0.00391143051103764	-0.748088391297159	0.637861717244987	-0.74811220581745	0.637658827921471	-0.0051167688022172	0.0110201754083898
6.6	0.00696624574855998	-0.0057851772848071	-0.640247260958714	0.745405715168347	-0.640320260586829	0.7451550754954	-0.00404023890161756	0.010380086523978
6.7	0.0053686590707228	-0.0072340400715229	-0.517277075297658	0.83556876046744	-0.51737879237006	0.835348755177326	-0.00333476553254985	0.0096179848531154
6.8	0.00383564930089685	-0.00823754416582081	-0.381596375561302	0.905783465491285	-0.381736766536866	0.905613430946669	-0.00305214289928021	0.00917721338952595
6.9	0.00229490889074396	-0.00903752718537341	-0.236349755833673	0.953861808132731	-0.236574746665208	0.953751543631896	-0.00261751561979662	0.00907574862593886
7	0.000725156706545606	-0.00978202954346202	-0.0861266742364603	0.978194535997033	-0.0863348123574842	0.978104698901195	-0.00218902215633957	0.00880798703960112
7.1	-0.00120914197399642	-0.00982766322838963	0.0658897426082176	0.980326754155977	0.0656895135306456	0.980193537221971	-0.00163600243213388	0.00905033088468537
7.2	-0.00269519326143764	-0.00949957902357086	0.217125128944579	0.95855106832584	0.21684477694928	0.958515540905571	-0.000568665458282172	0.00919796113036198
7.3	-0.00420578706649091	-0.00905568517914742	0.36301303824758	0.913374417488571	0.362778184644564	0.91339947278987	0.000510885723620524	0.00906494262062524
7.4	-0.00533697468990922	-0.00822188478761931	0.499849947669111	0.846079935913988	0.499637494455767	0.846129738075777	0.0015058278949398	0.00873252487217059
7.5	-0.00610678450973003	-0.00772458426224398	0.624679057571763	0.759376001547633	0.624509930349159	0.759444315307784	0.00261653474070277	0.00813436235434954
7.6	-0.00714847856647089	-0.00697645230215304	0.735691440157066	0.653542521737045	0.735434433635146	0.653623113712048	0.00365415269892591	0.00740819081856065
7.7	-0.00778729861687771	-0.00559114671088275	0.828178298840983	0.53148867253251	0.827992220208455	0.531703943920034	0.00481231534863657	0.00643192836960899
7.8	-0.00771548271463778	-0.00394966209431158	0.90066633605647	0.396797821387287	0.900562251873474	0.397021811706577	0.00578201458124771	0.00482970351406453
7.9	-0.00700410102223845	-0.00195177676389874	0.951646133223249	0.252976169655269	0.951507203966624	0.253154383925555	0.00620177452802241	0.00300273774729343
8	-0.00435202993167775	-0.00122505203865247	0.980331953697638	0.10207653239457	0.980307142921911	0.102338714870066	0.00594612633756687	0.000435890325211478
8.1	-0.00368716832622831	-0.00192035718574753	0.984194279594229	-0.0516128360252448	0.984221462546902	-0.0513574479769425	0.00320456248562336	-0.00115938927213756
8.2	-0.0033968515466281	-0.00178794877606275	0.96443063284607	-0.203496469673198	0.96447668206991	-0.203179425187919	0.000870064777622073	-0.000962771009705988
8.3	-0.00325335275573585	-0.00132480474858859	0.921683115704023	-0.350678193827047	0.92173234223759	-0.350390820796723	-0.000968367126033442	-4.22735583273459E-05
8.4	-0.00290394697407672	-0.000233892687184856	0.856649693222875	-0.490017715686307	0.856746073168407	-0.489814958760104	-0.00214586382373546	0.00153575869662152
8.5	-0.000764589082876859	0.000983107332340104	0.769659895577403	-0.617506880554192	0.769710335280343	-0.617355760670968	-0.00181180345333448	0.00279000521512114
8.6	0.00101122678943475	-0.000169962579235246	0.664555633043424	-0.729018388088193	0.664722546684182	-0.728780018529523	-0.00232273190405327	0.00346753730162426
8.7	0.00168108061448108	-0.000949445121319131	0.543634430003637	-0.823566203954254	0.543892361613327	-0.823348726584929	-0.00210742054993806	0.00520596400011223
8.8	0.00235207004534844	-0.00156291548451262	0.409325055730976	-0.8983487121227	0.409509666609705	-0.898208158132199	-0.00094217254994778	0.0066256269366378
8.9	0.00298205286026493	-0.00187696957619261	0.264552429799032	-0.951205767761196	0.264730734805901	-0.951034284479796	0.00125375768014233	0.00770936611486143
9	0.00480089310160267	-0.00251845686591884	0.113967965051524	-0.980029860724173	0.114276304377251	-0.979981162480839	0.00443809053533971	0.00749956698350122
9.1	0.00631800515997637	-0.00423464635196416	-0.0390550061680953	-0.986634763862314	-0.0387455173471764	-0.98659148801305	0.00725478436066726	0.00591812223117343
9.2	0.00752174644251572	-0.00622679496056197	-0.192131476683245	-0.968918819296071	-0.191783155722874	-0.968894087782183	0.00959753560196192	0.00334170768498436
9.3	0.00811573049328015	-0.00811004528280306	-0.340383599565271	-0.927388112494029	-0.340030867370543	-0.927360157844719	0.0108310398978372	0.000341201338049407
9.4	0.00886710824929467	-0.00961325387869336	-0.479901787960635	-0.863339764568789	-0.479577089621527	-0.863428662511039	0.0113540399763585	-0.00257020728444375
9.5	0.00947697804398539	-0.012564570019061	-0.607972014444667	-0.779418445365436	-0.607733804850374	-0.779467121525682	0.0103803891152835	-0.00627074923154787
9.6	0.00761307869701895	-0.0147287352138827	-0.722675271343434	-0.675575266603259	-0.722361246281026	-0.675712488757215	0.00803793359010357	-0.00775670256976775
9.7	0.00594629983248623	-0.0152259474145771	-0.819020524114096	-0.554978803016686	-0.818730068470269	-0.555211058543373	0.00621796352167462	-0.00916733171852262
9.8	0.00449165336988138	-0.0151943110099836	-0.895414497915673	-0.42117691771569	-0.895158782540242	-0.421345160987901	0.00373631974149584	-0.0103781245157302
9.9	0.00357957035893851	-0.0139302888661286	-0.95047206041367	-0.277383028932424	-0.950216847575994	-0.277591457916942	0.00109078815894114	-0.0108561389110479
10	0.00460004958990825	-0.0140241968102666	-0.983135837741836	-0.125708310571416	-0.982979079775814	-0.126072436153991	-0.00177856721025633	-0.0117505561534738
10.1	0.00329858794118884	-0.0149282073137759	-0.990279213522316	0.0292420953530862	-0.990213311061536	0.0288078399817214	-0.00646805987231731	-0.010563965571707
10.2	0.00206822276626279	-0.0145834400458938	-0.97380080043795	0.182861542713053	-0.97367627711453	0.18242776663136	-0.0094583590291908	-0.00768943969413614
10.3	0.00110681149474337	-0.0137734710492326	-0.933707435118651	0.332298440969658	-0.933723014216922	0.331752819144381	-0.0113698038975631	-0.00477240964833448
10.4	0.000686565428872127	-0.0129187438320858	-0.870725825499883	0.47396455605231	-0.870862244691359	0.473448808713727	-0.0123156306232655	-0.00207437478694054
10.5	0.00143692360969371	-0.0125284112451327	-0.785328561941352	0.603870718212076	-0.785502341305386	0.60343535475624	-0.0123781274173015	-0.000426582655492649
10.6	0.00131591502879446	-0.0136794520301202	-0.681853976387379	0.717746037503927	-0.682127893984174	0.717413586266274	-0.0135365767501712	0.00123875273687918
10.7	0.000353710712064501	-0.0140779976206846	-0.562163821209627	0.815035633201086	-0.562466237083799	0.814723960494076	-0.0141038931624376	0.00428330982853583
10.8	-0.000463560875473703	-0.0141999588032942	-0.428433395867475	0.892600913384222	-0.428786548708237	0.89230065559399	-0.0132825247919393	0.00780201706224019
10.9	-0.00106559867550461	-0.0140319993258852	-0.283957639174006	0.948098000900938	-0.284350481501443	0.947974619434403	-0.0112516610159603	0.010828433606656
11	-0.00139847585685502	-0.0145096342142263	-0.133544222385605	0.979776654544451	-0.133983702993441	0.979685825075883	-0.00843535784932001	0.0128410213619596
11.1	-0.00220825171467281	-0.0146740101189051	0.0200696195909418	0.989017619709607	0.0195779555141759	0.989031479167609	-0.00517086445181354	0.0144368805112351
11.2	-0.00291479666652265	-0.0149205117586922	0.173813962019345	0.973856991691254	0.17335418650205	0.973931074282507	-0.00122936263234811	0.0149132357050487
11.3	-0.00365525622870336	-0.0148380038528872	0.32308521638011	0.934689350269142	0.322623778650418	0.934827573255683	0.0028835093835379	0.0144236259985505
11.4	-0.00409786225459642	-0.0146147930619567	0.463980928849759	0.872783988473718	0.463575212251891	0.872898509136671	0.00687260716237025	0.0129739503741337
11.5	-0.00430627302485459	-0.0154647978427754	0.593723563899007	0.790757818457154	0.593403630014026	0.791062302211422	0.00966257770071582	0.00996453203242331
11.6	-0.00636290633279727	-0.0159544105393328	0.709972025210423	0.688499848320621	0.709756288423012	0.688830052794193	0.0112069157668498	0.00795356206898683
11.7	-0.0080836052222186	-0.0150392536853227	0.808129914198493	0.569360601420807	0.807926562871526	0.569669413066719	0.0131984257074094	0.00543669360240823
11.8	-0.00959908877464223	-0.0137559896034632	0.886523672828432	0.436626170286484	0.886342456104498	0.437079861162976	0.0143906988199122	0.00211049798155695
11.9	-0.00974193285316185	-0.0113792526537105	0.943628219569577	0.293868039083926	0.943523355309504	0.294320647101598	0.0151304366204553	-0.0016506023420023
12	-0.00922198188456151	-0.0107721089832997	0.978460413159709	0.143010594515376	0.978433114849975	0.143377289433468	0.0137609719167648	-0.00658286497114484
12.1	-0.0103426968803891	-0.0110536673767597	0.987802739363639	-0.0113724892906876	0.987733512996695	-0.0109855225338886	0.00980583211626952	-0.0100403377680459
12.2	-0.0121007016229449	-0.0101710153524577	0.97349518968589	-0.164696358460475	0.973514462625892	-0.164397079636246	0.00569099297280404	-0.0113367931605382
12.3	-0.0137025836247124	-0.00833838779465034	0.935572488498496	-0.313906022427199	0.935694365795767	-0.313598778781936	0.00180690700009002	-0.011443177451249
12.4	-0.0149385916674237	-0.00556313505209177	0.875262500395171	-0.455774770200414	0.875328372568768	-0.455403997580168	-0.00142917193085079	-0.0103062739190056
12.5	-0.0137342529083176	-0.00260085723524638	0.792198228274435	-0.586083847276329	0.792542680284614	-0.585694842668919	-0.00341014256213759	-0.00927527312933507
12.6	-0.0128192503506233	-0.0016439536542054	0.691369286352652	-0.700682083646092	0.691623048537614	-0.700440765899436	-0.00601054091480069	-0.00799379777317679
