# GHZ S RI R 50
0.2	-0.000402987687276239	-0.000141371072022236	0.948974520198233	-0.307977961518632	0.948752283213748	-0.30795251676729	-0.000353360761612487	-9.46651745709138E-05
0.3	-0.000508314219139453	-1.72060281404363E-05	0.888990906498919	-0.451620286374376	0.888834736480902	-0.451524910232627	-0.000515981107803422	-0.000217956950771242
0.4	-0.000354766040176081	9.60942100965251E-05	0.807516665877843	-0.583869557950228	0.807528454208943	-0.583894672149205	-0.00050889472752943	-0.000205637536839568
0.5	-0.000347981068517148	0.00010913957982696	0.706772837355577	-0.702155335946163	0.706617851854173	-0.702053867911225	-0.000480634390038856	-0.000201594890293088
0.6	-0.000384692623000628	0.000217095040382183	0.588831392991801	-0.803147923309283	0.588712176266258	-0.802986240178079	-0.0005471163793168	-0.000237964680588999
0.7	-0.000300565758519721	0.000504155563796109	0.456745312049714	-0.884463955552915	0.456726559625065	-0.884351485811576	-0.000496273729009916	-0.000265992291152759
0.8	2.79342136651524E-06	0.000561406388653664	0.313735609921464	-0.944406535777905	0.313704274031873	-0.944216852073709	-0.000535132979517583	-0.000267155828628617
0.9	0.000240456557387069	0.000644098561940037	0.163224541440319	-0.981335557939913	0.163159533097164	-0.981243668615832	-0.000708324207526308	-0.000355235568175891
1	0.000523387311328768	0.000378529232971044	0.00883707428600124	-0.994419861110263	0.00878544920851115	-0.994388400069295	-0.000903288856144644	-0.000330318339197557
1.1	0.000474751575668494	0.000112186777902343	-0.14556918872948	-0.9835869337288	-0.145584914730886	-0.983456547592759	-0.00123766881857439	-6.49635708877015E-05
1.2	0.00064818072283867	-0.000624563393181339	-0.296587874739454	-0.948742544305045	-0.296511537259399	-0.94871647417186	-0.000871129197414519	0.000669415608651358
1.3	0.000734776643341436	-0.002090486601605	-0.440164247014069	-0.890925976010042	-0.440141226959908	-0.890919368669606	0.000639167093102658	0.00138707529817689
1.4	0.000466672729568186	-0.00394171619710749	-0.572788704084666	-0.81163294346819	-0.572764542042165	-0.811611326662032	0.00249467801885071	0.000879963116906791
1.5	-0.000144412372262181	-0.00473351345037457	-0.69181670251861	-0.712675309178935	-0.691715006507411	-0.712590418704577	0.0039703549640925	-0.000355866758390253
1.6	-0.000515656753811858	-0.00475605031214689	-0.793807936521314	-0.596424237213367	-0.793733922291976	-0.596364264997998	0.00395297487540657	-0.00186190331737537
1.7	-0.000739719360631527	-0.00461888735150728	-0.876160515457765	-0.466413226438322	-0.876324619336672	-0.465897519182515	0.00345665996081633	-0.00298633334721087
1.8	-0.00119328908950816	-0.00456445564786643	-0.937936354181603	-0.324330010739241	-0.937825196212506	-0.324328653411714	0.00246433450141461	-0.00390793624039225
1.9	-0.00175252392402072	-0.00440560072239286	-0.976610537985146	-0.17526428063906	-0.976703337826841	-0.174777164694362	0.00132822963236653	-0.00431599804704292
2	-0.00258925422816699	-0.00413141654612608	-0.991663079904256	-0.0210671535945388	-0.991675002280433	-0.0210213455035552	0.000475535845525839	-0.00438164924728854
2.1	-0.00320711063340079	-0.00343045442439118	-0.982787542309766	0.132994288759901	-0.982825612103134	0.133031343292265	-0.000272030341200858	-0.00443327002349093
2.2	-0.00381092078875166	-0.00290386353547247	-0.950231620905457	0.283762614371967	-0.950156608493386	0.283825364290766	-0.000951451184868132	-0.00439977854018359
2.3	-0.00439803176280473	-0.00226164765001799	-0.894779109278277	0.42711195628237	-0.894397357139014	0.427624754164283	-0.00176601345374065	-0.00439904150311582
2.4	-0.00508156055662766	-0.00162191060360888	-0.816776811852466	0.561729271256007	-0.81704306151289	0.561143937724592	-0.00275092708491836	-0.00416617563646929
2.5	-0.005752231984064	-0.000655531864154143	-0.720013491212988	0.681500577717742	-0.720226807240522	0.680991125413086	-0.00326355645924401	-0.00378710792220652
2.6	-0.00610558759852045	0.000686675512184469	-0.605871011063511	0.784608159914475	-0.605764935227892	0.784425613230722	-0.0032355613687508	-0.00340913500215184
2.7	-0.00579088360524325	0.0019493257395939	-0.476204899572502	0.869245075754815	-0.476653519005503	0.868838390484326	-0.00322348425737168	-0.00336866478076935
2.8	-0.00499620983828781	0.00290746294847101	-0.336809529097694	0.932046549282257	-0.336142410045811	0.932205380705007	-0.00346504143397038	-0.00329156610892778
2.9	-0.00361968961605573	0.00354058347092684	-0.187545171733276	0.973051285502426	-0.187576377829182	0.972963976459899	-0.00323744110195343	-0.00266900870579701
3	-0.00207780412346002	0.00372451598459888	-0.0334134454160192	0.990403222772265	-0.0341140324237799	0.990244716029381	-0.00260593384328457	-0.00205778474536514
3.1	-0.000329998678838013	0.0034867669372596	0.119229534507917	0.983436786670509	0.119819761069573	0.983418987115191	-0.00166027888889757	-0.00181156350819827
3.2	0.000977275883682576	0.0026022897295323	0.270878430584857	0.952821428137744	0.270823671982154	0.952761161161372	-0.00112722355404996	-0.00184511147705954
3.3	0.00211194208421193	0.00148660154161681	0.41558892460629	0.899147472776987	0.415451850843784	0.899133280909549	-0.00042306946640771	-0.00192181160291774
3.4	0.00266202821045358	0.000121692777542163	0.55007731233794	0.823719706766669	0.549915190704158	0.823837571456067	0.000380184676343196	-0.00240715796145265
3.5	0.00299013316612445	-0.00110097062084183	0.671088971121578	0.728369169586645	0.671009442840905	0.728407915236019	0.00110275672914882	-0.00301013748131814
3.6	0.00294746415411086	-0.00234502594649881	0.775438966218729	0.615931188181712	0.775679684979815	0.615482800707905	0.00142042543741292	-0.00402286799116713
3.7	0.00268988287096352	-0.00368630456350533	0.861934471415526	0.487568246081631	0.861816282102288	0.487711287046915	0.00133519162413766	-0.00487480317007271
3.8	0.00189593796173217	-0.00495230377920863	0.926931774249727	0.348421843790652	0.926988432912531	0.348042862164727	0.000979374145664852	-0.00570787662448527
3.9	0.000924336759202636	-0.00610334302107062	0.969867468702884	0.199175609704692	0.96962939712161	0.199842729452791	-3.65006143410343E-06	-0.00662398677131216
4	-0.000756845723201503	-0.00681452501966057	0.988966442131142	0.0471686854071313	0.988927533901161	0.0472714967824813	-0.000726112359809577	-0.00701404777380218
4.1	-0.00235315856503793	-0.00713976226948803	0.984503667014438	-0.106849874426199	0.984319276895384	-0.106722751915191	-0.00143996755699884	-0.00777666809738099
4.2	-0.00430092890316903	-0.00712241721827579	0.955644139739463	-0.259022334174474	0.955679320294813	-0.2583688817413	-0.0026142287930285	-0.00841475044949124
4.3	-0.00615933426901784	-0.0068698705631656	0.904144458066122	-0.40353317945962	0.904008688194399	-0.403422085904392	-0.00400381895999488	-0.00897759330981991
4.4	-0.00818774814308612	-0.00622684171260418	0.830610434639259	-0.538829132682018	0.830445325939663	-0.53869585401979	-0.0056906475820584	-0.00925023940264137
4.5	-0.0102490186019713	-0.00525112241519489	0.737140972678664	-0.661317457543333	0.736952201855274	-0.661144356887505	-0.00735837389173956	-0.00905898756422106
4.6	-0.0122907981981129	-0.00351305327939934	0.625016523879475	-0.768231102396817	0.625358344087713	-0.767533263811169	-0.00883242326698411	-0.00893098898345714
4.7	-0.0138398244266566	-0.00144155194518742	0.498606823752699	-0.855672134550291	0.498623242615302	-0.855316309583636	-0.0106381903660173	-0.00879928811778425
4.8	-0.0149013089927483	0.00126661455504778	0.359524884817215	-0.922579597916475	0.359746400028892	-0.922263111124378	-0.0123795496437636	-0.00820453964369868
4.9	-0.0149052874825603	0.00398534480178716	0.212416504531141	-0.966781531369256	0.212196445508023	-0.966789355766544	-0.0137031841743502	-0.00717561136256005
5	-0.0140978332696582	0.00665979443133247	0.0594178473803072	-0.988018745165397	0.0595951202141951	-0.987773334756418	-0.0142911715632571	-0.00562817779413666
5.1	-0.0122586871424033	0.0088408127668707	-0.0944522798767093	-0.985246256084869	-0.0941205262429899	-0.985020904220096	-0.0144802866102654	-0.00427655975646236
5.2	-0.010041587827204	0.0106036201048901	-0.246332001265853	-0.95868075483481	-0.245839911383835	-0.958653912844644	-0.0147164467465552	-0.00265252355380242
5.3	-0.00758408667339082	0.0116668854635712	-0.392157013586897	-0.908880430723786	-0.391816170051135	-0.909096739855027	-0.0144512405087997	-0.000863568322263503
5.4	-0.00514480482037344	0.0125258545130978	-0.52863658872403	-0.836994617410082	-0.528423729689366	-0.837195497085089	-0.0138270601125915	0.000953783393352123
5.5	-0.00261315848124103	0.0131329515365841	-0.652087045998811	-0.744585772982547	-0.651848015230671	-0.744780596515759	-0.0125296204931454	0.00231777275193449
5.6	0.000243689879792219	0.0133806392928297	-0.759552128860785	-0.634390773694335	-0.759362319873423	-0.63456268479067	-0.0117138470606038	0.00270231486492885
5.7	0.00292921126802013	0.0127901904662816	-0.848907421128182	-0.508790421467538	-0.84877799670397	-0.50901033147316	-0.0114468527989134	0.0035726334534926
5.8	0.00531807851848299	0.0117315851521256	-0.917479629206127	-0.370679585704157	-0.917411698295131	-0.370964672563394	-0.0111091157801482	0.0047108946439361
5.9	0.00710229978580142	0.0099298254527703	-0.963773934153897	-0.223857069906446	-0.963788393069475	-0.223940731876214	-0.0107977576726518	0.00602644890667282
6	0.008083413392741	0.00832768415354082	-0.986896316899883	-0.0718120161182858	-0.986776994278169	-0.0718700220521981	-0.0099160297546309	0.00780952199818475
6.1	0.00888094995799575	0.00675517233401991	-0.986155655221083	0.0823319278714481	-0.986028901752294	0.0821834316558199	-0.00845839654072078	0.00854423790753791
6.2	0.00935367880132776	0.00521846631126839	-0.961281228776309	0.234545591508663	-0.961267477528513	0.234342695210768	-0.00747965502056446	0.00894319535232139
6.3	0.00960147202657011	0.00334953747980054	-0.913165916994863	0.380897673749862	-0.91316136443108	0.380712278140436	-0.00644701600726162	0.00903003716334244
6.4	0.00949269252241483	0.00112154932537373	-0.842997889051174	0.517980365596806	-0.842966165991105	0.517769642895531	-0.00567687062783483	0.00870421540525293
6.5	0.00872101099950385	-0.00128650619381646	-0.752411297139771	0.642729489785961	-0.752435453461494	0.642525291519132	-0.00503800272617123	0.00828276932121816
6.6	0.00762257428821351	-0.00339432238939401	-0.643254315401466	0.751844769922935	-0.643328311820144	0.751592526719632	-0.00455494396567929	0.00794993602543585
6.7	0.00601714002008612	-0.00523610663602806	-0.51857375361289	0.842460295637658	-0.518676713158945	0.842239087053405	-0.00415123993744529	0.00787656995479935
6.8	0.00425633606524989	-0.00652896587082171	-0.38145842464552	0.912716864836838	-0.38160020834816	0.912546136816336	-0.00360732954513705	0.00798638174488189
6.9	0.00222559000048107	-0.00738777148834337	-0.235049333442897	0.96086387088132	-0.235276139363072	0.96075355340247	-0.00275644944344434	0.00807509369595112
7	0.000455358149758865	-0.00762041127897462	-0.0827511892391437	0.985532945507464	-0.0829611805958308	0.985443315825232	-0.00168434993679263	0.00776007852942444
7.1	-0.00128665930999327	-0.00760154788905305	0.0712225633861694	0.986138656355816	0.0710204110946863	0.986005609599199	-0.000931006116405324	0.00734664661537615
7.2	-0.00281128835283146	-0.00723835962521602	0.223415951823775	0.962973260900964	0.223133786671123	0.962938998790066	3.42719190317573E-06	0.00713387008676776
7.3	-0.00434530741549485	-0.00670827317119003	0.370151827287408	0.916483327321979	0.369915793173368	0.916509834302159	0.000944753678267305	0.00669390345595018
7.4	-0.00558889136167403	-0.00582714751116788	0.507959779072614	0.847651024925589	0.507746454975699	0.84770244145986	0.00164883705922977	0.00607154170646328
7.5	-0.00653752071561919	-0.00476203519550247	0.633053310514522	0.758196224875482	0.632883926326814	0.758266086217195	0.00257605497561344	0.00549001490261969
7.6	-0.00681622466831911	-0.00366569165768034	0.742918183279484	0.650766961326582	0.74266081013999	0.650849640256254	0.00346314051607799	0.00415282645490029
7.7	-0.00690733173274894	-0.00263438294043149	0.834760735984364	0.527445810463034	0.834575544767357	0.527663131706399	0.00363799375966809	0.0028795958735384
7.8	-0.00659791320636083	-0.00168548726892047	0.906379118017212	0.391288703672038	0.906276387409612	0.391514155040638	0.00361801031376964	0.00174138003809848
7.9	-0.00640951506901991	-0.000868143309970715	0.955830947005096	0.245943823715676	0.955693126632796	0.246123553531514	0.00326187054211216	0.0011355372159515
8	-0.00591965861438491	0.000202118611407805	0.982183498937635	0.0949013472520312	0.982160609879291	0.0951640063990956	0.00330741165028604	0.000993012862491452
8.1	-0.00518486138921614	0.00111545867222907	0.985162966124902	-0.0587724880677952	0.985192025708581	-0.0585169479898737	0.00348028928239445	-0.000130720858907969
8.2	-0.00427532159082491	0.00178900699778628	0.963880169895596	-0.211031824941523	0.963928674757843	-0.210714803064603	0.00254026050699203	-0.00121029795138111
8.3	-0.00343381699537864	0.00241282308960995	0.919277068229085	-0.357972696733107	0.919328548085014	-0.35768560614782	0.00119925552956502	-0.00164139694605771
8.4	-0.00237214428835124	0.00277187504707321	0.852583113501968	-0.496172675564425	0.852680959651175	-0.495970734931183	-0.000307755764724239	-0.00149675894903441
8.5	-0.00162793174562576	0.00317854913077072	0.765331889930284	-0.622611969101562	0.765383344990734	-0.622461218947222	-0.00132077969347852	-0.000219634779820827
8.6	-0.000245546403756838	0.0035986967059506	0.658881691224581	-0.733830939043841	0.659050356558228	-0.733593891804408	-0.000978472737484592	0.000628664816852399
8.7	0.00123919978289753	0.00368351538321222	0.536767798770542	-0.826902892289026	0.537027137547644	-0.826687613228486	-0.000812558832213138	0.00110318593968141
8.8	0.00310426438934826	0.00336231572070254	0.401984071699968	-0.899977270659004	0.402169437752022	-0.899838314528143	-0.00064980124095696	0.0015267500219401
8.9	0.00498942177037707	0.00240125947226155	0.257394424937492	-0.951477149899727	0.257573641202141	-0.951307212912482	-9.40843251512983E-05	0.00219668966144617
9	0.00684831431767016	0.000679500346270276	0.106144870506696	-0.979464494392257	0.106453132257396	-0.979418276533977	0.00125916847368804	0.00295307635280808
9.1	0.00832717280071658	-0.00147843881250773	-0.0468720864997814	-0.983598446488481	-0.0465631041023078	-0.983557775979429	0.00339871275907825	0.00287889273512178
9.2	0.00925482937342634	-0.00396383694833092	-0.19886528438515	-0.964197041674008	-0.19851794646745	-0.964175046414612	0.00570280513920804	0.00211487233462907
9.3	0.00947054818886491	-0.00627495013564552	-0.346001186930092	-0.921494955580251	-0.345649532354073	-0.921469710711023	0.00813477117504833	0.000555390976331613
9.4	0.00907572498758404	-0.00852242024675522	-0.484683356958445	-0.856374785645001	-0.48436057686333	-0.856465830951652	0.0100066840365502	-0.00198558886256989
9.5	0.00807374957968601	-0.00970934457672533	-0.611084083295858	-0.770406224805515	-0.610847518710492	-0.77045657230353	0.0111006543515825	-0.00525530710640352
9.6	0.00734180228631231	-0.0107718826543737	-0.722969704949245	-0.666403474197953	-0.722658557022262	-0.666542047949565	0.0101452569105738	-0.00924672051315011
9.7	0.00643360701324758	-0.0113179924870225	-0.817430837181708	-0.546143003782885	-0.817143730799613	-0.546375672456611	0.00739648018838507	-0.0121601106003133
9.8	0.00560871936955064	-0.0118305225118274	-0.89202368679694	-0.412695900294959	-0.891770756565692	-0.412864618451408	0.00385815317404537	-0.0138603375942436
9.9	0.00449073743485798	-0.0120348895870033	-0.944903009775984	-0.269406204923567	-0.944651034393348	-0.269614609812352	-8.23641267894877E-05	-0.0140642528465
10	0.00333337235580709	-0.0116640720119327	-0.975188358751393	-0.11999515775948	-0.975034673808124	-0.120356857939648	-0.00309424507348243	-0.0127455678203355
10.1	0.00268342726107395	-0.0111001574266047	-0.982032641535018	0.0328576805794328	-0.981968971118176	0.0324267348791967	-0.0057852700726628	-0.0119764884888142
10.2	0.00233540874179204	-0.0107192578005634	-0.96493555233092	0.184824694194617	-0.964813639488968	0.18439412581478	-0.00894392939782265	-0.0101911644253183
10.3	0.00204999466307012	-0.0104266758559596	-0.924403553032375	0.332177609265461	-0.924420648464453	0.331636882557732	-0.0116355595427816	-0.00753239132408533
10.4	0.001776046101381	-0.0107607747133113	-0.861681613321203	0.471211513431281	-0.861817749900685	0.47070084565915	-0.0135234826348174	-0.00431985214890318
10.5	0.0010921104678184	-0.010964765233957	-0.77829721902986	0.599357714181204	-0.778469849453707	0.598926133577362	-0.0138356213655495	-0.000645859844704253
10.6	0.000448117628013604	-0.0113283209607039	-0.675516958524001	0.712616478896695	-0.675788996011882	0.712287035905509	-0.0128171497181426	0.00208246281345049
10.7	-0.000521281817221272	-0.011326582816109	-0.556796360727054	0.808477297352629	-0.5570964155475	0.808168495653389	-0.0115176754614452	0.00425895150876759
10.8	-0.00140163822244861	-0.0114144105603689	-0.424759757617424	0.884853062916078	-0.425109839683186	0.884555390979675	-0.00999037153315632	0.00615703060251483
10.9	-0.00235621789321445	-0.010967141433444	-0.28247816904307	0.940088480566135	-0.282867687545756	0.939965758932087	-0.00823388696923971	0.00799332663791876
11	-0.00289182666703235	-0.010593612726452	-0.132854208415733	0.972310914178688	-0.133290330137393	0.972220628471168	-0.00558211500030531	0.0093447653794624
11.1	-0.00322218366259429	-0.0101918096654588	0.019287978198984	0.980636305020556	0.018800478242026	0.98064974294974	-0.002789043007564	0.00981916748076191
11.2	-0.00342530570195283	-0.0101775988865815	0.170899707436174	0.965788431327002	0.170443752916567	0.965861206235316	0.00020368387501081	0.00969577412950832
11.3	-0.00373713549188368	-0.0102359404478896	0.318488718581627	0.92764509154115	0.31803080241301	0.927781220881214	0.00327203133023419	0.00896032899143961
11.4	-0.00441402881882396	-0.0104571399505724	0.458544387187324	0.866880554091833	0.458141622499538	0.866993342223638	0.00610830048086129	0.00791812330545798
11.5	-0.00506968240387729	-0.0100600070987196	0.586833597782347	0.784942394306726	0.58651588560514	0.78524351932242	0.0093187963334593	0.00613161406664331
11.6	-0.00565572491859496	-0.0100901889786925	0.701199561179006	0.684874331475038	0.700984578648214	0.685200826149036	0.0111377477601033	0.00284754628611544
11.7	-0.0063418602419377	-0.00981778608150727	0.798954849016927	0.567948788343631	0.7987519175981	0.56825415333118	0.0117209201069417	-9.32701658974359E-05
11.8	-0.00723526214097621	-0.00979346887078101	0.877344830797333	0.43703629452132	0.877163060009	0.437485477060854	0.0114609878438293	-0.00286941448122301
11.9	-0.00819895376498117	-0.00961054366143099	0.934195246671662	0.295865167059476	0.934089117301685	0.296313422659735	0.0105763951885196	-0.00480371277283148
12	-0.0103489272771948	-0.00880139735776159	0.968957896102373	0.148147687637319	0.968928442279716	0.148510993076273	0.00999103465284541	-0.00616068525720192
12.1	-0.0117747572553572	-0.00770337213871226	0.980532996435494	-0.00407387968077113	0.980461459322983	-0.00369029888981968	0.00924039012085875	-0.00901450658179124
12.2	-0.0134317732413634	-0.00608538920403649	0.968023634971858	-0.156189271777971	0.968040509021261	-0.155891912470988	0.00678946659220445	-0.0110548938906711
12.3	-0.0145440176529583	-0.00380586408777521	0.931934878313959	-0.304293365019178	0.932053474909812	-0.303987164473027	0.00406521470393363	-0.0121685965902684
12.4	-0.0152661694210452	-0.00155285695697939	0.873929845388779	-0.444951704923719	0.873991929458856	-0.444582654864315	0.00111923896849743	-0.012428027886888
12.5	-0.0153399555793511	0.00112296524083748	0.794563861342203	-0.575602324786769	0.794902917372269	-0.575211593171344	-0.00120828966679771	-0.0114971174230302
