# GHZ S RI R 50
0.2	-0.000443535607309673	-4.92391310257318E-05	0.948528490979371	-0.308103790885397	0.948306346407832	-0.308078298635036	-0.000400657531043085	4.8568128343353E-06
0.3	-0.000479926949900634	7.21355248352701E-05	0.888410926405511	-0.451684096162313	0.888254863414571	-0.451588716664885	-0.000496143428146839	-0.000112263616787631
0.4	-0.000239421775534011	0.000127984986930679	0.806796152316092	-0.583781633953526	0.806807924287461	-0.583806736292199	-0.000399397439928079	-0.000148730417245131
0.5	-0.000296899938568828	-5.30627509076683E-05	0.706071861478456	-0.701767394108372	0.705917018159554	-0.701665970529926	-0.000433548212936552	-0.000337442599406625
0.6	-0.000487734410693035	0.00017092780770221	0.588255153868638	-0.802690131494283	0.588136053630081	-0.802528540393795	-0.000661795563821063	-0.000249520579283168
0.7	-0.000353895989840075	0.000531858015726406	0.456185830646743	-0.883871850114577	0.45616711843865	-0.883759464577241	-0.000560304734964864	-0.000186412313657878
0.8	4.00318549739593E-06	0.000625260878788866	0.313278630736696	-0.943628452745897	0.313247358539117	-0.943438931321105	-0.000533038593261769	-0.000134411654543983
0.9	0.00041236048473011	0.000729355083672379	0.162999844159454	-0.980402823321548	0.162934904686794	-0.98031101791138	-0.00050794983977373	-0.000189865287461994
1	0.000834326657383859	4.1951384249756E-05	0.00885590748451295	-0.993595923517482	0.00880432434085159	-0.993564489901122	-0.000522954515939162	-0.000613295328640549
1.1	0.000372314241858822	-0.000252702854733897	-0.145552236847929	-0.982704255218749	-0.145567934257618	-0.982573982136043	-0.00127739415263035	-0.000425547389344957
1.2	0.000565090602652507	-0.000867473092817261	-0.296342639828554	-0.947776007371003	-0.296266377393143	-0.947749967526175	-0.000927424863443794	0.00039925016761518
1.3	0.000701225457407266	-0.00231454846381799	-0.439668068129037	-0.890019752047816	-0.439645072280255	-0.890013150566223	0.000582260370753392	0.00112878649871567
1.4	0.000508931953522741	-0.00418846845085729	-0.57213345852463	-0.810903443450957	-0.572109322669977	-0.810881845045735	0.00247042059485628	0.000629687058050761
1.5	-0.000381879436212925	-0.00485743159862074	-0.691181369651938	-0.711941257603544	-0.691079768145687	-0.711856455641309	0.0036264647850211	-0.000424990461212207
1.6	-0.000387827375754426	-0.00453555321394015	-0.792799253665183	-0.595704582982484	-0.792725333622658	-0.595644683306817	0.00399075337949284	-0.00150174633395554
1.7	-0.00044053971920799	-0.00460229242404349	-0.874943139781695	-0.46599779668337	-0.87510714040921	-0.46548278312573	0.00373212780594399	-0.00278796471382746
1.8	-0.000894119655970303	-0.00470645808783857	-0.936656948706309	-0.324198591611882	-0.936545931378829	-0.324197203075839	0.00280201530313983	-0.00387302017574889
1.9	-0.0015124956152461	-0.00481981609865538	-0.975315999162442	-0.175318025919258	-0.975408818944316	-0.174831557197519	0.00164721771885896	-0.00459806861291371
2	-0.00303159411921246	-0.00459905455578212	-0.990097875947543	-0.0213906834144429	-0.990109796067572	-0.0213449515810357	7.78899170251397E-05	-0.00477250602095513
2.1	-0.00354411977711969	-0.00321378102439727	-0.981380460904523	0.132040318149199	-0.981418500542995	0.132077286747946	-0.000598089441621785	-0.00410130212434028
2.2	-0.00382698851073725	-0.00265967889432137	-0.949157834387562	0.282525685970693	-0.949082982135756	0.28258841479582	-0.000925397278756381	-0.00401530347815992
2.3	-0.00423323465318709	-0.00209160728430965	-0.893981465283226	0.425688262650547	-0.893600713244317	0.426200733431695	-0.0015159107066663	-0.00410130006977533
2.4	-0.00472383172573982	-0.00168772915795146	-0.816210023071898	0.56008625051335	-0.816475287524479	0.559501465155804	-0.00227141337502349	-0.0041596763915759
2.5	-0.00578380597093443	-0.00114763140618829	-0.720008180989707	0.67951010185011	-0.720220460779964	0.679001044393067	-0.00320882427229273	-0.00430746839390733
2.6	-0.00639266374067755	0.000671282345757002	-0.606446712565003	0.782903976100574	-0.606340467707326	0.782721773209901	-0.0035499068095188	-0.00346782046841782
2.7	-0.00584021687767817	0.00212611856507675	-0.477043437961256	0.867730715060759	-0.477491038318976	0.867323747229083	-0.00336364978351467	-0.00318118087026455
2.8	-0.0048028906809138	0.00304774365897707	-0.337957281826097	0.930675041619465	-0.337291016195344	0.93083476922805	-0.00337685219016098	-0.00307713061959256
2.9	-0.00331843805136572	0.00349463005877265	-0.189122465766524	0.971914167472781	-0.189153490693299	0.971826874962801	-0.00302687784932585	-0.00260452413775801
3	-0.00183941073602378	0.00361942389210799	-0.0352708078997553	0.989970756925832	-0.0359708343671284	0.989810986636542	-0.0024515216927258	-0.0020114513034742
3.1	4.29491214370623E-05	0.00323657470686453	0.117607493169883	0.983322266216608	0.118197564363604	0.983305423396754	-0.00132710019294559	-0.00184793761149009
3.2	0.00123175338834744	0.00215356269335469	0.269196746720934	0.952957365198926	0.269142106986197	0.95289702677254	-0.000869821910685277	-0.0020930108659713
3.3	0.00220737112572698	0.00091628063235981	0.413903520199966	0.899689797267338	0.413766501345925	0.899675365281854	-0.000296137557555202	-0.00231019161565276
3.4	0.00249777944715242	-0.000575714288689975	0.548612107897089	0.824761300113157	0.548449763843666	0.824878876935061	0.000250063548179395	-0.00295569705662809
3.5	0.00235707639391357	-0.00151692473090119	0.67016268374699	0.729486438193067	0.670083083618587	0.729525075939905	0.000455886164266034	-0.00327381367682432
3.6	0.00250936991395659	-0.00241994425772441	0.774449850138873	0.61707476406816	0.77469123753058	0.616626772443614	0.000976861884485935	-0.00389215933945388
3.7	0.00229135693985655	-0.00374174813269497	0.861148871220609	0.489048735247486	0.861030434515883	0.489191582774871	0.000976028875668847	-0.00471494012923428
3.8	0.00149330908528909	-0.00491663319552476	0.926536395149436	0.350093920053332	0.926593718543526	0.3497149524221	0.000653768454783168	-0.00548013320016354
3.9	0.000549413118367989	-0.00605657994496749	0.969888231366716	0.200786393049282	0.969649016660856	0.201453366439246	-0.000284997800005297	-0.00644617096398172
4	-0.00150065675331982	-0.00657251989667235	0.988965014175988	0.0487535517181356	0.988925938641723	0.0488563085724789	-0.00144887850337855	-0.00670758626494855
4.1	-0.0026846669891393	-0.00623800170867954	0.985026780974785	-0.104913715988045	0.984842078581317	-0.104786922450713	-0.00182863883747292	-0.00676046343987585
4.2	-0.00403467934351425	-0.00626170197707846	0.956769472082549	-0.257311205584446	0.956803391069767	-0.256657262617942	-0.00240835741371086	-0.00738346556030234
4.3	-0.0054873016549045	-0.0062949303109577	0.905614937083175	-0.402200111177223	0.905478853746517	-0.40208917702413	-0.00336759418878344	-0.0082057133723368
4.4	-0.00725089033528543	-0.0061614316623108	0.832195007834382	-0.537783201749011	0.83202953816448	-0.537650110902809	-0.00474981064158503	-0.0089971528656192
4.5	-0.00971748989262198	-0.00585730977324796	0.739195026116437	-0.660321509158433	0.739005721284099	-0.66014866027854	-0.0068379097975317	-0.00954901781644251
4.6	-0.0121613034887897	-0.00392643690249291	0.627424840917227	-0.768068414562441	0.627765753457133	-0.767368913728629	-0.00880675010808269	-0.00922250289608693
4.7	-0.0137672511252153	-0.0018124725377142	0.500867205879174	-0.856101223390668	0.500883025669248	-0.855744827529917	-0.0107124410259449	-0.00898699661047274
4.8	-0.0149170665254802	0.00090733005967076	0.361631835743919	-0.923425089126406	0.361853168983318	-0.92310773548515	-0.0125471141782768	-0.0083114307452843
4.9	-0.0150088819002699	0.00362300413924951	0.214494389016977	-0.968029996310753	0.214273973697971	-0.968038225489714	-0.0139308554120944	-0.00723237157337334
5	-0.0143845362058198	0.00644953155343681	0.06123253903377	-0.990169478116739	0.0614097987718008	-0.989923207112245	-0.014677997197673	-0.00549129897847307
5.1	-0.0123421976561612	0.0088000356483597	-0.0935292501436274	-0.987634183783232	-0.0931969903729965	-0.987407926410755	-0.0145902974454901	-0.00390250922358002
5.2	-0.010004819065243	0.0104667701060323	-0.24587999974586	-0.961103641044361	-0.245386827369864	-0.961076221057989	-0.014588434826689	-0.00238836910810081
5.3	-0.00754896584444447	0.0113668457921475	-0.392175368556029	-0.91142536759373	-0.391833501282548	-0.911641847575588	-0.0142475299548248	-0.000855268827005832
5.4	-0.00538578375484727	0.0119952754869457	-0.529329417838719	-0.83968020745464	-0.529115818887881	-0.839881440545586	-0.0139184893191088	0.000594922681911028
5.5	-0.00348150573921222	0.0131773091180849	-0.653720746865843	-0.746770870831107	-0.653481017709368	-0.74696617893753	-0.0134108056640044	0.00250695822053983
5.6	3.74324828587628E-05	0.0139373981125226	-0.761250054586338	-0.636023756977077	-0.761059766231995	-0.63619604467267	-0.0119521112441164	0.00353020894943386
5.7	0.00304666773689435	0.0131880204673296	-0.850891128096928	-0.510208143538946	-0.850761342246963	-0.510428567904187	-0.0112912820490383	0.00426764784645072
5.8	0.00561570863476761	0.0119956898375101	-0.919864336920731	-0.371691185019881	-0.919796215339558	-0.371977015022682	-0.0107194538475593	0.0052266039931233
5.9	0.00751174661354234	0.00983468888339592	-0.96645502102861	-0.224131493224998	-0.966469547686981	-0.224215376350131	-0.010291549865109	0.00606619841193082
6	0.00781325528763602	0.00820364378557149	-0.989150142517493	-0.071431872263818	-0.989030583995607	-0.0714900738888102	-0.0102665733820844	0.00770997696824202
6.1	0.00906556265106661	0.00725094810344797	-0.988494722147527	0.0828346612635733	-0.98836771081206	0.0826857697008888	-0.00853727756923687	0.00919560811062343
6.2	0.00996335653118337	0.00536478843018444	-0.963621151873436	0.23570832332873	-0.963607483176239	0.2355048963951	-0.00715478886985752	0.00941048734402827
6.3	0.010152365547921	0.00307682527204288	-0.915113128782613	0.382684833720754	-0.915108733435504	0.382498968344839	-0.00610579851940453	0.00920474595335815
6.4	0.00976010558216303	0.000653310423465394	-0.844264072109925	0.520047275799164	-0.844232513668378	0.519836057720895	-0.00550224127968409	0.00872200900176708
6.5	0.0086588612971606	-0.00160712497319955	-0.753527819027542	0.644611703656506	-0.753552171580763	0.644407095199668	-0.00511475385839891	0.00842726470655548
6.6	0.00760023182456792	-0.0035417289480403	-0.644125560765048	0.754346180537622	-0.64419998746819	0.754093380534441	-0.00451455627051634	0.00823877127936637
6.7	0.00599291623911201	-0.00534959207022977	-0.518721967793125	0.845149577671409	-0.518825460769102	0.84492797321836	-0.00407423923706169	0.00811961230328044
6.8	0.00423710774842044	-0.00660028076624898	-0.381011175355368	0.91528424291051	-0.381153515933344	0.915113336889658	-0.00355051844697785	0.00820458950616427
6.9	0.00219581163145665	-0.00744528347480559	-0.234304714679067	0.963237549269709	-0.234532152242977	0.963127289560403	-0.00276816272188125	0.00828290400162851
7	0.000495646019582959	-0.00751707220675721	-0.0815444070790829	0.988272461269998	-0.0817550863883207	0.988182897344865	-0.00168302109980719	0.00817716981327856
7.1	-0.00102406253530194	-0.00763972907304126	0.0734470156193442	0.98841665070388	0.0732440895323775	0.988283696731566	-0.00068948027765272	0.0076708440536632
7.2	-0.00255193881580742	-0.00747269087601234	0.226024397752003	0.964592856488828	0.225741538624181	0.964559140068458	0.000257937726758802	0.0072798163220106
7.3	-0.00415512067189512	-0.00710816747227642	0.372998446525697	0.917588935220419	0.372761972712463	0.917616029723649	0.00114543722736483	0.00669385756742185
7.4	-0.0055755504657801	-0.00640414917360186	0.511158548776533	0.848351543961325	0.510944864045998	0.8484035918983	0.0016950371810227	0.00590329320191163
7.5	-0.00688649298426348	-0.00525162449299485	0.636810100673529	0.757796565519157	0.636640578277543	0.757867113913012	0.00226727795589458	0.00543462404138815
7.6	-0.00710146816691818	-0.00398719911069977	0.746087694703178	0.649353513697633	0.745830206800012	0.649437135553803	0.003265673397712	0.00433371905245172
7.7	-0.00724880931422419	-0.00297814323274982	0.837540510226782	0.525546668062861	0.837355748674032	0.525764862829431	0.00350138298447696	0.00301597745985928
7.8	-0.00702535669819809	-0.00198975872356617	0.908845220256945	0.388816936812591	0.908743097441529	0.389043019365047	0.00347498343250036	0.00181474531255471
7.9	-0.00696734628573351	-0.00126788353961036	0.957794344899121	0.242667102750049	0.957657040000115	0.24284754158793	0.00303327653716632	0.00100427639934625
8	-0.00736060501808883	0.000231170278913247	0.982772766678669	0.0911758871089077	0.982750874470295	0.0914386943430001	0.00190789120154096	0.00098976708181663
8.1	-0.00615297828035821	0.00231822773283957	0.985084077278321	-0.0621547294732538	0.985114015893146	-0.0618992571825167	0.00238297271612258	0.00120648359955877
8.2	-0.0043364399332005	0.00330679672369835	0.963149960629504	-0.214429272134886	0.963199582635361	-0.214112416805247	0.00227368356968542	0.000585938737276574
8.3	-0.00262141515582871	0.00375065604186312	0.917686840323689	-0.361187946410223	0.917739343570173	-0.360901133993291	0.00181174900279114	0.000105103890502104
8.4	-0.000822948587028039	0.00335137439190218	0.850074215542413	-0.498745959004482	0.85017268862765	-0.4985445430891	0.00112397018632116	-0.000434236850674129
8.5	-0.000518471760346076	0.00262285909623776	0.762787168058494	-0.624077932673257	0.762838987551863	-0.623927485848834	-0.000317715318364088	-0.000350058882713972
8.6	0.000455502614733858	0.0031746254569859	0.656324012116141	-0.735182212293795	0.656493231593677	-0.734945813966304	-0.000482913598657523	0.000737399065296541
8.7	0.00191260459342346	0.00309239385919093	0.533835431259435	-0.827744938122993	0.534095173048766	-0.827530621118764	-0.000266812533099729	0.00122448260461076
8.8	0.00362609551164371	0.00258383462561965	0.39893870242212	-0.900081761492497	0.399124250851515	-0.89994349793814	-7.56316846996167E-05	0.00156029096561852
8.9	0.00536756479566367	0.00143041790528725	0.254685972996868	-0.95089125383125	0.254865382205656	-0.950721983831512	0.000572645137581522	0.00201327989131329
9	0.00677993972577368	-0.000468279356651647	0.103634252424286	-0.978980423500197	0.10394239360863	-0.978935005571857	0.00163327470608651	0.00242237735669781
9.1	0.00800204323210299	-0.00241587833376474	-0.049720788404092	-0.982396103887285	-0.0494120204126883	-0.982356388187679	0.00357923022146979	0.00241150476556578
9.2	0.00873284419225462	-0.00476926761729889	-0.201320207614836	-0.962256548182689	-0.200973302778565	-0.962235570864655	0.0056691449019364	0.00158303159380202
9.3	0.00878679654887635	-0.00685531957293389	-0.34791337923789	-0.919157250630928	-0.347562199403243	-0.919132977780182	0.00780620827963267	8.6440455813334E-05
9.4	0.0082107588873233	-0.00901189015639015	-0.486250269964699	-0.853949016666205	-0.4859281659119	-0.854040777295861	0.00928783333162257	-0.00246107247066189
9.5	0.00680399467358069	-0.00933135927576141	-0.612620987697014	-0.767222828557596	-0.612384956306747	-0.767273862864972	0.00967943889080606	-0.00475880164648745
9.6	0.00705543364921025	-0.00989749059116201	-0.723321346393496	-0.662713792622802	-0.723011323956344	-0.662852984271857	0.00967279446132003	-0.00795786999395747
9.7	0.0066119309317652	-0.0107208941326117	-0.816935999841116	-0.542590496594844	-0.81665022401223	-0.54282338312605	0.00751718648326304	-0.0110189869865237
9.8	0.00603552927591056	-0.0115016387666696	-0.890885577157403	-0.409280213703663	-0.890633731877835	-0.40944918306515	0.00436514220068142	-0.0129762186617896
9.9	0.00501456976795839	-0.0122492619882253	-0.943057889429967	-0.265944562373464	-0.942807211180629	-0.266153113548771	0.00061509143405102	-0.0138442094054515
10	0.00296222261259354	-0.0119071954024137	-0.971855101855199	-0.116991097362835	-0.971702939519056	-0.117351847367534	-0.00343128934409795	-0.0126934281494216
10.1	0.00272309590743024	-0.0107074048360592	-0.978254941434309	0.0345229982320995	-0.978192297470366	0.0340935679888738	-0.00580955749883798	-0.0111421691918539
10.2	0.00270543675540776	-0.0105976429487659	-0.960995890742955	0.185618967110333	-0.960875106174649	0.185189840222491	-0.00853865595525527	-0.00953920472241919
10.3	0.00239382754669857	-0.0105859056022826	-0.920331166899816	0.33206593758066	-0.920348895224856	0.331527363523357	-0.0111221030164017	-0.00719046201519671
10.4	0.00198466369824502	-0.0111710804338042	-0.857562678903135	0.469953957201624	-0.857698684765621	0.469445603277145	-0.0130397492251063	-0.00438432395545874
10.5	0.000685858764500897	-0.0114357177959059	-0.775175088436617	0.596738187151417	-0.775346928364326	0.596308365541574	-0.0140643478386527	-0.001012181713757
10.6	-9.07646535584962E-05	-0.0111595752320079	-0.673334638920233	0.709976043943989	-0.67360565148195	0.70964768314317	-0.0134106000688304	0.00232160443272325
10.7	-0.000715911838736388	-0.0108666799565728	-0.555082908217622	0.805579025706237	-0.555381863179268	0.80527120947406	-0.0119435748641749	0.00493971264752807
10.8	-0.00121311790540717	-0.0108431030480395	-0.42367549877414	0.881594278832599	-0.424024234401123	0.881297485835356	-0.0100845191544925	0.00700705285391507
10.9	-0.00186283357500124	-0.0105889116087661	-0.282421337797325	0.936650100951182	-0.282809426230385	0.936527422038678	-0.00808442467462707	0.00873574519684536
11	-0.00231753548869695	-0.0103474594849014	-0.133502364051749	0.969683974459679	-0.133937276290903	0.969593476724501	-0.00537495891515138	0.0100951677107174
11.1	-0.0024253551707681	-0.0102189682380895	0.0186435138464443	0.977980772404598	0.0181573317021015	0.977993879519608	-0.00228668874530081	0.0104334432597891
11.2	-0.00263938944852149	-0.010569967716567	0.169623923433412	0.963146531543592	0.169169222602372	0.963218726931546	0.000793035385568441	0.0100182346350429
11.3	-0.00310256389345282	-0.0109907479334167	0.316576600201629	0.925421500016973	0.31611980503933	0.925556744041155	0.00385228804881125	0.00892835765903383
11.4	-0.00417271987990472	-0.0116250242434854	0.456407497849448	0.86539724089026	0.456005544539751	0.865509272381646	0.00636115370204518	0.0074164704544215
11.5	-0.00559051058340602	-0.0108589848034086	0.584939388755854	0.783389263032562	0.584622267118565	0.783689467021301	0.00870493216874905	0.00602028637070845
11.6	-0.00590105983468068	-0.0105686511133935	0.698439173029269	0.683544742423139	0.698224501750977	0.683870055434482	0.0108686627798106	0.0032084182935467
11.7	-0.00665621645910975	-0.0104218602176382	0.795880161004826	0.567445651956845	0.795677381533787	0.567749861561878	0.0115678626577433	0.000153552440723063
11.8	-0.00775332018207419	-0.0104185006516457	0.874342770511161	0.437245220110743	0.874160781658415	0.437692930987612	0.0112807222626611	-0.00275990959723351
11.9	-0.00919008361065541	-0.0103459185804272	0.931296197823458	0.296366933046043	0.931189732154501	0.296813847071877	0.0100225723621536	-0.00512429196926005
12	-0.0124589742055893	-0.00888848836461313	0.965447633820913	0.149375455053642	0.965417632202338	0.149737490759466	0.00801852672225159	-0.00605396294442219
12.1	-0.0134984289512658	-0.0061160186207371	0.977642109423263	-0.00147095961126099	0.977569770460302	-0.0010887029607302	0.00738504536209049	-0.00719425632039145
12.2	-0.0140779111094799	-0.00371014644527171	0.966035084597927	-0.153021016291569	0.966051063693594	-0.152724357004494	0.00589892865048456	-0.00831497492716244
12.3	-0.0137916000647947	-0.00125560677354357	0.930734887139075	-0.300846777000219	0.930852309327822	-0.300540915585678	0.00453392558850785	-0.00912489092471694
12.4	-0.0131163451387018	0.000152430957105076	0.873327019414412	-0.441174632500833	0.87338779724526	-0.440806233743892	0.00302131355826976	-0.0101470371306191
12.5	-0.0132007341647627	0.00140827526253886	0.795431725630752	-0.571360993014981	0.795768594039962	-0.570969609507266	0.000621403340860163	-0.0106287023423733
