# GHZ S RI R 50
0.2	-7.09525442393835E-05	-0.000216172463675827	0.949767129244811	-0.307880942566473	0.949544722406438	-0.307855554407451	-3.92736222011725E-05	-0.00014914791341388
0.3	-0.000250422005529178	-0.000168100308853243	0.889931340772914	-0.451640082050558	0.889774998978749	-0.451544688800635	-0.000280727861239133	-0.000325136924280565
0.4	-0.000256046360708302	-7.08019088028643E-05	0.808634723408116	-0.584097764354795	0.808646535886066	-0.584122899197403	-0.000425856715558087	-0.000306077293732284
0.5	-0.000303848615583649	0.000244310740469171	0.70791678174461	-0.702877961283534	0.707761560859285	-0.702776404398858	-0.000447369558288274	3.55569471909485E-06
0.6	-2.63514579668016E-05	0.000218939096377668	0.589660030185894	-0.804027751833425	0.589540645820933	-0.80386589168466	-0.000220082763776932	-0.000144234455058523
0.7	-6.04220735420334E-05	0.000300286453555137	0.457516055276177	-0.885488733403679	0.457497254777568	-0.885376124872204	-0.0002845899405289	-0.000332963507200833
0.8	7.58184124237834E-05	0.000277204001509758	0.314352890826488	-0.945699744137138	0.314321476203686	-0.945509795023476	-0.000460675419711204	-0.000369224866619801
0.9	-2.28857233502133E-05	0.000274754298434072	0.163482974376439	-0.982893569465615	0.16341786288134	-0.982801534218106	-0.000897619924378839	-0.000512007170522817
1	-0.000271441653693903	0.000704438212611508	0.00859095204000917	-0.995807659235744	0.00853926319409127	-0.995776140944396	-0.00151961944170536	0.000138169039032123
1.1	0.000464795474746112	0.000785956611869647	-0.145764921146653	-0.984947504056762	-0.145780669635619	-0.98481693775039	-0.00109932011397313	0.00061598998299159
1.2	0.000740742429753973	-0.00017821376672844	-0.297126966093266	-0.950263013484774	-0.297050503226342	-0.950236905736908	-0.000715915413378412	0.00104270784449098
1.3	0.0010419496105117	-0.00159363795959184	-0.441145598315927	-0.892342898853072	-0.441122537093183	-0.892336286008055	0.000872592612694833	0.00180177727840528
1.4	0.0012249008333477	-0.00359630525370697	-0.574081173640373	-0.812695933605523	-0.574056962706642	-0.812674292446275	0.0030609467064202	0.00123873091246178
1.5	0.00146793204827677	-0.00494170370991508	-0.692972695248451	-0.713611154969606	-0.692870832859825	-0.713526156455159	0.00530279715357725	-0.000398684275797359
1.6	0.0003429023014181	-0.00631139808629776	-0.79553896966067	-0.597448874217328	-0.795464793049473	-0.597388797668305	0.00457324506333675	-0.00298291183946406
1.7	-0.000838934592618112	-0.00592552604806973	-0.878294267311352	-0.466879716940855	-0.878458411826098	-0.466362819495095	0.00331196288199035	-0.00377133662750152
1.8	-0.00175139421259537	-0.00540251493081846	-0.940132222925143	-0.324223198729986	-0.940020835298745	-0.324221930299022	0.00202883038432349	-0.00425702035034711
1.9	-0.00260363724221326	-0.00445684033567217	-0.978679434773365	-0.174790133629146	-0.978772008718199	-0.174301981249042	0.000707750024352195	-0.00400080686094756
2	-0.00226961458790122	-0.00338571723584982	-0.994087385995243	-0.0203148475480232	-0.994099300216536	-0.0202689185930746	0.000945233301832935	-0.00342231089571281
2.1	-0.00269841169441312	-0.00393969515873898	-0.985000456600679	0.134855432220514	-0.985038562335842	0.134892637429872	0.000292897198163239	-0.00464453949419759
2.2	-0.00400295906798343	-0.00346221264610888	-0.951775426288926	0.286071442430741	-0.951700139983356	0.286134193830632	-0.00100824328347723	-0.00459962927314096
2.3	-0.00499143086125964	-0.00253069580720116	-0.89581497827298	0.429645535330415	-0.89543149421814	0.430158672642428	-0.00211102265500716	-0.00434907818711817
2.4	-0.00610327544392854	-0.00128517895703891	-0.817454840966311	0.564531660350133	-0.817722803758946	0.563945576238616	-0.00342671496156762	-0.00366837341260396
2.5	-0.00603674853762822	0.00107377754942543	-0.71983560556643	0.684998672656679	-0.720050779581308	0.684488624017357	-0.00330821418584088	-0.00218860592143647
2.6	-0.00507078029838122	0.00172991681621969	-0.604482317439713	0.78756617406633	-0.604376617236047	0.787383041499418	-0.00226640703394251	-0.00252438285475762
2.7	-0.00460978151372321	0.00225231442329248	-0.47439717096672	0.871708395025975	-0.474847511278541	0.871302433024607	-0.00227670193381478	-0.0030810800305629
2.8	-0.00399892765566887	0.00266839144826353	-0.334560761609785	0.934191642792851	-0.333892343200987	0.934348760678049	-0.00275161985505797	-0.0033840426487845
2.9	-0.00290845439769226	0.00308138402429966	-0.184639994840434	0.974830019860558	-0.184671519613973	0.974742705830167	-0.00281015648596607	-0.00284220521593975
3	-0.001454138802965	0.0029302828469889	-0.0298813377309645	0.990909404929903	-0.0305827655685448	0.990753344080856	-0.00225195978840885	-0.00243325545687527
3.1	-0.000474661483411029	0.00259344716961814	0.122131559347679	0.983247653916683	0.122721829972285	0.983228121431045	-0.0019622160558388	-0.00218853698705244
3.2	0.000557331351830976	0.00216199611865449	0.273807456007516	0.952298315791824	0.273752500830295	0.952238194350773	-0.00157352832401854	-0.00172928698905128
3.3	0.00167946710893954	0.00142035245196287	0.41854363493468	0.897950090734763	0.418406494407338	0.897936337349197	-0.000797906067100247	-0.00147219453666113
3.4	0.00243680495477913	0.000510922671607017	0.552688368011835	0.821573301729961	0.552526701425414	0.821691677071739	0.000228186241258	-0.00158368576468934
3.5	0.00368478896496764	-0.000954289650191149	0.672485916412583	0.725958616024046	0.672406558570195	0.725997543006581	0.00175633115521138	-0.00243638311046217
3.6	0.00305374923443387	-0.00300003906078602	0.77687663367128	0.613748459607471	0.777116117323119	0.613299544286661	0.00150756317158862	-0.00411291753133222
3.7	0.00227490120295588	-0.00407710999325461	0.863046452981543	0.48482026099259	0.862928734202225	0.484963597135499	0.00102280640116706	-0.00467226675250744
3.8	0.00122400729082922	-0.00496098653524727	0.927289831903115	0.345382265570109	0.927345311437547	0.345003394975594	0.000515317653154809	-0.00518858658195232
3.9	0.000125099020363001	-0.00535747998056383	0.96937857548207	0.196392909467378	0.969142523999299	0.197059961140979	-0.000546817010200684	-0.00551508323612648
4	-0.000217051337089787	-0.00534156746763165	0.988687098292136	0.0448464577631261	0.988648444858716	0.0449493193087685	-0.000121653403132107	-0.00536519448187235
4.1	-0.00136493102670942	-0.00689317509509926	0.983669155274122	-0.109932050446221	0.983485262617343	-0.109804404431386	-0.000597192245926999	-0.00722968359570318
4.2	-0.00366591025649758	-0.00723270040739064	0.953820919474164	-0.261822258660439	0.953858161824365	-0.261169597148831	-0.00213775207576653	-0.00809077476066118
4.3	-0.00586196366237856	-0.00717405931483522	0.901781577116319	-0.405751190175152	0.901646314481625	-0.405639827497227	-0.00381663502468551	-0.00877511213376199
4.4	-0.00860411452356751	-0.00630159612337054	0.828150604979228	-0.54060776064036	0.827986060071986	-0.540474157381333	-0.00612332550913455	-0.00885045632096453
4.5	-0.0103407009887544	-0.00393993443154806	0.733946702308674	-0.663422801496143	0.733758763491116	-0.66324916536541	-0.00753532308989567	-0.00747291404125349
4.6	-0.0112234915167707	-0.00258616485581504	0.620744092939325	-0.768914811294158	0.621087804850797	-0.768219791682696	-0.0081179990003689	-0.0076778425060247
4.7	-0.0124566638617007	-0.00101009557735593	0.494515228606944	-0.855155400197657	0.494532782619668	-0.854800530076366	-0.00973156013818446	-0.00785204778312642
4.8	-0.0133611548967621	0.00112442571985762	0.355726903705491	-0.921266286353661	0.35594881533339	-0.920951316478209	-0.0113378683231184	-0.00763104416666351
4.9	-0.0135146823733644	0.00334045540963387	0.208679082939822	-0.964847173825172	0.208459596669243	-0.964854257699461	-0.0127450895696799	-0.00692946640758488
5	-0.0127139046318405	0.00545969288061627	0.0558357627006207	-0.984371443806899	0.0560131772199113	-0.984127590562308	-0.0132709266201399	-0.00576360407806547
5.1	-0.0118819122809134	0.00701412889590632	-0.0961647410889098	-0.980973967109446	-0.095833877205376	-0.980750254346438	-0.0142190774531717	-0.00484275331010341
5.2	-0.0106270490664221	0.00917935105386729	-0.247144232656518	-0.95452245764884	-0.246653995140016	-0.954496624967661	-0.0150737326970696	-0.00284803297531392
5.3	-0.0086628605230557	0.0111202657155635	-0.392229444528771	-0.904596316280806	-0.391890330977266	-0.904812379416857	-0.0150651764950634	-0.000420824516176968
5.4	-0.00584435150337516	0.0132424710572394	-0.527656471851211	-0.832384668470136	-0.527444894789199	-0.832585002173538	-0.0140787938799279	0.00231051691266712
5.5	-0.00127261532329124	0.0133551781469599	-0.649148656156092	-0.740772953353594	-0.648910844986281	-0.740966904029489	-0.0111090166815007	0.00307823290145092
5.6	0.000339856623293871	0.0119918709813613	-0.756669456918327	-0.631974939232316	-0.756480370395033	-0.632146198158241	-0.0115845560152394	0.00214864514988035
5.7	0.00187698994786338	0.0119373565830899	-0.845821938202375	-0.506737167872512	-0.845693036755281	-0.506956278150387	-0.0122602389381176	0.00360703314110186
5.8	0.00365230612342621	0.0118325916049992	-0.913891246618042	-0.369212159544536	-0.913823586537309	-0.369496130635275	-0.0123547653959086	0.00555026395507324
5.9	0.005328041154521	0.0118995186572339	-0.959722605826295	-0.223537856762689	-0.959736954832582	-0.223621187845384	-0.0121217323091825	0.00836154585577259
6	0.00938333545856084	0.0118946860083118	-0.983927481519018	-0.0727426197521879	-0.983808440838052	-0.072800318141353	-0.008684523763763	0.0113950216254607
6.1	0.0118353728661848	0.00800437917674779	-0.983311331097976	0.0819055574143749	-0.98318491699836	0.0817575160151815	-0.00606002322053292	0.0101773355958536
6.2	0.0123019071014163	0.00492958646854433	-0.958109045559656	0.233428531792306	-0.958095272476475	0.233226326393173	-0.00513562288426085	0.00944944977470222
6.3	0.0118187503412947	0.00177544300675909	-0.91029166865574	0.378878051151643	-0.910286989909984	0.378693301811998	-0.00464828025022826	0.00855166763002716
6.4	0.0104438237898195	-0.000754982715450395	-0.841065235849518	0.515427651997585	-0.841033360667497	0.515217601895637	-0.00486648431572517	0.00801079909052442
6.5	0.00897599098913818	-0.00285617505461631	-0.750568367906723	0.640838523758063	-0.750592410356502	0.640634862228668	-0.00471183518051193	0.00785130022830553
6.6	0.00713201156517744	-0.00443379362297769	-0.641177051045705	0.748631054923967	-0.641250633609819	0.748379740313674	-0.00475843337780716	0.00791000034702528
6.7	0.00555156589896832	-0.00544011430293087	-0.517708089286776	0.838569387571373	-0.51781036551507	0.83834888583857	-0.0042806356657728	0.00842543039671224
6.8	0.00421474437265487	-0.00638603475419259	-0.381683112057593	0.908935447010844	-0.381824120665247	0.908765067501905	-0.00343342816544475	0.00869822460446891
6.9	0.00265119942911274	-0.00725031565894772	-0.235717432903933	0.957551156179273	-0.235943377264388	0.957440850607956	-0.00232672875280699	0.00875253325160989
7	0.00110983075511028	-0.00813174800835366	-0.0836991791902193	0.98130202298934	-0.0839081744951068	0.981212492502599	-0.00120241466422745	0.00789947315063839
7.1	-0.00125978666048756	-0.00824296419300665	0.0681749373359751	0.982390842515803	0.0679739669719092	0.982257762040925	-0.00110375318177162	0.00750728108149866
7.2	-0.00297609971319023	-0.00763313869647392	0.21973770117751	0.96047458085774	0.219456572699144	0.9604395703678	-0.000351683821312768	0.00763961145819155
7.3	-0.00453072753767382	-0.00690652661201344	0.366271937496376	0.914802061642857	0.366036543044	0.9148277790799	0.00058688798521056	0.00749144400014906
7.4	-0.00563359697859098	-0.00581781516613193	0.503671925151091	0.846304980593539	0.503459170699898	0.846355577752373	0.00149338488164649	0.00715351834389847
7.5	-0.00591655196587673	-0.00516205033999432	0.627296506540841	0.758467033259315	0.627127394605235	0.758535860773174	0.00305987370940822	0.00628366721372708
7.6	-0.00697790878079495	-0.00506623961364419	0.7383261463736	0.653169891240293	0.738068856165568	0.653251154020853	0.00334918665976922	0.0042377123160178
7.7	-0.00818755327327228	-0.00372534170996365	0.8311327073659	0.530451013905569	0.830946804652955	0.530667173490397	0.0027609559209379	0.00319947766885718
7.8	-0.00864815601460196	-0.00189666989409163	0.903384834636012	0.394892605231565	0.903281214827458	0.395117287212292	0.00223139002989147	0.00268971505217773
7.9	-0.00877480680030505	0.00062869293921807	0.953452594632024	0.25056609302422	0.953314011953952	0.250744905300125	0.00179379517714697	0.00340541063116494
8	-0.00554053957668797	0.00344056946093866	0.982275488397129	0.100306529072914	0.982251155412223	0.100569226378117	0.00377628813160126	0.00445098826301908
8.1	-0.0034415129550708	0.00243562644575725	0.986253202985968	-0.0548645961641596	0.986281260887907	-0.0546087177756816	0.0049026141150822	0.00162663441522822
8.2	-0.00259137978927131	0.00215074675823523	0.965221525967262	-0.207390454763376	0.965268821917972	-0.20707307314938	0.00370864281884638	-3.10555461231077E-05
8.3	-0.00200130275769685	0.00199289843622012	0.921352771245116	-0.354391953173406	0.921403094016128	-0.354104464399786	0.00215233630859925	-0.00092201839439561
8.4	-0.00195793965770781	0.00207957000594197	0.855983022115536	-0.493154110357777	0.856080124966606	-0.492951450579512	-0.000157164542682129	-0.000908844466568993
8.5	-0.000640394100965934	0.00394258577644859	0.768723754336921	-0.621661932070478	0.76877487568236	-0.621510721418961	-0.00062830955396856	0.00164529122033208
8.6	0.00175817575766342	0.00255446125754536	0.66165807393792	-0.732513296814659	0.661826180686625	-0.732275535538123	0.000480187752804356	0.00100387622764045
8.7	0.00220988755865865	0.0016051841817457	0.540327015571015	-0.825919817195482	0.540585878419257	-0.825703368868269	-0.000187728614377127	0.000889975883190344
8.8	0.00294308728467056	0.000942989838754055	0.405961454676393	-0.900051606551672	0.406146630850144	-0.899911734922972	-0.000693823446612778	0.00123127907866792
8.9	0.003393042488726	0.00018262628387254	0.260865434296523	-0.952861855065176	0.261044543073194	-0.952690987907988	-0.000969722913633429	0.00204067477509114
9	0.00446386913977155	-0.000223809960436331	0.108808514800665	-0.980254807557736	0.109116991969778	-0.980207737430212	-1.50225573125573E-05	0.00367911973329684
9.1	0.0054626981911773	-0.00128857314745585	-0.0430221295185309	-0.985382798497047	-0.0427128077087326	-0.9853408286294	0.00176956187125508	0.00430083915661048
9.2	0.0069087080122821	-0.00194268503920038	-0.195758661635896	-0.967508540628419	-0.195410483792886	-0.967485177477189	0.00453662479404984	0.00488675556174767
9.3	0.00882591146268679	-0.00331407753122612	-0.344181115519205	-0.925410797179595	-0.343828458844498	-0.925384374235609	0.00834039111867503	0.00388122769523814
9.4	0.0102522770168461	-0.00536673895504145	-0.483791381164142	-0.859849444509888	-0.483467523249318	-0.859939912930431	0.0114958543740532	0.00130176702442287
9.5	0.011978458976185	-0.00874056604841614	-0.609565280834036	-0.774650444801791	-0.609327947654411	-0.77469999315782	0.014546900656378	-0.0038696376899528
9.6	0.00926931833300011	-0.0125794079202317	-0.723600391443708	-0.671705391979478	-0.72328747022245	-0.671843438759541	0.0115683349973588	-0.00987818925031498
9.7	0.00675131358036779	-0.0129558147772545	-0.819520019813608	-0.550675059623357	-0.819231053336183	-0.550907973615679	0.00757277916846674	-0.0123199960513193
9.8	0.00496585061619593	-0.0129498217331282	-0.894794446202331	-0.416462021093447	-0.894540074661751	-0.416630862260808	0.00343177410502827	-0.0135182530291999
9.9	0.00309824592800649	-0.0116213223273892	-0.948029479524873	-0.27306545692064	-0.947775911267142	-0.273274029813285	-0.00104406002395634	-0.0125890179377914
10	0.00461453431475341	-0.0101120554737493	-0.980643151301889	-0.123380744489248	-0.980487563117558	-0.123744168448394	-0.00184109364871779	-0.0104961873416733
10.1	0.00390534322540207	-0.0121074449743957	-0.987774072462262	0.0321650004104435	-0.987709643763887	0.0317316055235412	-0.00487866919663153	-0.0118627689185364
10.2	0.00218997738972889	-0.0120407522227543	-0.970148358989265	0.18512915145256	-0.970025504976809	0.184696398747836	-0.00918135418956645	-0.0101494923705402
10.3	0.000761001780748283	-0.0113936696576619	-0.929640099409447	0.333179001902851	-0.92965683051952	0.332635361472007	-0.0127148495568134	-0.00718967366074245
10.4	-0.00071839603445247	-0.0103685499449668	-0.867540150213136	0.473501038913361	-0.867676734640263	0.472987016124205	-0.0155992598133251	-0.00296856660911381
10.5	-0.000459871535534834	-0.00794298265105491	-0.782888229964342	0.60463803367497	-0.783062673056279	0.60420368256662	-0.015210823496312	0.00282555855481923
10.6	0.00110081273680839	-0.00798868693536452	-0.677873327471166	0.717748084362663	-0.678147456568216	0.717417352260609	-0.012522875430886	0.00579691803999893
10.7	0.00192472332154662	-0.00883455328972983	-0.558362238374612	0.81373073163646	-0.558664418810129	0.813420806161535	-0.00985545863747492	0.00743324904372884
10.8	0.00167412899333609	-0.0104136765827449	-0.425294071722359	0.890569370747805	-0.425646678465566	0.890270776395936	-0.00779497211971332	0.00813593151617303
10.9	0.000571540573998783	-0.0111423427986214	-0.281136892111029	0.946226361263056	-0.281528971439104	0.946104163679801	-0.00616745241605841	0.00918718651371088
11	-0.000108640649901264	-0.0118758586382178	-0.129668306688069	0.976309265800816	-0.130106337493231	0.976220298740398	-0.00363303887737068	0.0097030983169425
11.1	-0.00153057879514738	-0.0121988116528975	0.0216769258676534	0.984201037092491	0.0211876629295052	0.984215676855166	-0.00176097804858992	0.00979171965753206
11.2	-0.0025375959898507	-0.0122419996827174	0.174200140969117	0.969428155808174	0.173742447059076	0.969502455335978	0.000745414305054625	0.00979718334701861
11.3	-0.00350856012296549	-0.0121528556068153	0.322927136301046	0.930451511793954	0.322467764133351	0.930589744015603	0.00347110524083867	0.00928829047097218
11.4	-0.00453899744126444	-0.0115276771194564	0.463406316786896	0.867865888656978	0.463002702016052	0.867980614279046	0.00616147433206226	0.00886925547373919
11.5	-0.00378598578060844	-0.0117348191647665	0.59016633590189	0.785779121566487	0.589848425765451	0.786081768511294	0.0105909380037578	0.00641816732596723
11.6	-0.00628366534730145	-0.013263857298131	0.706102053524582	0.685880135711388	0.705887048981362	0.686208626225982	0.0107571404659978	0.00200282632297523
11.7	-0.00872142969684801	-0.012216275117272	0.804352678714969	0.567258333507156	0.804150068880323	0.567565708338188	0.0101206909464818	-0.000235283754178522
11.8	-0.0109248566377082	-0.0107820288395103	0.882185523193701	0.434902519060168	0.882004989666968	0.435354005727928	0.00897667394749634	-0.00201099099336892
11.9	-0.012938178144013	-0.00754213180800424	0.937969639462084	0.293359764240087	0.93786481625166	0.293809701967217	0.00717925773933917	-0.00174403878442617
12	-0.011077659508304	-0.00392854313041446	0.973915740586427	0.145339741210692	0.973887458792882	0.145704811711151	0.00993004082249891	-0.000940539368044482
12.1	-0.0105853148241877	-0.00415487641802403	0.984315667419995	-0.00940425215172144	0.984245931770374	-0.00901879522497545	0.0102766128419488	-0.00507600195058062
12.2	-0.0110306057350993	-0.00332303140787911	0.969981864365049	-0.161895068485772	0.970000400979513	-0.161596938856541	0.00866139839326204	-0.00756865039250724
12.3	-0.0113068328111175	-0.00243624904750164	0.93286001590979	-0.309849819076326	0.932980487609373	-0.309543409416065	0.00662071020298424	-0.0097445191424798
12.4	-0.0124634983177559	-0.00137509857038192	0.874653398170364	-0.450840043297801	0.874717543341751	-0.450470056597874	0.0033067181447738	-0.0109951656487379
12.5	-0.0119136557570882	0.00156440938431536	0.793109072443062	-0.583428860481061	0.793452172048403	-0.583039254742966	0.00134180401305057	-0.00987586626159986
12.6	-0.0107832043046724	0.00147218217197407	0.691254106308738	-0.697781035693888	0.691506835857008	-0.697539739883586	-0.000151121402406035	-0.0114438051091798
