# GHZ S RI R 50
0.2	-0.00019480800576351	2.70402377688848E-05	0.948686470770794	-0.308110135645986	0.948464291201605	-0.308084649031469	-0.00020658340622547	0.000142486298081202
0.3	-0.000181252700964075	9.15764039092908E-05	0.888564586190632	-0.451701948665006	0.888408495342489	-0.451606563696535	-0.000266528363982919	4.04195352289093E-05
0.4	7.28449344070085E-05	6.69361492592298E-05	0.806960643538789	-0.583792638623717	0.806972419368039	-0.583817743447402	-0.000134571141665475	-6.79230811973247E-06
0.5	-5.07420341862637E-05	-0.000111209130545474	0.706311141791973	-0.701828517179218	0.706156252606267	-0.701727091410365	-0.000220348771159846	-0.00018188886980206
0.6	-0.000106620373538172	0.000101463135544403	0.588427278015495	-0.802819975928379	0.588308142989179	-0.802658358726196	-0.000375709185800328	-3.80692582293659E-05
0.7	3.07892675014655E-05	0.000302762521842367	0.45635515454169	-0.883994294874105	0.456336428176071	-0.883881890036955	-0.00026210630346949	3.94807182196927E-06
0.8	0.000303075782251958	0.000282100231189029	0.313463080452792	-0.943785426511241	0.313431777810631	-0.943595869556497	-0.000227859389947481	7.98834795247485E-05
0.9	0.000551816391971402	0.000288382484752918	0.163182528016309	-0.980628869064626	0.163117558806324	-0.980537049638421	-0.000139691999977184	1.86620951553993E-05
1	0.000576943988886835	-0.000282054705079252	0.00894027576890139	-0.99387197807779	0.00888867567742543	-0.993840539959184	-0.00022886429391618	-0.000502529846855113
1.1	0.000121292749591107	-0.000131537494181442	-0.145451229560804	-0.98295049931319	-0.145466948411098	-0.982820198380228	-0.0010535599103862	-0.000276160855251826
1.2	0.000313275288830647	-0.000467831681352599	-0.296265137663584	-0.948108199133103	-0.296188857187876	-0.948082138289762	-0.000974502787710324	0.000598467186199646
1.3	0.000605312708750158	-0.00143419697689872	-0.439677656038842	-0.890403604759002	-0.439654653188391	-0.890396997224093	0.000279653723140277	0.0017743409224225
1.4	0.000944930278116699	-0.00314777117560346	-0.572248866581995	-0.811285427203882	-0.572224724253749	-0.811263817497722	0.0023467589735568	0.00171084198570722
1.5	0.000687381053175437	-0.00417362009222419	-0.691307525074631	-0.712281794188776	-0.691205902082293	-0.712196948819398	0.00383872923046898	0.000740157172015862
1.6	0.000720024257340699	-0.00485749273344986	-0.793026982990936	-0.596149730641509	-0.79295304266919	-0.596089787494226	0.0043842873990956	-0.000572354098631487
1.7	0.000154678662868222	-0.00532931363374901	-0.875347998697507	-0.466385533807803	-0.875512167511398	-0.465870265051316	0.00417656287176364	-0.00196574461777037
1.8	-0.000690668607746366	-0.00547832946851146	-0.937172521408805	-0.324466083817156	-0.937061439827165	-0.324464685065894	0.00335085745303435	-0.00316927857313655
1.9	-0.00162128425874291	-0.00541697533759079	-0.97587432870505	-0.175457735800875	-0.975967221289086	-0.174970988819502	0.00221579383931163	-0.0040870450569741
2	-0.00296477777090672	-0.00477375338727045	-0.990740416665403	-0.0214773538195326	-0.99075234791145	-0.0214315931158191	0.000568060019138843	-0.00430030810069898
2.1	-0.00321544881754579	-0.0037926332719214	-0.982100639346848	0.132231878908458	-0.982138703885929	0.13226887871168	-0.000125632601147496	-0.00375673695531134
2.2	-0.00383795758717035	-0.00342415651689803	-0.949755590799743	0.282909284883273	-0.949680674488432	0.282972042030144	-0.0005453260494175	-0.0036676183679118
2.3	-0.0045786004115845	-0.00274653000062828	-0.89446061599821	0.426179276142515	-0.894079493602173	0.426691988823159	-0.00112146735094411	-0.00376148988180478
2.4	-0.0053910242018801	-0.00199747551480267	-0.81660059532219	0.560655956166072	-0.816866179407966	0.560070856796358	-0.00189242092439768	-0.00395415702440375
2.5	-0.00636505294978185	-0.000643977113722737	-0.720286655636044	0.680274891053777	-0.720499279128021	0.679765537831252	-0.00305490905091883	-0.00415497616834255
2.6	-0.00621217378783862	0.0013379020590646	-0.606405427372811	0.783663494426154	-0.606299212393407	0.783481132325572	-0.00356491932643488	-0.0032586184073695
2.7	-0.00527886899465922	0.00255792052315819	-0.476872224557642	0.868395278996074	-0.477320244114773	0.867988318272749	-0.00352339359135523	-0.00277558309121294
2.8	-0.00409507548968765	0.00318760786978409	-0.337683663699942	0.931294658716114	-0.337016993399337	0.931454149852547	-0.00354246709911882	-0.00245741561721734
2.9	-0.00260934558020815	0.00341396546899709	-0.188712692582333	0.972511721902305	-0.18874377895149	0.972424400771598	-0.00314494295622481	-0.00181559884798195
3	-0.00107556859807397	0.00331269490082704	-0.0346318055361987	0.990394464023639	-0.0353322205802903	0.990235091054146	-0.00247056556221234	-0.00107047274774015
3.1	0.000554808835250424	0.00268009342069674	0.11816921979483	0.983548960307202	0.118759455828223	0.983531796241668	-0.0012594867685794	-0.000789756441426723
3.2	0.00157329755014231	0.00165190625708293	0.269794029189452	0.953150840933483	0.269739338405706	0.953090510083594	-0.000592597924741192	-0.000927772107607686
3.3	0.00251679951001246	0.000513970961809239	0.414582180863289	0.899770012502892	0.414445104187544	0.8997556559874	0.000192863396961134	-0.0011720913306693
3.4	0.00288916648373704	-0.000848688080188173	0.549331390131433	0.824634350628031	0.549169077544894	0.824752071865952	0.000859241485273763	-0.0019355980828641
3.5	0.00317946686454861	-0.00186559109830063	0.670683698163089	0.729185465978283	0.670604110428818	0.729224156022085	0.00114621492048956	-0.00233955469488848
3.6	0.00326662547031786	-0.00334044291762246	0.774982832440068	0.616837185288434	0.775224051030831	0.616388945801267	0.00166559984237179	-0.00308970757024121
3.7	0.00270913958086804	-0.00481067722375364	0.861708203196679	0.488641930182041	0.861589823216675	0.488784894226868	0.00169895424757423	-0.00397437388156765
3.8	0.00163527886657349	-0.00594728489023313	0.926988639037597	0.349518925371089	0.927045708193406	0.349139833255756	0.00142316319945662	-0.00489591329360111
3.9	0.000462734934560474	-0.00683170245896644	0.970145402077125	0.200136010110848	0.969906622375664	0.200803230708773	0.000405446975021321	-0.00610763344928535
4	-0.00122655902395127	-0.00691293039131384	0.98919991273587	0.0481837286514414	0.989160889314681	0.0482865298564306	-0.000975196411769269	-0.00650013680828911
4.1	-0.00207448773329385	-0.00705507701882172	0.985190975387051	-0.105741019690779	0.985006329283524	-0.105614043895943	-0.00165239125341052	-0.0066494413937308
4.2	-0.00367002401747884	-0.00735440888570846	0.956639620246179	-0.258183966703468	0.95667412124802	-0.257529986904596	-0.00251413166275691	-0.00713577666468704
4.3	-0.00542888619061484	-0.00742651245039391	0.905275012621931	-0.402985093880097	0.905139023955157	-0.402874041365363	-0.00362203741051573	-0.00777827300553395
4.4	-0.00760370740795321	-0.00706115656121533	0.831763086224017	-0.538466093022742	0.831597723768308	-0.538332866185833	-0.00512055368102409	-0.00843060853550331
4.5	-0.0100315793333903	-0.00589630045023376	0.738613397848651	-0.661130095751842	0.738424245709912	-0.660957039400174	-0.00735727221868716	-0.00871411726445567
4.6	-0.0116444623800265	-0.00378264232462479	0.626434150827754	-0.768640138901071	0.626775796376876	-0.76794115589204	-0.00929225848489671	-0.00809312146901728
4.7	-0.0127220858339037	-0.00193785206787333	0.499790835659474	-0.856341472181092	0.499807027510099	-0.855985213870691	-0.0110395261661613	-0.00757402117702297
4.8	-0.013548570836546	0.000326119051337338	0.360552541135324	-0.923413783992593	0.36077410446865	-0.923096783039058	-0.0126010372883253	-0.00676032740749996
4.9	-0.0136009174483097	0.00253427524310477	0.213394423404355	-0.967831370019737	0.213174095539157	-0.967839366432769	-0.0137393327887868	-0.00568495194898104
5	-0.0130135382657329	0.00485063799358142	0.0600384328276105	-0.98954575362708	0.0602158544680274	-0.989299861533245	-0.0143135296665601	-0.00398757090546473
5.1	-0.0115474382395038	0.0065729469285572	-0.0943140893243094	-0.986675063541646	-0.0939819257440825	-0.986449299039921	-0.0141043311840138	-0.00244884463078158
5.2	-0.0100625321885506	0.00824740542518159	-0.246413498167049	-0.960093240863544	-0.245920725467098	-0.96006622571159	-0.0139390419869495	-0.00102572904244838
5.3	-0.0082176188359862	0.00967244604174311	-0.392524293932032	-0.910322854930737	-0.392182893078559	-0.910539404625887	-0.0135203114445957	0.000294071910788888
5.4	-0.00608019081447998	0.0111645200084307	-0.52944077599819	-0.838417426036715	-0.529227549758202	-0.838618619789469	-0.0133094187021711	0.00152572383671939
5.5	-0.0031313029295903	0.012555515104877	-0.653286729009088	-0.745519017281286	-0.65304739441044	-0.745714204070653	-0.0129545308682034	0.00337653773625056
5.6	0.000250719981524742	0.0123754921934286	-0.760687288997071	-0.63512500477118	-0.760497251123059	-0.635297180478202	-0.0117704053851868	0.0044198291220227
5.7	0.00258410572093113	0.0116128306057064	-0.850245309222694	-0.509372824102768	-0.850115737358695	-0.509593080274206	-0.011161687047348	0.00532786865034362
5.8	0.0046412972574716	0.0108888412148643	-0.919024987238089	-0.370937622545112	-0.918957049125343	-0.371223173446969	-0.0105796544835961	0.00632022443022854
5.9	0.00633541095577004	0.00978592227737655	-0.965360337696945	-0.223596477167836	-0.96537487010482	-0.223680255983437	-0.0102823098248583	0.00714278074266836
6	0.00804103689473767	0.00940048496404981	-0.988121026977004	-0.0713145014156185	-0.988001595752809	-0.0713726475322325	-0.0103774269007084	0.00903344747896166
6.1	0.0107966524967758	0.00756774110605304	-0.987484645777891	0.0829937249213376	-0.987357798063477	0.0828449513191713	-0.00862558562362865	0.010725166196065
6.2	0.0120996134002373	0.00462285395525837	-0.962445840278274	0.23563121722228	-0.962432229458796	0.235428025309514	-0.00698719865231927	0.0111697688192357
6.3	0.0121047556561907	0.00136439322183305	-0.9139528583869	0.382271238421767	-0.913948480860116	0.382085603212217	-0.00557169970757093	0.0109299798866985
6.4	0.0110444420693978	-0.00159622582490817	-0.843329678466955	0.519353769142285	-0.843298135521095	0.519142801177303	-0.00474165925778063	0.0101975072988132
6.5	0.00933842028114502	-0.00394634856572688	-0.752733404679617	0.644025363438472	-0.752757747677176	0.643820959899375	-0.00431040908574154	0.00965803734666157
6.6	0.00758727137097558	-0.00572725133189967	-0.643197748078418	0.753422660800407	-0.643272103872481	0.753170201262609	-0.00376676069474363	0.00927130988163883
6.7	0.00566856219306085	-0.0069734589222199	-0.518087673039901	0.843912908935441	-0.518190997644156	0.843691603060647	-0.00343185173704765	0.00899884109620349
6.8	0.0040313957137189	-0.0077914618725998	-0.380718991466132	0.913948843693919	-0.380861096961518	0.913778134597446	-0.0031032730623983	0.00896321030265793
6.9	0.00228294954403978	-0.00846446229022161	-0.234237786027088	0.961953343110399	-0.234464907158661	0.961843169234784	-0.00262262692892064	0.00904983689666742
7	0.000865263503852182	-0.00876166200934902	-0.0815586595606146	0.986734082462138	-0.0817690006748039	0.986644627023191	-0.00178006427590256	0.00909326826677505
7.1	-0.00083962727498379	-0.00906075894998093	0.0727809551566268	0.986830440742085	0.0725784363850271	0.986697593660136	-0.000966432233860907	0.0088576767616994
7.2	-0.0024527882085654	-0.00883046080912524	0.225009194700583	0.963300135369437	0.224726784659519	0.963266271663853	-4.23178737441274E-05	0.00877775403114348
7.3	-0.00404065156860066	-0.00841689628344708	0.371782997825583	0.916527303325447	0.371546848225499	0.916554185032651	0.000939417192490974	0.00849327983018717
7.4	-0.00538356683831526	-0.00767723304888943	0.509729841834664	0.847407070685737	0.50951645202739	0.847458878502873	0.00170509568823432	0.00794576907042159
7.5	-0.00637696552313661	-0.00675420851318489	0.634798066009597	0.757203743976159	0.634628760417004	0.757273969276967	0.00260645101619491	0.00759682819949258
7.6	-0.00689527646306679	-0.00616483418855097	0.744119343548177	0.649534003256899	0.743862090558719	0.649617137757087	0.00387450152166758	0.00647197735353379
7.7	-0.00778909489421168	-0.00518861952243315	0.835758538298533	0.526098434549815	0.835573691853197	0.526316096634419	0.00437403463331616	0.00502836389879882
7.8	-0.00814683936176488	-0.00374164011639872	0.907188748606466	0.389709621575367	0.907086410136787	0.389935284025722	0.00455132510609531	0.00351078362433476
7.9	-0.008302980931	-0.0019889265367723	0.956261004706592	0.244003105161056	0.956123555489599	0.244183100179348	0.00401740267480862	0.00219938955884052
8	-0.00735330811115967	0.000621615119546808	0.981872772059089	0.0930492315420968	0.981850377075629	0.093311803021992	0.00260224034093066	0.00193434284537784
8.1	-0.00492425668196931	0.00179880724502405	0.984692453747554	-0.0604767254165317	0.984721950242088	-0.0602213315879243	0.00251146216472471	0.00198390087965754
8.2	-0.00301833317036544	0.00188787740807422	0.962979915915751	-0.212741219804004	0.963028993889263	-0.212424454567419	0.00196759524909485	0.00164009949701743
8.3	-0.00160475936032359	0.00170772490132867	0.917846424663626	-0.359438340621555	0.917898411232709	-0.359151581586849	0.00133116408700487	0.00151989552376983
8.4	-0.000503475626859987	0.00112627174678277	0.850731095222156	-0.497043057296221	0.850829170723552	-0.496841521741952	0.000615881862003575	0.00124744459693129
8.5	-0.000180787247974772	0.0012534032947012	0.763710611616271	-0.622916765429021	0.763762203575949	-0.622766243745192	-0.000862059738621807	0.00166366677033455
8.6	0.00159916751573338	0.00117416470394957	0.657154013610843	-0.733991939881657	0.657322836876895	-0.733755379529417	-0.00100039370547957	0.00305694637571803
8.7	0.0027084078567902	0.000246919773508532	0.534999945171637	-0.826589793073559	0.53525924823277	-0.826375126787987	-0.000560272419270894	0.00407140126457512
8.8	0.00363060300625772	-0.000733773172294943	0.400419401770299	-0.899195572553989	0.400604670053569	-0.899057015720483	0.000275901805782897	0.00475342174350285
8.9	0.00425002847827053	-0.00186264996842086	0.256282472567859	-0.950441709871353	0.256461592742271	-0.950272141267498	0.00167001398269832	0.00506335907888527
9	0.00484816172651347	-0.00289990310240783	0.105116525068673	-0.978569714742567	0.105424517250002	-0.978523833537429	0.00313389448896605	0.00501418362583312
9.1	0.00570973116418582	-0.00396907756168347	-0.047766396331551	-0.98230421972924	-0.0474577667782519	-0.982263900482405	0.00512789558264583	0.00459738482923727
9.2	0.00661756412722327	-0.00508671512970442	-0.199392704939131	-0.962795574065767	-0.199045795829318	-0.962773889214713	0.00723149202417108	0.00350441995412792
9.3	0.0076726986701573	-0.00631361641429871	-0.346264663922317	-0.920121955288941	-0.345913416780961	-0.920097001561291	0.00933223443763084	0.00165515570262239
9.4	0.00841807287960774	-0.0081499432254602	-0.484894985985733	-0.855043404676849	-0.484572629526029	-0.855134627932194	0.0104696123834836	-0.00128384000868697
9.5	0.00885815896970158	-0.00942772343069136	-0.611099983342761	-0.768628306680141	-0.610863808756277	-0.768678852117816	0.010382799590449	-0.00363941333799106
9.6	0.00874231529923535	-0.0120409543554598	-0.722346082974022	-0.664734698391762	-0.722035551478224	-0.664873302516007	0.00986048472572518	-0.00656068506743292
9.7	0.00722419962790352	-0.0133734410032201	-0.816524710693033	-0.544679306532164	-0.816238230700966	-0.544911812682958	0.00773147802205248	-0.00920129210292259
9.8	0.0057772493952368	-0.0140275054478051	-0.890870554153087	-0.411353390478764	-0.890618164230972	-0.41152202099827	0.00480505841871123	-0.0110786362258244
9.9	0.00411322873764989	-0.0138724238965594	-0.943340571734411	-0.268109928068568	-0.943089246195021	-0.268318148655799	0.00107481609616032	-0.0121806819191065
10	0.00324310542071462	-0.0124886722655075	-0.972978083432703	-0.119320675572218	-0.972824901539101	-0.119681600372372	-0.00311432135594044	-0.0110973412836538
10.1	0.00354842895336672	-0.0124798543633054	-0.979916916055859	0.032897380470238	-0.979853430982489	0.0324673544539153	-0.00579508374916346	-0.00949708799889785
10.2	0.00287164611110054	-0.0127948112309804	-0.962810554795797	0.184394454066756	-0.962688900948069	0.183964838643067	-0.00847716674213235	-0.00760134517770773
10.3	0.00185399590812104	-0.0126095107594291	-0.922371886560219	0.331167763912132	-0.922388797795896	0.330628273107582	-0.0108104096977466	-0.00526333141075519
10.4	0.00077878683837552	-0.0123673685781803	-0.859974007058025	0.469510254483907	-0.860109472678159	0.469000696781264	-0.0126893298505769	-0.00275203962930897
10.5	-3.97858591510244E-05	-0.0110486131204339	-0.777551153867641	0.597346039867244	-0.777722964536095	0.596915058084921	-0.0140033221878522	0.000523548379948572
10.6	0.000674580112137578	-0.0103799881399457	-0.675121792427305	0.710873218506015	-0.675393097984872	0.710544038425227	-0.0135660178906053	0.00402854144721949
10.7	0.00133142156281211	-0.0105959984021466	-0.556665648775301	0.806681633343938	-0.55696494242468	0.806373041814296	-0.0120383069008577	0.00685875194531951
10.8	0.0014617631428179	-0.0116598974358951	-0.425033315194122	0.882995571657946	-0.42538252369189	0.882697997058504	-0.0101138433464084	0.00892840417561071
10.9	0.000799064229708601	-0.0124058227215814	-0.283335548165203	0.938411255682037	-0.283724364215542	0.938288186738241	-0.0081964095102	0.0106671037418479
11	0.000237917724509704	-0.0130179115550842	-0.133787462433687	0.971163674871876	-0.134223035802309	0.971073002228261	-0.00562559808841289	0.0121489059350994
11.1	-0.000547617459961727	-0.0136553593299968	0.0181990043930799	0.979438879301781	0.0177120955360123	0.979451771140154	-0.00262697529876922	0.0127911175146356
11.2	-0.00151520125647729	-0.0142634879845425	0.169469136354994	0.964867704331622	0.16901362660137	0.964939813200048	0.000611224616814109	0.0126752718852816
11.3	-0.00264648857054099	-0.0146110982945911	0.316895303891269	0.927169334753713	0.316437651664321	0.927304698332908	0.00389113195756029	0.0117186963065454
11.4	-0.00414303315072963	-0.0147356679222253	0.457123633560735	0.866832881034518	0.456721017141066	0.866945081282162	0.00654375348028337	0.0101997983005284
11.5	-0.00490294967336326	-0.0139834127563899	0.585448234596063	0.784759736483463	0.585130531447627	0.785060237438129	0.00901792178580098	0.00881964474534465
11.6	-0.00594216211219571	-0.0146985895232579	0.699543661847211	0.68514945890249	0.699328446012225	0.685475326074643	0.0112027046311961	0.00613137189591812
11.7	-0.00793772669022314	-0.0143638274521596	0.797481277460657	0.56864462280411	0.797278068584566	0.568949445076974	0.0122374637014749	0.0031505083754146
11.8	-0.0100558123624522	-0.0134514726423523	0.876132702084548	0.437951546017775	0.875950433712722	0.438400166199717	0.0122706828522995	-2.77009458924053E-05
11.9	-0.0121389069295657	-0.0113745546069087	0.933052136911539	0.296767661383205	0.932945544593624	0.297215412564379	0.0108358377700559	-0.00282369090850017
12	-0.0132216468716034	-0.00787456886457035	0.967661343488949	0.149623847452531	0.967631308008372	0.149986710822425	0.00886157945260754	-0.00397301596975831
12.1	-0.0122918648235737	-0.00578558131453247	0.979836160865448	-0.00220697043412699	0.979763945977612	-0.00182380126718122	0.00791858439268592	-0.00522699182257836
12.2	-0.0119972612553453	-0.0044513986996343	0.96776479912367	-0.154192981667642	0.967781078144564	-0.153895763084601	0.00634391876762426	-0.00645329602509866
12.3	-0.0115515706444155	-0.00314452103024242	0.932138245861801	-0.30220927645645	0.932256149091403	-0.301902970276557	0.00475154766103595	-0.0074889582620243
12.4	-0.0114927781765332	-0.00239600308120882	0.874653351400285	-0.442758533604045	0.874714554267638	-0.442389470880836	0.0027935164966306	-0.00863560848585356
12.5	-0.0115543358238196	-0.000710534187288209	0.796270441739288	-0.573733310287042	0.796608594967023	-0.573341595915807	-0.000136091512190018	-0.00885860554778966
12.6	-0.0104053690582832	0.000132658518274727	0.697252061360625	-0.690637112514375	0.697502289221316	-0.69039363641694	-0.00218156981171918	-0.00837997564216342
