# GHZ S RI R 50
0.2	-0.000217873165808866	-0.000170347298094009	0.94920089974997	-0.307980014798042	0.948978612928169	-0.307954579670011	-0.000225669987878886	-5.92452081501203E-05
0.3	-0.000329744756552606	-0.0001176970091462	0.889232609648333	-0.451655854857879	0.889076395918143	-0.451560468742697	-0.000410004530578928	-0.00017860049070159
0.4	-0.000223563631153136	-6.87232856944156E-05	0.807777575391264	-0.583941175476762	0.807789369108107	-0.583966294940873	-0.000427723037411949	-0.000157352130580595
0.5	-0.00029476628043599	-2.59584053354038E-05	0.707064793431875	-0.702312699551935	0.706909748865868	-0.702211213771163	-0.000462095219397219	-0.000112177835688608
0.6	-0.00026290632843947	6.30922239746159E-05	0.58905596005499	-0.803366726057094	0.588936697905972	-0.803204998915444	-0.000525202800649129	-9.7026253888417E-05
0.7	-0.000226294674023862	0.00026052039342506	0.45695537957175	-0.884713329962069	0.456936612989931	-0.884600825659002	-0.000512973001892871	-6.92056583521851E-05
0.8	-7.01772630828534E-06	0.000280241366861882	0.313919574182618	-0.944716318134058	0.313888212539177	-0.944526569764925	-0.000538792681713451	3.71462766795026E-05
0.9	0.000122856954245932	0.00034374004248481	0.163354849939618	-0.981709939444073	0.163289809855919	-0.981618018421448	-0.000585919851909913	2.66412356924976E-05
1	0.000244258002847084	0.000218373590296356	0.00887034207953284	-0.994823428813675	0.00881869508615857	-0.994791956538702	-0.000603160451872434	-3.42523265725632E-05
1.1	0.000425530852701965	7.9950575311635E-05	-0.145568890701719	-0.984009515837043	-0.145584631475548	-0.983879075871085	-0.000788153998805318	-6.84830050846257E-05
1.2	0.000761848958964013	-0.000852784278227837	-0.296687826836106	-0.949219316769127	-0.296611453355686	-0.949193230318671	-0.000544063131731558	0.000223380399620563
1.3	0.000992161702073454	-0.00251882811778305	-0.440394795861833	-0.891399960537377	-0.440371763625984	-0.891393349614393	0.000676329256986582	0.00070569390649894
1.4	0.000944793615580734	-0.00457930954761838	-0.573140382620258	-0.812056670055685	-0.573116206297039	-0.812035042343747	0.00238076617331457	0.000280427712358228
1.5	0.000589234028559445	-0.00562875133589969	-0.692247495180739	-0.713038274816697	-0.692145736977425	-0.712953342188917	0.00380254361306487	-0.000745404522090196
1.6	-2.28947419078133E-05	-0.0061267907283842	-0.794384419483929	-0.596733003666287	-0.794310351071003	-0.596672999807296	0.00369704928793526	-0.00191923211325542
1.7	-0.000734076241119052	-0.00595150711134446	-0.876845827281197	-0.466555057065172	-0.877009939927635	-0.466038968321131	0.0033054892039514	-0.00269406706374649
1.8	-0.00151667601183984	-0.00564651298150519	-0.938655076401963	-0.324288482392721	-0.938543843497211	-0.324287154850397	0.00250635819904969	-0.00344207662143213
1.9	-0.00225433950995648	-0.00510317462695229	-0.977309358591287	-0.17505360504386	-0.977402056881728	-0.174566138743221	0.00153990597120049	-0.00385242186720757
2	-0.00284173907284872	-0.00444347297795447	-0.992339479265194	-0.0207034006836313	-0.992351392223568	-0.0206575571743109	0.000667931527152033	-0.00401779072235148
2.1	-0.00330477758700876	-0.00393550388808855	-0.983356207080619	0.133559968053677	-0.983394283329049	0.133597065065969	-0.000219672615089466	-0.00397028825836157
2.2	-0.00408025406517223	-0.00340908988027854	-0.95064763760096	0.284428875501038	-0.950572547761987	0.284491623419878	-0.000810670523318462	-0.00373789931742659
2.3	-0.00479939274228594	-0.00260977962880259	-0.895061258891003	0.42785911788391	-0.89467899892127	0.428372001105614	-0.0013912093548673	-0.00370362232918417
2.4	-0.00555720237077825	-0.00167679274867442	-0.816902786997096	0.562558307319723	-0.817169551917899	0.561972799400738	-0.00213227987031665	-0.00367870640987178
2.5	-0.00592826506401592	-0.00025238232769578	-0.719912084630939	0.682392712824924	-0.720125885554663	0.68188313764148	-0.00267185503337733	-0.00375005479210266
2.6	-0.00572114124882127	0.000985570380657195	-0.605539849416818	0.785405730942341	-0.605433865734557	0.785223025085663	-0.00306164086944232	-0.00358690808574932
2.7	-0.0051302600594064	0.00194806693873606	-0.475731929196	0.869947213421881	-0.476181033132692	0.869540709185134	-0.00332672276843728	-0.00339261817091971
2.8	-0.00420617743815542	0.00253884201040547	-0.336195235041652	0.932642497250838	-0.335527754202039	0.932800859818852	-0.00359755594379266	-0.00314840412366837
2.9	-0.00285356308387676	0.00280060898118586	-0.186804219098267	0.973500588431551	-0.18683550627604	0.973413278479852	-0.00333926660150753	-0.0024920151930419
3	-0.00144853365216118	0.00260271071908123	-0.0326075613157211	0.990645127589301	-0.033308430175942	0.990487161715033	-0.00279571775119925	-0.00186574258160886
3.1	-0.00011751014635448	0.00212290236425525	0.120019712039902	0.983566358812689	0.120610058085808	0.9835480971662	-0.00190839311216566	-0.00147216448118939
3.2	0.000844298017155907	0.00130842381493627	0.271730924660858	0.952816646753701	0.271676103455813	0.952756411277948	-0.00132128584140998	-0.00138745540549895
3.3	0.0017695699831888	0.000353210185457892	0.416458836838882	0.898948660268055	0.416321725034628	0.898934586573198	-0.000570027447180484	-0.00143866407663393
3.4	0.00224651188868939	-0.000804550612627838	0.550888894003667	0.823319464705131	0.550726859840023	0.823437490269551	0.000200127033654337	-0.00197976900763956
3.5	0.00269632634579171	-0.00200155276708513	0.67178706030636	0.727844370918868	0.671707559030575	0.727883189754807	0.000673462253732705	-0.00256539211452263
3.6	0.00242038478808537	-0.0033740795303095	0.776095510653501	0.615253644297823	0.776335826829154	0.614804986630146	0.000825934585944216	-0.00324584552734952
3.7	0.00185971792773124	-0.00450852377229031	0.862423370253438	0.48670523883316	0.862305324135513	0.486848398268385	0.00083036333485201	-0.003802270658882
3.8	0.000887392984924273	-0.00537803636033221	0.927196076726613	0.347469886822995	0.927252353761076	0.34709088239635	0.000632660067423174	-0.00444499056227867
3.9	-4.18266002409689E-05	-0.00593443609110943	0.969925106029322	0.198221396359076	0.96968770463148	0.198888652350405	-0.000153641561330186	-0.00529311605423602
4	-0.0010910078553323	-0.00611280221251041	0.988895908010296	0.0462096198419378	0.988857103472063	0.0463124566707906	-0.000853018163059381	-0.00574240416965498
4.1	-0.00204357308449295	-0.00659266591419381	0.984204287696279	-0.107834695346483	0.984020063039815	-0.107707409084802	-0.0015901656674457	-0.00625856752793401
4.2	-0.00361779903370359	-0.00685429145349305	0.955146182547185	-0.259924025318865	0.955182014744765	-0.259270769949821	-0.00243026947221029	-0.00673860812365003
4.3	-0.00530678585790434	-0.00697714798214181	0.90347970210382	-0.404354169886117	0.903344084109353	-0.404242966941399	-0.00348159587329019	-0.0074518309267676
4.4	-0.00745708275693381	-0.00657657472109555	0.82975639724729	-0.539561263184531	0.829591486833983	-0.539427847393598	-0.00498330305348559	-0.00806236583082457
4.5	-0.0094503829381666	-0.00547236610185763	0.736023070311199	-0.661887082522427	0.735834590194033	-0.661713837699112	-0.00677822622143044	-0.00836029735496989
4.6	-0.0111665345560164	-0.00396921870297578	0.623755775120063	-0.768441767638833	0.624098159894798	-0.76774475796865	-0.00875640853096644	-0.00834648223925848
4.7	-0.0125985204901774	-0.00228670845851934	0.497337519942928	-0.85557800228975	0.497354303868445	-0.855222453542223	-0.0108316797453034	-0.00802446755826374
4.8	-0.013718986212981	-9.85481855397627E-06	0.358296598930023	-0.922183635756706	0.35851825167792	-0.921867633305572	-0.0126836073768428	-0.00723629941711803
4.9	-0.0139672672330123	0.00235578296240674	0.211300657782768	-0.966076897994089	0.211080797577402	-0.966084506378026	-0.0140320681119467	-0.00603411604131956
5	-0.0134244990952032	0.00475244507282328	0.0585642479382328	-0.987011739008565	0.058741527837504	-0.986766732302601	-0.0146622880379715	-0.0042837702710793
5.1	-0.0121101955157188	0.00672172614863793	-0.094984472546306	-0.984167348841469	-0.0946529178113305	-0.983942442018254	-0.0146481319917693	-0.0025397994886753
5.2	-0.0104302344578889	0.00866620061946357	-0.2466394560167	-0.957552980570337	-0.246147855441003	-0.95752645369912	-0.0143569471940892	-0.000838919988593264
5.3	-0.00828855939867054	0.0101624652910542	-0.392209612184961	-0.907720849982145	-0.391869239022437	-0.907937105816513	-0.0136866030434587	0.0006072146922717
5.4	-0.00577974749995672	0.0115777333069771	-0.528405686015488	-0.835878280092618	-0.528193137786667	-0.836079029423278	-0.0130887867980464	0.00184240304671672
5.5	-0.00270338380013172	0.0122168773140912	-0.651629659926252	-0.743661580939699	-0.65139092196603	-0.743856272248759	-0.0125113989121598	0.00295239163785295
5.6	-7.20686461657331E-05	0.0121100983577925	-0.75902683571315	-0.633579336195698	-0.758837253509136	-0.63375114175517	-0.0120654972586697	0.00399804503466892
5.7	0.00220929057855644	0.0117364383365908	-0.848226536895304	-0.508088346710745	-0.8480972920701	-0.508308079723853	-0.0115457359693221	0.00527481575147772
5.8	0.00439612432668496	0.0112589656936626	-0.916693053783878	-0.370159455322245	-0.916625240363604	-0.370444288822653	-0.0108665265507117	0.00653653364284296
5.9	0.00645064905594066	0.0104076726466151	-0.962977657597211	-0.22352077958364	-0.962992116550564	-0.223604367408882	-0.0102136745646956	0.00767694353708275
6	0.0088800553461516	0.00941436237839155	-0.986147144232147	-0.0715253240336845	-0.986027927845868	-0.0715833128909532	-0.00948103470622749	0.0090270242165976
6.1	0.0109632207126111	0.00693514503224607	-0.985258492860793	0.0825678775705587	-0.985131897946497	0.0824194728885101	-0.00829131505578484	0.00998913990985926
6.2	0.0117647712613003	0.00407682023058998	-0.960287290807613	0.234598511997261	-0.960273611726506	0.234395807171927	-0.00714801286336684	0.0104179202387067
6.3	0.0114047018221885	0.00104844110283994	-0.9121197119902	0.380755030580116	-0.912115214959232	0.380569824991355	-0.00613304532937545	0.010332688397481
6.4	0.0102244052505503	-0.00147433001343772	-0.84191883704997	0.517616934437	-0.841887203944311	0.517406439935574	-0.00549674753332151	0.0100129989282903
6.5	0.00870374075642525	-0.00357103893213153	-0.751297195750518	0.642052308106456	-0.751321363715625	0.641848380557816	-0.00492629350204074	0.00973202148423971
6.6	0.00715260892429846	-0.00517659862316155	-0.642375863463444	0.750768859963798	-0.642449747864556	0.750516968417152	-0.00424008474789387	0.00953474139730429
6.7	0.00550297576469206	-0.00646505627247871	-0.518034041415923	0.841201379127165	-0.518136815121306	0.840980452729609	-0.00366598820060707	0.00927136293776585
6.8	0.00397927858590266	-0.00741446951493751	-0.381238670977459	0.911364223673115	-0.381380208604141	0.911193680012046	-0.00321127952638937	0.00914672223330845
6.9	0.00230793179350114	-0.0082041011707622	-0.235154965242818	0.959455807933596	-0.235381414541235	0.959345539983687	-0.00261752511162381	0.00913555240308147
7	0.000787558069909189	-0.00867736267261339	-0.0833088721138579	0.984142047275496	-0.0835185181599682	0.984052396294171	-0.00185334081697089	0.00897191485382865
7.1	-0.000996782029958026	-0.00887597270024012	0.0703097966590942	0.985072118963237	0.0701079874945559	0.984939053785911	-0.00113109717583239	0.00881733124175689
7.2	-0.00256514270993733	-0.00864429504322612	0.22234732764101	0.962192261430063	0.222065478549925	0.962157787317213	-0.000170497559228998	0.00873076529593489
7.3	-0.00415113314467135	-0.00825839339655335	0.368953208893692	0.915968108103641	0.368717371425884	0.91599437090749	0.000802483530576952	0.00840779116998554
7.4	-0.00546564158959011	-0.00753344512354603	0.506649234373113	0.84745208951328	0.506436039364647	0.84750324151887	0.00157994419824142	0.00784494200619421
7.5	-0.00649074314855795	-0.00679646551532906	0.631782768011203	0.75843597867057	0.631613412056271	0.758505601834781	0.00244432644511674	0.00729409804533792
7.6	-0.00732517236192489	-0.00606425968300356	0.741874352876523	0.651247970063998	0.741617013890968	0.651330336270929	0.00336876541393702	0.00626598942233834
7.7	-0.0081771684421268	-0.00482426358645015	0.833889550468228	0.528115185185237	0.833704203359161	0.528332229629105	0.00384086585473217	0.00510732689101548
7.8	-0.00839901575087602	-0.00319730770166245	0.905751253996193	0.392122310236921	0.905648317387121	0.392347599888832	0.00410360871239613	0.00383256565089155
7.9	-0.00820857459538372	-0.00130376069624332	0.955486180832899	0.246829545583107	0.955348204418825	0.247009123018507	0.00395434692455444	0.00276686092975638
8	-0.00685029446495184	0.000799176556461102	0.982078470091118	0.095595670307239	0.982055395263889	0.0958583031418156	0.00304305778455998	0.0021056997932007
8.1	-0.00502743918426787	0.00165587593045327	0.985013329713524	-0.0581888176236066	0.98504223532648	-0.0579333083266025	0.00246689001922556	0.00176529156113864
8.2	-0.00333769304174702	0.00208018280265352	0.963718407747896	-0.210384745786441	0.96376670606613	-0.210067789772108	0.00175781968897283	0.00167440196064789
8.3	-0.00188337049637466	0.00211825700309944	0.919170442977915	-0.357228646585857	0.919221713048559	-0.356941629324945	0.00116038850775927	0.00169466380803774
8.4	-0.000658824188840552	0.00180418497880223	0.852584338687226	-0.495342228464077	0.852681996449055	-0.495140301869403	0.000521332566361414	0.0016489189467541
8.5	0.000368908481501023	0.00178330765252604	0.765434135363413	-0.621630256884783	0.76548543602835	-0.621479546190979	-0.000250047942771308	0.00194737931695971
8.6	0.00183071912197533	0.00103982664426782	0.659382345578424	-0.732717656015164	0.659550658132927	-0.732480536575966	-0.000658125343002747	0.00260656374835257
8.7	0.00258071276963261	0.000153096157528465	0.537646693380106	-0.825956977955927	0.537905675877492	-0.82574143824131	-0.000623037495288878	0.00356442465951978
8.8	0.00333762568780404	-0.000673060526421986	0.40311588722022	-0.899281104030703	0.403301034827444	-0.899141924701329	-5.98162772378705E-05	0.00434409401788757
8.9	0.00394697490995604	-0.00154491473837497	0.258717600389756	-0.951039784135293	0.258896562813612	-0.950869607367379	0.00118984633110662	0.00492582191560189
9	0.00488616639363082	-0.00252028727829733	0.107733788504718	-0.97937437088303	0.108042001222075	-0.979327651889749	0.0028995602052071	0.00503074567156083
9.1	0.00586386625582036	-0.00375249731217465	-0.045284150649508	-0.984129534402974	-0.0449750920691898	-0.984088339475577	0.00497464250714363	0.00455075613032295
9.2	0.0068851381265017	-0.00510815764466807	-0.19756075802739	-0.965158420070515	-0.197213213773465	-0.96513589038239	0.00720572223006771	0.00333539896952773
9.3	0.00776802166527714	-0.00657922157662663	-0.345011330705404	-0.922736566938518	-0.34465942013815	-0.922710814179278	0.00921570741930815	0.00133492784401233
9.4	0.00839455582819061	-0.00834033981186051	-0.48400699374058	-0.857845354719199	-0.483683781656158	-0.857936056898908	0.0103740189280774	-0.0014725312178545
9.5	0.00864177611600598	-0.0100684436780911	-0.610910531312585	-0.772120304750928	-0.610673608112416	-0.772170426448353	0.0102435769864498	-0.00435378932058424
9.6	0.0078893494601244	-0.0121077962081581	-0.723362938746477	-0.667956261825561	-0.723051242923109	-0.668094747580943	0.00910211388385739	-0.00686679808296903
9.7	0.00658483621483707	-0.0129351417584765	-0.818148342842089	-0.547450537031187	-0.81786068707485	-0.547683317599918	0.00710853500279108	-0.00907376064488545
9.8	0.00540569863358945	-0.0133481952170982	-0.89300192663707	-0.41375171064635	-0.892748559802254	-0.413920516322111	0.00436700509181014	-0.0107115605553514
9.9	0.00419387384862607	-0.0129837979730656	-0.94610361520615	-0.270151163222632	-0.945851209155425	-0.270359756972389	0.00105098610299281	-0.0115402525018924
10	0.00391326164288707	-0.0123814969158908	-0.976445861768558	-0.120250081885261	-0.976291940094764	-0.120612237403354	-0.00247015091861868	-0.0111597244336656
10.1	0.00350503891513575	-0.0126587558897958	-0.983010616515977	0.0328230048324056	-0.98294685328301	0.0323916353423636	-0.00581236588441435	-0.00993178127499775
10.2	0.00267181316230881	-0.01276403767106	-0.965831136261136	0.184780947756012	-0.965709022614731	0.184350023764703	-0.00871440474221615	-0.00787451860383324
10.3	0.00162830385935768	-0.0124739715969593	-0.925375086142245	0.33216934477351	-0.925392012273925	0.331628110461781	-0.0111570123833654	-0.0054088947856601
10.4	0.000650042069077725	-0.0120847342517501	-0.862754538025327	0.471390227245117	-0.862890630811465	0.470878975780792	-0.0130003259317226	-0.00265228441513069
10.5	0.000191054380090642	-0.011073085845802	-0.779325591363892	0.59971361510977	-0.77949825134722	0.599281520412065	-0.0138976831907453	0.000449457316973163
10.6	0.000484018059281885	-0.0108377328214657	-0.676654735498671	0.713185169915523	-0.676926958425929	0.712855205450105	-0.0137646269795819	0.00356332978429651
10.7	0.000653307060683672	-0.0109271688787	-0.557844550124749	0.809430758118941	-0.558144925276017	0.809121423839058	-0.0126202016884305	0.00649705937144649
10.8	0.000594498126758902	-0.0115903526869358	-0.425527435057769	0.886080648049371	-0.42587798159602	0.885782482419115	-0.0108157632833668	0.00890385349068897
10.9	6.70232899910505E-05	-0.0120181417006073	-0.282937369199404	0.9414200906019	-0.28332743912762	0.941297170628655	-0.00872394977513341	0.0108627502418403
11	-0.000362668539481755	-0.0126281944949014	-0.133196801636417	0.973721225624575	-0.133633551298331	0.973630741146146	-0.0060119481434633	0.0122670408430658
11.1	-0.00108476962835045	-0.0131100856197512	0.0192980651721067	0.982328091032634	0.0188097241044722	0.982341540662539	-0.00297931981843035	0.0129986403448286
11.2	-0.00187013280487617	-0.0136729832905707	0.171398673148569	0.967470758078403	0.170941922816865	0.967543754515062	0.00039838232263271	0.0128837648213937
11.3	-0.00283487953347233	-0.0140355392270692	0.31938071699834	0.929176047642465	0.318922037661832	0.929312579945124	0.00381206739515519	0.0119125866609439
11.4	-0.00404710952305932	-0.014236299055882	0.459740596770832	0.868236253842596	0.459337158918121	0.868349418053255	0.00671416593200607	0.0103279392991132
11.5	-0.00491511147242418	-0.0141253057790194	0.588469268092158	0.786141486042223	0.58815110899486	0.786443398981922	0.00910824763819113	0.00828990922435775
11.6	-0.00651997692086418	-0.0145400489562814	0.703207245195993	0.685494196132573	0.70299217222565	0.685821523918013	0.0106947524664653	0.0058048574747712
11.7	-0.008442833873175	-0.0138522829827909	0.800996092887444	0.568025793297542	0.800793156690872	0.568331922293405	0.011686884153875	0.00315938367062155
11.8	-0.010386474699906	-0.0127252122361903	0.879339369958792	0.436667655214843	0.879157857344913	0.437117806674368	0.0117924513938463	0.000275303351108262
11.9	-0.0120739614642698	-0.0104990372415149	0.936089353165031	0.295021149137548	0.935983685498368	0.295470263221442	0.0106973540145304	-0.00225432306141068
12	-0.0127407410681449	-0.00777621228315822	0.970565487287424	0.146714866993639	0.970536607223487	0.14707873099686	0.00929614750036799	-0.00401531589332231
12.1	-0.0126771463904998	-0.00574793131708447	0.981554296062087	-0.00568679602819385	0.981483313242563	-0.00530269574527012	0.00762061369784877	-0.00538357773129658
12.2	-0.0125045672623695	-0.00392993085808841	0.968732805247991	-0.157766594159293	0.968750133640911	-0.157468971205522	0.00597929501950566	-0.00619349843139382
12.3	-0.0118396215313138	-0.00230592703004597	0.932472885751352	-0.305946686729088	0.932592045022744	-0.305640336094382	0.00461688023336125	-0.00697985783489638
12.4	-0.011364147306706	-0.00136987951047136	0.874179725785411	-0.446827755388931	0.874242464314988	-0.446458399871129	0.00304489193246503	-0.00797356862560371
12.5	-0.010750949633749	-0.000198945573558212	0.794286713965888	-0.577478242049351	0.79462674249633	-0.57708774271142	0.000816631979574049	-0.00869706645165303
12.6	-0.0100301947254134	8.26907524846506E-06	0.6948270667592	-0.693496651142383	0.695078295825295	-0.69325405635238	-0.00160450151013484	-0.00894090045691393
