# GHZ S RI R 50
0.2	-0.000286867415694616	-4.10624049056855E-05	0.948608392648087	-0.308087048239236	0.948386231263483	-0.30806156322372	-0.000325054825974724	0.00010391429293498
0.3	-0.000290598977708635	2.7568315621059E-05	0.888487831045371	-0.451668319016887	0.888331753757498	-0.45157294130289	-0.000409189827000523	4.06661314137984E-05
0.4	-1.71345701433431E-05	1.31163569076485E-05	0.806857567273453	-0.583744232570461	0.806869341244496	-0.583769334826567	-0.000247382100565511	3.72695540544768E-05
0.5	-0.000130153724593901	-0.000258589694912867	0.706208211718458	-0.70166225433876	0.706053347494351	-0.701560855008203	-0.000315523383170058	-0.000226296146307309
0.6	-0.000301162295901583	-1.44038389978486E-06	0.588450881733161	-0.802660037269181	0.588331742028921	-0.802498452346079	-0.000615940771864826	-5.66774067267924E-06
0.7	-0.000132982430726708	0.000274926582536369	0.456392817821598	-0.883864209042268	0.456374082775413	-0.883751817071513	-0.000467482142889818	0.000178245404237453
0.8	0.000193187447054509	0.000299399698303988	0.313518184470537	-0.943637912373436	0.313486866846739	-0.943448381906518	-0.000334757709777486	0.000365904588500199
0.9	0.000587663458985097	0.000387171809169658	0.16331611320156	-0.980435367601377	0.163251139914016	-0.980343574469978	6.55319979221824E-06	0.000430533340156883
1	0.000999057750247621	-0.000431312302824565	0.00925174299787626	-0.993812227756484	0.00920013598067796	-0.993780807633375	0.000459684605544738	-0.000443034009150666
1.1	0.000442704499732878	-0.000663878878732011	-0.145263900235469	-0.983018210798923	-0.145279645321244	-0.982887907762871	-0.000499378547939905	-0.000794481382756317
1.2	0.000683517334462731	-0.00140069618157793	-0.296081069242683	-0.948159297639166	-0.296004794254125	-0.948133222290874	-0.000503419730567418	-0.000434240322797196
1.3	0.00062813318950599	-0.00297161713337522	-0.439453120668627	-0.890512737139614	-0.439430119521297	-0.890506123830093	0.000205032816123141	0.000122166841339026
1.4	0.000353571519872277	-0.00473190839327008	-0.572029317242717	-0.811553845604813	-0.572005179940248	-0.811532225753133	0.00149088842622869	0.000145733244648521
1.5	-0.000450954478916961	-0.005337749204712	-0.691383749422264	-0.712618890749831	-0.691282111638797	-0.712534001725074	0.00228736128369701	-0.000194218548939792
1.6	-0.000166744380416189	-0.00509963314228319	-0.79307378305341	-0.596270283093031	-0.792999838691147	-0.596210328212449	0.00316190026610896	-0.000233226484537316
1.7	-0.000255777335869185	-0.00539102221865777	-0.875345327995624	-0.466581929406018	-0.875509602426332	-0.46606664277499	0.00369247016518793	-0.0012929132457398
1.8	-0.000794647217627024	-0.00551792489751144	-0.937267979642196	-0.324738450586189	-0.937156878315581	-0.324737026224534	0.003412525440268	-0.00249879184068355
1.9	-0.00136761123893647	-0.00563948711426401	-0.976174064049685	-0.175659051051254	-0.976267058850032	-0.175172155316601	0.00279610355043111	-0.00377553302062918
2	-0.00301129015371929	-0.00553936544814125	-0.990912007139603	-0.0213772174821518	-0.990923935611585	-0.0213314476809927	0.000724759484814137	-0.00475605938075147
2.1	-0.00344474243465077	-0.00406310106610874	-0.982185640394203	0.13210229824174	-0.982223712714526	0.132139295185916	-0.000286879821287881	-0.0035806907810875
2.2	-0.00378313696856094	-0.00367852525582597	-0.949999384091951	0.282817593157987	-0.9499244620616	0.282880375355167	-0.000302100116790719	-0.00338479188966215
2.3	-0.00437929407195952	-0.00310059797536767	-0.894725661859615	0.426229299812541	-0.89434447476783	0.426742173930854	-0.000565521635142508	-0.0036362970183612
2.4	-0.00493234905204766	-0.002542226011418	-0.816701155996526	0.560806072380318	-0.816966824568734	0.560220891778056	-0.000931445723584821	-0.00424870325897032
2.5	-0.00603951485810647	-0.00203995554438438	-0.720343759997814	0.680077223696066	-0.720556269204178	0.679567879661799	-0.00237497007944756	-0.00571486115182523
2.6	-0.00671811317657138	1.57381709942162E-05	-0.606831836780414	0.783666653666713	-0.606725531842583	0.78348427898678	-0.00416640025805744	-0.00480027708162293
2.7	-0.00606616379268443	0.00158186445322343	-0.477190152974199	0.868619085276125	-0.477638260241903	0.868211903772505	-0.00466441032962614	-0.00376382212378038
2.8	-0.00487803040137867	0.00253318125917444	-0.337874063067167	0.93154226370556	-0.337207207688531	0.93170186640775	-0.00475218432331833	-0.00287636320005604
2.9	-0.00325887129369372	0.00288512597964442	-0.188933273687216	0.97264286024106	-0.188964348550844	0.972555518040198	-0.00418827204569166	-0.00192503372700891
3	-0.00175521564638799	0.00289396882990699	-0.0351372465455182	0.990876368966469	-0.0358379359508847	0.990716570587139	-0.00352083472979376	-0.000890807828188781
3.1	0.000171696495312742	0.00237335479695615	0.118188950778597	0.984245924808908	0.118779601610796	0.984228786576249	-0.00184843751346501	-0.000314860090564445
3.2	0.00128049290917657	0.00121651710026847	0.269950173699872	0.953667749369287	0.269895452529644	0.95360738615941	-0.000915610619419505	-0.000559988041221093
3.3	0.00224166937395729	3.7940717729571E-05	0.41473522208898	0.900262756518132	0.414598075603187	0.900248383289352	6.75860993322794E-06	-0.00090737224813216
3.4	0.0026692063703562	-0.00143732290743753	0.549547997758896	0.825336987695169	0.54938554484556	0.825454758393465	0.000745669178121242	-0.00190533915383328
3.5	0.00256446276339114	-0.0024291470749207	0.671606056798736	0.729869533149373	0.671526386883847	0.729908284573806	0.0004673013416303	-0.00228843582183348
3.6	0.00298377113708995	-0.0034009971249698	0.775846139237139	0.616881579885029	0.776087301479766	0.61643289974051	0.00134955678415618	-0.00232224851644376
3.7	0.0028177874341189	-0.00499096833352201	0.862463869548191	0.488621474167345	0.862345468583997	0.488764578292433	0.00195299890437254	-0.00328480453635309
3.8	0.00198631675231033	-0.00633226283125429	0.927847223600673	0.349389537265089	0.927904174168126	0.349010130779214	0.00207380268018663	-0.00450361115599729
3.9	0.00107013019685463	-0.00764112902045218	0.971192197932988	0.199627985592163	0.970953673434297	0.200295998519347	0.00138394239984028	-0.00637966519412311
4	-0.00121550291921639	-0.0084801004275501	0.989669786569117	0.0469731197460705	0.989630874861638	0.0470760120998217	-0.000872113187919952	-0.00780258017050745
4.1	-0.00260352027482692	-0.00808729793527334	0.985194771104225	-0.106502739676898	0.985010206153916	-0.106375611918799	-0.00239591379426587	-0.00722941806339314
4.2	-0.00422026188626388	-0.00811329521016967	0.956667311991305	-0.258910904811388	0.956702278968979	-0.258256806539064	-0.00329418157888104	-0.00724149003554602
4.3	-0.00592203531506896	-0.00785369907509948	0.905133497978554	-0.403814261656012	0.904997572122288	-0.403703073987992	-0.00427336155075294	-0.00746154591336085
4.4	-0.00758197205135227	-0.00727402519336951	0.831162796268116	-0.539283134330197	0.830997579893156	-0.539149746644094	-0.00511898553426737	-0.00793763165077239
4.5	-0.00974878343294389	-0.00690846284016753	0.737870434949131	-0.661089521548058	0.737681474837006	-0.660916477788151	-0.0071838634909308	-0.00929546137823979
4.6	-0.0119811795165381	-0.00480950793940971	0.626321577762424	-0.76875358820669	0.626663341146072	-0.768054648105086	-0.0101156795148677	-0.00863839872724392
4.7	-0.013265430685349	-0.00278695088313716	0.499530606777406	-0.856671305406931	0.499546941630093	-0.856314998264664	-0.0122430266284478	-0.00767307469861892
4.8	-0.0142228583135855	-0.000234377043278554	0.360096740920931	-0.923648614490655	0.360318479177276	-0.923331710590721	-0.0139511168779458	-0.00629219667155648
4.9	-0.0141706944964453	0.00226858154145207	0.213025454802868	-0.967723967667089	0.212805165191365	-0.967731887632006	-0.0148839721511328	-0.00468118051202782
5	-0.0135453040258229	0.00478705436836942	0.0601884832002687	-0.989907162840463	0.0603659393121181	-0.989661156130283	-0.0153168165444929	-0.00256462221889068
5.1	-0.0115438823683449	0.00683767258258065	-0.0949555998784774	-0.987232695287919	-0.0946230964471835	-0.987006986671214	-0.0142437963100277	-0.000423287334690312
5.2	-0.00946414820339716	0.00824252301932259	-0.247204305973402	-0.960210646087998	-0.24671135892563	-0.960183988767651	-0.0130012074834835	0.000684694323847683
5.3	-0.00725411780276725	0.00908953610812206	-0.393184483451058	-0.910247417279558	-0.392843155384741	-0.910464228001688	-0.0118894542584677	0.00107427651757243
5.4	-0.0051679197291307	0.00968679851125767	-0.530038743975193	-0.83853036045409	-0.529825518905854	-0.838731734111724	-0.0117757075309755	0.000887726171912262
5.5	-0.003584549897713	0.0108828199738262	-0.654752307146157	-0.745432300258127	-0.654512983397845	-0.745627944321089	-0.01337454143688	0.00242347019015795
5.6	0.000226810588204213	0.011763597574799	-0.761717519000679	-0.634011648946619	-0.76152772955827	-0.634184128574679	-0.0118187114198061	0.00500261392149077
5.7	0.00315684116555744	0.0107569333796957	-0.850754401890033	-0.508186137738125	-0.850625137101567	-0.508406522668168	-0.0103159778824522	0.00575369803092105
5.8	0.00553973626074464	0.00956645310358647	-0.919308930720102	-0.369778594954189	-0.919241344696574	-0.37006417758386	-0.00916215992550717	0.00607209635767512
5.9	0.00749204001791827	0.00744835560107888	-0.965646351106002	-0.222217173884574	-0.965661002189706	-0.222300929090713	-0.00857528430203824	0.00538250857561021
6	0.00741661936385352	0.00554288801007273	-0.987403008099127	-0.0693268259072766	-0.98728379373642	-0.0693851541664193	-0.0111592295179002	0.00529288096123682
6.1	0.0085239299945167	0.00512925989784991	-0.986151783243737	0.0839002130546657	-0.986025248160935	0.0837514976537025	-0.0117438854393731	0.0089171950450947
6.2	0.0095362538058212	0.00350907112202027	-0.961324427722689	0.236148105345102	-0.961310987782525	0.235945101105461	-0.0104496643095352	0.0112939962698456
6.3	0.010006684819775	0.00146896263554283	-0.912859809465028	0.382706343749915	-0.912855589890498	0.382520862434533	-0.00831377484618452	0.0127048619156751
6.4	0.010013107571294	-0.00109874561194202	-0.841833078313315	0.519688299532451	-0.841801798211212	0.519477531623341	-0.0059807463909204	0.012486990998431
6.5	0.0089610061687678	-0.00379983546186029	-0.751266445847373	0.643124551270513	-0.751290802573419	0.642920505226371	-0.0045932391150798	0.0114966864673253
6.6	0.00768919714248932	-0.00604526326158803	-0.642698699162904	0.752798752552403	-0.64277298847268	0.752546494628988	-0.00329262249736176	0.0104901750890783
6.7	0.0056769773884852	-0.00789642472748331	-0.51741415751183	0.843528031948038	-0.517517494349369	0.843306917020252	-0.00295106280745949	0.00927697822646737
6.8	0.00371212444253143	-0.00885526304345623	-0.379873141963577	0.913286553545518	-0.380015203695561	0.91311608144904	-0.00309599988778178	0.0088354151830401
6.9	0.00178351996946629	-0.0094464958531651	-0.2337364308642	0.960671060016852	-0.233963259390939	0.960561080108179	-0.00307896655271501	0.0089190205479121
7	0.000267463335515192	-0.00935126149506515	-0.0820424144370837	0.986078696859831	-0.0822525768240013	0.985989182900815	-0.00259699551649719	0.00955094292717053
7.1	-0.000933890166030648	-0.00952594443802796	0.0730612097543543	0.986451011202459	0.0728587229259482	0.98631827506028	-0.00125667232023693	0.00965765277066955
7.2	-0.00232086329670387	-0.00949661436978262	0.225191751960344	0.962470659647534	0.224909548105831	0.96243692678335	-7.27196139172312E-05	0.0094836348100351
7.3	-0.00382749680308604	-0.00925793958809964	0.371526665591175	0.915650062678389	0.371290735584767	0.915676941692771	0.00102764127999079	0.00913634938603752
7.4	-0.00516996624607577	-0.00869892929443344	0.509177541737994	0.847096363758233	0.508964254398457	0.847148075152603	0.00182332806014889	0.00851397810423677
7.5	-0.00660428279397875	-0.00764778093996925	0.635364668447751	0.756967875785665	0.635195373101622	0.757038214498515	0.00232795165974058	0.00847139353525287
7.6	-0.00663001213687232	-0.00635916401102844	0.74408248935091	0.648235381767237	0.743825546318412	0.648318690542686	0.00438381782379843	0.00825795180669705
7.7	-0.00662915063196569	-0.00554942935511786	0.835058633133152	0.525046015045173	0.834874116616563	0.525263519922352	0.00623491529814734	0.00669546044262344
7.8	-0.00629033705633466	-0.00472067745429745	0.906311319589793	0.389035532783338	0.906209154656156	0.389260978466356	0.00749574563215507	0.00419182318755335
7.9	-0.00587116864822197	-0.00413535113023359	0.955619425499694	0.243349290312063	0.955482171986718	0.243529208609391	0.00746454007574081	0.000817268626087935
8	-0.00653267078937861	-0.00365975756903174	0.980176583653058	0.0918727297329732	0.98015449874854	0.0921348450722903	0.00382205144517267	-0.00211402342743945
8.1	-0.0055988626920073	-0.00159591963237643	0.982617840214894	-0.0600514123371457	0.982647197045371	-0.0597965524254675	0.00125098336767123	-0.000772602331833757
8.2	-0.00426314211693912	-0.000912754564739957	0.961639470686556	-0.211783035580201	0.961688265593594	-0.211466724974202	-7.37038493678965E-05	4.51463804261822E-05
8.3	-0.00323964473623165	-0.000271823496435533	0.916948299966049	-0.358543361729348	0.917000078056374	-0.358256914242599	-0.00103263230759854	0.00121378313939889
8.4	-0.00164590109955705	5.02599494560321E-05	0.849550522945441	-0.496253444999156	0.84964843969711	-0.4960521908401	-0.000925741619260604	0.00206064182608105
8.5	-0.00112748980396595	-0.000577198594086703	0.762786083830844	-0.620726746768095	0.762837395874506	-0.620576487669184	-0.00223215488220542	0.00146577402216757
8.6	6.87583726605431E-06	0.000403197220118391	0.657573842403623	-0.73236121286802	0.657742169172693	-0.732124637002774	-0.00339104587236034	0.00437368603086242
8.7	0.00178494506464417	7.94285390762651E-05	0.53537329757725	-0.825444350655404	0.535632196796172	-0.825229603339556	-0.00200458382131549	0.00663364836558847
8.8	0.00327993428728144	-0.000709013401838377	0.400713568538514	-0.89798823385315	0.400898544790309	-0.897849672407476	9.92334331796018E-05	0.00790381349514643
8.9	0.00472676651170421	-0.00173019594706762	0.257040802688612	-0.948762904460994	0.257219462408356	-0.948593368309003	0.00322148007539882	0.00823314642316255
9	0.00612596039322696	-0.00356112984439048	0.107013261403458	-0.977975146500341	0.107321041138308	-0.977928673327938	0.00605974063592899	0.00675600600146625
9.1	0.00744204154348373	-0.00553827895708038	-0.0469056997763285	-0.982156989265511	-0.0465971643953818	-0.98211641021746	0.00872055453542429	0.00481130601993949
9.2	0.00797373283676725	-0.00816286863449575	-0.198381232319296	-0.962240521940658	-0.198034606656436	-0.962218543897116	0.0103528599440857	0.00149517599924811
9.3	0.0076224110413374	-0.0100625579043513	-0.344663046592106	-0.919757373162552	-0.34431215766607	-0.919731952814687	0.010550140485296	-0.00160479711498272
9.4	0.00726420593029649	-0.0117166305319578	-0.482940277006573	-0.855784995031319	-0.482617833467461	-0.855875511207857	0.00981398834536559	-0.00468765379362394
9.5	0.00600728473990975	-0.0118783895504397	-0.610713503255522	-0.769801848781037	-0.610477112454371	-0.769852180817125	0.00688009805745314	-0.00550262775462645
9.6	0.00716437244853323	-0.0124925497648505	-0.721539848789375	-0.665070032388744	-0.72122932128262	-0.665208334201238	0.00756011943468932	-0.00530782444835166
9.7	0.00676679950330114	-0.0139813783492931	-0.81548377196321	-0.545611148451277	-0.815197073480852	-0.545843177242025	0.00708215551817437	-0.00765021184772811
9.8	0.00590202027120417	-0.0148634433329424	-0.89031016929467	-0.412837319019717	-0.890057478575248	-0.413005562116938	0.00527322046841576	-0.0097779877510224
9.9	0.00505470104619204	-0.0154365254301407	-0.943792981587536	-0.269384774130517	-0.943541221326134	-0.269592878370916	0.00267191233533024	-0.0121573706187931
10	0.00271751708604933	-0.0154468908341805	-0.972686540222493	-0.11953055734569	-0.972533309764746	-0.119891346895119	-0.00359997623845079	-0.0129988107084717
10.1	0.00264238737190968	-0.0137660316690878	-0.979658727943342	0.0314378396134538	-0.979594626815152	0.0310080421699926	-0.00707628426156345	-0.00915326976969223
10.2	0.00275072449964803	-0.0137595727371305	-0.96346545191402	0.183114914951683	-0.963343143428252	0.182685294411607	-0.00864220027248745	-0.00659085710968707
10.3	0.00246223777449835	-0.0136228416678262	-0.923224123891466	0.330605280391089	-0.923240595753026	0.330065438646369	-0.00978376450820393	-0.00439280355592674
10.4	0.00243516328398183	-0.014100693247554	-0.859980425371957	0.469363529954269	-0.860115813429085	0.468853987798716	-0.0102679361568995	-0.00316122897133359
10.5	0.00132847740737062	-0.0149865069275831	-0.777566306549497	0.595462817542929	-0.777737257523344	0.595032071517205	-0.0122935744909433	-0.00292270136330132
10.6	0.000146159377568189	-0.0149580834087288	-0.676663307937414	0.709600623827765	-0.67693398207943	0.709270845095166	-0.0145967301764338	-8.84412354860922E-05
10.7	-0.000933204909481437	-0.0145051569361523	-0.55826488411671	0.806097881218297	-0.558563789519613	0.805788651441976	-0.0153493006544923	0.00377486011064511
10.8	-0.00140868478568853	-0.014027504043935	-0.426544452978042	0.882638255028519	-0.426893319863384	0.882340038493051	-0.0142758574038878	0.00788270025750634
10.9	-0.00166251372943137	-0.0136614165005897	-0.285295030091865	0.937817601987004	-0.285683588427869	0.937693721013578	-0.0120532017578368	0.0111681100364571
11	-0.0019046423164368	-0.013629464647854	-0.136858135971851	0.972316406281448	-0.137294136265075	0.972224307612059	-0.00921845969307313	0.0138247328382897
11.1	-0.00185559054104878	-0.013829384720175	0.0168073358948411	0.98144311165536	0.0163194250606218	0.981455319432778	-0.0050540775930612	0.0154537069855527
11.2	-0.00224008238526396	-0.0144758746719605	0.168536074202512	0.966587890850034	0.168079762163366	0.966659546870025	-0.00077917715584064	0.0155628694863195
11.3	-0.00283831568380692	-0.0148966370118258	0.315956316202196	0.92904658572156	0.315497769503503	0.929181454167848	0.00348975997477481	0.0145646728784214
11.4	-0.00378485030587301	-0.0156041403968222	0.456419279707082	0.869715832642232	0.456015525291044	0.869827478778926	0.00696892737801173	0.0122387607361738
11.5	-0.00558548151768382	-0.0149438538349002	0.587096529250935	0.787566337099884	0.586777666723098	0.787867715122976	0.00819223216198445	0.0108084837695177
11.6	-0.00552022604336938	-0.0145165992716014	0.700893540353929	0.686445269348469	0.700677919519658	0.686771763335716	0.0118454665400204	0.00975499649651787
11.7	-0.00631070088891256	-0.0145926350448111	0.798695305912877	0.570104783330373	0.798491565440577	0.570410076628127	0.0148327778978831	0.00630178862088327
11.8	-0.00739817322908146	-0.0143915717013663	0.877949281473394	0.43951548247065	0.877766311932127	0.439965057959119	0.0165405727300987	0.001845154787013
11.9	-0.0079793574315523	-0.0142040658346544	0.936052318649112	0.297518310966013	0.935945479067883	0.297967494737079	0.0169273689435922	-0.00416685033626411
12	-0.0113081052081286	-0.0136181771928544	0.969528723973617	0.148522918580048	0.969499145995614	0.148886445575009	0.0115524875936236	-0.00917975170128299
12.1	-0.0120422768084011	-0.0114076882354233	0.981352924351707	-0.00238726268106057	0.981280666810152	-0.00200348720487262	0.0078806400348894	-0.0100885299871291
12.2	-0.0131943714730337	-0.0100141775819791	0.969745703610448	-0.154956874819011	0.969762151389592	-0.154659033829666	0.00437201463121099	-0.010794013344297
12.3	-0.01422859538888	-0.00776152155575734	0.933733612834462	-0.303903852249329	0.933852111628764	-0.303597043073776	0.00108954961924877	-0.0104126512213527
12.4	-0.0144497928467201	-0.00544938568125015	0.874758832329669	-0.444869137790592	0.874820791571407	-0.444499795353703	-0.00104707109049395	-0.00971566259704029
12.5	-0.0147287501737522	-0.0035171662205967	0.796099684928088	-0.57374141325881	0.796437834513471	-0.57334978898646	-0.00454557983468063	-0.00977220928651992
