# GHZ S RI R 50
0.2	-0.0002295409445786	-0.000207399135895046	0.949215458320436	-0.307953074917798	0.948993169498359	-0.307927646357538	-0.000248704050194919	-8.35429985061836E-05
0.3	-0.000354565402440242	-0.00016982344982297	0.889265454275043	-0.451624838172515	0.889109234090889	-0.451529457261055	-0.000449176324345888	-0.000203010503166809
0.4	-0.000270537058212056	-0.000127333262945563	0.807834242152412	-0.583915522998979	0.807846037595382	-0.583940642603026	-0.000484528557737175	-0.000173751264613622
0.5	-0.000352537072409871	-6.0464985695613E-05	0.707136620423503	-0.702315749448753	0.706981562660663	-0.70221426579814	-0.000526636624593951	-0.000102258020494649
0.6	-0.000294233736216755	2.45400361689176E-05	0.589120288976719	-0.803383817831952	0.589001013842185	-0.80322208727838	-0.000576245563938247	-7.72685660617664E-05
0.7	-0.000254480337770553	0.000196717243949757	0.457023958777035	-0.88474196295058	0.457005185722774	-0.884629453118781	-0.000559143208987473	-4.5862268936835E-05
0.8	-4.82515405209137E-05	0.000187182860940794	0.313989687311624	-0.944766394546532	0.31395831380212	-0.944576634504943	-0.000578749889140261	6.00248169580917E-05
0.9	2.87545128939551E-05	0.000217474986121531	0.163409524974443	-0.981788359992131	0.163344475455779	-0.981696433680185	-0.00063221224924192	3.56724896875294E-05
1	4.37119300316897E-05	0.000162113252556291	0.00888828495412557	-0.994895240709056	0.00883663367667231	-0.994863767056848	-0.000688100266052491	1.25914573949479E-07
1.1	0.000274215717043923	0.000134962909425167	-0.145534999374636	-0.984071975128559	-0.145550746643551	-0.983941528386955	-0.000839593495692754	-7.94686213410265E-06
1.2	0.000671062011195136	-0.000764673643177968	-0.296656120774283	-0.949302937866421	-0.296579743340085	-0.949276845331623	-0.00058933228646926	0.000267141164707355
1.3	0.000985420038979077	-0.00244270146284762	-0.440378848663115	-0.891496474487928	-0.440355814966998	-0.89148986171579	0.000629786440983433	0.000729635127981542
1.4	0.000986797239925551	-0.00458340942708082	-0.573136044638556	-0.812148211080499	-0.573111867785307	-0.812126580426624	0.00230977203284598	0.000281676351292163
1.5	0.000709260624151576	-0.00569339372915425	-0.692207183594498	-0.713149009070267	-0.692105429201382	-0.713064061194921	0.00374787078645174	-0.000709442941638328
1.6	6.80208098296914E-05	-0.00638139457086324	-0.794382910984153	-0.596923598253304	-0.794308843396066	-0.596863576127434	0.0036375727738705	-0.00191283435045838
1.7	-0.00076145292328486	-0.0062305389256653	-0.876919856222729	-0.466766658599399	-0.877084075099607	-0.466250509370911	0.00324775982161988	-0.00265021486918257
1.8	-0.00160906817069581	-0.00589234742380558	-0.938799703163935	-0.324494825185337	-0.938688447614152	-0.324493480809272	0.00248711840588136	-0.00337967781690627
1.9	-0.00239801241357965	-0.00526961509402105	-0.977516984472929	-0.17524723497546	-0.977609780649045	-0.174759665938901	0.0015385528296369	-0.00378672424950795
2	-0.0028418258246031	-0.00448636886065131	-0.992668031040605	-0.0208785500244173	-0.992679955764792	-0.0208326931807908	0.000757474569615882	-0.0039244432833795
2.1	-0.00320635066899562	-0.00418596763880044	-0.983766563000822	0.133546949967429	-0.983804657330807	0.133584059515008	-8.93601864471806E-05	-0.00402716856419009
2.2	-0.00411502041520499	-0.00377299380284084	-0.951028603844497	0.284544957601649	-0.950953483735948	0.284607730562349	-0.00076148802114544	-0.00386940338117695
2.3	-0.00499252743962262	-0.00297459088508606	-0.895397397525297	0.428056139524193	-0.895014971001629	0.428569210831971	-0.00142726561819449	-0.00386131133934674
2.4	-0.00592275874632941	-0.00192545771882666	-0.81721800105721	0.562822151267632	-0.817484898779806	0.56223641212074	-0.00228099637800476	-0.00381895549214207
2.5	-0.00627074945683529	-0.00018423210312694	-0.720171147072434	0.682801247128308	-0.720385109860622	0.682291456464556	-0.00286142689025634	-0.00375437791553072
2.6	-0.00578518326386229	0.0010673840454578	-0.605638396137365	0.785845415146136	-0.60553240389543	0.785662613701516	-0.00316595079615419	-0.00359937962818626
2.7	-0.00510263971433263	0.00187829040761439	-0.475751091174598	0.870380037733766	-0.476200449528902	0.869973460481573	-0.0034475272499845	-0.00346642900332259
2.8	-0.00422336746277722	0.00233416357050899	-0.336139403773099	0.933093545207717	-0.335471617173259	0.933251834182409	-0.00379377855359638	-0.00325155987759216
2.9	-0.00296535907672594	0.00255874123673504	-0.186627671709438	0.973979303324757	-0.18665899589596	0.973891963209607	-0.0036202803136989	-0.0025529227164278
3	-0.00159086262105261	0.00235660729207038	-0.0322561380612046	0.991028260575407	-0.0329573275030347	0.990870492783985	-0.00309761371630649	-0.00185218055266081
3.1	-0.000365999845449362	0.00188333980744888	0.120370137645806	0.983840568176858	0.120960665348482	0.983822113275852	-0.0022440500182173	-0.00137290292056947
3.2	0.00054399399336372	0.00118888187779518	0.272131245019237	0.953058255709612	0.272076385507524	0.952998017067746	-0.00162857427942122	-0.00116189628752738
3.3	0.00150637865485974	0.000372227528541499	0.416935775795276	0.899115075566422	0.416798610193852	0.89910104708834	-0.000790549322700143	-0.00110245021843019
3.4	0.00210802925955152	-0.000634941132475839	0.551412468081038	0.823343142895501	0.551250433349863	0.823461274517029	0.000110922359580425	-0.00154558517377358
3.5	0.00288113595627833	-0.00180655526404355	0.672209434699731	0.727764388188134	0.672129929437999	0.727803245214638	0.000831845516573515	-0.00210983588100165
3.6	0.00275429981787879	-0.00342095988558111	0.776554164321675	0.615199635246254	0.77679441131844	0.61475075055081	0.00114499324237187	-0.00293829630104809
3.7	0.00223180364607598	-0.00471561471356064	0.862941670722415	0.486536837326439	0.862823638691114	0.486680097898443	0.00126412251140413	-0.00363615185995912
3.8	0.00126677320814975	-0.00576547042468004	0.927696232781093	0.34715283912203	0.92775234929103	0.346773671163207	0.00113977814408296	-0.00449884960096425
3.9	0.000246626225337273	-0.0064787469671346	0.970329171096948	0.197793684222119	0.970092032278866	0.198461269213511	0.000292587641591424	-0.00560645523433754
4	-0.000800525958103807	-0.00673889665488439	0.989287458718089	0.0457464709680268	0.989248689653366	0.0458493650315752	-0.000524710425373006	-0.0062529355300917
4.1	-0.00193431738694739	-0.00756607658912273	0.984506789824687	-0.108515303286605	0.984322578167298	-0.108387849080844	-0.00157291105473787	-0.00703560675665644
4.2	-0.00397725002342899	-0.00787182005572016	0.955214534472267	-0.260666998823127	0.95525083738345	-0.260013596482943	-0.0028859630222119	-0.00747516399567569
4.3	-0.00605174677035578	-0.0077493257408478	0.903379485012683	-0.405043667821718	0.903243916265019	-0.404932351674468	-0.00429724129842812	-0.00789794533985113
4.4	-0.00845398361793418	-0.00691463105772996	0.829599531665016	-0.540198278496082	0.829434668819748	-0.540064730395179	-0.00598809547369541	-0.00809281437502019
4.5	-0.0103390082118273	-0.005145791487566	0.735761368098378	-0.662647623126605	0.735572957807956	-0.662474182357931	-0.00771173627195698	-0.00784945659695942
4.6	-0.0115227421314462	-0.0033727900335214	0.623207844994838	-0.769120918693041	0.623550893755248	-0.768424076104268	-0.00931932146037068	-0.00754479811932173
4.7	-0.0125305255426839	-0.00171204969030527	0.496662501270045	-0.856100434790542	0.496679591104501	-0.855744860004857	-0.0110469865603372	-0.00713007987827638
4.8	-0.0133188032555335	0.000387352162822742	0.357528940403084	-0.922584661883672	0.35775088955443	-0.922268821693412	-0.012581428934314	-0.00639973417038077
4.9	-0.0133763488848301	0.00250113221651517	0.210394453799055	-0.966374289897322	0.210174564750799	-0.966381688086234	-0.0136979543332695	-0.00534451501676145
5	-0.0126914209651817	0.00459111558664438	0.0574658696507891	-0.986994606458485	0.0576434062603466	-0.986749816522048	-0.0141449893913939	-0.00380233506129671
5.1	-0.0115112000050611	0.00614481693167058	-0.0959418546697198	-0.983841981325473	-0.0956101538194393	-0.983617457286924	-0.0141207927895964	-0.00234961864202326
5.2	-0.0101545828182252	0.00792531042276309	-0.247505212511241	-0.957074242367971	-0.247013709369939	-0.95704819832854	-0.0139406767076083	-0.000830189710066943
5.3	-0.00828563688442544	0.00950177046216349	-0.393004223193037	-0.907053516984094	-0.392664169824007	-0.907270049968456	-0.0133985798353181	0.000545105660908774
5.4	-0.00582210552685518	0.011176234303196	-0.529056148332047	-0.834954849883831	-0.528843904953816	-0.835155735548674	-0.0128634415483698	0.00181736200491917
5.5	-0.00232016614806234	0.0118042279824525	-0.65188976302139	-0.742605310057558	-0.65165135108947	-0.742800094004725	-0.0121071292277288	0.00286031044264515
5.6	0.000205873588095083	0.0111766336339329	-0.759124512572643	-0.632627847453744	-0.758935170732761	-0.63279971215249	-0.0117956491323966	0.0035859653389101
5.7	0.00211721412950154	0.0106841578100926	-0.848186379211455	-0.50707123886712	-0.848057396569484	-0.507290959415552	-0.0115162273918082	0.00478638155626711
5.8	0.00393375619001711	0.0102709376353358	-0.91639720538146	-0.36909993310092	-0.916329689189787	-0.369384633018382	-0.0110950183690595	0.00602431152833043
5.9	0.00563081692295315	0.00977609414950555	-0.962339747002224	-0.222570235085021	-0.962354259873679	-0.22265374069522	-0.0107782370362272	0.00730185418900162
6	0.0082991026365467	0.00937998243844316	-0.985388904853389	-0.0708881394877672	-0.985269819302365	-0.0709461512121438	-0.0101137079911864	0.00903754704837576
6.1	0.0106748188375869	0.00682007612709459	-0.98440793273774	0.0831256208414013	-0.984281534480424	0.082977256222548	-0.00893249874692872	0.0101404082705935
6.2	0.011552838035464	0.00401652905121186	-0.959290144097069	0.234899486342138	-0.959276585894934	0.234696958249959	-0.00773380182906747	0.0108830349066281
6.3	0.0113862449048158	0.00100362013146375	-0.91115521848709	0.380754299276315	-0.911150794975466	0.380569258871956	-0.00642531725274925	0.0109904807971383
6.4	0.0103481508196913	-0.00171214775404022	-0.841154056400319	0.517426782759029	-0.841122498113581	0.517216440612221	-0.00547024198379614	0.0105341926052619
6.5	0.00882874945896608	-0.004071644088179	-0.750623281224841	0.64199057116876	-0.750647516316907	0.641786767174275	-0.0047709602897851	0.00996143041738881
6.6	0.00702282199063481	-0.00585214727998921	-0.641533029868153	0.750554831772818	-0.641606988898989	0.750303158853863	-0.00420756337321659	0.00951900083527033
6.7	0.00518218745092494	-0.00703232066007622	-0.51725404573747	0.840776266201355	-0.51735683789047	0.840555558111906	-0.00378035691402528	0.00921709557016288
6.8	0.0036382440292748	-0.00783831303086119	-0.380562382614256	0.910825226933367	-0.380703883389627	0.910654873743868	-0.0034090625912053	0.00912136764379423
6.9	0.00203973127546994	-0.00853021323183338	-0.234499202263172	0.958862962629388	-0.234725539115735	0.958752890017129	-0.0028647266805359	0.00917353200227918
7	0.000625351568133611	-0.00904807989858877	-0.0825926933985644	0.983225421303397	-0.0828021904977028	0.983135993773109	-0.00210360523621306	0.00903740990558257
7.1	-0.00123882538028364	-0.00925746052594329	0.070639683992535	0.983899937353714	0.0704380533856648	0.983767110835756	-0.00146366735860908	0.00896362091982137
7.2	-0.00281821245186149	-0.0089117446469842	0.222391915226033	0.961009572019627	0.222110381340929	0.960975226167489	-0.0005023587008383	0.00904213349894356
7.3	-0.00433520299958982	-0.00840271907731268	0.368773990443637	0.91476247037594	0.368538443612463	0.914788769526487	0.000554612693939136	0.00889216177647519
7.4	-0.00550045021173273	-0.007556851118055	0.506186442041844	0.846157234787519	0.50597355212439	0.846208374608884	0.00151064409711053	0.00849212719501266
7.5	-0.0061905171139991	-0.00682756495096564	0.630731636124805	0.757265719122939	0.630562545727973	0.757335221359601	0.00270222362037702	0.00800493715464087
7.6	-0.00689738421859528	-0.00639576288584857	0.740614340547659	0.650561448156345	0.740357340166797	0.650643615368724	0.00385921671096852	0.00681467599203084
7.7	-0.00778830924082317	-0.00531554582477176	0.832540564341392	0.527715374561719	0.832355386967662	0.527932049261291	0.004505450728289	0.00548761446952508
7.8	-0.0080618557171917	-0.00378356640281732	0.904274641741012	0.392042759719969	0.9041717325108	0.39226767927851	0.0048837144822061	0.00396876912435501
7.9	-0.00800157597781438	-0.00183201935134931	0.95393443324979	0.247242256960127	0.953796509125311	0.247421469649769	0.00463230999841713	0.00260554846473615
8	-0.00603399759552543	0.000296097697850247	0.980914984885005	0.0966351976296734	0.98089162939489	0.0968975222142098	0.00401616541676005	0.00174327887849158
8.1	-0.00412531393109991	0.000333787418803515	0.984279143632129	-0.0570679682346298	0.984307747317243	-0.056812634327083	0.00314235842894547	0.000699007883273165
8.2	-0.00304248095799771	0.000161983679992444	0.963295014890515	-0.209170353688302	0.96334292805821	-0.208853560141963	0.00170743054398392	0.000260756577379938
8.3	-0.002406528590995	0.000140814460422295	0.919117936237566	-0.355987653218383	0.91916884926926	-0.355700721892489	0.00031292265415374	0.000433634141903078
8.4	-0.00194485440560106	0.000288181548311019	0.852958121918576	-0.494232232653513	0.853055521462314	-0.494030240410919	-0.000947608984057362	0.000951186545028652
8.5	-0.00101113976572082	0.0013252937942403	0.765974611785577	-0.621018946496717	0.766025789622113	-0.620868188164398	-0.00181388167311354	0.0021990726534085
8.6	0.00106143185609329	0.000846214187919379	0.659724433657581	-0.73217450943099	0.659892567782233	-0.731937326605911	-0.00177437339018785	0.00330911021353207
8.7	0.00203345495843165	-0.000113111428348719	0.538070955562437	-0.825393240100428	0.538329729703939	-0.825177578839279	-0.00140559262373854	0.00447893548057342
8.8	0.00282208667189097	-0.00106675075276749	0.403662057238229	-0.898812501176679	0.403847069027446	-0.89867322104152	-0.000511139742380152	0.00530775317562484
8.9	0.00323807420604735	-0.00199357738920743	0.259260981245259	-0.950759993569186	0.259439817334135	-0.95058973024823	0.000940591795732261	0.00580687959088946
9	0.0040384512964085	-0.00270888113667355	0.108143758058198	-0.978950093392751	0.108451831350302	-0.978903250283053	0.00277716024372739	0.00589423886424185
9.1	0.00503558338931158	-0.00374023316333994	-0.0445137987215045	-0.983700287411037	-0.0442049171199866	-0.983658876673101	0.00495613371197041	0.00534187174591322
9.2	0.00623087379005455	-0.00475308467392179	-0.196655937228235	-0.965006387185719	-0.196308529105191	-0.964983563097232	0.00732972826279459	0.00415147300626023
9.3	0.00759793430644386	-0.00605410061436901	-0.344132075766198	-0.922788946309066	-0.343780279691871	-0.922762899572761	0.00960545719068393	0.00206529514271905
9.4	0.00876660654448628	-0.00786061670164413	-0.483139341317897	-0.857931746552235	-0.48281617098011	-0.858022154503425	0.010957666690804	-0.000938628905822453
9.5	0.0098047392160258	-0.0101246026510469	-0.60969103109157	-0.772438911751996	-0.609454171139874	-0.772488729932733	0.0111252611175002	-0.00417592901912173
9.6	0.00884118835311377	-0.0132134703027024	-0.722302562231084	-0.668854119050515	-0.721990726263702	-0.668992144331449	0.009731563165681	-0.00724703398353098
9.7	0.00697927379644061	-0.0143826134537245	-0.817385491155482	-0.54860614123283	-0.817097505469775	-0.548838519229464	0.00741107742994428	-0.00959449137854378
9.8	0.00530267797466093	-0.0148469105389891	-0.892491402532793	-0.415107324777315	-0.892237760503252	-0.415275776843462	0.00440367575826011	-0.0112898799088589
9.9	0.00362543018142213	-0.0141696709608519	-0.945863106091186	-0.271796697234991	-0.945610294058347	-0.272004914875936	0.000765377470214282	-0.0120352885908596
10	0.00369063787170827	-0.0130539717044392	-0.976989119323474	-0.122192435438165	-0.97683439098338	-0.122554585573817	-0.00268185204151236	-0.0113847694754896
10.1	0.00338750452213656	-0.0137838279436447	-0.984233690503397	0.0313616339119359	-0.984169192710549	0.0309298470615773	-0.00610618030146857	-0.0103556335673277
10.2	0.00219693215406856	-0.0139333658768248	-0.967356751227726	0.183790847773092	-0.967233922809656	0.183359505040193	-0.00922445331174957	-0.00818742196232965
10.3	0.000910455948780164	-0.0134788124979765	-0.927086719373075	0.331637302871873	-0.927103076133865	0.331095262099171	-0.0117096120787555	-0.00559187056897524
10.4	-0.000294690374665701	-0.012802167129877	-0.864633765355548	0.471354379493112	-0.864769599122687	0.470842150287656	-0.0136310315433681	-0.00277896237242159
10.5	-0.00060833198460111	-0.0112170819522113	-0.781028290000187	0.600504730248065	-0.78120109084929	0.600071758374038	-0.0145351853819946	0.000540300552003963
10.6	0.000173963026170476	-0.0109077726006453	-0.677759807377117	0.714182090775265	-0.678032402413765	0.713851596312464	-0.0142761132615792	0.0036683421687056
10.7	0.000641827896780835	-0.011191094967188	-0.55869725552352	0.81046745421297	-0.558998003541034	0.810157664287944	-0.0131023911511545	0.00656195506529212
10.8	0.000617052189665521	-0.0121196860249528	-0.42619207984053	0.887247248847285	-0.426543075471345	0.886948643386801	-0.0113878484519313	0.00894424277145615
10.9	-1.42464773492659E-05	-0.012656257651125	-0.283251788773668	0.94278814748555	-0.283642426077569	0.942665089133369	-0.00940358159636541	0.0110114177640115
11	-0.000418481610602751	-0.0133087548302604	-0.13301388195432	0.974803967151134	-0.133451127518606	0.97471353194191	-0.00666520942561955	0.0125808626534431
11.1	-0.00126891589177889	-0.0138662561544151	0.0193458532944494	0.983248786285209	0.0188570546478127	0.983262263290323	-0.00363865646666053	0.0134641893197513
11.2	-0.00216094040301153	-0.0143506315230799	0.17155706622124	0.968511732057853	0.171099824649103	0.968584794784734	-0.000173275114767168	0.0135531229528064
11.3	-0.0031507694819802	-0.0145533782419338	0.319807155842922	0.930215252816577	0.319347962105887	0.930351971512626	0.00340700364929059	0.0127765374263782
11.4	-0.00428483127258139	-0.014437489507449	0.460376146166401	0.86903009025304	0.459972319997832	0.869143447628682	0.00652182247616239	0.0113938522737118
11.5	-0.00451136092847102	-0.0143022494712202	0.58885559519335	0.786904547623244	0.588537117668959	0.787206671603506	0.00944235041038448	0.00936569275744098
11.6	-0.00608053862931918	-0.0152897182239706	0.70394340720123	0.686540909478333	0.703727980221692	0.686868604889131	0.0112212585009194	0.00655465571943498
11.7	-0.00822565402815119	-0.0147216800815658	0.802137028794388	0.568890580739822	0.801933782711433	0.569197146437344	0.0123371323272613	0.00376132614633631
11.8	-0.0103194556633491	-0.0135092889990867	0.880689500213361	0.437221330705772	0.88050776645372	0.437672168849915	0.012565298686153	0.000695584597823379
11.9	-0.0119922268251404	-0.0108997263712422	0.93752749887944	0.295399336777677	0.937421704055037	0.295849138255464	0.011649341526947	-0.00194513018914792
12	-0.0115946071902316	-0.00791212089230752	0.972485288276495	0.146955599537141	0.972456369451542	0.147320181985569	0.0108149229831233	-0.00393787160277885
12.1	-0.0108035265865319	-0.00718112199884271	0.983600454622718	-0.00634247925470234	0.983529575504856	-0.00595753024749432	0.00940052649370447	-0.00649021083564983
12.2	-0.0111234052120478	-0.00665990881180796	0.970394656311349	-0.159006820774357	0.970412307375465	-0.158708656881237	0.00705043949878643	-0.00840528907409588
12.3	-0.0117427819194013	-0.00576982751693877	0.933700325707637	-0.307465545788781	0.933820015139179	-0.307158812040403	0.00430924505128898	-0.00972922305403509
12.4	-0.012848365134964	-0.00447115570325167	0.875172329611356	-0.448500270568387	0.875235563594486	-0.448130362450456	0.00118997844494501	-0.0102441003481003
12.5	-0.012771183813817	-0.00183592891045113	0.794848826004791	-0.579666936325557	0.795190030110469	-0.57927624291377	-0.00172969121010379	-0.0095180689599339
12.6	-0.0116127926765984	-0.000907442645482117	0.694645824226511	-0.695546113190509	0.694897781081661	-0.695303596313083	-0.00387264605912632	-0.00872100695509619
