# GHZ S RI R 50
0.2	-0.000355708431516068	-0.000128305208791433	0.948816555236489	-0.308005709498528	0.948594351729086	-0.307980251620074	-0.000373307982577031	-6.37899297250031E-06
0.3	-0.000417712489010247	-5.77290336246675E-05	0.88879104727773	-0.451614506643643	0.888634913742573	-0.451519134425838	-0.000510333039713177	-9.48134854054337E-05
0.4	-0.000241502087045893	-2.20911212501127E-05	0.807278278940885	-0.583797336557746	0.807290062441109	-0.583822445782095	-0.000454016607399726	-7.43730030050074E-05
0.5	-0.000281731715306862	-0.000101898846986554	0.706570143934856	-0.701967995191033	0.706415202357021	-0.701866553701605	-0.000454814361877064	-0.000149923968308321
0.6	-0.000345206188696436	1.12353606059885E-05	0.588694599473391	-0.802950228804963	0.588575410449597	-0.802788585477557	-0.000624311742199164	-9.86674178397475E-05
0.7	-0.000256495643517374	0.000235743557857166	0.456632534471321	-0.884230415949769	0.456613786145001	-0.884117975632301	-0.000558476974078256	-1.88501411509513E-05
0.8	-3.4017737966725E-06	0.000221151261496829	0.313677959880592	-0.944126344234652	0.313646626527021	-0.943936715738062	-0.000533702822134634	7.78401899418615E-05
0.9	0.000149369798206935	0.000255031841775181	0.163266248538334	-0.98102953317413	0.163201251036453	-0.980937677072857	-0.000517851815878296	5.41978963571499E-05
1	0.000249183961141693	-5.00877272647628E-05	0.00896443049927971	-0.994197886744954	0.00891281279485391	-0.99416643940612	-0.000498145259341272	-0.00022483187219596
1.1	2.86743267095571E-05	-4.05385499858218E-05	-0.145458341668573	-0.983371138413377	-0.145474074274336	-0.983240783635149	-0.00109571255331405	-0.000183188080648718
1.2	0.000321995080341665	-0.000503853626112598	-0.296411482694796	-0.948527401660503	-0.296335167759331	-0.948501330294922	-0.000942898911906489	0.000533264333038686
1.3	0.000702998647266171	-0.0017874849249339	-0.439923919878604	-0.890760213190064	-0.439900906679087	-0.890753604255916	0.000352810587841069	0.00138819463576749
1.4	0.000854901703569301	-0.00374457493915167	-0.572525278508014	-0.811553150970934	-0.572501125430239	-0.811531534772417	0.00219139008754794	0.00111512054676939
1.5	0.00047271896329068	-0.00485491431148119	-0.69159808382524	-0.712602937519175	-0.691496417822186	-0.712518053597045	0.00353689597346834	0.000111150726633741
1.6	0.000176587311415849	-0.00538388027666526	-0.793488490303183	-0.596377461464434	-0.793414506539361	-0.596317494855816	0.00376331264463493	-0.00096212703975524
1.7	-0.00038952522927132	-0.00559439035918478	-0.875827781702158	-0.466484876248847	-0.875991956686014	-0.46596934040946	0.00361756591355462	-0.00206581660225297
1.8	-0.00120005882808257	-0.00558548261095714	-0.937648865727251	-0.324484988643814	-0.937537732847815	-0.324483604691432	0.00287919437758254	-0.00312032983420254
1.9	-0.00203230923847007	-0.00532008497097589	-0.976374403743224	-0.175441803511886	-0.97646729104014	-0.174954806523179	0.00187767599047454	-0.00387235114351229
2	-0.00302816497303756	-0.00477018112431558	-0.991363615115596	-0.0212936176296834	-0.991375544703861	-0.0212478259480762	0.000551247937735918	-0.00422834915163898
2.1	-0.00345474569821412	-0.00395884472844001	-0.982586239090073	0.132599065207211	-0.982624312822895	0.132636096304909	-0.000348618622957877	-0.00382523004582981
2.2	-0.00411535245576197	-0.00352098280131148	-0.950167470491725	0.283341289670649	-0.950092496237824	0.283404057219585	-0.000779687756908261	-0.00364660534049496
2.3	-0.00487096396500275	-0.00281032571540102	-0.894810504873485	0.426699927584517	-0.894429009479841	0.427212796698783	-0.00133344846121812	-0.0037206132674842
2.4	-0.00568992764626626	-0.00194058951739236	-0.816868030722454	0.561308991920229	-0.81713400161154	0.560723647746236	-0.0020820218160975	-0.00384192514281959
2.5	-0.00635626452888014	-0.00055768170920046	-0.720281367673757	0.681018904645269	-0.720494379925496	0.68050940762516	-0.00296884438254296	-0.00410511794090792
2.6	-0.00622765124334129	0.0011214386859786	-0.606293563213379	0.784299025874266	-0.606187389552153	0.784116532692702	-0.0036000159256961	-0.00352201130952582
2.7	-0.0054280301874024	0.00226857985146338	-0.476655428574247	0.869046735376575	-0.477103866034571	0.868639810688318	-0.00374812936659715	-0.00306832268096962
2.8	-0.00432755691909525	0.00290950318099075	-0.337307403942002	0.931927619528315	-0.33664032781498	0.932086802558545	-0.00386805504323768	-0.0026856842398369
2.9	-0.0028530688078778	0.00314146331322455	-0.18813682095736	0.973046403034198	-0.188167979167698	0.972959066236288	-0.00347862761876044	-0.00199577554191002
3	-0.00137969104328099	0.00295961519484968	-0.0340198960163217	0.990694989664879	-0.0347206082621596	0.990536011470978	-0.00285897468506581	-0.00128994843380397
3.1	0.000126146327298972	0.00239958020156579	0.118823382296427	0.983846631366172	0.119413830276092	0.983829095000148	-0.00173352151761056	-0.00090022755096823
3.2	0.0011206958394377	0.00145827332861707	0.270575989770603	0.953289530257186	0.270521236336565	0.953229217762517	-0.0010518467021001	-0.000944501808282616
3.3	0.00206437231635245	0.00041243890186557	0.415397837061525	0.899691937505625	0.415260711759234	0.899677684092087	-0.000240280634425951	-0.0011098076942513
3.4	0.00252408465643322	-0.00084788315877285	0.550058515081746	0.824343238457595	0.549896267218816	0.824461104372242	0.000517852135597467	-0.00179757240592826
3.5	0.00290917041228634	-0.00196768951618902	0.671323848043627	0.728884732925543	0.671244269627419	0.728923485452993	0.000862164681298761	-0.00230669090745366
3.6	0.00291719808930698	-0.00337836842901654	0.775664243327702	0.616327336588597	0.775905141872589	0.615878799024911	0.00130938585633312	-0.00294544155275898
3.7	0.00244478745193046	-0.00479036257177762	0.862228682158023	0.487955034299823	0.862110411848368	0.488098116870639	0.00146753070491736	-0.00376304797050694
3.8	0.00144542567508349	-0.00592684689758684	0.927331550468985	0.348747857364608	0.927388300064186	0.348368698035042	0.00129998957922411	-0.00470568210849467
3.9	0.000377011689216916	-0.00679575696775985	0.970349165879817	0.199356403600112	0.970110918061583	0.200023846495343	0.000401496381199383	-0.00595472922640773
4	-0.001122893580787	-0.00710379186594155	0.989341213496158	0.0472514913286401	0.98930228366554	0.0473543394368225	-0.000851229172214851	-0.0066335297442304
4.1	-0.00220140094287313	-0.00743667115182619	0.9849764464021	-0.106714161439038	0.984791947624123	-0.106587015092224	-0.00182613472774693	-0.00693285158857709
4.2	-0.0039656374311821	-0.00772287077394282	0.956220146418432	-0.259030915043833	0.956255252824691	-0.258377089161013	-0.00285986898396727	-0.0073631955363554
4.3	-0.00589139254269425	-0.00771012140109979	0.904722163040866	-0.403718504601616	0.904586303041967	-0.403607352458519	-0.0041205788428599	-0.00790031999789851
4.4	-0.00817226372100378	-0.00708868990817652	0.831094633817643	-0.539142219891932	0.830929428846897	-0.539008863751912	-0.0056960272813678	-0.00830626148237873
4.5	-0.0103531132029739	-0.00570015047172821	0.737650360332343	-0.661659960475054	0.737461458740539	-0.661486769807512	-0.0077076654747023	-0.00842757856889158
4.6	-0.0118411051606609	-0.00361128133081599	0.625460122784786	-0.768849690066547	0.62580223784815	-0.768151332082531	-0.00959674044356948	-0.00781577299476491
4.7	-0.0127647554088279	-0.00178159343714737	0.498814131160633	-0.856393442352397	0.498830628210014	-0.856037359014989	-0.0112294344071691	-0.00725309245369558
4.8	-0.0134854781727425	0.000369422535441225	0.359547044119595	-0.923286328905502	0.359768783871649	-0.922969681851569	-0.0126943732858166	-0.00648871209794987
4.9	-0.0135028063334658	0.00247238589557681	0.212355472430623	-0.967453017276031	0.212135268906218	-0.967460801464295	-0.0137760135606474	-0.00546314028501428
5	-0.0129175474266826	0.0046417922137904	0.0592186556521744	-0.988837429458562	0.0593961341912876	-0.988591863811225	-0.0143286109045675	-0.00386199280648444
5.1	-0.0115426634959562	0.00633096928398476	-0.0949699160955112	-0.98594951376244	-0.0946378092190472	-0.98572414148071	-0.0141360463823813	-0.0022952145589335
5.2	-0.0100585938454592	0.00799089497309538	-0.246968886625905	-0.959213613991768	-0.246476448237863	-0.959186994448976	-0.0138637046543366	-0.000895137061350658
5.3	-0.00819599478409066	0.00937608357593973	-0.392879769595329	-0.909290211138228	-0.392538807450453	-0.909506837666547	-0.01335334194787	0.000309019052896885
5.4	-0.00599072708595376	0.0107894067639777	-0.529490695729336	-0.837307245712047	-0.529277794447926	-0.83750839095281	-0.0130812207188579	0.00134961281742348
5.5	-0.00315109560973579	0.0118227143642566	-0.653131117038432	-0.744583433365609	-0.652892075475933	-0.744778582021031	-0.0129610096480652	0.0028127636573044
5.6	-0.000145401884273468	0.0117559692677178	-0.760445447920372	-0.63411142497554	-0.760255678491998	-0.634283575038315	-0.0121658858021225	0.00407477355336077
5.7	0.00208916755928029	0.0111543658498523	-0.849730351209801	-0.508376449033834	-0.849601035205919	-0.508596570374995	-0.011585428110707	0.0051641473694539
5.8	0.00406845529912965	0.0106154324077267	-0.918262131675051	-0.370081054659996	-0.918194410685778	-0.370366344204007	-0.0110215987864673	0.0062933133755833
5.9	0.00586853067833649	0.00980768264170186	-0.964446175308779	-0.222973714867677	-0.964460726507668	-0.223057400549143	-0.0106079217225686	0.00729566826984377
6	0.0079247655535538	0.0093057803023882	-0.987149130040447	-0.0707504620494786	-0.987029849486611	-0.0708086081673221	-0.0105090829372386	0.00896346678558627
6.1	0.0105699749600425	0.00739525621268645	-0.986206556539131	0.0832867882094529	-0.98607992860497	0.0831381511197096	-0.00901686685110452	0.0106859907830799
6.2	0.0119063771400163	0.00445522860846682	-0.961153647255562	0.235521421498988	-0.961140095155081	0.235318489619846	-0.00735808133354904	0.011262741387493
6.3	0.0119026915560863	0.0011766486196074	-0.912790571010092	0.381851802841011	-0.912786210444934	0.381666398643766	-0.00589944163319466	0.0110897414352341
6.4	0.0108615735800434	-0.00178344029658465	-0.842335936784657	0.518776287593591	-0.842304436669641	0.518565563461036	-0.00496167378178328	0.0103852730395776
6.5	0.00917697309131563	-0.00421958022019549	-0.751729260411784	0.643215036284126	-0.751753579332287	0.64301089980896	-0.00444292206135347	0.00973884850429099
6.6	0.00738439632001337	-0.00603799341760515	-0.642539030742777	0.752336265137374	-0.642613240289824	0.752084109832674	-0.00388257273197356	0.00927622516178613
6.7	0.00542070245216203	-0.00733964713804225	-0.517698940385804	0.842803354195234	-0.517802089370693	0.842582279090319	-0.00357523739177332	0.00887501300850057
6.8	0.00369313962636778	-0.00816266602418404	-0.380517250338121	0.912823840848485	-0.380659153129064	0.912653288815538	-0.00337136101681431	0.00877691989691114
6.9	0.00190514464057789	-0.00879406905274027	-0.23418908128261	0.96074474455031	-0.234415903806559	0.960634647878543	-0.00299272572018661	0.00889050541406026
7	0.000406390283696592	-0.00905240390771609	-0.081931882553054	0.98543565274251	-0.0821419120022718	0.985346209681081	-0.00229301063586315	0.00900907698599457
7.1	-0.00129835052889136	-0.00920758282397641	0.0721741495458117	0.985795866533049	0.0719719221188344	0.985663055666767	-0.00148153994662117	0.00896832276016254
7.2	-0.00284891516369298	-0.00889167895762605	0.22426132024206	0.962365626774373	0.223979236219184	0.962331652803052	-0.000491089891316544	0.00899953948699463
7.3	-0.00434862847475979	-0.00840909955976228	0.3708299002828	0.915699381524605	0.370594003854051	0.915726096063356	0.000580937297110729	0.00881014158266231
7.4	-0.0055476029365963	-0.00765820504946817	0.508492927192885	0.846781914568472	0.508279751907224	0.84683350172841	0.00150914158343798	0.00830780139387886
7.5	-0.00645814906002885	-0.00686520543884075	0.633489827320755	0.757058373622811	0.633320620211994	0.75712837549699	0.00249198567516512	0.00786677237204671
7.6	-0.00701496762907603	-0.00626400669693113	0.742882030353513	0.649539177638255	0.742624950443593	0.649622021036213	0.00376089313720876	0.00681723226009729
7.7	-0.00783528596401802	-0.00526540290421044	0.834461645440135	0.526366997328285	0.834276775280861	0.526584277184086	0.00445628771531973	0.00539709339659289
7.8	-0.00808045054882272	-0.00383667163949045	0.905941425989257	0.390315883316026	0.905838941671164	0.390541229758412	0.00483243394346744	0.00378726872841715
7.9	-0.00803003455174837	-0.00215588702877448	0.955238042453232	0.244964105830519	0.95510048223594	0.245143798492265	0.00451600643631706	0.00221742827727215
8	-0.00691438730857604	-5.53348254581514E-05	0.981167515652548	0.0940396497185835	0.981144854277682	0.0943020352554536	0.00312165616942956	0.00133073081528673
8.1	-0.00492712921251341	0.000857385423760765	0.984049686266584	-0.0592676642143097	0.984078859155303	-0.0590124207533413	0.00237140195076357	0.00118506850097123
8.2	-0.00335708021246582	0.000963418389685446	0.962693629596688	-0.211325115388818	0.962742254151859	-0.211008472321326	0.00144569147063105	0.000986741129502894
8.3	-0.00224288136396891	0.000936509939635388	0.917975527816367	-0.358012822160688	0.918027093465508	-0.357726106886222	0.000527098162427459	0.0011231495624302
8.4	-0.00129165778890462	0.000725824527621381	0.851188238910971	-0.495817752704512	0.851286028601708	-0.495616134582019	-0.000264444308482306	0.00126811504960418
8.5	-0.000696262463924781	0.00101899099701829	0.764221368415218	-0.621751734729112	0.764272755354489	-0.621601200900339	-0.00147227391118286	0.00179165561505463
8.6	0.00101792711682709	0.000939329548287755	0.658066312610944	-0.732892617838934	0.658234760528841	-0.732655865899998	-0.00176220501290895	0.0032800583393701
8.7	0.00218164350380403	0.000126238438785228	0.536137762978216	-0.825794190269217	0.536396750458011	-0.825579169410475	-0.00121214049296262	0.00455197795048419
8.8	0.00315366521826385	-0.000838117820680181	0.401652606557319	-0.898685351764032	0.401837693740694	-0.898546538818397	-0.000175336652039511	0.00534025668827113
8.9	0.00376854791624255	-0.00191767394951378	0.257535855480668	-0.950121896054533	0.257714756042401	-0.949952089078763	0.00141397297831309	0.00568597589415479
9	0.00443823491619108	-0.00292356306770963	0.10664385314891	-0.97846846304102	0.106951793576304	-0.978422100316943	0.00307997021281246	0.00552739015131165
9.1	0.00535893961939401	-0.00393083133964031	-0.0463259812599462	-0.982740892288536	-0.0460172966399695	-0.982700099877042	0.00517755715616096	0.00503632061642772
9.2	0.00645165327656852	-0.00508999927522912	-0.198163775131559	-0.963486211899451	-0.197816744970456	-0.963464043622129	0.00745024706746731	0.00374242853508122
9.3	0.00757107314013903	-0.00647307030121672	-0.345191305164372	-0.920991462207052	-0.344839935614129	-0.920966029086703	0.00950681551300596	0.00160868937994493
9.4	0.00836170555943452	-0.00836963477513102	-0.48388968125043	-0.856130462998394	-0.483567046399847	-0.856221265346719	0.0105205333196233	-0.00145683623576607
9.5	0.00872176682027896	-0.00992709142775372	-0.610452030910025	-0.770134758494895	-0.610215595320609	-0.770184996403206	0.0100967389840067	-0.0040125212797448
9.6	0.008470227525676	-0.0123623485847842	-0.722107477599151	-0.666183806171767	-0.721796517867455	-0.666322135659	0.00942212824476465	-0.00650682816304031
9.7	0.00704491083250559	-0.013679081102708	-0.816514749189323	-0.546161870835927	-0.816227738048398	-0.54639420834392	0.00750284147575845	-0.0090325265612984
9.8	0.00561449134998256	-0.0143446503678448	-0.891161362556086	-0.412898199273196	-0.890908518134767	-0.413066657076255	0.00470809060007457	-0.0109279160123961
9.9	0.00407151380243534	-0.0141432619881316	-0.944083179847417	-0.269665501996761	-0.943831287730835	-0.269873633054487	0.00117498644818152	-0.0121055256369792
10	0.00331082647319302	-0.0131477781836235	-0.974138935749055	-0.12046273254053	-0.973985186723099	-0.120823977675205	-0.00304640099916119	-0.0115320038633382
10.1	0.00327385232712703	-0.013149566847115	-0.981169634760039	0.0319373225927255	-0.981105631435275	0.0315068264407281	-0.00616639141611682	-0.00981601314867008
10.2	0.00251711525549113	-0.0133789169884452	-0.964356093576178	0.183690269814456	-0.964233837293368	0.183260169122212	-0.00886228779350739	-0.00775653763090511
10.3	0.00143062231881612	-0.0131326856821056	-0.924121352274993	0.330897332003007	-0.924137824792885	0.330356970515938	-0.011168663898057	-0.00537281080320447
10.4	0.000335720224799635	-0.0127714506240042	-0.861708231372523	0.46980632321543	-0.861843629996593	0.469295821157538	-0.012995081493873	-0.00285560345922558
10.5	-0.000471968226441962	-0.0114225396964612	-0.778931569033747	0.597900111733829	-0.779103454124475	0.597468430031446	-0.0143589203675871	0.000157345557706828
10.6	0.000144150686976306	-0.0107506286486455	-0.676517284317015	0.71164562672292	-0.676788849655865	0.711315803067933	-0.0142562053290897	0.00367942720649029
10.7	0.000784393103997422	-0.0109022428398483	-0.557864839810561	0.807810695680871	-0.558164516366152	0.807501491530225	-0.0128486963569093	0.00675478977571554
10.8	0.000989728240575254	-0.0118169218890688	-0.425901917392296	0.884373262481994	-0.426251646283091	0.884075130565415	-0.0108962826820364	0.00909651154292133
10.9	0.000489653480244901	-0.0125182071911048	-0.283821825822298	0.939831320168879	-0.284211229929527	0.939708041059509	-0.00881718470517117	0.0109705290963178
11	2.19571608805077E-05	-0.0132343031581462	-0.134230942858179	0.972615764709559	-0.134667159953476	0.972524846262185	-0.00615937645148683	0.0124593248997498
11.1	-0.000717302036832627	-0.0139121563552335	0.0181733335929026	0.981160467833627	0.0176855686566987	0.981173353662517	-0.00304024049295642	0.0131872873022123
11.2	-0.00165571443159793	-0.01460008295162	0.169881865242271	0.966509215321669	0.169425579551849	0.966581505428623	0.000335414807413714	0.0130512002524785
11.3	-0.00277981845376677	-0.0149958832074317	0.317622201375008	0.928640297676418	0.317163818521019	0.928775985088937	0.00373092443553811	0.0120603938287094
11.4	-0.00420110781837639	-0.0151752347857694	0.458017170153802	0.868170399626143	0.457613915492965	0.868282851441116	0.0065256347225921	0.0104270802766305
11.5	-0.00511497752272372	-0.0146930623817522	0.586794274363791	0.786117606020379	0.586476038801381	0.786418774668875	0.0087909813884252	0.00877325762021408
11.6	-0.00636734142466187	-0.0152405179312905	0.701232187014754	0.685984907096188	0.701016772117816	0.686311498767694	0.010851728972917	0.00636336888092936
11.7	-0.00839168727139437	-0.0147742051586562	0.799246473477958	0.569109044132686	0.799043111735721	0.569414531778069	0.0120266186136145	0.00349211172581285
11.8	-0.0105093423541201	-0.0136571659294921	0.877978987032402	0.438097112654792	0.877796717702591	0.438546648414301	0.0122002013080012	0.00038468787540838
11.9	-0.0123903388699142	-0.0113006507618387	0.935096313111473	0.296565084758917	0.934989887033642	0.297013787153654	0.0110770473541117	-0.00237908435097781
12	-0.0129526534748929	-0.00808821575924835	0.969648220074048	0.148647901542956	0.969618598870357	0.149011476194759	0.0093495661642823	-0.00410752637568539
12.1	-0.011912361492755	-0.00614677010024924	0.98136259921016	-0.00353017660378121	0.98129078769906	-0.00314631208854113	0.0082578759534971	-0.00543107952121937
12.2	-0.011505494028447	-0.00524177153439496	0.968998679331381	-0.155783084816471	0.969015400126911	-0.155485443646475	0.00669192432645133	-0.00699044433306964
12.3	-0.0113726810986411	-0.00435169770592831	0.933017870444966	-0.304068414203424	0.933136411356941	-0.303761847386203	0.00473560916049715	-0.00835002136095876
12.4	-0.011759570689962	-0.00358456993152308	0.87503291089092	-0.444883336380541	0.875094843961627	-0.444513892541569	0.00234255893395473	-0.00942422508040433
12.5	-0.0119596299213981	-0.00188982599328357	0.795958894685675	-0.575652528659351	0.796298041565205	-0.575261066638827	-0.00080216560512085	-0.00964068901803302
