# GHZ S RI R 50
0.2	-0.000377495273962443	3.4120650107748E-05	0.948468240542681	-0.30814497290113	0.948246107378739	-0.308119468919791	-0.000331549285262099	8.47720221916212E-05
0.3	-0.000368821636257428	0.000160134083334026	0.888313223125891	-0.451718514409233	0.888157178505658	-0.451623130015343	-0.000381183348827002	-3.16750257250477E-05
0.4	-7.93591725050737E-05	0.000194899169068452	0.80666135660902	-0.583782884418711	0.806673125284256	-0.583807984968141	-0.000236616312262445	-9.30766717931343E-05
0.5	-0.000139948483833661	-3.48772156072938E-05	0.705948155739047	-0.701714033772652	0.705793336952896	-0.701612615287636	-0.000274669339858913	-0.000331200422371594
0.6	-0.000320092279571111	0.000201793339534431	0.588129503574438	-0.802631352343115	0.588010428721556	-0.802469773028919	-0.000488842832272413	-0.000234404778110653
0.7	-0.000164140524341	0.000532381565900316	0.456052665266517	-0.883769317552067	0.456033963990149	-0.883656947867773	-0.000365850797544407	-0.000209319344603448
0.8	0.000189034719635067	0.000596727248279869	0.313164258787306	-0.943477183822278	0.313133003859055	-0.943287694716817	-0.000348503762241503	-0.000194000963464355
0.9	0.000592955536557294	0.00067799743446127	0.16293187348709	-0.980213604779203	0.162866950284931	-0.980121815289994	-0.000340261043763108	-0.000277204958928228
1	0.000933139803991406	-8.7127367258909E-05	0.00882202904378435	-0.99341631212001	0.00877045628058804	-0.993384882531497	-0.000454635885958812	-0.000765924547440806
1.1	0.000273895357756595	-0.000253930877800512	-0.145568536707321	-0.982481443745758	-0.145584224268164	-0.982351198494293	-0.00140170456131364	-0.000427133164535973
1.2	0.000323006657593959	-0.000602108761995504	-0.296295289575149	-0.947535632317778	-0.296219045142414	-0.947509600906254	-0.00118219973086602	0.000680109806277538
1.3	0.000419295302702146	-0.0016186433970873	-0.439559010910095	-0.889787507093913	-0.439536020965641	-0.88978090744213	0.000311060453881556	0.00184276170479876
1.4	0.000460077678140844	-0.00321111119770017	-0.571976694896469	-0.810699306225241	-0.571952565516615	-0.810677713169871	0.0024540096215068	0.00160952776126937
1.5	-0.000183158385516024	-0.00395128533376278	-0.690986890690901	-0.71173298911836	-0.690885317873972	-0.711648212081987	0.00387963458311096	0.000453711123858677
1.6	1.62081566193959E-05	-0.00389843866384134	-0.792507568713084	-0.595544356871483	-0.792433676064778	-0.595484473597418	0.00443707086905031	-0.000926266617020164
1.7	-2.51493700814418E-05	-0.00425497544855535	-0.874616950751655	-0.465919030284212	-0.874780941160606	-0.465404199422159	0.00415931100050837	-0.00252165551527916
1.8	-0.000517404620500208	-0.00454812787537164	-0.936319886269282	-0.324187671282783	-0.936208905153443	-0.324186272024568	0.0031612777422213	-0.00379752750722635
1.9	-0.00120310572665417	-0.00482297113892735	-0.974971515315157	-0.175356721870566	-0.975064352594092	-0.174870425526075	0.00192019919429952	-0.00466384573843451
2	-0.00289948722826697	-0.00465377962591654	-0.989709493441868	-0.0215129919388819	-0.989721414960231	-0.0214672795023149	0.000186662025714857	-0.00486393550819481
2.1	-0.00341389109807741	-0.00321940864237115	-0.98104123839618	0.131808560352212	-0.981079270823693	0.131845508154288	-0.000475651641652931	-0.00415820764776646
2.2	-0.00371933141805531	-0.00270086307025039	-0.948861829786344	0.282234551793139	-0.948787017583924	0.282297272091434	-0.000839093883833095	-0.00411801384157734
2.3	-0.00416741273524137	-0.00214203930709795	-0.893727212464781	0.425331599100733	-0.893346717755662	0.425843953504103	-0.00149050108863271	-0.00420654019887538
2.4	-0.00470392433004559	-0.00174806723154093	-0.816009485823067	0.559649961933883	-0.816274494330196	0.559065354094182	-0.00230248938160602	-0.00424897269440412
2.5	-0.00591797200159978	-0.00118534236110066	-0.719935928653393	0.678995338869299	-0.720147954419792	0.678486420463384	-0.00337584128465893	-0.00432711559769571
2.6	-0.00658001546612801	0.000848405153731425	-0.60647489778942	0.782403361715522	-0.606368633031402	0.782221263746584	-0.00371840518117136	-0.00326804454664342
2.7	-0.00596187201067927	0.00247464738555291	-0.477163730382624	0.867210811924692	-0.477611004726881	0.866803846655287	-0.0034364552888746	-0.00283430785014298
2.8	-0.00479707917425	0.00350724362857004	-0.338200179008772	0.930153665930597	-0.337534252885338	0.930313601237364	-0.00331314589676635	-0.00264863926732946
2.9	-0.00318323236598172	0.00396707748895391	-0.189512736605977	0.971437706567928	-0.189543707407818	0.971350433864237	-0.0028392939819113	-0.00217866160223734
3	-0.0016097435890853	0.00408647282880242	-0.0357614894528854	0.989626914671287	-0.0364612043639075	0.989466841804996	-0.00217043041981675	-0.00161451368921904
3.1	0.000362044601493844	0.00366307733012966	0.117065606944559	0.983048319487229	0.117655486326577	0.983031783592078	-0.00097936216401244	-0.00151383249946629
3.2	0.00162550737614273	0.00252407757934378	0.268580485429536	0.95279473669727	0.268525897019153	0.952734387731457	-0.000466110969117635	-0.00181774413500464
3.3	0.00267344113977841	0.00121550040866465	0.413246680446262	0.899666211611101	0.413109711091864	0.899651702742759	0.00016630383417016	-0.00210054970197534
3.4	0.00300157663204691	-0.000390666384351711	0.547963323860209	0.824888596528621	0.547800948837836	0.825006043194061	0.000747151081047496	-0.00284793846437251
3.5	0.00284667700359208	-0.00139668787344157	0.669557739274577	0.729701852091488	0.66947813622614	0.729740432555735	0.000954862911880876	-0.00323074408268905
3.6	0.00304596868009342	-0.00240150466290841	0.773833906057716	0.617426111955803	0.774075527360659	0.616978399766303	0.0015191662636443	-0.00397463820859279
3.7	0.00279726519516245	-0.00385212819848381	0.860611853667421	0.489551182272371	0.860493341862779	0.489693914265585	0.00146539746889935	-0.00493066487117774
3.8	0.00194216718828118	-0.00513315475664298	0.926112480114272	0.350707712115321	0.926170070129747	0.350328855102644	0.00106700598401128	-0.0057904143126525
3.9	0.000911796580389624	-0.00638617731757455	0.969588557798059	0.201469091487723	0.969348889446936	0.202135784329799	3.2697300097504E-05	-0.00684116936584964
4	-0.00131666519143144	-0.00694258543384254	0.988755001409205	0.0495239235867719	0.988715851734396	0.0496266318369456	-0.00127841308929103	-0.00711063252196849
4.1	-0.00256963357486529	-0.00657596195672585	0.985023660656394	-0.104066268356474	0.984838867759192	-0.103939643767041	-0.00169212236693701	-0.00715103893482936
4.2	-0.00401518928927337	-0.00660881787408943	0.956954799694011	-0.256480905131079	0.956988156432652	-0.255826957269849	-0.00236434913339821	-0.00780525187166073
4.3	-0.00558307680204013	-0.00660003965495282	0.905971382854439	-0.401414399403385	0.905835201989813	-0.401303582967038	-0.00344735027455523	-0.00859516243952605
4.4	-0.00745230366241028	-0.00637674797774697	0.832709640388708	-0.537064380569602	0.832544045076734	-0.536931431539035	-0.00495074895021587	-0.00929064006228215
4.5	-0.0100354092569761	-0.0058929630958145	0.739909884285028	-0.659709619114371	0.739720392857981	-0.65953692646346	-0.00714303933162592	-0.00962864339569629
4.6	-0.0123710471080527	-0.0036597709813073	0.62823492698784	-0.767674962535991	0.628575292899067	-0.766975013934932	-0.00895825344412233	-0.00900619070063936
4.7	-0.0137071708083854	-0.00143588158373372	0.501714314699736	-0.855863181609949	0.501729832117968	-0.855506692289586	-0.0105705356133649	-0.00869191207920359
4.8	-0.0146164928346835	0.00122035876100695	0.362517536758748	-0.92333820914017	0.362738649973455	-0.923020586900241	-0.0121602980432279	-0.00811526628790731
4.9	-0.0145723926040774	0.00377687279033285	0.215415727824906	-0.968116312773249	0.215195256775054	-0.968124740119953	-0.0134171372436498	-0.0072258753806606
5	-0.0139355298026896	0.00644908353637714	0.0621086757616258	-0.990489312665304	0.0622857900251235	-0.990242796271842	-0.0141631035140019	-0.00566771100609619
5.1	-0.0119266976909712	0.00866116355829092	-0.0927477520309708	-0.988078461153244	-0.0924155557950489	-0.987851845107646	-0.0141472435172299	-0.00425041887876273
5.2	-0.00970347131976643	0.0102234661521087	-0.24516785118174	-0.961697980227685	-0.24467450344838	-0.961670132999867	-0.0143156914678916	-0.00283766755322455
5.3	-0.00738949528767826	0.0110785749266116	-0.391582962444365	-0.912174462489134	-0.391240755434438	-0.912390752009771	-0.0141560386015088	-0.0013108870133634
5.4	-0.00538976335948539	0.0117051121290756	-0.528916393939849	-0.840560267854794	-0.528702516189661	-0.840761431050301	-0.0139874470861114	0.000195426011831821
5.5	-0.00363769507873785	0.0130346364717315	-0.653511228871188	-0.74767176895106	-0.653271221492635	-0.747867001901033	-0.013567701830119	0.00226990589331867
5.6	-9.19762300553117E-05	0.0138695583157337	-0.76117716392575	-0.636977197546556	-0.760986633810346	-0.637149432414277	-0.01207500841937	0.00331240365540343
5.7	0.00285785114694851	0.0131583775832629	-0.851036570654106	-0.511186089372131	-0.850906532930054	-0.511406553302304	-0.011510428227575	0.00407513553280006
5.8	0.005358601776443	0.0120801893098074	-0.920231631925989	-0.372611240823055	-0.920163257127082	-0.372897219198115	-0.0110398818826088	0.00517181145673841
5.9	0.00724113737738765	0.0100952274553775	-0.967002877995286	-0.224917929056037	-0.967017360720371	-0.225001881841221	-0.0106342104646782	0.00624729560163402
6	0.00761722694393362	0.00876575608363432	-0.989780548626488	-0.0721077980694961	-0.989660871542555	-0.0721659637680992	-0.0104535423316815	0.00825038006362845
6.1	0.00934190606860544	0.00799071325759057	-0.98928855224394	0.0822691252110047	-0.989161351147027	0.0821202025761154	-0.00817282290104955	0.00985624009151038
6.2	0.0106657473521444	0.0058893796008512	-0.964518513148972	0.235327311560955	-0.964504714086447	0.235123732436442	-0.00635602852534474	0.00978812443077302
6.3	0.0110475470338989	0.00324647116687977	-0.916063266213711	0.382495170541124	-0.916058765837652	0.382309156991964	-0.00514723377716677	0.00917563293975634
6.4	0.0106227587092109	0.000476512148882705	-0.845228580817735	0.520039826710464	-0.845196887261803	0.519828450812323	-0.00462623700716638	0.00833083450267696
6.5	0.00933559903516536	-0.00199302999989703	-0.754537025032585	0.644799842760067	-0.75456129356267	0.644595038200022	-0.00446369511092423	0.00783748780512842
6.6	0.00807184306550182	-0.00402351199200576	-0.645043096153013	0.754806096559134	-0.645117492099118	0.7545530256005	-0.00410599150674644	0.00757649933754708
6.7	0.00625355249436478	-0.00583314468121603	-0.519489868259763	0.845777656665265	-0.519593386201297	0.845555808785286	-0.00388960479095444	0.00750030848861157
6.8	0.00433087399250882	-0.00702200509766362	-0.381625390329615	0.916042726911796	-0.381767817839552	0.915871619907838	-0.00351559708165711	0.00768416783906923
6.9	0.00214747144120252	-0.00777974457204506	-0.234763027674446	0.964109329040168	-0.234990657827427	0.963998908150867	-0.00283319414762463	0.00785830801309777
7	0.000370610141863331	-0.00771637246546256	-0.0817625227082509	0.989266992297041	-0.0819734041679601	0.989177308410021	-0.00179119200937735	0.00787167971545432
7.1	-0.00117807706538201	-0.00772858106322568	0.0734790450600629	0.98936292601141	0.0732759304001373	0.989229837310027	-0.000822290793400469	0.00745240144859062
7.2	-0.00270794463035536	-0.00743111943725265	0.226236833275349	0.96548465002066	0.225953712296428	0.965450903361016	0.000123112684002789	0.00717880392865486
7.3	-0.00424336586998366	-0.00694369965661652	0.37338793582598	0.918400511250385	0.373151249014433	0.918427643506824	0.00107695872654175	0.006703039383372
7.4	-0.00555439485433828	-0.00617971806813339	0.511714927714901	0.849048819605747	0.511501058318071	0.849100939192533	0.00173977608969984	0.0059515073007122
7.5	-0.00675258980431874	-0.00504652032936964	0.637479307240634	0.758282180475832	0.637309661685549	0.758352820284156	0.00242395400696458	0.00544436545650308
7.6	-0.00686312206286801	-0.00389252895780392	0.746752893714465	0.649730586176753	0.74649522361618	0.649814311027959	0.00349587308719246	0.00423328851580492
7.7	-0.00704654659424823	-0.00296532929631312	0.838281653167265	0.525816378458204	0.838096784035726	0.526034774314558	0.00363885315709425	0.00279954746655398
7.8	-0.00684663537269289	-0.00203903604931771	0.909651302529826	0.388923175774192	0.90954914901146	0.389149460044839	0.00354811248788473	0.00157806952082713
7.9	-0.00681626277918917	-0.00139518705154061	0.958606165939763	0.242564207814008	0.958468809823377	0.242744827317586	0.00302815237814291	0.000761478046017045
8	-0.00736383889885101	8.85770486145183E-05	0.983489122924376	0.0909309524687605	0.98346729796032	0.0911939504819525	0.00189596905560399	0.000815557673450837
8.1	-0.00613450527849856	0.00225831262008702	0.985787539181993	-0.0625406112398119	0.985817588043369	-0.0622849612866718	0.0024627722961553	0.00107184261677057
8.2	-0.00432361965780953	0.00324159230558594	0.96374620828736	-0.215001384083998	0.963796003531425	-0.214684323510676	0.00237739800027777	0.000380251949577662
8.3	-0.0026266184973298	0.00370573971891247	0.918110012552722	-0.361894347426814	0.918162696628195	-0.361607371996839	0.00189036365774561	-0.000134719938983528
8.4	-0.000825234870914659	0.00331653220023716	0.850292815537265	-0.499507532682517	0.850391457597927	-0.499306054054294	0.00116868727034391	-0.000688692247013185
8.5	-0.000614008924736709	0.00262007313162276	0.762870595124768	-0.624858068064193	0.762922528094423	-0.624707564943078	-0.000362400658117231	-0.0005446271579366
8.6	0.000405215189671564	0.00333960533703745	0.656170736033776	-0.736000271601657	0.65634020087744	-0.735763864554009	-0.000439257796819463	0.000658214407304996
8.7	0.00197882078099562	0.00331961716977706	0.533462576996358	-0.82845946158344	0.533722576290536	-0.82824524264733	-0.000141780342541332	0.00112956116153028
8.8	0.00381580160355733	0.00281051763832898	0.398419164048005	-0.900643791097562	0.398604868327295	-0.900505617384462	9.54473762212681E-05	0.00142285545092204
8.9	0.00563533397662337	0.00157224759227224	0.254097849112574	-0.951302321338161	0.254277418931985	-0.951133132149428	0.000721928504187454	0.00180113425352189
9	0.00697327787634324	-0.000397173491314847	0.102948817576239	-0.979296469526567	0.103257067527431	-0.979251264196388	0.00164319006868519	0.00221017545924811
9.1	0.00812780831055953	-0.00226889520701675	-0.0504728871888102	-0.982501150785611	-0.0501640442211336	-0.982461663429735	0.00349808752042394	0.00233663755094089
9.2	0.00888926806477752	-0.00453685470544579	-0.20207057470833	-0.962190329931733	-0.201723622563236	-0.962169614675763	0.00562443611494618	0.00167883668528838
9.3	0.00903490280545338	-0.00662366929916875	-0.348646919556925	-0.918915637975103	-0.348295708633267	-0.918891639995439	0.00790914861211172	0.000252486875220974
9.4	0.00850579796985466	-0.00888625587599387	-0.486939851735482	-0.853521365856322	-0.486617833389241	-0.853613389415968	0.00952691215337568	-0.00235570192391218
9.5	0.00702826674792387	-0.00918973494149521	-0.613189778277908	-0.766551769928618	-0.612953832521719	-0.766603002925108	0.0099786660618779	-0.00468688519733395
9.6	0.00733476117211403	-0.00982832860996885	-0.723643575525313	-0.661943214445965	-0.723333754030936	-0.662082614253072	0.0100356774450152	-0.00808377683637636
9.7	0.00683974638715241	-0.0107266224803069	-0.817071156683908	-0.541774081588554	-0.816785658917126	-0.542007107506129	0.00777001339826565	-0.011269975320718
9.8	0.0062160014567088	-0.0115370384883503	-0.890823752455802	-0.408437156717654	-0.890572139558556	-0.408606245853005	0.00451204499139132	-0.0132538012182638
9.9	0.00513507812789274	-0.0123205223876618	-0.942773358215057	-0.265106400207973	-0.942522963406105	-0.2653150312876	0.000671528225228924	-0.0140906739523947
10	0.00295340179512822	-0.0118943605689563	-0.971319453510411	-0.116288444094211	-0.971167620366686	-0.11664906569462	-0.00342890891401423	-0.0127986938973443
10.1	0.00279932744728942	-0.0105971266308201	-0.977627390266804	0.0350763927311336	-0.977565037509645	0.0346471922278144	-0.00567345942799693	-0.0112191417832652
10.2	0.00283016356485671	-0.0104955929947804	-0.960244235323503	0.186049546526203	-0.960123779603605	0.18562063762338	-0.00838756054697993	-0.00966690624379026
10.3	0.002526113261182	-0.0105023964797417	-0.919471775088462	0.332322662867508	-0.91948978383068	0.331784495466827	-0.0110106226724858	-0.00733346190165872
10.4	0.00206107082727716	-0.0110912047082043	-0.856645433912163	0.469992457375298	-0.856781577192453	0.469484577961759	-0.0130209565339499	-0.00447911449408763
10.5	0.000645793724777771	-0.0112012041362698	-0.7743211566514	0.596595885204423	-0.77449304184363	0.596166470716141	-0.0141237511869686	-0.000866927803989628
10.6	1.6438788950945E-05	-0.0106302836815978	-0.672435447802555	0.709721056666807	-0.672706397841239	0.709393097715491	-0.0132302453918404	0.00276826017166974
10.7	-0.000239970678271465	-0.0102630765499596	-0.554166404436144	0.805084059818782	-0.554465225059665	0.804776680262378	-0.0113308488657668	0.00541522861433997
10.8	-0.000428585088269092	-0.0104503583231422	-0.422849809644768	0.880832144847155	-0.423198298511839	0.880535816454046	-0.00913685226731494	0.00720525901433579
10.9	-0.000976580435993019	-0.0105214479837658	-0.281794600787659	0.935667855593241	-0.282182284095683	0.935545442855366	-0.00704787342703575	0.00856748224975146
11	-0.00151442752382244	-0.0105317364441955	-0.133060241495597	0.968576579124	-0.133494666047188	0.968486315899167	-0.00442213625813943	0.00962457289211563
11.1	-0.00176409764089892	-0.0105848825385353	0.018826319455548	0.976685470722997	0.0183407820501546	0.976698663648498	-0.00151116841111677	0.0097226332932627
11.2	-0.00216035228688225	-0.0110335654515793	0.169463632165765	0.96180232330196	0.169009565322454	0.961874453914285	0.00133249619512819	0.00918053467761643
11.3	-0.00281069583968399	-0.0114723216260595	0.316094155304895	0.924126578667305	0.31563800012572	0.924261614242182	0.00413634262656295	0.00804463105671761
11.4	-0.00405879530811566	-0.0121158692357226	0.455653651990261	0.864224825359532	0.455252255480029	0.864336648588916	0.00642847432601816	0.00655841845550576
11.5	-0.00564819893598613	-0.0112513795782392	0.58391355458122	0.782319850211104	0.583596854032338	0.782619543548506	0.00865086685036537	0.0052810892317191
11.6	-0.0060203921344885	-0.0109061470560587	0.697120911225628	0.682758255394341	0.696906447919803	0.683082992599542	0.0107077332117029	0.00246440327533163
11.7	-0.00691585022928771	-0.0106959764104738	0.794426326572252	0.566978327216532	0.794223704715371	0.567281987820548	0.0111797023966837	-0.000519127177199933
11.8	-0.00814645895787583	-0.0105380926641289	0.872823916458914	0.437077660669042	0.872641951962496	0.437524616513461	0.0106857126965946	-0.00321727483802885
11.9	-0.0097712902378999	-0.0101549311830878	0.929762855078885	0.296466258894465	0.929656289389238	0.29691245757457	0.00920900980073716	-0.00511308537339717
12	-0.0128059636289194	-0.0083389673074993	0.963846474236131	0.149831097356393	0.963816261477228	0.150192551153514	0.00756372856110615	-0.00554909118238685
12.1	-0.0133328014114455	-0.00528123326277734	0.976166676098848	-0.000688966924312314	0.976094141505754	-0.000307345321183	0.00755500348053075	-0.00642892233504054
12.2	-0.0134083131820013	-0.00315626027731455	0.96468034881141	-0.151929478036938	0.964696040547748	-0.151633262238367	0.00662557361808049	-0.00787944844414686
12.3	-0.0129709501273653	-0.00116420639009753	0.929588265562459	-0.299429297596564	0.9297051929655	-0.299123794093007	0.00543916323633119	-0.0091941079797815
12.4	-0.0124218563461845	-0.000142503645494739	0.872491138734855	-0.439458687488037	0.872551387392002	-0.439090789241335	0.00379987172878723	-0.0106247945929516
12.5	-0.012856136593932	0.000936038689876852	0.795059075702001	-0.569477533735494	0.795394937608558	-0.569086258912561	0.00108881542751572	-0.0112732518794008
