# GHZ S RI R 50
0.2	-0.000329276673754918	-0.000373842124636869	0.949833845082367	-0.307729003060466	0.949611430345261	-0.307703651258213	-0.000272737357089868	-0.0003346257993785
0.3	-0.000591227268352235	-0.000272144935975655	0.890105762863892	-0.451483619974305	0.889949386914286	-0.451388252848712	-0.000589981304832786	-0.000489745820090415
0.4	-0.000623486212164391	-7.09357891327337E-05	0.808887006487398	-0.584009808030669	0.808898826296441	-0.584034944135014	-0.000771495803459234	-0.000398678193100285
0.5	-0.000555989267074719	0.000234672734358827	0.708131726622036	-0.702794779524653	0.707976469697306	-0.702693245827439	-0.000684436268948215	-0.000103579108719876
0.6	-0.000440628529489113	0.00017663210975053	0.590045220704201	-0.803947386010719	0.58992575868727	-0.803785542286271	-0.00059097813035544	-0.000314592613833138
0.7	-0.000491904410061839	0.000425525483735715	0.457950554656948	-0.885564081896873	0.457931709430933	-0.885451449901078	-0.000676398237357566	-0.000398977694821932
0.8	-0.000276013813619621	0.000526887756720029	0.314761299157555	-0.945886091719027	0.314729812236359	-0.945696094716287	-0.000815073977420238	-0.000373882620761685
0.9	-0.000202021396103991	0.000694055126593911	0.163857488709716	-0.983119069202729	0.163792327957038	-0.983027029464226	-0.00118100181386212	-0.000389630516353268
1	0.000215462804249357	0.00101046188950674	0.00911027068972189	-0.996143526119431	0.00905854783617604	-0.996112023867346	-0.00128542841157041	0.000243887997957097
1.1	0.00100098783896053	0.000331182286309879	-0.145427478755856	-0.985567144373783	-0.145443291826296	-0.985436510889686	-0.000780395047819749	0.000147534964245155
1.2	0.00124616099019904	-0.00123919553679337	-0.296963250486211	-0.950900878550803	-0.296886753709012	-0.950874729510192	-0.000310001975036707	7.64949638626836E-05
1.3	0.00105842453185606	-0.00351668157480512	-0.441074651641595	-0.893008696183168	-0.441051579708185	-0.893002071278866	0.000975093141423742	-4.01193655444432E-06
1.4	0.000286168484825833	-0.00560109367797645	-0.574089710044424	-0.813467935605566	-0.574065493193636	-0.813446269961815	0.00237320555292634	-0.000770662004015852
1.5	-0.000278865162556056	-0.00640271186075884	-0.693382442024498	-0.714515006122363	-0.693280512705721	-0.714429893429186	0.00395054415857248	-0.00208056301671597
1.6	-0.0014077043462681	-0.00626440300260185	-0.796137009078853	-0.597989183640802	-0.796062777049855	-0.597929053179765	0.00315616768387169	-0.00350329876655994
1.7	-0.00178706908252207	-0.0053407889748642	-0.878877894775162	-0.467332816953841	-0.879042225002141	-0.466815561981142	0.00243626719942499	-0.00388965692298978
1.8	-0.00212208733076136	-0.00472204125523856	-0.940821126976524	-0.32464335572909	-0.940709651295054	-0.324642066937176	0.00149991958146703	-0.0042475489751632
1.9	-0.00235874730296744	-0.00397269240167622	-0.979604695046508	-0.175074567908663	-0.97969741607893	-0.174585954633063	0.000644867193974319	-0.00401950222365806
2	-0.00219541449151859	-0.00382100808764815	-0.994976330001652	-0.0200962714148603	-0.994988243882692	-0.0200502987561729	0.000828366847277579	-0.00415325413175799
2.1	-0.00318149820362749	-0.00377370045765319	-0.985650584069253	0.134975650807324	-0.985688713952827	0.135012881926497	-0.000255025074321936	-0.00489988702901414
2.2	-0.0040302695049051	-0.00303462051970884	-0.952569235901776	0.286274563856105	-0.952493889717393	0.286337369526441	-0.00121263269751435	-0.00467970588321711
2.3	-0.00461308421157198	-0.00221403333869221	-0.896624672044244	0.430110255588987	-0.896240793049209	0.430623847184993	-0.00206831454727933	-0.00448807311578205
2.4	-0.00521001395859587	-0.00131789739047483	-0.818034432970972	0.565286201739667	-0.818302812037507	0.564699661947792	-0.00299922827460648	-0.00393855922120813
2.5	-0.00509422851112789	-0.000376162010846581	-0.720101892718744	0.685500732678034	-0.720317275903088	0.684990446376894	-0.00268538038346273	-0.00348102762594511
2.6	-0.00558125733487026	-1.44754071744789E-05	-0.605070818824943	0.788227093905102	-0.604965012754921	0.78804380538376	-0.00266981927842615	-0.00407371691064673
2.7	-0.00582873439465265	0.00108130668826187	-0.474746319514175	0.872690686779263	-0.475197193691079	0.872284377459755	-0.00315887905984528	-0.0042645145573347
2.8	-0.00532292266203471	0.00216576719733679	-0.334575896015107	0.935222330878617	-0.333906767777616	0.935379378700299	-0.00368337654414243	-0.00412813815819806
2.9	-0.00399451142996838	0.0028883895654222	-0.184450741677321	0.97565443391934	-0.184482320953207	0.975567062469643	-0.00352616525351704	-0.00343915255546792
3	-0.00257344100192864	0.00292742027224966	-0.0299607926160529	0.991907598626917	-0.0306629203369767	0.99175134542734	-0.00301956066194133	-0.0030125752975475
3.1	-0.00118576569365905	0.00292536823603194	0.122733196818639	0.984514635926881	0.123324251973135	0.98449481454059	-0.00247149474061488	-0.0026154861913606
3.2	0.000133851453460373	0.00233213929011176	0.274741067365793	0.953194277818681	0.274686010702228	0.953134124511193	-0.00198098338667333	-0.00232309698939488
3.3	0.00133488236072938	0.00145300156213595	0.419539147492307	0.898583676212856	0.419401860440373	0.898569996868044	-0.00123842093452812	-0.00214122230524208
3.4	0.00213334910684315	0.00028729341435492	0.553687898427144	0.822210808675409	0.55352611099382	0.822329391260256	-0.00018658687409668	-0.0023936226907646
3.5	0.0026460127182857	-0.00130052887053284	0.674224290097246	0.726540962170395	0.674144837855805	0.726580022963332	0.000769136496308448	-0.00337039281683367
3.6	0.00213442229433188	-0.0024085161950045	0.778585543527636	0.613348311480183	0.778824668825777	0.61289856842711	0.000609233611303741	-0.00430183777995089
3.7	0.00191121195262274	-0.00336592218765197	0.864430224149744	0.484148891103624	0.864312583892442	0.484292504530128	0.000511885316223496	-0.00477868598153391
3.8	0.00127050877676469	-0.00434713619155004	0.928573335569283	0.344524447718214	0.928628386437675	0.344145161051615	0.000270364137801224	-0.00530325797578409
3.9	0.000661095231548315	-0.00516577966872774	0.970725837302503	0.19514582397174	0.970490534515132	0.195813954719886	-0.000367924813672394	-0.00582388727341083
4	-0.000274777161477072	-0.00623600640782076	0.989352654704142	0.0426996171314123	0.98931420513449	0.0428026226045925	-0.000271154386516114	-0.00650663312605407
4.1	-0.0022299753257719	-0.00699135825724795	0.983506035461006	-0.111594383664658	0.983322354009404	-0.11146642444765	-0.00126683888072578	-0.0077515741677515
4.2	-0.00427104312672218	-0.00686510666917679	0.953552565837358	-0.263344888599827	0.953590829363635	-0.262692189853073	-0.00253292323056813	-0.00833698267101469
4.3	-0.00613570340213441	-0.00657723152292436	0.901217382179652	-0.407349252386887	0.901082290422801	-0.407237642797033	-0.00395391146523848	-0.00889185719095802
4.4	-0.008141692799796	-0.00571896160793835	0.826920452188035	-0.542197383059447	0.826756204758239	-0.542063468228345	-0.00565929281473791	-0.00894062591896823
4.5	-0.00955698191313769	-0.00478611869693189	0.732182866319442	-0.663906562119566	0.731995385015844	-0.663732805852619	-0.00666649756674622	-0.00871959754091045
4.6	-0.0117560332085457	-0.00371688666773858	0.619678063091173	-0.769205880292489	0.620022332836056	-0.76851152445311	-0.00821181938215642	-0.00926395829950652
4.7	-0.0136256518531385	-0.00175054249615767	0.493276915413441	-0.855516786383986	0.493294914051534	-0.85516204883564	-0.0103018110547792	-0.00929876241117254
4.8	-0.0149116782884282	0.00097102433977662	0.354243895583713	-0.921314724756902	0.354466144124829	-0.921000225636488	-0.0122660552425318	-0.00875444662096872
4.9	-0.0150421275007432	0.00382718114748562	0.207283579664604	-0.964225574617354	0.207064285223524	-0.96423237795971	-0.0137487757362196	-0.00762994882227167
5	-0.0142652475958872	0.00647655840586806	0.0553168875358876	-0.983920991477331	0.0554943376594663	-0.983677345357013	-0.0143842845294754	-0.00614174851067662
5.1	-0.0126083321903151	0.00895173602616646	-0.0973726694763427	-0.980777537863256	-0.0970415544592236	-0.980554252689961	-0.0148291381056254	-0.00456286011661995
5.2	-0.010083126001845	0.0109706494313961	-0.248393338429745	-0.953690930101376	-0.247903308340567	-0.953665815161924	-0.0148718207729808	-0.00265865133420494
5.3	-0.00723059226150023	0.0119740977439746	-0.393089319338997	-0.903425095725038	-0.392750732700469	-0.903641429926163	-0.0142803503120503	-0.000830781635621569
5.4	-0.00436909353106219	0.0125226265527665	-0.528107510407136	-0.831404591901405	-0.527896243312269	-0.831605000857118	-0.0132038687718189	0.000814125512855963
5.5	-0.00206484462648003	0.011993640199787	-0.650376966448796	-0.739806465563663	-0.650139442662288	-0.740000809347287	-0.0119677796629639	0.00106141646095958
5.6	-0.00034741801119623	0.012631415339128	-0.757312642821435	-0.629812935822142	-0.757124087322639	-0.629984437094809	-0.0122693246866949	0.00172130293857176
5.7	0.00227702006487245	0.0126703571801835	-0.845597602413821	-0.504597812243465	-0.845469252116771	-0.504816860264676	-0.0121263997576908	0.00319017568717939
5.8	0.00485090689296026	0.0120613929119339	-0.913218627159893	-0.367344157289591	-0.913151484401444	-0.367627848650133	-0.0116491366669496	0.00482402819839029
5.9	0.00725949130759195	0.0106826502436658	-0.959022847125822	-0.22171703057451	-0.959037316775578	-0.221800245481073	-0.0107089591648373	0.00667849649317189
6	0.0091654899593553	0.00811288216742003	-0.982177780359389	-0.0702502998222114	-0.982059110198779	-0.0703081696744289	-0.00870975246633321	0.00760693550073142
6.1	0.00903135017355665	0.00594851850162228	-0.980610787163665	0.0830072440639035	-0.98048490451017	0.0828594233830086	-0.007983624493726	0.00759782174993538
6.2	0.00907428433331939	0.00460326105986417	-0.955621080145596	0.233791683167171	-0.955607532756842	0.233589942677561	-0.00741555127753917	0.0080017974145352
6.3	0.00905876398281285	0.00297279221954423	-0.907857900878933	0.378903833967246	-0.907853412480929	0.378719499261616	-0.00671303291335792	0.00820106657757408
6.4	0.00893534478583831	0.00115940390816941	-0.83821866085733	0.515125486038183	-0.83818713110548	0.51491594670606	-0.00607190376124475	0.00824015131373015
6.5	0.00839390808474108	-0.00114824355174914	-0.747668811610366	0.638772265018025	-0.747692831883148	0.638569343046999	-0.00527735774696175	0.00791664248450778
6.6	0.00747517026681536	-0.00316824059753643	-0.639783659948921	0.746404049769033	-0.639856949026018	0.746153368425575	-0.00471253809497121	0.00768427044794467
6.7	0.00604943548145176	-0.00519039393761178	-0.516524609099622	0.836489894871219	-0.516626618017934	0.836269919323073	-0.00418113194638076	0.00750679814592463
6.8	0.00422541388598145	-0.00664463351463609	-0.380648609303095	0.906474893141615	-0.380789236263852	0.906304975119187	-0.00368226787120904	0.00751721504529584
6.9	0.00214264308433394	-0.00756243270780068	-0.235398150935345	0.954310640323503	-0.235623304851648	0.954200588798311	-0.00284447985810738	0.00756502792338782
7	0.000108191143604446	-0.00786904542580466	-0.0851254869044697	0.978740693795753	-0.0853338173474646	0.978651036478927	-0.00200260200656274	0.00712765888427269
7.1	-0.00169786456490402	-0.00753742851436848	0.0672768417002362	0.980575685977992	0.0670763576556308	0.980442701373947	-0.00134023915957377	0.00698751588510022
7.2	-0.00310436601795743	-0.00706500338020592	0.218518408311366	0.958381652376939	0.218237965164259	0.958346518085012	-0.000313699336880313	0.00686874727973771
7.3	-0.00454065168163489	-0.00647627373487634	0.364296706820214	0.912919573167903	0.364061875615591	0.91294495496259	0.000696803659281497	0.00647536642362267
7.4	-0.00560124591098228	-0.00557791951879169	0.50107249666417	0.845463913664339	0.500860092898019	0.845514015765029	0.00154528972082234	0.00587366756627448
7.5	-0.00655564296944373	-0.00481772330727664	0.625976486093827	0.758314786882734	0.625807474512787	0.758383389266399	0.00246657655025661	0.00496660738492389
7.6	-0.00713911491619695	-0.00347638995864249	0.736509569016974	0.652077040779391	0.736252791170953	0.652158031187322	0.00300785968959539	0.00381251768898829
7.7	-0.00700712156338234	-0.00213372742074402	0.828615682395616	0.529977944526496	0.828430018263451	0.530193403031187	0.00326651022623384	0.00288107814367258
7.8	-0.00633928886220162	-0.00108348744151963	0.900844193270124	0.395220836327709	0.9007405038691	0.395444879191318	0.00351366755342599	0.00196437916389668
7.9	-0.00554834437147783	-0.000386862277719163	0.951514541507638	0.251210398025734	0.951375996925672	0.251388743171149	0.00380688003736815	0.00136192737807612
8	-0.00474534115759875	-0.000639489374217942	0.979455840689071	0.100282934343528	0.979431506923548	0.100544878229197	0.00435497228524562	0.000172952348500601
8.1	-0.00540340870292638	2.55617121477917E-05	0.98296461165352	-0.0529319066174931	0.982992120670023	-0.0526768569888246	0.00337374024338564	-0.00134985098694645
8.2	-0.00498482983038371	0.00136818531551002	0.962974067032688	-0.204535323432658	0.963020483371229	-0.204218729914052	0.00202284165033849	-0.00190595388223137
8.3	-0.00419309944044528	0.00254651177984459	0.919955229533304	-0.351370683562848	0.920004755409462	-0.351083772363804	0.00062855796008996	-0.00191304989954555
8.4	-0.00283374496865628	0.00356957106098237	0.854681129132066	-0.490170232186901	0.854777577609722	-0.489967919149524	-0.00066380521951738	-0.00117575339207307
8.5	-0.000949162191108831	0.00361477404151546	0.767954461070305	-0.616907961295401	0.768004905522282	-0.61675713321543	-0.000530325161107151	-0.000181729632653853
8.6	-0.000192110459714254	0.00330153342672402	0.663218252527604	-0.728306528663044	0.663385047644637	-0.728068590027698	-0.000687968751536854	-0.000190236456199079
8.7	0.000931450307752459	0.00366918253177829	0.542425071751061	-0.822634911353429	0.54268273543122	-0.822417881807155	-0.000948863230018325	0.000357422098502934
8.8	0.00275410419616621	0.00366980731293894	0.408361829011971	-0.897133210728467	0.408546211400651	-0.896992940745078	-0.00102196462539047	0.000970767239737239
8.9	0.00488810970959908	0.00310362551756021	0.264051289168677	-0.949800177586911	0.264229343805592	-0.949628972008348	-0.000485365449873789	0.0020399992718218
9	0.00743311206562906	0.00125679656213887	0.113820255820601	-0.978944669912407	0.114128254008043	-0.978896032385021	0.00136627923400685	0.00284143320187549
9.1	0.00914660190091266	-0.00131162230575371	-0.039269796482801	-0.985487621625398	-0.0389606528691804	-0.985444477161614	0.00367011900143582	0.00255000873350536
9.2	0.0102151052550085	-0.00442363941487188	-0.192084993120413	-0.967659524215214	-0.191737105968993	-0.967634894171315	0.00613621300267192	0.00137152586013526
9.3	0.00995355030443031	-0.00726567671097288	-0.340038130685541	-0.926199769851389	-0.339685836942309	-0.926171880523308	0.00823050202753895	-0.00055056215515557
9.4	0.00923558139930867	-0.00942747251295615	-0.479406092076386	-0.862376143912279	-0.479081752917356	-0.862464955827371	0.00997687742200619	-0.00290696594430517
9.5	0.00749660684391616	-0.0111981634527289	-0.607570099108734	-0.778321342909095	-0.607332175149084	-0.778370050519799	0.0106583834822174	-0.00685529999653962
9.6	0.00600993680842577	-0.0109993636701568	-0.721765484348004	-0.67441827294981	-0.721451952073439	-0.674555364400075	0.00899307550621139	-0.00989078109691827
9.7	0.00560109748866989	-0.0108245750610216	-0.81781513515381	-0.554123632331346	-0.817525120727991	-0.55435555035059	0.00661441967805494	-0.0122199151464413
9.8	0.0052685304904996	-0.0109979179504826	-0.894085579108607	-0.420590891589879	-0.893830232921202	-0.420758878910572	0.00342586478287114	-0.01359647567887
9.9	0.00503699904040398	-0.011028834362785	-0.949028656365599	-0.276918173650957	-0.948773843042827	-0.277126294368196	0.000265070141182003	-0.0135360307892321
10	0.0044354072507743	-0.0121856393931917	-0.981178045235417	-0.125569952089497	-0.981021556332772	-0.125933340259367	-0.00204873449359971	-0.013594127004142
10.1	0.00257505716850019	-0.0116732268700597	-0.988374475625675	0.028587395940053	-0.988308438898217	0.0281540232978309	-0.00584975664118193	-0.0130410667859588
10.2	0.002143766450937	-0.0108724748535973	-0.972171391436229	0.181738272108842	-0.972046743784577	0.181305388789688	-0.00921179809927987	-0.0109354512114298
10.3	0.00195551922046327	-0.0104079795926363	-0.932378100429882	0.330788621705627	-0.932393114197015	0.330243952678689	-0.0119681144149801	-0.00807305495366307
10.4	0.00200069683115185	-0.0106266663398886	-0.869722673662913	0.47204658378431	-0.869858218595596	0.471531606037274	-0.0136636571758981	-0.00456822050281215
10.5	0.00170372705281595	-0.0116737276721773	-0.785138289463085	0.601507215805555	-0.78531101724665	0.601072243484895	-0.0134614099855209	-0.00148225515283454
10.6	0.000116914625937399	-0.012476544018987	-0.682407873762757	0.715750039586773	-0.682680900040137	0.715417454755466	-0.0132086880516869	0.000852767107471036
10.7	-0.00153384433756015	-0.0120411047583148	-0.563052576655017	0.81332861967245	-0.563354182067237	0.813016711020672	-0.0124692170657944	0.0034840408353876
10.8	-0.00247643798194134	-0.0113205086862546	-0.429655309916531	0.89110994143212	-0.430007642146922	0.890809307928099	-0.0108874918593311	0.00604757940226809
10.9	-0.00300352130287497	-0.0105557266324513	-0.285654620477562	0.946917370871924	-0.286046962197633	0.946793289996106	-0.00859359444358401	0.00808709018999019
11	-0.00333149616521374	-0.0103480716127745	-0.135432056647782	0.979441013639329	-0.135871326740835	0.979349339769657	-0.00572269746679336	0.00914644149708246
11.1	-0.00353670825392659	-0.00982937212995991	0.0185016053117896	0.988984730660275	0.0180099514228003	0.988997810332555	-0.00284692569697151	0.00963249950737158
11.2	-0.00353482936215884	-0.00988121688799684	0.172244734308	0.974051212032719	0.171784879810698	0.974124554436493	0.00028822775061256	0.00937548988371026
11.3	-0.00364768412441325	-0.0100154730548033	0.321538522980359	0.935258213595989	0.321076839858418	0.935395672319404	0.00345517825106848	0.00859675501572481
11.4	-0.00394520382727196	-0.0105202422907048	0.462711029139731	0.873834516950197	0.462304989427699	0.87394841337067	0.00665174572779282	0.00733188208181974
11.5	-0.00522353216650501	-0.0111092480143844	0.593016472040056	0.791754501808804	0.592696059260363	0.792058723689109	0.00936066965042359	0.00448715428997984
11.6	-0.00662572604700881	-0.0103297843338182	0.709184450355756	0.689486195462446	0.708968267632764	0.689816166369461	0.0103191801823305	0.00181299303180077
11.7	-0.00711390401706534	-0.00947531721841039	0.807517965036146	0.570608091580095	0.807314140143041	0.570916689126872	0.0109021270902987	-0.000577924910702922
11.8	-0.00766722661599616	-0.00904187225469684	0.88626316444333	0.437993955192344	0.886081263579505	0.438447570114842	0.0108172912368244	-0.00281234376112629
11.9	-0.00777253463165302	-0.0086790557762372	0.943652976294699	0.29507419162229	0.943547547468862	0.29552685329794	0.0106685934457265	-0.0043465852269095
12	-0.00956439884756436	-0.00937266127809154	0.978292422393827	0.144207104612515	0.978264675853347	0.144573768700449	0.0107619909560749	-0.00691252936878538
12.1	-0.0121212562310719	-0.00799996422494839	0.988023400935516	-0.00978034158773084	0.987953535750478	-0.00939340733354971	0.00908840800128563	-0.00967862710983455
12.2	-0.013738756034533	-0.00591584989249856	0.974233738394929	-0.163154074504156	0.97425252221596	-0.162854620842637	0.00676896174128343	-0.0113674746562269
12.3	-0.0146781932334896	-0.00343344831866792	0.936700753070864	-0.312595659259838	0.936822212461036	-0.312288014589424	0.0042462089359357	-0.0124040906385879
12.4	-0.0149439540154177	-0.00093434547768481	0.87659388989608	-0.454676932039014	0.876659210156634	-0.454305800192082	0.00170062166285602	-0.0125017792010983
12.5	-0.0142682302744468	0.000728468081575348	0.794100424556787	-0.585081382043946	0.794444437952979	-0.584691331989246	0.000142935113785312	-0.0125606049179211
