# GHZ S RI R 50
0.2	-0.000189996024463864	-0.000300076973982238	0.949824633948447	-0.307831672978669	0.949602216666389	-0.307806298205424	-0.000133916400124686	-0.000260363408966285
0.3	-0.000421493491668705	-0.00021691933092373	0.890027179636837	-0.451604923405572	0.889870819804198	-0.451509535213708	-0.0004208556586236	-0.000433407927926171
0.4	-0.000435700928406546	-5.7900675645081E-05	0.808741967375753	-0.584102009892368	0.80875378240861	-0.584127146285352	-0.000584124054701494	-0.000383913843587045
0.5	-0.000442593573925702	0.000238809232245069	0.707996645002057	-0.702865073586428	0.707841410053333	-0.702763522035437	-0.000571280321215315	-9.76739418080431E-05
0.6	-0.00026548295346965	0.000240384511581045	0.589814213029917	-0.804027761929731	0.589694797566207	-0.803865901865629	-0.000416680575288486	-0.000248515134048568
0.7	-0.000291854118159948	0.000441537269319481	0.457670096606877	-0.885553364525624	0.457651281583711	-0.885440743543624	-0.000477220119868544	-0.000379466447452897
0.8	-8.13851911918503E-05	0.000520339662668473	0.314480035943103	-0.9457937809723	0.314448599902041	-0.945603810080359	-0.000620565900198482	-0.000375698164361536
0.9	4.5880084651271E-06	0.000640225746074777	0.163601578277973	-0.982971431216977	0.163536450865924	-0.982879393895504	-0.000972666391832145	-0.000437719574559655
1	0.000258619255670826	0.000889305998578966	0.00881087444328168	-0.995948952526035	0.00875917124522766	-0.995917441060996	-0.00123737358833419	0.000127438715505965
1.1	0.00103507046778526	0.000393915153727461	-0.14565731017687	-0.9852176341781	-0.145673081787103	-0.985087037215467	-0.000742097490848966	0.00021176046299879
1.2	0.00127516306323611	-0.00114936855259946	-0.297089664545247	-0.950517951964276	-0.297013186778429	-0.950491829560393	-0.000275642556881332	0.000164634666362643
1.3	0.00108408832749589	-0.00327488144054549	-0.441129231584032	-0.892606568912891	-0.441106165932627	-0.892599951505283	0.00100690019822436	0.000233074221641962
1.4	0.000459067025931069	-0.00528601123801868	-0.574086852255528	-0.813035096748131	-0.574062638667327	-0.813013444849729	0.00255016011009644	-0.000461742892933255
1.5	6.24384910150745E-05	-0.00607534162286406	-0.693226554527416	-0.714012563835423	-0.69312465288976	-0.713927515616625	0.00428416467050735	-0.0017488186096706
1.6	-0.000950904238622135	-0.00624593931708203	-0.795851447477836	-0.597617871112085	-0.795777241527145	-0.597557777255757	0.00360728686667458	-0.00348347990644895
1.7	-0.00149026122088591	-0.00543089888588485	-0.878568827293534	-0.467017089485827	-0.878733018545156	-0.466500031279954	0.00273107448236328	-0.00397280011175176
1.8	-0.00191043781343412	-0.00482060880165894	-0.940456304466454	-0.324360192059213	-0.940344877570679	-0.324358920486614	0.00171575590351246	-0.00433451843469681
1.9	-0.00225616848716959	-0.00407145092854587	-0.979145344854034	-0.174843018795044	-0.979237947723935	-0.174354633839091	0.000753560848922074	-0.00410998849146424
2	-0.00208588417878021	-0.00368023641027152	-0.994474357244311	-0.0200490973264179	-0.994486263401244	-0.0200031474540513	0.000941245503563603	-0.00400723679829008
2.1	-0.00285200371799898	-0.00381168842221353	-0.985217453257343	0.135017547950995	-0.985255563164338	0.135054767072668	7.57884143299245E-05	-0.00493049903422957
2.2	-0.00383465179178859	-0.0032028965404617	-0.952050367213357	0.286268238385114	-0.951975049760852	0.286331001715164	-0.00101405937530924	-0.00483940641652026
2.3	-0.00453893662305648	-0.0023845628062814	-0.896058123134676	0.429965692191014	-0.8956744062238	0.430478943406601	-0.00198877789063089	-0.004650723455009
2.4	-0.00528108010659416	-0.0014602765461869	-0.817511702246256	0.564964898947184	-0.817779935311293	0.564378729434201	-0.00306801519189472	-0.00407761729555003
2.5	-0.00528596044162053	-0.000199719594402491	-0.71971054713555	0.685156750951057	-0.719925828153834	0.684646736341079	-0.00288050758154073	-0.00330867543198338
2.6	-0.00543512822187014	0.000261016148848208	-0.604604191325512	0.787780098233162	-0.604498471338852	0.787596917093737	-0.00253766324543068	-0.00379836017070672
2.7	-0.00555414800758161	0.00119380175246132	-0.474398880547421	0.872059312916203	-0.47484942909414	0.87165329991636	-0.00289977327712713	-0.00414191543486244
2.8	-0.00509882745874294	0.00211767512443942	-0.334407241151872	0.934509035995688	-0.333738616504732	0.934666023532941	-0.00346930895629151	-0.00415978777178484
2.9	-0.00390535011359359	0.00283662997313767	-0.184445347718147	0.974954611594634	-0.184476894116837	0.974867296775382	-0.00343997866861839	-0.00348145155786973
3	-0.00247417885681511	0.00294727841494077	-0.0299704512060722	0.99115099617271	-0.0306720389385629	0.99099483901088	-0.00292408137331573	-0.00298039822484103
3.1	-0.00113167936381528	0.00292390121112408	0.122404172766636	0.983644371361854	0.122994693575756	0.983624698412912	-0.00242633352009161	-0.00259889726498736
3.2	0.00015070470893366	0.00240481334273132	0.274163298058428	0.952480645202169	0.274108310013276	0.952420523335626	-0.00195954743741289	-0.00223760228578642
3.3	0.00138146594601801	0.0015967218496567	0.418827721664564	0.898040917754003	0.41869055008477	0.89802719189164	-0.0011861183996259	-0.00198764962791952
3.4	0.00222157242334524	0.000519545567891208	0.552901683510178	0.821790420883271	0.552739974741735	0.821908841107589	-9.45375726293094E-05	-0.0021540121378361
3.5	0.00299902052119284	-0.00099178087298932	0.67318446636887	0.726240449673858	0.673105066501127	0.726279429200587	0.00112350687201213	-0.00305140246929004
3.6	0.00257273301914123	-0.00238193221917798	0.777520261529083	0.613489474997959	0.777759555454012	0.613040257810961	0.00104771674282305	-0.00426359620561855
3.7	0.00227586873768996	-0.00343971549215033	0.863506331128544	0.484506127621556	0.863388655235395	0.484649558898188	0.00087888218067484	-0.00484000218629958
3.8	0.00158272164878928	-0.00450148117576089	0.927745103321042	0.34503451192176	0.927800414352839	0.344655497268423	0.000586909384511608	-0.00544601576331732
3.9	0.000832362518142978	-0.00536709843320043	0.969949866506581	0.195835225840967	0.969714152951091	0.196502737971162	-0.000191323572693305	-0.00601734090652329
4	-8.55555986127516E-05	-0.00625764180793862	0.988820296553999	0.0437239832974216	0.988781757079806	0.0438268974145364	-8.24911932233063E-05	-0.00652373706728538
4.1	-0.00197095003577081	-0.00725622063786576	0.983313045358372	-0.110650470179326	0.983129300805759	-0.11052271951781	-0.00101307681472996	-0.00800687792263515
4.2	-0.00425239630069364	-0.00717727303530861	0.953461048436637	-0.262398263068083	0.953498712839721	-0.261745754439515	-0.00251980909384496	-0.00863563716360325
4.3	-0.00626601646046704	-0.00678283697246894	0.901302291958526	-0.406322863802967	0.901167137885478	-0.406211425720241	-0.00408720476369819	-0.00908142244809411
4.4	-0.00839152184445018	-0.0058158199012582	0.82732099013433	-0.541125537453843	0.827156633557589	-0.540991842222384	-0.00590915934494405	-0.00902160095884734
4.5	-0.00985264288349461	-0.00451867560846583	0.732917103965168	-0.663146292608486	0.732729430639816	-0.662972730890017	-0.00696452065372705	-0.00844198413968887
4.6	-0.0117209105617147	-0.00339659923710336	0.620352656494977	-0.768573852962171	0.620696254193737	-0.767879224319111	-0.00818186906981058	-0.00893007161962152
4.7	-0.0135161255831927	-0.00149502136001563	0.494135363596647	-0.854945647829623	0.4941529914135	-0.854590915234399	-0.0101962012901344	-0.0090241226652203
4.8	-0.0147421830188548	0.00120166233509779	0.355285813493476	-0.920961073077484	0.355507721607282	-0.920646312446219	-0.012099197243508	-0.0085020050880563
4.9	-0.0148203423046918	0.00401627309279161	0.208378128136668	-0.964218075509232	0.208158791567513	-0.964225118677529	-0.0135254229652215	-0.00741880459224091
5	-0.0139208228830286	0.00660187711452705	0.0561747424802107	-0.984042765662987	0.0563520130977771	-0.983798924582686	-0.0140383645979575	-0.00599039129820743
5.1	-0.0123452373874171	0.00882305459825745	-0.0963176082604443	-0.980955974963131	-0.0959867104546617	-0.980732314538223	-0.0145541228997076	-0.00466229709149248
5.2	-0.0100586003698153	0.0108277572460433	-0.247343344250822	-0.954222740179328	-0.246853219166315	-0.954197046980121	-0.0148271878766352	-0.00277975336968836
5.3	-0.00737281262372612	0.0120080264608584	-0.392225988976519	-0.904220712636611	-0.391887026471099	-0.904436750253185	-0.0143998349173814	-0.0007841627657246
5.4	-0.00448779534514826	0.012902975847852	-0.527481893465344	-0.832287235278568	-0.527270334772412	-0.832487512794964	-0.0133036136184974	0.00119883053980016
5.5	-0.00153385182737275	0.0125295828071421	-0.649670166662846	-0.740767440573953	-0.649432351465245	-0.74096155368483	-0.011422801598883	0.00160113653196504
5.6	0.000259542117830863	0.0125250051890612	-0.756911563136775	-0.631215150753686	-0.756722662675918	-0.631386498964936	-0.0116500285445399	0.00161402763892262
5.7	0.00264068729575456	0.0123941903261323	-0.845640620818337	-0.506033014879609	-0.845511900606825	-0.506252076938825	-0.0117525238264446	0.00291445323733726
5.8	0.00500546172592197	0.0116982276463696	-0.913568848179172	-0.36869251531619	-0.913501326086255	-0.368976368916011	-0.0114848606352924	0.0044549950826566
5.9	0.00705544523616211	0.0103897181374408	-0.959546850567168	-0.223014655347325	-0.959561235129874	-0.223097954959262	-0.010909081332236	0.00636843070950426
6	0.00905905919450697	0.00833672316968606	-0.983156073884983	-0.071702077217485	-0.983037192672247	-0.0717598443800838	-0.00883644428755752	0.00780335413550707
6.1	0.00909538527205256	0.00590085479509935	-0.982068717153657	0.0820466978838792	-0.981942496816722	0.0818988093711925	-0.00795942592900573	0.00754291441334005
6.2	0.0089624342177772	0.00462702038518685	-0.95717717141814	0.233200747586088	-0.957163411596187	0.232998738973506	-0.00756827989707374	0.00803548340013528
6.3	0.00898069299198319	0.00312759561499211	-0.909533753833127	0.378603074050405	-0.909529085926314	0.378418475479906	-0.00683153397467247	0.00837060502093169
6.4	0.00891752366378748	0.00130679827068625	-0.840099259496132	0.515159289395709	-0.840067474236939	0.514949435673745	-0.00612796742084068	0.00840841571557759
6.5	0.0084317039170219	-0.00103309286724231	-0.749601310818944	0.639592854261628	-0.74962524971126	0.639389503670805	-0.00527650217118749	0.00806341645410401
6.6	0.00740598532143378	-0.00310361547654748	-0.641181719865032	0.747563985507001	-0.641255064250368	0.747312824708261	-0.00480462543705771	0.00778351962786156
6.7	0.00597176661532334	-0.0049659455634201	-0.517711015239486	0.837819767762259	-0.517813136727549	0.837599367292116	-0.00427759276025924	0.00776226610325531
6.8	0.00429490998349594	-0.00633949383365374	-0.381610173881818	0.908091163534843	-0.381751022200286	0.90792088630135	-0.00363351297981837	0.00785367225248867
6.9	0.00236920479233883	-0.00728219557425538	-0.235941573882555	0.956285605995598	-0.236167190756028	0.956175312695298	-0.00263495743040577	0.00789169923783298
7	0.000489352446494959	-0.00776035049938551	-0.0849115736705324	0.980612208535831	-0.085120329824815	0.980522462349858	-0.00162836357668708	0.00728612730191827
7.1	-0.00144748206584684	-0.00757826396975008	0.0675807454375347	0.982226061974746	0.0673798955631685	0.982092890598929	-0.00109401787870537	0.00699590183325415
7.2	-0.00293472636526888	-0.00709139140670269	0.219135141608965	0.960100282613922	0.218854173457759	0.960065146086035	-0.000141821351142611	0.00689492003560437
7.3	-0.00441983653306844	-0.00647216452964158	0.365367547680878	0.914527630800501	0.36513227512853	0.914553156638818	0.000828762533367046	0.00653136274900076
7.4	-0.00551363766711145	-0.00548439263639566	0.502563216812513	0.846669394345917	0.50235045870281	0.846719732387626	0.00165777620240281	0.00601630440361675
7.5	-0.00625307414387664	-0.00463106263144636	0.627324622832873	0.759127778896819	0.627155392399988	0.759196574640642	0.00278906371951689	0.00520299406612869
7.6	-0.006797465934635	-0.0035256950481353	0.738140397889239	0.652948838168333	0.737883185723435	0.653030088495721	0.0033662785934914	0.00380894252473241
7.7	-0.00679462060489148	-0.00227341058374235	0.830562628574503	0.530415231088531	0.830376759471245	0.530631228960525	0.00352428974532313	0.00278654820169341
7.8	-0.00628224248462076	-0.00121323027366461	0.902824656930505	0.395164232515479	0.902720971782679	0.395388772576066	0.00362518979886011	0.00186246772050218
7.9	-0.0057397578859278	-0.000270238540887799	0.953311879506028	0.250826716453878	0.953173254437804	0.251005475594644	0.00367598404912238	0.00149490545350544
8	-0.00439039166167265	8.02278553668774E-07	0.981465650495607	0.0998974908204801	0.981441424761132	0.100159970721536	0.00473577501263165	0.000837744730866155
8.1	-0.0045716015059254	2.24309376510153E-05	0.985092575151226	-0.0541141459043332	0.985120421547022	-0.0538585590514864	0.00422212598786477	-0.00134454922513472
8.2	-0.00440939560797153	0.000868037422602415	0.964721657946382	-0.206261392973184	0.964768598004787	-0.205944196865735	0.00260584854080243	-0.00239300705531683
8.3	-0.00402844906405178	0.00185949477521352	0.921300298539758	-0.353435038227695	0.921350346684534	-0.353147619192733	0.000797680084968454	-0.00258347863282979
8.4	-0.00321034615338291	0.0029472860869419	0.85573461521951	-0.492493374107485	0.855831572481826	-0.492290782064024	-0.0010360765308702	-0.00178301261766918
8.5	-0.00151690475470175	0.00382062044125638	0.768512830202356	-0.619945030710915	0.768563703340437	-0.619793948090415	-0.00111013596591713	2.71825663259855E-05
8.6	-0.00016917230498035	0.00351079435699288	0.66265456188959	-0.731289532303647	0.662822252028591	-0.731051563245003	-0.000691677062456907	4.24375991654341E-05
8.7	0.000972112609537034	0.00367966922013882	0.541263222780405	-0.825293623980184	0.541521835618133	-0.825076882766844	-0.000932357300562179	0.000415627075311419
8.8	0.00272324522723211	0.00359763142898527	0.406705268266847	-0.899529647518556	0.406890286109487	-0.899389632554941	-0.0010630468062986	0.00096351474130598
8.9	0.00467995123494673	0.00299421133807313	0.261799804044158	-0.951979330017761	0.261978607059165	-0.951808361767517	-0.000680169588034222	0.00200404580686887
9	0.00711672687738955	0.00138676867904323	0.110739420161969	-0.980264465880979	0.111047875403743	-0.980216785223815	0.00108785480686531	0.0030422307356231
9.1	0.00880788639361434	-0.00109582045965088	-0.0421574982901301	-0.985935031804074	-0.0418480530686202	-0.985892761601623	0.00338149602938723	0.00280587465722131
9.2	0.0098794869584655	-0.00388808612982739	-0.194957175250725	-0.967662428443282	-0.194609019582271	-0.967638777616394	0.00584740143603501	0.00192898965540964
9.3	0.00997839855470584	-0.00647796199240627	-0.342972848889315	-0.925632022775984	-0.342620300924908	-0.925605173459795	0.00829237195660855	0.000247928944703265
9.4	0.009661249247816	-0.00862102658210322	-0.48227165148887	-0.860969544085705	-0.481947545755842	-0.861059418607436	0.0104338622780012	-0.00209191378749899
9.5	0.00875579313112172	-0.0107547933832401	-0.609547286887399	-0.776268119662356	-0.609309598973202	-0.776317487387127	0.01192601104198	-0.00640127155836727
9.6	0.00692368440594503	-0.0116160577105437	-0.723435577503806	-0.672423971706573	-0.723122450517021	-0.672561867950064	0.00991062926124837	-0.010482366666921
9.7	0.00591006063890275	-0.0115724775003678	-0.819198914468301	-0.551740527170859	-0.818909601555319	-0.551973207391328	0.00693234949986529	-0.0129357338036335
9.8	0.00516574692797796	-0.0116819555162704	-0.894904300690731	-0.417878041251911	-0.894649538084932	-0.418046682670082	0.00333820028225669	-0.0142471397653916
9.9	0.00447040303615101	-0.0113653858819063	-0.949074876599189	-0.274201144784279	-0.948820799837046	-0.274409790254617	-0.000293044271718371	-0.013828055131516
10	0.00432988939093962	-0.0117664291264304	-0.981073233307787	-0.123298224113646	-0.980917629418233	-0.123661822528728	-0.00215539142625289	-0.0131336136472195
10.1	0.00275275660176986	-0.0118252924697513	-0.988010456604232	0.0313075937991495	-0.9879456352599	0.0308741638895662	-0.00567535247398335	-0.0131299121593383
10.2	0.00201505702510256	-0.0110929054476599	-0.97105528537429	0.184464433757104	-0.970931975518627	0.184031447781774	-0.00932572779635243	-0.0110802550813027
10.3	0.00167768555484738	-0.0105106990554205	-0.930624828674918	0.333190468065962	-0.93064139853039	0.332646309853409	-0.0122091744237182	-0.00810007594055711
10.4	0.00155344100350135	-0.0105465519283425	-0.867658945745459	0.473980469008099	-0.8677957654339	0.473466322742371	-0.0140556403744494	-0.00442828334764721
10.5	0.0014732106633878	-0.0110117275772296	-0.782670059655065	0.603542933400003	-0.782844032302738	0.603108822638428	-0.0136646434544272	-0.000778664146810875
10.6	0.000424385914169995	-0.0120004919143173	-0.679012858813154	0.716981327023015	-0.679286596474018	0.716650143323982	-0.0128396531048393	0.001359380768703
10.7	-0.00106667771363735	-0.0119464100476945	-0.559524705696371	0.813569704273356	-0.559826717190504	0.813259292530984	-0.0119440698074509	0.00359059649909131
10.8	-0.00219858430795788	-0.0115554484237552	-0.426260715955265	0.890586691072328	-0.42661321539983	0.8902876569254	-0.0105672221352588	0.00581509764098785
10.9	-0.00304897151392208	-0.0107987457610522	-0.282344524725536	0.945879812367683	-0.282736453150106	0.945757114274692	-0.00859287533385557	0.00784256639063557
11	-0.0034421117756501	-0.0104680425258016	-0.131984603570375	0.977270091569848	-0.132422997558923	0.977180045939107	-0.00578275836349918	0.00901610641694528
11.1	-0.0038273936408791	-0.00986876918917413	0.0208662402773356	0.985935089458023	0.0203761119967353	0.985949332868363	-0.00310388536955694	0.00956993507180577
11.2	-0.0038848510955033	-0.00967896266636957	0.173823918865636	0.97077401033567	0.173365594423247	0.970848122065624	-4.17334852111938E-05	0.00955173834954998
11.3	-0.00395289169582535	-0.00960312327561578	0.32248912310994	0.931761630755992	0.322029122271115	0.931899623185787	0.0031717157052997	0.00900538796306154
11.4	-0.00415095892623328	-0.00971576685980447	0.462969032511163	0.869944883359809	0.462564590727705	0.870059238823379	0.0064493170229613	0.00811383006559726
11.5	-0.00456799195586515	-0.0101507030960276	0.591766105970111	0.787910251254309	0.59144733357188	0.788213718652114	0.00997962592418722	0.00540930315431645
11.6	-0.00588035847610762	-0.0100695475741584	0.707395386591334	0.686521862834511	0.707180228865716	0.686850908419944	0.0110180703808573	0.00206637182318596
11.7	-0.0065080727807411	-0.00937342753764592	0.805338692648093	0.567992817846978	0.805135819837238	0.568300569927994	0.0114706056479279	-0.000478997973852026
11.8	-0.00714972853835381	-0.00907623843312751	0.883516014482588	0.435785548578131	0.883335096772181	0.436237724820417	0.0112953616039501	-0.00286272955841181
11.9	-0.0073500222641467	-0.00862017869873085	0.940263405178833	0.293655513173095	0.940158523241107	0.294106536405645	0.0110493192674927	-0.00426393145112021
12	-0.00855577006517838	-0.00895842810723398	0.975161279962325	0.144024948606395	0.975133518588195	0.144390446505706	0.0117248526595138	-0.00652762915835574
12.1	-0.0109153458079572	-0.00878302749273244	0.985101148305073	-0.00984795571510485	0.985031527497182	-0.00946215866539904	0.0102381745473219	-0.0104108157614748
12.2	-0.0132476193761906	-0.00721426887419204	0.971124160088636	-0.162677008918327	0.971142897170296	-0.162378509679302	0.00720368490029909	-0.0126125735019859
12.3	-0.0149617370682701	-0.00478034615222839	0.933677984498647	-0.31132701718369	0.933798965024592	-0.311020360606119	0.00390736243805939	-0.0136876372426724
12.4	-0.016067582984211	-0.00187868119352462	0.874180443783005	-0.452647414548285	0.874245301061032	-0.452277393418102	0.000535682608448293	-0.0133764463966914
12.5	-0.0155105265027592	0.00110537116913419	0.792190786632215	-0.583245006527496	0.792533747224455	-0.582855874610098	-0.00119577203529407	-0.0120507949948016
