# GHZ S RI R 50
0.2	-0.000187795610915566	-0.000511421386651297	0.950572018496286	-0.307557459577785	0.950349449184211	-0.307532178321506	-0.000128112071697795	-0.000475571782231065
0.3	-0.000555310383063743	-0.000436102214938712	0.891040417949584	-0.451413458167661	0.890883869992565	-0.451318090474519	-0.000549931799195248	-0.000661385733324231
0.4	-0.000745717822496626	-0.000179713037218897	0.810039990962937	-0.58416949667189	0.810051836697254	-0.584194652221326	-0.00089082837293724	-0.000519440572761671
0.5	-0.000637524100853017	0.000448774495310449	0.709281505898908	-0.703453817242416	0.709126014911577	-0.70335220649513	-0.00076400391513486	9.77575494758657E-05
0.6	-0.000243321780297004	0.00022705595542931	0.590945603527811	-0.804738026172748	0.590825959456905	-0.804576023461818	-0.000388144739791791	-0.000280872937909687
0.7	-0.000387707981020213	0.000327206163321817	0.458814854109148	-0.886545774020258	0.458795949106739	-0.88643300465019	-0.00056699498402464	-0.000522542272736309
0.8	-0.00028513031880641	0.000362022982109498	0.315466213004421	-0.947162052193461	0.315434630120265	-0.946971790429151	-0.000824800607551378	-0.000572172292167054
0.9	-0.000512411700901093	0.000466876516457249	0.164186062182553	-0.984659670574771	0.164120792007227	-0.984567490149232	-0.00150538781131125	-0.000655425753880993
1	-0.000448682016513956	0.0014972022279526	0.00899074947217623	-0.997494785184151	0.00893896069447192	-0.997463233398255	-0.00198438079559635	0.000704983920772062
1.1	0.0011099143802024	0.000984002739130514	-0.145509623347978	-0.98696783806594	-0.145525474765141	-0.986837023278843	-0.000705897307142719	0.000797298152810955
1.2	0.00141921949504973	-0.00083219461857352	-0.297406017298587	-0.952451690094357	-0.297329397767167	-0.952425495692405	-0.000148266211316468	0.000492518769210943
1.3	0.0013005024157244	-0.00319864882504481	-0.441941436028468	-0.894461545947689	-0.441918324148177	-0.894454912920566	0.00123084709997876	0.000327058201736059
1.4	0.000573496230741458	-0.00540444396329039	-0.57523518923144	-0.81459925814326	-0.575210927663913	-0.81457756490152	0.00269328772242843	-0.000572715608134525
1.5	0.000538350140263831	-0.00652919935098006	-0.694429583861391	-0.715611655714495	-0.694327500365869	-0.71552641214421	0.00482091397015582	-0.0022273497418514
1.6	-0.00128453553527898	-0.00721137192796416	-0.797792622630381	-0.59913241040463	-0.797718235875376	-0.599072164509951	0.00332231538609894	-0.00451050953890578
1.7	-0.00221922171276583	-0.00592455051035952	-0.880910527305803	-0.467955759384	-0.881074992013923	-0.467437353090019	0.00201794484691637	-0.00455732079264312
1.8	-0.00272987047507784	-0.00492835269687781	-0.94294146516007	-0.324761197132491	-0.942829759921895	-0.324759970686414	0.000879297144769454	-0.00453489707457795
1.9	-0.00302300608863675	-0.00356255510825641	-0.981687331661099	-0.174879449004191	-0.981779966310026	-0.174389793913057	-5.22074181039815E-05	-0.0036695454851132
2	-0.00166435166294864	-0.00299697788576787	-0.997503678172591	-0.0195541163606708	-0.997515594797441	-0.0195080203809733	0.00134598964594532	-0.00336392464084268
2.1	-0.00264250727711743	-0.00416552664419551	-0.987972625686605	0.136611615014361	-0.988010803394774	0.136648990612404	0.000285094669801713	-0.00534981459242542
2.2	-0.00408930980523557	-0.00349105916758134	-0.954300066490362	0.288385438097403	-0.95422445251858	0.288448271413186	-0.0012873632149602	-0.00520739701372982
2.3	-0.00501277171506514	-0.0024936788972769	-0.897889200079366	0.432503583152863	-0.897503649368526	0.433017676319572	-0.00250527282155036	-0.00483334094262629
2.4	-0.00598547136936707	-0.0011340955090944	-0.818952415778705	0.568017148385825	-0.819222435150326	0.567429712838202	-0.00383424151326656	-0.00379553533326309
2.5	-0.00517619359860062	0.000830633640792508	-0.720132688919655	0.688916370788285	-0.72034984599865	0.688405395639728	-0.00281411873785473	-0.00227179627045303
2.6	-0.00480066131883436	0.000398201122551501	-0.603998670709813	0.79115845536952	-0.603893172683436	0.790974577763794	-0.00188132625638978	-0.0036443827409922
2.7	-0.00522781557763192	0.000910690805576426	-0.473237086906441	0.8752446634334	-0.473689693309784	0.874838887126878	-0.00251543787568439	-0.00444247744816349
2.8	-0.00511616834294718	0.00175225450674874	-0.332567849632718	0.937528635360117	-0.331897292394324	0.937684122555902	-0.00342543008811517	-0.00458324178460641
2.9	-0.00408885137151709	0.00260503494832952	-0.181712361409354	0.977607804628668	-0.181744254230638	0.97752040616464	-0.00358494599163457	-0.00377950043619049
3	-0.00265724002893679	0.00261734741867674	-0.0266211400220654	0.992602723071049	-0.0273242169132103	0.99244875303203	-0.00307323041040766	-0.00339259943486277
3.1	-0.00171865394213621	0.00274342991130616	0.125557096060328	0.984573890738411	0.12614833852088	0.984552396174904	-0.00299512308880544	-0.00291984395589439
3.2	-0.00040320688520054	0.00254568877501407	0.277626602807082	0.952871519149056	0.277571345451482	0.95281149503243	-0.00252748227588842	-0.00220472757989141
3.3	0.000938383847319508	0.00195455787974108	0.422445595975176	0.897580351531867	0.422308222378376	0.897567091105818	-0.00165721905263133	-0.00172388451039664
3.4	0.00206840934186456	0.00114055442670351	0.556241333202994	0.820301683563346	0.556079952374916	0.820420767062404	-0.000274928810972549	-0.00160651805086862
3.5	0.00345934544857872	-0.000793341539989386	0.675699634905988	0.72444595750606	0.675620324093338	0.72448519824839	0.00158754559113844	-0.00293172737768606
3.6	0.00253066795095753	-0.00257807880452331	0.780151788971212	0.61136597532085	0.780389768768301	0.610915621104783	0.0010038404532436	-0.00457062792082791
3.7	0.00206567694898046	-0.00344052732630596	0.865687704099368	0.481602999362184	0.865570492325996	0.481746928188375	0.000642571166422491	-0.00495527948119771
3.8	0.00133426524323379	-0.0043574599932281	0.929147754559728	0.341660804432135	0.929201675321881	0.341281532663443	0.000293255638330504	-0.0054041163770271
3.9	0.000639198337078609	-0.00487389431318609	0.970539576784357	0.192451267742809	0.970306201394278	0.193119535982495	-0.000437623622350208	-0.00559324045371011
4	0.000643599111559997	-0.00580635464460582	0.989316558655534	0.0402442896187316	0.989278369593497	0.0403473755126544	0.000633145000528176	-0.00610871917363593
4.1	-0.00150717738018139	-0.0077452702830743	0.982763935586123	-0.114766460908468	0.982580742876096	-0.114637950362923	-0.000522096231788063	-0.00856143818867063
4.2	-0.00428436616063491	-0.00772548741208022	0.951794543610017	-0.266216998517862	0.951834906564673	-0.265565038566558	-0.00252491116130142	-0.00928255013898502
4.3	-0.00666117927493027	-0.00723287627256694	0.898882726005719	-0.409622093299598	0.898748139220045	-0.409510203899818	-0.00447069217071134	-0.00964506156235844
4.4	-0.00918478594602502	-0.00581940733803434	0.824445859145437	-0.544012693659764	0.824282179474866	-0.543878446745499	-0.00671509624927536	-0.00913633744522254
4.5	-0.0100651941083749	-0.00370381937496129	0.72895292697696	-0.665888586269146	0.728766286563541	-0.665714326527369	-0.00719005202068082	-0.00770373498675114
4.6	-0.0114137937774387	-0.00309152490533215	0.615578401732083	-0.769790889333954	0.615924436072198	-0.76909926184963	-0.00784797067282359	-0.00869727894781504
4.7	-0.0132372088928438	-0.00141204521604813	0.489380286256618	-0.855020977023358	0.489399365233522	-0.854667149954511	-0.00987394715265748	-0.0090401143507865
4.8	-0.01449408957057	0.00112331131639856	0.350598755690653	-0.920101922244349	0.350821400156013	-0.919788868682753	-0.0118095029730581	-0.00871069034704119
4.9	-0.014645433547903	0.00388541684064741	0.20363733326123	-0.962397466209558	0.203418584675498	-0.962403544731456	-0.0133300195590685	-0.00769556311229289
5	-0.0136450401185684	0.00624849685588907	0.0518739639860633	-0.980447422794416	0.052051556496547	-0.980205265763274	-0.0137534689991828	-0.00649042541472552
5.1	-0.0125798837957723	0.0083298548787316	-0.0991506780066834	-0.976737381899728	-0.0988203633803704	-0.976515696240556	-0.0148063707183526	-0.00533260319386069
5.2	-0.0105443764214726	0.0106525114777832	-0.249348102554738	-0.949641993191377	-0.248859851534866	-0.949617938827028	-0.0153858289739828	-0.00311652240162091
5.3	-0.00785478956078186	0.0122244550721028	-0.393301233078296	-0.899161878854885	-0.39296437696767	-0.899378024577105	-0.0149844488608075	-0.000672576194903323
5.4	-0.00450231583167043	0.0135859478396832	-0.527229109986723	-0.826786044970538	-0.527019133132331	-0.826985936980845	-0.0133980275237788	0.00185641756997045
5.5	-0.000552262185766525	0.0123010187755157	-0.647669074836436	-0.735954689115773	-0.647432780234667	-0.736148232245195	-0.0104145762181238	0.00135497448870318
5.6	8.12404694087308E-05	0.0116346432289238	-0.754545770978893	-0.627116158582745	-0.754358005803704	-0.627287047444562	-0.0117873098422343	0.000633587751278117
5.7	0.00195174656024193	0.0119534039716016	-0.842464566850545	-0.502240483296577	-0.842336817859901	-0.502458718697323	-0.0124309613814985	0.00236042012042509
5.8	0.0041119323210782	0.01173494939881	-0.909448137804441	-0.365603005703273	-0.909381338005386	-0.365885515806331	-0.0123836678725308	0.00439976440615952
5.9	0.0062821054599352	0.0113188562750313	-0.954708630269271	-0.221191782592812	-0.954722997520287	-0.221274638892745	-0.0116792018667636	0.00725360282721024
6	0.00998204178909683	0.00936509128814714	-0.978762453162961	-0.0709629618193674	-0.978644131399411	-0.0710205193852739	-0.00782082509710251	0.0088357640690222
6.1	0.00984965749762046	0.00556110265389161	-0.977214858275857	0.0824514817794062	-0.977089374328696	0.0823042107372987	-0.00700587154206196	0.00713654426571456
6.2	0.00921891323604993	0.00409701215974512	-0.952047462058388	0.232349001844165	-0.952033853913283	0.232148051187923	-0.00709599948587314	0.00733647913389896
6.3	0.00891652980646375	0.00261396336124357	-0.904754055478457	0.376482071697172	-0.904749389538078	0.376298453274796	-0.00671576798734064	0.00761482009538791
6.4	0.00864032635839289	0.00104802496318121	-0.836165977445526	0.512199931138949	-0.836134250815692	0.511991135886494	-0.00628838050762161	0.00787608464002869
6.5	0.00828383109752487	-0.00120239792461192	-0.745790937375961	0.636398623918741	-0.745814764420953	0.636196300415703	-0.00534341883492664	0.00762196379090583
6.6	0.00712830183312771	-0.0031738403221113	-0.637888005371816	0.742864009236995	-0.637960781627259	0.742614263381409	-0.00504198390737172	0.00743032028743393
6.7	0.00581329498559632	-0.0048836295012292	-0.515785512449139	0.83240478073989	-0.515886780884421	0.832185512336806	-0.00443161916462941	0.00758501700698213
6.8	0.00425446052378378	-0.00627264180303105	-0.380924624748083	0.902504471289932	-0.381064433720461	0.902334911187062	-0.00367338052453587	0.00768471612041666
6.9	0.00245786981965875	-0.00725763753714884	-0.236103840351712	0.950710109642335	-0.23632805897924	0.950600076124845	-0.00254752669949009	0.00770131292230759
7	0.000519902577316828	-0.00808821528543954	-0.0862752925274838	0.974257788268987	-0.0864825570685168	0.974168204189551	-0.00158289320452334	0.00671394051370024
7.1	-0.00178672797528346	-0.00777361256745024	0.0641562568583631	0.976592598099739	0.0639570113056796	0.976459600626729	-0.00145145062850357	0.00653302797374823
7.2	-0.00330397234090416	-0.00707356048284081	0.214688747132305	0.955516886385444	0.214409454443277	0.955480998765615	-0.000554353578455423	0.00664503103251781
7.3	-0.00474409429555366	-0.00629661746853878	0.360106425849667	0.910852001047681	0.359872343750868	0.910876546405774	0.000436892316357907	0.00643962275284855
7.4	-0.0056647039278399	-0.00514232081306478	0.496312318560764	0.843840959611276	0.496100574475198	0.84389016062437	0.00142099758129603	0.00611223759415164
7.5	-0.00602147240315274	-0.00456960637061084	0.619898355911702	0.758391692157107	0.619729668766335	0.758459214633814	0.0029194183048131	0.00501952125995612
7.6	-0.00700066832771849	-0.00375544377388662	0.731387620270493	0.654125181978602	0.731131083263639	0.654204681853668	0.00304198213748619	0.00331816489227
7.7	-0.00726139732076972	-0.00226989510244886	0.824221375251285	0.532766788398948	0.824035092962545	0.532980874773437	0.0028846919643239	0.00254911921558964
7.8	-0.00683756427160143	-0.000880013770497297	0.896918503123682	0.398849373460766	0.896813923019664	0.399072413112588	0.00285809460136402	0.00201536002290314
7.9	-0.0061172977382402	0.000692212371206811	0.948223268612782	0.25616009132568	0.948083974617812	0.256337296735844	0.00313043376588133	0.00236715270928819
8	-0.00318090873514914	0.000860251602105659	0.978582189302993	0.106229527464336	0.978556264527748	0.106491252862836	0.00583519281924548	0.00176169257357117
8.1	-0.00357000052200444	-0.000551619871917596	0.983244419133264	-0.0479603405729551	0.983270638348915	-0.0477051486643559	0.00528411464161596	-0.00195824892591671
8.2	-0.0041023510934875	-3.9170607656638E-05	0.963984041716108	-0.199622424704999	0.964028843553017	-0.199305605253211	0.00302048880520352	-0.00341870297365859
8.3	-0.00434621373948203	0.000913173733567436	0.922138469794848	-0.346580052668632	0.922186481453619	-0.346292781012209	0.000593990495886358	-0.00372284039364389
8.4	-0.0042744495123546	0.00253349405454203	0.858428657342667	-0.486171330027078	0.858524134165369	-0.485968235896986	-0.00202785592368553	-0.00244569493498543
8.5	-0.00180813716781748	0.00450098002945046	0.771827769962297	-0.61500693059817	0.771877709719921	-0.614855622323354	-0.00135014594350772	0.000490411015170819
8.6	-8.71837285065469E-05	0.00329333066530184	0.666725830522875	-0.726333270501601	0.666891831128809	-0.726094449713613	-0.000481004986883037	-0.00043632494797875
8.7	0.000603863685866634	0.00335241165603846	0.546662004798338	-0.821232569093302	0.546919023128437	-0.821014156905631	-0.0011978981949309	-0.000297988816061953
8.8	0.00206497143330393	0.00340388451866524	0.412939379028731	-0.896890890818093	0.413123467740817	-0.896749584249792	-0.00171929913218316	0.000305403010626313
8.9	0.00371131539889075	0.00315726487640756	0.268073682919014	-0.950836824354773	0.26825148772989	-0.950664608403826	-0.00179647092660357	0.00169419572994676
9	0.00642306500864895	0.00213304729749574	0.117205980957313	-0.979481489334054	0.117514105076278	-0.979431774548962	0.000135863800674008	0.0034088104989111
9.1	0.00827152694743729	-0.000217429586059883	-0.0348749117038508	-0.987035478140421	-0.0345655329580162	-0.986990877902964	0.00253262471869425	0.00339853734296567
9.2	0.00976157064692158	-0.00273847280847797	-0.188264192998714	-0.970603904241042	-0.187915657676727	-0.97057769695889	0.00541314054679026	0.00291803536978384
9.3	0.010369691306668	-0.00542493949818436	-0.337222458494126	-0.929823325029002	-0.33686940673673	-0.929793977264992	0.00844366573185884	0.00124972290637239
9.4	0.0105456854030023	-0.0075731902135019	-0.477253424902455	-0.865884707375681	-0.476928098763313	-0.865972522229883	0.0111842187067337	-0.00103216140906906
9.5	0.0105578045266571	-0.0111689127657965	-0.604927443295222	-0.782972431686557	-0.604688783695416	-0.783020048168215	0.013776761918041	-0.00683812826832397
9.6	0.00718926891255154	-0.0128012432616876	-0.721182196433283	-0.680273960731754	-0.720866881298217	-0.680410063529384	0.0102710569445114	-0.0118616194804464
9.7	0.00553328966530412	-0.0123022756068592	-0.81873917031659	-0.559641266661135	-0.81844707195766	-0.559872902128512	0.00659384188192005	-0.0139465781513206
9.8	0.0044584873460641	-0.011986768941171	-0.895962870532522	-0.425743697709687	-0.89570586168034	-0.425911348361024	0.00259625590329909	-0.0148581966574252
9.9	0.00370089430560119	-0.0107576060006473	-0.951764027338541	-0.282218728671322	-0.951507244650693	-0.282426600726164	-0.00115746073447313	-0.0135147223704075
10	0.00519132258274185	-0.0112161478681571	-0.986586840052915	-0.130503871157928	-0.98642785774008	-0.130868794713186	-0.0013424730472238	-0.0127977518550416
10.1	0.00297313875180697	-0.0125059112371446	-0.994559008810611	0.0262039637089073	-0.994491441209708	0.0257680829082989	-0.00545350351800162	-0.0141029626650855
10.2	0.00158543279230675	-0.0115632569069228	-0.978369450692034	0.180701724333923	-0.978243114697177	0.180266529662228	-0.00982506804838706	-0.0119028090804297
10.3	0.000948824076780967	-0.0106190456265986	-0.938792703446027	0.330976049637618	-0.938806726358872	0.330427987912461	-0.0131107737468298	-0.00854930857483276
10.4	0.00066637429706885	-0.00999043526503494	-0.876576298800829	0.473957111994514	-0.876711966118377	0.473438307444577	-0.0152135882789232	-0.0041138169908367
10.5	0.00154140645976396	-0.00983018898948755	-0.790525749559459	0.606278772052225	-0.790699955857991	0.605840732059115	-0.0138316352947296	0.000343659472824035
10.6	0.0010541117220242	-0.0114321115032978	-0.685781694937865	0.720489705309329	-0.6860565897813	0.720155412655263	-0.0122990357966476	0.0019099392161402
10.7	-0.000379387927717293	-0.0118328761857789	-0.5656750004854	0.81837924206952	-0.565978553751606	0.818065772539134	-0.0112596779090121	0.00365086073583031
10.8	-0.00169310480073628	-0.0117538775295556	-0.431251773731403	0.89681213491413	-0.431606497769216	0.896510099732125	-0.0100283427606281	0.00552171771391281
10.9	-0.00268457675943832	-0.0111565626132037	-0.28535719923031	0.953123705805386	-0.2857521244689	0.952999714313124	-0.00809280140994823	0.00742201925927196
11	-0.00317241083358139	-0.0111107427772895	-0.133467184724126	0.983829771750129	-0.133908502820287	0.983738851646471	-0.00534025517874108	0.00822004514710474
11.1	-0.00402076927936045	-0.0104742817860854	0.0200201454200246	0.993187172944306	0.019526408183941	0.993201024116466	-0.00315668802892889	0.00874443396347919
11.2	-0.00426608722400566	-0.0100810188565399	0.174785187704641	0.978338530504753	0.174323295028095	0.978413034580522	-0.0003026524362768	0.00889376583286146
11.3	-0.00440948431910403	-0.00970898540882566	0.32525451050131	0.938799767288438	0.32479102827781	0.938938962361312	0.00273154098801103	0.00864965948849078
11.4	-0.00436002127140636	-0.00934069479984872	0.466873183283941	0.875774816170563	0.466465958701235	0.875890272118977	0.00624799384139724	0.00826955414332109
11.5	-0.00401264218915765	-0.0105256611722324	0.596107025343836	0.793737562588045	0.595785893478373	0.794043258552023	0.0106699934270074	0.0047660823133447
11.6	-0.00637951356732662	-0.010872647584507	0.713882145883887	0.691474150809854	0.713665541053221	0.691806111858255	0.0106566037011695	0.000894143653168501
11.7	-0.0074365415255564	-0.00967359361437817	0.812826563171489	0.571062550212713	0.812622630790968	0.571373137709744	0.0105915518418879	-0.00119449610031328
11.8	-0.00826588360108232	-0.00883339084431147	0.891288241084891	0.437123081775938	0.891106962107324	0.437579140099483	0.010133688361944	-0.0029837560236102
11.9	-0.00821014856168979	-0.00721260408799327	0.948125819330811	0.293801257352775	0.948021143194473	0.294255971489206	0.0100492612897765	-0.00313376644570919
12	-0.00730316695224053	-0.00767577659749193	0.984080272829705	0.142251846088549	0.984053403838759	0.142620605573517	0.0130623825230203	-0.00531906316127892
12.1	-0.00982103359934565	-0.00889133246862851	0.992886097935995	-0.0143520869174057	0.992817657122364	-0.0139629109130266	0.0115059628349219	-0.0107464506803884
12.2	-0.0124951075993382	-0.00784800977485119	0.97745411930439	-0.16859120314004	0.977474445003286	-0.1682906062249	0.00815909487883503	-0.0135472356499848
12.3	-0.0147782527936991	-0.00581652810768931	0.938703094568916	-0.318338039727769	0.938826510702016	-0.318029829019221	0.00429883284782249	-0.0150940654256905
12.4	-0.0167361537489861	-0.00261373621302435	0.877986014320546	-0.460962165833396	0.878053463757593	-0.460589808570655	5.33446692098363E-05	-0.0145397419293594
12.5	-0.0156863544637049	0.00111699699326313	0.793096645799684	-0.592968824426738	0.793444755605478	-0.592579666169858	-0.00122366480823473	-0.0124914331152176
12.6	-0.0151240566235343	0.00255916334884083	0.690122700201223	-0.70675053273283	0.690378612700341	-0.706509698195136	-0.00289746442056973	-0.0132815815165031
