# GHZ S RI R 50
0.2	-0.000310823171526384	-0.000239219135761375	0.949494788131245	-0.307852921685339	0.949272442385177	-0.307827527563842	-0.000263520320524779	-0.000189751039800052
0.3	-0.000485094137027425	-0.000132163841219319	0.889652806559281	-0.451568647926503	0.889496514700458	-0.451473271739997	-0.000495628266244804	-0.000327245624566416
0.4	-0.000427367705092763	2.06573486700032E-05	0.808323342596035	-0.583986612091445	0.808335148990782	-0.584011740024806	-0.000583503034459153	-0.000272579885141476
0.5	-0.000369738246789393	0.000208786212559557	0.707559542299367	-0.702585426764092	0.707404397421061	-0.702483909803623	-0.000503788173972082	-9.30637287017157E-05
0.6	-0.000282627459338436	0.000183595384565637	0.589501480382483	-0.803664174225349	0.589382128201959	-0.803502387325428	-0.000449095215528536	-0.000259841297457938
0.7	-0.000286375097922362	0.000401311218158443	0.4573995511186	-0.885145816137311	0.457380751289236	-0.885033249081756	-0.000485714810678195	-0.000351679104585901
0.8	-6.64948830221262E-05	0.000445437060577896	0.314272068819924	-0.94530528814674	0.314240657708542	-0.945115416738673	-0.000604495249061	-0.00036018834447095
0.9	-8.82006297549403E-07	0.000549177579984365	0.163509709666531	-0.982406882897654	0.163444619451115	-0.982314898528093	-0.000940694178369561	-0.000423280915358797
1	0.000223853451559476	0.000704577009513694	0.00888019538336275	-0.995418651879965	0.00882851734405257	-0.995387161001375	-0.00118160754002776	1.34372429599414E-05
1.1	0.000617805325604298	0.000354580754501053	-0.145585305562728	-0.984703008258363	-0.145601068405162	-0.984572479356917	-0.00107896095405969	0.00017749787326028
1.2	0.00077906477077427	-0.000621283429634502	-0.296907433178244	-0.949946902288034	-0.296831001524817	-0.949920795324002	-0.000737474248130936	0.000657838569742658
1.3	0.000812529968326471	-0.00221681658993851	-0.440798631045971	-0.89205426728132	-0.440775580588727	-0.892047652937381	0.000699530885864219	0.00124918476958865
1.4	0.000537869696282213	-0.00408495598122102	-0.573637087137147	-0.812569348981596	-0.573612891248302	-0.812547708602778	0.00253378613038819	0.000743793951100215
1.5	0.000225791663921592	-0.00509372815511463	-0.692755490586781	-0.713589251978515	-0.692653657307488	-0.713504253350644	0.00431144358798138	-0.000691256938433909
1.6	-0.000604833481364012	-0.00543685849302507	-0.795175898443293	-0.597190909317953	-0.795101755733582	-0.597130858786403	0.00383552453191586	-0.00247243627504913
1.7	-0.00108125090998064	-0.00503913666863657	-0.877728764597001	-0.466777536291235	-0.877892909839311	-0.466260952175225	0.00311398585764717	-0.00333148671967327
1.8	-0.00161609581585993	-0.00473451668278711	-0.939547176087868	-0.324324761176558	-0.939435847059109	-0.324323461294398	0.00206287968389985	-0.00401354180318997
1.9	-0.00212458534501519	-0.00420503462027049	-0.978211786740703	-0.174986244116114	-0.978304456183247	-0.17449832648744	0.000991211929019465	-0.00406759160043209
2	-0.00234609344377797	-0.00389948280660822	-0.993429075957486	-0.0203981145450694	-0.993440986764168	-0.020352217079092	0.000744391205388469	-0.00412368698907012
2.1	-0.0031725095556297	-0.00367160224530337	-0.984263190709197	0.134244287721	-0.984301284181055	0.134281443103647	-0.000226045568635496	-0.00463973424536982
2.2	-0.00399963529652015	-0.00301340637081664	-0.951364970874826	0.28526261213428	-0.951289773432533	0.285325373735143	-0.00111947274808722	-0.00446695972338332
2.3	-0.00464124863041083	-0.00221688817316301	-0.895626399257188	0.428830177579781	-0.895243454520365	0.429343297246215	-0.00197433089145998	-0.0043176598381138
2.4	-0.0053392614561043	-0.00132753802017075	-0.817312781907355	0.563723052176564	-0.817580244320807	0.563137150419378	-0.00295809227285492	-0.00385499387429792
2.5	-0.00549343298861061	-0.000140719995568092	-0.719877982935662	0.683761760019492	-0.720092504012825	0.683251932939023	-0.00296695516822552	-0.00329599292582978
2.6	-0.00572490802319584	0.000679679763947293	-0.605190680508814	0.786570775765683	-0.605084802995317	0.786387833640532	-0.0028542965188178	-0.00344489314150372
2.7	-0.00561327556319678	0.00184073698044334	-0.475191249022441	0.871041891986392	-0.475641080283824	0.870635553105206	-0.00306889672243506	-0.00349263339665363
2.8	-0.00488438101867212	0.00283539017550728	-0.335402664318527	0.93365378643996	-0.334734550002319	0.933811525140252	-0.00338811687625054	-0.00336052235336772
2.9	-0.00345693998688738	0.00345714908763806	-0.185683850752032	0.9743210086999	-0.185715267214732	0.974233685977964	-0.00311868459426988	-0.00271847428969524
3	-0.00193007802037631	0.00343904658782405	-0.0313672804530658	0.99098074309132	-0.0320685569588508	0.990823614597013	-0.00249848466080479	-0.00228838978102619
3.1	-0.000461034151765561	0.00322814839337993	0.121183942551325	0.983763700310314	0.12177446846967	0.983744758163209	-0.00181657532945999	-0.00202902668107389
3.2	0.000826956945147787	0.00248205268522128	0.272993994742155	0.95278170346005	0.272939081805619	0.952721516703528	-0.00128588786423655	-0.00189265434369586
3.3	0.00198411614172105	0.00145661433380631	0.417720245579206	0.898582249669621	0.417583087957719	0.898568352881047	-0.000546524156359952	-0.00188287742727277
3.4	0.00265241875447687	0.000167304338554151	0.551960510171227	0.82260115309167	0.551798629887234	0.822719389546209	0.000378815041189854	-0.00230370820527377
3.5	0.00312196587100652	-0.00135276357614464	0.672563183073456	0.727114254914804	0.672483724369468	0.727153158878248	0.00122894276385157	-0.00320698441933141
3.6	0.00265290897084395	-0.00265723195885225	0.77690798820885	0.614362064646447	0.77714777932011	0.613913077460168	0.00112163202302808	-0.00426494568721671
3.7	0.00223811400061852	-0.00375312794186258	0.863008189617848	0.485574000413892	0.862890333037285	0.485717304803244	0.000894753765475887	-0.00486698513208725
3.8	0.00139836489456935	-0.00475110328397226	0.927478995841356	0.346240602586455	0.927534784804974	0.345861590806571	0.000506528137502179	-0.0054409228540329
3.9	0.000566621527413658	-0.00551029638784309	0.969950685783508	0.197058379550687	0.969714105687432	0.197725769954982	-0.00033106619142272	-0.00598655218289273
4	-0.000493639215658293	-0.00619488442348306	0.988908027665387	0.0449628551913238	0.988869354363223	0.0450657360713571	-0.000458820969436147	-0.00637529973791545
4.1	-0.002075053678975	-0.00684115026021976	0.983767810039658	-0.109218817445088	0.983583821060603	-0.109091302728928	-0.00118709278653583	-0.00744240864677993
4.2	-0.00395656375007187	-0.00688270514979837	0.954362464851127	-0.261119676574271	0.954399178208861	-0.260466762279731	-0.00229788566830446	-0.0081214981201757
4.3	-0.00579966516443168	-0.00679015479080441	0.902489437811261	-0.405333475778407	0.902354034712523	-0.405222151541356	-0.00366542827893657	-0.00883545273968005
4.4	-0.00796721439971337	-0.00613230586506939	0.82863929771137	-0.540407952547683	0.828474644200089	-0.540274381044462	-0.00548044398452588	-0.00909794773673205
4.5	-0.0097376201287617	-0.00501998871235939	0.734485775176915	-0.662593977148808	0.734297694613455	-0.662420553845195	-0.0068691963730686	-0.00879653138327598
4.6	-0.0117243125041821	-0.00363143014987794	0.622095033402419	-0.768570027459335	0.622438055541573	-0.767874158767805	-0.00832947125929424	-0.00900514291280268
4.7	-0.0133339997072603	-0.00169007858974133	0.495746172049802	-0.855358810275547	0.495763393913277	-0.855003638405188	-0.0102149400567931	-0.00897555817506036
4.8	-0.0144638841007538	0.000864854741982739	0.356753049203397	-0.921666525606861	0.356974868457984	-0.921351136050511	-0.0120296212018973	-0.00850397325919766
4.9	-0.0145979889580203	0.00349466392189543	0.209756278614718	-0.965201094081252	0.209536671820688	-0.965208399525207	-0.013476466466655	-0.00753238417915343
5	-0.0139107736799709	0.00603331874004181	0.057335930825926	-0.985533845417827	0.0575132153077988	-0.985289426462768	-0.0141701883165995	-0.0060883174140534
5.1	-0.0124106991073005	0.00829843076285504	-0.0957208199517134	-0.982611288380027	-0.0953895601522845	-0.982387013686126	-0.0146587284226122	-0.00462603045526904
5.2	-0.0102577213426309	0.0102992637261422	-0.247091351296585	-0.95588333345325	-0.246600475620996	-0.95585727154955	-0.0149079883292493	-0.00276376616294355
5.3	-0.00773440167733758	0.0115204159774716	-0.39229829885438	-0.905917166115619	-0.391958657776238	-0.906133341816423	-0.0145378984686647	-0.00084617392523345
5.4	-0.00508101126492412	0.012460511321402	-0.527973191181161	-0.834011211968771	-0.527761160133374	-0.834211729866805	-0.0136928641915689	0.00100653327625118
5.5	-0.00245839813368418	0.0124974875262563	-0.650694104721568	-0.742189092369815	-0.650455835543429	-0.742383508627976	-0.0123459660949215	0.00177841103655559
5.6	-0.000384719040581021	0.0128578790164483	-0.758012335869327	-0.632290407633126	-0.757823120320963	-0.632461999423775	-0.0123176089457791	0.00231618964586927
5.7	0.00211570814384309	0.0127763738009862	-0.846910532253817	-0.506957988102354	-0.846781576092083	-0.507177379534053	-0.0122033773579519	0.00369039579159815
5.8	0.00454869645596531	0.0122631597901998	-0.915080834511404	-0.369352372225513	-0.915013186012832	-0.369636697923159	-0.0117941532562013	0.00535243956749847
5.9	0.00680858885409101	0.0111665544783071	-0.961227032227741	-0.223220835259023	-0.961241456445877	-0.223304274733399	-0.011000923770537	0.00731802478539489
6	0.00905445800014265	0.0094195757514641	-0.984620364077151	-0.0714918173958067	-0.984501327020572	-0.0715497075549878	-0.00892257894528103	0.008911318411754
6.1	0.0100920776337232	0.00709702979766164	-0.983533103983886	0.0823944442197148	-0.983406726701514	0.0822463034041704	-0.00727933167848206	0.00893809209645264
6.2	0.0106431619340374	0.00497214522338204	-0.958593136286077	0.233942529761562	-0.958579433869146	0.233740197525086	-0.00622768953556183	0.00879037752751283
6.3	0.0105602600650115	0.00255814839174193	-0.910668540583713	0.379698369724048	-0.910663973510597	0.379513493181396	-0.00549903605909031	0.00837144020253816
6.4	0.00995176963252213	0.000302779391649545	-0.840821977054346	0.516387039995622	-0.840790293674914	0.51617689679679	-0.00519286958741472	0.00802132019397404
6.5	0.00893493224183677	-0.0019673739800915	-0.750198794705965	0.64070840953372	-0.750222857337361	0.640504826887405	-0.00476892577915469	0.00771874518468612
6.6	0.00769303570258978	-0.00384412541944421	-0.64164245336503	0.748968824751164	-0.641716043569298	0.748717357560711	-0.00441339324871936	0.00758413509754643
6.7	0.00611883749850522	-0.00558786830239028	-0.517784099575745	0.839318404764306	-0.517886519635731	0.839097785617047	-0.00398591520374489	0.0075724580713926
6.8	0.00433393737506566	-0.00687045557179995	-0.381359845901113	0.909522657836045	-0.381501004829508	0.909352281521735	-0.0034921318448801	0.00766661996634465
6.9	0.00229386061956723	-0.0077341012152295	-0.235512996611066	0.957624289106666	-0.23573897018399	0.957514030521043	-0.00269114390276359	0.00775023665372663
7	0.000369980190786613	-0.00805520958047635	-0.0842012166893598	0.982122854166325	-0.0844103554559328	0.982033154067543	-0.00181117274639381	0.00736150070147181
7.1	-0.00151530119307762	-0.00785619094099025	0.0688610939143523	0.983471593728423	0.0686598114107521	0.983338485523616	-0.00121506142577689	0.00715815672390406
7.2	-0.00302097906285391	-0.00737440776652504	0.220645984993572	0.960942237302403	0.220364640867021	0.960907426285228	-0.000267024343696297	0.00708406916796507
7.3	-0.00450351443904693	-0.00677194792574432	0.367004632852214	0.915029971295264	0.366769138333718	0.915055843628928	0.000719940259664364	0.00673757786317854
7.4	-0.00562754102226812	-0.00588874192894033	0.50435406122964	0.846878223683316	0.504141140074027	0.846928927374797	0.00155480664079339	0.00613923655294886
7.5	-0.00653831562829759	-0.00512570576654425	0.62929880368504	0.7587128432432	0.629129536884566	0.75878201142929	0.0025170134111827	0.00528017986805688
7.6	-0.00721699656648358	-0.0040869645207617	0.739743682796754	0.652018013311238	0.739486463232141	0.652099771018566	0.00302534268320194	0.00394886575857626
7.7	-0.00754515549188999	-0.00280337165790207	0.831911598836225	0.529264414623895	0.83172600384748	0.529480845794292	0.00301790144319405	0.00290571810811432
7.8	-0.00729116454560704	-0.00151574430645727	0.903992178602759	0.393726515126663	0.903888848323714	0.393951355351033	0.00297719834558835	0.00208001921701986
7.9	-0.00681723782211121	-0.00030477391378282	0.95416056714748	0.248959218020672	0.9540222601545	0.249138324174685	0.00296366774013522	0.00182964501775698
8	-0.0058006303841572	0.000592947620119189	0.981531480239205	0.0977999000090894	0.981507815108703	0.0980623922296514	0.00340923790710249	0.00142102477472706
8.1	-0.00534881501406493	0.00136833428903946	0.984728490078795	-0.0560045569962527	0.984756823316745	-0.0557490913033934	0.00326693311732736	0.000192657294091924
8.2	-0.00431146040554434	0.00235739636621451	0.963914195056578	-0.208071415272179	0.963961738944946	-0.207754443625872	0.00243227482836332	-0.000523657361463116
8.3	-0.00313834939211833	0.00301742686731947	0.919973239376329	-0.354989095001631	0.920023813982013	-0.354701972429905	0.00142940423004105	-0.000878113896774017
8.4	-0.00181969299726486	0.0033587467662496	0.853955994684052	-0.49350866136218	0.854053212901297	-0.493306455251624	0.000206874619374024	-0.000735268688448452
8.5	-0.00039278434974979	0.0033996485035242	0.766825457670721	-0.620230437535285	0.766876468474406	-0.620079594482908	-0.000124563251417107	0.000160354282720461
8.6	0.000650915281561627	0.00295324706095532	0.661116328887968	-0.731408099996998	0.661284152509137	-0.73117056604089	-0.000140462530272719	0.000179841377719088
8.7	0.00164312642461321	0.00291372089290481	0.539694610050555	-0.825099470038908	0.539953219603842	-0.824883269200761	-0.000439606591843748	0.000569032879062589
8.8	0.00316232777845428	0.0026515337487139	0.405255652214394	-0.898945943832736	0.405440611684283	-0.898806291495899	-0.000571251265120033	0.00107570766315758
8.9	0.0047983854739648	0.00191288630259203	0.260704485623823	-0.951106607530538	0.260883226456725	-0.950935984640974	-0.00020090004590138	0.00195643616587214
9	0.00668665527586639	0.000383672469676694	0.109863164153745	-0.979564093312278	0.110171409318717	-0.979516698717458	0.00121832166321618	0.00285412502428861
9.1	0.00807125021764997	-0.0015972484543872	-0.0431373150252499	-0.985009945220472	-0.0428281028671436	-0.984968032177679	0.00328067071233858	0.00291346754018674
9.2	0.00918493262419498	-0.0039301080238484	-0.195741619681324	-0.966480564357771	-0.195393793995699	-0.966457291148537	0.00576479615054183	0.00225054788356812
9.3	0.00949547380626069	-0.00628704499797109	-0.343510498868756	-0.924323213862786	-0.34315829645089	-0.924296735315755	0.00825513652237933	0.000600971960432263
9.4	0.00925486874214441	-0.00846294729813262	-0.482665127812875	-0.859634409764182	-0.482341432218104	-0.859724522727907	0.010209676637303	-0.00189306922895462
9.5	0.00824736385331002	-0.0102368844206403	-0.609894231963434	-0.774548460228638	-0.609656884970623	-0.774598092430906	0.0112092066127749	-0.00571112946307973
9.6	0.00689373265802644	-0.0109848311256488	-0.723128620212352	-0.670484785065091	-0.722816152149949	-0.670622849537244	0.00963342035512237	-0.0092955928685446
9.7	0.00605661539981871	-0.0111300259686689	-0.818407508237748	-0.549928662387656	-0.818118933862134	-0.550161260150772	0.00700382306998877	-0.0117751560173803
9.8	0.00538255779155854	-0.0113811641664515	-0.893730804493731	-0.416202804259855	-0.893476673257336	-0.416371406550383	0.00366035443124711	-0.0132217822356655
9.9	0.00467363048677758	-0.011256529501196	-0.947454448944677	-0.272603589751067	-0.947201115671215	-0.272812091867754	0.000142147564196124	-0.013166785986401
10	0.00420699533849166	-0.0115286921210325	-0.978637814644141	-0.122133225168532	-0.978482927184598	-0.122496015750204	-0.00224440067389729	-0.0125328197451957
10.1	0.00300596970026339	-0.0113409099591567	-0.985356884900689	0.0315624218333481	-0.985292385447455	0.0311301290404036	-0.00552605646226128	-0.0120899317109929
10.2	0.0024661944019132	-0.0108777357645164	-0.968427882844544	0.184002197022505	-0.968304921640162	0.183570375012287	-0.00885913786306675	-0.0101937651409271
10.3	0.0019871854740242	-0.0105019580107988	-0.928176475293533	0.332020591568263	-0.928192847898742	0.331477914733151	-0.0117195053873143	-0.0074566832528746
10.4	0.00158826366234304	-0.0104867181173096	-0.865565603607431	0.472096453514869	-0.865701706161404	0.471583642356983	-0.0137189125813399	-0.00392934824743007
10.5	0.00123738793489616	-0.0104924435688297	-0.78147518287242	0.601067636534312	-0.78164818243879	0.600634388687354	-0.0137295129517993	-0.000113424264190636
10.6	0.000649346706554234	-0.0107910254490536	-0.67853477707594	0.714697957976699	-0.67880755389734	0.714367101523617	-0.0127397878045274	0.00267962221678678
10.7	-5.9391357583303E-05	-0.0106760736712882	-0.559416872812532	0.811347937864276	-0.559717937887011	0.811037762904479	-0.0111978838755016	0.00504296929145171
10.8	-0.000461362475445371	-0.0108243982781088	-0.426589258887406	0.88834988214918	-0.426940706479862	0.888050965546105	-0.00924601165024586	0.00694940750181514
10.9	-0.00109993249066639	-0.0107652713334904	-0.283293430822989	0.943765479780193	-0.283684474463869	0.943642398654372	-0.00711530387626879	0.00843440318596517
11	-0.00161679762507064	-0.0110047704099137	-0.133287998160861	0.975777805341887	-0.133725676146354	0.975687215794319	-0.00444182025619988	0.00921051957065046
11.1	-0.00220413746948581	-0.0109334161123298	0.0195668180847376	0.984598311483362	0.0190773492988436	0.98461190359919	-0.00186758146444956	0.00941762468637586
11.2	-0.00265121968542148	-0.0111726072123732	0.172234947149712	0.969623077263225	0.171777177054432	0.969696450230152	0.00094904581493876	0.00906774149502218
11.3	-0.00323651283547499	-0.0113943965685678	0.3206514451418	0.930991943672715	0.320191856244834	0.931129057454591	0.00381057172721677	0.00819852626437913
11.4	-0.00406495697992798	-0.0117122457580747	0.461142179651773	0.86967310943755	0.460738016239777	0.869786728006484	0.00654751422373227	0.00702119416908074
11.5	-0.00518406589268624	-0.0118817363179912	0.590131293853375	0.787670600666911	0.58981254280097	0.787973330383116	0.00928590717588054	0.00463186777799691
11.6	-0.0067594530538232	-0.0115783041476624	0.705412187791851	0.686509471018317	0.70519688451319	0.686837739149175	0.0101724250051947	0.00169862071923226
11.7	-0.00789820719514655	-0.0107156024109182	0.80331271453649	0.568481012273438	0.803109635396994	0.568788012693918	0.0103708947464678	-0.000683122139156677
11.8	-0.00908377725431172	-0.00995923514551079	0.881648288093389	0.436680466731526	0.881466857690493	0.43713175671753	0.00988929519998124	-0.00278362036337487
11.9	-0.0102159019313137	-0.0086249851447828	0.938496633280556	0.294735281909675	0.938391183559492	0.29518551454058	0.0088068552794425	-0.00376415364738766
12	-0.0112423599000954	-0.00767712120160352	0.973168592316083	0.145579151863463	0.973140202013736	0.145943951524824	0.00932831649008889	-0.00495966563360983
12.1	-0.01258846929135	-0.00573887361581438	0.983587255667058	-0.00748427871914934	0.98351682383211	-0.00709924972580904	0.0084342988672503	-0.00709543883459922
12.2	-0.0131204449827776	-0.00371369835215335	0.970302934733572	-0.159916789993203	0.97032086358192	-0.159618625322008	0.00703465661658134	-0.00866871331908357
12.3	-0.013084366015563	-0.00177399262444918	0.933585868814418	-0.308413880642239	0.933705873342551	-0.308107202293483	0.00543014047342982	-0.010063724489604
12.4	-0.0129628223593139	-0.00026371348216857	0.874743764445384	-0.449699407623122	0.874807484000227	-0.449329518437022	0.00333396592783658	-0.0110344567682949
12.5	-0.0123430167395287	0.00100283521815097	0.793760564801881	-0.580364438619307	0.79410208495746	-0.579974349045685	0.00165736306460193	-0.0114632165673515
