# GHZ S RI R 50
0.2	-0.000277906680251386	-0.000225839871748955	0.949341599319342	-0.307942349837981	0.94911928325581	-0.307916929248052	-0.000223927343328885	-0.000183916786264122
0.3	-0.000446741689723274	-0.000142700642703639	0.889418485345543	-0.451644858665624	0.889262237450365	-0.451549471896685	-0.000448852304444687	-0.000354113573142465
0.4	-0.00038472551599756	-3.25676975070126E-05	0.808006557578571	-0.583990563897961	0.808018356205416	-0.58401568765455	-0.000535088736769626	-0.00035066731817517
0.5	-0.00043744567702965	9.29495706371636E-05	0.707268794136461	-0.702468651078639	0.707113706582257	-0.702367144520097	-0.000567487257212041	-0.000235061287707403
0.6	-0.000403217029628963	0.000188972379908325	0.589206068424323	-0.803540455353744	0.589086775900478	-0.803378693251899	-0.000558095460791655	-0.000288770269803603
0.7	-0.000380878659108702	0.000455148806881187	0.457083885468545	-0.88492552430265	0.457065112323468	-0.88481299235388	-0.000569653645362229	-0.000349042068337163
0.8	-0.000122127379557685	0.000549325409909458	0.313998226847715	-0.944976182708396	0.313966858045459	-0.944786382379767	-0.000660836456420297	-0.000324473727033088
0.9	8.36848837153258E-05	0.000664006833202876	0.163340857254357	-0.981997584213117	0.163275804411668	-0.981905633210223	-0.000884202226513101	-0.000388141612628891
1	0.000384388652499565	0.000568681628694058	0.00877700963889704	-0.995036607699557	0.00872535463318045	-0.995005123766902	-0.00108859452945561	-0.00017567996873976
1.1	0.000744117183134251	0.000150288476019185	-0.145648948062844	-0.984214030030153	-0.145664685765202	-0.984083561221507	-0.00101099360799409	-2.98294332470809E-05
1.2	0.00101747638993188	-0.00112219920586143	-0.296821646632238	-0.949421506008449	-0.296745253500359	-0.949395418627764	-0.000524959872696362	0.000185450500467243
1.3	0.00100017575519515	-0.00310227956013686	-0.440578223896619	-0.891558502421145	-0.440555185862571	-0.891551892196807	0.000912877517847435	0.000394438626729355
1.4	0.000563033938940617	-0.00516760964999855	-0.573329195427722	-0.812142106596378	-0.573305012478204	-0.812120477550657	0.00262780124241349	-0.000346479004084447
1.5	-2.05414729753231E-05	-0.00593331590404439	-0.692379584005773	-0.713138578825074	-0.69227780689253	-0.713053634733231	0.00416232903990742	-0.00159190437500964
1.6	-0.000722859291282846	-0.00594383302172224	-0.794602368550232	-0.596850840837849	-0.794528279667084	-0.596790824912899	0.00380021748539933	-0.00313802813462084
1.7	-0.00116439476616285	-0.00539360634968513	-0.877102738230718	-0.466608542565974	-0.877266854348025	-0.466092310776926	0.0030442470911889	-0.00387794547688516
1.8	-0.0016384029279253	-0.00497256275183118	-0.938915566715603	-0.324292186271823	-0.938804306005103	-0.324290867523521	0.00199437123840531	-0.00443222260340559
1.9	-0.00211677426073337	-0.00446767202496112	-0.977577160971934	-0.17504520966714	-0.977669856509435	-0.17455760947568	0.000912656531004027	-0.00446537179109409
2	-0.00254024414870895	-0.00403429359375129	-0.99272099087626	-0.0206337784908227	-0.99273290481988	-0.0205879164826425	0.000495099346420775	-0.00433608715035809
2.1	-0.00315707354724409	-0.003623228718799	-0.983698281103359	0.133822247155957	-0.98373636371508	0.133859366379853	-0.000229882750688871	-0.00470264773578165
2.2	-0.00389739474687779	-0.00303751355693874	-0.950885449583813	0.28477178818131	-0.950810318595099	0.284834537029959	-0.00106665399446806	-0.00462628139588235
2.3	-0.00450499195030913	-0.00229659973342031	-0.895213530709119	0.428241204082017	-0.894831010034799	0.428754135998751	-0.00193058324087568	-0.00451826266333966
2.4	-0.00517445236356808	-0.00153751128056439	-0.816996233276187	0.562992973003014	-0.817263265233991	0.562407356148012	-0.00292364573570054	-0.00412750007692512
2.5	-0.00554711251691656	-0.000456246129119249	-0.719827893551434	0.682927162273409	-0.720041989571205	0.682417525686298	-0.00311438326576114	-0.00356708904517836
2.6	-0.00574114738752219	0.000492074522638421	-0.605280591969529	0.78582364748326	-0.605174674668412	0.785640860602731	-0.00285221629502815	-0.00357416582379976
2.7	-0.00554554213116906	0.00152293514460946	-0.475409047024554	0.870279630438989	-0.475858394423726	0.869873270691656	-0.00291804254221957	-0.00380175659102156
2.8	-0.00486895646746878	0.00232823235209814	-0.335801003048436	0.932913606106145	-0.335133366574521	0.933071676449514	-0.00326851643764403	-0.0039194553089003
2.9	-0.00362203502696301	0.00284303440781372	-0.186291715075352	0.973681708685768	-0.186323052161228	0.973594408527203	-0.0031818444199435	-0.00343645660569532
3	-0.00225239419116525	0.00289752440898491	-0.0320454602024315	0.990565372553526	-0.0327463487435394	0.990407817718085	-0.00272552916033852	-0.00298127147902065
3.1	-0.000831687026416696	0.00272811142109463	0.120442156536406	0.983375101167234	0.121032411799238	0.983356578436541	-0.00213447285623079	-0.00271015589031138
3.2	0.000323310817537305	0.00207080802584818	0.27210005224198	0.95255979125911	0.272045213237868	0.952499588183175	-0.00178323460461349	-0.00250540428070798
3.3	0.0014193579273922	0.00119169099685749	0.41676762495611	0.898598335368759	0.416630533107236	0.898584323501384	-0.00113497970398275	-0.00233356849093632
3.4	0.00204926840655331	5.52266317555318E-05	0.551065496964624	0.822858575121436	0.550903557415884	0.822976632680019	-0.000252668001069206	-0.00257029780317451
3.5	0.00255631418489308	-0.00116992314083879	0.671744681260984	0.72745066794525	0.671665214758295	0.727489493249466	0.000678070167555393	-0.0031773303111323
3.6	0.00236387799600544	-0.00239137664759235	0.776067241183514	0.614950894611646	0.776307406827884	0.614502278874859	0.000842085334640809	-0.00420516691204103
3.7	0.00209439876769176	-0.00351195184378754	0.862361057503808	0.486386010212895	0.862243072320505	0.48652916861125	0.000715087674717678	-0.00484313475497356
3.8	0.00137540180440328	-0.00457704349109092	0.927056971600791	0.347159810202021	0.927113142592401	0.346780883556211	0.000408723996163414	-0.00546038276891999
3.9	0.000563342130312654	-0.00549285413934144	0.969716384948875	0.19799358370766	0.969479165799808	0.19866071462464	-0.00042631499846313	-0.00610172133723868
4	-0.000683285902666323	-0.00616075882896733	0.988777963962136	0.0460153431678686	0.988739183984933	0.0461181742075199	-0.00066860276463761	-0.00640485139964806
4.1	-0.00221291469739693	-0.00673496641836547	0.983980270238446	-0.108133610066588	0.983796122295675	-0.108006288420538	-0.00126600528343976	-0.00744746480126388
4.2	-0.00414532855706198	-0.0067528648960221	0.954782672919972	-0.260141553363608	0.954818695996477	-0.259488502827404	-0.00242282128462236	-0.00815523408628436
4.3	-0.00597973102906263	-0.00655808194145253	0.903076166332351	-0.404435841227962	0.902940621127026	-0.404324643115826	-0.00380193935102269	-0.0087933366248253
4.4	-0.00805562748442815	-0.00589656067726083	0.829411254123873	-0.53956953065854	0.829246417468273	-0.539436120759339	-0.00556168976244107	-0.00904153658521859
4.5	-0.00992132334618879	-0.00481469966114075	0.735593758930785	-0.661932690316561	0.735405389970198	-0.661759434908585	-0.00702334175483863	-0.00869799564700146
4.6	-0.0118579401684043	-0.00332083237502678	0.623266872225657	-0.76828070433465	0.623609302993223	-0.767584095921985	-0.00833307627180999	-0.008816615230698
4.7	-0.0134448809011636	-0.00137769023093444	0.496934741830234	-0.855293038389173	0.496951591804095	-0.854937654359354	-0.0101491561315061	-0.0088532679085824
4.8	-0.0145515073276203	0.0012144848334318	0.357961670329983	-0.921847627487195	0.358183286582954	-0.921531806502412	-0.0119337109911381	-0.0084189436961039
4.9	-0.0146209562597962	0.00386090312411215	0.210953290443138	-0.965685133272014	0.210733529857888	-0.965692681308888	-0.013340197799982	-0.00749539329682916
5	-0.0138373665180753	0.00642745625270309	0.058284342474901	-0.986364784917874	0.0584615633478783	-0.986119985578725	-0.0139651716312536	-0.00608315042866387
5.1	-0.0121693046112867	0.00857897900481142	-0.0949825432714347	-0.983483314693931	-0.0946512024065157	-0.98325858418045	-0.0143721712123356	-0.00480622204130189
5.2	-0.00998090193195341	0.0104274947918898	-0.246490784787547	-0.956911542430174	-0.245999511041725	-0.956885041182532	-0.0147127576827126	-0.00308844492565367
5.3	-0.00747620508407898	0.0115381435138294	-0.391934723240399	-0.907092987322142	-0.391594585282751	-0.90730909212209	-0.014450237419605	-0.00119351806773205
5.4	-0.00490252764256542	0.0124223211514317	-0.52793407016806	-0.835246342022087	-0.527721678542338	-0.835446918650719	-0.0136791618586406	0.000735800432360777
5.5	-0.00223328074023461	0.0126554517746207	-0.650883447271283	-0.743259105460667	-0.650644842873272	-0.743453568860044	-0.0121402352812121	0.00174205715224788
5.6	0.000117793176598325	0.0128058256339084	-0.758316735757865	-0.633415548615012	-0.758127221013164	-0.63358717805479	-0.0118176290179105	0.00194800345255329
5.7	0.00257925291965714	0.0124894045520543	-0.847509777539236	-0.508029786747527	-0.847380546380826	-0.508249334823313	-0.0118248917327052	0.0030727658842531
5.8	0.0049012079971703	0.0117440677137697	-0.915919714450397	-0.370247727763144	-0.915851841003083	-0.370532338653394	-0.0115918493602566	0.00455450275359769
5.9	0.0068399181461768	0.0103750218016079	-0.962185837922538	-0.223877722577994	-0.962200242295245	-0.223961259628169	-0.0111312618617745	0.00638106183318773
6	0.00848535456008631	0.00880278416176783	-0.985612756149365	-0.0720961802847307	-0.985493563420611	-0.0721540668900854	-0.00946965189224748	0.00827016442463231
6.1	0.00934840985625736	0.00681055541213716	-0.984815240408362	0.0819911469908096	-0.98468862751076	0.0818428847775063	-0.007825664872358	0.00849984357352537
6.2	0.00976015851139879	0.00505502365874096	-0.959953421443686	0.233873769948802	-0.959939621092721	0.233671175608683	-0.00689539090376059	0.00857158766883576
6.3	0.00978881727516862	0.00298366465481039	-0.912028382754225	0.379922090718765	-0.912023750108782	0.379736964416987	-0.00612270827352041	0.00837967009851852
6.4	0.00940503418172022	0.000800053485415348	-0.84214504197059	0.516859877631338	-0.842113252777861	0.516649450985458	-0.00570120863854162	0.00807154488469728
6.5	0.00851905317771136	-0.00149661827256875	-0.751568426264344	0.641557796958851	-0.751592477467293	0.641353879660784	-0.00522677759152411	0.00776991261013062
6.6	0.00735616066295095	-0.00344685390327908	-0.642652077526689	0.750244959202219	-0.642725805237614	0.749993082198384	-0.00486156404873349	0.00761050687416435
6.7	0.00583139189552874	-0.00517900279045599	-0.518437176331305	0.840735452581867	-0.518539799336488	0.840514506499249	-0.00440408849160813	0.00769803584550639
6.8	0.00416420910605977	-0.00644887930103303	-0.381709023177673	0.91103296771753	-0.381850446033722	0.910862364981905	-0.003750943607391	0.00787318140586959
6.9	0.00223923282033791	-0.00734918224483811	-0.235559596411553	0.959236926967913	-0.235785969363152	0.959126569949167	-0.00275575818063581	0.0079434610479628
7	0.000455464892110509	-0.00771353695670303	-0.0837145782847994	0.983778302548433	-0.0839241151716358	0.983688589024937	-0.00166172307561864	0.00746614590285822
7.1	-0.00137195964588784	-0.0076641097560141	0.0696799526121544	0.984795314347237	0.0694782910281191	0.984662168043631	-0.0010040329137083	0.00705157543282643
7.2	-0.00289846199163677	-0.00726603664539578	0.221658725450606	0.962074895443404	0.221376975738185	0.962040246781498	-8.24822198393676E-05	0.00686045846955189
7.3	-0.00442033302024548	-0.00670459624123884	0.368248408271495	0.915956712829775	0.368012618938542	0.91598281322614	0.000858916582499737	0.00643915119426833
7.4	-0.00560206344738371	-0.00579624560094045	0.505853173721961	0.847498313430505	0.505640021718535	0.847549293674163	0.00161845935553089	0.00583322483979306
7.5	-0.00646609718023527	-0.0048695987694265	0.630819573693265	0.758812844266691	0.63065020461544	0.758882276018006	0.00262480935768679	0.00509202297047763
7.6	-0.00692506158755444	-0.00383522091796229	0.741128655153789	0.651924030212752	0.740871262552038	0.652006126185648	0.00328835488559448	0.00367217910048043
7.7	-0.00710021067355352	-0.00266601460322005	0.833299508342678	0.528904879932268	0.833113959377491	0.529121723113108	0.00330369710207507	0.00252397375926101
7.8	-0.00678283439301811	-0.00155695580618834	0.905267625674957	0.393055377549997	0.905164457381162	0.393280541165596	0.00322869155877132	0.00161156033530947
7.9	-0.00646767854952707	-0.000573783750528011	0.955197430107959	0.24802626351101	0.955059226943902	0.248205672438378	0.00305275226465224	0.00130257251296059
8	-0.00557943180598264	0.00040622438295668	0.982323214289545	0.0969143184945891	0.98229978775632	0.097177020028844	0.00354526750198596	0.00118171969229667
8.1	-0.0050655158487861	0.00107134000925483	0.985551576706541	-0.0570603728783947	0.985580196189987	-0.0568047077503857	0.00369336892749895	-0.000266820057559414
8.2	-0.00424756528562223	0.00187032463221543	0.964536626103317	-0.209387746321456	0.964584584088608	-0.20907054553244	0.00270346673429932	-0.00131818744601111
8.3	-0.0033683851130225	0.0025647534114092	0.920298795589213	-0.356470597455974	0.920349781453011	-0.356183296029115	0.00139116457583039	-0.00176152716204039
8.4	-0.00226339821799291	0.00302312419713728	0.853971662849631	-0.495027450790381	0.854069225295469	-0.494825214942033	-0.000129516148961609	-0.00156041258711795
8.5	-0.00111165476799204	0.00339606488946491	0.766649852314894	-0.621893371530902	0.76670112478301	-0.621742462000077	-0.000737911103194455	-0.000271239681146243
8.6	0.000192188960845825	0.00329154395755354	0.660338743010007	-0.733130108862938	0.660507112506816	-0.732892687497154	-0.000401737729241883	-1.79966632229732E-05
8.7	0.00137920497585382	0.00324270606133842	0.538466295779613	-0.82653015734081	0.538725440166992	-0.826314316440272	-0.000572373800425989	0.000201373773889691
8.8	0.00299533601493605	0.00291208830207331	0.403737438006575	-0.900035845524079	0.403922726267442	-0.899896484464265	-0.000779621423115219	0.000538672299934026
8.9	0.00467106888017613	0.0020596241153454	0.258987755834988	-0.951887675417514	0.259166873116177	-0.951717338217391	-0.000596796342271134	0.0013237858827645
9	0.00651052045501338	0.000476616125017191	0.107777009970306	-0.979948297422906	0.108085403562636	-0.979901557347666	0.000625753872562021	0.00232875637767974
9.1	0.00791659921881572	-0.00157441508840865	-0.0451871881109355	-0.9846735517556	-0.0448779655417819	-0.984632296061311	0.00265853123023211	0.0024813373807736
9.2	0.0089665947042701	-0.00389085284433606	-0.19755258054505	-0.965715360360534	-0.197204847125198	-0.965692776005685	0.00509731139232417	0.00201514135928464
9.3	0.00934969507050204	-0.00614763686874453	-0.345101741749653	-0.923223223217953	-0.344749659276952	-0.92319742707783	0.00778467537258149	0.000613435759989447
9.4	0.00922079648763991	-0.00833450545532544	-0.484056106600636	-0.858183996359617	-0.483732778417525	-0.858274687349046	0.0100510529052134	-0.00180586353098959
9.5	0.00842313130284722	-0.00997133024649514	-0.610776173311982	-0.77263860196938	-0.610539150593488	-0.772688637384004	0.0115472331992139	-0.00559428374101877
9.6	0.0073019354746056	-0.0110783189122207	-0.723452579585304	-0.668644789564758	-0.723140652412891	-0.668783209472158	0.0102233216881944	-0.00982337541939283
9.7	0.00634830772333389	-0.0114575761052449	-0.818403660506525	-0.548125042215045	-0.818115734159315	-0.548357839447103	0.00734279823447117	-0.0126520836194813
9.8	0.00554328107819551	-0.0118540644904605	-0.893366382399063	-0.414431809136166	-0.893112777344843	-0.414600601243153	0.00373333055815758	-0.014239064470202
9.9	0.0045736393393412	-0.0118863531537348	-0.946655899920627	-0.270943472904103	-0.946403172551906	-0.271152068842293	-0.000123348873532127	-0.014196248094285
10	0.00382724906851834	-0.0118711077358053	-0.977535964432197	-0.120933515764018	-0.977381659809114	-0.121296015010758	-0.00262893120087337	-0.0131367541336338
10.1	0.00275505547252537	-0.0116755369170316	-0.984300019561655	0.032628648086759	-0.984236069149376	0.0321967316308885	-0.00567519409851729	-0.0128310845590335
10.2	0.00209807370582443	-0.0112529016506116	-0.96714054291815	0.184993434050523	-0.96701824825162	0.184561933604546	-0.0092051265715944	-0.0110608912080367
10.3	0.00154572721782442	-0.0108655017411854	-0.926607315069898	0.332779893367947	-0.926624351902412	0.332237909786374	-0.0122498903733154	-0.0082887933863175
10.4	0.00104610101175483	-0.0109313731563354	-0.863817299771909	0.472440787116057	-0.86395380583741	0.471928845817417	-0.0144313828782281	-0.00470638875382961
10.5	0.000391158150033939	-0.0108642584272465	-0.779796419191372	0.601170515283889	-0.779969681854651	0.600738018552375	-0.0146302057715035	-0.000628318049975173
10.6	-0.000233205281390291	-0.0110862194830847	-0.676603565103738	0.71447389608526	-0.67687634729709	0.714143885564559	-0.0134657984758737	0.00228824929963245
10.7	-0.00106110770828219	-0.0108555541222797	-0.557524425085445	0.810561099785042	-0.557825313864709	0.810251806340374	-0.0119006033996925	0.00466005616877203
10.8	-0.00163820745840036	-0.0107965488948407	-0.42496162694523	0.887106720390884	-0.425312705395942	0.886808688792516	-0.0100380438411761	0.00661440263660455
10.9	-0.00229266190996707	-0.0104395488204089	-0.282013458021774	0.942261960307227	-0.282403883248513	0.942139420013221	-0.00792932703400529	0.00828555287507971
11	-0.00264981249591452	-0.0103296496057421	-0.132111506911994	0.974007416852496	-0.132548419746826	0.973917414889956	-0.0050883952040024	0.0092793582694079
11.1	-0.00298704730487337	-0.0100871302178585	0.0202014080493764	0.98235954079749	0.01971305491687	0.982373439668049	-0.00234711802034903	0.00950574296049776
11.2	-0.00318183130374791	-0.0102076206394925	0.172247520071153	0.967333579002916	0.171790827571527	0.967406976060186	0.000591052568345008	0.00919670536136232
11.3	-0.00350150627134778	-0.0103727294089315	0.320164647089635	0.928801872815661	0.319706133899124	0.928938794222634	0.00357381466348925	0.00836649333590291
11.4	-0.00413678332358872	-0.0106752962594687	0.460266633531918	0.867586311856283	0.459863419042055	0.867699754061283	0.00641254031131809	0.00727387871508184
11.5	-0.00487965040388509	-0.0106969486655597	0.588596434438186	0.785637925733849	0.588278505335873	0.785939868915366	0.00958780674563036	0.0050354983361502
11.6	-0.00600397341877748	-0.0106946031782494	0.703379569543863	0.685128455286039	0.703164652844413	0.685455822807782	0.0108185984370129	0.0016780702834625
11.7	-0.00693166886342456	-0.0101348305820909	0.801136278339086	0.56762221067687	0.800933494662792	0.567928387340011	0.0110297914706463	-0.000982909428888425
11.8	-0.00795235338535566	-0.00974499341296891	0.879363730730551	0.436269528089281	0.87918241527584	0.436719676303631	0.0105272633075832	-0.00330657068429344
11.9	-0.00891866579983325	-0.00900010400631089	0.936090032091815	0.294819306490379	0.93598445907483	0.295268413870345	0.00958563110032336	-0.00451041458312649
12	-0.0103650219064694	-0.00817536699669434	0.970892652604092	0.146468492405517	0.970863872539221	0.146832471287719	0.00989600226096362	-0.00563162429831806
12.1	-0.0117440734752084	-0.00696121534408582	0.981795928204224	-0.00630446159786687	0.981725168800216	-0.00592022078800557	0.00933580635568414	-0.00846450831585719
12.2	-0.0130106012392136	-0.00530024305373735	0.968714451916326	-0.158534267517656	0.968732012819633	-0.158236626056681	0.00733129321757473	-0.0105313196770432
12.3	-0.0137787038741985	-0.00325267509715311	0.932196013869845	-0.306706444965671	0.932315422253159	-0.30640020063663	0.00497516009884965	-0.0119401228728512
12.4	-0.0143011992791631	-0.00127846842439396	0.873753491880206	-0.447571235102646	0.873816549833661	-0.447201949760595	0.0022139639052635	-0.0125182491841815
12.5	-0.0140909082416369	0.000942039528490907	0.793441221970655	-0.57824102710392	0.793781612067975	-0.577851007111238	0.000150931077224855	-0.011986556405808
