# GHZ S RI R 50
0.2	0.000263587540573681	-0.00122788382463865	0.953651357981314	-0.30683342312042	0.95342814421934	-0.306808438032882	0.000313751669477374	-0.00118173910574359
0.3	-0.000597906046550086	-0.00128986051312163	0.894963369718752	-0.451112827016672	0.894806099675539	-0.451017458092828	-0.000603813425385625	-0.00149303296579921
0.4	-0.00150926590462205	-0.00079844519892412	0.814880895289263	-0.584856044407594	0.814892849566557	-0.584881281981631	-0.0016620385519924	-0.00110558183584237
0.5	-0.00122422744670989	0.00114232243036298	0.714068294936051	-0.70620922310702	0.713911828984316	-0.70610728932354	-0.00135629991846589	0.000825793920275178
0.6	0.000173528995352147	0.000197406170172353	0.594755039576912	-0.808028198996952	0.594634625297059	-0.807865534597235	1.26619877541974E-05	-0.000265168903254049
0.7	-0.000452336860441829	-0.00021944853151809	0.462476504165038	-0.89069654564977	0.462457345663077	-0.890583195057429	-0.000645595371630195	-0.00100253948874286
0.8	-0.00084287080144152	-0.00036045601089499	0.318418538940738	-0.95256922806091	0.318386556123846	-0.95237784523031	-0.00138310440834037	-0.00120551918049939
0.9	-0.00227730253752095	-0.000383788306242079	0.165522416064186	-0.991138887899023	0.165456690382713	-0.991046113413194	-0.00323593078618493	-0.00140096284951995
1	-0.00329249968472075	0.00367290354153342	0.0085700327156884	-1.0031529988005	0.00851796537928344	-1.00312124321601	-0.00474813383653066	0.00295130402925252
1.1	0.0017710286721886	0.00334418234362559	-0.145861629799485	-0.993040118656634	-0.145877647276452	-0.992908518044696	5.13543953071503E-06	0.00315569508137743
1.2	0.00252383536877962	-6.79434675736787E-05	-0.299428517342741	-0.959085404242324	-0.299351366300809	-0.959059024507515	0.000981779335108458	0.00121660884084527
1.3	0.00274432316035567	-0.00372524293671119	-0.445788357750696	-0.900599261598236	-0.445765074156032	-0.900592597771185	0.00262856734635896	-0.000228353238554755
1.4	0.00188972799112532	-0.00694502427695239	-0.580245891614895	-0.819339154772054	-0.580221436078209	-0.819317347452998	0.00389797526591227	-0.00207612028353468
1.5	0.00352983496506482	-0.00951412093897406	-0.699197973281591	-0.720225180944458	-0.699095193082133	-0.720139391836359	0.00767282859873872	-0.00510435337628726
1.6	-0.00162431778286898	-0.0128789422451449	-0.805143251441393	-0.603574337313714	-0.805068175546323	-0.603513639600697	0.0028748456750554	-0.00989771456903536
1.7	-0.00488329806016583	-0.00948562721583371	-0.889622708295758	-0.470055966105124	-0.889787443801885	-0.469532680978731	-0.000647355796637674	-0.00782243669044091
1.8	-0.0061168665953243	-0.0065532404012382	-0.951829089806649	-0.324697592769468	-0.95171644202592	-0.32469668690074	-0.00242210058162514	-0.00589612662562129
1.9	-0.00652447459315096	-0.00228772128740033	-0.990276061987438	-0.173491168536436	-0.990368048714255	-0.172997213909033	-0.00341461066053308	-0.00219562001818168
2	-0.000271411523029896	-0.000133041097678799	-1.00763807124181	-0.0165923127091245	-1.00764996220339	-0.0165457135780081	0.00285273891948804	-0.000385218183381282
2.1	-0.00150904901841893	-0.00568247233579555	-0.996903382698182	0.143730133429104	-0.996941718080932	0.143768100231928	0.00147720436285637	-0.00673134179318978
2.2	-0.00501849754708846	-0.00482540783195545	-0.960866230163843	0.297160608153509	-0.960789537206293	0.297223504617613	-0.00212524703104037	-0.00638236883041265
2.3	-0.00689380742410149	-0.00294853938626559	-0.902640536880637	0.442352434903205	-0.902248163274804	0.442868305916195	-0.00424197018289663	-0.0051530500762884
2.4	-0.0088528531031249	0.000255454352210176	-0.822240203113981	0.579259419150879	-0.822517030726806	0.578668609905604	-0.00651244892796915	-0.00236212333353657
2.5	-0.00478119251388984	0.00571124495556716	-0.719666021648566	0.702670827305526	-0.719890438358291	0.702157386018575	-0.0022973059937517	0.00247852542301491
2.6	-0.00121782274240875	0.00167039441369489	-0.599323661371485	0.802798110662633	-0.599219474698414	0.802611905554322	0.00166962871026815	-0.00249839542332915
2.7	-0.00241595220797144	-0.000195111802445914	-0.466828563706608	0.885420767191092	-0.46728812831422	0.88501734930681	0.000180654755901212	-0.00560603477887842
2.8	-0.00372772413889399	-0.000474857364454621	-0.32409234927091	0.946627645381985	-0.323416197483946	0.946776595105799	-0.0021920867145181	-0.00679759019474999
2.9	-0.00377928449972477	0.000525377697099172	-0.170347881725671	0.985085645196418	-0.170381045907536	0.984998185309296	-0.00347190476384366	-0.00573112000880562
3	-0.00256547029395051	-7.47805230936236E-05	-0.0131678290950032	0.994949302020656	-0.0138744066249767	0.994804591088547	-0.00317626798768876	-0.00585081265233965
3.1	-0.00373961974260866	0.00036910609327171	0.137019439306751	0.984648698535774	0.137611343672393	0.984620403550454	-0.00515255205175918	-0.00511632356965705
3.2	-0.00285948905882904	0.0016904807928605	0.289418520895143	0.951253366954424	0.289362454329637	0.951193892819254	-0.00504196993055758	-0.00275805844168281
3.3	-0.00136394822515738	0.00219511585624543	0.434190658819893	0.893087727661802	0.434052987897063	0.893076191239302	-0.00396601162898713	-0.00118956771460484
3.4	0.000670545117940988	0.002791889633694	0.566352726857655	0.81223124681825	0.566193059366659	0.812352309782338	-0.00166034757758674	0.000305478688673821
3.5	0.00472015428009878	-0.000489421147006496	0.681685298331815	0.715845129378601	0.681606570107196	0.71588510265049	0.00282723237108779	-0.0023807403937239
3.6	0.001525282083816	-0.00414445886174686	0.786418599581639	0.602738890429222	0.786651644235999	0.602286154498219	-1.65766488762648E-05	-0.00584132587247042
3.7	-7.79025466616381E-05	-0.00380506305012507	0.870263116018541	0.470751452941663	0.870147756345047	0.470896581427705	-0.0014549367251776	-0.00500814044933576
3.8	-0.00117187405898108	-0.00349681475132882	0.930754575293408	0.329831567664081	0.930803889902652	0.329452647263136	-0.00211087296836883	-0.00426940004488645
3.9	-0.00166864431348654	-0.00174924273545889	0.969177601392571	0.181579810979898	0.968952063326329	0.182248201484739	-0.00261823953427393	-0.00227914131417143
4	0.00286946899064153	-0.00163285170558393	0.988428331878193	0.0301952997041662	0.988391234400316	0.0302986365087752	0.00288630757700636	-0.00185030583342388
4.1	0.00101796709404991	-0.00746192909445607	0.978898170425464	-0.127068263109169	0.978717069694415	-0.126937720680251	0.00191612825460165	-0.00813334731177573
4.2	-0.00295426391228145	-0.00808409157673053	0.944313234433769	-0.277096194213633	0.944361663475771	-0.276447564068361	-0.00129189320083855	-0.00943788646623018
4.3	-0.00616887450473597	-0.0079076169864067	0.889336316115777	-0.418272259598682	0.889203764148061	-0.418159336039748	-0.00406104036110063	-0.0100823177216875
4.4	-0.0101926138314414	-0.00566154386025394	0.814173166586834	-0.551001715707508	0.814011831676248	-0.550866206748806	-0.00777138077053121	-0.00876452334234989
4.5	-0.00913447122226483	-0.000598498204442677	0.71553398313758	-0.673031472289986	0.715350833121711	-0.672855403066706	-0.00637502840243349	-0.00449595760929867
4.6	-0.00827026907497008	-0.00274502917063991	0.599230450486781	-0.771220826543768	0.599582878188536	-0.770540375470462	-0.00498368013126928	-0.00817911187924503
4.7	-0.010821769885673	-0.0025457685226575	0.473996773793194	-0.852311078509442	0.474019970971553	-0.851961073204878	-0.00781153765144383	-0.00987553448863586
4.8	-0.0128507456605783	-0.000818223602754774	0.336280347662295	-0.914498414944762	0.33650427492468	-0.914191221469203	-0.0105412189596808	-0.0102325677431169
4.9	-0.0138385488405922	0.00183179698027178	0.189624308954878	-0.954160815466638	0.18940792319089	-0.954164156815812	-0.0128770694952556	-0.00919527794521617
5	-0.0125371034627616	0.00354602235705887	0.0393421767169138	-0.966067736320451	0.0395199512252123	-0.965831410453863	-0.0129566131453031	-0.00846857466548558
5.1	-0.0140684897423242	0.0049533431599017	-0.105275230203942	-0.960704732952531	-0.104948332617134	-0.960489104255059	-0.0164098272633721	-0.0078734600156011
5.2	-0.0135830839806837	0.00904965162165638	-0.252317932385526	-0.933630117258135	-0.25183683772523	-0.933609874436197	-0.0183317722679512	-0.00389206962683836
5.3	-0.011069473468412	0.0129438066038935	-0.393208207017528	-0.882474467701419	-0.392878065420519	-0.882689504142177	-0.0179467623386413	0.000764514977733085
5.4	-0.00564798088657261	0.0171734468822188	-0.52276463910252	-0.809192060624998	-0.522559513859626	-0.809389658900316	-0.0142535542393133	0.00600456926013873
5.5	0.00390239599809429	0.0127778661094153	-0.636728635448466	-0.721866830798909	-0.636496847996824	-0.722057122865321	-0.00576822153504053	0.00229636019463837
5.6	0.000109614998511943	0.00826989654126388	-0.743603878537654	-0.61704316786075	-0.74341908715951	-0.617211613721349	-0.011589156668489	-0.00216514692613078
5.7	-0.000465032190312167	0.010333136840837	-0.829973321973883	-0.493660159573434	-0.829847759424882	-0.493875156773282	-0.0145570285915177	0.00129171870004213
5.8	0.000832239329765115	0.0122087559785585	-0.894733073014782	-0.359687570162523	-0.894667354007994	-0.359965509129981	-0.0152432870966545	0.00532353436346831
5.9	0.00342611725842815	0.0157488219506035	-0.938490069974554	-0.219959662779019	-0.938503993511432	-0.220041195780574	-0.014077183058959	0.0118782861526232
6	0.0150108794595328	0.015123026355173	-0.966136836006977	-0.0737732027345702	-0.966019790231308	-0.073829585695369	-0.00265291781590753	0.0145640599709438
6.1	0.0154792635568887	0.00439701989066128	-0.964449746976071	0.0801984743697859	-0.964325739210784	0.0800532921688936	-0.0014627545155554	0.00614816101022867
6.2	0.0124486937195962	0.000860689840904298	-0.938697073260181	0.226940100346135	-0.938683234608079	0.226742101545447	-0.00396050143134031	0.0044285289164747
6.3	0.00980247549432941	-0.00129190522610688	-0.892947839522457	0.367636005351414	-0.892942560982539	0.367455083722884	-0.00583084848403732	0.00416702389546994
6.4	0.00742607677308298	-0.00169270669057677	-0.827734189352103	0.501477458006693	-0.827701867292967	0.501271539467845	-0.00740150448334217	0.00560463791987081
6.5	0.00697637467780197	-0.00272062115917105	-0.737685509666547	0.626795799875315	-0.737708613711948	0.626595985462001	-0.00643738470526166	0.00654648764888243
6.6	0.00517255690974243	-0.00348956543926334	-0.630393654217524	0.728550009609223	-0.63046433220835	0.728304008500689	-0.00667008044593051	0.00740430649106905
6.7	0.00476627232332294	-0.00378435796554284	-0.512907591797052	0.816078453648593	-0.513005890564303	0.815861995900782	-0.00519656061048821	0.00880176123788784
6.8	0.00447730377782172	-0.00497893603253537	-0.382047319728832	0.886509806909071	-0.382183832330852	0.886341686645578	-0.00329728324150319	0.00898933810263462
6.9	0.00391823958358922	-0.0063284237320204	-0.23926961097314	0.935881687787672	-0.239489963687145	0.935771663820064	-0.0011286132952852	0.00867958803153226
7	0.00244849186020379	-0.00928047866750593	-0.0918987130208942	0.956507059434422	-0.0921016794094699	0.956417530610083	0.000186460533578313	0.00561145042158619
7.1	-0.00165536481853862	-0.00927110815644154	0.0511821392223586	0.961474323037453	0.0509877627323275	0.961341057563685	-0.00159109177360221	0.00521567245555955
7.2	-0.00361593055450686	-0.00813603654374637	0.19919458451893	0.94479389259659	0.198919712099556	0.944754871938527	-0.001174754769352	0.0058745392203542
7.3	-0.00528799390235416	-0.00710145684604696	0.343203412438396	0.903368960852895	0.342972153671149	0.903390076770084	-0.00043884438665538	0.00602161929344848
7.4	-0.00614947728820368	-0.00538127949451641	0.477223791243388	0.838552756673605	0.477014434173748	0.838598263433561	0.000620617844655621	0.00637094180055955
7.5	-0.00513203781973961	-0.00586348943042807	0.596890845591358	0.760172576387419	0.596723123313599	0.760235928558054	0.00341003025900365	0.0043374349041769
7.6	-0.00844528798376143	-0.00679673505398844	0.712370096626377	0.662720519642745	0.712114221180543	0.66279434569282	0.00138247894562332	0.00111471007990443
7.7	-0.0108949524533206	-0.00400019521507263	0.807959687514379	0.544055821725753	0.807770840391703	0.54426479068103	-0.00074993483397743	0.00164933545075871
7.8	-0.0117343638627375	-0.000387185295916018	0.882778137152912	0.413213623141086	0.882670023986852	0.413433042727987	-0.00187732991610849	0.00321886747372106
7.9	-0.0109507703267552	0.00532778793260441	0.936950092836176	0.275018190001184	0.936807829808576	0.275191320493454	-0.00115306406057385	0.00768314766524242
8	-0.000769656974994457	0.00800605199333441	0.975984174535515	0.127459670701949	0.97595257094687	0.127720755292591	0.00803889558188097	0.00922316880782505
8.1	0.00110817650997419	0.000697242524506403	0.984027517160615	-0.0300339537347714	0.984049082477962	-0.0297783075600274	0.0098328049358251	-0.000380765564849251
8.2	-0.000893639318710643	-0.0007296062624493	0.96713831023575	-0.181690542765678	0.967177230217551	-0.181373071267899	0.00600355690401847	-0.00360017456859304
8.3	-0.00246551078111494	-0.00104168025108541	0.929326241462816	-0.328766323378204	0.929368675586729	-0.328477981332364	0.00228345465048466	-0.00503680145728284
8.4	-0.00526743145076629	0.00105204330346271	0.871118972654816	-0.470773055870447	0.871210737981012	-0.470567348713675	-0.00310566758620595	-0.00327346743812829
8.5	-5.62106609274918E-05	0.00734508760634802	0.785223537187898	-0.606229396294468	0.785271397403771	-0.606076551556706	0.000232860780118887	0.00386854056453596
8.6	0.00411404194024853	0.000722850683077251	0.67995071608455	-0.716922459639034	0.680113154287306	-0.716680439866913	0.00347832104611648	-0.00224877559494013
8.7	0.00168130817533344	-0.00136196070353192	0.563389645323819	-0.814294628027118	0.563643639901339	-0.814070813182357	-0.000231592772874141	-0.00411068247064177
8.8	0.000384039583345715	-0.00143880175276126	0.431385416923278	-0.894652778200581	0.431568033006909	-0.894507360107805	-0.00332115518983352	-0.00355429206212789
8.9	-0.000925758167937769	-0.00020420472559977	0.284901738730741	-0.953689450719174	0.285078170809071	-0.953513184430267	-0.00612079166158725	-0.000735912049630611
9	0.00182350284672079	0.00229771288028881	0.132291061126763	-0.981131997697658	0.132599511283447	-0.981077493741561	-0.00402430277668244	0.00434175631737587
9.1	0.00352790336130163	0.00135266686587196	-0.0162118125181428	-0.993731944749443	-0.0159013964847245	-0.993681155365389	-0.00172998541766647	0.00555991970897589
9.2	0.00644884132190087	0.00161210103249616	-0.172330554424605	-0.982994831672351	-0.171979277528734	-0.982962036709422	0.00252811673872632	0.00767885704355964
9.3	0.0100728195169085	-6.70366814289049E-05	-0.325460536320343	-0.945088817734271	-0.325104276395233	-0.94505335890828	0.00844859967660922	0.00689199900840162
9.4	0.0134120795000281	-0.00154828170695052	-0.468372350480724	-0.881206993642661	-0.46804267251558	-0.881290626717689	0.0140948119536328	0.00518500439132889
9.5	0.0198096446892072	-0.0114876611720495	-0.595468592976905	-0.803029346572411	-0.595226550911008	-0.803072681899139	0.022720230848598	-0.00680207097145911
9.6	0.00961650910580849	-0.0186052463803908	-0.720287394469067	-0.703854527196847	-0.719964698054097	-0.703987111347474	0.0124324661168178	-0.0169794167016076
9.7	0.00431129003937439	-0.0163907155012471	-0.823637800590093	-0.581417557707173	-0.823337337747869	-0.581648528330042	0.00531176515813227	-0.0172499631104345
9.8	0.00127660808390465	-0.0141427619685985	-0.904659415124391	-0.445698161429211	-0.904395737483512	-0.445864885012626	-0.000473991967075087	-0.0162942644504856
9.9	-0.000598221414995341	-0.00834822604306246	-0.963926859328527	-0.302030184245315	-0.963662350268688	-0.302237658618774	-0.00529720346569913	-0.0107184138173373
10	0.00900451224772771	-0.00735609816039931	-1.00809079612238	-0.147514699210305	-1.00792290183406	-0.14788601442218	0.0022926277291331	-0.00871945790997399
10.1	0.00513551068619981	-0.0153878862947296	-1.01755046048885	0.0182576371297979	-1.01747760066303	0.0178123599524957	-0.00362901583582374	-0.0165145177673645
10.2	0.000262282211691768	-0.0143458362747839	-1.00118369200791	0.177034372726925	-1.00105120159618	0.176590639865208	-0.0114339304613931	-0.0140985807944914
10.3	-0.0025774905818909	-0.0119302078472462	-0.962651195832008	0.331392559442323	-0.962661386556493	0.33083192656791	-0.0168545713380058	-0.0092786711179818
10.4	-0.00457471781854956	-0.00779740351308891	-0.902282756302553	0.48072566054722	-0.902418674479446	0.480192553600994	-0.0206796530700805	-0.00143482121472822
10.5	0.000466583077605595	-0.00277707600154132	-0.811073947461127	0.623166261541031	-0.81125319592395	0.622716690328776	-0.0152604891609638	0.00780791952138555
10.6	0.00445125679048391	-0.00671134587098681	-0.699856919033505	0.737570964614007	-0.700138446520291	0.737229689457783	-0.0094046575768403	0.00706417060227677
10.7	0.00434852317672156	-0.00992534399237025	-0.577195136127868	0.837548415365849	-0.577505947918085	0.837228347468862	-0.00721004883426251	0.00614327910312888
10.8	0.00245399564206172	-0.0121702424180722	-0.438624521703568	0.919065247177316	-0.438988444022856	0.918757224388022	-0.00663913666842984	0.00595679016855465
10.9	0.00103694941555318	-0.0126113530028993	-0.285286616335422	0.977401264493566	-0.285691641644806	0.977277167880436	-0.00476922241908101	0.00722049706309739
11	0.000120427335018977	-0.01439366728154	-0.127427643879067	1.00173415828008	-0.127877255091279	1.00164541615183	-0.00231656921589356	0.00621470138531091
11.1	-0.00324670461509448	-0.0141280090977504	0.0253320891572839	1.01144122758038	0.0248292959054118	1.01145779374926	-0.00257777575123721	0.00651022463680863
11.2	-0.0047015499997292	-0.0131365761082964	0.185003493396892	0.996617042112389	0.184532916904847	0.996696211262091	-0.00067384857728539	0.00732350975117944
11.3	-0.00577345670579942	-0.0117155116747482	0.340292935856182	0.953820856760434	0.339821837673643	0.953967064228122	0.00150579594767889	0.0082171964285312
11.4	-0.00527811840447116	-0.00880661681096122	0.48382817677591	0.884655707875897	0.4834157186388	0.884777429330213	0.0056207795186649	0.0101801773698415
11.5	-0.000408159824596037	-0.0130148913801373	0.610112713073735	0.802829105672492	0.609788276065905	0.803141487427154	0.014695126058768	0.00341904684857795
11.6	-0.00816831518666821	-0.0168106030251713	0.734389993192179	0.698764860922831	0.734172089014619	0.699105404717603	0.00945316976650406	-0.0036930607745262
11.7	-0.0124108965893788	-0.0132873831742797	0.834899536459274	0.571779724545016	0.834695595456444	0.572098572365758	0.00653021579041653	-0.00366336339026247
11.8	-0.0152347177320749	-0.00958848065051908	0.911817900923006	0.432603615975541	0.911639636593602	0.433069619923733	0.00426983761636087	-0.00286598290952272
11.9	-0.0152333352041804	-0.00137718816349229	0.96653964726369	0.287287573053524	0.966438666897019	0.287750692134351	0.00393972450129929	0.00295860582573702
12	-0.0040360196075567	0.000691657813326512	1.0062458810668	0.131741381950002	1.00622349389587	0.13211808655048	0.0171960503222815	0.00319945651699192
12.1	-0.00707087080005233	-0.00627600716424554	1.01003566921153	-0.0331051528707239	1.00997327968288	-0.0327078747044104	0.014352282495806	-0.00837066952155348
12.2	-0.00997687319857533	-0.00587382016486302	0.988785518222607	-0.189660345062165	0.988811854662612	-0.189355664791553	0.0105088853660186	-0.0115743769573769
12.3	-0.0119163568486419	-0.00491430216620228	0.945991760678488	-0.340549810387992	0.946122737286231	-0.340239562873696	0.0068530367863946	-0.0140056144904696
12.4	-0.0149854589313796	-0.00201223758280216	0.882625655425615	-0.485753634722737	0.882701600551943	-0.48537675409516	0.0016003673933638	-0.0136284649265408
12.5	-0.0110638547575431	0.00333196086408933	0.788158864789415	-0.62280556201892	0.788522417440557	-0.622420377182411	0.00280483912247577	-0.0102879929835494
12.6	-0.00984370283728643	-0.000765319103631852	0.676746205731469	-0.730348730354767	0.677010424274475	-0.730112808902932	0.00147850698211612	-0.0161223734364558
