# GHZ S RI R 50
0.2	-0.000337896275344611	-0.000110105299526387	0.948944758862119	-0.307971207760537	0.948722528718464	-0.30794576316838	-0.000362444468100071	1.96144341510419E-05
0.3	-0.000389794012531167	-1.50391584607227E-05	0.888957969737694	-0.451603940940758	0.888801805512493	-0.451508568260349	-0.000491268706328202	-3.51628053946963E-05
0.4	-0.000187820146178436	5.00106096490743E-05	0.807472311421803	-0.583839323748758	0.807484099083708	-0.583864436609584	-0.000406474202339281	2.36665992318276E-05
0.5	-0.000145790947935732	-1.8485145010431E-05	0.706737138906277	-0.702065567560449	0.706582163269931	-0.70196411453612	-0.000323166964636515	-3.91330310468592E-05
0.6	-0.000173952188462768	2.59810700325609E-05	0.588861675560878	-0.803061947328116	0.588742452785205	-0.802900281548538	-0.000465246324692092	-4.79683016648471E-05
0.7	-8.23210699551555E-05	0.000213594748716553	0.456791320821965	-0.884396155731825	0.456772561018678	-0.88428369175866	-0.000395401768414585	1.26435296114114E-05
0.8	0.000157901935704747	0.000164308019671832	0.313796022809798	-0.944339770733816	0.313764673401775	-0.944150097935688	-0.000371680799185248	9.22651122043398E-05
0.9	0.000259117884262698	0.000208062504991165	0.163325199181936	-0.981259341145929	0.163260184379333	-0.981167464542228	-0.000379049867283753	9.0172706926965E-05
1	0.000398266435162783	-1.73816303106598E-05	0.00901827549007	-0.994423267570688	0.00896664446093717	-0.994391815780353	-0.000279332583938262	-0.000137003494524297
1.1	0.000131221056461271	-4.46455137871464E-05	-0.145458370978733	-0.983665891098765	-0.145474113820464	-0.983535498780554	-0.000933687434368237	-0.00018393414529408
1.2	0.000268482429382684	-0.000369426272509385	-0.296500041107276	-0.948824089403239	-0.296423702479183	-0.948798009625461	-0.000973215089283241	0.000643918344064603
1.3	0.000468893272784501	-0.00138971501356796	-0.440078418079456	-0.891032538867223	-0.440055397505343	-0.891025928282205	8.73449320622266E-05	0.00176007869668268
1.4	0.000570898967302536	-0.00303226898841819	-0.572721636775064	-0.811806530237144	-0.572697475582968	-0.811784907432075	0.00183109506617229	0.00183901940321482
1.5	0.000335161662289766	-0.00415485225423976	-0.691901153976178	-0.71286934193902	-0.691799444044456	-0.712784426920942	0.00328761829411708	0.000871789206567908
1.6	0.000120876152105372	-0.00472561046510379	-0.793885058355437	-0.596498956622613	-0.793811036979157	-0.596438976994703	0.00362160053130412	-0.000142187762997413
1.7	-0.000283631093429264	-0.00508666111768443	-0.876214776965186	-0.46650077026186	-0.876378922452621	-0.465985025333486	0.00370649456716587	-0.00135944765096619
1.8	-0.00101556221160414	-0.00523127764516136	-0.938026690730786	-0.32442780348904	-0.937915519694807	-0.324426438984189	0.00310761057901523	-0.00257712158049998
1.9	-0.00174299630149255	-0.00508154837333385	-0.976772358289002	-0.175309385271838	-0.976865181528327	-0.174822188725767	0.00225400463738831	-0.00349201769052249
2	-0.00271229239980936	-0.00485174229160614	-0.99172818946043	-0.0209712788393806	-0.99174010810207	-0.0209254666944254	0.000922111189237585	-0.00422816142789865
2.1	-0.00336153129818903	-0.00405455478250837	-0.982787146249864	0.132953917597182	-0.982825217320369	0.132990970361206	-0.000236386524201002	-0.00380377145351975
2.2	-0.00402253530946598	-0.00357814871031759	-0.950312334612329	0.28370913525401	-0.950237322218692	0.283771894712097	-0.000635930619151001	-0.00356300197619378
2.3	-0.00476769393737787	-0.00286513495459666	-0.894887678167901	0.427115117859457	-0.894505910499625	0.427627984026249	-0.00113486489906716	-0.00365088565278892
2.4	-0.00552816278319656	-0.0019787440157843	-0.816815829545793	0.561782365238184	-0.817082108704078	0.561197000774539	-0.00178368618739773	-0.00381810616793262
2.5	-0.00612464674213061	-0.000823309060494505	-0.72003460029061	0.681381613757956	-0.720247850159924	0.680872173898341	-0.00264116990676725	-0.00442027020893843
2.6	-0.0063621438092965	0.000807706751183234	-0.606081277388768	0.784579088770057	-0.60597515633617	0.784396542370102	-0.00375937994578757	-0.00390015141536853
2.7	-0.00577287974748553	0.00223785469881068	-0.476373168651061	0.869322152578989	-0.476821809911101	0.868915356366688	-0.00418935813188965	-0.00310841160959567
2.8	-0.00464120689146818	0.00322166020749224	-0.336931073331003	0.932130219588794	-0.336263887261207	0.932289128057518	-0.0043001104624192	-0.00231513376398727
2.9	-0.00295890479508164	0.00365918653073023	-0.187710166944055	0.973087911014787	-0.187741361485938	0.973000591181065	-0.00369528217755162	-0.00136633804244577
3	-0.00130721127793177	0.00352825235409015	-0.0337410022139152	0.990652202870024	-0.0344417219221036	0.990493429062312	-0.00289083640702816	-0.00056063118986074
3.1	0.000429713965223339	0.00299390864734033	0.119179248947189	0.983843325462491	0.119769714143092	0.983825577666282	-0.00149239589254196	-9.77060245427109E-05
3.2	0.00163336014410976	0.00191353590025946	0.270952287902572	0.953155019486816	0.270897511676892	0.953094730648728	-0.000551570107709093	-0.000272925990912071
3.3	0.0026895038298494	0.000693045237669486	0.41570035580052	0.899451604446852	0.415563237745547	0.899437404297353	0.000404590057083572	-0.000627924762286251
3.4	0.00323074936539951	-0.00079116079103043	0.550239963183002	0.824097616618422	0.550077766446471	0.824215517244699	0.001250115270149	-0.0015712260318723
3.5	0.00345455870389704	-0.00219124528702409	0.671602324430471	0.728705865337688	0.671522754178302	0.728744646282489	0.00138926208069996	-0.00236164802621193
3.6	0.00335031538493186	-0.00355454816335376	0.775909030445224	0.615911976269299	0.776149696585159	0.615463352822862	0.00173423851241022	-0.00289623660475493
3.7	0.00287607050192819	-0.00502917786955872	0.862303802820888	0.487498786024016	0.862185614222896	0.487641897402989	0.00193939363659375	-0.0037663431047358
3.8	0.00184582804324217	-0.00622188273769667	0.927305179148534	0.348319907839238	0.927361768960346	0.347940793195164	0.00178261235828658	-0.00479092350025374
3.9	0.000820891880755134	-0.00716008322914035	0.970311235614164	0.198934171397722	0.970073290691859	0.199601629643814	0.000947163096126351	-0.00617345990883945
4	-0.000796154090750781	-0.00777282812082766	0.989141726025901	0.0466361232839481	0.989102868021111	0.0467389714385324	-0.000495344058081284	-0.00722993683138929
4.1	-0.00216017331329564	-0.00798280831419628	0.984494352569269	-0.107125701764648	0.984309993965399	-0.106998525377419	-0.00183628242640264	-0.00735889378441074
4.2	-0.00393826595348422	-0.00816101833483904	0.955718742974272	-0.259282479783083	0.955754081335627	-0.258628943142318	-0.00288807268908587	-0.00762961841541462
4.3	-0.00585256952396421	-0.00807533138549042	0.904190473335682	-0.403896249784083	0.904054712507152	-0.403785092017805	-0.00411833381266277	-0.00807081869886439
4.4	-0.00799717103797516	-0.00738351554986127	0.830437318055069	-0.53925979429508	0.830272255807075	-0.539126427668341	-0.00552281407869728	-0.00841709494083275
4.5	-0.0100196082115113	-0.00630013796591097	0.736854708662576	-0.661388048234657	0.736666012067782	-0.66121493012848	-0.00740084925202274	-0.00891562422578108
4.6	-0.0118282465438625	-0.00433903020842284	0.624978621933145	-0.768393961833684	0.625320570623856	-0.767696096707321	-0.00971209836595618	-0.0084145122740859
4.7	-0.012942822253536	-0.00241442420334325	0.49843566959203	-0.855924305326458	0.498452189383981	-0.855568437593052	-0.0115815959051661	-0.00768508964671058
4.8	-0.0137800940944556	-9.68886995537699E-05	0.359229339270015	-0.922732747800021	0.359450968189876	-0.922416323741715	-0.0131663006735684	-0.00667960250605485
4.9	-0.0138045015727485	0.00219055567858405	0.212177086007186	-0.966715586523116	0.211957050990451	-0.966723361159682	-0.0142275173591544	-0.00540464769564668
5	-0.0132464374473166	0.00447806709252778	0.0594739109892869	-0.988160761543367	0.0596511980631048	-0.987915306654755	-0.0147781682056451	-0.0036284625172039
5.1	-0.0117710512063974	0.00641822760640327	-0.0947589099897018	-0.985502162191792	-0.0944269972213515	-0.985276839791097	-0.014397559475462	-0.00174000087668314
5.2	-0.0100541394506289	0.00812971832318516	-0.246702945472382	-0.958727659922791	-0.246210777675317	-0.958700987010822	-0.0137648767346451	-0.000301489012934445
5.3	-0.0080021151094009	0.00939836315236125	-0.392447845267005	-0.908845077512478	-0.392107034629779	-0.909061501507222	-0.0129784033859011	0.000692389502498419
5.4	-0.00572309689517627	0.0105275565400096	-0.528890294710335	-0.837079960612987	-0.528677425275647	-0.837280918763812	-0.0126429126818153	0.00130938721735661
5.5	-0.00338102214334599	0.0113355623691771	-0.65278196633376	-0.744605366757649	-0.652542921735658	-0.744800406491811	-0.0131760600382166	0.00251190478309107
5.6	-0.000415818611752619	0.0118060779927506	-0.760068091385678	-0.633917418274125	-0.759878385136633	-0.634089478655815	-0.0124358963006195	0.00443620777417227
5.7	0.00211265070912448	0.0113055225618333	-0.849193818145978	-0.508297598561056	-0.849064521287838	-0.508517581512626	-0.011481559949197	0.00564633553113989
5.8	0.0043622808114578	0.0107132522113088	-0.917715784248708	-0.370195107627074	-0.917648005588792	-0.370480242357569	-0.0105825340623451	0.00666485309640668
5.9	0.00651723589372614	0.00962321090668494	-0.964074188255248	-0.223200751804773	-0.964088709006643	-0.223284415810464	-0.00980847619361682	0.0072484954661392
6	0.00829997750267385	0.00832086949294024	-0.986702341613062	-0.0707499098254768	-0.986583112861172	-0.0708080261871368	-0.0101749275037039	0.00799572142866196
6.1	0.0103039973207195	0.0066593416385975	-0.985587263266216	0.0829326545569819	-0.985460672928095	0.0827841529108579	-0.00950804031881961	0.0101012427547266
6.2	0.0115451931637673	0.00406608144714243	-0.960741100050151	0.234982838559296	-0.960727468080556	0.234780020807746	-0.0079666179253671	0.0111863268457374
6.3	0.0116774408530816	0.00111226723825491	-0.912538677633062	0.38129997534512	-0.912534241894378	0.381114656316328	-0.00630147235652337	0.0114581031435061
6.4	0.010983214304358	-0.00169659036847526	-0.842074967156778	0.518273291812949	-0.842043420480612	0.518062680416691	-0.00490183851933023	0.0109404578886193
6.5	0.00955146292771486	-0.00426697536065666	-0.751458472657267	0.642305527024138	-0.751482665754641	0.642101542304069	-0.00404679030249539	0.0101331331985897
6.6	0.00792984368320365	-0.00626486982201376	-0.642813025575547	0.751451712102052	-0.642886998542125	0.751199624122269	-0.00324575229866582	0.00944999969004755
6.7	0.00590472231102123	-0.00785894055442869	-0.518103034370387	0.842133901601381	-0.518205990671558	0.84191283424184	-0.00297582793624849	0.00866937125665707
6.8	0.00394787662907529	-0.00879107430372942	-0.380959918717522	0.912221352103481	-0.381101655729248	0.912050774680087	-0.00304137769074746	0.00839349401633395
6.9	0.00196397462175185	-0.00939451128254183	-0.234786863033585	0.96005068410105	-0.235013480412291	0.959940475797601	-0.00293305681823254	0.00851062677302954
7	0.00028145328321572	-0.00948481320827618	-0.0830516358109329	0.985052200111798	-0.0832615000043495	0.984962539429048	-0.00249190325692787	0.00884991212050474
7.1	-0.00131709017091085	-0.00946737345848263	0.0712768106594478	0.985865590096646	0.0710747033291356	0.985732594538076	-0.00156852731112928	0.00904633199355207
7.2	-0.00278701530969222	-0.00914651892790121	0.223442018292586	0.962505185714176	0.223159977064647	0.962470976640143	-0.000487512296479678	0.00911484145576505
7.3	-0.00424640804827468	-0.0086842968270365	0.36996680525162	0.91599080569517	0.369730897089809	0.91601730164575	0.000635983343589161	0.00893909646644245
7.4	-0.00542474590644722	-0.00798301330007436	0.50760957678485	0.847443965436236	0.507396319799281	0.847495321494352	0.00158922408692905	0.0084131191690026
7.5	-0.00652864719758917	-0.00722768899993572	0.633225485424328	0.758047039195357	0.633056118066986	0.758116939303724	0.00239324991276025	0.0079849495534028
7.6	-0.00705050813829432	-0.00632729462579131	0.742783686646507	0.650151667866955	0.742526476849838	0.650234401905396	0.00379596231463626	0.00730121315278765
7.7	-0.00761578933738054	-0.0052932357336214	0.83434849799697	0.527017584596742	0.834163446251513	0.52723480539711	0.00485665079559901	0.00591866064362024
7.8	-0.00761953536860934	-0.00398017187810046	0.905988158825349	0.39105382330706	0.905885489117284	0.391279177766307	0.00557980962177856	0.00409421999793839
7.9	-0.00726196883712038	-0.00263930269534968	0.955625750107817	0.245622120713165	0.955488016108438	0.245801836112741	0.00555803910849124	0.00194526575709454
8	-0.00660986436462725	-0.00140176771681849	0.981431618184774	0.0941746236960949	0.981408921410897	0.0944370801331525	0.00354149940778239	4.97033585316808E-05
8.1	-0.00531784977025977	-0.000104544310148061	0.984100579024691	-0.0588179161964995	0.984129635590702	-0.0585626532083343	0.00181583257567468	0.000403520090377631
8.2	-0.00383280649360604	0.000406715359954968	0.96299732184347	-0.210802183718977	0.963045770490697	-0.210485452964116	0.000760394639045205	0.000759340296560855
8.3	-0.00264720871581096	0.000702076220000149	0.918452056435406	-0.357649885070346	0.9185034896425	-0.357363052223684	-6.46044920425196E-05	0.00133658807786531
8.4	-0.0013416470388246	0.000772673184778169	0.851548601124119	-0.495690181718283	0.851646355666002	-0.495488484053975	-0.000414801266069482	0.00181390828954224
8.5	-0.000443454885520484	0.000568415143107862	0.76447833302479	-0.621212616487885	0.764529623938149	-0.621062073916238	-0.00132958327926873	0.00176754382548148
8.6	0.000838384938650366	0.000638922056928919	0.658869179427542	-0.732548576376077	0.659037476460646	-0.73231161556543	-0.00215845032595945	0.00352778887977929
8.7	0.00211437088221723	0.000131408516875583	0.536923015952754	-0.825809031097423	0.537181977113708	-0.82559374301469	-0.00142414945031535	0.00527999585958036
8.8	0.00330312834690141	-0.000619799148443725	0.402290971603674	-0.898847996040797	0.402476062855609	-0.898709028317778	1.25643204674295E-05	0.0063881832435707
8.9	0.00434199990699992	-0.00152662949553598	0.258151229816051	-0.950180651045625	0.258330070139631	-0.950010701370825	0.00226428289114916	0.00688439746696678
9	0.00552011180876115	-0.00284491103869158	0.107663662114214	-0.97891544029343	0.107971730659004	-0.978868749402583	0.0045862539196742	0.00624656493938145
9.1	0.00667535212181229	-0.00431604283539041	-0.0458474656906912	-0.983572672473886	-0.0455385488936748	-0.983531684286704	0.00697586644810793	0.00513156014968215
9.2	0.00762134273069666	-0.00622137698175636	-0.197911534574919	-0.964180168078342	-0.197564291247909	-0.96415784914032	0.00907852644986185	0.00290340591674925
9.3	0.00802487397122409	-0.00802443971976258	-0.344930068612222	-0.921664347941056	-0.344578519136486	-0.921638729150465	0.0102905815438	0.000196940369443334
9.4	0.00819844655115356	-0.00986309359491565	-0.483598927264654	-0.857109203922456	-0.483275991939521	-0.857199830729716	0.0104798146848448	-0.0029084422307238
9.5	0.0076312160106282	-0.0110851912594606	-0.610947894847062	-0.771323492330575	-0.610711143119484	-0.771373709511906	0.00883155842844209	-0.00500795531775603
9.6	0.00755548955650723	-0.0124284304841682	-0.722734266083179	-0.666778217331905	-0.722423031314531	-0.666916664757533	0.00831597277239022	-0.00611605104488797
9.7	0.00660665027359311	-0.0135126447315928	-0.817097423403806	-0.546682702528757	-0.816810160431995	-0.546915191298863	0.00701078002913069	-0.00829150502321002
9.8	0.00551507873957327	-0.0140752441039205	-0.891902819510709	-0.413389143067617	-0.891649725884233	-0.413557717235909	0.00469284703750947	-0.010089655660551
9.9	0.00450912574634869	-0.0139892510032394	-0.945190546553662	-0.269885420769071	-0.944938385419998	-0.270093814041205	0.00178191393548293	-0.0115297656844204
10	0.00345766150113114	-0.0137130142719151	-0.974918871565114	-0.119901894540772	-0.974765252053976	-0.120263501430867	-0.00289748429148397	-0.0118120855963985
10.1	0.00317402179928765	-0.0130728268775014	-0.98157123977672	0.0322029638876922	-0.981507320410748	0.031772271435619	-0.00637460219129304	-0.00929970128392603
10.2	0.00285480064011542	-0.0130720259753341	-0.964869434625468	0.183995469547954	-0.964747197694982	0.183565097521815	-0.00854701645302523	-0.00691566877736933
10.3	0.00222353538446435	-0.0128170282790055	-0.92457077560985	0.331452445046808	-0.924587462654499	0.330911753848249	-0.0102772554280062	-0.00454262643707891
10.4	0.00174926617151984	-0.0127170104769071	-0.861702192315948	0.470578103400367	-0.86183799508543	0.470067505824786	-0.0113896434828982	-0.00242844209614739
10.5	0.00121229648358181	-0.012480123173054	-0.778598551156482	0.597944614028681	-0.778770499315339	0.597513078114931	-0.0126156629580862	-0.000632654953108844
10.6	0.00108174938807867	-0.012319417945113	-0.67673405150547	0.711720657918323	-0.677005637804081	0.711390736509348	-0.0134360677518328	0.00235964887627225
10.7	0.00100162715165093	-0.0123182681534713	-0.558026599764535	0.808123881077376	-0.558326397287185	0.807814580370806	-0.0128985012201706	0.00560384022494656
10.8	0.000880664965981312	-0.0127194653657968	-0.425874586303598	0.884712100974035	-0.426224472021648	0.884413941026006	-0.0113747390729573	0.00851958121327372
10.9	0.000507887684340701	-0.0132469794543968	-0.283797581836295	0.939870818067054	-0.284187002629539	0.939747548798296	-0.00914109593649827	0.0107290142580466
11	-2.83811517766809E-05	-0.0139123205120124	-0.134738401611455	0.973042112876311	-0.135174796117836	0.972950951485946	-0.00656685075924591	0.0124003114382303
11.1	-0.000690146265892751	-0.014455987564683	0.0183030035564464	0.981920043578573	0.0178148614434842	0.981932996890066	-0.00327991265826465	0.0134029780005737
11.2	-0.00159847496515824	-0.0151417554368639	0.17025366886461	0.966991046276886	0.169797153418395	0.967063507581307	0.00024542175400523	0.0133294073513645
11.3	-0.00269558644310126	-0.0155161602782945	0.317945424611794	0.928950703561605	0.317486884125731	0.929086541964299	0.00378686001384857	0.0123512675789706
11.4	-0.00399083939744076	-0.0158647702066197	0.458236971470207	0.868695540934751	0.457833478061884	0.868808036912016	0.00677151803258794	0.010488045753324
11.5	-0.00549945460654991	-0.0155118396344819	0.587836250492196	0.786675157380275	0.587517821747508	0.786976817244587	0.00838267947796729	0.00872570892186761
11.6	-0.00662676524258847	-0.0153828826198849	0.702138984058018	0.685728442960722	0.701923738354242	0.686055370239658	0.0106674378482257	0.00711822974860642
11.7	-0.00824709408209439	-0.0148455153634457	0.799840589299619	0.56877139034862	0.79963736077964	0.569077096132718	0.01243655089316	0.00430059696717336
11.8	-0.00999177631676046	-0.0138147572112525	0.878531837190264	0.437807702205972	0.878349731712702	0.43825749935566	0.0131558269078445	0.000967341630735141
11.9	-0.0113069440542602	-0.0119484040814328	0.935911963815951	0.296076055036061	0.935805795442921	0.29652512273138	0.0126368127521249	-0.00266033222912114
12	-0.0126104902534866	-0.00992755568373227	0.969906789982397	0.147383139213718	0.969877644709798	0.147746776463671	0.00988701304593781	-0.00582759432264394
12.1	-0.0123925475044981	-0.007538569140775	0.981119589685459	-0.00428676417935366	0.981048092034446	-0.00390293824309236	0.00769517795410584	-0.00663610516911866
12.2	-0.0122254942460595	-0.00621634091899595	0.96881782729652	-0.156447952954042	0.968834754630447	-0.156150345614693	0.00576278085267067	-0.00765581574432092
12.3	-0.0121476458444736	-0.00484342410823378	0.932709847561128	-0.304865054320144	0.93282864935616	-0.304558604911196	0.00369414269693632	-0.0084102548463382
12.4	-0.0121402938289815	-0.00365146446443715	0.874160988346717	-0.445755154241874	0.874223338520451	-0.445385928182436	0.00171243029417303	-0.00898621506708635
12.5	-0.0121031221823197	-0.00237731167492621	0.794772799202098	-0.575485475568886	0.795111803517744	-0.575094628839192	-0.00128040510557725	-0.00964440817074402
