# GHZ S RI R 50
0.2	-0.000207402211149363	-0.000385806802803702	0.950004071707899	-0.307715436905884	0.949781620168247	-0.307690095660189	-0.000228909365606839	-0.000259191617263065
0.3	-0.000449528536681284	-0.000335386875371428	0.890309333787701	-0.451498844935313	0.890152920811582	-0.45140347210481	-0.00054715965021204	-0.00036289589207115
0.4	-0.000508776210072013	-0.000178430848068822	0.809135755654508	-0.584080842776344	0.809147580562303	-0.584105983966766	-0.000725096738024236	-0.000216189029400303
0.5	-0.000412895322068538	0.000205923829111692	0.708364384921525	-0.703007351504833	0.708209077669853	-0.70290578778715	-0.000588593029365955	0.000173479341716629
0.6	-0.00013034793832443	1.83592991905038E-05	0.590175504774493	-0.804175209067942	0.590056016348862	-0.804013319456824	-0.000416707256394949	-7.14565091135189E-05
0.7	-0.000207464036585343	7.10747755339512E-05	0.458060592529252	-0.885813943752209	0.458041744072558	-0.885701280644785	-0.00051611973974821	-0.000153743442766194
0.8	-0.000114846659031607	1.10755588376539E-06	0.314824152960912	-0.946191097356796	0.314792663256185	-0.946001040246988	-0.00064571659463823	-0.000102057503900513
0.9	-0.000366311354634323	3.70358899984879E-05	0.163810321232152	-0.983477914996589	0.163745147587468	-0.983385836377815	-0.00101811371640346	-0.000116201581734414
1	-0.000467442753166898	0.000778664569268945	0.00891326909068341	-0.996399789686112	0.00886153932390996	-0.996368269027189	-0.00117705196076477	0.000635541093200656
1.1	0.000479074157507169	0.00067144120074617	-0.145573934471411	-0.985776614728497	-0.145589736184753	-0.985645949435213	-0.000620128951773399	0.000527655164549137
1.2	0.0008442313830531	-0.000407810547552414	-0.297174921612521	-0.95112711253043	-0.297098399868848	-0.951100966483974	-0.00040970484995555	0.000614736273270328
1.3	0.00110560281907358	-0.00215865170583281	-0.441374448431773	-0.893178094598816	-0.441351368604292	-0.893171472278017	0.000736926334220363	0.00100899004258187
1.4	0.000957045406834514	-0.00427816816985934	-0.57442767501718	-0.813503705675023	-0.57440344713736	-0.813482041364182	0.00225047261226627	0.000601756439650217
1.5	0.00107750024177842	-0.00571881459180638	-0.693583798169291	-0.71451397449833	-0.69348184213324	-0.714428864746867	0.00408099478775451	-0.000707492417659275
1.6	-0.000310396904119547	-0.00686679694605936	-0.796448202871738	-0.598050414090559	-0.79637394118742	-0.597990276673491	0.0032386345940528	-0.00232110431113389
1.7	-0.00139619456281649	-0.00635484457697823	-0.879244622610902	-0.467256825214739	-0.879408876035278	-0.466739381039472	0.00262037016770264	-0.00269517863177322
1.8	-0.00228946508273874	-0.00574708011933672	-0.941134004912518	-0.324445839620644	-0.941022502920929	-0.324444582899689	0.00183237485581962	-0.00316486889355327
1.9	-0.00295754720714863	-0.0046030869590253	-0.979807393425352	-0.174856753090784	-0.979900006677694	-0.174368037381566	0.00101928472455198	-0.00306903869310349
2	-0.00228116219797369	-0.00388646681707737	-0.995282294116842	-0.019929464901137	-0.995294203625174	-0.0198834762131937	0.001349208138418	-0.00329679313944334
2.1	-0.00303104995327545	-0.00449729207943263	-0.985913344239459	0.135399876933693	-0.985951471909028	0.135437134678956	0.000102148896126282	-0.00430274055117919
2.2	-0.00431932136886926	-0.00393388898454667	-0.952650764704811	0.286736734488921	-0.952575376064857	0.286799521728722	-0.000938715117770931	-0.00398753933787261
2.3	-0.00532145614647686	-0.002947081250521	-0.896606781349743	0.430540777674935	-0.896222632234789	0.431054304274197	-0.00171388853534601	-0.00379974548092917
2.4	-0.00633848666689731	-0.00149290093801988	-0.81800922753561	0.565714400822365	-0.818277882959993	0.56512782861409	-0.00264301895124662	-0.00337848874688928
2.5	-0.00580357983926262	0.000655706201950072	-0.719921402886507	0.686137967278021	-0.720137153703169	0.685627649515152	-0.00235865021885355	-0.00295319116647421
2.6	-0.00513007305087894	0.00097660082528478	-0.604579252746575	0.788660183072728	-0.604473562541913	0.788476816806364	-0.00252005349144182	-0.00372951709813667
2.7	-0.00490170030658045	0.00159526400286039	-0.474237671772352	0.872949341824541	-0.474688772043352	0.872543297887706	-0.00328368674590783	-0.00376894691974557
2.8	-0.00431281077846575	0.00222018350073029	-0.334045477560371	0.935402433419505	-0.333376266880711	0.93555910251819	-0.00393218524184037	-0.0033590984485682
2.9	-0.00304525646268433	0.00270761553614971	-0.183806491809296	0.975783651831637	-0.183838129114918	0.975696300654063	-0.00375043269563417	-0.0023690066727362
3	-0.00154156937361162	0.00241826171628689	-0.0291577917034885	0.99166184799924	-0.0298598536737417	0.991506199943827	-0.00309459424961287	-0.00173114256840692
3.1	-0.000514926726305726	0.00205279509350271	0.123214000369521	0.984083110993133	0.123804825264363	0.984062980942619	-0.00242774141015664	-0.00115064824535481
3.2	0.000551579026994543	0.00149311770883516	0.275144801145661	0.952762160158975	0.27508973054263	0.952702053424081	-0.00162885049080151	-0.000781556927568331
3.3	0.00162981402086842	0.000684788834974663	0.419901708081077	0.898046223955334	0.419764459545358	0.89803262616785	-0.000662580637028753	-0.000717326081316749
3.4	0.002459933299579	-0.000286524631010633	0.553912836541231	0.821460406483889	0.553751202651801	0.821579028502476	0.000471554359347678	-0.00113598525334758
3.5	0.00353524273383582	-0.00206453882642784	0.673968343096707	0.725819091870372	0.673888959183951	0.725858149271912	0.00148168144157746	-0.00230888509601045
3.6	0.00270947088354414	-0.00390292339653674	0.778353774181573	0.612906621398329	0.778592697256889	0.612457035873614	0.00109881180701037	-0.00334264050842154
3.7	0.00193954613156567	-0.00492207256538541	0.864158102270116	0.483677250545123	0.864040557938716	0.483820829220502	0.000989494306325335	-0.00376295187782346
3.8	0.000872128783536012	-0.0056886590676999	0.928134866803094	0.344095454737176	0.92818979091216	0.343716368766612	0.000777241154585623	-0.00435438600757266
3.9	-7.4863702072689E-06	-0.0059016883137271	0.970102908455429	0.194947290483027	0.969867808594749	0.195614999811897	7.55686768172049E-05	-0.00498485733075427
4	-0.000124760510056698	-0.00624751974933673	0.988997378632294	0.0428294608758034	0.988958927539094	0.0429324243788259	0.000162027829569787	-0.00574270218872087
4.1	-0.00145522191420889	-0.00770810258409644	0.983216720167623	-0.111703703885212	0.983033108033762	-0.111575754027309	-0.00111284962824033	-0.00714497342632898
4.2	-0.0036040036934338	-0.00803297780136531	0.953129864817224	-0.263378419359564	0.953168208497479	-0.26272598915683	-0.00253702223339755	-0.00758734409710279
4.3	-0.00572704282040603	-0.00800539407860095	0.900809479484405	-0.407227915607874	0.900674451807175	-0.407116345757745	-0.00399037747974787	-0.00809787385295039
4.4	-0.00825762251911243	-0.00704970967656438	0.826698479786279	-0.542005888243734	0.826534275426029	-0.541872019154605	-0.00580513984266897	-0.00817568698973052
4.5	-0.00952594520614543	-0.00516921314304667	0.731910437984193	-0.664042571530426	0.731723027515591	-0.663868780856358	-0.0069269009120603	-0.00784225546810273
4.6	-0.0107713277970472	-0.00427388948866716	0.619091735000649	-0.769039752079644	0.619436079155624	-0.768345868566344	-0.00863217987930241	-0.00839380499484612
4.7	-0.0122996095998574	-0.00283671246907512	0.49283400241177	-0.855114571958204	0.4928520563313	-0.854760042377419	-0.0108956202384227	-0.00817185574771903
4.8	-0.013513922916028	-0.00068804554700447	0.353955547895775	-0.920858159957876	0.354177710733927	-0.920543853294601	-0.0128600689767664	-0.00736017790259495
4.9	-0.013862302300427	0.00168575144605548	0.206995312832578	-0.963819762109653	0.206776118725801	-0.963826518598723	-0.0142570657894294	-0.00601533015720509
5	-0.013238818638994	0.00387989841975046	0.0549255408415933	-0.983109258182372	0.0551029264129332	-0.982865880019687	-0.0147518075338998	-0.00434052776235389
5.1	-0.0124513648775915	0.00574959704944782	-0.0971813212666721	-0.979874901930908	-0.0968505372913099	-0.979651790516808	-0.0150796193859343	-0.00254439244064307
5.2	-0.0110413939625877	0.0080455912693006	-0.24801366763164	-0.95300135409035	-0.247524021865639	-0.952976162327524	-0.0147940979133984	-0.000511671934472314
5.3	-0.0088897278598679	0.00998678493502947	-0.392636864133739	-0.902820902649398	-0.39229849175066	-0.903037015829489	-0.0139308250107598	0.0011992604434723
5.4	-0.00583192677541968	0.0118895711618232	-0.527498223731332	-0.830732754878843	-0.527287116980639	-0.830932948931178	-0.0127900325036609	0.00265563828568752
5.5	-0.00179651815096202	0.0115106430023427	-0.64918975525309	-0.739423048610048	-0.648952363919367	-0.739617026974425	-0.0115400102006572	0.00266517750993898
5.6	-0.000312515774882553	0.0108346066618243	-0.75634263301386	-0.630024175604692	-0.756154058097392	-0.630195420719182	-0.012271855079822	0.00338233844433734
5.7	0.00151624078526237	0.0108838743290265	-0.844807706520665	-0.504927623710638	-0.844679269463585	-0.505146468800962	-0.0120273849448343	0.00512306489165087
5.8	0.00355202865485075	0.010874524963393	-0.912473670756262	-0.367793199640928	-0.912406363397483	-0.368076692815599	-0.0113534590805689	0.00673075592189515
5.9	0.00586467036188815	0.0108744882225587	-0.958277282968182	-0.222458414924847	-0.958291669033105	-0.222541595752709	-0.0104162311694521	0.00843091576993897
6	0.0100024028235306	0.00965556597694035	-0.982031423273987	-0.0713700617584187	-0.981912694742682	-0.0714277919692993	-0.00836156761511913	0.00928780404245948
6.1	0.0116498490448517	0.00579500245874557	-0.980738790587734	0.0823351087939829	-0.980612796562145	0.0821873644034968	-0.00797332615853077	0.00912642647490301
6.2	0.011832587885132	0.00288836948854145	-0.955709185550445	0.233161758886366	-0.95569550922526	0.232960040147349	-0.00748890862768417	0.00980577479640255
6.3	0.0111853045933711	7.73166881141531E-05	-0.908064666650503	0.378214992845072	-0.908060044523344	0.378030675275641	-0.00663075134430642	0.0101529726402168
6.4	0.00997924839197756	-0.00208501464343455	-0.838767413026136	0.514483084353628	-0.838735701314334	0.514273543752681	-0.00582158962039347	0.010254704285147
6.5	0.00874037696641891	-0.00417084113926281	-0.748222541426983	0.638728170279406	-0.748246490160508	0.638525157696792	-0.00481350546217051	0.00994073573084995
6.6	0.00710303627464764	-0.00578915335567809	-0.640004295897047	0.746147739129051	-0.640077495933827	0.745897045830697	-0.00407157818178431	0.00962905770076827
6.7	0.00551691401060244	-0.00703023691534818	-0.516969476043812	0.836155563203351	-0.517071355724858	0.835935541474621	-0.00340429627670781	0.00923571202316651
6.8	0.00402984492795892	-0.00800371547594993	-0.38126140028603	0.906336509351448	-0.381401936055675	0.906166483883811	-0.00300561527330208	0.00895317672071162
6.9	0.00245865058633596	-0.00881921521384871	-0.235878965168372	0.954495890595746	-0.236104139389425	0.954385709275966	-0.00246884900750409	0.00888039122815086
7	0.000848593966516248	-0.00962138974630342	-0.0852875530221055	0.978580052865922	-0.0854958365166289	0.97849037171361	-0.00194951133242882	0.00846746636864684
7.1	-0.00125525212476912	-0.00966699483161333	0.0665893857117318	0.980463648163982	0.0663890258432141	0.980330546742809	-0.0015703905000943	0.00859874757593794
7.2	-0.00282789850785006	-0.00926021797504136	0.217854353425879	0.958634381555311	0.217573907267405	0.958599042993539	-0.000606869163913371	0.00876687122466748
7.3	-0.0043707390338931	-0.00876023115425326	0.363830692809056	0.9133092009344	0.363595801517274	0.913334449700038	0.000419523398820719	0.00863228984063123
7.4	-0.00552487432417841	-0.00791448867795747	0.500702722112711	0.845692522865462	0.500490294428138	0.845742531437762	0.00137877449521875	0.00826407939941147
7.5	-0.00625630258114627	-0.00750105654323197	0.62509868022412	0.758783822704419	0.624929634459737	0.758852243659043	0.00251878872380274	0.00749228871372568
7.6	-0.00755853844796434	-0.00696958678503487	0.736095907230396	0.653144107628213	0.735838937233993	0.65322485064629	0.00313494653257192	0.00643519924718723
7.7	-0.00863777647319839	-0.00548467277776783	0.828610100256452	0.530981272553096	0.828424149162155	0.531196688336687	0.00363981060341814	0.00553678392386208
7.8	-0.00890568475166354	-0.00351896873131243	0.901013427160488	0.396131013871482	0.900909508541088	0.396355094628556	0.00407382884126489	0.00443105581698704
7.9	-0.00837458016623117	-0.0010145057297662	0.951730133872328	0.252238504870236	0.951591352830884	0.25241680316109	0.00434213819301525	0.00357027869641089
8	-0.00538842808364994	0.000699921403797419	0.98045134673274	0.101499703500574	0.980426690374852	0.101761916425987	0.00468876772426834	0.00222195860248326
8.1	-0.00396258354980988	8.01383736094019E-05	0.984237849808393	-0.0525433133660835	0.984265275501379	-0.052287926981831	0.00321609550938735	0.000532423587595466
8.2	-0.00304834167387199	0.00015646110358085	0.964047888963013	-0.20445513796963	0.964094257072408	-0.204138197795759	0.00161124661326621	0.000397119249931974
8.3	-0.00233671823850847	0.000212636752409448	0.920977700562748	-0.351386208553993	0.921027172691568	-0.351098999838282	0.000311154969071898	0.000680387455166624
8.4	-0.00185998204056346	0.000629303650639393	0.855941151785638	-0.490363691257368	0.856037622422857	-0.490161089082022	-0.000899790122881024	0.00147407212029798
8.5	0.000123354082601075	0.00163974933381945	0.768996713345821	-0.617960789994124	0.769047258907635	-0.617809745149004	-0.000717425375468519	0.00265193119103679
8.6	0.00188830229501418	3.29094925911382E-05	0.663623111942885	-0.729152106635135	0.663790124299289	-0.728913996855485	-0.00104248137947295	0.00266347320469942
8.7	0.00223200248893201	-0.00096971272967448	0.542841894351166	-0.823407539935862	0.543099803732715	-0.823190338007907	-0.00128287956781682	0.00385738668910268
8.8	0.00264804232954952	-0.0016564157430031	0.40872530228172	-0.898090843499169	0.408909885256433	-0.897950440390254	-0.000707404078726835	0.0049973716682848
8.9	0.00293518779779241	-0.00203282884294246	0.264023612643546	-0.951058879250927	0.264201948156837	-0.950887530062486	0.000699975621569136	0.00604867262999439
9	0.00431927143472114	-0.00239320502312523	0.113202746863711	-0.979621303607119	0.113510966939087	-0.979572852543548	0.00316139552865838	0.00642890642068492
9.1	0.00558581223041551	-0.00362431783663357	-0.0394259456437361	-0.986086906842181	-0.0391166066061432	-0.986043777348733	0.00562213951377354	0.00563314545534802
9.2	0.00696359028992104	-0.00497255541419634	-0.192457867237292	-0.968504371438036	-0.192109657260398	-0.968479789868232	0.00817641612200907	0.0040538936071715
9.3	0.00808603829317794	-0.00662739728838141	-0.340815690502575	-0.926942394699306	-0.340463038801338	-0.926914647318621	0.010175258837653	0.00157028993843205
9.4	0.0091084426493501	-0.00827437353299389	-0.480404906038077	-0.862569524013505	-0.480080421964528	-0.862658650852867	0.0113390977757884	-0.00130630258068988
9.5	0.0101094666463702	-0.0114262288528897	-0.607919907808687	-0.778443657852952	-0.607681918645583	-0.778492428992226	0.0113313070857179	-0.0054093599593359
9.6	0.00793316451649931	-0.0140455864859344	-0.722569730436628	-0.674866372957934	-0.722255945203097	-0.675003658676786	0.00872180939585079	-0.00789897177241738
9.7	0.00603466859423569	-0.0144636714632716	-0.818851172814504	-0.554166682818602	-0.818561027452697	-0.554398967953938	0.00641618900418357	-0.00945589780511912
9.8	0.00449332173718969	-0.0143911152899741	-0.894984742436895	-0.420273324173831	-0.89472933473356	-0.420441599999986	0.00359130369947733	-0.0106199055763808
9.9	0.00335411181392718	-0.0129841442490545	-0.949578901988872	-0.276627206562566	-0.949324064725931	-0.276835533053417	0.000553630088486899	-0.0107021764925146
10	0.00473518817451998	-0.0126196472232337	-0.982274276006831	-0.125500817020254	-0.982117692778432	-0.125864634241509	-0.00165417498523727	-0.0108711943730428
10.1	0.00367122174293548	-0.0139314097953486	-0.989368647027676	0.0295104951192075	-0.989302933879871	0.0290766155561448	-0.00589396444839692	-0.0103745248435242
10.2	0.00232324098480881	-0.0137606077266386	-0.972677558129779	0.182761399469256	-0.972553223501663	0.182328101038735	-0.00915984239793656	-0.00785429660993576
10.3	0.00112451329445054	-0.0130253737426691	-0.932711052904429	0.331680448732565	-0.932726477376454	0.331135453811086	-0.0115371151886762	-0.00497847051778127
10.4	0.00029701464192236	-0.0119289713118931	-0.870301713771208	0.47299262931709	-0.870437679187486	0.472477227892688	-0.013067086857556	-0.00177658478001344
10.5	0.00108178409599231	-0.0106523512968301	-0.785344960111564	0.60340138581422	-0.785518523726412	0.602966075339188	-0.012906079231105	0.00116604560588127
10.6	0.0018118204859391	-0.011372446722821	-0.681676125448893	0.717274339303782	-0.681949848815331	0.716941989828992	-0.0128012098968482	0.00328515826645443
10.7	0.00177345650276739	-0.0120497211656615	-0.562128299612235	0.814513449923071	-0.562430494001123	0.814201837301255	-0.0121806984501384	0.00586630371266232
10.8	0.00137635067449361	-0.012943367738527	-0.428563638346167	0.892160431374595	-0.428916576282462	0.891860167126987	-0.0108301640514139	0.00836525972259318
10.9	0.000677317937810303	-0.0134405744574442	-0.284082036302625	0.947943147742118	-0.284474813539862	0.947819715423215	-0.00886660427405452	0.0105178524713853
11	0.00013589443211481	-0.0143822949271118	-0.133288936072409	0.979351513114541	-0.13372823212345	0.979260812423356	-0.00624664269813571	0.0118309636241781
11.1	-0.00107303003250561	-0.0148842821599184	0.0198752868062849	0.988454019271911	0.0193839021781532	0.988467779904386	-0.00353426925874493	0.0128339947583188
11.2	-0.00214581251161829	-0.0152873109192088	0.173521242510131	0.973504153307263	0.173061635388362	0.97357810092065	-0.00017681395208635	0.0130302076064818
11.3	-0.00328535063227542	-0.0153288715000526	0.322867443719878	0.934423691901008	0.322406139696767	0.934561814314237	0.00331762601355751	0.0124089239989158
11.4	-0.0042147950119187	-0.0150122206408349	0.463845633940801	0.872307411397329	0.463440128215146	0.872421918743351	0.00668447209972809	0.0111795896778345
11.5	-0.00445249206610766	-0.0157056513367312	0.592967370171282	0.79027093258248	0.592647612975042	0.790575055571523	0.00957909331027005	0.00831424154443835
11.6	-0.00704973174642313	-0.016391068561637	0.709341029493608	0.688509743593898	0.709125240976476	0.688839701753646	0.0104001877503614	0.00585020078570081
11.7	-0.00935311780263509	-0.015212366058158	0.80761697039763	0.569366541295552	0.807413610816395	0.569675161253203	0.0114409881489973	0.00363396743789521
11.8	-0.0114111872621437	-0.0134919429307702	0.885919570530465	0.436608320077058	0.885738339439429	0.437061712526717	0.0117874272539386	0.00102617434312953
11.9	-0.012587350052895	-0.0101472667442136	0.942668791074886	0.294075847673712	0.942563795943977	0.294528013176106	0.0113323732913732	-0.00109428230746394
12	-0.0111531047466378	-0.00800743549804789	0.977844020921541	0.143860820223225	0.977816391021292	0.14422730888423	0.0114628142410506	-0.00407353047511936
12.1	-0.0114868662229767	-0.00746162277139119	0.987464373929539	-0.0106399111939189	0.987394886440245	-0.0102531313368926	0.00879117064051602	-0.00678888675566505
12.2	-0.0119099964209945	-0.00620200812052924	0.973266587082085	-0.163748117734148	0.973285580689035	-0.163448937678976	0.00627252151058379	-0.00793263325341526
12.3	-0.0120636476543714	-0.0048091775538529	0.935738217790949	-0.312755773020283	0.935859713363964	-0.312448453189607	0.00394899944661722	-0.00872564734320827
12.4	-0.0124737233612528	-0.00323471800642214	0.876116089731447	-0.454678684165643	0.876181465248104	-0.454307726081311	0.00149514387437133	-0.00893902895341746
12.5	-0.0112132057357674	-0.00129920256072736	0.793354670940111	-0.58594279764279	0.793699102318703	-0.585553179105359	-0.000245699651070374	-0.00890229322189892
12.6	-0.0105656914614717	-0.0015283062478225	0.692113164744115	-0.700702459854118	0.692366939061137	-0.70046087764953	-0.0029471880300683	-0.00918700006052605
