# GHZ S RI R 50
0.2	-0.000235323894680416	2.6841072642026E-05	0.948458344745604	-0.308242834309997	0.948236209399694	-0.308217308384011	-0.000204968067392863	9.49942619079253E-05
0.3	-0.000238629270729454	8.55753362272036E-05	0.888231318729915	-0.451824749524182	0.888075290614898	-0.451729346868908	-0.000270656900479496	-6.83253459788875E-05
0.4	-1.14743242408121E-06	4.3764592820469E-05	0.806521426296576	-0.583840932820795	0.806533190774627	-0.583866032896756	-0.000171978988158731	-0.000186496365305298
0.5	-0.000240784519182592	-0.000171171537699558	0.705855782670218	-0.701753292929428	0.705700979232022	-0.701651863839945	-0.000384905699347801	-0.000406716444132025
0.6	-0.000387379701591394	0.000182532920676627	0.587937132293119	-0.802695335807995	0.587818096196834	-0.802533743482761	-0.000583201462583069	-0.000173677377278764
0.7	-0.00023938600329743	0.000500726789004034	0.455828058092201	-0.88373860754397	0.455809380210308	-0.88362624909386	-0.00046567263098695	-0.000121572978815983
0.8	0.000101019137417773	0.000592626751112436	0.312964250311053	-0.943379741775749	0.312933030581502	-0.943190277306148	-0.000434717247980793	-3.94566557703862E-05
0.9	0.000553096998746692	0.000637665744706353	0.162776864604839	-0.980100072671428	0.162711962759184	-0.980008287099192	-0.000314970250081207	-0.000132766306845496
1	0.000734990551268176	-0.000202852850852094	0.00858942707316552	-0.993292948502713	0.00853786811530258	-0.993261510850669	-0.000495610542983712	-0.000757501095478254
1.1	0.000301449037049964	-0.000241099674330866	-0.145721157190188	-0.98219805352829	-0.145736815445336	-0.982067839049567	-0.00123904285174824	-0.000405881120047038
1.2	0.000626208853300494	-0.000973691293630821	-0.29634557724743	-0.947261191351735	-0.296269348381712	-0.947235176381416	-0.000817553145950026	0.000249443889629871
1.3	0.000920031203914491	-0.00247244942936229	-0.439569354588998	-0.889527205122772	-0.439546369124833	-0.88952060987102	0.000759955430089291	0.00091651838979734
1.4	0.0010346063634372	-0.00452947163302819	-0.571979049887964	-0.810413996334315	-0.571954922538172	-0.810392412362537	0.00287526522852945	0.000292430261472571
1.5	0.0003137287223573	-0.00523965451742382	-0.690835197908762	-0.711356643575015	-0.69073365048204	-0.711271914327785	0.00412652216417734	-0.00069779704993064
1.6	0.000352618880654448	-0.00535024838042929	-0.792266566502215	-0.595363501726594	-0.792192696354241	-0.595303636615253	0.00456559478892917	-0.002033211098085
1.7	-0.000116406944947345	-0.00545020727947358	-0.874434757245172	-0.46578392665617	-0.874598693117747	-0.465269206746841	0.004020038721158	-0.00328329911868341
1.8	-0.000813143600820132	-0.00540153562736792	-0.936135511866956	-0.324043012921896	-0.936024555486245	-0.324041622496399	0.00296266471042304	-0.00423203735949102
1.9	-0.00168382412311103	-0.00536246223810403	-0.974704571593777	-0.175220291215151	-0.974797339287944	-0.174734127508854	0.00163048187084144	-0.00488868043011001
2	-0.00324247624114198	-0.0045522801793092	-0.989445873568894	-0.0215846725752651	-0.989457795511987	-0.0215389731346705	-3.71884807933431E-05	-0.00457766687430574
2.1	-0.00330795260427107	-0.00332355893137551	-0.980922409706205	0.131836770132694	-0.980960436117378	0.131873715380981	-0.000329289545082366	-0.00400008579457954
2.2	-0.00376127913989753	-0.00293174768527473	-0.948643376619982	0.282292896273134	-0.948568571494303	0.282355595437549	-0.00077118287283209	-0.00403343207263781
2.3	-0.0043331081204902	-0.00232451217455815	-0.893449813758455	0.42530571507539	-0.893069370007661	0.425817897225852	-0.00144799442917439	-0.00410604330230105
2.4	-0.00503340039422383	-0.00183980236966358	-0.815785170622197	0.559493974744279	-0.816050104910063	0.558909527851609	-0.00234391102348599	-0.00419327735067505
2.5	-0.00625802240810923	-0.000707149076884271	-0.719851464769038	0.678967109145857	-0.720063492480135	0.678458240299772	-0.00351858772694887	-0.00394700917958246
2.6	-0.00612884803414093	0.00130812167437787	-0.606170135694885	0.78233293788108	-0.606063933353003	0.782150863280635	-0.00333560587067338	-0.00293199809587166
2.7	-0.00517353532916953	0.00235920796732834	-0.476918019029245	0.866970028704788	-0.477365185331511	0.866563243711573	-0.0028619623091451	-0.00294599490009319
2.8	-0.00410780197200086	0.00277291935326148	-0.338073080961981	0.92987166572821	-0.337407358669743	0.930031535669065	-0.00287528627220682	-0.00323573296942271
2.9	-0.00287455326479335	0.0029007512860024	-0.189453309587492	0.971235118791633	-0.189484275552152	0.97114786524216	-0.00276603887043563	-0.00299745780124076
3	-0.0015683533155055	0.00292002809391824	-0.0355149532670083	0.989336307092565	-0.0362144948276995	0.989176449283512	-0.00235442768529935	-0.00242473199720315
3.1	-3.03755904662638E-05	0.00241013331701193	0.117022270733158	0.982556145021696	0.117611855598108	0.982539608341084	-0.00150476182792449	-0.00230290858638918
3.2	0.000858592396014143	0.00152797581869579	0.268377615801162	0.952444628281655	0.268323055116321	0.952384297685654	-0.00125317702263849	-0.00233799793169003
3.3	0.00172138694319084	0.000546973301771527	0.413031861027034	0.899418161397401	0.412894936604603	0.899403644463225	-0.000736241962979304	-0.00232925160203746
3.4	0.00197022230279557	-0.000639410720928161	0.547786076697612	0.824608695828749	0.547623756842492	0.824726104397733	-0.000224003175884946	-0.00272629331300642
3.5	0.00222414974657679	-0.00125246854028056	0.669054475139587	0.729356903134023	0.668974914508564	0.729395449379674	0.000295381833202463	-0.00271718802121811
3.6	0.00253170519712059	-0.0024992371227973	0.773329585490217	0.617513321025984	0.773571296930119	0.617065855929252	0.000985556978427799	-0.0035809111058451
3.7	0.00217444322341401	-0.00384203607397847	0.860282724642839	0.489699102353646	0.860164196331876	0.489841768780725	0.000929277602633268	-0.00440433681888058
3.8	0.00130488252247913	-0.00497214980277699	0.925822079354934	0.350847949039881	0.925879745983191	0.350469190533589	0.000608493885392699	-0.00516797433418019
3.9	0.000188159672276455	-0.00599157981914345	0.969210666660499	0.201682077633174	0.968970885219898	0.202348481487573	-0.000468334096147246	-0.00612773909959411
4	-0.00166739031996473	-0.00596440893032679	0.98858839664819	0.0501168349222879	0.988549190078676	0.0502195052389698	-0.00157034060540595	-0.00597476358780791
4.1	-0.0024018211665664	-0.0059649355730023	0.985175796237072	-0.103759900078715	0.9849909401254	-0.103633320083872	-0.00164512231527186	-0.00627459081744191
4.2	-0.00390014673370421	-0.00618947773534634	0.957017336812083	-0.256266780682143	0.957050546513224	-0.255612822029363	-0.0023815529984202	-0.00700336509371889
4.3	-0.00549620815968041	-0.00625358174580732	0.906039481129034	-0.401128690425572	0.905903275316452	-0.401017919659466	-0.00344721581880376	-0.00780359180299653
4.4	-0.00755017763277977	-0.00608979236763124	0.832987555839291	-0.536696167035983	0.83282189312084	-0.536563290331957	-0.0050504748585927	-0.00858498253137429
4.5	-0.0102168990376977	-0.00507361750390433	0.74040960533138	-0.659786368129143	0.74021998488805	-0.659613654220458	-0.00737992117759889	-0.00856254756568594
4.6	-0.0119311977567912	-0.0028897294010299	0.62833999457308	-0.767781740006962	0.628680402014097	-0.767081681445569	-0.00879977639661186	-0.00795858257886909
4.7	-0.0131151440721086	-0.000972503629030848	0.501871934278154	-0.855843065306115	0.501887400157008	-0.855486551289072	-0.0103647383516521	-0.00779347617318413
4.8	-0.0139842863706785	0.0014175977575015	0.362783700960318	-0.923385853557854	0.36300477199127	-0.923068134625838	-0.0119282485847514	-0.00731423839223287
4.9	-0.0140080444691361	0.00373823426225531	0.215649275363632	-0.96841691431646	0.215428729193725	-0.968425380756309	-0.0131946510185361	-0.00652027142694115
5	-0.0133155178707834	0.00622880063566545	0.0618975004157745	-0.990651616408103	0.0620746960947837	-0.990405102484642	-0.0138296736041208	-0.00500903451638568
5.1	-0.0115809943497303	0.00799442048587934	-0.09261171158934	-0.988007149160683	-0.0922795727845598	-0.987780509121207	-0.0138872634713735	-0.00387294004099405
5.2	-0.00984995788063392	0.00957404482521462	-0.24496908149714	-0.961864754932669	-0.244475684403229	-0.96183678831982	-0.0142600443137043	-0.00247421683982431
5.3	-0.00786207819873479	0.0107972225517012	-0.391536295096821	-0.912444954798584	-0.391193976163672	-0.912661242892946	-0.0142324754003053	-0.000789431414978048
5.4	-0.00581334479244148	0.0120992034757237	-0.52903886124234	-0.840674074485826	-0.528824957439635	-0.84087527966451	-0.0140428390700443	0.0010869455744488
5.5	-0.00286320616855874	0.0136871715244351	-0.653190556201025	-0.747666230500549	-0.652950554134176	-0.747861363640574	-0.0127590399906216	0.00334464079621041
5.6	0.000708940556907095	0.0133512426606515	-0.761024917030147	-0.637523716490641	-0.760834252382079	-0.637695892694622	-0.0112830118760462	0.00347820898900432
5.7	0.0030881172441158	0.0124373134195921	-0.851220390909599	-0.51167750426048	-0.851090226971579	-0.511898016511741	-0.0111185787639635	0.0040941887823254
5.8	0.00512944792086734	0.0114268738290442	-0.920519431345132	-0.372946522902809	-0.920450971230165	-0.373232600269572	-0.0109612898713782	0.00513631434969697
5.9	0.00644490284126927	0.00991429982115211	-0.967167181739188	-0.225229846596647	-0.967181645421132	-0.225313822588983	-0.0111024933297078	0.00638015577186024
6	0.00745193341024588	0.00976240167116056	-0.990307141123849	-0.0728327097079558	-0.990187354282955	-0.0728908264553025	-0.0107304211931665	0.00926986943511324
6.1	0.00997574227013297	0.00824003811798195	-0.990215193605682	0.0821365255934055	-0.990087844250546	0.0819874930187473	-0.00807905284530192	0.0104483496557194
6.2	0.0111017067764783	0.00567753400514912	-0.965268680981748	0.235464957139175	-0.96525486229338	0.235261222616597	-0.00650037299523997	0.0102922488573435
6.3	0.0111438083224686	0.00274457921783524	-0.916747583706439	0.38269025522099	-0.916743064450077	0.382504109716736	-0.00547680016905541	0.00965650495813158
6.4	0.0101952722339244	-8.1390059471539E-05	-0.846093541568614	0.520276838881289	-0.84606176696975	0.520065287714072	-0.00522788765589886	0.00884287900792801
6.5	0.0086076320724175	-0.00227831592740194	-0.755462208711385	0.64581452951206	-0.755486545689308	0.645609448019986	-0.00518186528622689	0.0085914202736311
6.6	0.0070691795309077	-0.00399983165535131	-0.645216539820751	0.755820603396473	-0.645291136357316	0.755567346693272	-0.00490151426775136	0.00854096724618872
6.7	0.00539087087935908	-0.00524528534577781	-0.51958453154745	0.846609729860524	-0.519688207887999	0.846387749484916	-0.0044800696002652	0.00882262172588374
6.8	0.00395864544155702	-0.00618383372141241	-0.381705296957901	0.916961651226832	-0.381847898828166	0.916790432837744	-0.00370191198831159	0.00909788491012211
6.9	0.00226977418098721	-0.00699499955580061	-0.234579581382316	0.965338302763433	-0.234807527687891	0.96522786145719	-0.00269224583358295	0.00918179372019103
7	0.000921410310859198	-0.00735565567338604	-0.0807940244585375	0.990124629802781	-0.0810051641299601	0.990035095997589	-0.00135732136553816	0.00887185507805994
7.1	-0.000804656995786993	-0.0077669108022036	0.0740924150209444	0.989793556599905	0.0738891253663042	0.989660522917116	-0.00056718340150943	0.00817181763047287
7.2	-0.00246732829172758	-0.00756952369340697	0.226892209823339	0.966049503180767	0.226608871812695	0.966015878113881	0.000264728040268821	0.00786837048875558
7.3	-0.00411236916491978	-0.00714559249681673	0.374321064973497	0.918892910618151	0.374084203944138	0.91892022707306	0.00113625922719526	0.00739729539400761
7.4	-0.00552676666174916	-0.00632727215700692	0.512905330765579	0.849076487568028	0.512691376540105	0.849128857573037	0.00174250897156474	0.00675529283590935
7.5	-0.0064330301565552	-0.0051694321637482	0.637975148838863	0.757942241557102	0.637805535850943	0.758012988036149	0.00271365738779687	0.00637155473547371
7.6	-0.00672122923318444	-0.00455353344278343	0.747417757595301	0.649902528110867	0.747159953493726	0.649986384773813	0.00376173650320604	0.004798945039371
7.7	-0.0074017791292435	-0.00363479642859381	0.839234409709485	0.525721436509737	0.839049528704701	0.525940108975163	0.00371046649869069	0.00333319676684296
7.8	-0.00765243395350363	-0.00240863402036899	0.910535736270199	0.388495944561248	0.910433685507326	0.388722452892072	0.00338993835411965	0.00218114180004967
7.9	-0.00815253225353692	-0.000974303034250295	0.95913480138704	0.242066906808089	0.958997502779958	0.24224768262646	0.0024300460905423	0.0017620332219534
8	-0.0074492716141148	0.00194209019743659	0.984410177864362	0.0909274486025071	0.984388356152687	0.0911906927003423	0.00197960671961763	0.00282550813595119
8.1	-0.00502272716288592	0.00317053864436971	0.987000446584554	-0.0633870657793313	0.987030732661628	-0.0631311120250089	0.00330552526822037	0.00234354597351676
8.2	-0.00318945331725112	0.00331030039760004	0.964519942215009	-0.216218493686972	0.964570116241621	-0.215901156946894	0.00307479659071404	0.00113734503721301
8.3	-0.0017803313615357	0.00319586744926591	0.918547367820371	-0.363152161484352	0.918600391889053	-0.362864987509622	0.00232705173687069	0.000324409978446881
8.4	-0.000723493678343129	0.0024867281119634	0.850750120524257	-0.500722535666049	0.850849030293548	-0.500520932363561	0.00104570675003303	-0.000421259509582378
8.5	-0.000787742353816003	0.00282003458443607	0.763140508740984	-0.62694368243723	0.763192742454001	-0.626793021710041	-0.000789236653744086	0.000600979854801354
8.6	0.00111639781725782	0.0030202562504324	0.65533490384983	-0.737828946710713	0.65550494903536	-0.737592662136699	-0.000204586249845707	0.00156279813502777
8.7	0.00236605194814904	0.00227730635753805	0.532405058840745	-0.829829663757777	0.532665565608402	-0.82961574918622	-6.38254436882411E-05	0.00171082342636927
8.8	0.00359783686421707	0.00135663420513616	0.397264272621474	-0.901838916853496	0.397450310905509	-0.901700945669615	-2.18607668113216E-05	0.00182841062492982
8.9	0.00451025670801728	-1.4573640202964E-05	0.252610530595136	-0.952583383024511	0.252790559840255	-0.952414369461183	0.000231951641042349	0.00202812406961596
9	0.00509822111776898	-0.00129920949020069	0.10059775292566	-0.979757129139847	0.100906178899616	-0.979712661084812	0.000758342514138534	0.00275237274480672
9.1	0.00590886502584244	-0.0025031909863385	-0.0521666255987136	-0.98225023499799	-0.0518577656078378	-0.982211289267704	0.00238796436302996	0.00317734243603701
9.2	0.00678515932320588	-0.00358178212710709	-0.203633752682328	-0.961955568500263	-0.203286734990123	-0.961935408193084	0.00458278677027803	0.00327803769520173
9.3	0.00798944376831546	-0.00482530196549006	-0.350369617013696	-0.91846506892619	-0.350018295033799	-0.918441698996686	0.00763186663353736	0.00234786160274774
9.4	0.00864342833697986	-0.00690311938167391	-0.488781248566698	-0.852352946707621	-0.488459467831093	-0.852445674530625	0.00996692092672835	-0.000280568265806161
9.5	0.0090517589650284	-0.0079558227846055	-0.613905755936144	-0.764897655743459	-0.613670096327433	-0.764949227341145	0.0116387368877712	-0.00310940242750949
9.6	0.00891609255389638	-0.0106761027463364	-0.724325702396729	-0.660866437371047	-0.724016129853039	-0.661006201724987	0.0112066361811708	-0.00793294003178399
9.7	0.00743000382397447	-0.0119370473059512	-0.81779033843978	-0.540411665525125	-0.817505249683763	-0.540645101302644	0.00825883332257299	-0.0112165527626736
9.8	0.00610567191511135	-0.0127551563757256	-0.89117615662145	-0.406781249377198	-0.890924923695896	-0.406950698903427	0.00461068327731824	-0.0132173615656648
9.9	0.00418260782186112	-0.0129806836681719	-0.942417557388924	-0.263568227065973	-0.942167651659334	-0.263777050516873	0.000102064218355454	-0.0138140208323893
10	0.00294351925461785	-0.011301996621383	-0.971298788339059	-0.115553438398133	-0.971147240121444	-0.11591413298961	-0.00343554399173663	-0.0115764393006231
10.1	0.00324626620288844	-0.0113506542291992	-0.977728280646716	0.0365961196387283	-0.977666582738529	0.0361667544720877	-0.00546076597584441	-0.0109757051162963
10.2	0.00246030640714634	-0.0116525829552627	-0.959710689201414	0.187640808143783	-0.95959099025941	0.187211791345625	-0.00878168695818059	-0.00961512051593428
10.3	0.00140439539948841	-0.0115809233070976	-0.918562185385216	0.33358709864281	-0.918581011041867	0.333049193153466	-0.0118758391558423	-0.00725082307188746
10.4	6.16176905125977E-05	-0.0116205982487355	-0.855914997926322	0.470890231315896	-0.856051703901001	0.470382618956174	-0.0145576391864759	-0.00416528284100146
10.5	-0.00130913916946329	-0.0101525601281143	-0.773495779348208	0.598340649359292	-0.773668565229154	0.597911385986378	-0.0158247678501794	0.000559365705458947
10.6	-0.000769741228067338	-0.00919654994074328	-0.670468204552459	0.710933774277021	-0.670739782348731	0.710606600821406	-0.014218384364714	0.00450261235240255
10.7	-0.000204511289600833	-0.00918942470077977	-0.552114581294503	0.805555552778675	-0.552413780545962	0.805249015444715	-0.0118388058469715	0.00696655158797464
10.8	-0.000209003231408831	-0.0100064562948175	-0.420945196848625	0.8809033140092	-0.421293944662372	0.880607839563304	-0.00965363389090876	0.0083536132969616
10.9	-0.0010570112181568	-0.0103710663481436	-0.279786801167561	0.935752592887336	-0.280174530812147	0.93563101498052	-0.00784322280638325	0.00977680489473418
11	-0.00148306963857158	-0.0103935631425898	-0.130355114347877	0.967579460146528	-0.130789171225127	0.967490452652733	-0.00510332310054488	0.0110710341225779
11.1	-0.00193046771754604	-0.0106188389569101	0.0203917621560114	0.974910355833657	0.0199071135046786	0.974924320148113	-0.00225087932286	0.0112781077973975
11.2	-0.00242114597233678	-0.0109599800485537	0.170548749166033	0.960139091314949	0.170095456606675	0.960211745900745	0.000739532123918002	0.0109993210186748
11.3	-0.00307861600261431	-0.0113077545493355	0.317047727649063	0.922395842981901	0.316592395349517	0.922531377807668	0.00379638811894568	0.0100084110024598
11.4	-0.00435821634061222	-0.0114908798168699	0.456437770670745	0.861908929557993	0.45603726860034	0.862021288900664	0.00620491979567604	0.00881168641811574
11.5	-0.00465984761456542	-0.0105306008591146	0.583145963385944	0.779870259709939	0.582830309622676	0.780169485211867	0.00951748940408701	0.00761434765786114
11.6	-0.00527885903059351	-0.0115061580688667	0.696336494914201	0.681357578377752	0.696122520550629	0.681681902209152	0.0115308616310558	0.00381181309935335
11.7	-0.00688417693384042	-0.0114309403229686	0.793718859738755	0.565553050498479	0.7935167623916	0.565856429845675	0.0117403835399017	0.000665924609831623
11.8	-0.00870485459846577	-0.0111059445994848	0.871747489807583	0.435585362294652	0.871566219536357	0.436031730372393	0.0110239470911048	-0.00220688212908666
11.9	-0.0109719000197801	-0.00988620774469192	0.927913812200902	0.295433660874309	0.927807666095781	0.295878956813693	0.00903401546807796	-0.00391118165293635
12	-0.0126107861374309	-0.0064477021143201	0.962616179038442	0.150020423643109	0.96258586374888	0.150381426108706	0.00817736450668843	-0.00336421688926632
12.1	-0.0120706755491796	-0.00467857434159089	0.975252395665449	-0.0011312813316523	0.975180102182328	-0.000749984121500214	0.00861067242155774	-0.00536038335047021
12.2	-0.0123263087282414	-0.00326062701104243	0.963339058214425	-0.152206005364801	0.963354875514747	-0.151910186147814	0.00722064887130272	-0.00724655480947517
12.3	-0.0121983756893109	-0.00173167492134707	0.92817817124637	-0.29916206552864	0.928294983822789	-0.29885702881666	0.0056165249876622	-0.00875505568659658
12.4	-0.0124269588452901	-0.000871929268446756	0.871715213669349	-0.438698626355494	0.871775274310213	-0.438331097492492	0.00326017629084766	-0.010190737406764
12.5	-0.0128271610597878	0.00140196012075513	0.794527978333864	-0.569750689536501	0.794863959207844	-0.56935970629494	0.000432517471426755	-0.00971143001581637
