# GHZ S RI R 50
0.2	-0.000350962194781343	-8.12283730259643E-05	0.948956264343004	-0.307973038275155	0.948734031589196	-0.307947593793289	-0.000294628759624325	-4.20612792593634E-05
0.3	-0.00042721255715615	5.56059910751459E-05	0.888958583394745	-0.451603130945246	0.888802419044338	-0.451507758405828	-0.0004263922890023	-0.000161520736215774
0.4	-0.00021313003475805	0.000159017809877639	0.807455076171412	-0.583817790597056	0.807466863700946	-0.583842902704474	-0.000361412547960606	-0.000167665214976185
0.5	-0.000223133346314206	5.75436080500315E-05	0.706759322889039	-0.701990008788108	0.706604346030222	-0.701888570361547	-0.0003516649304109	-0.000279489247537349
0.6	-0.000351383184396317	0.000229419933699666	0.588923339491181	-0.803019563609557	0.588804104288583	-0.802857906421418	-0.000502033918998403	-0.000260271260898563
0.7	-0.000245489589288833	0.000576219254768414	0.456861759165544	-0.884358400198267	0.456842990337955	-0.884245937878905	-0.000430446363305763	-0.00024566851347528
0.8	9.84025374066133E-05	0.000694849356507716	0.313890672121124	-0.944301352570064	0.313859303464577	-0.944111684252744	-0.000440212450917991	-0.000202665837069763
0.9	0.000505745776382086	0.000863358905771424	0.163475219477204	-0.981226624410175	0.163410190974737	-0.981134758539284	-0.000471389371351569	-0.000216893138349979
1	0.00110666804351855	0.000278110707665218	0.00922301496451202	-0.994497577232501	0.00917137348801894	-0.994466133622729	-0.000388475512616971	-0.000485936136036278
1.1	0.000819481062567134	-0.000307198033504437	-0.145312382270175	-0.983792751901309	-0.145328148162311	-0.983662348492856	-0.000951970572702143	-0.000488951721176635
1.2	0.000821091138635818	-0.00124670932598186	-0.296361333347334	-0.948983112092795	-0.296284990979437	-0.948957015594159	-0.000732756576058531	6.71437025115944E-05
1.3	0.000492861991979113	-0.00281009953855568	-0.439957537822784	-0.891251886439581	-0.439934515314333	-0.891245270129681	0.00041088209372109	0.000695762480433164
1.4	-3.28179842596494E-05	-0.00436665007569363	-0.572660973787225	-0.812115070638617	-0.572636812278757	-0.812093437565535	0.00205679816971444	0.000452343963395807
1.5	-0.000840726163422618	-0.00484831568290097	-0.692013401057243	-0.713178403183687	-0.691911671948061	-0.713093448719577	0.00338330666263905	-0.000529951973778949
1.6	-0.000857898076263107	-0.00428256711053182	-0.794022064416919	-0.596736029135327	-0.793948030757669	-0.596676026273672	0.00369756077690957	-0.00153753976553886
1.7	-0.000661997585562777	-0.00415999460076219	-0.876404580244221	-0.466745665880551	-0.876568838453413	-0.466229795077758	0.00355318184406516	-0.00271390209931266
1.8	-0.000854274296780437	-0.00421151401448071	-0.93831189229635	-0.324649783430598	-0.93820068311776	-0.3246484053661	0.0027621335027979	-0.00373563386596099
1.9	-0.001147642811831	-0.00436752605101271	-0.977167373397621	-0.175426645585202	-0.977260257350175	-0.174939252225955	0.0018520797829331	-0.00441429786590579
2	-0.00246530397328515	-0.00462235691970565	-0.992063691909846	-0.0209222216738177	-0.992075611966914	-0.020876393386586	0.000548348434371171	-0.00495434144847342
2.1	-0.00332764419207282	-0.00335491649902513	-0.983113312823259	0.132981637012415	-0.983151397045315	0.133018701377843	-0.000409756842761251	-0.00447222636078809
2.2	-0.00364924947070101	-0.00270475580786786	-0.950676068996986	0.283826983741409	-0.950601027127	0.28388976672279	-0.000836875666083161	-0.00433880567628629
2.3	-0.00400718633183934	-0.00211682531040447	-0.895221733612076	0.427348886022345	-0.894839776409971	0.427861934373598	-0.00146548118189137	-0.00437916410535927
2.4	-0.00436801113146027	-0.00174671413456134	-0.817032970157864	0.562098317070838	-0.817299426520364	0.561512778120252	-0.00216008962039585	-0.00435386091081673
2.5	-0.005302070055661	-0.00168671058546346	-0.720205128876212	0.681606883172584	-0.720418462541004	0.681097310076354	-0.00289348227400099	-0.00477300484688808
2.6	-0.00659470053669884	-0.000146545893017321	-0.606304298600526	0.784929065111622	-0.606198140200772	0.784746438586592	-0.00368927288186634	-0.00419288612439449
2.7	-0.00653554349184451	0.00168389354858018	-0.476478562199357	0.869756965207252	-0.476927446784343	0.869350044447499	-0.0038748639660859	-0.00364350068147109
2.8	-0.00555256138113117	0.0031020341705337	-0.336919437742326	0.932567047172016	-0.336251952253427	0.932725913526036	-0.00391637602758546	-0.00316589305388992
2.9	-0.00386066729276205	0.00381961249657728	-0.187651311867065	0.973466274427632	-0.187682529177099	0.973378926901581	-0.00337935081380305	-0.00249924884322625
3	-0.00227907541926726	0.00402979172036294	-0.0337041899902212	0.991153957867071	-0.0344052719516736	0.99099514200748	-0.002710601928668	-0.00191033092209458
3.1	-0.00023810563159638	0.00385727631800269	0.11947371047981	0.984362054539079	0.120064499465208	0.984344159878065	-0.00151130119456069	-0.00164871055017695
3.2	0.00122323346687233	0.00281454313938347	0.271343535716133	0.953558712899873	0.271288715925896	0.953498408624627	-0.000876526365891847	-0.00184027245972041
3.3	0.00242627827599407	0.00154915633180836	0.416141152694418	0.899792086445891	0.416003962590368	0.8997779148174	-0.00013383693455683	-0.00204989629807243
3.4	0.00296818513996785	-0.000100562304669469	0.550761694961919	0.824450145462461	0.550599431150237	0.824568154421048	0.000658220041632401	-0.00279066252944246
3.5	0.00272755460890333	-0.00136773981319855	0.672426392914504	0.728927392031925	0.672346782579091	0.728966237803452	0.000852406662046011	-0.00343992047130697
3.6	0.00282385654058271	-0.00209322379219342	0.776700155502655	0.615804981698538	0.776940695319246	0.615355967915958	0.0013014791085269	-0.00398247240044255
3.7	0.00282136479278426	-0.00344230954883449	0.863044975803258	0.487257713914089	0.862926807395446	0.487400969926297	0.00142645431609055	-0.00485228361492777
3.8	0.00219453902742912	-0.00477699176468516	0.928041651442624	0.34792550569679	0.92809803229407	0.347546144378046	0.00119884337955891	-0.00573004866194124
3.9	0.00144579933027579	-0.00621638979361821	0.97103942360628	0.198286222713994	0.970801864863492	0.198954261584774	0.000420521139226671	-0.00687262819744692
4	-0.000821435751054944	-0.00747645839956975	0.9895326845479	0.04566479847862	0.989493915694377	0.0457677212379703	-0.000815174473121287	-0.00774333004208443
4.1	-0.00277178749255204	-0.00710413847707415	0.984617420565751	-0.10798469490748	0.984433129840555	-0.107857334376534	-0.00180618291295664	-0.00785773036041437
4.2	-0.00445056139927244	-0.00682751674507105	0.955714247211076	-0.260166868190082	0.955750157756994	-0.259513212091999	-0.00270739164244521	-0.00828776688419383
4.3	-0.00606824246519201	-0.00649798121974568	0.903973596099364	-0.404820831852474	0.90383791540672	-0.404709526129366	-0.00387732848158594	-0.00880031418650635
4.4	-0.00767240716604287	-0.00594012285751137	0.829893571041952	-0.540126779947223	0.829728643927393	-0.539993240567214	-0.00517594264614434	-0.00914733128419064
4.5	-0.00977605576609202	-0.00581285149522993	0.736156503775509	-0.661847471423664	0.735967989038693	-0.66167423647196	-0.00685943572874681	-0.0097296075945603
4.6	-0.0125459526236912	-0.00388333369806182	0.624400761261145	-0.768818461696434	0.624743202351479	-0.768120868688807	-0.00896916267199476	-0.00942815828891476
4.7	-0.0141743498349871	-0.0014899775452421	0.49772785639594	-0.85629527804143	0.497744662428764	-0.855939436418289	-0.0108147603777135	-0.00904420533380383
4.8	-0.0152095975133495	0.00144915517897932	0.358408322765045	-0.922925205110776	0.358630191957175	-0.922609005793607	-0.0125260412204823	-0.00828722196561904
4.9	-0.0150837613841911	0.00431523894214322	0.211395686082863	-0.966638226091282	0.211175699237562	-0.966645832822871	-0.0137466448539028	-0.00716646720518773
5	-0.0143509516012654	0.0071326899020571	0.0588949427295144	-0.988144086702664	0.0590723636358313	-0.987898747882434	-0.0144294908974085	-0.0055383515894039
5.1	-0.0120563034027768	0.00971856230347899	-0.0955835391017787	-0.985413693251316	-0.0952514406615696	-0.985188650953047	-0.0142569668188122	-0.00385018189136935
5.2	-0.00921484090050711	0.0112645050104319	-0.247505565129062	-0.95837070935496	-0.247013446422349	-0.958344471027124	-0.0139916058289491	-0.0024230681173679
5.3	-0.0063965853646093	0.011687763858249	-0.393113837172569	-0.90833087516778	-0.392773276409266	-0.908547534338979	-0.0134460260727776	-0.00118286181696442
5.4	-0.00418958427187445	0.0115500127535549	-0.529447858589854	-0.836570819093438	-0.529235168548381	-0.836771910113058	-0.0130404700640271	-0.000234563783437166
5.5	-0.00332730054919291	0.0120844962000509	-0.653557842420444	-0.743929238890189	-0.653318999832498	-0.744124527625313	-0.0132798778154642	0.00108965767337633
5.6	-0.000266691314264388	0.0136996734143593	-0.760535693249341	-0.632828390043525	-0.760346249393551	-0.633000609238938	-0.0122411914006574	0.00274650213887733
5.7	0.0030080500962187	0.0132291533393539	-0.84933219837278	-0.507169204848687	-0.849203192805855	-0.507389221048504	-0.0114501676548655	0.00371885443228254
5.8	0.00583153232463922	0.0120534666381847	-0.917634143906164	-0.369097467872947	-0.917566683161325	-0.369382529946915	-0.0107361343943721	0.00479468494844932
5.9	0.0081133685804246	0.00959351493863308	-0.963865133838736	-0.222057585233961	-0.963879738066156	-0.222141194365354	-0.0099298542032909	0.00558963967245688
6	0.00784667475433473	0.00685723354011533	-0.985991480357227	-0.0694619912933762	-0.985872420647637	-0.0695202090787765	-0.0100886758208171	0.00636516295599019
6.1	0.00789697322274713	0.00661070820796071	-0.984559975728577	0.0837503047576567	-0.984433642882224	0.0836018313588198	-0.00919070796092217	0.00827106023099359
6.2	0.00876354816118962	0.00562648277948469	-0.959676033441688	0.235566594103917	-0.959662581967253	0.235363948869738	-0.00780322418620662	0.00905952481744074
6.3	0.00942189429030951	0.00398555545950096	-0.911373915705308	0.381719073789058	-0.911369640653393	0.381533922189093	-0.00642386615681575	0.00926139879580216
6.4	0.0097965150486086	0.00167492811077074	-0.840674407756235	0.518465496316752	-0.840643087139624	0.518255088934694	-0.00526872986401727	0.00881418543395869
6.5	0.00914267996525349	-0.0010216150443165	-0.750067935381941	0.641823569578001	-0.750092205756869	0.641619880791034	-0.00458670658503718	0.00810170975247944
6.6	0.00829586862367809	-0.00337106806196388	-0.641815996861547	0.750860812817733	-0.641889982950885	0.750609032504142	-0.00394828063799255	0.00756757688782965
6.7	0.006523738604916	-0.00571892472239066	-0.517153490826631	0.841429286305869	-0.517256431066211	0.841208510170069	-0.00373832688025698	0.00707709827750266
6.8	0.00431299511625446	-0.0071580780330921	-0.380110555430725	0.911253341987655	-0.380252188284951	0.911083034072054	-0.00360400634947286	0.00710392221019641
6.9	0.00187763905180271	-0.00790209530495056	-0.234280763700282	0.958753924890325	-0.234507085134998	0.958643912537973	-0.00309114783541292	0.00730582041895962
7	-0.00020251086109798	-0.0075979375568504	-0.0830959922153044	0.983975396058584	-0.0833056171975621	0.983885803746537	-0.0022851931565186	0.00748679454263497
7.1	-0.00156800793553673	-0.00724488976973642	0.0713208845250318	0.984873157430758	0.0711189633766721	0.984740318248721	-0.00115184043469055	0.00735935558494664
7.2	-0.00289509227689937	-0.00687572796476	0.223251566953043	0.96139750447737	0.222969843737451	0.961363352797818	-3.23752242234893E-05	0.00711852679114929
7.3	-0.00428481656482806	-0.00634439845045308	0.369438968410921	0.914968233022001	0.369203331011227	0.914994672820563	0.00103504961435908	0.00665115184513956
7.4	-0.0054071938113653	-0.00557727316705542	0.506853088454094	0.846778939440101	0.506640022572095	0.846830179302681	0.00182683127726201	0.00589617921312824
7.5	-0.00671336049680226	-0.00447330978118118	0.632803705866879	0.757532412838369	0.632634453040866	0.757602266935331	0.00241105348159446	0.0053116817762576
7.6	-0.00660568340403757	-0.00278275240294169	0.742091215510818	0.649397432070658	0.741834280266167	0.64948010984129	0.00361249374859661	0.00448061439071994
7.7	-0.0060014508352202	-0.00183455512210351	0.833381462426555	0.526490686021913	0.833196601136943	0.526707651610441	0.00434096865525327	0.00315138922845089
7.8	-0.00510054001883084	-0.00137979691316521	0.904956597276781	0.39080245473305	0.904853995816866	0.391027551621537	0.00481530234801248	0.00163256791753531
7.9	-0.0044839992075303	-0.00168913897506981	0.954698515995091	0.245482482448031	0.95456089479289	0.245662014597591	0.00482046346243052	-2.13151554221531E-05
8	-0.00585784187441046	-0.00235127385270269	0.980112565185265	0.0939717159522085	0.980089919303053	0.0942338194488971	0.0033421663005962	-0.00162522812748542
8.1	-0.00655217927205646	8.76323811323287E-05	0.982677744280541	-0.0583003659770665	0.982706646280157	-0.0580454660114123	0.00220734733228411	-0.0013221220119071
8.2	-0.0055915740225832	0.00186099252229428	0.961903465868803	-0.209943485164053	0.961951658613334	-0.209627126994557	0.0013949049085356	-0.00143619117468423
8.3	-0.00430170633748861	0.00326711381249368	0.917617812403203	-0.356673946225685	0.917669010004267	-0.3563874110074	0.00049177114528096	-0.00120252954654652
8.4	-0.00213760308672009	0.00392873749798663	0.850743564281577	-0.494613275268061	0.850841088434387	-0.494411778773819	9.25262249064124E-06	-0.000800769152618209
8.5	-0.00122263059961547	0.00284681053838872	0.763983597115495	-0.6195156839462	0.764034658729755	-0.619365311273928	-0.000799295016492866	-0.000934100010891022
8.6	-0.000876788950415052	0.0039741575880116	0.659089289624065	-0.731033512695455	0.659257136351551	-0.73079658638735	-0.00139524487723033	0.000484343179680923
8.7	0.00103322326812616	0.00475004929416876	0.537356313129196	-0.824503972339456	0.53761481385601	-0.82428858924624	-0.000879848835825376	0.00147547768031818
8.8	0.00353572466350647	0.00472143673646534	0.402906235465357	-0.897608252509975	0.403091010552814	-0.897469208260309	-0.000256475849419782	0.00208422001980573
8.9	0.00638117700695907	0.0037008303983504	0.259135518015735	-0.948909075549769	0.259313960835101	-0.94873906004957	0.00102596111934272	0.00271187696285617
9	0.00882133426241339	0.00097273815962618	0.109191113884897	-0.978254881968669	0.109498953878795	-0.978207716741857	0.00280286915671046	0.00261484825516167
9.1	0.0104417514780517	-0.00192399498181651	-0.0446155273869731	-0.98326816053212	-0.0443067746444586	-0.983226805764653	0.00502813510232143	0.00197172892744134
9.2	0.0110255157488567	-0.00560734340635488	-0.19657486540262	-0.963951872770577	-0.196227824422788	-0.963929119275688	0.00701680200177941	0.000192393536828933
9.3	0.0100126492089727	-0.00857326281731177	-0.343383205702924	-0.92175409342492	-0.343031858407838	-0.921727957820881	0.00834340398849733	-0.00187992880285929
9.4	0.00842517179371602	-0.010846842781001	-0.482014371083947	-0.857854452641025	-0.48169131746584	-0.857944494540912	0.00921680797582122	-0.00436330871270259
9.5	0.00532297003236911	-0.0108338990901059	-0.610098068122029	-0.77239547214646	-0.609861173221449	-0.772445384907623	0.00850641300906097	-0.00653674127784141
9.6	0.00565039819133795	-0.00946541614677328	-0.721903371335116	-0.66769123659134	-0.721591960122319	-0.667829294537546	0.00862872799180331	-0.00837614190414285
9.7	0.00609146310811389	-0.00979005005404802	-0.816385580710205	-0.547908329617821	-0.816097957003508	-0.548140426417168	0.00709518707062034	-0.0111816122477591
9.8	0.00621053014982006	-0.0104716982866909	-0.891588787544797	-0.414857686341779	-0.891335357230347	-0.41502594060592	0.00436466419421621	-0.0130468321315097
9.9	0.00611457628174555	-0.0116649598539724	-0.945461510214813	-0.271238608924915	-0.945208926959452	-0.271446821532425	0.00136463297671325	-0.0141041854761282
10	0.00340187176735089	-0.012867833992922	-0.975072760926324	-0.120812243703731	-0.974918774497146	-0.121173809391413	-0.00303023585604919	-0.0142255261853911
10.1	0.00226021893588273	-0.0106300355925839	-0.981892895031616	0.0309109884769776	-0.981828386652725	0.0304802583518529	-0.00611172663988188	-0.0119525550545028
10.2	0.00278548769594435	-0.00995620301361739	-0.965658786089609	0.182856480734044	-0.965535924267225	0.182426020102378	-0.00849865983403054	-0.00996810593151959
10.3	0.00318020742325538	-0.00992281229204391	-0.925553724376825	0.330682719230074	-0.925569841293103	0.33014164373224	-0.0106412665311818	-0.00754120822016397
10.4	0.00362100180190215	-0.0110913525667848	-0.862472870912047	0.470068747798119	-0.862608308944358	0.469557812561517	-0.0119010846584697	-0.00501488362212576
10.5	0.0021950898943016	-0.0131070961403076	-0.779508973358982	0.596917901759617	-0.779680336710967	0.596486083753911	-0.0128577856396146	-0.0029709549709719
10.6	-0.000178938197001078	-0.0133060588770494	-0.678315260037764	0.71111590252891	-0.678586501304411	0.710785330283229	-0.013411341506422	-4.27077033383212E-05
10.7	-0.00198790804238698	-0.0123622951422437	-0.559688275671603	0.808014541798603	-0.559987883533438	0.807704535596191	-0.0128433845074975	0.00309618419083257
10.8	-0.00277556585698713	-0.0112710980364279	-0.42749375677686	0.884931087146568	-0.427843548734748	0.884632167859849	-0.0111083384097378	0.00601034668095026
10.9	-0.00313541140226274	-0.0103529031371138	-0.285531750900562	0.940275576574644	-0.285921330374043	0.940151583498635	-0.0087486707765661	0.00813848781863394
11	-0.00349716745738159	-0.0098395718559553	-0.136707823746154	0.974380487994363	-0.137144763241848	0.974288393280093	-0.00594354588266031	0.00954687349542674
11.1	-0.00324087534663905	-0.00928820208669826	0.0171893493567102	0.983749039855683	0.01670029345747	0.983761446597403	-0.00259976067723767	0.0100734467620905
11.2	-0.00307559709462714	-0.00952550294976862	0.16956894740368	0.968847404379455	0.169111563585434	0.96891952863834	0.000672850292806605	0.00963859558211319
11.3	-0.00312267146159107	-0.00991737995533691	0.317533287768981	0.930940378452108	0.317073787381067	0.931075975829023	0.00393736403834711	0.00858940001602626
11.4	-0.00371695792461935	-0.0109727231345873	0.45823063819248	0.871087411228839	0.457826148395099	0.871199688416643	0.0068287333650327	0.00679417657723907
11.5	-0.00602931899650094	-0.0106143198016795	0.589028938313858	0.78893370158539	0.588709569633096	0.789236007925341	0.00845564125787332	0.00493483942100215
11.6	-0.00609089175749488	-0.00914757933859725	0.703498479273301	0.687279219086107	0.703282729465157	0.687606796286428	0.0107034230644209	0.00297863587793722
11.7	-0.00591375843653599	-0.00886974737382185	0.80138405184547	0.570160860649887	0.801180322026282	0.570467159793061	0.0119529583717365	5.82232610291904E-05
11.8	-0.00610641230324702	-0.00913622580048293	0.880480765829978	0.438968965675054	0.880298162712348	0.439419767937399	0.0122442177517781	-0.00285446101432733
11.9	-0.00639628190781812	-0.0102114025715484	0.93839137291595	0.296605954053118	0.938285042580705	0.297056202545084	0.0119888876306654	-0.00579641186597625
12	-0.0106350466737519	-0.0111293128731148	0.971978615410614	0.146923965196503	0.971949694994316	0.147288358835427	0.00956650352450721	-0.00864575835481315
12.1	-0.0130817960098915	-0.00818142298035948	0.98301748272012	-0.0047051542199416	0.982946007054266	-0.00432055523650193	0.00805829824840033	-0.0097351268129666
12.2	-0.0143633580780096	-0.00579253359404673	0.970796684925392	-0.157359694421975	0.970813825730575	-0.157061460655906	0.00610313568101694	-0.0111138291123141
12.3	-0.0150316101322778	-0.00303727934665036	0.934393521463931	-0.306390187652444	0.934512863735133	-0.306083202641584	0.00386520655011161	-0.0118835045045977
12.4	-0.0147089363966069	-0.000770663497384607	0.875070612741406	-0.447648544281085	0.875133548258554	-0.44727877057164	0.00190812786330694	-0.012194343976856
12.5	-0.0150425888597442	0.000309661783494434	0.795362061759776	-0.576771931199746	0.795701768989155	-0.576380834439514	-0.000640620665111152	-0.0127371804344071
