# GHZ S RI R 50
0.2	-0.000196938904262703	-0.000142195436018867	0.949429047031568	-0.307931826943625	0.949206712220229	-0.307906412557463	-0.000164020276319693	-7.66204501210087E-05
0.3	-0.000319332691850632	-4.77119183198111E-05	0.889527572404475	-0.451647475352618	0.88937130458843	-0.451552086539639	-0.000348100905326801	-0.000207709679792426
0.4	-0.000223073948918266	6.18854448324513E-05	0.808144668685141	-0.584025264328234	0.808156470206819	-0.584050390790743	-0.000391744660687408	-0.000177811694491595
0.5	-0.000200657023103839	0.000220858775583952	0.707392017839092	-0.702581568269605	0.707236903618364	-0.702480045745042	-0.000343361693239869	-2.46283992076068E-05
0.6	-6.20854921474386E-05	0.000213133927553356	0.589285041653018	-0.803651810405461	0.589165733139727	-0.8034900258739	-0.000253623802564831	-0.000156298354849124
0.7	-4.73911034821037E-05	0.000364167399576647	0.457161981810193	-0.885059389637608	0.457143204854967	-0.884946840335559	-0.000269696730690195	-0.000278248580099037
0.8	0.000145917555077209	0.000354403198389825	0.314051622311033	-0.945151302894445	0.314020248622094	-0.944961467516905	-0.00039061783736859	-0.000304190472442224
0.9	0.000158262384458065	0.000395813590794938	0.163331169267162	-0.982211567437869	0.163266106879368	-0.982119594145621	-0.000721288194322855	-0.000405147120992599
1	0.00013920881498382	0.00053386167228048	0.00868762418700534	-0.995202664387997	0.00863596349679661	-0.995171170491954	-0.00112019904514395	-4.20912725626923E-05
1.1	0.000389100599647875	0.000486045419843029	-0.145724839748357	-0.98438164652668	-0.145740573597492	-0.984251153702301	-0.0011815498680423	0.000316685498271664
1.2	0.000472420362157092	-0.000137962254048938	-0.296962771397725	-0.949602924971361	-0.296886359595727	-0.949576838124477	-0.000989249990259621	0.00108768226260525
1.3	0.000632626944134621	-0.00120656393646267	-0.440790152107587	-0.891701827367353	-0.440767108058223	-0.891695218594267	0.00046642341790305	0.00219488353645535
1.4	0.000796502195029	-0.00287927167847607	-0.573580075265961	-0.812202541971878	-0.573555883867117	-0.812180912847698	0.00264564558049913	0.00195630603719242
1.5	0.000871305898290514	-0.00410110375903288	-0.692575827931728	-0.713170173599372	-0.692474024312598	-0.713085228067022	0.00473292772679108	0.00042673648834776
1.6	0.000168120978752881	-0.00506050656895108	-0.794877959134909	-0.596878232347798	-0.794803843883451	-0.59681821286044	0.0044190439340186	-0.00176410086340712
1.7	-0.000539115383386579	-0.00500045772220882	-0.877400796670412	-0.466527649910242	-0.877564840097945	-0.466011266252091	0.00361651878598579	-0.00288361824634456
1.8	-0.00126529347696134	-0.00484213729465014	-0.939174763156659	-0.32411585390357	-0.939063481094492	-0.324114563097953	0.00250535025348457	-0.00373356387180018
1.9	-0.00199556981737588	-0.00436126258821311	-0.977758895742263	-0.174827330462212	-0.977851483355608	-0.174339638328355	0.00129871542247738	-0.0039333003984619
2	-0.00228830871073212	-0.00382759693266368	-0.99292637604341	-0.0204115141865074	-0.992938281929976	-0.0203656402176918	0.000912555548058017	-0.00388199557511071
2.1	-0.00296243417432105	-0.00373889635877891	-0.983822577838287	0.134182070129722	-0.98386065432945	0.1342192087833	2.08851002507617E-05	-0.00446348654971871
2.2	-0.00394186222988663	-0.00317697117419455	-0.950887669425393	0.285129832068632	-0.950812508862171	0.285192561617396	-0.000959658171663391	-0.00433671198076488
2.3	-0.00473563619945795	-0.00234991021479192	-0.895144705432235	0.428571016485038	-0.894761984700268	0.429083863736624	-0.00187464267274303	-0.0041871514428653
2.4	-0.00561832835229641	-0.00135545756591717	-0.816899650292998	0.563306867247333	-0.817166893686539	0.562721276518002	-0.00296239364965729	-0.00374493158376119
2.5	-0.00589152044656717	0.000266114751650998	-0.719625020134054	0.683318856253996	-0.719839360234924	0.682809248237606	-0.00317249804887344	-0.00297941298436575
2.6	-0.00573931371310545	0.00132993197020428	-0.6049300388465	0.786067721214197	-0.604824202357875	0.785884892571777	-0.00292221585267133	-0.00291084465147982
2.7	-0.00536712858831939	0.00245317369438743	-0.475063015414394	0.870422973905469	-0.475512497230562	0.870016799340493	-0.00301214613255372	-0.00287978613734724
2.8	-0.00450386874303568	0.00333172030836927	-0.335454338987583	0.933001528102562	-0.334786669096254	0.933159353247249	-0.00323293687239433	-0.00273053501155338
2.9	-0.00304083287919579	0.00386638709053401	-0.185909819474105	0.973738769337029	-0.185941190012373	0.973651482768044	-0.00291530968468841	-0.00207418264831498
3	-0.00143487485915268	0.00377104884148371	-0.0316098170804167	0.990451640575026	-0.0323106838847453	0.990294411375861	-0.00220339338167153	-0.00162372894391471
3.1	-2.22396637944321E-05	0.00342416975289411	0.120734051682313	0.983221312208534	0.121324231389262	0.983202607914935	-0.00149038792710768	-0.00138933038481455
3.2	0.00122608797542726	0.00268578224859501	0.2724160613387	0.952406893409851	0.272361204656942	0.952346713139389	-0.000895274638845511	-0.00124764336725434
3.3	0.0024080527464939	0.00164772301936469	0.417103025153093	0.898362801603165	0.416965937641868	0.898348846589401	-6.65964586470123E-05	-0.00128609912346696
3.4	0.00308909504540861	0.000352845165315931	0.551359153167364	0.822477393904072	0.551197293060737	0.822595507768014	0.000880552905999985	-0.00177963724696973
3.5	0.00375882636436854	-0.00117600372482398	0.671816965667336	0.7270377852449	0.671737532638891	0.727076627320419	0.00183373825838756	-0.0026955113442686
3.6	0.00329322130272643	-0.00282086987125186	0.776159752885189	0.614594392920062	0.776399729789147	0.614145762937676	0.0017485111075428	-0.00397683320880343
3.7	0.00270360491281294	-0.00404598436449335	0.862379136577884	0.485946323915484	0.86226123191863	0.486089500056	0.00144394257912679	-0.00468569419526315
3.8	0.00170937488969691	-0.00510319163418627	0.926930682328433	0.34670784350849	0.926986692552684	0.346329001302303	0.000984882063666143	-0.00536987948569405
3.9	0.000669533341259118	-0.00583977670445271	0.969435139046176	0.197637843015362	0.969198200022395	0.198304810272724	-2.20444599036506E-05	-0.00602455202519802
4	-0.00036806463577851	-0.00625997496153645	0.988566005827007	0.045816747619426	0.988527254091112	0.0459195630876656	-0.000279864533287207	-0.00629703013862292
4.1	-0.00180815758483647	-0.00711668826780738	0.983715920769852	-0.108421646822508	0.983531856395145	-0.108294296293979	-0.00103373141275632	-0.00747344366623643
4.2	-0.00387571911742407	-0.00727482190650132	0.954420682086746	-0.260333479528769	0.954456879285548	-0.259680636386114	-0.00233920534205499	-0.00815983121559317
4.3	-0.00592365072360359	-0.00717368966427829	0.902708991524571	-0.404516471817148	0.902573512842173	-0.404405277021785	-0.0038712052997137	-0.00880598549159773
4.4	-0.00838255858136282	-0.00638753274203531	0.829117650127903	-0.539585310421216	0.828952876406011	-0.539451903669134	-0.00589883052993731	-0.00896357272391756
4.5	-0.0102958103640448	-0.00467547300521869	0.735249002770371	-0.662072900709134	0.735060723359196	-0.661899610012687	-0.00747735235446778	-0.00821920757765626
4.6	-0.0117696749381998	-0.00295562429000081	0.622773658401137	-0.768214375219089	0.623116204060485	-0.76751813998815	-0.00862961935552826	-0.00806536413383506
4.7	-0.0129395535667972	-0.0010472183521288	0.496518860711572	-0.85507796271193	0.496535794328776	-0.854722724840903	-0.0101694610709598	-0.00792439590095751
4.8	-0.0137362828388799	0.00126424846185782	0.357637054484046	-0.921557751050995	0.357858646977748	-0.921242098188554	-0.0116636613263424	-0.00754244001412072
4.9	-0.0137566760009098	0.00355326609520786	0.210673411494108	-0.965383834141141	0.210453728037667	-0.96539133297932	-0.012939252405527	-0.00678402838686563
5	-0.0130548935831941	0.00578825631097217	0.0580129382065821	-0.985860380241527	0.0581901256510553	-0.985615752874606	-0.0135656430193704	-0.00552609475995679
5.1	-0.0118268045103135	0.00766190115447075	-0.0949459578499554	-0.982984362610915	-0.0946147820780009	-0.982759749728059	-0.0141434728906216	-0.0043042375718881
5.2	-0.0101343683487276	0.00961115046332258	-0.246379870475723	-0.956527014695193	-0.245888795915374	-0.956500518468419	-0.0145876661363974	-0.00252376036305316
5.3	-0.00798082869607853	0.011057448868297	-0.391792251987785	-0.906751121231638	-0.39145224254469	-0.906967146704914	-0.0144095688333062	-0.000577682541913426
5.4	-0.00546551923919341	0.0124392171019789	-0.527730792712736	-0.834877983617092	-0.527518496405728	-0.835078480379298	-0.0137302453211954	0.00143064933779192
5.5	-0.00230886590480977	0.0127502340426809	-0.650431158563442	-0.743024433873693	-0.650192632177104	-0.743218759068322	-0.0121670424125002	0.00240572983913148
5.6	-0.000262640924636861	0.0125783885735298	-0.758005940420127	-0.633406036696413	-0.757816439168323	-0.633577586887689	-0.0122061880605439	0.00265993064461582
5.7	0.00185767323481196	0.0125069458190629	-0.847260721044726	-0.508023264448126	-0.847131490930832	-0.508242748428067	-0.0123129010290469	0.00409975552256361
5.8	0.00398695462485883	0.0122190218213339	-0.915671402716813	-0.370255339318101	-0.915603515927909	-0.370539878037532	-0.0120719696965296	0.00587238625109867
5.9	0.00600063246700355	0.0116792876181516	-0.961899183459703	-0.223961141165928	-0.961913571605656	-0.2240446585899	-0.0115087373722379	0.00811118252222943
6	0.00890797693675992	0.0109120912767219	-0.985530873095481	-0.0723013645183839	-0.985411676037721	-0.0723592220319053	-0.0091754856007433	0.0104182566807449
6.1	0.0110288483512615	0.00824796699457101	-0.984716415241502	0.0819959113899171	-0.984589816821071	0.0818476620280513	-0.00684767669504681	0.0103941385230537
6.2	0.0120288062602202	0.00549007555267886	-0.959748316242686	0.23381473120269	-0.959734517060286	0.233612180545043	-0.00539085553921671	0.00995908247277384
6.3	0.0119631916417978	0.00236800944674131	-0.91182141730089	0.379752588898392	-0.911816771457573	0.379567510848496	-0.00449979291117737	0.00907794755609169
6.4	0.0109794779223991	-0.000375032778995638	-0.842069419855983	0.516609353624897	-0.842037599928689	0.516398974106133	-0.00433797773283774	0.00832071018390731
6.5	0.00954246819121254	-0.00276780585476696	-0.751497698934215	0.641476818738016	-0.751521744353531	0.641272922941686	-0.00416726913895087	0.00786494470837665
6.6	0.0078488470291337	-0.00459062228363598	-0.642515550282864	0.749946841843508	-0.642589231492099	0.749695038416409	-0.0040910500877827	0.00769993304032932
6.7	0.00605041341001987	-0.00602280610365077	-0.51850834057029	0.840383751134246	-0.518610881552785	0.840162838140172	-0.00382965360704286	0.00781802221022251
6.8	0.00427478962539698	-0.00708211042589593	-0.381933372523577	0.910778246070718	-0.382074721450705	0.910607625187552	-0.00340483286753943	0.00799598886671351
6.9	0.00228926210554583	-0.00783587010485611	-0.235796479693664	0.959163779573512	-0.236022821684303	0.959053367438303	-0.00269183444843948	0.00815307783667758
7	0.000467584988410743	-0.00819690190693947	-0.0838546436447323	0.983599772706513	-0.0840641312505679	0.983510041427977	-0.00183698204561077	0.007821946060795
7.1	-0.001575518763819	-0.00802202126377307	0.0692964763573093	0.98474407111892	0.0690948818506572	0.984610857952532	-0.00139219236449435	0.00771016572209285
7.2	-0.00314139044471854	-0.0073919948946884	0.221352589931974	0.962229620136811	0.221070828504796	0.962194873535327	-0.000481372015581007	0.00784847790460627
7.3	-0.00457519001655	-0.006654397060858	0.368078834028407	0.916172069177147	0.367843005801455	0.916198116405276	0.000581500663916192	0.00770052152641929
7.4	-0.00559673246305495	-0.00567472270135741	0.505762623362788	0.847629343976703	0.505549449592966	0.847680296330516	0.00156861483602288	0.00723857904762854
7.5	-0.00619822573963173	-0.0049706029893297	0.630505056594792	0.759043351411792	0.630335664216614	0.759112714685201	0.00283637967651215	0.00640574942671814
7.6	-0.00692089122497327	-0.00441349996398437	0.741085885535502	0.65240307161089	0.740828386536669	0.65248509006701	0.00344795712313767	0.00479469628629315
7.7	-0.00763836029018432	-0.00319546389708549	0.833446002131909	0.529319463058726	0.833260328492714	0.529536331178931	0.00331739386937192	0.00362475613928626
7.8	-0.00771046714656609	-0.00176231944382838	0.905528070597234	0.393380213116972	0.905424819492107	0.393605440449235	0.00315596276926131	0.00273534747356955
7.9	-0.00753051417495733	-0.000147919771349157	0.955475500368376	0.248303491111529	0.955337213681608	0.248482933845642	0.0029246863650759	0.00251489924570635
8	-0.00591791068083317	0.00158755767490921	0.982896721337297	0.0971705823411762	0.98287322777932	0.0974334377504539	0.00345960505350338	0.00254376794343909
8.1	-0.00473394195599355	0.00185574798900129	0.986095731772505	-0.0572355744203794	0.98612440445634	-0.0569797701399802	0.00361200835359531	0.00100646453339673
8.2	-0.00366510766892338	0.00236318172125429	0.964865793874521	-0.209650597149948	0.964913830312489	-0.209333284151332	0.00265950245164542	0.000117936074756342
8.3	-0.00264774987012578	0.00269252304208898	0.920513225976174	-0.356696072644248	0.920564265038721	-0.35640869616427	0.00152809470521689	-0.000304451215268443
8.4	-0.00175226279539287	0.00285162773657736	0.854242395833976	-0.49521082904755	0.854339995207785	-0.495008528630261	5.78691006746835E-05	-0.000219921976510568
8.5	-0.000541520720081008	0.00351736313053973	0.76682395144302	-0.622338391324639	0.76687528156372	-0.622187430521252	-0.000503806908314601	0.0011565277647367
8.6	0.00104037783265536	0.00293127307512508	0.660328978269152	-0.733350654419956	0.660497411880089	-0.733113221622075	-0.000196099223786405	0.00128514445093115
8.7	0.00197463232471191	0.0025761126998245	0.538580145949299	-0.826701095145714	0.538839343835315	-0.826485208764688	-0.000401953792851368	0.00173688997485491
8.8	0.00331309391647303	0.00210156592373202	0.403925750159692	-0.900293605317274	0.404111087704961	-0.900154187691118	-0.000329301208026585	0.00225241277152088
8.9	0.00453312506485169	0.00119918279971727	0.259121761194318	-0.952332539424411	0.259300960639288	-0.952162119760627	0.000130656545885249	0.00292476591504354
9	0.00591460277412252	-1.07083315826026E-05	0.107738636209809	-0.980259815106977	0.108047128778873	-0.980213083133013	0.0013737438273086	0.00378364517887872
9.1	0.00701565976989517	-0.00152197643603834	-0.0450358680273997	-0.985180276780508	-0.0447264961373435	-0.985138945485216	0.00325762305010864	0.00398067583968472
9.2	0.00823298254738499	-0.00306368135848931	-0.197673070382836	-0.966458120752682	-0.197325072438542	-0.966435508307761	0.00580330778937681	0.00370696675509962
9.3	0.00923005607280542	-0.00496854457448415	-0.345579890776338	-0.923941299333003	-0.345227503097262	-0.923915551412948	0.00870605497492006	0.00218562530063225
9.4	0.00967114995701209	-0.0071491261605859	-0.484800651069394	-0.85860620434906	-0.484477122851931	-0.858697107610998	0.0109033702219936	-0.000507843165894644
9.5	0.00960631064601158	-0.00936924486576135	-0.611363775954784	-0.772940625230513	-0.611126622528277	-0.77299075697182	0.0122191446026562	-0.00454284424771552
9.6	0.00797033165714803	-0.0113074753660239	-0.724363220986903	-0.668906903874789	-0.724051085510841	-0.669045577354999	0.0103103695215379	-0.0086956008774435
9.7	0.00652480744332713	-0.0116619144157951	-0.81940129935203	-0.548010975856329	-0.819113302755191	-0.548244143861921	0.00735949157167924	-0.011128435184547
9.8	0.00542907216626301	-0.0118919727362895	-0.894246644533552	-0.413997482887726	-0.893993011765076	-0.41416657735679	0.00388508342052659	-0.0125546893872107
9.9	0.00423746069019642	-0.011417310480757	-0.94726686575173	-0.270372568500555	-0.947014179723987	-0.270581439677117	7.05370923235032E-05	-0.0124379634419864
10	0.00429886956707943	-0.0108887994993796	-0.978232036012317	-0.120366596849821	-0.978077872520101	-0.120729426251519	-0.00213196120129253	-0.0112985532472185
10.1	0.00349951127140199	-0.0113673181277529	-0.98470987783226	0.0335770795991703	-0.984646308444078	0.0331449089770858	-0.0052344790776428	-0.0111881592990098
10.2	0.00264548174163106	-0.0111446595074676	-0.967199628745798	0.18585288313678	-0.967077671847072	0.185421182934341	-0.00868532581117069	-0.00933708434636753
10.3	0.00183170071614626	-0.0107770131092447	-0.926552255423627	0.333454194589879	-0.926569654939399	0.332912125282099	-0.0116139163022453	-0.00665694741555821
10.4	0.000940423681023242	-0.0104726212729043	-0.863900850017964	0.473040887749071	-0.864037659197646	0.47252882602268	-0.0139075107907209	-0.00314479390912574
10.5	0.000604157797365175	-0.00943576457550618	-0.779756797907708	0.602175616811539	-0.77993052336835	0.601743008693847	-0.0141008250056622	0.00126176225664803
10.6	0.000949212702048636	-0.00929788604676532	-0.676181628555608	0.715308259897536	-0.676454793450661	0.714978387508388	-0.0126209899859313	0.00442115391084319
10.7	0.00124509309125371	-0.00948396794019599	-0.556999567194466	0.811282492268952	-0.557300811304677	0.810973362789282	-0.0104585683520924	0.00671069169289094
10.8	0.0011505081075856	-0.0103925771169221	-0.424325488184723	0.887743753973726	-0.424676930857876	0.887445934576319	-0.00828812946121663	0.00808015180878885
10.9	0.000355589548312083	-0.010945877819296	-0.281184447507499	0.9428787980559	-0.281575133986545	0.942756599223604	-0.00634166795570933	0.00919681240141874
11	-0.000333971753802106	-0.0115703574525133	-0.131034115907809	0.974156403781556	-0.131471129629636	0.974066885012066	-0.00384916066772457	0.00983355259580124
11.1	-0.00135057395535237	-0.0118100997839227	0.0209841166470326	0.982402657699497	0.0204957451051264	0.982416945906568	-0.00156921125119633	0.0100013615038491
11.2	-0.00217824513532976	-0.0120700355552642	0.173111161193972	0.96737693239424	0.172654441407108	0.967450735641156	0.00109142546262244	0.00977969006080188
11.3	-0.00308232268335757	-0.0122466459721562	0.321149239854025	0.928681293140559	0.320690765317985	0.928818696164512	0.00388886140442372	0.00898558786725855
11.4	-0.00420129687612354	-0.0122377888769572	0.461288219760028	0.867103403688851	0.4608851142372	0.867217315356347	0.00647220087735146	0.00798307513913851
11.5	-0.00482331965933789	-0.0122161165801201	0.589204500984342	0.785063489483949	0.588886858323339	0.785365672556121	0.00952433923042279	0.00578849336380388
11.6	-0.00672521730568105	-0.0125435287922779	0.704183702148188	0.684570715837868	0.703969064821211	0.684898355921614	0.0102639723878187	0.00254053719281456
11.7	-0.00849870563337273	-0.0115999647484251	0.801881376663372	0.566724407307861	0.801678937395235	0.56703085197549	0.010238324644441	0.000218506102092217
11.8	-0.0102500325150273	-0.0104555820077566	0.879847897081258	0.435109449183547	0.879667171975861	0.435559791571522	0.00952908300032957	-0.00180242190365445
11.9	-0.011904698836997	-0.00814117323789886	0.936156331168494	0.293600411306784	0.936051331874817	0.294049507285596	0.00808974162121646	-0.00239326837057397
12	-0.0118718503205678	-0.00560901517567943	0.970914478851737	0.145365381413098	0.970886108533384	0.14572933936652	0.00904266917937858	-0.00264103673760635
12.1	-0.0118392360514646	-0.00412235429973481	0.981383018636284	-0.00763960736553617	0.981312811918708	-0.0072554283817463	0.00897748745341293	-0.00503490193735994
12.2	-0.0117306190852148	-0.00277139450058526	0.967873793012572	-0.159551570867293	0.967891687599196	-0.159254151542094	0.0079589424172718	-0.00702677461409262
12.3	-0.0115365691317094	-0.00168598599214192	0.931248850590756	-0.307330289285697	0.931368450523226	-0.307024373016392	0.00640799624822926	-0.00902162623492089
12.4	-0.011919717019051	-0.000810710761609716	0.872979487052647	-0.447945186377864	0.873042769631599	-0.447576140090381	0.00386204248844631	-0.0104710197002981
12.5	-0.0117779751006332	0.000894367384507393	0.792541154618085	-0.578851067622178	0.792881823527442	-0.578461548580389	0.00152777479599899	-0.0105475157195468
12.6	-0.0114442052365269	0.0015623389179123	0.692566114997627	-0.693965893774027	0.69281749613546	-0.69372410627306	-0.000704750622117414	-0.0114102775372164
