# GHZ S RI R 50
0.2	-0.000120083487155495	-0.000463911034851871	0.95025867445323	-0.307698695983307	0.950036167711235	-0.307673369746706	-0.000151593408695843	-0.000326067299846817
0.3	-0.000415032904953004	-0.000442237643019264	0.890594276636027	-0.451529505597855	0.890437811967706	-0.4514341230713	-0.000525363648286448	-0.000445394543447188
0.4	-0.000524047827045736	-0.000287833279531427	0.809431757857692	-0.584170259054819	0.809443588768851	-0.584195406416501	-0.000749219517740521	-0.000288471824973919
0.5	-0.000491016926533843	0.000114300230565836	0.708672157298774	-0.703156948766649	0.70851678839866	-0.703055369308805	-0.000672842610740287	0.000121094566522457
0.6	-0.000225829766814274	-2.81176902136247E-05	0.590454743599524	-0.804399385969827	0.590335198728644	-0.804237451296536	-0.000529719282236356	-6.64719198764819E-05
0.7	-0.000329658532948737	6.16114274187287E-05	0.458310002742017	-0.886093634173036	0.458291136914731	-0.8859809318219	-0.000654313447079953	-8.6361384933881E-05
0.8	-0.000234314742494983	6.52156082637507E-05	0.315026610771161	-0.946526130553556	0.314995092561402	-0.946336003409986	-0.000764398114312461	6.42836434977535E-05
0.9	-0.000385259443663607	0.000188028328721793	0.163963742686492	-0.983841471675883	0.163898535496748	-0.983749363610996	-0.000995592638632865	0.000153841720478934
1	-0.000212354177094206	0.0008424963611347	0.00905056528176482	-0.996825897637096	0.0089988091196515	-0.996794370404536	-0.000821262422945175	0.000778354813502683
1.1	0.000937232519288238	0.00035053287194312	-0.145534653737323	-0.986279744680139	-0.145550477980608	-0.986149016681044	-7.64021814566392E-05	0.000210929340809133
1.2	0.00132566421958134	-0.00141026749186935	-0.297251514229808	-0.951656372757499	-0.297174954168615	-0.951630206373397	0.000101024587340264	-0.000432746792584458
1.3	0.00119756658170351	-0.00384980098388385	-0.441556447317682	-0.893707177293482	-0.441533355122598	-0.893700549648633	0.000778146558741444	-0.000730507111858168
1.4	0.00058356925353849	-0.00604749796506967	-0.574706904651304	-0.814046831623377	-0.574682663936611	-0.814025152090764	0.00176248345786246	-0.00116077780221845
1.5	0.000460764975813331	-0.00717037528455117	-0.694077303091425	-0.715051930038464	-0.693975274131817	-0.714966755809205	0.00330806300299694	-0.00206827896038076
1.6	-0.000951040335308348	-0.00774636600629171	-0.797082434762316	-0.598423895916459	-0.797008113626513	-0.598363720452545	0.00246451632615138	-0.00296115356502733
1.7	-0.00186872768439569	-0.00682134953760776	-0.879963222666301	-0.467506876408166	-0.880127539674422	-0.466989022255491	0.0021234490673199	-0.0028703447683016
1.8	-0.0025338709346481	-0.00593912655644911	-0.941953683391404	-0.324560544619663	-0.941842090255718	-0.324559304619558	0.00165561845686795	-0.00308384040758378
1.9	-0.00288012447279146	-0.00471966619968497	-0.980753174729684	-0.174758214966548	-0.980845743813763	-0.174269026057218	0.00122602667790528	-0.00298088481164706
2	-0.00215402922105976	-0.00429153403631865	-0.996178072215626	-0.0194475473443432	-0.99618996926103	-0.0194015117273397	0.00155859361229928	-0.00358411164520714
2.1	-0.0030589206750349	-0.00478691777111592	-0.986610272165921	0.136038589024182	-0.98664840949111	0.136075896513734	0.000105087691558135	-0.00442394354569442
2.2	-0.00428785940982801	-0.004156918527931	-0.953210359902098	0.287534380244085	-0.953134875209229	0.287597170174411	-0.000830254864494793	-0.00400960399364704
2.3	-0.00521477747123938	-0.00315729921247414	-0.896965937809431	0.431497352967284	-0.896581138770843	0.432010987520713	-0.00146694648866925	-0.00383396824737708
2.4	-0.00605674099106773	-0.00177032995803739	-0.818052538108635	0.566784883482472	-0.81832187236325	0.566198162331639	-0.00216460024003592	-0.00356740334224771
2.5	-0.00548016403156609	-0.000148074385076662	-0.719626266606979	0.68702288256763	-0.719842536702125	0.686512544297688	-0.00189720212422974	-0.00382877498818777
2.6	-0.00535176907401106	-8.92339945488798E-06	-0.604241427585391	0.789458454097774	-0.60413583094477	0.789274928679238	-0.00277898509402875	-0.00480709496317809
2.7	-0.00543200339548967	0.000789757570228287	-0.47370911386408	0.873697294011517	-0.474160733764305	0.873291457579667	-0.00395282031921952	-0.0045844711731138
2.8	-0.00486625778085143	0.00160951467613972	-0.333330842193036	0.935989062083246	-0.332661283969403	0.936145194029774	-0.00465273340381297	-0.00388089999126194
2.9	-0.00352710421112277	0.00209145257644639	-0.183014147704608	0.976088557113393	-0.183045863373143	0.976001219079758	-0.00438766584897867	-0.00282277541956747
3	-0.00216050999086517	0.0017640249127162	-0.0285589034707222	0.991882764562888	-0.0292612042023653	0.991727512844181	-0.00385812148341703	-0.00215354871655588
3.1	-0.001179925266822	0.00157325892743943	0.12400338053738	0.984324437778236	0.124594391209941	0.98430385212274	-0.00317731783334891	-0.00132807551450291
3.2	-0.000132181454467668	0.00113481808965344	0.276007923387042	0.952774931009892	0.275952788756575	0.952714854868478	-0.00232202901073158	-0.000831227388448726
3.3	0.00100567173250912	0.000502164525114561	0.420709247171453	0.897869939132103	0.420571962332219	0.897856450455309	-0.00125104249698391	-0.000615653779690247
3.4	0.00200174180351064	-0.000400622068049176	0.554614398552615	0.821243369990776	0.554452814202675	0.82136213211511	5.54955577365735E-05	-0.00101365767897788
3.5	0.00296470292751862	-0.00218594393898847	0.674918388322714	0.725572239347157	0.674839001171886	0.725611384365953	0.00088744340384447	-0.0021950740266809
3.6	0.00231008995568947	-0.00368279038806866	0.779241788335593	0.612202762346694	0.779480274387784	0.611752791969328	0.000689328558039241	-0.00280463865253061
3.7	0.00185920286788014	-0.00466965261424613	0.864825280036712	0.482798571110907	0.864707875951455	0.482942301660394	0.000967673589813651	-0.00317829404313949
3.8	0.00105804493934095	-0.00552872138557248	0.92865161827456	0.343100716988659	0.928706124094797	0.342721516166734	0.0010794693835286	-0.00389893471079313
3.9	0.000452820502977765	-0.00601603612437412	0.970538800373207	0.193758492773557	0.970304499047059	0.194426629750755	0.000678005405136389	-0.00489434163153698
4	9.84390371222631E-05	-0.00698760094263741	0.988979069932363	0.0412079956400388	0.988940790685091	0.0413110128361203	0.000421665054518232	-0.00637977089287528
4.1	-0.00176481404310585	-0.00829828325636369	0.98260755881793	-0.113064881591799	0.982424214252231	-0.112936726409882	-0.00150036240664535	-0.0075611078779619
4.2	-0.00411987320224725	-0.0083844646398086	0.952287223675813	-0.26451046238446	0.952326415564215	-0.263858420136355	-0.00313455235565796	-0.00769131012652032
4.3	-0.00633765158900186	-0.00801890612720193	0.899742591608849	-0.408187759893288	0.899607791026385	-0.408076075646896	-0.0046593655903541	-0.00783290875934137
4.4	-0.00865250378457572	-0.00669216844528387	0.825293263671353	-0.542774959025034	0.825129375915817	-0.542640957160135	-0.00620805749446879	-0.00755461559247492
4.5	-0.00961518692536161	-0.0049957431575387	0.730237855935007	-0.66409862367428	0.730050878182249	-0.663924823218686	-0.00706008550013823	-0.00750922430567972
4.6	-0.0110359722514769	-0.0039805264863848	0.617801192550036	-0.768775264158456	0.618145772566247	-0.768082387013194	-0.00907769177560499	-0.00791283257759078
4.7	-0.0123949100060162	-0.00237809112558348	0.491591459335942	-0.854695527252767	0.491609806807909	-0.854341366832992	-0.01123638386973	-0.00742370645797439
4.8	-0.013412873473888	-0.000199189495094729	0.352754349178346	-0.920142021398173	0.352976539784349	-0.919828259640688	-0.0130139004090302	-0.00647405254302194
4.9	-0.0135437256711566	0.00212790250772931	0.20602829832445	-0.962656828353966	0.205809397374325	-0.962663419729151	-0.0141516943017844	-0.00508419129132471
5	-0.0128570375197971	0.00417187496808194	0.054646738465218	-0.981956799952151	0.0548239668547741	-0.981713748615432	-0.0145429221660118	-0.00348127324290389
5.1	-0.0118303394647301	0.00609535206738319	-0.097516690154863	-0.978914182115561	-0.0971861191210177	-0.978691423785412	-0.0145087915456968	-0.00152833037470204
5.2	-0.0100510398754468	0.00812442939260375	-0.248183613853462	-0.95186548348207	-0.247694481868385	-0.951840542769038	-0.0136721572224682	0.000219972583106765
5.3	-0.00768234370318439	0.00954983446402651	-0.392472542905012	-0.901663464275192	-0.39213462610847	-0.901879436935826	-0.0124685940229914	0.0012831582939845
5.4	-0.00470550367930462	0.0107195973774292	-0.527014162407876	-0.829849098992991	-0.526803284601654	-0.830049102448216	-0.0114235542267697	0.00180872051326178
5.5	-0.00173471318337775	0.00989419461720602	-0.649045130048304	-0.738783168182965	-0.648807939574489	-0.738977108569498	-0.0114620572814924	0.00132633612691173
5.6	-0.00050748795963765	0.0099576047721228	-0.755992968531681	-0.628970022499789	-0.75580467636926	-0.629141215793497	-0.0124684841990282	0.00296605943556278
5.7	0.00145873008844626	0.010163793787127	-0.844085939446797	-0.503968195916019	-0.843957748376209	-0.504186852910621	-0.0119716915244458	0.00489441478706152
5.8	0.00356136367021078	0.0101933469290645	-0.91156941255653	-0.367061959885508	-0.911502279451453	-0.367345155791841	-0.0111362058043772	0.00645948067045653
5.9	0.00608907572242146	0.0100100403679946	-0.957412293306262	-0.221840349340312	-0.957426699514069	-0.221923441029817	-0.00997140698205339	0.00778977857381912
6	0.00952804379169035	0.00805829726986148	-0.980694764175552	-0.0704770646501133	-0.980576250894731	-0.0705348084917406	-0.00887439333604286	0.00774089612351239
6.1	0.0103589316831554	0.0050928797530615	-0.97891424987293	0.082433615219319	-0.978788525348746	0.0822861105886167	-0.00955499006639047	0.0086594452790971
6.2	0.0106771272046743	0.00290132748000559	-0.954082197556808	0.232689693625694	-0.954068529884388	0.232488323125906	-0.00895334276532626	0.0102739069915757
6.3	0.0104226960682901	0.000526463177603901	-0.906694366925994	0.377447714599278	-0.906689718175294	0.377263690315145	-0.00761775314168864	0.0112015072539316
6.4	0.00977869056885869	-0.00166519383865738	-0.837433680112198	0.513568372255631	-0.83740200291568	0.513359178369716	-0.0060909884527429	0.0113196263970838
6.5	0.00875540696738541	-0.0041589705756056	-0.747008556122827	0.637004023891808	-0.747032347169555	0.636801420190114	-0.00476061896908032	0.0105565910352861
6.6	0.00719783441910146	-0.00608270832235474	-0.639711971324797	0.744380396206359	-0.639784820429946	0.744130024480951	-0.00384725050234538	0.00988675976743875
6.7	0.00542030386989908	-0.00766979774596391	-0.516951676277039	0.83459359722168	-0.517053236801043	0.83437379146538	-0.00333810318202115	0.00902698450353978
6.8	0.00360815776788124	-0.00867082819929705	-0.381412317838714	0.904748598979459	-0.381552522170829	0.904578708661286	-0.0033211337907112	0.00862006495860031
6.9	0.00184115047521393	-0.00935303070185167	-0.236434613652394	0.952651893602019	-0.236659298328487	0.952541673116191	-0.00308290761578323	0.00864831528249337
7	5.23278303362623E-05	-0.00981481295212168	-0.0868137152280898	0.977207010345405	-0.0870215870203961	0.977117094299202	-0.00285207869930534	0.00865023620721544
7.1	-0.00178618228967295	-0.00954821037135915	0.0652795811417086	0.979723400249817	0.0650795601558219	0.979590154630451	-0.00219936510493725	0.00918709838252043
7.2	-0.00315138165613758	-0.00905248015843524	0.216474457901613	0.957981260925409	0.216194323813945	0.957945613657949	-0.00101582232752782	0.00948665632166169
7.3	-0.00449024743728554	-0.00846346093654676	0.362188547809692	0.912914006723159	0.361953853998925	0.912938900902433	0.000224387106492185	0.00948569741801676
7.4	-0.00536975650713533	-0.00761743257431413	0.498845394257511	0.845958937836207	0.498633033319691	0.846008535146747	0.0014715684381098	0.00916802160597903
7.5	-0.00610216962126573	-0.00725131854383403	0.62403380760454	0.759592228956664	0.623864678003417	0.759660416502881	0.00262892873933113	0.00842359214074159
7.6	-0.00703260951736046	-0.00638098591777082	0.735052738527576	0.653576263737643	0.734795814057512	0.653656701068689	0.00372024541897492	0.00779866054719774
7.7	-0.00743149460926953	-0.00502948728636983	0.82744154166463	0.531736967172311	0.827255422159356	0.531952017494605	0.00508959230433086	0.00677470999079716
7.8	-0.00708958269855761	-0.00356467374574408	0.900070099088741	0.397284218209859	0.899965895861126	0.397508056486365	0.0062904808916325	0.00503742377207966
7.9	-0.00615708469513566	-0.0020375318940455	0.951373157830629	0.253494643591569	0.951234143624758	0.253672753633451	0.00689580368875154	0.00277186443714467
8	-0.00406105711126418	-0.00223523957741052	0.979949850640662	0.102231463917881	0.979924997510854	0.102493544692011	0.0062085639883538	-0.000601331823071453
8.1	-0.00427428434576283	-0.00247280609983365	0.983615798822178	-0.0510628226273167	0.983642830566061	-0.0508075774270196	0.00263648751296555	-0.00176190826047307
8.2	-0.00413256505146873	-0.00180292595502034	0.964110320449523	-0.202740907825115	0.964156131219883	-0.202423982875897	0.000203980213157731	-0.00108424130307024
8.3	-0.00389349465231126	-0.000914216102600779	0.921581862835153	-0.349938230080889	0.921630880462066	-0.34965092858194	-0.00153421053811077	0.000205891582629378
8.4	-0.00313045294313541	0.000472485556961668	0.856534901408927	-0.48936363130612	0.856631134967782	-0.489160911689805	-0.0023273217393389	0.00204838275976513
8.5	-0.000687488729704973	0.00116183397624651	0.769572108017632	-0.616369612715024	0.76962238041782	-0.616218569768098	-0.00169132320626708	0.00279585500682977
8.6	0.000612374456868949	0.000146065059196395	0.665146421037611	-0.727958445973113	0.665312991433242	-0.727719974828453	-0.00263777185417927	0.00356804864465291
8.7	0.00142302602957301	-0.000303966218078944	0.544417256402434	-0.822805396469796	0.54467489842139	-0.82258768367444	-0.00230696354632	0.00555955870071423
8.8	0.00237890691793847	-0.000816279287395031	0.410196527345534	-0.897735401654813	0.410380952314211	-0.897594679825753	-0.000927090853321019	0.00703184439178671
8.9	0.00335146061196163	-0.00121713737717133	0.265659405357554	-0.950589887507352	0.265837442873923	-0.9504182333574	0.00151193683372522	0.00802929893829381
9	0.0052944849940542	-0.00228047320234741	0.11567096269565	-0.979995963122693	0.115979269284516	-0.979946726955124	0.00474946257705749	0.00746325420056439
9.1	0.00672778197053787	-0.00410513230490969	-0.0377636173469731	-0.987280116897676	-0.0374540000884235	-0.987236402583039	0.00746093009831807	0.00583718548158567
9.2	0.00796008144806998	-0.00635963291760657	-0.191129976160459	-0.969719326328109	-0.190781475514087	-0.969694178713508	0.00983357548508359	0.00307793130212011
9.3	0.00830048201320309	-0.00851123299419429	-0.339511509095034	-0.928354080655684	-0.339158593002702	-0.92832569767093	0.0108625211262666	-0.000123734159077887
9.4	0.00874221551643745	-0.0101334624971643	-0.479156614568372	-0.8646964853797	-0.478831527493101	-0.864785026657013	0.0111475102256024	-0.00309069265062063
9.5	0.00853046663508167	-0.0128997479729373	-0.608107982064438	-0.781042126905175	-0.607869399909779	-0.78109065540027	0.00948670012462465	-0.00665894725148035
9.6	0.00688594065672173	-0.0140292803694771	-0.723081465669527	-0.676680284517891	-0.722767033399528	-0.676817484284684	0.00738411272003195	-0.00722504119820033
9.7	0.00580626567198432	-0.0143587754704867	-0.819506593660383	-0.556018171368637	-0.819215710734035	-0.556250485641525	0.00610163729116264	-0.00851969661065558
9.8	0.00478746738502003	-0.0143895465040813	-0.896168397842216	-0.422181840093833	-0.895912295594909	-0.422350119983658	0.0040000291069799	-0.00979729953165737
9.9	0.00438406877745098	-0.0135064033256186	-0.9516731373782	-0.278100990911016	-0.951417501269358	-0.278309614006438	0.0018335653183621	-0.0106138428408117
10	0.00492956199967237	-0.014521323462391	-0.984135369184151	-0.125676996121797	-0.983978513016302	-0.1260415094045	-0.00145038951349155	-0.0123709778705752
10.1	0.00314019733407467	-0.0149107142378698	-0.991014476803924	0.0290527579289843	-0.990948433353793	0.0286181968892418	-0.00658858530446745	-0.0107372464827022
10.2	0.00211804337648033	-0.0144381382304689	-0.974749503978854	0.182741360632022	-0.974624737902866	0.182307222907713	-0.00941279695837813	-0.00777576364834446
10.3	0.00125447263948193	-0.0137544586783148	-0.93473745205909	0.332487815171376	-0.934752955508499	0.331941621533744	-0.0112848738129909	-0.00497956365679913
10.4	0.000860375327709946	-0.0131238506168828	-0.871479909501646	0.474498339761812	-0.871616511299982	0.473982130009084	-0.0122515278288713	-0.00245026112281488
10.5	0.00117951719187479	-0.0132024591370601	-0.785866204169756	0.60398428021761	-0.786039965967594	0.603548657359147	-0.0127309623950862	-0.0011795348386556
10.6	0.00035012695036643	-0.013881165036164	-0.682864691984862	0.718152115605799	-0.683138731464694	0.717819206364484	-0.0145176698456606	0.00101193172532586
10.7	-0.000587496461351071	-0.0135687197830953	-0.562984572883142	0.815868471536361	-0.563287276675287	0.815556374359225	-0.014969865998865	0.00474987615493734
10.8	-0.000914022243478583	-0.0132940109929945	-0.428926166018338	0.893552995877675	-0.429279691320567	0.893252401624743	-0.0136049364985109	0.00860185204412712
10.9	-0.00105026177406419	-0.0132048444963053	-0.284347600996202	0.948867466059221	-0.284740761269622	0.948743918119125	-0.0111196287037739	0.0114589901905238
11	-0.00125975351396474	-0.0139181941053228	-0.134302067708609	0.981019050367217	-0.134742087364426	0.980927839251585	-0.00819204448238389	0.0132089090088631
11.1	-0.00188911291059238	-0.0141964387610074	0.0200788204556496	0.99067161526185	0.0195863340213682	0.990685485800331	-0.0047556948321324	0.0146568139352392
11.2	-0.00250480081405818	-0.0146853597271395	0.174265537085857	0.975310087512873	0.173805074008185	0.97538437113976	-0.000755006893694569	0.0148605024340945
11.3	-0.00321603433652052	-0.0148608074156457	0.323724536910336	0.936000042393306	0.323262448335184	0.936138549856657	0.00336540641388303	0.0141149293900672
11.4	-0.00369205007669069	-0.0150755119314543	0.464789125309724	0.874258532575954	0.464382721067695	0.874373256850377	0.00728726808030554	0.0122512736542182
11.5	-0.00481822808532879	-0.0161764930599048	0.59556001453739	0.792128076791753	0.595239568232965	0.79243344644138	0.00919572328091527	0.00900728294444388
11.6	-0.00708250943493313	-0.0159234337556429	0.711922004636924	0.688917760854188	0.71170625210324	0.689248760534265	0.0105196856507979	0.00765055507211392
11.7	-0.00868497744996164	-0.0147502047866918	0.809976740684794	0.569434284807632	0.809773383528907	0.569743787750545	0.0125445623080313	0.00538410116646785
11.8	-0.010091312912777	-0.0131942563373669	0.888469615533214	0.436409444368912	0.888288580237793	0.436864086055275	0.0137844556952964	0.00237555348585672
11.9	-0.0102429116001621	-0.0107488141183403	0.945832242221048	0.293061667517444	0.945727832822431	0.293515280644364	0.0145295336618808	-0.00116813667702906
12	-0.00964410062871045	-0.0105061701075678	0.979993051316117	0.141070032565331	0.979966513142925	0.141437244916609	0.0132916973616156	-0.00644051663783157
12.1	-0.0106988111741408	-0.00973281363017137	0.988552672187158	-0.0131560906927911	0.98848408709422	-0.0127686977883824	0.00949370873009025	-0.0088105946565268
12.2	-0.0115336877727302	-0.0089004775317832	0.973962936500028	-0.16649401118683	0.973982737910559	-0.166194534760177	0.0063648753409323	-0.0102158183178724
12.3	-0.0126932663138831	-0.00760802372881368	0.935663250781842	-0.315837594176846	0.935785775743537	-0.315530355043035	0.00293720442956491	-0.0109233865595952
12.4	-0.0136776444139471	-0.0053808541161502	0.874630602947853	-0.457763826428373	0.874697271539509	-0.457393056466409	-7.22958240826016E-05	-0.0103743961259552
12.5	-0.0128248831143591	-0.00353667618812525	0.791102899069358	-0.587116529718125	0.791447842858976	-0.586728148153959	-0.00237645481896604	-0.0104331798376457
12.6	-0.01284850364392	-0.00252352624045266	0.69070037564777	-0.701655601960855	0.690954479711029	-0.701414528531096	-0.0058701276792573	-0.0091639661715226
