# GHZ S RI R 50
0.2	-0.000214860673073465	-0.000384235379304981	0.95005896771073	-0.307695563687577	0.949836504992453	-0.307670229251888	-0.000171516153568849	-0.000330231756024048
0.3	-0.000488728059732116	-0.000315188413129049	0.89037710864252	-0.451477396992673	0.890220682959185	-0.451382027114247	-0.000504182412759521	-0.000500696760876229
0.4	-0.000571839733363854	-0.000131952691050221	0.809222190589232	-0.584059934123896	0.809234017884946	-0.584085075971474	-0.000731406838278817	-0.000410773889448511
0.5	-0.000521797519456024	0.000274538807889697	0.708482361105891	-0.703007231986869	0.708327032372458	-0.702905672702999	-0.0006582439592334	-1.21105716565016E-05
0.6	-0.000288781844278857	0.000155206115745012	0.590291432589086	-0.804202077129111	0.590171920767238	-0.804040182165753	-0.000462100411412747	-0.000268282368933851
0.7	-0.000384943658115222	0.000309352593487573	0.458187726238567	-0.885858366237602	0.458168865482528	-0.885745693830105	-0.000590352419104874	-0.000414091651909299
0.8	-0.000246707323039596	0.000355034176421645	0.314959995210644	-0.946267610791881	0.314928481899319	-0.946077534988336	-0.000784475543544148	-0.000411331018685888
0.9	-0.00034603276175755	0.000462488712756649	0.163943153944669	-0.983596728325788	0.163877960915243	-0.983504644167766	-0.00127002982793396	-0.00046432121258094
1	-0.00024058212294639	0.00106922431492869	0.00901512799449347	-0.996552528637416	0.00896338707738708	-0.996521008347453	-0.00160866240478233	0.000407934135124569
1.1	0.000760098080059477	0.000664634694474839	-0.145479877001023	-0.985952590871816	-0.145495696830073	-0.985821906455907	-0.00090856848685429	0.000486818831759558
1.2	0.00102982971738694	-0.000758164428228115	-0.297116004947169	-0.951344314043162	-0.297039471816347	-0.951318153741656	-0.000478867799864943	0.000501729382929468
1.3	0.00107659893281846	-0.00276390408081938	-0.44136591207303	-0.893417938883395	-0.441342828122657	-0.893411312528899	0.00093762373085029	0.00068378008757183
1.4	0.000730502628435471	-0.00488413526695867	-0.574472033241732	-0.813747016566877	-0.574447802186161	-0.813725344842973	0.002673061178632	-4.81048395746784E-05
1.5	0.00064513339043215	-0.00606384359631184	-0.693656937890924	-0.714754027969155	-0.693554968827428	-0.714668887392143	0.00466849079918485	-0.00162205130446877
1.6	-0.00076538330880307	-0.00673740367289141	-0.796588934340446	-0.598321699476242	-0.796514660139764	-0.598261535545443	0.00361861629328691	-0.00366134961727243
1.7	-0.00163072145212025	-0.00587538548485054	-0.879474689733685	-0.467506485589493	-0.879639054486501	-0.466988893492664	0.00255565945339556	-0.00404321143965886
1.8	-0.00225408660819396	-0.00515064120839013	-0.941440252064698	-0.324642488672238	-0.941328710593914	-0.324641221842072	0.0014539865670172	-0.00431848939535511
1.9	-0.0027326464537937	-0.00410470492599376	-0.980165805753697	-0.174981568376268	-0.980258483305155	-0.174492674203743	0.000436800372031767	-0.00388318777379757
2	-0.00215918446020584	-0.0035377301470739	-0.995692184583274	-0.0199867142570963	-0.995704101283504	-0.0199407071611913	0.000970041208178871	-0.00371289191285458
2.1	-0.00302843653105458	-0.00399869969971704	-0.986350001566025	0.135472552060004	-0.986388145724069	0.135509826866669	-6.43306149936441E-05	-0.00490298224334144
2.2	-0.00419495033398239	-0.00329977278068136	-0.953055278931116	0.286913832445048	-0.952979853727364	0.286976643344714	-0.00128048703066304	-0.00467769807002686
2.3	-0.00499484831794756	-0.0023500236097752	-0.896967491239368	0.43080392850374	-0.896583130679907	0.431317650487946	-0.00226933297874253	-0.0043853445233751
2.4	-0.00584334582328926	-0.00115482332736889	-0.818317836721685	0.566052959186783	-0.818586673425466	0.565466151505995	-0.00338013394811057	-0.00365194554496311
2.5	-0.00547163570162991	0.000547473764404036	-0.720157290367716	0.68657418244287	-0.720373222040848	0.686063655829936	-0.00288686486193302	-0.00264522614432013
2.6	-0.00524594281179539	0.000770510854754132	-0.604685869362932	0.78912537002013	-0.604580169603824	0.788941902556856	-0.00238301434374168	-0.00339763157463089
2.7	-0.0052690588103005	0.0015550517618811	-0.474258666642455	0.873418000678852	-0.474710042359521	0.873011877531681	-0.00277052591882295	-0.0037938506773793
2.8	-0.00473981535295621	0.00234493204219088	-0.333983578390352	0.93587433823189	-0.333314048086701	0.936030927930794	-0.00330521462709839	-0.00383361536861928
2.9	-0.00348250802196933	0.0028983882462564	-0.183653788120512	0.976260964452041	-0.18368546045352	0.976173582083448	-0.00321776085636224	-0.00321719055230511
3	-0.00208277563061416	0.00271355286537088	-0.028884402917004	0.992101426967453	-0.0295868150460525	0.991945913755959	-0.00272145386334256	-0.00292015291176837
3.1	-0.00106013867500467	0.00259029369677627	0.123547174872961	0.984482108253623	0.124138254570718	0.984461801908505	-0.00245556188156023	-0.0025599072049196
3.2	9.89220856669442E-05	0.00218124480981354	0.27558834534229	0.95311526636826	0.275533229174397	0.953055149834424	-0.00203094278834403	-0.00206648310087463
3.3	0.00128252025566035	0.00144736937594105	0.420449507602065	0.898303412476438	0.420312189376333	0.898289861929519	-0.00124460307498128	-0.00177064378449531
3.4	0.00214819294714469	0.000467670577952924	0.554534585785262	0.821577155318266	0.554372933300779	0.821695903995074	-0.00011534890090575	-0.00189809525377122
3.5	0.00309240162851862	-0.00120806128251335	0.674584650353318	0.725791049804689	0.674505253037474	0.725830160658518	0.00118620915955192	-0.00296384681050886
3.6	0.00235029364395665	-0.00275447068631245	0.778990661519123	0.612773283911072	0.779229459027555	0.612323388462521	0.000812914295926023	-0.00423217115839765
3.7	0.00184893573955715	-0.00365927430720548	0.864780405018548	0.48337994516692	0.864662895148656	0.48352364838998	0.000527204798773124	-0.00463621281550547
3.8	0.00103415074493321	-0.00450732875717071	0.928684622918113	0.343645834961103	0.92873933231913	0.343266577441883	0.000188814956051873	-0.00507541760339219
3.9	0.000281804761824939	-0.00500066282860656	0.970532924059888	0.194377031735131	0.970298185160132	0.195045102700406	-0.000557108758231211	-0.00539177794480031
4	-0.00010496927210106	-0.00564833445985035	0.989325563405306	0.0421937936730577	0.989287168177236	0.0422968136384024	-5.12796793590888E-05	-0.00578814551986523
4.1	-0.00178550889955855	-0.00696528038961425	0.983402423830272	-0.112456074130862	0.983218855650591	-0.112327954610686	-0.000924892756839094	-0.00750253963055445
4.2	-0.00401557090124585	-0.00706783236750905	0.953123235465694	-0.264156822540003	0.953162083130394	-0.26350428892369	-0.00238820978482638	-0.00821867349960509
4.3	-0.00612567936508255	-0.00689520914719409	0.900639420012214	-0.40798379233104	0.90050445661066	-0.40787210118339	-0.00401776239475661	-0.00883757870512561
4.4	-0.00860891264292856	-0.00588835848330854	0.82639515055963	-0.542720151051306	0.826231026697637	-0.542586136431528	-0.0061317407320465	-0.00876047269597647
4.5	-0.0100006838617947	-0.00405669212880291	0.731452407945647	-0.664758827239673	0.731265117946282	-0.664584852621765	-0.00716319089795656	-0.00778548736035203
4.6	-0.0114491239361824	-0.00288191386345047	0.618413970406183	-0.76962966804765	0.618758957652053	-0.768936073442475	-0.00815022488604052	-0.0081896174901
4.7	-0.0128516423215547	-0.00111939466658971	0.492029578209734	-0.855524484638264	0.49204795515793	-0.855169988264744	-0.00986094878195025	-0.00829216927194962
4.8	-0.0138291344185622	0.00117400182702275	0.353075087714103	-0.921074189987458	0.353297511349807	-0.920760122250112	-0.0115324839649753	-0.00803381959666973
4.9	-0.0139505732087914	0.00356496083397589	0.206077108128412	-0.963848362889214	0.205857944478555	-0.963854917299193	-0.0129554867206339	-0.00725259873601544
5	-0.0132055845899025	0.00577516898257735	0.0539835373694762	-0.98289521414831	0.0541611044982433	-0.982652069087142	-0.0135750483098453	-0.00608599210726635
5.1	-0.0121189767886128	0.00777518592403603	-0.0979996222326062	-0.979455698832753	-0.0976687573843571	-0.979232951089119	-0.0144153989956083	-0.0048406525712218
5.2	-0.0102434755855483	0.00989821047319418	-0.248732537114104	-0.952443522502802	-0.248243048366775	-0.952418755697641	-0.0148611186131155	-0.00285755206967215
5.3	-0.00781862965798256	0.0113426618352743	-0.393243305158504	-0.902123725337635	-0.392905252506854	-0.902340037968528	-0.0145302855060385	-0.0007647992813086
5.4	-0.00493803612230577	0.0125999011297162	-0.527962228621543	-0.829896854899664	-0.527751390753898	-0.830097136148862	-0.0134534173192555	0.00133226717092612
5.5	-0.00165409738679247	0.0120368114730801	-0.649421446144383	-0.738502574479861	-0.649184338881757	-0.738696635134966	-0.011515536800807	0.00147802491971236
5.6	-0.000475673386259281	0.0118517202364986	-0.756427359683219	-0.629105529355883	-0.756239017204217	-0.629276829114906	-0.0123895897200606	0.00153636417654758
5.7	0.0014777289214481	0.0121456616979631	-0.844722093962308	-0.5039625762433	-0.844593905614511	-0.504181397249891	-0.0127687124332286	0.00330041790453351
5.8	0.00361798233029016	0.0121226715539701	-0.912180517052287	-0.366822397002349	-0.912113481107997	-0.367105761294062	-0.0125985623064135	0.00541478995212875
5.9	0.00588741466401125	0.0119111663199353	-0.957744330736254	-0.221539398406618	-0.957758771768578	-0.221622506353882	-0.0117791028917379	0.00817272900516212
6	0.00947405213875109	0.0106019510893673	-0.981318072486982	-0.0706001601688261	-0.981199478565898	-0.0706579316752417	-0.0084729245204718	0.0101155876713787
6.1	0.0108087253920945	0.00737817290391076	-0.979829059051074	0.0829994645396339	-0.979703284872342	0.0828517535088212	-0.00663550938068484	0.00931540166244041
6.2	0.0112733161385593	0.00489329582007781	-0.95461482954175	0.233580854959572	-0.954601303352176	0.233379324708206	-0.0056793463022085	0.00888817655476332
6.3	0.0109629414776432	0.00215926803898124	-0.906895167173145	0.378343798234374	-0.906890656445978	0.378159671106439	-0.00513498404870743	0.00820490215666522
6.4	0.0100105382694531	-0.000149254181694898	-0.837622189034197	0.514331316747743	-0.837590611283726	0.514121985883469	-0.00511418391280371	0.0078141559615957
6.5	0.00884054611929851	-0.00240537463743332	-0.74712822963948	0.638388367279528	-0.747152246007554	0.638185583023149	-0.00479409629715986	0.00750801026066791
6.6	0.00731987363589254	-0.00414890326195873	-0.638954568142895	0.745518005255111	-0.639027780310383	0.74526763698884	-0.00467305277627356	0.00745904249639001
6.7	0.00574764450299849	-0.00565027701265716	-0.516110497319868	0.835283145187851	-0.516212314092646	0.835063418839054	-0.00424436008944433	0.00762412632529796
6.8	0.00406283006537615	-0.00682916138330833	-0.380630566164389	0.905303224720607	-0.380770962077797	0.905133432108886	-0.00368868720213161	0.00777391917507874
6.9	0.00216433712136356	-0.00766660046360165	-0.235479122853515	0.953376075292651	-0.235704039501606	0.95326605392188	-0.00281153376979659	0.00787886853929519
7	0.000251894553264417	-0.00820875533456262	-0.0850806007793452	0.977346781940453	-0.085288628975003	0.977257235608763	-0.00197296535656431	0.00728902959316277
7.1	-0.00187926497538546	-0.00790935940811724	0.0664632198011015	0.979196168651435	0.0662631249323719	0.979063231489017	-0.00164626038385968	0.00722336613889071
7.2	-0.00338902747655064	-0.00723578846369784	0.217468021179458	0.957433198950786	0.217187937560241	0.957397874012869	-0.000713406448474954	0.00736965295546954
7.3	-0.00478662198409013	-0.0064721748731335	0.363204636066015	0.912190305863499	0.362970044164817	0.912215481943868	0.000349077643081848	0.00721428942893079
7.4	-0.00569880895779841	-0.00544988839616583	0.499828529058279	0.84467803882634	0.499616374335095	0.844727929447596	0.00139944360044122	0.0067899643782805
7.5	-0.00622110904450441	-0.00491919509806184	0.623900340424243	0.757989485901581	0.623731501879763	0.758057738967233	0.00273735807716496	0.0057368958028974
7.6	-0.00715842115015666	-0.00425230022304531	0.734777188033377	0.652719510235936	0.734520503442215	0.652800003586355	0.00303837209449466	0.00412033309451543
7.7	-0.00771746464651914	-0.00282919184019309	0.827237448281154	0.530862531687606	0.827051587438517	0.53107755943149	0.00287432131184732	0.00320385447315994
7.8	-0.0075605223438916	-0.00132555547460063	0.899655589168754	0.396309780428755	0.899551632515542	0.396533519594286	0.00280116874865115	0.00255288586713569
7.9	-0.00700384979101132	0.000285816730209388	0.950426415856995	0.252709851531316	0.950287652433038	0.252887832178953	0.00296331333856312	0.0025821760071851
8	-0.0048927587315696	0.00123243895885054	0.979338880408828	0.102281933075539	0.979314012256771	0.102543850735377	0.00430550247056615	0.00216819921663514
8.1	-0.00454846498778181	0.000924334576291109	0.983297992020641	-0.0516226044058666	0.983325164989225	-0.051367449728113	0.00397511198274442	-0.000135201588000191
8.2	-0.00405334000485337	0.00166924068628321	0.963279145770606	-0.203338939015636	0.963325167725166	-0.203022271298398	0.00256751087866178	-0.0010092916669653
8.3	-0.00335510755313375	0.00233174380001822	0.920452232307112	-0.350098645591747	0.920501360831238	-0.349811662676528	0.0011074972172153	-0.00129502555406711
8.4	-0.00256979509556534	0.00306936732720845	0.85573122543412	-0.488962785792067	0.855827381930395	-0.488760255383216	-0.000597110919333103	-0.000736192715900813
8.5	-0.000599067567850558	0.00392564392198248	0.769078022905217	-0.616616451370749	0.769128360322759	-0.61646546945001	-0.000397420370666849	0.000931698215664827
8.6	0.000791924752309458	0.00280656530087753	0.663927255068757	-0.727761616726881	0.664093847551813	-0.727523509211139	-0.00011365016013409	0.000349843932862542
8.7	0.00146325340618791	0.00257503833458389	0.543490005585557	-0.822055147562508	0.54374742988587	-0.821837779572957	-0.000686015853182129	0.000633373407481327
8.8	0.00271351568562604	0.00227974368921956	0.409708299827441	-0.896886914095344	0.409892555718684	-0.896746348311202	-0.000986513539359155	0.00115218610253491
8.9	0.00397517971764352	0.00166038828488863	0.265295397548792	-0.950119903062408	0.265473374715744	-0.949948385088942	-0.000867612983657491	0.00212675379074653
9	0.00579536705612056	0.000534674818678468	0.114658243322156	-0.97894327316722	0.114966230237294	-0.978894370751733	0.000551797570239534	0.00332650082478887
9.1	0.00710487594082491	-0.00117705074126898	-0.0377422703523767	-0.985819819846048	-0.0374331091043485	-0.985776180971604	0.00254496520617526	0.00358841335684789
9.2	0.00852398669768776	-0.0030013455646084	-0.190797950818838	-0.968706149946252	-0.19044982665074	-0.96868098352774	0.00531771856243779	0.00334099472451259
9.3	0.00943053195969186	-0.00521191103162568	-0.339305415533173	-0.927512792018013	-0.338952804166843	-0.927484467821654	0.00833747468310261	0.00176591961862854
9.4	0.00983308485992086	-0.00736706767634037	-0.479085146847298	-0.863387964466855	-0.478760498876423	-0.863476588053404	0.0108165716595161	-0.000754945575250294
9.5	0.00969390466854439	-0.010230696089106	-0.606710199095269	-0.779534017769073	-0.606472102124292	-0.779582403019851	0.0125229361128806	-0.00559453626327639
9.6	0.00735282682686329	-0.0117472719458077	-0.721678281822544	-0.676258528499346	-0.721364175962045	-0.676395339602692	0.00996261575544483	-0.00978430799610239
9.7	0.00603300949838384	-0.011683435915018	-0.818291885228235	-0.555695092326869	-0.818001253346061	-0.555927006451404	0.0069376548305187	-0.0119971334415331
9.8	0.00510237737569417	-0.0117055390656513	-0.89474724114829	-0.421885150503976	-0.894491446506162	-0.422053103422448	0.00341550770605297	-0.0132300146466927
9.9	0.00429004891696732	-0.0110236828273128	-0.949655015383797	-0.278293170602147	-0.94939970683779	-0.278501204020479	-0.000152287272102918	-0.0127348401929867
10	0.00493944724121978	-0.0113367270903934	-0.982804371769234	-0.127194698674032	-0.982647078844378	-0.127558532910527	-0.00154133462256621	-0.01222458122563
10.1	0.00326250733237434	-0.012158117194335	-0.990259548801196	0.0280509207990389	-0.99019312827472	0.0276167685586632	-0.00537062027987649	-0.0127014750970166
10.2	0.0021037351893291	-0.0116569388987585	-0.973843492932476	0.181496190837118	-0.973718405074602	0.181062676255483	-0.00929193375034681	-0.0107188827516771
10.3	0.00118686638063146	-0.0110862092908097	-0.93415807741784	0.330656723153898	-0.934172719891256	0.330111143886958	-0.0125471291080325	-0.00779496831333177
10.4	0.00035446781646772	-0.0105506170805863	-0.872031316374993	0.472300824918998	-0.872166699058587	0.47178460788993	-0.0149591666184562	-0.0038075338532535
10.5	0.000376212532290265	-0.00977912858589508	-0.787198127483729	0.603257523123673	-0.78737138686177	0.602821387455567	-0.0146575316681991	0.000705218351029797
10.6	0.000226140868410166	-0.0100347136270857	-0.683424547040731	0.717507327429704	-0.683698278531917	0.717174210554285	-0.013341322628086	0.00354402397862902
10.7	-6.82329178479856E-06	-0.00996250031743067	-0.563780165489973	0.815096097136267	-0.564082468911653	0.814783724056718	-0.011473207828309	0.00598550815963001
10.8	-0.00024129346384325	-0.0103340062184434	-0.430062788323902	0.893068744549692	-0.430415959015244	0.892767693403999	-0.00932404257074389	0.00772369684945968
10.9	-0.000776822033009727	-0.0105451399499877	-0.285360891145111	0.949178754337332	-0.285754175278068	0.949054783175595	-0.00701732824165559	0.00905561801537948
11	-0.00124071760051428	-0.0111427881011236	-0.134232945878463	0.980750082395244	-0.134672845895126	0.980658910953275	-0.00426969398124296	0.00952488201748078
11.1	-0.0021152874609943	-0.0112067319268472	0.0191260011291161	0.99005360277222	0.0186338182669626	0.990066997137378	-0.0019365087277891	0.0096781686424373
11.2	-0.00268852607768609	-0.0114237171424824	0.17313289343185	0.975306648238134	0.172672440966175	0.97538039873858	0.000845968900498689	0.00939459321464791
11.3	-0.00333680068939361	-0.0115635355855858	0.322902336744607	0.936306219848777	0.322440115878202	0.936444320958826	0.00370215445070735	0.0086449554406073
11.4	-0.00405393795869265	-0.011635406561585	0.464316013604616	0.874127720500058	0.463909706641247	0.874242259405988	0.00662137065651363	0.00766310250739468
11.5	-0.00469327636687444	-0.0123755877846296	0.593733621361552	0.79200840871012	0.593413133219246	0.79231296192481	0.00983234739647334	0.00465098120256401
11.6	-0.00714300211123825	-0.0124639955629206	0.710603703202198	0.690133388867428	0.710387374709223	0.690463964563776	0.0099295331033423	0.00139390789133239
11.7	-0.00879688118904553	-0.0111928882441314	0.809284068691259	0.570636784690604	0.809080253835592	0.570946042828742	0.00973708918557543	-0.00062079111163787
11.8	-0.0102988042102849	-0.009840909675516	0.887868365770456	0.437433373739535	0.887686802744956	0.437887758353615	0.00902158978817557	-0.00223013287236254
11.9	-0.0113939432303238	-0.00741365630924086	0.944759455396832	0.294426151035831	0.944654368941783	0.294879308836095	0.00803341332941812	-0.00234772335300328
12	-0.0106807457520982	-0.00594299749694635	0.980018911232437	0.143706717069986	0.979991395722811	0.144074008391374	0.0101200527621992	-0.00318691772031783
12.1	-0.011529281063475	-0.00496742068457221	0.989455722335696	-0.0114180274340578	0.989386390475711	-0.0110304111495067	0.00956691997981441	-0.00630071974930808
12.2	-0.0118293846896825	-0.0035860805161242	0.974925147250391	-0.16489176927451	0.974944434434969	-0.164592052295351	0.00829373536806014	-0.00846223543758218
12.3	-0.0120278409107912	-0.00240548059378314	0.937092395515131	-0.314143484550048	0.937214379659179	-0.31383573683759	0.00639847610499	-0.0105548480707342
12.4	-0.0126278392853733	-0.00108738781604684	0.877218931214484	-0.456270619351063	0.877284760244325	-0.455899077733356	0.00357565014814562	-0.0116865922790213
12.5	-0.012026485876417	0.000583805847397119	0.794105007314024	-0.58785595461545	0.794450478242556	-0.587466030399724	0.00173755301536805	-0.0117718527836972
12.6	-0.0119966542118533	0.000909574587462412	0.69238739470249	-0.702638281072698	0.692641859362271	-0.702396614027506	-0.000616576434781381	-0.0132467997189176
