# GHZ S RI R 50
0.2	-0.00045510176802881	-3.3701818113643E-05	0.948630138117561	-0.308076426907098	0.94840797242752	-0.308050945193167	-0.000384149638244044	-1.10320222123241E-05
0.3	-0.000494716889622295	0.000138341954707632	0.888534702662862	-0.45168278226212	0.888378617007659	-0.451587401229665	-0.00047548063373408	-0.000114430078349763
0.4	-0.000191310881878371	0.000246444401163982	0.80689915310656	-0.583816172911919	0.806910927121055	-0.583841277480965	-0.000326969399721686	-0.000134457650335825
0.5	-0.000187417038363009	-3.94389287295464E-05	0.706158702789863	-0.70172922559771	0.706003845081498	-0.701627812218198	-0.000307208806555382	-0.00043347876607528
0.6	-0.00050652190751693	0.000217180685556198	0.58845247369288	-0.802692962518991	0.588333333651284	-0.802531370955626	-0.000631841001700044	-0.000347466537181392
0.7	-0.000352598818000332	0.000690544731374761	0.456375172694086	-0.883950332689622	0.456356442597315	-0.883837931947935	-0.000514622203489015	-0.000243113568605841
0.8	7.66783386438317E-05	0.000889405052977197	0.313439270597319	-0.943729335585065	0.313407970795826	-0.943539790056811	-0.000463594477332102	-0.000156724496695841
0.9	0.000719634392684293	0.00116010926082295	0.163187937601626	-0.980465933138846	0.163122975863228	-0.980374130573619	-0.000318681269843669	-9.36561528353371E-05
1	0.00176034041444865	0.000115808726380155	0.0092185736141492	-0.993816819964394	0.00916696743172216	-0.993785397980675	0.000118339000204259	-0.000764836712734501
1.1	0.00103419838149104	-0.00085876733531667	-0.145394710213026	-0.983118137060721	-0.145410442111941	-0.982987816738949	-0.000861853196092745	-0.00104743794137207
1.2	0.00087166711009555	-0.0018796513005861	-0.296290002663619	-0.94816821744876	-0.296213717072006	-0.94814215535448	-0.000744241686190622	-0.000516124062065205
1.3	0.000166947431330045	-0.00356606472754868	-0.439650903436002	-0.890435569936417	-0.439627900454504	-0.890428961406199	0.00013001574597462	1.03181130746946E-06
1.4	-0.000714092686782474	-0.00486925024414167	-0.572170926555225	-0.811459051234902	-0.572146785441787	-0.811437435438405	0.0015190309678831	-6.2083226280869E-05
1.5	-0.00196214982745907	-0.00494601385310947	-0.691654526515856	-0.712555387207267	-0.691552853696331	-0.712470510384248	0.00249275407848825	-0.000760882492555959
1.6	-0.00148078537324989	-0.003454623119725	-0.793320675969565	-0.595935031529534	-0.793246706753807	-0.595875107931846	0.00326210953413054	-0.00104662402910042
1.7	-0.000637304115585925	-0.0033980393299496	-0.87541495422224	-0.466195366212094	-0.87557901448895	-0.465680080206783	0.00361545212404012	-0.00236693624081285
1.8	-0.000463127494816407	-0.00367184094383769	-0.937239918756168	-0.324376282903567	-0.93712883319643	-0.324374896053998	0.00305760691341845	-0.0035926588071434
1.9	-0.000438540178814852	-0.00432260379078016	-0.976140346387382	-0.175290868166038	-0.976233157005815	-0.174803987314815	0.00237768259400844	-0.00466775277338965
2	-0.00250553225142699	-0.00528353655425386	-0.990693891692386	-0.0207968191979421	-0.990705790789465	-0.0207510531249097	0.000389681600600914	-0.0057915068726947
2.1	-0.00365769914544009	-0.00314704242490574	-0.981668074056305	0.132421319258569	-0.981706113922854	0.132458313424826	-0.000783409284651049	-0.00451004805696808
2.2	-0.00352096910210954	-0.00236874549143791	-0.949514448474583	0.282958396095217	-0.94943954122753	0.283021130731958	-0.000816830068561459	-0.00429824544347
2.3	-0.00356499504690986	-0.00191687476319518	-0.894246019351604	0.426313344237804	-0.893864838893705	0.426825904446882	-0.00122425474906443	-0.00444372784386116
2.4	-0.00352782361341567	-0.00195316029551015	-0.816103062225498	0.560852445126846	-0.816368828183146	0.560267641285509	-0.00159915365189095	-0.00469229449833112
2.5	-0.00490352945186727	-0.00308376640120729	-0.719622038006944	0.679709726406477	-0.719834497859881	0.679200830896902	-0.00268573074522743	-0.00606556867839712
2.6	-0.00739910270982711	-0.00116306947266706	-0.606491657279165	0.783181644468816	-0.606385410613803	0.782999381651953	-0.00443496388646707	-0.00508592389394822
2.7	-0.00758916943239598	0.00138392844060134	-0.476907323853103	0.868172832538734	-0.477355206252606	0.867765882563343	-0.00473649542009823	-0.00394006928119772
2.8	-0.00636642902026446	0.00334571140382944	-0.33762800156694	0.930996120615616	-0.336961540898796	0.93115559672594	-0.00450392340830199	-0.00304870627971184
2.9	-0.00431928432604451	0.00416965758598843	-0.188864499114963	0.971896910051469	-0.188895544021771	0.971809631194473	-0.00361593374085354	-0.00237517140816242
3	-0.00270517103665957	0.00447375713644878	-0.0355703053637068	0.990299324500179	-0.0362705250293243	0.990139296278737	-0.00292142630337547	-0.00179829702354604
3.1	-0.000213852029056365	0.004398832081075	0.117946138432474	0.983985889916109	0.118536621815342	0.983968881811287	-0.00136743073273314	-0.0015218766348508
3.2	0.00142778479823493	0.00311775004569407	0.269723139769723	0.953308703196059	0.269668448434344	0.953248358128994	-0.00064882882243082	-0.00198155759545213
3.3	0.00269957927704083	0.00164825114839643	0.41435319805905	0.899910896941065	0.414216120804337	0.899896503025786	9.68592741448169E-05	-0.00236390061604414
3.4	0.00319278806780377	-0.00035218628550149	0.549004105841074	0.825222191716211	0.548841671755577	0.825339851514653	0.000830111444745112	-0.00339235745518317
3.5	0.00222069866179961	-0.00157061182619768	0.671457628096619	0.729983582340003	0.67137795222767	0.730022318141165	0.000379970955926423	-0.00399245255235607
3.6	0.00264780899877391	-0.001605639502771	0.775618742207915	0.616592426207523	0.775859778971337	0.616143887458501	0.0011433566763561	-0.0039539437494869
3.7	0.00306382289702264	-0.00305562644701946	0.861982425444574	0.488451149582409	0.861864071676414	0.488594170467954	0.00158863418803369	-0.00494846850815759
3.8	0.00268717057226019	-0.00460173139112527	0.927344696999991	0.349428457205914	0.927401703048501	0.349049237705488	0.00152484856317692	-0.0059861215971126
3.9	0.00217658511478094	-0.00656501517199039	0.970878206766482	0.199732093908979	0.97063963991637	0.200399874001041	0.000943965746537515	-0.00751920086592286
4	-0.00101476165345427	-0.00857695175652193	0.989109114235927	0.0467428933543783	0.989070246075144	0.0468457343967411	-0.00106064395839228	-0.00898881122037318
4.1	-0.00346377852608183	-0.00727324568540865	0.984350201054878	-0.106138626804396	0.984165764985412	-0.106011662302069	-0.00238070249383435	-0.00827515095565625
4.2	-0.00487944344652429	-0.00667919134223329	0.956138526307793	-0.258274469369419	0.956173155129632	-0.257620800893199	-0.00300858491686741	-0.00849645699435899
4.3	-0.00627749536453062	-0.00620243805240759	0.904819976594192	-0.403184991525721	0.904684075024531	-0.403073926029968	-0.00400109146772445	-0.00891514319995375
4.4	-0.00738203170960737	-0.00569289603039469	0.830783560724372	-0.538706394150786	0.830618412396429	-0.538573137811732	-0.00487593521233558	-0.00928578594897054
4.5	-0.00963682285317122	-0.00656598988461301	0.737500137664188	-0.659869181560269	0.737311269874028	-0.659696454434294	-0.00665188734502262	-0.01070399916016
4.6	-0.0132654308566762	-0.00420998485339782	0.626762887151075	-0.767620718121865	0.627103698366878	-0.766921836065236	-0.00940311854386752	-0.0100139922694603
4.7	-0.0148797452881667	-0.00136253165564593	0.50012722485573	-0.855853780531146	0.500143219877917	-0.855497603881217	-0.0111350983294074	-0.00932851290583934
4.8	-0.0158065085779251	0.0018659781437886	0.360756003540992	-0.922920689165264	0.360977362788907	-0.922603728987483	-0.0127243575621817	-0.00844148352020049
4.9	-0.0154603891006622	0.00489612590250564	0.213947350374172	-0.966891098865852	0.213727206150806	-0.966899253876067	-0.0137753704254698	-0.00729374007982576
5	-0.0147781020484768	0.0078991665048819	0.0618414325246407	-0.989660557813952	0.0620184495716651	-0.98941428936249	-0.0145562880067152	-0.00562361016091056
5.1	-0.0118309129585833	0.0109296289816751	-0.0937956477719213	-0.987651159612715	-0.0934633138075038	-0.987424980947483	-0.0139301685655291	-0.00365099805103348
5.2	-0.00822734575816867	0.0121095825818429	-0.246215346446996	-0.960662768856522	-0.245722333080279	-0.960635574202459	-0.0131752504533732	-0.00256601485134542
5.3	-0.00501653974150837	0.0116898000023486	-0.392166223412229	-0.91090361989207	-0.391824565665191	-0.911120062674758	-0.0124246657517642	-0.00198172402256829
5.4	-0.00319128733493937	0.010300206711859	-0.529093161496972	-0.839720897105679	-0.528879537318876	-0.839922063958556	-0.012385088372087	-0.00200919558319364
5.5	-0.00444040064379261	0.010933697586201	-0.654822382008918	-0.746929887832764	-0.654582591155473	-0.747125537213424	-0.0144443142068448	-0.000516197713453215
5.6	-0.000901820543929	0.0142201358338127	-0.761920865646311	-0.63482410928558	-0.761730860691535	-0.634996611949988	-0.0128957778979571	0.00257869498065997
5.7	0.00314228947533638	0.0137441120471686	-0.850891680264498	-0.509058316196442	-0.850762190898627	-0.509278738359076	-0.0114991872855319	0.00350750460993116
5.8	0.00644882983171985	0.0122753002121034	-0.9197062368141	-0.370754384146206	-0.919638382628	-0.371040126364607	-0.0104483771164345	0.00440535512532864
5.9	0.00916702694193749	0.00885052379350468	-0.966574155556486	-0.222966685721945	-0.96658877832961	-0.223050539318823	-0.00923453661386796	0.00453457402393262
6	0.00699865111812751	0.00484170172609885	-0.988028046574705	-0.0692066368640736	-0.987908767726685	-0.0692650211682452	-0.0108749062994136	0.00431892559680684
6.1	0.00614226406657444	0.00652331586637014	-0.986409785498352	0.0834898613729193	-0.98628315730411	0.0833411675640508	-0.0104931216748632	0.00784582515526247
6.2	0.00756294214009597	0.00637186335112449	-0.961957671944645	0.235699569327285	-0.961944104841505	0.235496468845299	-0.00852305138737764	0.00913435030716126
6.3	0.00884090453939047	0.00513495704063483	-0.913641672114807	0.382548707882355	-0.913637365868242	0.382363104773585	-0.0066703526181977	0.00949753938572579
6.4	0.00998642796129936	0.00268386857137054	-0.842314214231756	0.519831711710677	-0.842282890975104	0.519620844667774	-0.00497345779339257	0.00884265498638063
6.5	0.00955057463697427	-0.000457735186222058	-0.751618989697632	0.642495789836634	-0.75164319709715	0.64229175552319	-0.00424206687381897	0.00771843398539026
6.6	0.0090569128666397	-0.00320481244827369	-0.643976830693075	0.75256332909014	-0.644050882141981	0.75231082088705	-0.00343648871651925	0.006892952159456
6.7	0.00705148764694495	-0.00624423803435789	-0.518575079976287	0.843903293977039	-0.518678336277056	0.84368188910924	-0.0035090530136712	0.00591773295704942
6.8	0.00425455017928037	-0.00788893065865769	-0.38074861614174	0.913840945070183	-0.380890696975622	0.913670241268368	-0.00386491038038325	0.00589401208212339
6.9	0.00128396188370885	-0.00849828324198771	-0.234651210054366	0.96104425796282	-0.234878082240619	0.960934029903402	-0.00370450660124363	0.00626090025154423
7	-0.00114690471273393	-0.0074810269151651	-0.083580872528903	0.987262552041044	-0.0837911827912732	0.987172614867494	-0.00311707980163095	0.00706287398076148
7.1	-0.00202828695344885	-0.00675844389423338	0.0725861541273302	0.988291990177738	0.0723833804195037	0.988158887524329	-0.00147893705885983	0.00719141066921613
7.2	-0.00313174752928506	-0.00638806235171368	0.225226733912994	0.964074349849917	0.224944093257309	0.964040468834097	-0.000142423095140274	0.00687807945728844
7.3	-0.00435410810318127	-0.00584295820659434	0.371724546676805	0.917175765589748	0.371488250737679	0.917202591902049	0.00107701462002763	0.0063523066170998
7.4	-0.00535840206009907	-0.0051954348569452	0.509562797917734	0.848982819530606	0.509349085256728	0.849034487427458	0.00195897289288401	0.00540919594247208
7.5	-0.00707973517016103	-0.00393493222540541	0.637161666250192	0.758911880236597	0.636991926934571	0.758982428877664	0.00214090790170571	0.00487238835185773
7.6	-0.00632193878278511	-0.00150424615255516	0.745996876232743	0.64889594830908	0.745739508512761	0.648979613289581	0.00381996415227482	0.00460453133170018
7.7	-0.00478221310236202	-0.000757804701300476	0.836799475879254	0.525449932908473	0.836614772388541	0.525667919516574	0.00520533187669658	0.00308622017152037
7.8	-0.00311587856575259	-0.00104464505169196	0.908265972753225	0.38920729246958	0.908163754900768	0.389433227714803	0.00622924045312206	0.00104537580043718
7.9	-0.00216518072928976	-0.00285265606329392	0.957991105632818	0.242815033734908	0.957853751814507	0.242995500821159	0.00643823464123202	-0.00185733972780148
8	-0.00596486438752479	-0.00571808932984639	0.981660401052137	0.0899322681289343	0.98163883831622	0.0901947750317449	0.0032030982433816	-0.00513501933257954
8.1	-0.0082532706378834	-0.00127854673323454	0.983204094634528	-0.0613975552973727	0.983233809944935	-0.0611425616401152	0.000780020097589687	-0.00307413357213461
8.2	-0.00730109591735912	0.00164162806758549	0.962267889651575	-0.213086228470761	0.962317094266545	-0.212769687051277	9.6178806202607E-05	-0.00234101372686058
8.3	-0.00566132570866963	0.00396817387163024	0.917358351049641	-0.360145515635593	0.917410570588441	-0.359858857903679	-0.00049540271212142	-0.00144399313285137
8.4	-0.00232123215760319	0.00503083533145577	0.849141012410256	-0.498062987819804	0.849239346683647	-0.4978617953578	1.51109469508621E-05	-0.00073887493873662
8.5	-0.00151796759995403	0.00233704921912004	0.761966331507269	-0.621233821716177	0.762017766216093	-0.621083658359941	-0.000850239969614288	-0.00232217174673642
8.6	-0.0022695233151293	0.00475738232922745	0.657615254838488	-0.73313300032903	0.657783801079431	-0.732896362695378	-0.00234887601272703	0.000105239872770622
8.7	0.000412948311491572	0.00643960451344862	0.535063128619139	-0.82658451858331	0.535322427365166	-0.826369831055674	-0.00123792517339643	0.00165545360781403
8.8	0.00387058413131117	0.0067272538394499	0.399955048670134	-0.898953317180884	0.400140285581381	-0.89881487938528	-4.04244242231998E-05	0.00237433065907915
8.9	0.00797295063446884	0.00551259748663929	0.25633707382723	-0.949101375289908	0.256515891874684	-0.948931954084826	0.00201309227404258	0.00286987993605737
9	0.0110703158110532	0.00151221113049824	0.107101713035375	-0.979026080114534	0.107409823981097	-0.978979565345901	0.00413791821009741	0.00184409496578985
9.1	0.0128696353779208	-0.00226305139181178	-0.0480689224839885	-0.983571461109904	-0.0477598811852599	-0.983531164939413	0.00643977240871579	0.000669158632114518
9.2	0.0130354023942968	-0.00738884342191942	-0.199961436482296	-0.962960113149327	-0.199614418253079	-0.962938607024208	0.00808255170428211	-0.00216876115723389
9.3	0.0106122457928759	-0.0111619428964619	-0.346119797944409	-0.92005399690807	-0.345768594623533	-0.920029006317537	0.00826848034239928	-0.00475320633076414
9.4	0.00756162064678804	-0.0136038629380899	-0.484238143736816	-0.856319833883621	-0.483915418019533	-0.856410736395124	0.00811412886485785	-0.0072310280083095
9.5	0.0019092203098581	-0.0119495439299276	-0.613427437478739	-0.770103736217767	-0.613190683359454	-0.770154633090938	0.00547110623010941	-0.00801127038124461
9.6	0.00374159067872789	-0.00781599699488351	-0.723847146383681	-0.663754864896818	-0.723536720786762	-0.663894081063692	0.00711739909128767	-0.00769301474414477
9.7	0.00578103654343137	-0.00807641410604295	-0.817109720579173	-0.544006032650184	-0.816823417339378	-0.544238823965094	0.00687770624525418	-0.0106717530227767
9.8	0.0069485207164261	-0.00912073374693729	-0.8916982767634	-0.411101698807414	-0.891445819843764	-0.411270588458047	0.00489616336027206	-0.0128751242287491
9.9	0.0078677118714611	-0.0116617845969307	-0.945288097832102	-0.267042975250606	-0.94503669821107	-0.267251930912519	0.0027326327357333	-0.0149337489728612
10	0.00295742102342891	-0.0145060408645291	-0.972660761609047	-0.115899962254294	-0.972508929675913	-0.116261142526374	-0.00347635601829284	-0.0164017416149416
10.1	0.0013864738234439	-0.0100765207226433	-0.978421202418835	0.0338665551944537	-0.978358258963179	0.0334371045920611	-0.00675355099431747	-0.0122769226380137
10.2	0.00301341727373869	-0.00907351046071589	-0.96215099394965	0.185093011329363	-0.962029759273373	0.184663521706204	-0.00822317440936976	-0.0101505179429785
10.3	0.00425086410189957	-0.00937824191863443	-0.921573631833275	0.332503662707448	-0.921591378552066	0.331964363377788	-0.00976617301259547	-0.00800093566935881
10.4	0.005516369866167	-0.0116450906819033	-0.857331316290565	0.471024631976882	-0.857467911424312	0.47051626211236	-0.0103545782441394	-0.00626623141209562
10.5	0.0029861185258632	-0.0157444261991852	-0.774636776867988	0.595020954953668	-0.77480790417393	0.594591600043839	-0.0121688570109943	-0.00592264472645239
10.6	-0.00130900594565851	-0.0155876576147042	-0.675018807480774	0.70909477211958	-0.675289349699386	0.708765730517581	-0.0142501740989988	-0.00261247215466799
10.7	-0.00461484652456673	-0.0134657280577555	-0.556591140692688	0.805695461588832	-0.556890016174237	0.805386985615631	-0.0147067729001661	0.0013791427931235
10.8	-0.00484162732099341	-0.011189423257514	-0.424714233855868	0.881758605870179	-0.425062920431713	0.88146132247034	-0.0124074695706207	0.00537997692650037
10.9	-0.00458391842303802	-0.00949255009668412	-0.284005562397552	0.936030079509811	-0.284393384328225	0.935906744644164	-0.00944825162943477	0.00789131143748061
11	-0.00471444312634935	-0.00864353990564333	-0.136957588283086	0.971392216577811	-0.137393167487834	0.971300101519007	-0.00644396439159156	0.00940187648439136
11.1	-0.00366191033105076	-0.00784153120564192	0.0177377956947662	0.980895743412276	0.017250160644233	0.98090841172876	-0.00243870441536706	0.00990759824799465
11.2	-0.00297190827656574	-0.00834061054002821	0.169449838852971	0.96534722868888	0.168994103530744	0.965419324681882	0.00110772242497493	0.00905792925726969
11.3	-0.00267099820948683	-0.00913061752837067	0.316252843352858	0.927543638598808	0.315795022032111	0.92767868191482	0.00452632180901822	0.00759788799254813
11.4	-0.00317915894336989	-0.0111575854449761	0.456197901641477	0.868895298633774	0.455794509236026	0.86900692665445	0.0073594922568421	0.00498444688348822
11.5	-0.00730401956932111	-0.0105810778240005	0.588271306919803	0.786738561216914	0.587952872664742	0.787040417369609	0.00727470417525573	0.00331973373184208
11.6	-0.0063629166883201	-0.00745973603171079	0.701245486377711	0.684224079340097	0.701030761938525	0.684550542684671	0.0102477602678154	0.00270655832151136
11.7	-0.00502179188905954	-0.00738629006937192	0.798112709622912	0.568137820274169	0.797909697646634	0.56844287264654	0.0122208389785254	-0.000353089246175412
11.8	-0.00430252204185596	-0.00823657491776891	0.877145586500477	0.438026677965969	0.876963319958878	0.438475800250463	0.0130537472838208	-0.00351328457382502
11.9	-0.00382462293200802	-0.0111376898272999	0.935701206171705	0.295857434893076	0.935595132917231	0.296306396153475	0.0134823088283179	-0.00757334610216274
12	-0.0107046950918659	-0.0140343420258933	0.967579232535724	0.145739328658024	0.9675506358873	0.146102059403499	0.00896529244255345	-0.0119179968776528
12.1	-0.0142660334244185	-0.00919002579985351	0.978335789703719	-0.0034502338013263	0.978264172745966	-0.00306755853149414	0.00695568999710559	-0.0111501873823922
12.2	-0.0153364361708332	-0.00623601851044613	0.967012405987762	-0.155203470803802	0.967029013802563	-0.154906447949061	0.00548677981318537	-0.0121845659331686
12.3	-0.0159251099322629	-0.00302025493488454	0.931057163323604	-0.303836528195828	0.931175591263998	-0.303530612952469	0.00345043538196271	-0.0127545155219401
12.4	-0.0147797694334281	-0.000622267823649045	0.871364333592514	-0.444395856186987	0.871426508601396	-0.44402780372752	0.00223644816800924	-0.0130487628359213
12.5	-0.0159005516840499	-0.00109700904800389	0.79298461876785	-0.570743155834257	0.793321049582593	-0.570353029383058	-0.000891055859856874	-0.0150101012728571
12.6	-0.0171807838948062	0.00367231934640615	0.697256361517748	-0.688523713030338	0.697505837608313	-0.688280221323466	-0.00407515492163001	-0.0129377432020336
