# GHZ S RI R 50
0.2	-0.000411227692735838	-4.90925622384697E-05	0.948427344910654	-0.3081203479879	0.948205221828648	-0.308094847598238	-0.00043335117359862	7.77604260779554E-05
0.3	-0.000417027857151157	4.03656597453107E-05	0.888278491289591	-0.451683415082518	0.888122452518924	-0.451588037609463	-0.000515309914441616	1.42254294905753E-05
0.4	-0.000139685988764052	4.6868255699561E-05	0.806617492903756	-0.583735369574542	0.806629261148495	-0.583760468376898	-0.000355954893610034	1.12687267687001E-05
0.5	-0.000220789368011148	-0.000242246327282407	0.70591733832422	-0.701592738833085	0.705762529680218	-0.701491341290858	-0.000396446175103263	-0.000272852948525599
0.6	-0.0004603863200604	4.73196793005576E-06	0.588189313372163	-0.802520012999726	0.588070226507447	-0.802358456179541	-0.00074713983942583	-8.2161239617593E-05
0.7	-0.000301481134388666	0.000337776211753768	0.456133338991863	-0.883687160810518	0.456114626023157	-0.883574797254406	-0.00061044141019502	0.000117657345329277
0.8	4.27457016311689E-05	0.000390234287985549	0.313265141366548	-0.943399605626158	0.31323386482886	-0.943210128277472	-0.000486819673439593	0.000292598259456428
0.9	0.000453916297957367	0.000493872022816463	0.163089160643519	-0.980128173496419	0.163024225615975	-0.980036400460888	-0.000194392243138106	0.000345916285067821
1	0.000910729211214313	-0.00034176830213244	0.00908727616792175	-0.993443535809429	0.00903569346563214	-0.993412119031463	0.000209054776746844	-0.000481454793624821
1.1	0.000250312131037678	-0.000604607553108491	-0.145394285798167	-0.982613723341821	-0.145410000178761	-0.982483467298074	-0.000831033762603669	-0.000743128689841807
1.2	0.000474489530723452	-0.001172872607502	-0.296145211813906	-0.947677978368672	-0.296068965263933	-0.947651930298441	-0.000773726548153723	-0.000149867720927897
1.3	0.000565365284351652	-0.00264053861639188	-0.439410458921274	-0.889980598095402	-0.43938746795094	-0.889973992658397	0.000199613405628947	0.0005181230581631
1.4	0.000402427713225488	-0.0044598915188665	-0.571863935125753	-0.811000692770086	-0.571839807134435	-0.810979089299504	0.0016979383563525	0.000402723862671599
1.5	-0.000469708143296139	-0.00514582730551642	-0.691095053134777	-0.712075172434164	-0.690993461219685	-0.711990351508063	0.00252513037561519	-0.000145287749963892
1.6	-0.000232132438733213	-0.00482363215463738	-0.792633627903459	-0.595743282886023	-0.792559723889115	-0.595683380082029	0.00330263010839025	-0.000319091345795943
1.7	-0.000265898199693186	-0.00512642271620128	-0.874748179083697	-0.466146587590371	-0.874912278671546	-0.465631663978863	0.00372590617283473	-0.00148269511679918
1.8	-0.000795746929750785	-0.00530986916839583	-0.936547269179451	-0.324432371020909	-0.936436255270979	-0.324430953751257	0.00330748769969349	-0.00272896508821752
1.9	-0.0014087231449056	-0.00549832426637419	-0.975350630364038	-0.17551073037336	-0.975443546642642	-0.175024245356119	0.00255233328011699	-0.00396370006774158
2	-0.00318704621134598	-0.00542513186112008	-0.990012345629959	-0.0214304795835865	-0.990024266646434	-0.0213847521491858	0.000420567271180769	-0.00483386349544898
2.1	-0.00369369852892355	-0.0037796740766534	-0.981282458774513	0.131792897125584	-0.981320502079139	0.131829851953516	-0.000581742921366072	-0.00356980743992077
2.2	-0.00392990466945439	-0.00330394603651715	-0.949187802424471	0.282282129817165	-0.949112968579437	0.282344874354696	-0.000567860408229499	-0.00333737465277482
2.3	-0.00442893885643045	-0.00273708980455832	-0.894042468176404	0.425506196919157	-0.893661823707234	0.426018728993248	-0.00083691814110792	-0.00356385267617919
2.4	-0.00492823309205225	-0.00225193785906151	-0.81618682943561	0.559913738838289	-0.816451986328932	0.559328987845437	-0.00123690205048856	-0.00410706953891078
2.5	-0.00609431678228461	-0.00183303370223139	-0.720057502125712	0.679057317007748	-0.72026953622367	0.67854832304685	-0.00264670343402801	-0.00539912344372097
2.6	-0.00685011412559262	0.000301538429557766	-0.606798919949135	0.782606023959641	-0.606692592418094	0.782423874144766	-0.00423824410994479	-0.0043736261433648
2.7	-0.00614160388463853	0.0019516645441661	-0.477387908301049	0.867568118088333	-0.477835363025417	0.867160968737156	-0.00452246785685943	-0.00338217598198226
2.8	-0.0048606755925309	0.00292290297741685	-0.338309204088513	0.930534039098642	-0.337643007957678	0.930694019670326	-0.00447240248168296	-0.00262611657084314
2.9	-0.00317170216007608	0.00321031519732689	-0.189612060985362	0.971755572604506	-0.189643038938424	0.971668269567945	-0.00385567800975415	-0.00185421788694476
3	-0.0016868729477559	0.00315982884339337	-0.0359939597405082	0.99018802091484	-0.0366940425333989	0.990027706214841	-0.00322014164921653	-0.00099242767670467
3.1	0.000231543052258646	0.00263003868627041	0.117230456297166	0.983756775410815	0.117820765116481	0.983740179822404	-0.00165718793107323	-0.00053222253032361
3.2	0.00132714400656776	0.00143808621199788	0.26891705659307	0.953367525489917	0.268862422467868	0.953307146642083	-0.000849064475967425	-0.000832391367816212
3.3	0.00225920905634686	0.000211489056831556	0.413655135361259	0.900174909189096	0.413518076137831	0.900160413022054	-2.95801910732896E-05	-0.00118985503365924
3.4	0.00259585030947344	-0.00131377517298684	0.548478011924863	0.825461571640947	0.54831552519627	0.825579126993166	0.000606715152494368	-0.00216352385279554
3.5	0.00235119469741721	-0.00225373392381655	0.670562316671872	0.730165953806533	0.670482648155396	0.730204608324811	0.000291942053779502	-0.00249110435771891
3.6	0.00273659128730248	-0.0031002100238112	0.774821251343667	0.617377607048121	0.775062757993474	0.616929399950226	0.00112195406179622	-0.00252868835946424
3.7	0.00259130744009642	-0.0046254460760524	0.861512132553724	0.489347351754716	0.861393628856795	0.489490256515322	0.00163614026908181	-0.00345211926215135
3.8	0.00177553726250334	-0.00593185268982208	0.927033702339446	0.350331419021317	0.927091075264775	0.349952243962046	0.001677718107291	-0.00457866163571629
3.9	0.00085487436188615	-0.00723118334887925	0.970554726104643	0.200754279098863	0.970315467503292	0.201421727832293	0.000939752644099295	-0.00629800962112893
4	-0.00149014766054719	-0.0080047111322536	0.989251951475731	0.0482982142535983	0.989212914179029	0.0484010170272945	-0.00120523846291173	-0.0074884874944612
4.1	-0.00281020163799188	-0.00747493817667028	0.985107281598224	-0.105045629102521	0.984922577372456	-0.104918800662765	-0.00247378181493468	-0.00689152171780667
4.2	-0.00427292846987385	-0.00750884937171619	0.956940965346251	-0.257436838079928	0.956974941799918	-0.25678276689836	-0.00320787602855019	-0.00703308124110382
4.3	-0.00590996015483789	-0.00737217199374051	0.905747257311183	-0.40241606599413	0.905611161412418	-0.402305088761447	-0.00416380845800473	-0.00743420711170601
4.4	-0.00764616899723769	-0.00691767357485067	0.832096516650851	-0.538016109210065	0.83193107314158	-0.53788297090156	-0.00516959157373001	-0.00801151304050135
4.5	-0.010004544582307	-0.00652303501374067	0.739129696406367	-0.660064987855657	0.738940407748174	-0.659892205502181	-0.00737068390401126	-0.00917057031814141
4.6	-0.0122485912576942	-0.00419612998522941	0.6277781012437	-0.76805829123738	0.628118890434563	-0.767358542066053	-0.0100785728444898	-0.00831792797659285
4.7	-0.0133410053565125	-0.00207830999068659	0.501104884539205	-0.856301069465274	0.501120671544315	-0.855944566838183	-0.0119068912930659	-0.0074243528380196
4.8	-0.014140545630227	0.000387190762129886	0.361747861217354	-0.923614323568238	0.361969230735351	-0.923296891293402	-0.0134454187362439	-0.00630198463695301
4.9	-0.0140538006654578	0.00274450138162212	0.21470110039592	-0.968078859943052	0.214480666117113	-0.968087132403735	-0.01440364978481	-0.00498656293995251
5	-0.0134983422355002	0.00520020201457897	0.0617247184808644	-0.990670051406697	0.0619019586467424	-0.990423566585542	-0.0149673771658538	-0.00307275609782387
5.1	-0.0115106380760761	0.00727099935356764	-0.0936201107361726	-0.988308005836689	-0.0932876172836517	-0.988081602537458	-0.0141144074978091	-0.00108399835655364
5.2	-0.00940797692183169	0.00864604285274395	-0.246124057831223	-0.961565065972202	-0.245630629783657	-0.961537692647787	-0.0131486244875203	2.07553251208214E-05
5.3	-0.00722309336217166	0.00940760179357517	-0.392423821109737	-0.911833066345985	-0.392081805601874	-0.91204967257497	-0.01226686262968	0.000538916404623272
5.4	-0.00529757940368451	0.00990799343646719	-0.529678457920302	-0.840257769975352	-0.529464711194273	-0.84045913711874	-0.0122911173672254	0.000572284303861028
5.5	-0.003959278945831	0.0112289508454238	-0.654760560740109	-0.747151692714286	-0.654520701539838	-0.74734732039106	-0.0137863095110904	0.00231201974329772
5.6	-0.000204884078782966	0.0123215410217236	-0.762073507461634	-0.635723610065446	-0.761883266524212	-0.635896119565643	-0.0122505904434257	0.00482050816960804
5.7	0.00274258549203235	0.0114596074005154	-0.851486511333579	-0.509810504095341	-0.851356829265495	-0.510031081144031	-0.0109153675685023	0.00566558532613702
5.8	0.00513122444633974	0.0104125964167589	-0.920407266765435	-0.371205347512836	-0.920339311552364	-0.371491314979036	-0.00991038151551737	0.00625530702628896
5.9	0.00711749537993542	0.00847434445814015	-0.967017680983799	-0.223336700451722	-0.967032289311259	-0.223420601474907	-0.00931355021500149	0.00605771005845364
6	0.00720526661001531	0.00688456224609256	-0.988955772188979	-0.0701696773967323	-0.988836321062072	-0.0702280123115202	-0.0112956213715119	0.00657579438163394
6.1	0.00887247183512082	0.00656724602159195	-0.98787583925243	0.0834119147772831	-0.987748994807686	0.083263028331685	-0.0108950511410824	0.00998072638022826
6.2	0.0103381551776666	0.00452196043643809	-0.96310982651342	0.236043076058356	-0.96309625514745	0.235839728548944	-0.00911289450470708	0.0115640368367492
6.3	0.0107877763564809	0.00192034021721394	-0.914605987059536	0.382970303324209	-0.914601679307353	0.382784502970872	-0.00715896247063262	0.0121487297734386
6.4	0.0104700488161694	-0.000947633713317797	-0.843493960916739	0.52025100826791	-0.843462542929279	0.520039888751252	-0.00540853460635654	0.0115582852724065
6.5	0.00909533043264405	-0.00361932790395279	-0.752870006078078	0.644040893202297	-0.752894335950061	0.643836464335005	-0.00452796238020477	0.0106517046219925
6.6	0.00770189638433076	-0.00573699189714928	-0.644076396091742	0.754063429489363	-0.644150766968423	0.753810681470041	-0.00352722006823107	0.00987772744710237
6.7	0.00565350350525984	-0.00753076335247215	-0.518524094515402	0.845071377767386	-0.518627598236728	0.844849824681365	-0.00327803170799057	0.00893337638818293
6.8	0.00362366582935131	-0.00849095245792483	-0.380673243500075	0.915065662515853	-0.380815575716124	0.914894846394302	-0.00339285246829304	0.00865490528270658
6.9	0.00156760369747642	-0.00905890341125683	-0.234177791080942	0.962679433409846	-0.234405096346245	0.962569235362742	-0.00332309276846552	0.00881127106560664
7	-4.26090219837171E-05	-0.00884453104031383	-0.0819376340696125	0.988221536712613	-0.0821482736864647	0.988131890259247	-0.00277213692328352	0.00945309109548379
7.1	-0.0012776754204345	-0.00890290202229895	0.0736594858199263	0.988512175248782	0.0734565095288257	0.98837924830698	-0.00146288527614371	0.0095416710769279
7.2	-0.00266202806799746	-0.00875823111657127	0.226259708277218	0.964370884044038	0.225976886005493	0.964337253016799	-0.000291329985364934	0.00940813930065565
7.3	-0.00411100256706966	-0.00841894431920274	0.373031951485322	0.917282742685859	0.372795546382521	0.917309864711533	0.000844876865379688	0.00908679113300811
7.4	-0.00536704605877198	-0.00783084998561234	0.511078507674488	0.848331335866114	0.510864832534229	0.848383368182835	0.00171229336513716	0.00843046740905871
7.5	-0.00673813560606933	-0.0068240352664016	0.637443007956617	0.757659479509	0.637273474633212	0.757730147531385	0.00227191198110629	0.00823433274271432
7.6	-0.00677073959994583	-0.00559094815635271	0.746231401653581	0.648520798528581	0.745974088926377	0.648604571410278	0.00412988780809029	0.00781074987875137
7.7	-0.00684963081261302	-0.00478712946645544	0.837265734292725	0.524875732761054	0.837081176050743	0.525093876381637	0.00562603594581492	0.00621560668885269
7.8	-0.0065574083220384	-0.00393997362991997	0.908486145313903	0.388347684616852	0.908384142044779	0.38857367943778	0.00660268449616766	0.00394830556159538
7.9	-0.00625558880250646	-0.0033951253653385	0.957564862142763	0.242115193081675	0.957427694408765	0.242295633061115	0.00640557387217197	0.00101436035608595
8	-0.0071144736570802	-0.00269001531300799	0.981768405856387	0.0902884640568168	0.981746748235333	0.0905510007208267	0.00304488897738306	-0.00131426225428465
8.1	-0.0061112107449951	-0.000286628417184764	0.983835345530342	-0.0620247423099873	0.983865232877037	-0.0617695931495301	0.00107319284730774	0.000153064747069223
8.2	-0.00448338581342006	0.000588503461334927	0.962317564243105	-0.213995597755972	0.962367062807233	-0.213679021406797	0.000189394437426973	0.000818144741254519
8.3	-0.00310249802816843	0.00118082635511645	0.917048415839348	-0.36079876899343	0.917100842553156	-0.360512163965754	-0.000448200550065181	0.00164905700536205
8.4	-0.00128315662699498	0.00118081591026125	0.849162264410527	-0.498343247801235	0.84926066187366	-0.498142045681883	-0.000315579607754763	0.00203968924208293
8.5	-0.000936168787799381	0.000274381881156638	0.76208426883464	-0.62269959165288	0.762135918929788	-0.622549328420767	-0.00178194482283464	0.00132577127321856
8.6	4.31978390905658E-05	0.00125966158167641	0.656444925961166	-0.734143835415944	0.656613838747921	-0.73390746935326	-0.00286160702253217	0.00396920287222013
8.7	0.00182012279868737	0.00102512627965998	0.533923133171906	-0.826929537797351	0.534182594592494	-0.826715223574545	-0.00164019178537222	0.00591746848513933
8.8	0.00343943423015258	0.000223528894233846	0.399039152167404	-0.899132704505337	0.399224477845118	-0.898994467302304	0.000169602748620192	0.0069274002317484
8.9	0.00493791037106942	-0.00100553339363859	0.255236999733856	-0.949622839854567	0.255416063663441	-0.949453599209656	0.00279122242867544	0.00709442431124287
9	0.00607309892936782	-0.00296146835133372	0.104964334294473	-0.97852663954599	0.105272314845311	-0.978480807000769	0.00500934399603428	0.00588096073734638
9.1	0.00716590085165469	-0.00470260891825211	-0.0490405840163469	-0.982289195918123	-0.0487318875337695	-0.982249274371395	0.00732396509770086	0.00454692917211392
9.2	0.007803934504705	-0.00703851113206851	-0.200590386279879	-0.961969061354013	-0.200243647450908	-0.961947861935839	0.00911432670053571	0.0019549334634572
9.3	0.00769923243998507	-0.00892701806973746	-0.34688832340356	-0.919016070335541	-0.346537342846324	-0.918991485029469	0.0098563004642307	-0.000780681779866776
9.4	0.00733473167405957	-0.0107967120148725	-0.485103840507931	-0.854482238460364	-0.484781652860212	-0.854573576403227	0.00957407650736609	-0.00386717440192423
9.5	0.00588443163571395	-0.0108446514736235	-0.612506070469342	-0.767875147188527	-0.612269907996251	-0.767926084862984	0.00716126122857516	-0.00481949479358734
9.6	0.00705837285674063	-0.0112861748997897	-0.722858212419771	-0.662784525166822	-0.722548231094188	-0.662923559816299	0.00791169784164233	-0.00513623819841847
9.7	0.00682655086455654	-0.0126918009660285	-0.816272699963467	-0.543010621885603	-0.815986847283679	-0.543243223471432	0.00727747523132943	-0.00767604876682791
9.8	0.00613977832369581	-0.0136755714552861	-0.890473363859129	-0.410022844721199	-0.890221389342691	-0.410191585311769	0.00532029662447336	-0.00989540334678198
9.9	0.00528428967583249	-0.014500892681629	-0.943184132539381	-0.26651206074933	-0.942933274897254	-0.266720539375569	0.00250559002381577	-0.0121963949904314
10	0.00274145821884206	-0.0145147625827222	-0.971349971119056	-0.116986492304136	-0.971197866184842	-0.117347048614641	-0.00359003517905179	-0.0127029873505694
10.1	0.00266992940180806	-0.0127935450087186	-0.977760163587854	0.0336218589376105	-0.977697165868697	0.0331927161100573	-0.00680013076148861	-0.00917059796668243
10.2	0.00282146164661436	-0.0128656437469299	-0.961068130787566	0.18473731084106	-0.960946972546275	0.184308334712225	-0.00852034772211088	-0.00690134295790558
10.3	0.00244472970113897	-0.012906623872421	-0.920540516315438	0.331536296651529	-0.920557931581119	0.330997702862933	-0.010028734651322	-0.00482960717046736
10.4	0.00210337535714165	-0.0134829138215037	-0.857290203024222	0.469558907712224	-0.857426037176299	0.469050746769834	-0.0110341444260012	-0.00336378361717316
10.5	0.000603912022638579	-0.0140321657212475	-0.775096985190906	0.595219991997106	-0.775268143784211	0.594790401476433	-0.0132124510248124	-0.00228860854082322
10.6	-0.000449687330328184	-0.0134304869235139	-0.674225355780267	0.70892663157016	-0.674495867963786	0.708597941429878	-0.0148721885845717	0.00116449607098438
10.7	-0.00100959903804474	-0.0127724524867918	-0.555978849171834	0.804921892219615	-0.556277444753252	0.80461374676221	-0.0147484695690358	0.00500973017199439
10.8	-0.00113546086087522	-0.0123708212413033	-0.424557025789497	0.880987543348683	-0.424905381877088	0.880690423383935	-0.0132514984209617	0.00863623742684774
10.9	-0.00125628314726727	-0.0124311274390288	-0.283755266867928	0.935837115942129	-0.284143009799729	0.935713886595237	-0.0107863222819141	0.0112621295771119
11	-0.00155093120253329	-0.0125664403216634	-0.135611994225038	0.970050831028769	-0.136047007259507	0.969959366821247	-0.00799638817582484	0.0134466998709186
11.1	-0.00154471946370232	-0.0128650233177401	0.017500557130048	0.978890547365989	0.017013918171353	0.978903089794763	-0.00406370946675547	0.0146499006999878
11.2	-0.00195579681781112	-0.0136184116274717	0.168675427310542	0.963954996229437	0.168220353473792	0.964026738746024	-9.6157785741952E-05	0.0144814931002006
11.3	-0.00264892982320435	-0.0142106981320728	0.315569769901776	0.926450465918319	0.315112494468789	0.926585199043311	0.00380236152367881	0.0132793879073658
11.4	-0.0038450234528171	-0.015068829928313	0.455597685062251	0.867182047533228	0.455195061005833	0.867293580193899	0.00684314070995869	0.0109566497284175
11.5	-0.00591603611160457	-0.0143045136008687	0.585633557686242	0.785104248714887	0.585315711339727	0.78540484977732	0.00793363401743639	0.00962671169197686
11.6	-0.00604340443561222	-0.0137540470193783	0.698917091855318	0.684391031729238	0.69870212546168	0.684716596047973	0.0111627278632784	0.00837575284181399
11.7	-0.00699431855427749	-0.0136938637016042	0.796317448398283	0.568460038822078	0.796114294848848	0.568764423826127	0.0135141524394792	0.00509878271028079
11.8	-0.00828844523269132	-0.0133398379951456	0.875228128473357	0.438331127337312	0.875045638352288	0.438779316213342	0.0146151830314879	0.00114648552450845
11.9	-0.00944199048117875	-0.0127972688228687	0.932973760630527	0.29685385019541	0.932867125210715	0.297301567604538	0.0142544582120794	-0.00366307266204605
12	-0.0125945680553013	-0.0114841209785346	0.966227106033357	0.148731208721029	0.966197363909207	0.149093516554907	0.00971999630134781	-0.0073941202272373
12.1	-0.0127527055082222	-0.00834284586337431	0.978126114488801	-0.00146962965600959	0.978053738910844	-0.00108718393522094	0.00728326587063475	-0.00746196813671389
12.2	-0.0128276581122354	-0.00683612335180648	0.966726807970276	-0.153223780731563	0.966742826668738	-0.152926906113682	0.00517022099069493	-0.00832953437548906
12.3	-0.0129678492009701	-0.00510353809642948	0.931190756413174	-0.301416934609693	0.931308377531758	-0.301110931022092	0.00291981563947978	-0.00875452614927965
12.4	-0.012775529371535	-0.00373601801678362	0.872946854521828	-0.441750601695774	0.873007885527857	-0.441382275500019	0.00114453021052866	-0.00917318898489823
12.5	-0.0133528892394167	-0.00263332415503035	0.795190856514067	-0.570458792823152	0.795527239896944	-0.570067494177479	-0.00243847708423512	-0.00999462289401003
