# GHZ S RI R 50
0.2	-8.67394202542722E-05	-0.000703667521440102	0.951085758497407	-0.307426612321791	0.950863082116954	-0.307401382681121	-0.000112950870745205	-0.000571739822257141
0.3	-0.000538148983451018	-0.00071520835186111	0.89170152786462	-0.45135116942288	0.891544858059279	-0.451255803644418	-0.000641784803743855	-0.000731442708112072
0.4	-0.000883446630516274	-0.000475737163688804	0.810862313039334	-0.584274589998461	0.810874177381652	-0.584299759200389	-0.00110425911747817	-0.000496382394061212
0.5	-0.00076831630202641	0.000369068129702298	0.710093710494725	-0.703909021085868	0.70993805455347	-0.703807357789372	-0.000947139075196672	0.000355170576096886
0.6	-0.000177433717934975	-2.47283052602328E-05	0.591604338127451	-0.805280347901708	0.591484560886998	-0.805118236156833	-0.000472265538829288	-9.05698440794745E-05
0.7	-0.000423506322714839	-0.000102346921149706	0.459455727916508	-0.887242379503913	0.459436777497099	-0.887129511682044	-0.000739829034662751	-0.000291608108762219
0.8	-0.00047903545309434	-0.000188382867462704	0.315989709885263	-0.948080019222232	0.315958054849781	-0.947889566482283	-0.00101019553806323	-0.000243912036866731
0.9	-0.00107865624977935	-0.000165560716469154	0.16443556436685	-0.985768253368217	0.164370214132029	-0.985675972347892	-0.00171180031407263	-0.000262676116658168
1	-0.00142794624380571	0.00154419396285638	0.00894027113166463	-0.998474109468186	0.00888843343272976	-0.99844252363238	-0.00209177109497689	0.00143844874491973
1.1	0.000805256493183353	0.0013483685437172	-0.145556670211334	-0.988022858962704	-0.145572552366105	-0.98789190814213	-0.000262582477444316	0.00120244513560086
1.2	0.00144702443369827	-0.000622128810433921	-0.297743272506718	-0.953606659376562	-0.297666561180175	-0.953580431703742	0.00020528380931419	0.000377689086368496
1.3	0.00176177741893876	-0.00329328450599798	-0.44259505344003	-0.895534379219626	-0.442571911846125	-0.895527740453313	0.00136611791131182	-0.000144856889510788
1.4	0.00129815191080669	-0.0059957961112571	-0.576093928735699	-0.815435775949229	-0.576069633744084	-0.815414062390163	0.00253215019007758	-0.00110325174633131
1.5	0.00173872336519349	-0.00772735760984475	-0.695255029246159	-0.716423759051274	-0.695152824958871	-0.716338419256794	0.00466273939230212	-0.00266219905309271
1.6	-0.000841795930911844	-0.00941877087289447	-0.799063124612805	-0.599913056800259	-0.79898861879579	-0.599852731579537	0.00264289981389193	-0.0047263283389084
1.7	-0.00265282246696473	-0.00793323616958404	-0.882418968873792	-0.468336962785398	-0.882583489898401	-0.467817710035172	0.00136371591113615	-0.00411612207844106
1.8	-0.00369106854402791	-0.00648816925463367	-0.944486220748842	-0.324769933245422	-0.944374350993707	-0.32476876041212	0.000474274862833401	-0.00376576411022825
1.9	-0.0042753785881301	-0.00428647510395163	-0.983184134301533	-0.174658406617473	-0.983276666481483	-0.174168002334982	-0.000225309182670906	-0.00264735397753108
2	-0.0018842738187875	-0.00303708564664698	-0.999268437409484	-0.0190649552710468	-0.999280350810741	-0.0190187719689152	0.00180139708870172	-0.00238594862104255
2.1	-0.00267880189238519	-0.00512875787227766	-0.989540789320025	0.137808901036116	-0.989578996389968	0.137846378177436	0.000484174381410441	-0.00485705383378288
2.2	-0.0046501570107203	-0.00453971402386594	-0.955480804307329	0.289871574117701	-0.955405003871407	0.289934423780626	-0.00121807224582913	-0.00450390556210097
2.3	-0.00598505563205265	-0.00328442423917413	-0.898773204495869	0.434188349175801	-0.898386477769701	0.4347027915294	-0.00229610665575528	-0.00406401129683384
2.4	-0.00733248300192033	-0.00122770805385519	-0.819594483171298	0.569960284879508	-0.819865670927859	0.569372219077108	-0.00353821454109025	-0.00308705670742167
2.5	-0.00569074897251419	0.00200973582742037	-0.72013566763468	0.691310197707675	-0.720354071594463	0.690798749483494	-0.00218063785928712	-0.00166140016868161
2.6	-0.00400597524664258	0.00102458012967928	-0.603283252409082	0.79322129720883	-0.603177962909554	0.79303700396128	-0.00141773663748848	-0.00374610792379366
2.7	-0.00410948920700441	0.000744439532550018	-0.472208083481493	0.87708591533535	-0.472661930313879	0.87668048820676	-0.00256283737965474	-0.00464271683583151
2.8	-0.00410047413570997	0.000918047807141372	-0.331164314402262	0.939206589986763	-0.330492713032844	0.939360981234078	-0.00381021574241801	-0.00463520969310656
2.9	-0.00332401107662478	0.0014110261253393	-0.179791889275651	0.979027259331427	-0.179824004362843	0.978939837949188	-0.00412432382970813	-0.00359213485580045
3	-0.00203940181205428	0.00095496222719474	-0.0243143557066995	0.993176302466457	-0.0250181547426438	0.993023896766436	-0.00368245343994588	-0.00307373198377913
3.1	-0.00181394905070115	0.000817327179076485	0.127584191092019	0.984763568764442	0.128175655355384	0.984740881068136	-0.00378478984524146	-0.00225345105993626
3.2	-0.000954895887673894	0.000895415199726013	0.279764884673858	0.952755665499046	0.279709474093457	0.952695728038271	-0.00314508851732797	-0.0012223538892846
3.3	0.000176178841705233	0.000644765260854744	0.42462274114554	0.896942117704501	0.424485289166169	0.896929163026043	-0.00210215397948635	-0.000610201950849049
3.4	0.00139910013028941	0.000322321740430372	0.558176909583799	0.819007139356869	0.558015806113085	0.819126603793237	-0.000567636913181007	-0.00040292328746667
3.5	0.00350510730395466	-0.00177801793543952	0.676950226950465	0.723000286949289	0.676871007774582	0.72303967175708	0.00144393997562953	-0.00190457504020048
3.6	0.00213424562287892	-0.00416836690300054	0.781447742564977	0.609863141489242	0.781684844028527	0.609412269041354	0.000522214814745681	-0.0034512799405071
3.7	0.00118345152344502	-0.00482689827854857	0.866685250034977	0.479670405642363	0.866568362116408	0.479814581821743	0.000267577850655005	-0.0035063446643053
3.8	0.000156981267532381	-0.00531502370834906	0.929616966671139	0.33951621885946	0.929670037930369	0.339136943480393	0.000124341235999157	-0.00384142025276737
3.9	-0.000583536809898861	-0.00498779105064586	0.970468995980647	0.190434102300078	0.970237056569923	0.191102522242748	-0.000428617830277081	-0.00397540318221769
4	0.00071332539679302	-0.00523954037544175	0.989301073084304	0.0383518291291524	0.989263084387057	0.0384549783106347	0.001022510083629	-0.00468628964928853
4.1	-0.000799454843324208	-0.00812456258174913	0.982216765784533	-0.11707527114063	0.982033930203217	-0.116946360066116	-0.000487323442068573	-0.00748375938158834
4.2	-0.00366911556817282	-0.00857440552187604	0.950597914287658	-0.268311824873058	0.95063979664956	-0.267660348440033	-0.00263405276120761	-0.0080228876438863
4.3	-0.00626885743366244	-0.00837317604619442	0.897292960563246	-0.411362978910606	0.897158726629445	-0.411250865939458	-0.00456558859133802	-0.00834464984674925
4.4	-0.00931080554013962	-0.0068036145269997	0.822682480283958	-0.545492913936569	0.822519209332845	-0.54535839058605	-0.00687571511113996	-0.00781819186702629
4.5	-0.00975463128154896	-0.00370590169029195	0.726576514776268	-0.667412938204855	0.726390493228544	-0.667238290930176	-0.00719688795827977	-0.00631546023371963
4.6	-0.0100900350678872	-0.0036043806754539	0.612625430296039	-0.770325998322629	0.612972816696793	-0.769636298657561	-0.00805993200665852	-0.00763502951108609
4.7	-0.0116700989726249	-0.0026229161986118	0.486517776922163	-0.8548094167129	0.486537679338502	-0.85445621236528	-0.010408840079503	-0.00781023755412808
4.8	-0.0129619780787339	-0.00076803186306535	0.347864656063796	-0.91933622619279	0.348087644228026	-0.919024225708191	-0.0124648444334461	-0.00723664719464183
4.9	-0.0134362030354369	0.0014939432897629	0.200916719632141	-0.961117517013517	0.200698359933939	-0.961123051354179	-0.0139719220932843	-0.00594842893908465
5	-0.0126070136651257	0.00334487972627604	0.0493872325460236	-0.978043044205123	0.0495649481341941	-0.977801937966245	-0.0142436284578261	-0.00456048311581757
5.1	-0.0125527060719185	0.00484105634283423	-0.100554939155275	-0.973981220031037	-0.100225121068396	-0.973760685225015	-0.0152298761936487	-0.00307664608647976
5.2	-0.011601036398976	0.00753444140150428	-0.250207940304591	-0.946813589791265	-0.249720903131255	-0.946790367869956	-0.0153029355495942	-0.000649972204137579
5.3	-0.00950418059421253	0.0100746616026233	-0.393616895728289	-0.896143440653708	-0.393281275501693	-0.896359519631001	-0.0144239376299643	0.00160274884972666
5.4	-0.00576308725108577	0.0127694845152059	-0.526759492514352	-0.82353940657419	-0.526550431033029	-0.823738978096459	-0.0125873274397987	0.00376919569657497
5.5	3.86908184902857E-05	0.0111755812633268	-0.646026338750797	-0.733247830291281	-0.645790905092887	-0.733440891789734	-0.00964837424181756	0.00252250879932264
5.6	-4.03775736548815E-05	0.00912970032008256	-0.752843923785358	-0.625069769784287	-0.752656744070813	-0.625240295865308	-0.0119538299021091	0.00194686524746101
5.7	0.000861017865557546	0.00967386284651703	-0.840435349742877	-0.500417395857859	-0.840308066596146	-0.500635104327768	-0.0125620624126061	0.0041928273297382
5.8	0.00243439363252377	0.0102733149767226	-0.906973951229249	-0.364212096965508	-0.906907449209711	-0.36449382094014	-0.0122869746254014	0.00636005014328252
5.9	0.00465603321135752	0.0115396282167874	-0.951898606275587	-0.220583019496987	-0.951912927907228	-0.220665633340375	-0.0114185488241321	0.00921380177194736
6	0.0110790907826754	0.0107532266367345	-0.976476632556778	-0.0710537294079504	-0.97635856991576	-0.0711111228202176	-0.00720913603640084	0.0103935018833187
6.1	0.0124940661141203	0.00489227186832722	-0.974809539078433	0.0824279130209854	-0.974684388984984	0.0822809793455709	-0.00716999404216775	0.00831033357927091
6.2	0.0117523886196912	0.00182455969078997	-0.949461453334316	0.231724293424215	-0.949447883476981	0.231523888249343	-0.00761808355770724	0.00890989568187422
6.3	0.0105562402008777	-0.000778734247861025	-0.902371633322321	0.375195331101828	-0.902366929138338	0.375012218824723	-0.00726681922759456	0.00950911315149557
6.4	0.0090327481870301	-0.00248730997228473	-0.834323176063537	0.510500813779171	-0.834291425421546	0.510292557889025	-0.00673473094333013	0.0100759154036031
6.5	0.00799268007548385	-0.00436522797411752	-0.743980835535643	0.634809688890741	-0.744004597093533	0.6346078615869	-0.00548228554355462	0.00995682069670689
6.6	0.00616694486460205	-0.0057849977747935	-0.636193695543719	0.740366334383337	-0.636266161762827	0.740117328030147	-0.0048848950625936	0.00978872988352462
6.7	0.00483825526835351	-0.00664949258550327	-0.514909945341933	0.829485974919717	-0.515010731911741	0.829267283358747	-0.00397074433211455	0.00970531786020045
6.8	0.00374268352607549	-0.00755887810069823	-0.380771719898182	0.899573154614599	-0.380910962032079	0.899403929721214	-0.00322768882835228	0.00943975352604104
6.9	0.00258809252280123	-0.00846581363496169	-0.236341195389289	0.94791458454341	-0.236564704545754	0.947804642440794	-0.00233992500370956	0.00926765919434493
7	0.00113216629366626	-0.00992846019291289	-0.0870154524022152	0.970901391297341	-0.0872219276607109	0.970811888537995	-0.00173901324115323	0.00819781733129161
7.1	-0.00148902734671078	-0.0100112038754841	0.0620941997463044	0.973672019426474	0.0618958286573059	0.973539056484874	-0.00192379078999128	0.00834916638948424
7.2	-0.00314304311205748	-0.00941766196336356	0.212136983142836	0.953330039025942	0.211858532173438	0.953293676781562	-0.00105307539862726	0.00875221776946737
7.3	-0.0046841889168399	-0.00876780959535553	0.35725171590953	0.909203194438636	0.357018199766169	0.909227185461716	-3.26293839853817E-05	0.00880482514835664
7.4	-0.00567039228397947	-0.00767031436202745	0.493016381448298	0.842558810417275	0.492805127701077	0.842607398035252	0.00109041403043928	0.00873168894776872
7.5	-0.00577369814247347	-0.00757043933533002	0.615824150596146	0.758317123152171	0.615655703240876	0.758383928782264	0.00281039397249581	0.00768584902783653
7.6	-0.00763163444277347	-0.00758956139768423	0.727916952035574	0.655264723029418	0.727660636491704	0.655343247884615	0.00293722933334909	0.00617368526063043
7.7	-0.00911841549163138	-0.00580513857266472	0.821176145393024	0.534437096076592	0.820989509818065	0.534650242326414	0.00312358240872894	0.00559799892564783
7.8	-0.00957109973729136	-0.00337912495338412	0.894208775820106	0.401110314280061	0.894103642042881	0.401332662687042	0.00345902459281258	0.00492475292764814
7.9	-0.00896805974330099	9.70244010229748E-05	0.945974175026049	0.25924802147656	0.945834431094225	0.25942447451088	0.00394082628362316	0.00491917460926606
8	-0.00350359470175993	0.0019930346609443	0.977802968252124	0.109793096580194	0.977776089405859	0.110054622740169	0.00660084597028438	0.00368776250259224
8.1	-0.00202602775581505	-0.000957759154188625	0.983037721986529	-0.0449303151320259	0.983063149838471	-0.0446751346709695	0.0050213317007871	-0.000384420178939386
8.2	-0.00224985542569647	-0.00164915034530409	0.964158685411838	-0.196519356511259	0.964202477092328	-0.196202544630439	0.00223188629462863	-0.00117509035961301
8.3	-0.00266098309285311	-0.00173999489206094	0.922998070870545	-0.343404315503482	0.923045112226986	-0.343116975395027	-0.00017461506758317	-0.000953405324506903
8.4	-0.00351666487686307	-0.000544364753301877	0.860263704414557	-0.48330732180483	0.860358499974677	-0.48310386081702	-0.00265249460491295	0.000658016773211286
8.5	-0.000568600619028997	0.00243008266437844	0.773833954022516	-0.613179468783656	0.773883504681002	-0.613027958978253	-0.0014889485795699	0.00373126185057375
8.6	0.0021379114521816	-0.000497902766032176	0.668823954320427	-0.724328219683342	0.668989242324974	-0.724088924469898	-0.000968977641045473	0.002469200324459
8.7	0.00181701581391579	-0.00197466656991869	0.54946741812413	-0.819626962229078	0.549723779252722	-0.819407661595947	-0.00185634011103146	0.00332209482591141
8.8	0.00161070134247505	-0.00268964611224431	0.416152612448957	-0.896087054043058	0.416336349752051	-0.895945052809254	-0.00179813691771396	0.00452965279638615
8.9	0.00112791408988718	-0.00265226642857624	0.271132854570183	-0.95092894158882	0.271310315820934	-0.950756040035504	-0.00098811653036784	0.00601470446439885
9	0.00266419881389528	-0.00200095704986715	0.12009968584015	-0.979476666628186	0.120407771016185	-0.979426037131258	0.00174428785937277	0.00728636850776164
9.1	0.00404478348975602	-0.00293086734032051	-0.0313422490042164	-0.98801090267044	-0.0310327649564552	-0.987965147361515	0.00433897349668612	0.00668648446627843
9.2	0.00594530741426057	-0.003570640100003	-0.18519816482695	-0.972656149413305	-0.184849215252754	-0.972628705395321	0.00742113352883019	0.00569148614379923
9.3	0.0080414657676251	-0.00501804096202653	-0.334891843678598	-0.932450288282394	-0.334538285691716	-0.932419789050232	0.0103213259179559	0.00331343874649902
9.4	0.0101589564892563	-0.0065068673942445	-0.475459387328299	-0.868592102755188	-0.475133310410393	-0.868679104223654	0.0124830572564494	0.000525724735048496
9.5	0.0131908792459938	-0.0118434475329885	-0.603104604744389	-0.786523118318836	-0.602865362389547	-0.786569944521087	0.0142440163753309	-0.00573648452667307
9.6	0.00888365198407138	-0.0162896332961279	-0.720852325507716	-0.684445397766975	-0.720535728460986	-0.684580823356704	0.00947208030717053	-0.00983443253511321
9.7	0.00579073321513271	-0.0162978364689084	-0.819432486340129	-0.563522792316678	-0.81913891706625	-0.563754244453456	0.00606762284023927	-0.0108963169729366
9.8	0.00354163289607553	-0.015694450753222	-0.897337233255343	-0.429323701805863	-0.897079057837868	-0.42949113698413	0.00262239977817345	-0.0115358932432642
9.9	0.00199267257887709	-0.0129214547011279	-0.953746761331255	-0.28577457433365	-0.953488629626187	-0.285982320073189	-0.000712331403714322	-0.0103431646194889
10	0.00584626546546819	-0.0122620725160841	-0.99015687886636	-0.133623304783516	-0.989996303528277	-0.133989256899982	-0.000586717199781241	-0.0103617733617485
10.1	0.0039957519390592	-0.0157111474362654	-0.998417254901712	0.0245821292219774	-0.998348673445126	0.0241446944991369	-0.00573130241922643	-0.0118992817352632
10.2	0.00139531692710139	-0.0153946591583693	-0.982260048995762	0.179749367224996	-0.982132530357044	0.179312783389122	-0.0102300512362024	-0.00915373492008077
10.3	-0.000530346277979068	-0.0141098479521742	-0.942971821791187	0.330679872159127	-0.942984979957778	0.330129671118438	-0.0132820333060104	-0.005716408757597
10.4	-0.00189595317298756	-0.0119314392949536	-0.881220078144805	0.474757625319663	-0.881355570142753	0.474236291005207	-0.0153102772396293	-0.00148474523877847
10.5	8.56243239708435E-05	-0.00936835503796231	-0.794412946149094	0.608892649751548	-0.794587841801069	0.60845250312953	-0.0139336097315528	0.00267646219913445
10.6	0.00186417825418225	-0.0108016703817291	-0.688656745917543	0.723309864599197	-0.68893270668376	0.722974181050657	-0.0130158357186216	0.00399697021197199
10.7	0.00193668271395278	-0.012120417234425	-0.568098142228202	0.821700618980665	-0.568402916583667	0.821385822444223	-0.012417356888091	0.00606908912606033
10.8	0.00126173819718158	-0.0134266678183485	-0.432925647043919	0.900757854348482	-0.433281958440711	0.900454591521746	-0.0112807547895278	0.00826014758518842
10.9	0.000391235174084217	-0.0138632566745218	-0.285735765374877	0.957511157638514	-0.286132513779672	0.957386984373691	-0.00945536415682719	0.0106639216211984
11	-9.08077990865358E-05	-0.0150755178166092	-0.13279659524709	0.987250249275386	-0.133239482989966	0.987159526721754	-0.00672139630461232	0.0117667144244025
11.1	-0.00183687960329177	-0.0155026690722892	0.0206708280259569	0.996751827952877	0.0201753209008989	0.996766016851177	-0.00448093503289864	0.0129538540206976
11.2	-0.0030254014037716	-0.015574389941023	0.176378690740262	0.981980529835943	0.175915071187216	0.982055755159391	-0.00110742279157474	0.0135436735262313
11.3	-0.00415304421893889	-0.0151799937680909	0.327817936915863	0.941938809385343	0.327352874987741	0.942079188102157	0.00252192861382719	0.0134012607103563
11.4	-0.00458660950265424	-0.0140513027291281	0.469922644450712	0.877872915931698	0.469514269776023	0.877989453330647	0.00649882672788325	0.0128715368335574
11.5	-0.0031589576764242	-0.0158444073583948	0.598814558259453	0.79578546797765	0.598492658631791	0.796092471482682	0.0109979535883188	0.00882616580938035
11.6	-0.00714083650993898	-0.0176763814261331	0.717782823353197	0.693147533984183	0.717565859143537	0.693481149246276	0.0105361583408583	0.00535227529337679
11.7	-0.0101766459805376	-0.0159517426750743	0.817102597695515	0.571519692709413	0.81689854469624	0.571831884149625	0.0110365503073453	0.00361263665090087
11.8	-0.0125751621905058	-0.0135502516692021	0.895379401401152	0.436551808217386	0.895198560832392	0.437009861088553	0.0111546074149883	0.00154489934051949
11.9	-0.0133295567528469	-0.0085681649261965	0.951825252026998	0.292751918488121	0.95172119678516	0.293208330297838	0.0112160684150568	0.000720891326527078
12	-0.00873107950718553	-0.0063148752325281	0.988432211008768	0.140450261726205	0.988406124783218	0.140820588027206	0.0142850432459348	-0.00238945900702852
12.1	-0.00912202289186108	-0.00859905851669916	0.996397409070653	-0.0176969444737875	0.996330013843014	-0.0173061464845974	0.0113118674901395	-0.00794141690832444
12.2	-0.0105198549265226	-0.00840550267127265	0.979945950862679	-0.172416949054794	0.979967354401071	-0.172115479481525	0.00767458837558396	-0.0100847912298084
12.3	-0.0119770019187671	-0.00757173802098906	0.940496105797401	-0.322452968422369	0.94062093057146	-0.322144232317525	0.00395207786847074	-0.0113651402177116
12.4	-0.0140378608484988	-0.0053153344930243	0.879312583811238	-0.465643621319838	0.879381586008335	-0.46527024587058	-0.000181905783936056	-0.0108386436277187
12.5	-0.012105664494183	-0.00165246873170367	0.79271013935385	-0.598670340794457	0.793061225961461	-0.598281649086039	-0.00137799852490345	-0.00906501589638301
12.6	-0.0110683754959548	-0.00268327771178267	0.68816376339983	-0.711517397468548	0.688421358575638	-0.711277290974037	-0.0037908238561652	-0.00998096545184244
