# GHZ S RI R 50
0.2	-2.79836699026939E-05	-0.00081808969372609	0.951639664288484	-0.307301289292577	0.951416871767169	-0.307276111841441	-4.20606463879734E-05	-0.000699720661382018
0.3	-0.00056666220283786	-0.000838604865008356	0.892412080538441	-0.451307813954769	0.892255280109463	-0.451212445917526	-0.000654836025036117	-0.00088449898673518
0.4	-0.00104392740277302	-0.000537892239614823	0.811747247689241	-0.584425789778792	0.811759131541731	-0.584450974599179	-0.00125411508895184	-0.000603938424411655
0.5	-0.000860170766181291	0.000579669657242336	0.710936730102123	-0.704473745869871	0.710780899502271	-0.704372011225982	-0.00103166100986397	0.000517945639971788
0.6	-6.32417877883174E-05	1.5176926940648E-05	0.592238306047858	-0.805914175627092	0.592118400585381	-0.805751936378582	-0.000336991759593032	-0.000113539071894558
0.7	-0.000407431245095945	-0.000166822923022282	0.460057067376373	-0.88802659971379	0.460038078926794	-0.887913625278539	-0.000704505885692623	-0.00045013966122545
0.8	-0.000562521394686939	-0.000297853748993759	0.316445353833475	-0.949090996768167	0.316413642401806	-0.948900337359977	-0.00109539032704906	-0.000478197124171612
0.9	-0.0014351087603677	-0.000316378569488532	0.164561279393916	-0.986969334871614	0.164495857141368	-0.986876937737994	-0.00211983721195713	-0.000558539719929784
1	-0.00207214019263008	0.00204524048356323	0.00870596425322815	-0.999455841570751	0.0086540834097236	-0.999424212124448	-0.00286082234141652	0.00184268971417609
1.1	0.000790805721696739	0.0019752335464083	-0.145741110322003	-0.989040155211321	-0.145757004412739	-0.988909068400184	-0.000388509705360327	0.00182189142267678
1.2	0.00146135081148358	-7.02800131026042E-05	-0.29822618476674	-0.954701440018038	-0.298149378627215	-0.954675191497137	0.000173015089026682	0.000974350069268687
1.3	0.00194721580990793	-0.00269871461861897	-0.443401800573071	-0.89649484357457	-0.443378628797902	-0.89648820360638	0.0015972640113301	0.000505068606448712
1.4	0.00164705687986217	-0.0055185406630463	-0.577078828535663	-0.816076020772442	-0.577054497534777	-0.816054294043963	0.00300418811133203	-0.000628719992779178
1.5	0.0025436689186279	-0.0076540901379538	-0.696081154414447	-0.717026245275337	-0.695978832148883	-0.716940837059955	0.00566389065844829	-0.00269132090839424
1.6	-0.000720148541764374	-0.0100847867524222	-0.800340441202157	-0.60052074340019	-0.800265815028531	-0.600460355409822	0.00292619754913484	-0.00565077616477551
1.7	-0.00302227799606426	-0.0082906964702795	-0.883900494156181	-0.468501921945076	-0.884064958135461	-0.467981858419402	0.00103517149160516	-0.00480860701211498
1.8	-0.00423997412241902	-0.00655873691805398	-0.945924143944433	-0.324545903859091	-0.945812129227364	-0.324544805622618	-0.000144899666280769	-0.00416270585549483
1.9	-0.0049300767846624	-0.00383066301091161	-0.984475988749731	-0.174254947348089	-0.984568326196672	-0.17376389532872	-0.00102533884956553	-0.00243696274728161
2	-0.00157347694447338	-0.00222498989634702	-1.00085827833721	-0.0184879210757161	-1.00087018249171	-0.0184416575982816	0.00202616276916594	-0.00171727666409106
2.1	-0.0024418621748257	-0.00523714479367434	-0.99089481337523	0.139145978920692	-0.990933036114205	0.139183556792517	0.000695372877998519	-0.00517550610155544
2.2	-0.00484663966966289	-0.00458861283787381	-0.956367146543142	0.291429385406662	-0.956291169743932	0.291492223288668	-0.00149725378728296	-0.00480561027432825
2.3	-0.00636936276251014	-0.00315441757404742	-0.899344441323003	0.435846732927122	-0.89895659426327	0.436361329889062	-0.00284152114676988	-0.00416083594428306
2.4	-0.00795160136663582	-0.000726915654967079	-0.819974538724018	0.571798861934766	-0.820246857769907	0.57121034507285	-0.00438651152371041	-0.00270862252591203
2.5	-0.00567402542633478	0.00332629768052864	-0.719867831806128	0.69365063658974	-0.72008750816481	0.693138866928265	-0.00232669954591253	-0.000280445716081558
2.6	-0.00327559716574315	0.00166088972374889	-0.602220677563593	0.795074982201733	-0.602115664062159	0.794890327144209	-0.000641503488476453	-0.00301634010538718
2.7	-0.00348286600701231	0.000931870573478743	-0.470922865137457	0.8786047499217	-0.471377797322346	0.878199870095673	-0.00177023422129843	-0.00445873547385328
2.8	-0.00372261930653392	0.000894752671714	-0.32959531084347	0.940520106422354	-0.32892292881663	0.94067331639324	-0.00323442658561009	-0.00477889450889729
2.9	-0.00313110644105083	0.00144617952845814	-0.177749027887222	0.980082767660622	-0.177781357763252	0.979995358495754	-0.00375557416809742	-0.00375297444465969
3	-0.00183018820065597	0.000866673512498717	-0.0218879465535474	0.993224925914569	-0.0225921102510072	0.993074241119914	-0.00330815827159085	-0.00343498794489482
3.1	-0.00201088485427823	0.000764243164719946	0.129466610362165	0.984398812669198	0.130057959504456	0.984374987852377	-0.003892245540323	-0.00268415489153345
3.2	-0.00118769602930994	0.00113211157892689	0.281644096694518	0.952167021823667	0.281588569240036	0.952107196367082	-0.00336828113892258	-0.00135617793239485
3.3	-8.04482680342555E-07	0.00102859178702768	0.426462581518367	0.895877132185522	0.426325126166855	0.895864473238854	-0.00232346601269866	-0.000566728165362816
3.4	0.00137048653963672	0.000926021254730999	0.559673791805398	0.817285314400501	0.559513048551771	0.817405067626695	-0.000647591854778552	-8.2561145192483E-05
3.5	0.00402321492206681	-0.00148109834198476	0.677493351913178	0.721257739548914	0.677414267911916	0.721297215501088	0.00199164804056981	-0.0018921655455327
3.6	0.00211101446891559	-0.00432895238271896	0.782066570223663	0.608331392423772	0.782302840546756	0.607880346840592	0.000512509938448373	-0.0039971110672564
3.7	0.00085645254903139	-0.00474384829784137	0.867020660821997	0.477812114173872	0.866904104749406	0.477956413113174	-0.000129422215989702	-0.00382687480193655
3.8	-0.000301603422718204	-0.00498123763508515	0.929401967835025	0.33757941713839	0.929454323699352	0.337200380181601	-0.000475774950848776	-0.0038685613899315
3.9	-0.00108402431029207	-0.0041661908003666	0.969703211810251	0.188841802373611	0.969472476928246	0.189509839066925	-0.00110390449376164	-0.00340332156804605
4	0.00115018117561103	-0.00408320806791833	0.98883571094425	0.0371392986775013	0.988797866251261	0.037242440314842	0.00141260429375271	-0.00365535229184699
4.1	-0.000246178722760079	-0.0077937112494934	0.98137947355599	-0.118765310081346	0.98119698629733	-0.118636152786933	0.000158187306427157	-0.00736464872161095
4.2	-0.00334200926742694	-0.00840141462277999	0.949184417628277	-0.269710555620665	0.949227399529644	-0.269059799182062	-0.00220835214788174	-0.00815537060185613
4.3	-0.00612347168248082	-0.00833660388109599	0.895643583696624	-0.41232168642608	0.895509676369984	-0.412209486382412	-0.00435706232270725	-0.00865560126379036
4.4	-0.00958592528222055	-0.00665279564853524	0.821113898561556	-0.546170623613484	0.820950976999986	-0.546035990580202	-0.00715420524892876	-0.0079977335102812
4.5	-0.00975064829561404	-0.00280976140920991	0.724547399601073	-0.668372678137372	0.724361905501789	-0.66819778837215	-0.00716040301279471	-0.00562295722967298
4.6	-0.0095661539267587	-0.00317557236376246	0.609991768301229	-0.770249650996261	0.610339966161638	-0.769561852688362	-0.0073329394145116	-0.0074248885812201
4.7	-0.0112132565543288	-0.00245673929391652	0.484168886374321	-0.854005274052338	0.484189341385993	-0.853652771167515	-0.00967006902538309	-0.0079806718440868
4.8	-0.0125883569270519	-0.000800310590588531	0.345806612393754	-0.918119988846296	0.346029651627645	-0.917808919634548	-0.0118024150304443	-0.00773091588758756
4.9	-0.0132288016325337	0.00137779482678991	0.198918039059784	-0.959608487548923	0.198700089510843	-0.959613644851157	-0.013523754817261	-0.00662934191426552
5	-0.0123643983530788	0.00308404899562268	0.0475393880155316	-0.975399351028424	0.0477170290855045	-0.975159228510472	-0.0138054601602059	-0.00547224971304742
5.1	-0.0128950542378456	0.00442806937624327	-0.101060331464583	-0.971110035266199	-0.100731278273092	-0.970890400678967	-0.0155156144086226	-0.00426485417050179
5.2	-0.0123190445298266	0.00752455737758876	-0.250160262654368	-0.944151667044489	-0.24967449640471	-0.944128821743062	-0.016180178345933	-0.0014117080077342
5.3	-0.0103058865098403	0.0106005134780279	-0.393113475485503	-0.893484784941591	-0.392778893638328	-0.89370049041377	-0.0155276302204019	0.00154143630606177
5.4	-0.00618456489339627	0.0139779989286288	-0.52555683761238	-0.820731359910417	-0.52534852264613	-0.820930423138432	-0.0132798204099848	0.00463467976014532
5.5	0.000886126489395217	0.0118371418032707	-0.643521469666813	-0.73118788862839	-0.643286705031548	-0.731380192921008	-0.00878542689258922	0.00288685311935853
5.6	-0.000157401445580485	0.00892588296594789	-0.750571115418113	-0.62400978337025	-0.750384288830069	-0.624179764972017	-0.0120284611935924	0.0012189401837539
5.7	0.000192072756744419	0.00990091619757676	-0.838108102006829	-0.499642403389077	-0.837981013828566	-0.499859510245633	-0.0133220314090874	0.00384846937293018
5.8	0.00157084980591602	0.0110058626229433	-0.904400149185406	-0.363894572761515	-0.904333626143494	-0.364175528979016	-0.0133477767352774	0.00660988189402923
5.9	0.00384263763307633	0.0132292372514508	-0.949147286504333	-0.221133202761013	-0.949161472811059	-0.221215617482639	-0.0124411519448218	0.010636716178439
6	0.0121466070898471	0.0130167822453127	-0.974731848979462	-0.0724236077749233	-0.974613896657487	-0.0724807249783255	-0.00603504904217252	0.0125930249089465
6.1	0.0140641613371274	0.00558081141023229	-0.973247495571427	0.0815173986661948	-0.973122437845077	0.0813708095473954	-0.00517341831712981	0.00870008684251251
6.2	0.0130162143286964	0.001813167401697	-0.94779447028561	0.230419299685794	-0.947780748214712	0.230219302144036	-0.00590146260036277	0.0083088673280415
6.3	0.0113073398667361	-0.00124345264980746	-0.901018665323771	0.373383801305945	-0.901013754330957	0.373201058962282	-0.00618207890257549	0.00824961124438473
6.4	0.00915997771039327	-0.00286406834145502	-0.833707167639095	0.508485984934449	-0.833675170683575	0.508278110084101	-0.00648248840425312	0.00884113345721156
6.5	0.0079505761292136	-0.00445340007549371	-0.743396045224767	0.633414743449175	-0.743419633334403	0.633213178224929	-0.00553821342509268	0.00905410298774643
6.6	0.00590351767630123	-0.00555751387417649	-0.635478037418879	0.738142404392588	-0.635550112529603	0.737893879963504	-0.00529335078913261	0.00925914426133083
6.7	0.00475619344651184	-0.00607015427572518	-0.515041017498124	0.826966843284024	-0.515141267719861	0.826748466994041	-0.00425861761782833	0.00967654501711417
6.8	0.00391593284386067	-0.00695308568813801	-0.38159450254045	0.897301853599278	-0.381733207619964	0.897132701285113	-0.00320540140533684	0.00955991159328602
6.9	0.00295318474539802	-0.00794714153520935	-0.237341057914612	0.94610535202396	-0.237564062356809	0.945995258164516	-0.00201039063221706	0.00935156895597689
7	0.00153234372728091	-0.00984077588539937	-0.0880915719305278	0.968470005393365	-0.0882974362831101	0.96838044317662	-0.00125905742527365	0.00776111666660256
7.1	-0.00155858233487762	-0.00993652292423404	0.0596368225238096	0.971707908899569	0.0594391989832324	0.971574761240206	-0.00193830213319219	0.00780406052102189
7.2	-0.00334001126256904	-0.009162767754586	0.209418443358786	0.952278569441283	0.209140543702416	0.952241575921682	-0.00121631161029987	0.00834956589913575
7.3	-0.00492082026836347	-0.00838116343689034	0.354546532531564	0.908709430538957	0.354313305324491	0.908732827248969	-0.000257303016720281	0.00849086070001105
7.4	-0.0058657634587091	-0.00712137616757738	0.490132813421071	0.842239547154623	0.48992181861108	0.84228754491994	0.000890114791311151	0.00854395823386964
7.5	-0.00559606034532422	-0.00723801781982959	0.612061672228771	0.759188711874954	0.611893279882845	0.759254803231947	0.00295641109269286	0.00721029825016861
7.6	-0.00797677091215188	-0.00775201887423123	0.725165633629824	0.657486774186744	0.724909184168885	0.65756434034757	0.00244312472760669	0.00511743929838335
7.7	-0.0100492902313954	-0.00566727299404918	0.81914414039948	0.536921612586896	0.81895687694654	0.537134075361413	0.00183861911628872	0.00482876029513122
7.8	-0.0108773679166778	-0.00272484333710825	0.892638202145331	0.403886120122892	0.892532379786811	0.40410806051883	0.00162842731205596	0.00484284522308717
7.9	-0.0103655929269602	0.00174208296253078	0.944850296974063	0.262659154204442	0.944709933748755	0.262835063413234	0.00208607770247411	0.00623828904369685
8	-0.00335722740899363	0.00452858026352496	0.978469764499088	0.113567777455241	0.978441878806257	0.113829491251979	0.00653833997589543	0.00615547400379254
8.1	-0.00115451330646872	0.000334974260311418	0.984295878897305	-0.0422960182823661	0.984320638826035	-0.0420404736123406	0.00616635821131856	0.0006328179937585
8.2	-0.00151886475219602	-0.000765373738632537	0.96554139503436	-0.19412893700438	0.965584382717303	-0.193811726083299	0.00333653184945438	-0.000828161136767634
8.3	-0.00203895065970242	-0.00122748496721175	0.924859497842053	-0.341109409813907	0.924905767362137	-0.340821660424037	0.00079392230408799	-0.00120044644906646
8.4	-0.00347781293601158	-0.000156790184351069	0.86303270362849	-0.481484353694032	0.863127037958712	-0.481280296054376	-0.00241954939132407	0.00017569578078223
8.5	-7.46107028217904E-05	0.00373049784023636	0.776492100052408	-0.61291639819788	0.776541462067519	-0.612764500624064	-0.000801699203674546	0.0042764857487512
8.6	0.00315163758497557	-0.000385046493500557	0.670973516728008	-0.723790762710544	0.671138511242842	-0.723550883502156	0.0004210112008083	0.00162841349378583
8.7	0.00213968216421926	-0.00228039632190456	0.552111007323636	-0.819391327828123	0.552367182862215	-0.819171138997227	-0.00127831363294034	0.00175162664994372
8.8	0.00141693040623583	-0.00299170285662561	0.418972497445812	-0.896655944629264	0.419156218436466	-0.896513267457553	-0.0020606525746376	0.00276982363754783
8.9	0.000338350122975935	-0.00273596385886991	0.273405976161603	-0.95244279900338	0.273583500867095	-0.952269216113805	-0.00227015719299581	0.00450560924987457
9	0.00174811627086934	-0.00134592892282126	0.121648376103044	-0.980374849661214	0.121956725191289	-0.980323719085024	5.55805536024156E-05	0.00680995925520481
9.1	0.00299408842897578	-0.00184912468301575	-0.0289752571393955	-0.989581036468605	-0.0286654170394105	-0.989534455687762	0.00240939885767819	0.0069297690861703
9.2	0.00525457001689365	-0.00166658616483258	-0.183452673157285	-0.975189107673215	-0.183103022325408	-0.975160832498131	0.00588864028719853	0.00709992721692044
9.3	0.00821847966818448	-0.00286097539929654	-0.334094920453826	-0.93525724363645	-0.333740568233275	-0.93522606527374	0.00989110859868992	0.00525633241377382
9.4	0.0110695161197007	-0.00437409871341657	-0.4752730205256	-0.87091153578973	-0.474946191093618	-0.870998287636224	0.0131469563343817	0.0026017106757993
9.5	0.0154581911381088	-0.0110847790002677	-0.602353574492633	-0.789375962700269	-0.602113786230347	-0.789422310770489	0.016796644871101	-0.00522322707297303
9.6	0.00953441888327998	-0.0168287313587471	-0.721648729587028	-0.687927021135397	-0.721330915213907	-0.688062222296646	0.01045523734414	-0.0111394968707793
9.7	0.00559312857148208	-0.0163762493473644	-0.821150790974005	-0.566349885047573	-0.820856015029326	-0.566581639460574	0.00596379078529188	-0.0119582770833316
9.8	0.00295098731895182	-0.0153549317596797	-0.899403264182185	-0.431558954049846	-0.899144165327795	-0.431726573612993	0.00187993182398839	-0.0121789755932872
9.9	0.00105411300753686	-0.0116485909123835	-0.955938383429278	-0.287966619899503	-0.955679237456583	-0.288174553671079	-0.00195846433321105	-0.00982816613020234
10	0.00668901521677513	-0.0104585281700329	-0.993976767352906	-0.135564074941433	-0.99381502455824	-0.135931281689167	0.000215371931273257	-0.00906669059282982
10.1	0.00457657163585317	-0.0154601252394792	-1.00221554602247	0.0245345314848568	-1.0021466419821	0.024095443951276	-0.00499911875965776	-0.0124152842074143
10.2	0.00123695767571484	-0.0151505785136358	-0.985570185949002	0.180285476183445	-0.985442209171279	0.179847435202374	-0.0103990495238478	-0.00984012215517535
10.3	-0.00117577418970705	-0.0136218750517298	-0.946245964660507	0.331590936285794	-0.946259044373384	0.331038865039926	-0.0141658375516358	-0.00611596894947611
10.4	-0.00306759733172389	-0.0107164248527285	-0.884920195697098	0.476503839067894	-0.885056127406022	0.475980347477452	-0.016901377901025	-0.000889018018753906
10.5	-0.00027963323590728	-0.00674207523686001	-0.797112170053321	0.612698222195133	-0.797288450716692	0.612256356328768	-0.0145807709597091	0.00503250886658619
10.6	0.00272689136413076	-0.00846570082349192	-0.689763333532188	0.726755596399034	-0.690040723926421	0.726419252669142	-0.0119750555376553	0.00615627300989597
10.7	0.003475799768889	-0.0104345785985706	-0.568745842711025	0.825135628855832	-0.569052039164183	0.824820259314983	-0.0102860136620815	0.00744461865515541
10.8	0.00288489264141895	-0.0126160223894257	-0.432905445623088	0.904458245901568	-0.433263434928362	0.90415455168304	-0.00904971341215221	0.0085440948166016
10.9	0.00171597309027644	-0.0135316099145427	-0.284390965868339	0.961444912063739	-0.284789358194947	0.961321276453324	-0.00747626388863119	0.0102614832447624
11	0.00102315823244606	-0.0152154018369506	-0.130226458865321	0.989438252853495	-0.13067041689164	0.989348626040768	-0.00491632557910163	0.0106322304704267
11.1	-0.00141645164438237	-0.0157713479348155	0.022506223665132	0.998656609859231	0.0220097766317569	0.998671718958521	-0.0035211991318071	0.0114387126238461
11.2	-0.00296332337971035	-0.0156853361589505	0.17879336514564	0.983863269512132	0.178328840288116	0.983939616483219	-0.000695013974364114	0.0120617486651871
11.3	-0.00437945862007343	-0.0150875427108824	0.330889300822272	0.943140306852901	0.330423591707318	0.943282155769216	0.00243296809675946	0.012121610690467
11.4	-0.00489315993079731	-0.0133771022811696	0.473068184948769	0.877703884931931	0.472659596490297	0.877821748817374	0.0062104631912436	0.0122621612784079
11.5	-0.00247005033237542	-0.0156611649722451	0.600594885627394	0.795699893540145	0.600273116483613	0.796007682388063	0.01184622313005	0.00767055228846114
11.6	-0.00770845664525928	-0.0182858236172126	0.720614022944228	0.693201641627555	0.720397252267089	0.693536369545457	0.00995382252162562	0.00316854720872901
11.7	-0.0115511199189612	-0.015991606100275	0.820043588469435	0.570464062895924	0.819839964682159	0.570777341405608	0.00930967658330732	0.00199769639363401
11.8	-0.0145037414263504	-0.0129026077318522	0.897714748674783	0.434692650565681	0.897534913976595	0.435151783259077	0.00856638397698151	0.000862784815011359
11.9	-0.0157122726673456	-0.0064150602238824	0.953307665946982	0.290961136677319	0.953204501953731	0.291418181003756	0.00797925800484344	0.00211848537364168
12	-0.00872342498810852	-0.00283028308164026	0.990817837932296	0.138616276903553	0.990792494748701	0.138987439819536	0.0140090418983666	0.000813515832212677
12.1	-0.00883488381811442	-0.00617848165391284	0.997899654329994	-0.0209498466906665	0.99783341857836	-0.0205582188875971	0.0117522724089478	-0.00596896416691686
12.2	-0.00983631986209384	-0.00602805093512791	0.980336591505996	-0.175638959277338	0.980358956273451	-0.175337270777371	0.00872242854089399	-0.00834325042262331
12.3	-0.0107459629234058	-0.00563161013129432	0.940388170784445	-0.325384360377516	0.940513974033619	-0.325075713290674	0.00563143277884668	-0.0102743488431244
12.4	-0.0128564897348487	-0.00392106128521218	0.879284605387324	-0.468726087929336	0.879354733069113	-0.468352370258709	0.00141514600918969	-0.0104058004294087
12.5	-0.0104582187847826	-0.000169455656623658	0.791238389599875	-0.603034187589573	0.79159170024508	-0.602646470630986	0.000802066091932632	-0.00854858215557777
12.6	-0.00938814860627828	-0.0026397311867487	0.68509751493921	-0.714434378397019	0.685356127516019	-0.714195381696904	-0.00143828074867375	-0.0112177299353542
