# GHZ S RI R 50
0.2	-0.000401834822022233	-0.000115281122461384	0.948644313475323	-0.308052236632681	0.948422145746696	-0.308026760865338	-0.000438086820002299	2.74593629370295E-05
0.3	-0.000444107951284706	-2.75743333934505E-05	0.88856374106309	-0.451647159519596	0.888407649583809	-0.451551784588321	-0.000560255722855288	-1.92756745582688E-05
0.4	-0.000203616020944189	5.26797194776258E-06	0.806966653543517	-0.583774333729213	0.80697842976541	-0.583799438190367	-0.000432193337143588	2.21443902510914E-05
0.5	-0.000250351574304948	-0.000209488980907001	0.70626010455626	-0.701756589674363	0.706105227353742	-0.701655175101757	-0.000434488709905119	-0.000184835999488481
0.6	-0.0004254886852003	-1.12531583214867E-05	0.588497533410774	-0.802728808029181	0.588378384258845	-0.802567209260085	-0.000736801596420565	-2.56453504369054E-05
0.7	-0.000275644831254779	0.000286371953576209	0.456433143336024	-0.883973706790832	0.456414407737142	-0.883861301465948	-0.000607001063990503	0.000174502524624778
0.8	5.32140877592743E-05	0.000316107142737706	0.313515109171641	-0.94377902031709	0.313483796397721	-0.943589463018006	-0.000474945463326465	0.000362497778778685
0.9	0.000406065329211058	0.000418647718596298	0.163238922903042	-0.980577991240831	0.163173950444402	-0.980486179779339	-0.000183234340940118	0.000438748616932886
1	0.000875142052086494	-0.000257071710810412	0.00915306685618078	-0.993879122365185	0.0091014595525759	-0.993847694999886	0.00031603437755106	-0.000284431174788495
1.1	0.000430267781971479	-0.000575406082015752	-0.145365568873995	-0.983111245255091	-0.145381304247792	-0.982980926823596	-0.000528548670990967	-0.000706960830341952
1.2	0.000703663412689963	-0.00134030500259988	-0.296237375337615	-0.948219904026053	-0.296161088886324	-0.948193836005864	-0.000488460220905355	-0.000364886075163205
1.3	0.000682745815896292	-0.00303987916095592	-0.439630802338393	-0.89051409789434	-0.439607798283993	-0.890507487729801	0.000269686895523901	6.52430611966631E-05
1.4	0.000261612115313544	-0.00489921685425733	-0.572185723776433	-0.811489735726997	-0.572161581968712	-0.811468119060384	0.00142164940021045	-1.89370759049888E-05
1.5	-0.00065308700624653	-0.00551653387551722	-0.691507263824385	-0.712573145141786	-0.691405610294771	-0.712488263906782	0.0021177132259168	-0.000390975023893121
1.6	-0.000535478205933196	-0.0051272325387334	-0.793242379864284	-0.596159967968633	-0.793168418949696	-0.596100023073296	0.00282649684554192	-0.000305163384867355
1.7	-0.000554664880185821	-0.00527777901514196	-0.875459173365751	-0.4664069572474	-0.875623342775297	-0.465891626741739	0.00340357703420304	-0.00123706598614752
1.8	-0.00102474496071608	-0.00536150066320791	-0.937316787058277	-0.324546721856861	-0.937205687313819	-0.324545319599373	0.00317143695414769	-0.00239667761472434
1.9	-0.00152344026896225	-0.00542380764939293	-0.976179313653482	-0.175493206436282	-0.976272225604101	-0.175006307191486	0.00261676354890954	-0.00360079238821537
2	-0.00299087515717904	-0.00542033698473421	-0.990940781134065	-0.0211798933670779	-0.990952700760871	-0.0211341200459749	0.000730630554032238	-0.00466143585197857
2.1	-0.00354258918145116	-0.00403017640531352	-0.98210703734426	0.132324513515165	-0.982145099193332	0.132361517522245	-0.000389644395926979	-0.0035818462413732
2.2	-0.0038781650931657	-0.00360155527066304	-0.949874183216142	0.282992259956871	-0.949799253619437	0.283055022357928	-0.000410720768398091	-0.00334865714394236
2.3	-0.00445366523335901	-0.00302636654707202	-0.894578610457679	0.426370790366769	-0.894197352187093	0.426883553818876	-0.000665943974898676	-0.00359909579343823
2.4	-0.00499451615023282	-0.00244306281209023	-0.816541275642865	0.560938430273241	-0.816807046865151	0.560353336793638	-0.00103170599055856	-0.00416964688638069
2.5	-0.00595592307613941	-0.00197770486961588	-0.72008819943027	0.680188077084801	-0.720300816740602	0.679678844393957	-0.00231863473445116	-0.00564181830835413
2.6	-0.00670989105248244	-9.88568188372153E-05	-0.606591167627101	0.783662378173932	-0.606484913378253	0.783480011094603	-0.0041516319615086	-0.00489906953647771
2.7	-0.00618300540116755	0.00145605809712855	-0.476972120899827	0.868590381757915	-0.477420242155435	0.868183333865846	-0.00475574546175486	-0.00388939226600884
2.8	-0.00508088998199848	0.00247156735115426	-0.337651271101609	0.931486390691351	-0.336984471527078	0.931645844563868	-0.00492392784326199	-0.00295534395538409
2.9	-0.00347811473633905	0.00291045221447548	-0.188686543279434	0.972532115867222	-0.188717632749175	0.972444794325239	-0.0043772691804084	-0.00192953670010502
3	-0.00195932868159861	0.0029570163678142	-0.0349536068838379	0.990650206007472	-0.0356541602498237	0.990490569133988	-0.00369556885757003	-0.000871175704094372
3.1	-6.28277569459227E-06	0.0025062441620504	0.118310367152692	0.98404625803622	0.118900905995711	0.984029036969243	-0.00200924516911705	-0.000239391056252619
3.2	0.00116269038163375	0.0013509842196524	0.270055853706882	0.95343266381879	0.270001133343422	0.953372321780924	-0.00102891587385969	-0.000485303522795075
3.3	0.00214536668684681	0.000157494277089576	0.414787291365153	0.899984139348834	0.414650174502378	0.899969792147353	-9.39147438783877E-05	-0.000843421151852715
3.4	0.00260177485503372	-0.00131682873036781	0.54950363462913	0.825033387587704	0.549341242745926	0.82515114686868	0.000672118751070034	-0.00183212551339118
3.5	0.00250616845215531	-0.00238473437849596	0.671484207637053	0.729656603078093	0.671404559065364	0.729695349536114	0.000414042707486623	-0.00229222622411118
3.6	0.00286309101563558	-0.00331091570693559	0.775739563511503	0.616656436617032	0.775980621619021	0.616207830922041	0.00123136254522886	-0.00229525551952089
3.7	0.00274725585891258	-0.00487135736120554	0.862280715780592	0.48840472187524	0.862162360804928	0.488547799312415	0.00187093414725406	-0.00323153027423649
3.8	0.00195692437781035	-0.00623168123031308	0.927603649362615	0.349228417001775	0.927660558720638	0.34884911574432	0.00202039295739743	-0.00446241625714742
3.9	0.00108116012589483	-0.00756351783349014	0.970927976066642	0.199553438497389	0.970689530795855	0.200221271708916	0.00136472251395809	-0.00634268628521868
4	-0.00115100764760876	-0.00854234973005208	0.989445698603699	0.0469006829117924	0.989406802232955	0.0470035540884778	-0.000817151573281385	-0.00788373049266551
4.1	-0.00270713490742567	-0.00821625630448116	0.984869406198439	-0.106529729301178	0.984684908886051	-0.10640263115982	-0.00248544707280737	-0.00738996955753581
4.2	-0.00440381292797664	-0.00818734900089693	0.956341424139903	-0.25881954482675	0.956376377162732	-0.258165669810579	-0.00346048392984399	-0.00736195112087534
4.3	-0.00614519736296561	-0.00786578292547532	0.904852960674131	-0.403636030235384	0.904717074475285	-0.403524886103197	-0.00448784519726332	-0.00753115339393061
4.4	-0.00778972446896802	-0.00719621931116147	0.830946640819875	-0.539063973455969	0.830781465661928	-0.538930637282854	-0.00533012617566086	-0.00791299554560643
4.5	-0.00981911925640042	-0.00684374944796792	0.737638468925793	-0.660811773572354	0.737449568020234	-0.660638802297476	-0.00725104139639292	-0.00925981626803936
4.6	-0.0121165744752425	-0.00487099420705751	0.626231482609742	-0.768363127527148	0.626572997441466	-0.767664379982102	-0.0102173192859416	-0.00873214888635203
4.7	-0.0135003927343576	-0.00283760370581047	0.499571127403384	-0.85630684671157	0.49958737886665	-0.855950641759688	-0.0124291799715936	-0.00777437386619138
4.8	-0.0145269987278576	-0.00022062434585267	0.360217021922471	-0.923333569864484	0.360438631893547	-0.923016695168694	-0.0142019347380715	-0.00635429609457752
4.9	-0.0144963476492469	0.00238193422779094	0.213183369119663	-0.967444340200425	0.212963134385893	-0.967452305905718	-0.0151640865250259	-0.0046619765880387
5	-0.0138506826216556	0.00496933040962255	0.0604667972347738	-0.98962834599372	0.060644133462335	-0.989382351393571	-0.0155840327040829	-0.00249255484698623
5.1	-0.0118143187336213	0.00712724977089344	-0.0946269104599772	-0.987115940616903	-0.094294528457233	-0.98689015966953	-0.0145001516117097	-0.00026502842505114
5.2	-0.00961493115072397	0.00858230467317685	-0.246900686869285	-0.960165148704233	-0.246407806961451	-0.960138354062017	-0.0131740761232594	0.000896025484086667
5.3	-0.00728748782442293	0.00940523256616506	-0.392883649785535	-0.910251912936115	-0.392542300586806	-0.910468602793257	-0.0119697369916863	0.00128759309181001
5.4	-0.00509840860429493	0.00992252970646359	-0.529715337299035	-0.838594647765806	-0.529502075225597	-0.838795931235019	-0.0117491917797234	0.00105948777576842
5.5	-0.0035450595686971	0.0109158953096232	-0.65446920064141	-0.745652141436623	-0.654229811566658	-0.745847694926898	-0.013335633633115	0.00240023693638614
5.6	0.00014276527143335	0.0118740934209796	-0.761552215592443	-0.634221784144041	-0.761362378226191	-0.634394213877601	-0.0118989004571746	0.00502222386407426
5.7	0.00314955361448355	0.0108999841673057	-0.850603203535731	-0.508403613705973	-0.850473882371007	-0.508623960105294	-0.010343921526629	0.00579778180982985
5.8	0.00559871142561022	0.00964273514726685	-0.919184194473602	-0.370039734748296	-0.919116526461571	-0.370325292413408	-0.00914384631140248	0.00606428657316191
5.9	0.00759446402124616	0.00740927106606926	-0.965591187246005	-0.222542032464929	-0.965605810817773	-0.222625794148268	-0.00851831974795754	0.00529817392499191
6	0.00745491875553836	0.00519939384615341	-0.987468359219914	-0.0696013394732498	-0.987349118827945	-0.0696596402619239	-0.0111137629865952	0.00494204326272954
6.1	0.00812534898263835	0.00476229691788125	-0.986193360176359	0.0836188778720908	-0.986066780188915	0.0834701961259981	-0.012081143698264	0.00850687447491469
6.2	0.00891875076307583	0.00340576486540925	-0.961457481739419	0.235825585628743	-0.96144397034106	0.235622575351944	-0.010998000195427	0.0111021157803118
6.3	0.00938709113597518	0.00166913961020348	-0.913110136867431	0.382408681526925	-0.913105847220177	0.382223180093946	-0.00888660024219387	0.0127813224022649
6.4	0.00957167398792398	-0.000707777010752784	-0.842181682600407	0.51949218600437	-0.842150321812678	0.519281387907	-0.00640836073110338	0.0127435660829918
6.5	0.00872348286761349	-0.00339911705100274	-0.751586730418607	0.642999486575697	-0.751611028559662	0.642795399636104	-0.00483917138109197	0.0117686546474501
6.6	0.00758949337202827	-0.00569507608124906	-0.643136239200769	0.752710067365836	-0.643210445294457	0.752457724929697	-0.00342544475863107	0.0107242406847683
6.7	0.00565061001369584	-0.00765802348584128	-0.517890846524729	0.843603667222711	-0.517994134167414	0.843382443891176	-0.00301962836925105	0.00942676863380105
6.8	0.00366943067530801	-0.00870413300321035	-0.380304845078737	0.913507036932667	-0.380446905757707	0.913336456087215	-0.0031704581968538	0.00892043552295375
6.9	0.00169923915754302	-0.00932679988993058	-0.234072634021917	0.960976336383215	-0.234299520525282	0.960866256242643	-0.00317304487470071	0.0089803402092063
7	0.000130835710601266	-0.00923026768179868	-0.0823811685730457	0.986423053719182	-0.0825913818592733	0.986333440528582	-0.00272416408516891	0.00960187147856295
7.1	-0.00106261104786197	-0.00934883460299155	0.0728291310802673	0.986968878480518	0.0726265782268878	0.986836020123807	-0.00137241994161106	0.00975251801950044
7.2	-0.00241761660353296	-0.00931356147973723	0.225127240137381	0.963025048379757	0.22484489281712	0.96299124360248	-0.00015451883955942	0.0095764347423514
7.3	-0.00391072205122088	-0.00907952442299611	0.371593894930709	0.91619471574644	0.371357834514134	0.916221575157657	0.000960469652049861	0.0092153043155237
7.4	-0.0052477484066973	-0.00851625605226409	0.50933827456772	0.847621881832208	0.509124865200854	0.847673592428622	0.00175246021697269	0.00858258864356685
7.5	-0.00669900021195314	-0.00746870647909376	0.635690796056568	0.757544468184519	0.635521380530314	0.757614832551922	0.00224167217058203	0.0085292074910367
7.6	-0.0067107742394116	-0.00609546834708349	0.74460603884302	0.648634511925939	0.744348928397488	0.648717887345891	0.00431047483280286	0.00837235487922466
7.7	-0.00659163536207418	-0.00524292657556296	0.83561801708252	0.525288111112225	0.835433408341901	0.525505766178382	0.00623062334254961	0.00685960966825664
7.8	-0.00613977283266304	-0.00447533466180188	0.906887057953592	0.389163160686808	0.906784858100951	0.389388750181457	0.00757775373886859	0.00432112413537456
7.9	-0.00562615939236088	-0.00399297183182375	0.956231700311587	0.243386374074047	0.956094383947187	0.243566418324583	0.00762932418245887	0.000872460476304713
8	-0.00629446774274537	-0.00385446823545855	0.980823124534712	0.091696468534945	0.980801088346047	0.0919587561767431	0.00405044711686286	-0.00232684399476088
8.1	-0.00565344739735222	-0.00190000296602286	0.983125245138905	-0.060313799568311	0.983154677338454	-0.0600588112847077	0.00123723182437504	-0.00112299072536229
8.2	-0.00452236288612542	-0.00115947348889779	0.962132268148853	-0.21209387608024	0.962181153684905	-0.211777399192278	-0.000273045210796281	-0.000288592678619537
8.3	-0.00365615314401754	-0.000395568748843267	0.917429280837302	-0.358967054912889	0.91748115444463	-0.358680443747596	-0.00139407424670333	0.00096790907448628
8.4	-0.00212590691075283	0.000136848219659942	0.84995801360849	-0.49684568755504	0.850056057670458	-0.496644330756793	-0.00137508561547098	0.00200937688438947
8.5	-0.00148735159311742	-0.000397317670897024	0.762972641863979	-0.621381581217604	0.763024042635599	-0.621231257215807	-0.00256066173847933	0.00152787148119377
8.6	-0.000419093945833808	0.00065438525611578	0.65770833138271	-0.73302377053762	0.657876840172544	-0.732787113167298	-0.00375665806980467	0.00447731177062817
8.7	0.00142237464864194	0.000492738587029956	0.535370358434334	-0.826194659754424	0.535629512536802	-0.825979883474624	-0.00232532291752848	0.00684710593910233
8.8	0.00305772871492128	-0.000192964385784277	0.400513094624305	-0.898764141289921	0.400698259147394	-0.898625585429057	-0.000129066102720512	0.00819018858720233
8.9	0.00468246666628898	-0.00115990441672936	0.256621843042029	-0.949466120145632	0.256800707672942	-0.949296592751238	0.00310820968216984	0.00857695344350709
9	0.00631206112909035	-0.00306593245386851	0.106519876518305	-0.978545028818639	0.106827842785597	-0.978498704224208	0.00613252215139753	0.00706713674114982
9.1	0.00775986579534713	-0.00522514646887005	-0.0475647045008804	-0.982692709764989	-0.0472559652120769	-0.982652305861983	0.00890950222718745	0.00498476844907909
9.2	0.0083037725097736	-0.00810125340651654	-0.199185297800005	-0.962586873767547	-0.198838479105264	-0.962565137693394	0.0105566022697638	0.00147030236569528
9.3	0.00778848281692777	-0.0101976186574042	-0.34551336652885	-0.919894978614694	-0.345162305627947	-0.919869814448019	0.0106233629474604	-0.00178145628401328
9.4	0.00725329195716794	-0.0118993627533915	-0.483754107807399	-0.8557486958737	-0.483431610353973	-0.855839484431502	0.0097676233529142	-0.00489319415241754
9.5	0.00574034431569532	-0.0120703186398172	-0.61155865107351	-0.769695049248397	-0.611322191374175	-0.769745579151642	0.00665893829457602	-0.00573151528758118
9.6	0.00677923587445054	-0.0123968310070786	-0.722401462880873	-0.664692215445733	-0.722090937387222	-0.664830843165067	0.00723168487951428	-0.00532889403219199
9.7	0.0064997122021282	-0.0137496234347392	-0.816208914131183	-0.545044887849613	-0.81592233820969	-0.545277240054094	0.00683522011918395	-0.00756823692122326
9.8	0.00573532563900084	-0.0146002902877614	-0.890893925386203	-0.412154393789119	-0.890641320591348	-0.412322901203234	0.0050901451058316	-0.00966294492853942
9.9	0.00500900298716628	-0.0151742374232037	-0.94427174958276	-0.268623222293275	-0.944020107988005	-0.268831601407909	0.0025798098201372	-0.01201686417442
10	0.00270140851379216	-0.015388301753242	-0.973039638662052	-0.118568421346585	-0.972886739186698	-0.118929452761757	-0.00362207301822386	-0.0130173060884921
10.1	0.00245620028033049	-0.0136308464677294	-0.97971849535579	0.0324299477450123	-0.979654822212401	0.0320000454290038	-0.00723700483945752	-0.00913292431712308
10.2	0.00263800354068336	-0.0135092760582201	-0.963350773514385	0.18408905000381	-0.963228885010088	0.183659277113319	-0.00875209600216472	-0.00647850259351763
10.3	0.00249308182739566	-0.0133542551905039	-0.922918453398908	0.331579834780651	-0.922935487764273	0.331039987724008	-0.00978272148763091	-0.00425479568371322
10.4	0.00264399548741371	-0.0139207588798581	-0.85942889523635	0.470318587486437	-0.859564853051329	0.469809211506595	-0.0101141322037686	-0.00307086106411682
10.5	0.00164641620603253	-0.0151194069345709	-0.776692792789111	0.596196896242145	-0.776864190547786	0.595766453408932	-0.0120019771475469	-0.00308209824038354
10.6	0.000231812663804304	-0.0153865389646908	-0.675754653307784	0.710059124623606	-0.67602557347822	0.709729714116209	-0.0144723238927863	-0.000529547460921098
10.7	-0.00120461150956887	-0.0149935190939095	-0.557315450632944	0.806386216545975	-0.557614561347409	0.806077370418406	-0.0155290152392456	0.00324949617054501
10.8	-0.00197019563756788	-0.0143394322336135	-0.425552042136988	0.882743521553082	-0.425901074822747	0.882445741750292	-0.0147166332548339	0.00749011629020621
10.9	-0.00234392273411659	-0.0136929046329856	-0.284279415951558	0.937688802558265	-0.284667926365412	0.9375653447393	-0.0126170111178972	0.011005791632502
11	-0.00259900307068084	-0.0134522929030124	-0.136005515647761	0.971975034418731	-0.136441387865191	0.97188333236737	-0.00979234848745414	0.0138298762171241
11.1	-0.002476624526426	-0.0134336851501747	0.0176279194619643	0.981043130365829	0.0171402107136977	0.981055744582203	-0.00557537102175461	0.0156380834448509
11.2	-0.00272531733593911	-0.0139481835211445	0.1693102764677	0.966000547676382	0.168854234744586	0.966072572779479	-0.00119469234393322	0.0158559328784074
11.3	-0.00317717452913889	-0.0143040371912644	0.316590655966053	0.9282794018178	0.316132469719173	0.928414594567164	0.00319753176095744	0.0149138521691562
11.4	-0.00394854127820441	-0.0149907573067815	0.456832788631329	0.868841297909232	0.456429361363998	0.868953195432157	0.00682341146985711	0.0126198699620291
11.5	-0.00569491879924744	-0.0144168247370069	0.587396902247323	0.786715863101009	0.587078432614494	0.787017330172257	0.00811076275869117	0.0111052518585869
11.6	-0.00554828670721502	-0.0138739541914789	0.701049378960703	0.68543269130833	0.700834166418705	0.685759169519853	0.0118204143184292	0.0101223956220493
11.7	-0.00610404210263293	-0.0139683982810814	0.798578325326497	0.569065754895146	0.79837497191629	0.569370992242712	0.0149809012448102	0.00664822284147547
11.8	-0.00697880158780371	-0.0139146867716004	0.87759577752191	0.438553882079555	0.87741326838294	0.439003246466078	0.0168450809005978	0.00208244045914298
11.9	-0.00720015521345624	-0.0140770477884512	0.935557232534377	0.296690342536316	0.935450763835737	0.297139265352232	0.017533675996643	-0.00422067267428955
12	-0.0107495879635927	-0.013943459924825	0.968897307066657	0.147685533463619	0.968868023082089	0.148048804218105	0.0120294321851548	-0.00955464590834796
12.1	-0.0119283760831499	-0.0121063249587972	0.980456181035855	-0.00302000925259088	0.980384237707483	-0.00263653711163809	0.00799766766302294	-0.0108789759641706
12.2	-0.0135331978570251	-0.0106856016894081	0.96876362253243	-0.155364308035481	0.968780224164337	-0.155066751002236	0.00406033887746763	-0.0115810735909468
12.3	-0.0149385571904081	-0.00821870690695679	0.932689254375075	-0.304116107164685	0.932807805307237	-0.303809651115364	0.000416867625334516	-0.0110051737125676
12.4	-0.0153510626173244	-0.00553098859374873	0.873646878439455	-0.444892655983817	0.873708973369874	-0.444523715697998	-0.00191498332886171	-0.00993750165472986
12.5	-0.0155704399967551	-0.00347171823064934	0.79490016213566	-0.573403616690756	0.795238078853131	-0.573012606847249	-0.00519295628139432	-0.00977374957382192
