# GHZ S RI R 50
0.2	-0.00014639506717854	-0.000163951693573439	0.949188343340899	-0.30802309443681	0.948966057361107	-0.307997649283531	-0.000161745070270656	-4.43361354240623E-05
0.3	-0.000253464541660629	-0.000141629936664596	0.889186821469498	-0.451701360714236	0.889030616769088	-0.451605966930223	-0.000343271372560619	-0.000184066502082177
0.4	-0.000158588265865237	-0.000130908488108718	0.807704626720731	-0.583963152858429	0.80771641836437	-0.583988271873841	-0.000369300917782883	-0.000191423878333682
0.5	-0.000299934101278716	-9.0804813675493E-05	0.707014634445049	-0.70232276784133	0.706859598638499	-0.702221278351963	-0.00047181424200199	-0.00014742176174952
0.6	-0.000240094952391171	4.36594149810701E-05	0.588958853168608	-0.803390965750196	0.588839610593777	-0.803229233666752	-0.000515564554280534	-7.75270211225448E-05
0.7	-0.000195274047613861	0.000213550822881202	0.456838379257955	-0.884689454537945	0.456819624594472	-0.884576956946768	-0.000493972186078984	-5.79949157242136E-05
0.8	1.31039610282601E-05	0.000219083678812039	0.313812654269327	-0.944654686359955	0.313781311165237	-0.944464952983067	-0.00051782578044855	5.3369605048711E-05
0.9	0.00013885937970776	0.000248590952138858	0.163268831933915	-0.981632335074947	0.163203804435564	-0.981540417716678	-0.000538104338449512	2.17636531739584E-05
1	0.000141181586277818	9.5021693242251E-05	0.00875247343180121	-0.994731466080619	0.00870083496863501	-0.994699990674641	-0.000629242447062496	-9.67371649568456E-05
1.1	0.000366456592522686	8.28658857211948E-05	-0.145641379632598	-0.983829166911575	-0.145657104888214	-0.983698747399919	-0.000780946797095812	-6.11739461061869E-05
1.2	0.000787259012823549	-0.000913830957635754	-0.296694333823086	-0.949036020385751	-0.296617972033581	-0.949009943152063	-0.00048831777853691	0.000134286642405415
1.3	0.00108831000548401	-0.00265284499468879	-0.44036207849725	-0.891223276021215	-0.440339049944048	-0.891216667383052	0.000747656385527396	0.000537611802316893
1.4	0.00112378917621909	-0.00482241410646364	-0.57308002501468	-0.81187474722626	-0.573055851949196	-0.811853124858858	0.00248689832162551	3.90885158544996E-05
1.5	0.00083397588890919	-0.00588545334777031	-0.692091289212089	-0.712830782773639	-0.691989554629414	-0.712745875490956	0.00392833904131271	-0.000935279732480913
1.6	0.000233525012810405	-0.00657995740975553	-0.794164641106581	-0.596648229295248	-0.794090593480988	-0.596588234333103	0.00385134770936039	-0.00220233439633468
1.7	-0.000664953902864227	-0.00641158878543322	-0.876654220627376	-0.46653106507408	-0.876818339237597	-0.466015081443575	0.00335228555891342	-0.00294099519500144
1.8	-0.00155296050536356	-0.00602661826303766	-0.938476702589673	-0.324293789744524	-0.938365488473512	-0.324292455330798	0.00251803621814852	-0.00361734130865367
1.9	-0.00238676930397904	-0.00538698023409047	-0.977118892424064	-0.175090316360112	-0.977211608054465	-0.174602945428648	0.0015013285046545	-0.00398210250896818
2	-0.00291690362101066	-0.00447324732176836	-0.992184243364511	-0.0208496806528691	-0.992196161408799	-0.0208038459552534	0.000651507454114902	-0.00395680119136982
2.1	-0.00317138611623876	-0.00410602799820715	-0.983307399014796	0.133463028767791	-0.983345476254884	0.133500120061691	-6.57563871451639E-05	-0.00401223229572004
2.2	-0.0040554707945135	-0.00369359737605961	-0.950571254819535	0.28436502663725	-0.950496174385321	0.284427771750388	-0.000731192729846475	-0.00386801184874859
2.3	-0.0048973690271015	-0.00288610042028559	-0.894966970210549	0.427765446877109	-0.894584781250712	0.428278282132093	-0.00138623023859784	-0.0038417668224921
2.4	-0.00579173912380862	-0.00187947385712553	-0.816846343501087	0.562412775282017	-0.817113021859581	0.561827319901952	-0.00222451604995011	-0.00380866650812936
2.5	-0.00619914082146339	-0.000136060013012277	-0.719931708321111	0.682318417066162	-0.720145466666463	0.681808846286892	-0.00284346058110485	-0.0036809708067029
2.6	-0.00562213242606063	0.00115509914906883	-0.605455937348834	0.785330000660427	-0.605349969281569	0.785147313132769	-0.00299230900972171	-0.00347846343417745
2.7	-0.00486730878176747	0.00189083285620661	-0.475674214027866	0.869792514467711	-0.476123234280297	0.869386066550222	-0.00316450235491786	-0.0034497045344288
2.8	-0.0039781322644986	0.0022374211933115	-0.336199991630458	0.932472904903023	-0.335532627028029	0.93263128398065	-0.00348952883061643	-0.0033797640537209
2.9	-0.00277790012207372	0.00238304470789482	-0.186842496704205	0.973375122650019	-0.186873774830439	0.973287820984535	-0.00337579671314428	-0.00278886524799383
3	-0.00145564585880107	0.00216419858091202	-0.0325606080544651	0.990481014401638	-0.0332613664619267	0.990323104279986	-0.00290949503615772	-0.00213121507473258
3.1	-0.000284253109735106	0.00165132157559845	0.119918796847292	0.983298794045432	0.120508978618826	0.983280577891998	-0.00213685648523518	-0.00171713734539427
3.2	0.000545078765863211	0.000958295969546475	0.271530195590481	0.952628583263599	0.271475396036981	0.952568354302768	-0.00162619866195918	-0.00150732808861853
3.3	0.0014409922975749	0.000158794078171862	0.41623771043999	0.898829900966102	0.416100628553702	0.898815809263549	-0.000870890849489762	-0.00142142208674749
3.4	0.00195805764820744	-0.00081799851968181	0.550670186644899	0.823209133722111	0.550508173027203	0.823327114174775	-5.5882508524288E-05	-0.00181624211215118
3.5	0.00268221725447091	-0.00188376884911503	0.671405746159583	0.727740725203747	0.671326263528775	0.72777951407052	0.000642780233492144	-0.00227260359319361
3.6	0.00253158912267901	-0.00346817402879866	0.775713565258634	0.615405580404228	0.77595399313641	0.6149571020317	0.000927632162600907	-0.00310388334116864
3.7	0.00194261951935241	-0.00467366502095764	0.862162139762552	0.486932787297814	0.862044060223624	0.487075891084443	0.000954735259443405	-0.00371890596896135
3.8	0.000953109179987749	-0.00559275359957357	0.926998104205188	0.347716485647741	0.92705449060119	0.347337536129129	0.000784012983797029	-0.00443732807613534
3.9	-5.76063292792422E-05	-0.00615941530042142	0.969732934423434	0.198514588493168	0.969495344549506	0.199181679036846	-6.30729894674529E-05	-0.00536440878994398
4	-0.00101922224710991	-0.00618506229114266	0.988848819577541	0.0466755845049351	0.988809967451348	0.0467784003763873	-0.000754593163715846	-0.00573832748548234
4.1	-0.00186805742256046	-0.00692138437289496	0.984353635753144	-0.107518073371501	0.984169347335866	-0.107390834046166	-0.00147527292651555	-0.00645805004111541
4.2	-0.00366308799511211	-0.00728213279211878	0.955278694524111	-0.259676615332775	0.95531434849158	-0.259023308554413	-0.00254102529719783	-0.00697995652519328
4.3	-0.0055374773447118	-0.00733061915629939	0.903643811392448	-0.404087058886213	0.903508152903821	-0.403975893960536	-0.00375786542000774	-0.00758460672472455
4.4	-0.00786085263912556	-0.00677014172396074	0.830060167485053	-0.539289587900935	0.829895186295511	-0.539156223284878	-0.00538917766076744	-0.00804723475633922
4.5	-0.00986541463698476	-0.00521938226418386	0.736453880545612	-0.661879993091818	0.736265288998174	-0.661706748887706	-0.00721813906821365	-0.00798188248426445
4.6	-0.0111599434115745	-0.00358692800617787	0.623985581841421	-0.768515141029356	0.624327943340846	-0.767817943517615	-0.008883115007252	-0.00782814663703773
4.7	-0.0123553488894596	-0.00200422101651317	0.497562301392745	-0.855623350784216	0.497579026271348	-0.855267744457215	-0.0107727377717684	-0.00753066585136219
4.8	-0.0133167774339954	0.000116060164939565	0.358544037566088	-0.922287833183904	0.358765670537565	-0.921971727871848	-0.0124754929906573	-0.00681725803617771
4.9	-0.0134960252143941	0.0022989864997376	0.211489384121156	-0.966313887254351	0.211269464507873	-0.966321527464528	-0.0137266313676887	-0.00572937377301812
5	-0.0128693725640698	0.00450396452040485	0.0585063373241746	-0.987173415195824	0.058683662241536	-0.986928381430755	-0.0142458619317844	-0.0041062228175104
5.1	-0.0116950939330988	0.00613127760369744	-0.0948950465008083	-0.984183157322889	-0.0945635099643433	-0.983958218516901	-0.0142755570846793	-0.00262207262681348
5.2	-0.010337929620564	0.00799556329705971	-0.246508118804674	-0.957668360332123	-0.246016483151936	-0.957641753801448	-0.0141652644647163	-0.00101470237146619
5.3	-0.00844652830922701	0.00965139729494187	-0.392145307612565	-0.907879873338315	-0.391804866279625	-0.908096113488642	-0.0136487268503057	0.000488371044272446
5.4	-0.00596218546862319	0.0114135024701811	-0.528404389909809	-0.835956258316725	-0.528191818987854	-0.836157011694498	-0.0130876357536163	0.00192021348326072
5.5	-0.00232363348939063	0.0121822066619961	-0.651398924969984	-0.743697418548658	-0.651160178410016	-0.74389203761619	-0.0121126464738615	0.00311974444955505
5.6	0.000323935414355629	0.0114741308073637	-0.758861536971984	-0.633911235890935	-0.758671875662096	-0.634082987179268	-0.0116736645507788	0.00369407939331675
5.7	0.00226490382693842	0.0109603788320159	-0.848242067814475	-0.508421811704554	-0.84811273708842	-0.508641549384124	-0.0114104887745733	0.00485895198202774
5.8	0.00414208061099204	0.0105322878583171	-0.916769360801629	-0.370428853592265	-0.916701471916625	-0.370713721319129	-0.0109691918607563	0.00611122704610371
5.9	0.00586343934770765	0.00998341163261147	-0.963002070504211	-0.223803710702308	-0.963016507948829	-0.223887309830735	-0.0106379391126166	0.00740687907618827
6	0.00857449832354949	0.00964539169782196	-0.986361397905718	-0.0720327742952642	-0.986242122586506	-0.0720907186043928	-0.00983464001996596	0.00926852717114229
6.1	0.0110911605133871	0.00692494858134366	-0.985713973590976	0.0823083846114702	-0.985587278824743	0.0821599531090176	-0.00842078095782822	0.0101414040466905
6.2	0.0118970287940079	0.00393120087322531	-0.960715555698528	0.234461146943356	-0.960701823104551	0.234258366800848	-0.00729186117046486	0.0106143499888289
6.3	0.0115450972907765	0.000807471689040758	-0.912591292744131	0.380655596532562	-0.912586742666403	0.380470317856219	-0.00620196748989017	0.0105604985385053
6.4	0.0102832607794843	-0.00184398467591781	-0.842552337675935	0.51760311928576	-0.842520614340989	0.517392522405269	-0.00552842231503325	0.0101564219392385
6.5	0.0086687607320629	-0.00399932182850118	-0.751985058921835	0.642502926449134	-0.752009225296759	0.642298828045202	-0.00496382119132878	0.00980469656634251
6.6	0.00690751614759788	-0.0056139067784457	-0.642667111049093	0.751321017158783	-0.642741076066522	0.75106898069046	-0.00439193186395825	0.00955324554430199
6.7	0.00519052935435384	-0.00668883913943784	-0.518223223581322	0.841706441111224	-0.518326075539543	0.841485407153501	-0.00385190849134085	0.00940569327080831
6.8	0.00379569872094148	-0.00749398800232563	-0.38136089891875	0.911931866832185	-0.381502536678916	0.911761239857867	-0.0033080424457956	0.00934927104976673
6.9	0.00230530501340682	-0.00825919468654511	-0.235080068100576	0.960162400073382	-0.235306697525758	0.960052112745599	-0.00261188792760408	0.00934103406065395
7	0.000964126175377194	-0.00888620611375736	-0.0828089116137501	0.984627798745026	-0.0830187003895348	0.984538222108351	-0.00173627398485134	0.00907102218033271
7.1	-0.000918426961383357	-0.00923252526470558	0.0706545868740033	0.985276672921802	0.0704526866282291	0.985143644254981	-0.00111344045817233	0.00882739970071384
7.2	-0.0025526328471228	-0.00898846034533506	0.222678436190999	0.96241424319142	0.222396494584025	0.962379836734439	-0.000209289515330973	0.0087880770687536
7.3	-0.00415925409890458	-0.00856792419385663	0.369380705636923	0.91612179721804	0.369144804996048	0.916148149047085	0.000755890086309885	0.00853312255718666
7.4	-0.00546012899691444	-0.00777259047524798	0.507131420613756	0.847358835923658	0.506918213378548	0.847410096294352	0.00157482530888105	0.00806637391534496
7.5	-0.00625918363891779	-0.00701438196858829	0.63186320624198	0.758196378970891	0.631693888215002	0.758266029698144	0.00265816814194668	0.00758317489050051
7.6	-0.00707722447445552	-0.00657705774161587	0.741958212060192	0.651323803310381	0.741700843465773	0.651406178515115	0.0036648076682215	0.00635542779915937
7.7	-0.00812072765015591	-0.00542245827928943	0.834098786261516	0.528151774227749	0.833913420103662	0.528368877062882	0.00409800669064569	0.00509975542388413
7.8	-0.00852157744528783	-0.00373388844340997	0.905931096057251	0.39208485833609	0.90582816794264	0.392310193299558	0.00429310073652156	0.00378154205371491
7.9	-0.00855466135524102	-0.00154902824164048	0.955542397808111	0.246872279432963	0.955404407320179	0.247051864899088	0.00394746844004871	0.00278952759229938
8	-0.00654758677537601	0.00105021593447288	0.982428412534219	0.095962368123958	0.982405240612242	0.0962250953778075	0.00345340852871598	0.00244631109376696
8.1	-0.00425328553469865	0.00129176059118981	0.985652237577329	-0.0581879889848368	0.985681151902809	-0.0579323134178182	0.00311365692101456	0.00156652574047886
8.2	-0.00278034448076847	0.00116134643410664	0.964290900581939	-0.210614096122524	0.964339261447231	-0.210296949661581	0.00209720334216412	0.00108385311647706
8.3	-0.00175887846132371	0.000963786107316831	0.919694675742294	-0.357576837179484	0.919746016961568	-0.357289647993456	0.00107588006800151	0.00101087594828667
8.4	-0.00109541989627048	0.000722600496263715	0.853177059288965	-0.495822870075322	0.853274815853873	-0.495620800751004	-3.38849875827102E-05	0.00110796565912098
8.5	-0.000227428303707045	0.00146779894742935	0.765908936604913	-0.62267695547343	0.765960369208591	-0.622526114293123	-0.000968146806575994	0.00210280476004415
8.6	0.0017961685319946	0.000693631192884975	0.659219261186463	-0.733753503721805	0.659387882425955	-0.733516364316337	-0.000923398786417108	0.0028585878136349
8.7	0.00254087835501406	-0.000481871807870675	0.537268584346062	-0.826787624068077	0.537527863986829	-0.826572179567477	-0.000816238191121027	0.00372134524802798
8.8	0.00309073168910971	-0.00149879705138397	0.402610950689479	-0.900017874428378	0.402796293436801	-0.899878772502563	-0.000260063389777339	0.00442914464108808
8.9	0.00330879657157248	-0.00241400405284629	0.257974211727639	-0.951778363723134	0.258153425455098	-0.951608263047144	0.000862608905502638	0.00495029926270934
9	0.00395089599461732	-0.00302975087973017	0.106535433284197	-0.979644332187105	0.106843746835953	-0.979597988535147	0.00245443853508765	0.00523208029042876
9.1	0.00484530292773634	-0.00395345718135561	-0.0461575911455804	-0.983964295152632	-0.0458485349514384	-0.983923381550674	0.00450552309737794	0.00487946943462681
9.2	0.00597647969667441	-0.00479089786543035	-0.198313400495632	-0.964956117335313	-0.197965855127344	-0.964933863163614	0.00682905412977654	0.00396845272242597
9.3	0.00740383252118454	-0.0059142184609376	-0.34578836000575	-0.922403119469494	-0.345436441732501	-0.922377669477624	0.00923892009818183	0.00214180878032035
9.4	0.00865719695671668	-0.0076367137876573	-0.484753862649466	-0.857150165504819	-0.484430820208229	-0.857241171268589	0.0107897225723408	-0.000733338623335028
9.5	0.00986714672619144	-0.00982934254323605	-0.611019747647355	-0.771238254965002	-0.610783006865014	-0.77128849716637	0.0112921880204507	-0.00395876337981902
9.6	0.00891744031297027	-0.01305262445822	-0.723378113257268	-0.667463939777998	-0.723066571959063	-0.667602497825185	0.00992433418000063	-0.00732919617125127
9.7	0.00700620319705856	-0.0141981097384502	-0.818188756023424	-0.54694709824126	-0.817901276495264	-0.54717994935117	0.00747590390139619	-0.00971953542745591
9.8	0.00533179451994299	-0.0146377661202482	-0.892902617801257	-0.413221488456068	-0.89264940690079	-0.413390353542375	0.00439329330802145	-0.0113852860631912
9.9	0.003614792814428	-0.0139351448722	-0.94575771425216	-0.269802365525565	-0.945505469094489	-0.270010930141947	0.000662353061682361	-0.0120288656527616
10	0.00375027359856488	-0.0126614774114056	-0.976426641724682	-0.120349405942451	-0.976272684018735	-0.120711543089276	-0.00262450308782693	-0.0111347631322006
10.1	0.00357229228940167	-0.0135274883630213	-0.983256516190375	0.033134627761694	-0.983192869349442	0.0327031262974752	-0.00585644647194834	-0.0103198078271066
10.2	0.00232172089145961	-0.0137767669176628	-0.965899116520406	0.185271302492192	-0.965777188588662	0.184840250652196	-0.00907559657315209	-0.00830134941413672
10.3	0.000927893562245801	-0.013355035360034	-0.925306740555337	0.332660901840816	-0.925323935828596	0.332119619881868	-0.0117299397357838	-0.00572582894781457
10.4	-0.000405107264568465	-0.0126229503653361	-0.862748615101348	0.471868288839986	-0.862884958542005	0.471356979340568	-0.013823841034393	-0.0027792812292019
10.5	-0.000754606129139225	-0.010826824337547	-0.779175636899666	0.600714603623564	-0.779348771969873	0.600282448263973	-0.0147021431884341	0.000871449891934451
10.6	0.000191163798832154	-0.0104199233225853	-0.67580424035828	0.713985384383672	-0.676076853871706	0.713655744922341	-0.0141462828355534	0.00410331264185586
10.7	0.00080761520358854	-0.0107296579750112	-0.556837080946004	0.809826229082798	-0.557137712548629	0.809517294294316	-0.0127344401409859	0.00690510470448444
10.8	0.000860159746084231	-0.0117566153298133	-0.424521346054692	0.886228082912578	-0.424872079118948	0.885930355286223	-0.0109059748578195	0.00910066023441311
10.9	0.000243600947594035	-0.0123704425249575	-0.281816165948189	0.941488206288434	-0.2822062704146	0.941365752374775	-0.00890307707827279	0.0110206932120126
11	-0.000137433514602599	-0.0130687236946907	-0.131734105950077	0.973149500300522	-0.132170642072004	0.973059695817926	-0.0061403259305217	0.0124586225115826
11.1	-0.00100235785394182	-0.0137064904377627	0.0201473464940601	0.981259450171731	0.0196595400939263	0.981273317879179	-0.0031830099170234	0.0131726260543813
11.2	-0.00191998654688453	-0.0142452250713076	0.171900209779799	0.96640998218843	0.171443954778187	0.966483223123201	0.0001808626810166	0.0131616467572833
11.3	-0.00296386856574201	-0.0145070752360171	0.319718246084128	0.928069392136516	0.319260098441272	0.928206111202144	0.00362855047342802	0.0123069264634372
11.4	-0.00419710060620014	-0.014415480465795	0.459866648491048	0.866861912719409	0.459463772089681	0.866975253665355	0.00658822909500495	0.0109356990491252
11.5	-0.00439732910782406	-0.0142363411175947	0.587725338600787	0.784800711108887	0.587407735626285	0.785102224344801	0.00956305699617034	0.00895657822020003
11.6	-0.00605158167593111	-0.0153304231321637	0.702384682718796	0.684819938212605	0.702169811369621	0.68514689278824	0.0111914184613928	0.00596552496094477
11.7	-0.00833011331395764	-0.0147469564237377	0.800242895043229	0.567492537880786	0.800040149342651	0.567798379022664	0.0120535972180559	0.00320559096689757
11.8	-0.010552695847181	-0.0135158543000631	0.878467237132578	0.436217863756865	0.878285912762427	0.436667568115478	0.0120609903117032	0.000253355699847568
11.9	-0.0124649762955595	-0.01079695205389	0.934973752399272	0.29491391909926	0.934868096097674	0.295362506488059	0.0108316927045324	-0.00206821778658797
12	-0.0122011106723691	-0.00744018565968999	0.969900126630826	0.147223540655579	0.969871040394561	0.147587171265785	0.0100455785929567	-0.00353907826887991
12.1	-0.0114339426061305	-0.00634540014094886	0.981183472757863	-0.00554676688051088	0.981112462868305	-0.00516282198320692	0.00876481311029268	-0.0057532222540271
12.2	-0.0115145280376593	-0.00533169855598408	0.96819298370295	-0.157655181285544	0.96821029534603	-0.157357724910276	0.0067311404921566	-0.00723259127436049
12.3	-0.011492789181922	-0.00417755280960203	0.931889732926078	-0.305621589005174	0.932008772944991	-0.305315427538522	0.00467195926744531	-0.00835555913678717
12.4	-0.0119282017458764	-0.0031496086805796	0.873903621476067	-0.44629572431048	0.873966197874841	-0.445926530140536	0.0022179365821682	-0.00917658052811546
12.5	-0.0115496361134289	-0.00102698671497045	0.794126436059397	-0.577455454252371	0.794466445215985	-0.577065038050484	-0.000315915292625035	-0.00896158181640855
