# GHZ S RI R 50
0.2	-0.000429836878108799	-1.31995532284616E-05	0.948429112934211	-0.308112612994378	0.948206989807511	-0.308087114383168	-0.000375159353903596	2.76638046683103E-05
0.3	-0.00045034351019031	0.000114593208450713	0.888279446988273	-0.451667929223711	0.888123407819773	-0.451572554570207	-0.000451609758594567	-9.85550165488933E-05
0.4	-0.000166648636529721	0.00015609453004838	0.806623095965049	-0.583705066056745	0.806634864753504	-0.583730164196629	-0.000316285700325312	-0.000164466190628895
0.5	-0.000276107211112581	-0.000128709779427313	0.705955649764626	-0.701554897199225	0.705800835555102	-0.701453507981399	-0.000405478984187552	-0.000459352800544676
0.6	-0.000559454764786894	0.000199154133346044	0.588233320437314	-0.802502115463916	0.588114224703045	-0.802340562277698	-0.000712912457221206	-0.000282154998645354
0.7	-0.000389239770351465	0.000635286294082671	0.456187194305431	-0.883668751972116	0.456168474815152	-0.88355638853235	-0.000576907578744991	-0.000173744760159501
0.8	2.76911535588989E-05	0.000796002609480824	0.313338038093125	-0.943390356209155	0.31330674736222	-0.943200878422977	-0.000510602848551332	-8.4353711832988E-05
0.9	0.000627318165107347	0.000962496377781606	0.163182402356593	-0.980142962334223	0.163117457099411	-0.980051192389654	-0.000342364547703581	-9.76690298796188E-05
1	0.00131793439275637	-6.8624897036736E-05	0.00917084732875783	-0.993498186629874	0.0091192591165656	-0.99346677240993	-0.000158160356631489	-0.000818746088180582
1.1	0.00065891270010995	-0.000629839550848539	-0.145312298824096	-0.982671990897822	-0.145328025682757	-0.982541730284507	-0.00109274897963043	-0.000808943767784452
1.2	0.000769661299387434	-0.00150828921465054	-0.296058302365059	-0.947770826606676	-0.295982053904762	-0.947744768392888	-0.000771527172211149	-0.000196908108441392
1.3	0.000568699409338201	-0.00319844993437903	-0.439342419473955	-0.890111743153178	-0.439319427271364	-0.890105134374685	0.000491448880043407	0.000300016565563715
1.4	6.82151280583448E-05	-0.0049424634541644	-0.571835391390622	-0.811160282465858	-0.571811263140342	-0.811138673709444	0.00215353832844488	-0.000129028405862581
1.5	-0.00112343845934216	-0.00523728346401493	-0.691098467548096	-0.712229945898365	-0.690996873027479	-0.712145104487779	0.00307706198743516	-0.000909341032237282
1.6	-0.000788632176978538	-0.00428989018174189	-0.792665477320466	-0.595931749123323	-0.792591570919856	-0.59587182813429	0.00374709235802266	-0.00152239484145284
1.7	-0.000461954416615656	-0.00428580792491665	-0.874845809125817	-0.466341406581848	-0.875010003618412	-0.465826411472548	0.00374704439323614	-0.00280263329860468
1.8	-0.000642438935354821	-0.0044351389369834	-0.93670460634901	-0.324606392207324	-0.936593569577662	-0.324604961988165	0.00298152822976083	-0.00391941369106897
1.9	-0.00102107794137761	-0.00482875370758304	-0.975552415865545	-0.175647468096886	-0.97564540156134	-0.175160882960597	0.00199532741376605	-0.00484587555488937
2	-0.00296410392049239	-0.00497980159397129	-0.990253360661708	-0.0215482225255179	-0.990265289804945	-0.021502485190726	5.56474771929581E-05	-0.0052936924636258
2.1	-0.00356529022264979	-0.00314565322500643	-0.981592576211964	0.131746795112053	-0.981630634335109	0.131783757845527	-0.000648243960736877	-0.00423233421623831
2.2	-0.00362365235207047	-0.00257322475413714	-0.949507949034225	0.282324671339973	-0.949433094280586	0.282387439905916	-0.000803589560765684	-0.00416977739520715
2.3	-0.00388124919977232	-0.00209868371621569	-0.89435434453246	0.425623422336307	-0.89397358702097	0.426136137092301	-0.00132060368996701	-0.00432559735614203
2.4	-0.00417249056822181	-0.0019637379620439	-0.816484523204412	0.560098659121698	-0.816749764481219	0.559513697033956	-0.00193812452289585	-0.00454907578378252
2.5	-0.00556884549429491	-0.00211747134208287	-0.720343306414074	0.679342945974143	-0.72055543306179	0.678833746806748	-0.00314220972924075	-0.00520389273630526
2.6	-0.00687153479620908	-8.34051243856333E-05	-0.606984251466949	0.782977499888144	-0.606877895154419	0.782795266471942	-0.00397682933791134	-0.0041324635156451
2.7	-0.00650382317989668	0.00173618287540084	-0.477487297862509	0.867973031113257	-0.477934978998564	0.867565765057029	-0.00386582901737788	-0.00357651060921864
2.8	-0.00539939247604589	0.00294007452806274	-0.33832195737982	0.930969934132364	-0.337655460555261	0.93112988944605	-0.00378209428736884	-0.00329696972473569
2.9	-0.00379298485986037	0.00346545760900391	-0.189519904974444	0.972212987765646	-0.189550912127538	0.972125652263184	-0.00331943652315291	-0.00282469879780319
3	-0.0023406735802602	0.00371586505941374	-0.0357539436573667	0.990616611969824	-0.0364543642450971	0.990456409850853	-0.00277831526856954	-0.00219087716987319
3.1	-0.000230311029841538	0.00345537545652382	0.117536711716867	0.984091865477875	0.118127235952528	0.984075106136017	-0.0015013237624855	-0.00198874677983222
3.2	0.00107045589741031	0.00233994067156408	0.269273927203867	0.953653159964041	0.269219256361891	0.953592773120939	-0.00101608253408664	-0.00227416874822702
3.3	0.00212973260476642	0.0010855367370433	0.414079619431597	0.900398965546485	0.413942503244207	0.900384504226494	-0.000413214144392922	-0.00248053820910234
3.4	0.00246805430633453	-0.000526554382090921	0.548968440256922	0.825590444901766	0.548805931423271	0.825708100457027	0.000172043497506452	-0.00319296671511773
3.5	0.00203121205331185	-0.00136736634167071	0.67105176372152	0.730166787433206	0.670972082584288	0.73020548380873	0.000154484714070264	-0.00341156159998872
3.6	0.00251549491660435	-0.00191192793277317	0.775312252127497	0.617330169324059	0.775553689969379	0.616881718239495	0.000992709619617219	-0.00375830448171288
3.7	0.00264019476243531	-0.00335279674455289	0.862029979899731	0.489194430758169	0.861911487448363	0.489337436064706	0.00125421340699826	-0.0047173637586192
3.8	0.00207014312300211	-0.00476699938179802	0.927532208498084	0.350051156389709	0.927589434951061	0.349671815439214	0.00109110888715987	-0.00567871974905399
3.9	0.00126234637319664	-0.00638741891255295	0.970983179861839	0.200357872499039	0.970744159225227	0.201025664378806	0.000257050164525944	-0.0070159238275318
4	-0.00144018208911319	-0.00747016954285679	0.989614246905462	0.0478484777968259	0.989575244670291	0.0479513342553806	-0.00143202966514035	-0.00772311887107905
4.1	-0.00310160702479688	-0.00669848622871134	0.985417367777054	-0.105625775703089	0.985232664238298	-0.105498798492331	-0.00215211200201265	-0.00742356541719647
4.2	-0.00456313029782356	-0.006461685010365	0.957098146830738	-0.258112703857272	0.957132538336194	-0.25745843758118	-0.00283517846372184	-0.00787804534779459
4.3	-0.00603662274832777	-0.00618790798797713	0.905739612647098	-0.403122109519883	0.905603550937994	-0.403011011944781	-0.00385341357764115	-0.00843843037804341
4.4	-0.00751029669464566	-0.00586030831152593	0.831945508755929	-0.538703433270545	0.831780112677633	-0.538570151796808	-0.00500952956451622	-0.0090164836262037
4.5	-0.00999545508485694	-0.00594732900294898	0.738856316356527	-0.660767379357674	0.738667100375556	-0.660594416126989	-0.00707333587025813	-0.00982997858059847
4.6	-0.0128059310450396	-0.00367576030011697	0.627291738111381	-0.768701339762727	0.627633145319101	-0.768001725674759	-0.00924044950521578	-0.00919027064323397
4.7	-0.014302708529885	-0.00124443397466146	0.500484067192694	-0.856813235623381	0.500500141722273	-0.856456699470735	-0.0109604758276454	-0.00875750191439668
4.8	-0.0152617875423227	0.00168159553804281	0.361025927226004	-0.923996790627101	0.361247577217319	-0.923679509787375	-0.0125936309102981	-0.0080023073858295
4.9	-0.0150891241700012	0.00448292362398355	0.213886793654456	-0.968330606261439	0.213666336845572	-0.968338690457476	-0.0137582116032323	-0.00694328365833175
5	-0.0143545134433528	0.00735430876784582	0.0607893135046369	-0.990715979725355	0.0609667840074592	-0.990469665179174	-0.0144390686142616	-0.00526210243141066
5.1	-0.0118390564908587	0.00982586791413615	-0.0945124432925806	-0.988094014318732	-0.0941797858066996	-0.987867944704403	-0.0140354810096106	-0.00367216938999656
5.2	-0.00902616432830773	0.0111515368920619	-0.246942942888343	-0.96117868215592	-0.246449575458355	-0.961151755555705	-0.0137759944983055	-0.00247148178764738
5.3	-0.00634237562845127	0.0114496187280107	-0.393162731969998	-0.911278381729736	-0.392820987311325	-0.911495249907998	-0.0133533282369356	-0.00137962605375211
5.4	-0.00441800914314221	0.0112747860009205	-0.530303102322352	-0.839521183043879	-0.530089604769049	-0.839722689626404	-0.0132423974613168	-0.000500958660611471
5.5	-0.00369569978551469	0.0124473068910211	-0.655148310649774	-0.746256759293627	-0.654908725836321	-0.746452517560554	-0.0136674506954875	0.00146357328091637
5.6	7.63253794946366E-05	0.0140019720514833	-0.762257028823413	-0.634831946199298	-0.762067009829444	-0.635004534677238	-0.0119226315204552	0.00308949484576524
5.7	0.0034355731517529	0.0131388451280022	-0.851504277764317	-0.508891865511115	-0.851374832588595	-0.509112445224278	-0.011033155960491	0.00368054281704525
5.8	0.00616371094305167	0.0116614323587533	-0.920221592748869	-0.370290004457115	-0.92015389738874	-0.370575876997672	-0.0104081023274248	0.00444606965694397
5.9	0.00808053255609045	0.00883306098670723	-0.966612889996089	-0.222499674016	-0.966627551020465	-0.222583515072733	-0.00996994222044619	0.00485269436435071
6	0.00695770747394607	0.00653240590107936	-0.988438903267571	-0.0695168345559034	-0.988319556002441	-0.0695752104138699	-0.0110254953393615	0.00603903031874667
6.1	0.00738673174984968	0.00689386947215038	-0.987307933606701	0.08402632106412	-0.987181254071776	0.0838774274257886	-0.00980007304544997	0.00858862551706997
6.2	0.00847177056935294	0.0059154905563275	-0.962393870018102	0.23657427387677	-0.962380447188338	0.236371033660861	-0.00819799562874923	0.00943247058063939
6.3	0.00923480885380191	0.00423718117901879	-0.913769469974611	0.383343783152319	-0.913765290044889	0.383158097463114	-0.00669884082069302	0.00962654045422032
6.4	0.00960737141623034	0.00176561699837054	-0.842607143624402	0.520433295026319	-0.842575878761063	0.520222296245005	-0.00551747130137845	0.0090317154828664
6.5	0.00881747392736343	-0.00090796423062512	-0.751963382457453	0.644117439874404	-0.751987830243684	0.643913158797045	-0.00495810140211318	0.00834539841788887
6.6	0.00797111435918867	-0.00323927072151429	-0.643061977494819	0.753918680052403	-0.64313646334169	0.753666178799296	-0.00429395515636027	0.00783732795518382
6.7	0.00618755554429199	-0.00549536732668594	-0.517562034445569	0.844654775394319	-0.517665583129498	0.844433476946034	-0.00407480044263407	0.00742678862756473
6.8	0.00408562166154519	-0.0068577752992105	-0.379841278439052	0.914440876664202	-0.379983572958836	0.914270290892633	-0.00382782252080902	0.00751905217404421
6.9	0.0017402827788288	-0.00759651431285242	-0.233491366625576	0.961918875392355	-0.233718519320309	0.961808889365617	-0.00322367768442608	0.00771676740374498
7	-0.000133510683541433	-0.00724164509306034	-0.081342394519225	0.987275018594742	-0.0815528698826595	0.987185571263447	-0.00220961394019409	0.00796222770491476
7.1	-0.00135828812428397	-0.00712679906394802	0.0739562114127561	0.987381911137296	0.0737534104560278	0.987249210178609	-0.000919012384591965	0.00759980927734675
7.2	-0.00272714395736952	-0.00691305918529484	0.226262489702002	0.963228133580966	0.225979975938101	0.963194615605775	0.000170425034972919	0.00720021065387802
7.3	-0.00418509836568534	-0.00648330399698102	0.372785263077405	0.916183720123787	0.372549128285418	0.916210856006188	0.00118104109603308	0.00662686383598007
7.4	-0.00544624555305717	-0.00576842579169404	0.510610006041439	0.847288891121224	0.510396582884936	0.847340893303075	0.00184236668192717	0.00580669641580315
7.5	-0.00683821239173954	-0.00446100067214874	0.636665124002758	0.756724369453326	0.636495799423575	0.756794951826027	0.00234157189166489	0.00542516007828484
7.6	-0.00648717888292276	-0.00280882710446262	0.745299410687787	0.647874962240611	0.745042380811528	0.647958607374425	0.00379234425953614	0.00456454411687472
7.7	-0.00587991707546021	-0.00202860272126954	0.83624400257267	0.524433622384928	0.836059612756436	0.524651491663703	0.00454868083050239	0.00305509430546095
7.8	-0.00508355056307479	-0.00169905264932944	0.907371961312751	0.388122377377542	0.907270020166807	0.388348093769503	0.00493487379700559	0.00137805662410031
7.9	-0.0047590919442957	-0.00212297611194387	0.956386019136122	0.242165216326456	0.956248946760648	0.242345402887918	0.00462495942073085	-0.000398607329331773
8	-0.00665654370826516	-0.0021791194614438	0.980690024615195	0.0907029477765348	0.980668253537264	0.0909651973567212	0.00257542442789257	-0.00149539685526639
8.1	-0.00668623056794063	0.000634641211412519	0.982942615061892	-0.0614611427191153	0.982972343268783	-0.0612062179918635	0.00204606322343527	-0.000755842059820666
8.2	-0.00541939204313412	0.00218754273202867	0.961546571627007	-0.213271229199199	0.961595851180058	-0.212954917927062	0.00151900631923346	-0.00105435354012132
8.3	-0.00401210798755493	0.00338027171482448	0.916458198123642	-0.359908767059815	0.916510400259541	-0.359622383966507	0.000732739700325755	-0.00100058222391493
8.4	-0.00183926485416976	0.00365377596969145	0.84883783098537	-0.497339281385596	0.848936006318043	-0.497138170161921	0.00028120781544529	-0.000964434305871564
8.5	-0.0015940775434066	0.00252130796904484	0.762009295631958	-0.621781782814287	0.76206081092835	-0.621631582304806	-0.00119400562335872	-0.00117103363599537
8.6	-0.00103057140033887	0.00411703987532928	0.656458580870724	-0.733215436867776	0.656627225549572	-0.732979126840466	-0.00160688727950335	0.000743732718002535
8.7	0.00109337710174273	0.00472441835210162	0.53414838691813	-0.825986463947328	0.534407519122942	-0.825772110903016	-0.000856562059559725	0.00162631426218962
8.8	0.00359981343308125	0.00445960452731965	0.399481231296121	-0.898275499765017	0.399666337493622	-0.89813720583317	-0.000175619058930281	0.00202918044866772
8.9	0.00629054611911001	0.00316068442753566	0.255817519964894	-0.948930069930032	0.255996362055715	-0.948760783651623	0.0010245557367468	0.00237090732127861
9	0.00827453425482601	0.000410098169638981	0.105568084503129	-0.977883110255932	0.105875853824962	-0.977837095169931	0.00239213512538691	0.00220156997894577
9.1	0.00972677036730985	-0.00224731046863614	-0.0481993923796423	-0.981700454348953	-0.0478909265305705	-0.981660303893654	0.0044639168085513	0.00174827193423581
9.2	0.010217613592296	-0.00561120648644961	-0.19957602800665	-0.961609093294102	-0.199229506422106	-0.961587581490549	0.00634848535305678	0.000233478994859277
9.3	0.00942075215961814	-0.0082656663994539	-0.345806319990848	-0.918913196480519	-0.345455534773972	-0.918888274434425	0.00785090618918899	-0.00156674567328896
9.4	0.00799183844573876	-0.0105665928756029	-0.484022730288449	-0.854591429005873	-0.483700594109449	-0.854682400209163	0.00883556327347178	-0.00409765871338676
9.5	0.00514928767258523	-0.0100227860694403	-0.611324428540589	-0.768226073271901	-0.611088318008289	-0.768276712258166	0.0083024996308729	-0.00571592024433112
9.6	0.00620464127286244	-0.00911527682866342	-0.721802282141888	-0.663542084553722	-0.721492204652513	-0.663680679424451	0.00913879242852385	-0.00793545892103124
9.7	0.00660128358748903	-0.00993774098816594	-0.815464259753002	-0.544005519805081	-0.815178139875413	-0.544237720394213	0.00759391283790584	-0.0111992641708275
9.8	0.00657128396571453	-0.0109501383258861	-0.889910621376442	-0.411179495512624	-0.889658432535304	-0.41134790092366	0.004753830400929	-0.0133868734966876
9.9	0.00604110761210723	-0.0125065091644524	-0.942867505356907	-0.267817146409371	-0.94261634943806	-0.268025292331285	0.00135700539052846	-0.0148163648799878
10	0.002663634133204	-0.0130913757813666	-0.971455452552805	-0.118454992710039	-0.971302771452957	-0.118815427614779	-0.00372596323446892	-0.0143631318254275
10.1	0.00208224347008402	-0.0106412036004628	-0.978289619873762	0.0323346097977513	-0.978226018651306	0.031905338273163	-0.00626623798733959	-0.0118432573871532
10.2	0.00263041436852741	-0.0102376392234966	-0.961842658625909	0.183644708167494	-0.961720897369769	0.183215639967943	-0.00859278718478843	-0.0101109262401224
10.3	0.00287320025097751	-0.0103570239594177	-0.92152793094303	0.330634657928493	-0.921544706177448	0.330095699859548	-0.0108397947368353	-0.00785540080017879
10.4	0.00302361871174855	-0.0116649167600833	-0.858502459590939	0.468881645357996	-0.858637784764559	0.468372937321335	-0.0123547380032907	-0.00552865588609164
10.5	0.00106637565361039	-0.0133277716664266	-0.776438377088829	0.594954967947426	-0.776609242284643	0.594524800887781	-0.0138787887841816	-0.00321062338980863
10.6	-0.00126335649443235	-0.0129939847033156	-0.675492922051667	0.70890957893675	-0.675763359786482	0.70858034235964	-0.0143821839258687	0.000167534151659403
10.7	-0.00263321459318614	-0.011994218698455	-0.55727232852151	0.805129708504273	-0.557570902520556	0.804820988900747	-0.0134771467083708	0.00343134600207036
10.8	-0.00335693880546906	-0.010797239689031	-0.42582986384638	0.881502864173165	-0.426178301597438	0.881205106510043	-0.0117195028161419	0.00630551954138247
10.9	-0.00363066960706719	-0.0100412824046162	-0.284865710564739	0.9367112175715	-0.285253810871297	0.936587521379982	-0.00932936583421787	0.00845564596432661
11	-0.0038980917052311	-0.00932128519976208	-0.136375024411002	0.971075707570089	-0.136810477816236	0.970983866005158	-0.00643954802700746	0.0101165797165379
11.1	-0.00341360442749269	-0.00881128284587766	0.0168629658770129	0.979992124943423	0.0163757766878188	0.980004354655397	-0.00286001113308084	0.010630822837573
11.2	-0.00313275152506619	-0.009119285555988	0.168254278978955	0.965230295597344	0.167798608189449	0.965301829747264	0.000533742818888332	0.0101481289341146
11.3	-0.00312067911511231	-0.00961395433077489	0.315453277770812	0.927816096223742	0.314995340116789	0.927950744888564	0.00388129569721165	0.00898970884573237
11.4	-0.00385741740864451	-0.01074077166307	0.455791694386018	0.868498657916194	0.455388504018142	0.868610152462884	0.00662984283612213	0.0071158734915805
11.5	-0.00602604919580538	-0.00990281184418114	0.585951745669821	0.786366375117392	0.585633355961054	0.786667182929758	0.00836894112396741	0.00576821865971024
11.6	-0.00550703859438541	-0.00877099715435618	0.699555075033747	0.685728874862157	0.699339633190481	0.68605479044733	0.011200123955926	0.0035407381467761
11.7	-0.00531909915250348	-0.00889104796251073	0.797308006724825	0.569639540384475	0.797104423868528	0.569944309579692	0.0125117915629763	0.000240656034583456
11.8	-0.00561828840279225	-0.00948388988358613	0.87646212924365	0.43926306150378	0.876279227098547	0.439711894329327	0.012739179351383	-0.00302689717172714
11.9	-0.00629611659111517	-0.010901265280457	0.934324526911944	0.297563536449274	0.934217605885829	0.298011911828329	0.0121442757511788	-0.00634151621746199
12	-0.0111231785352752	-0.0111516801209226	0.967888075854503	0.149275504892014	0.967858175533345	0.149638443146218	0.00902891397355798	-0.00861179963630647
12.1	-0.0130867239937339	-0.00813424104604533	0.980010927393893	-0.00143597212457399	0.979938398076839	-0.00105279215346491	0.00798991682706399	-0.00955269744479651
12.2	-0.0143552333823462	-0.00590077798403012	0.968579036936462	-0.153677360338943	0.9685951346624	-0.153379911891847	0.00604114542314123	-0.0110640901189745
12.3	-0.01505760590657	-0.00319123659713138	0.932909925826087	-0.302285703664014	0.933027868543502	-0.301979140759323	0.0037676756879605	-0.0118530788773248
12.4	-0.0148282292647155	-0.00109598457429062	0.874522495127299	-0.442991737805859	0.874583797861201	-0.442622696053118	0.00173917203587003	-0.0123139163085324
12.5	-0.0156492770735308	0.000297011412882239	0.796473758724383	-0.572239079688769	0.796811136480707	-0.571847189468656	-0.00127646852850971	-0.0125423970104198
