# GHZ S RI R 50
0.2	-0.000157959182539811	-0.000538087971466739	0.950392372791477	-0.307636308205085	0.950169839446492	-0.30761100162769	-0.000197600348813703	-0.000391156236801653
0.3	-0.000492263149375678	-0.000515939685656428	0.890784530140867	-0.451482781131351	0.890628029994295	-0.451387404424855	-0.000612906472725741	-0.000499337498842415
0.4	-0.000640428068644457	-0.000334869615925268	0.809676963582482	-0.584175678426135	0.809688800392127	-0.584200829227958	-0.000872761915535695	-0.000305348810311227
0.5	-0.000582048701215467	0.000127821547008428	0.708913073441617	-0.703250273226928	0.708757657171382	-0.70314868577765	-0.000768771823478844	0.000166474716312029
0.6	-0.0002883043902644	-4.66531445616476E-05	0.590686795667588	-0.804519094977591	0.590567203923267	-0.804357136284356	-0.000606330300113805	-4.33251759179838E-05
0.7	-0.000402467936301488	4.03018513883215E-05	0.458545911911796	-0.88627783203055	0.458527026829457	-0.886165101313892	-0.000740054569333065	-4.54148179006922E-05
0.8	-0.000307298605845192	4.41733889368999E-05	0.315231656662391	-0.946784945028492	0.315200107146917	-0.946594762304712	-0.000836658831281231	0.000126124849822641
0.9	-0.000481305299873244	0.000175991478188845	0.164097838282795	-0.984158321567881	0.164032601816345	-0.984066187846529	-0.0010577255434956	0.000238617158546529
1	-0.000250310890372974	0.000949597437285636	0.00913169637029324	-0.997135034338681	0.00907992164775304	-0.997103501370648	-0.000776820200825076	0.000950105732274898
1.1	0.00111487640204322	0.000360142234880648	-0.14548127372329	-0.986652896924115	-0.145497117764172	-0.986522123245337	0.000171960637805404	0.000223995343010185
1.2	0.00161106890713632	-0.00164492313597773	-0.297293331481284	-0.952067856160083	-0.297216742471426	-0.952041672788556	0.000421123382828163	-0.000692224254799936
1.3	0.00143707113036871	-0.00445080816500669	-0.44169608307668	-0.894118706767838	-0.441672981282424	-0.894112074938844	0.0009943816731721	-0.00135943127130221
1.4	0.000517918265931378	-0.00682125814670103	-0.5749267019441	-0.814430259995247	-0.574902451432834	-0.814408569879428	0.00162337761979417	-0.00192250864636942
1.5	0.000206976915740775	-0.00785031511531497	-0.694375194039278	-0.715448089863968	-0.694273120050715	-0.715362867238712	0.00292063324478261	-0.0026761827069152
1.6	-0.00136764967827765	-0.00818815488415303	-0.797536979479914	-0.598748055648007	-0.797462615909254	-0.598687847504867	0.00195327365968427	-0.00322484596982128
1.7	-0.00225242361895965	-0.00703695220622698	-0.880488051807063	-0.467706047904173	-0.880652424101193	-0.467187892710129	0.0017219270310087	-0.00286041729412292
1.8	-0.00285947484051163	-0.00601750417046821	-0.942511650961579	-0.324652190536292	-0.942399995281563	-0.324650960491574	0.00138457635874344	-0.00294038857053911
1.9	-0.00310377881124844	-0.00465519109136013	-0.981345277842659	-0.17476323711857	-0.981437852601996	-0.174273752334969	0.00110655765260398	-0.00275014589230343
2	-0.00212617474349216	-0.00424293596960094	-0.996846682883189	-0.0192986093506867	-0.996858580401105	-0.0192525410439841	0.0016525860813317	-0.00343890754777044
2.1	-0.00304381792625593	-0.00488201820867913	-0.987212719057063	0.13637572468272	-0.987250871572765	0.136413065901145	0.000144274245658398	-0.0043813087047264
2.2	-0.00429061992949261	-0.00426137533945759	-0.953739010191066	0.287991794667659	-0.953663459117684	0.288054603227222	-0.000771436805243407	-0.00394861739635898
2.3	-0.00521769988718422	-0.00326303521201044	-0.897414401019722	0.432074011889562	-0.897029181263482	0.432587858251977	-0.00135607238440857	-0.00379321364831833
2.4	-0.00604046803640273	-0.00183728061714242	-0.81839491387606	0.56749840774856	-0.81866466508241	0.566911387073149	-0.00199337872763252	-0.00356093449055883
2.5	-0.00527176531887919	-0.000231309736600075	-0.719746455571447	0.68784630537947	-0.71996313109352	0.687335742281542	-0.00158181774645308	-0.00396959563589956
2.6	-0.00512237534079491	-0.000355432756058325	-0.604193887305777	0.790260412290414	-0.604088323041088	0.790076718862413	-0.00258411045547959	-0.00522574277907735
2.7	-0.00535019445168828	0.000286926164123228	-0.473499474112277	0.874514534134396	-0.473951609390418	0.874108705886753	-0.00398544155275816	-0.00509241590679992
2.8	-0.00497673019110934	0.00107614837231866	-0.33291889206075	0.936788530159208	-0.332248816313012	0.936944316471149	-0.00489933258525056	-0.004340889821967
2.9	-0.00377671416378971	0.00165455996374432	-0.182366617835445	0.976780810438029	-0.18239841861659	0.97669344746209	-0.00476051043500114	-0.0031294494116219
3	-0.00242880561203292	0.00142337750496802	-0.027784087406572	0.992339268658165	-0.0284868185468812	0.992184506488437	-0.00424201231139164	-0.00230660838266407
3.1	-0.00143172331125715	0.0012982516359367	0.124836039631701	0.984643599443471	0.12542728462692	0.984622536686639	-0.00349099900139685	-0.00135795902451752
3.2	-0.00036928052400531	0.000866701367024854	0.276903128530425	0.952912689403337	0.276847922946202	0.952852635824606	-0.00256608741914336	-0.000847297568870503
3.3	0.000740099445646386	0.000259348324932622	0.421616793676893	0.897805183722219	0.421479452088412	0.897791808191967	-0.00148518636564044	-0.00062673773681282
3.4	0.00175087494914097	-0.00057151967124711	0.555461095385242	0.820983900320044	0.555299570324632	0.821102831554379	-0.000158049114099391	-0.000992224710320904
3.5	0.00276138012842797	-0.00238913585699258	0.675696328993179	0.725228749827399	0.675616951286226	0.725267970215285	0.000666713465555256	-0.00220862986437326
3.6	0.00204863641512931	-0.00385596210106288	0.780019948077245	0.611679083142347	0.780258098257344	0.611228767021399	0.000420565352656667	-0.00272194289980031
3.7	0.00160991090055261	-0.00477478196631633	0.865486120198208	0.482092097519316	0.865368824796058	0.482235973130834	0.000766944523842222	-0.00301580769845826
3.8	0.000838710727671428	-0.00557283962864692	0.92915805851922	0.34226257964553	0.929212206139401	0.341883255173909	0.000955963249545091	-0.00370558348393394
3.9	0.000309444803722121	-0.00597409213827366	0.970891680580621	0.192841234610606	0.97065799373726	0.193509713280179	0.000650962714450875	-0.00468941907973768
4	0.000132067915672024	-0.00698934144030485	0.989205137393787	0.0401451320601475	0.989166962622608	0.0402482095894295	0.000484896856317827	-0.00630154295706805
4.1	-0.00175071086835354	-0.00838000906899841	0.982526471733289	-0.114211849897368	0.982343266632852	-0.114083475226916	-0.00155150470611563	-0.00750546568563516
4.2	-0.00408375342620261	-0.00843564810029225	0.951939419841574	-0.265616642862729	0.951979374758379	-0.26496467234179	-0.00316878142507013	-0.00754264648182794
4.3	-0.00620178765463826	-0.00805055689063013	0.899154719405737	-0.409208153615118	0.899020066849722	-0.409096322310794	-0.00457604198047742	-0.00764167529737804
4.4	-0.00833533212050667	-0.00677854287987791	0.824480578348221	-0.543684105625489	0.824316883994782	-0.543549927985658	-0.00590604676772245	-0.00742734401590952
4.5	-0.00907862948222571	-0.00538877352224892	0.729141997208562	-0.664792425241361	0.728955304816211	-0.664618448449113	-0.00656720936707097	-0.00776701077027568
4.6	-0.0107233795375294	-0.00486539034838133	0.616637090548758	-0.769136168564138	0.616982310395467	-0.768444002097851	-0.00892512925132547	-0.00864723740287328
4.7	-0.0125855189984292	-0.00339479296444338	0.490414915353379	-0.854835382882991	0.490433645548697	-0.8544814098984	-0.0116383672224299	-0.00820089097069148
4.8	-0.0140163053512658	-0.00100772496614847	0.351552326397875	-0.920071355977982	0.351774754414255	-0.919757999591654	-0.013827336334625	-0.00696081112182877
4.9	-0.0143251656471155	0.00167334338557106	0.204801406967533	-0.962322273415999	0.204582628289914	-0.962328609683496	-0.0151127650959293	-0.00514296397300966
5	-0.0136019686860159	0.00399820372230856	0.0535649051051147	-0.981295292006909	0.0537422615002893	-0.981052606783463	-0.0154377942423437	-0.0031895863212367
5.1	-0.0124929117739422	0.00614713621771896	-0.0984373801780589	-0.978105277258589	-0.0981068233466856	-0.977883015324385	-0.0152167826796129	-0.000923169477937846
5.2	-0.0105405595114655	0.00834345356328316	-0.248953742384475	-0.950860883034129	-0.248464971834274	-0.950836458625034	-0.0140559570126387	0.000977665397662596
5.3	-0.00795410546593191	0.00986785533921059	-0.393017298453039	-0.900478338600913	-0.392679893930795	-0.900694454529775	-0.0125324273459521	0.00203197012065349
5.4	-0.00468489850941006	0.011071163167955	-0.527245659365131	-0.828548842191444	-0.527035171970796	-0.828748839031927	-0.0112053167102942	0.0024319084325239
5.5	-0.00145521224318451	0.0100195961547077	-0.648999784019052	-0.737548070372183	-0.648762978616368	-0.737742010260546	-0.0111612516888869	0.00168250358713646
5.6	-0.000165695583378756	0.00997262216135316	-0.755736310919391	-0.627708304504517	-0.755548351314616	-0.627879477249785	-0.0121229253362695	0.00335484461006211
5.7	0.00196572103112965	0.0100415477236172	-0.84352349997655	-0.502762376172686	-0.843395618637893	-0.502980885665153	-0.0113665408760355	0.00516677327698428
5.8	0.0042295656280364	0.00978621309397225	-0.910720006955806	-0.366032865406184	-0.910653137620915	-0.366315766995527	-0.0102950277498807	0.00638102087216104
5.9	0.00680038924221555	0.0091617685702685	-0.956385631518707	-0.221094411293763	-0.956400062461041	-0.221177396914632	-0.00907848947058635	0.00711434955518617
6	0.00994448281018275	0.00652005841428626	-0.979626436277439	-0.0699106429046886	-0.979508085042715	-0.0699683806243698	-0.00849884663218517	0.00623243535416747
6.1	0.00976484787479735	0.00334035368954238	-0.977707818170747	0.082771716216374	-0.977582309664376	0.0826243317989796	-0.0104039772229205	0.00709909062398481
6.2	0.00929060622114495	0.00173540813615484	-0.952855182980702	0.232767342661874	-0.952841606711333	0.232566207752023	-0.0106102055101069	0.00948996827788712
6.3	0.00887123709459356	0.000197643727666703	-0.90549834220604	0.377291843805817	-0.905493758114273	0.377108036141401	-0.00934738725818697	0.0113842534502502
6.4	0.00855681248503167	-0.00136752035035327	-0.836289665537942	0.513231499252022	-0.836258091672748	0.513022540505034	-0.00736177654302895	0.0121603900646694
6.5	0.00802797676875063	-0.00364985947841733	-0.745832903351716	0.636419305371078	-0.745856729136719	0.636216972276089	-0.00544336335045176	0.0115770459854091
6.6	0.00685282514926251	-0.0055884736406562	-0.638731067895917	0.74348980321678	-0.638803861125074	0.743239778995161	-0.00406176867677045	0.0108362027293764
6.7	0.00534897626027961	-0.00729211202351773	-0.516186274784804	0.8335330890843	-0.516287721020763	0.833313584958133	-0.00325450381560108	0.0097537522342312
6.8	0.00372136478761267	-0.0084233332897497	-0.380858917749761	0.903548006357411	-0.380998940973256	0.903378350874121	-0.00310294634906519	0.00913517991999735
6.9	0.00211259232149789	-0.0092405169886398	-0.236102320006536	0.951298239140175	-0.236326685251629	0.951188174361037	-0.00279600871484734	0.00900291476612819
7	0.000416143662241224	-0.00990192890609844	-0.0868973546677404	0.975725355936241	-0.0871048956931442	0.975635529054832	-0.00255842896493649	0.00885772882883031
7.1	-0.00137376252478764	-0.00980384148593758	0.0648550048032569	0.978376468531817	0.064655308662215	0.978243341086141	-0.0018591779904124	0.009298452594986
7.2	-0.002742441920135	-0.00952212625535651	0.215770195415397	0.956756602152768	0.215490461455738	0.956720884951636	-0.00066866458693952	0.00942378559899301
7.3	-0.00420219134115771	-0.00913644343748067	0.361210901148784	0.911875014936987	0.360976510956923	0.91189974991187	0.000465448844856618	0.00925637348018239
7.4	-0.00529299079873082	-0.00837533573279823	0.497616835908297	0.845194058941508	0.497404718555271	0.845243446638675	0.0014912046862683	0.00887760067299868
7.5	-0.00624676705516321	-0.00794913014880454	0.622756045288466	0.75924210917522	0.622587048712251	0.759310090071541	0.00242563643693581	0.00825104948909673
7.6	-0.00726986175037229	-0.00686133754092391	0.733817970428961	0.653397755568486	0.733561261784528	0.653477928268583	0.00355072419428974	0.00789879066173151
7.7	-0.00755333878681653	-0.00537750862881854	0.826151869950386	0.531762165096818	0.825965796095248	0.531976845232148	0.00514850270100856	0.0070473021066916
7.8	-0.00712514502862277	-0.00386742966252414	0.89874843035294	0.397605701216913	0.898644153101385	0.397829206260584	0.00655392455398805	0.00524847451545174
7.9	-0.00608251203944641	-0.00230601682669224	0.95016416296368	0.254173685968295	0.950025114008558	0.254351479707584	0.00733557663158882	0.00279188892361294
8	-0.00376905764601273	-0.00266430489761578	0.978968643790177	0.103085200282293	0.978943560093715	0.103347021041084	0.00658982456581843	-0.000948218616495929
8.1	-0.00409642661986878	-0.00308831106341589	0.982758293420603	-0.0499555062060805	0.982785025034336	-0.0497004686753729	0.00263648057010568	-0.00218499324130609
8.2	-0.00407503189534528	-0.00247807887397941	0.963569014888648	-0.201408790807666	0.963614404761779	-0.201092069011078	1.1033910801253E-05	-0.00139072977339949
8.3	-0.00397639258557778	-0.00157625291516678	0.921423038957552	-0.34852571870113	0.921471655842224	-0.348238543755054	-0.00184843138831646	5.8114042212467E-05
8.4	-0.00330365089387987	-3.32220165128448E-05	0.856724485847863	-0.488045620861754	0.856820417178823	-0.487842880970364	-0.00262940797173781	0.00212601773293593
8.5	-0.000674397895884068	0.000719026434072496	0.769928047198191	-0.6151087622393	0.769978108717162	-0.614957735950385	-0.00180861051284864	0.00284974862649123
8.6	0.000604357050311595	-0.000422339131823819	0.66586230422467	-0.726774667809151	0.666028487645783	-0.726536067062785	-0.00290515380172724	0.0036265488514778
8.7	0.00131460798791117	-0.000907468319436262	0.545382426352872	-0.821878385137368	0.545639715062448	-0.821660381636563	-0.00260211564593682	0.00579934180311455
8.8	0.00213473760036652	-0.00134221130358927	0.411283971747775	-0.897094482289431	0.411468193240882	-0.896953544556991	-0.00114285360933608	0.00748219812860634
8.9	0.00310767438615489	-0.0014831790040105	0.266745951507816	-0.950155398320129	0.266923763966538	-0.94998355624002	0.0015890769331047	0.00871956180896749
9	0.00542616664001685	-0.0024305174234166	0.116901112535522	-0.979697151824914	0.117209308670336	-0.97964753066027	0.00538644339559624	0.00806196068780924
9.1	0.00717009323296416	-0.00460283042450016	-0.0365168579093343	-0.987259370780219	-0.0362073171508531	-0.987215269176545	0.00846375637538349	0.00589390830685454
9.2	0.0082840378694162	-0.0073137244176558	-0.189849858339824	-0.969891584234743	-0.18950141801834	-0.969865983996482	0.0106890921391646	0.00245973568492521
9.3	0.00822266881199213	-0.00960041803221755	-0.338186450553812	-0.928790897460305	-0.337833590411733	-0.928762018034984	0.0111655578470545	-0.00105305465204017
9.4	0.00844963518771147	-0.0109828714519864	-0.477821435098787	-0.86549908502722	-0.477496190521523	-0.865587119398121	0.0110392759842204	-0.00389302067404852
9.5	0.00820492150656968	-0.0137640453767062	-0.607023049450914	-0.782325202789397	-0.606784303386524	-0.782373352069772	0.00894821530290045	-0.00735162280922923
9.6	0.00648184080616504	-0.0147292213809473	-0.722376879185267	-0.678137270863566	-0.722062080168325	-0.678274046707865	0.00673593393135337	-0.0074029445321416
9.7	0.00541731481543413	-0.0149624484816499	-0.819129451106878	-0.557633819020223	-0.818838030152275	-0.557865818004959	0.00562965221656346	-0.00845615423450759
9.8	0.00438960606827014	-0.0148782272112457	-0.896180888407905	-0.423914245743149	-0.895924327076472	-0.424082249206793	0.00368376301515545	-0.00962150849184483
9.9	0.00409802028994872	-0.0138105395204094	-0.952188577356272	-0.279864680594462	-0.951932360355761	-0.28007311270129	0.00175174928913509	-0.0104165589677221
10	0.00486056575198265	-0.0149392240463079	-0.985134879929042	-0.127132473247333	-0.984977353962711	-0.127497210326887	-0.00151038165657154	-0.0124669327192989
10.1	0.00298691152462585	-0.0153332049445911	-0.992260174978416	0.0278437534871109	-0.992193505276123	0.0274087451347968	-0.00687129364118431	-0.0106590261287356
10.2	0.00200055090124197	-0.0147450536548271	-0.976284778138905	0.181861006146659	-0.976159340026594	0.18142642331453	-0.00956134881081246	-0.00747058015113316
10.3	0.00131769501763672	-0.0139263416234792	-0.936440024031854	0.332043253683864	-0.93645500551455	0.331496243490512	-0.0111105928028972	-0.00456361152505609
10.4	0.00133756370922947	-0.0133021034568001	-0.873156878558468	0.474536822036291	-0.87329328606563	0.474019730793071	-0.0115558746051026	-0.0022107203542569
10.5	0.00210817310387944	-0.0139553058548385	-0.787303516468357	0.604236461961347	-0.787477207955928	0.603800152223866	-0.0117070666250093	-0.00177824022654372
10.6	0.000964356704974556	-0.0154744959890723	-0.684378403032855	0.718577628155111	-0.684652546184908	0.718244042782116	-0.0140836597864536	-0.000444680095183639
10.7	-0.000841267106225559	-0.0154545106490284	-0.564486564648708	0.816659053681337	-0.564789479593818	0.816346242696442	-0.0155855438419898	0.00312597393569879
10.8	-0.00201576281628893	-0.0148145897474398	-0.430253575005744	0.894750768233682	-0.430607484477276	0.894449430212773	-0.0151890834280964	0.0073900056919131
10.9	-0.00224846087616032	-0.0141279587365075	-0.285322315666226	0.950312895421979	-0.285716071810914	0.95018893393072	-0.0127766598688511	0.0111279017712668
11	-0.00240833986534244	-0.0143992275454483	-0.1350967333714	0.982648720772208	-0.135537466224105	0.982557099311269	-0.0097966825538072	0.0134787166263989
11.1	-0.00287140552700613	-0.0143388212957776	0.0197348695156466	0.99258032295043	0.0192414327217882	0.992594029935641	-0.00609024837758459	0.0154392567803419
11.2	-0.00327144959018433	-0.0146078431291354	0.174401957234692	0.977233568465539	0.173940587687825	0.97730790102479	-0.00172241535500298	0.0159523081444054
11.3	-0.00373049056410767	-0.0145981537500635	0.32427111638264	0.937819818593513	0.323808131094698	0.937958555044873	0.00281329820312751	0.0154029334418941
11.4	-0.00383774457967733	-0.0146893398998313	0.465624701365234	0.875949695034462	0.46521751671572	0.876064614759259	0.0072053940511064	0.0135716673027258
11.5	-0.00463916106205211	-0.0159343167919872	0.59685690866445	0.793761291942965	0.596535805245978	0.794067321799417	0.00935547556602585	0.0101896235267798
11.6	-0.00664086808558416	-0.0157321569527471	0.713582102702307	0.690121312354532	0.713366004822048	0.690453053321215	0.0110656538901844	0.00894584719682416
11.7	-0.00787292562148029	-0.01473894115324	0.811804551682675	0.570271135796622	0.811600903164939	0.570581331900779	0.013700123599936	0.00647057265530234
11.8	-0.00892888862305067	-0.0135735610578963	0.890418637057807	0.436923024148913	0.890237423351738	0.437378646161879	0.0154842233572513	0.00290025547825028
11.9	-0.0081859474098386	-0.0118196625262389	0.947978823729817	0.293236355157924	0.947874407276351	0.293690980669798	0.0172020049316804	-0.00186477387805198
12	-0.00854224187240436	-0.0126279563487472	0.982266523019487	0.140688618065803	0.98224018614545	0.141056663665536	0.0146868962716157	-0.0083640138531907
12.1	-0.0106475450259615	-0.0127081045159835	0.990715258858098	-0.0139676643241955	0.990646829716175	-0.013579365562568	0.00951801689721877	-0.0115888995073307
12.2	-0.012848376251485	-0.0114677733081377	0.976034933184225	-0.167835793545285	0.976055075101509	-0.167535649089078	0.00483919282965808	-0.0124462330437373
12.3	-0.0147230368958082	-0.0091366395338666	0.937433041013614	-0.317746586663408	0.937556236402572	-0.317438790068433	0.000616466601572248	-0.0119594918750096
12.4	-0.015705918205415	-0.00578966662745362	0.875863270985002	-0.460186413222966	0.875930680664395	-0.459814917504727	-0.00236995621037024	-0.0101898998378756
12.5	-0.0142000006790041	-0.00322905847893786	0.791566356409741	-0.589645716412633	0.791912650051764	-0.5892572083259	-0.00414190721148256	-0.00957396286754647
12.6	-0.0137157632555672	-0.00193048331702852	0.690713691130636	-0.704181820065211	0.690968693837547	-0.703940758468717	-0.00724703094986866	-0.00776829552589389
