# GHZ S RI R 50
0.2	-0.000191274152194173	-1.5858810894825E-05	0.948826131523421	-0.308087191372505	0.948603922285479	-0.308061716014987	-0.000201715126157191	9.81331385861236E-05
0.3	-0.000206952686906538	4.68598553239491E-05	0.888740096332558	-0.451706149670328	0.888583973433363	-0.451610761416107	-0.000290557868400738	-7.53834006621995E-06
0.4	9.19864969190856E-06	4.1999062720188E-05	0.807171919559466	-0.583852164904345	0.807183699729805	-0.583877274027965	-0.000197121763755044	-3.66692663770277E-05
0.5	-9.55536404231053E-05	-6.55230282561452E-05	0.706496841127499	-0.701990077826849	0.706341912076108	-0.701888629572979	-0.000264402138521574	-0.000141359093614164
0.6	-0.000105937056267099	0.000106013246659544	0.588556058392432	-0.802993074180528	0.588436897292309	-0.802831422131777	-0.000372766796825401	-4.03333364503637E-05
0.7	7.43776939380969E-06	0.000288963397607253	0.456466537139775	-0.884201302192755	0.456447805893916	-0.884088870873602	-0.000283402425315175	-2.007191197661E-05
0.8	0.000259476075229558	0.000262933221886517	0.313528718576796	-0.944039228283844	0.313497411073937	-0.943849620915397	-0.000271704603383456	4.7201434095709E-05
0.9	0.000449922328975739	0.00026655885151101	0.163160937770087	-0.980914164904779	0.163095956688423	-0.98082231535768	-0.000247249526472976	-1.87879501635594E-05
1	0.000436230533877548	-0.000149217521249675	0.00883476264704255	-0.994091139863554	0.00878315462326293	-0.994059689257894	-0.000383237768900175	-0.00038009987170395
1.1	0.000149370543222827	-3.87696790436908E-06	-0.145547316308348	-0.983165945219117	-0.145563030423854	-0.983035613484905	-0.00103817486210535	-0.00014950482730781
1.2	0.000365082543458884	-0.000414943840485613	-0.296428102992588	-0.948325697691213	-0.296351800462517	-0.948299637086661	-0.000927738924111902	0.000655342294398528
1.3	0.000673689149892115	-0.00145195235216431	-0.439906478610456	-0.890574147706526	-0.439883469007647	-0.890567541481662	0.000352801982956307	0.00176176841951938
1.4	0.000983005883136749	-0.00322092700766037	-0.572503504981131	-0.811371990331668	-0.572479353919691	-0.811350379736306	0.00239754917499465	0.00163698924861416
1.5	0.000786897739586745	-0.00430125972914137	-0.691517160097674	-0.712356537443809	-0.691415508256954	-0.712271685079568	0.00395863499683267	0.000601782319772594
1.6	0.000647025417244558	-0.00507914135479894	-0.793328601096272	-0.596211976596365	-0.793254632073625	-0.596152026419783	0.00432871266774472	-0.000821228000333144
1.7	-3.90248181624606E-06	-0.00543639328578887	-0.875674936572434	-0.466342712286223	-0.87583905031327	-0.465827272389799	0.00402298116117434	-0.00210898488584811
1.8	-0.000864465711160747	-0.00549364750495249	-0.937470902569253	-0.3243393902844	-0.937359793743163	-0.324338015535644	0.0031701148106644	-0.00321976361698439
1.9	-0.00178414000512651	-0.00530099855766139	-0.976128903238943	-0.175297641186674	-0.976221717178409	-0.174810766127318	0.00203781483530376	-0.00399754140926979
2	-0.00287899831663152	-0.00460432467481	-0.991051634946999	-0.0212704951984996	-0.991063560023358	-0.0212247177566852	0.000645387908951576	-0.00414643672584082
2.1	-0.00315930959608355	-0.00384477062718727	-0.982328100428199	0.132601791996071	-0.982366162964868	0.132638814977426	-7.15109958353556E-05	-0.00383219599021612
2.2	-0.00387955096281824	-0.00346596256027201	-0.949858988883717	0.283311392536311	-0.949784033865802	0.283374136327365	-0.000595169014560114	-0.00373763087080138
2.3	-0.00466416013179874	-0.00275322271238087	-0.894477388460102	0.426583457787311	-0.894096008281446	0.427096130687207	-0.00122397350444646	-0.00379396991123268
2.4	-0.00552558182962647	-0.00191984574200329	-0.816560599734639	0.56107794896316	-0.816826457886095	0.560492827327379	-0.00205283334756176	-0.00389085848346985
2.5	-0.00633633338622036	-0.00041309614096109	-0.720084068374391	0.680768318101794	-0.720296988910291	0.680258973257439	-0.00304543622953954	-0.00391858399006537
2.6	-0.0060612449870332	0.00137900724254699	-0.606045397572752	0.784008462223204	-0.605939268222465	0.783826037314375	-0.00341095514972262	-0.00320776810067895
2.7	-0.00519078656392774	0.00249581574292884	-0.476478214990682	0.868640478064355	-0.476926436322262	0.868233716513909	-0.00341935548496806	-0.00283788299878714
2.8	-0.00408882847115641	0.00309425712355058	-0.337244643307366	0.931468772830884	-0.336577887556341	0.931627948529011	-0.00351691622440636	-0.00256307219376426
2.9	-0.0026566083153031	0.00334837145613214	-0.188192199952891	0.972597970317587	-0.188223332353456	0.972510667012421	-0.00317483856535433	-0.00190148580289516
3	-0.00112989910513963	0.00323669098769008	-0.03408100830244	0.990240959994057	-0.0347813889782472	0.99008200005239	-0.00250852344320212	-0.00117445746205772
3.1	0.000415086836090578	0.00264059728202232	0.118569582231413	0.983311176715634	0.119159698676107	0.983293762170547	-0.00139164646807452	-0.000867672514975424
3.2	0.00143250311113752	0.00168564750073621	0.2701582246272	0.95286279160563	0.270103517548876	0.952802495272873	-0.000732628695869777	-0.000932595751860601
3.3	0.00239663969731868	0.00060080646946659	0.414896841816873	0.899387928550479	0.414759788478139	0.899373636821561	6.80365771386231E-05	-0.00112058099353555
3.4	0.00282560167097294	-0.000696166031181398	0.549528351473874	0.824135440881743	0.549366141354219	0.824253197923419	0.000790582566228617	-0.00181243808991167
3.5	0.00325671859369048	-0.00178393676981718	0.670657921955381	0.728728370733549	0.670578373992376	0.728767070291301	0.00122720782362588	-0.00228819154978016
3.6	0.00324513587720964	-0.0033442840684465	0.774965701013514	0.616447257006596	0.775206723967224	0.615999061774838	0.00164619333402085	-0.00313467864996022
3.7	0.00265594955748476	-0.00476950462057927	0.861616269707531	0.488214195755465	0.86149797165067	0.488357156853715	0.00163893784574021	-0.00397663558524403
3.8	0.00158060636505224	-0.00587711653774847	0.926775456566802	0.34911095778254	0.926832388648375	0.348731979415634	0.00135375635003937	-0.00486487630276341
3.9	0.000416680855263602	-0.00669367838660627	0.969824578096593	0.199837226706777	0.969586042127596	0.20050424991508	0.000340884925913061	-0.00599666058308869
4	-0.00107928807650855	-0.00677235136840883	0.988955388618583	0.0479753687462213	0.988916395586942	0.0480781512787315	-0.000832535035930924	-0.00637281802438961
4.1	-0.00197922087804091	-0.0071219705406045	0.984849678912078	-0.106017368398992	0.98466513042968	-0.105890374319875	-0.00154652088674082	-0.00673915074656084
4.2	-0.00368823950284249	-0.00743027339884864	0.956189043817926	-0.258348594302639	0.956223713556292	-0.257694882925186	-0.00252130367926956	-0.00724482748894474
4.3	-0.0055229711546429	-0.00747375256668223	0.904806852944456	-0.403013948218085	0.904670945653702	-0.402902912574669	-0.0037099835350918	-0.00786330687520621
4.4	-0.00777857253604757	-0.00701568418434739	0.83135382724875	-0.538411658455465	0.831188550825905	-0.538278452297616	-0.00529705707834622	-0.00842045648951047
4.5	-0.0100858184013072	-0.0056733011421814	0.738131991780324	-0.661099780294631	0.737942964053822	-0.660926733138808	-0.00740925083206367	-0.00851176028121535
4.6	-0.0115831331261462	-0.00367559858728447	0.625910071893247	-0.768368991450583	0.62625169656998	-0.767670470948149	-0.00920806393612414	-0.00800832732830591
4.7	-0.0126797135899678	-0.00188111949583106	0.499393824964394	-0.855936536664813	0.499410057697753	-0.855580478184369	-0.0109650683280698	-0.0075516413340026
4.8	-0.0135230829677381	0.000356676883589202	0.360268140027266	-0.922953764212635	0.360489615679389	-0.922636955184408	-0.0125427587152622	-0.00677735533243291
4.9	-0.0135950159110372	0.00256378026204878	0.213159571535941	-0.967337816132246	0.212939361068117	-0.967345780889865	-0.0137053245750886	-0.00571432714085699
5	-0.0129825803338713	0.00484753960262843	0.05990488031611	-0.988850487907817	0.0600821989272779	-0.988604786273894	-0.0142590313091097	-0.00405885863952841
5.1	-0.0116128556800332	0.00654130534450183	-0.0941464199532183	-0.986017676539053	-0.093814504794363	-0.985792029756109	-0.014160540722227	-0.00256261961208596
5.2	-0.0101752461266994	0.00828578520597752	-0.246127994441732	-0.959539420049262	-0.245635527495946	-0.959512352417925	-0.0140654214547124	-0.00106770561876112
5.3	-0.00832276792585409	0.00979762999605923	-0.392145796067376	-0.909828650831664	-0.391804569933679	-0.910045016352472	-0.0136543170204787	0.000356374136554133
5.4	-0.00607900939897524	0.0113957019994938	-0.52892239525563	-0.837957834902049	-0.528709272953297	-0.838158852165845	-0.0133325358914584	0.0017201802464028
5.5	-0.00288545859763233	0.0126011922537913	-0.652546029280546	-0.745296878780919	-0.652306772023138	-0.745491837390495	-0.012701213501639	0.00338774369650632
5.6	0.000260190275252731	0.0122459012699741	-0.760055695147784	-0.635136259954057	-0.759865677035628	-0.635308273389672	-0.011751703045029	0.00422992311395169
5.7	0.00248177218126753	0.0115699176585119	-0.849647362172189	-0.509467393482364	-0.849517764698847	-0.509687495682001	-0.0112702538417859	0.00521870836289066
5.8	0.00449350119615548	0.0109252973617982	-0.918426733436104	-0.371153149356946	-0.918358705728965	-0.37143853459837	-0.0107457001343617	0.00629914899133115
5.9	0.00618565201395026	0.00998588248689406	-0.96479382280652	-0.224012810074935	-0.964808303410321	-0.224096557978034	-0.0104524685508793	0.00730793563989947
6	0.0082236606326742	0.00963281560294434	-0.987832185351993	-0.0718714629954293	-0.987712750195369	-0.0719295250478894	-0.0101824190261939	0.00925229304726324
6.1	0.010911726877021	0.00750372388242307	-0.987261534850487	0.0825281285006764	-0.987134653720216	0.0823794511424815	-0.00846393207633671	0.0106228262990478
6.2	0.0120759636655451	0.00455522441512836	-0.962276879032022	0.235082413459934	-0.962263171173325	0.234879288737973	-0.00696169081275433	0.0110320780508461
6.3	0.0120077611741445	0.00133774176317257	-0.913934963424329	0.381655790355672	-0.91393048191187	0.381470205215842	-0.0056352298819796	0.0108078450196202
6.4	0.0109209256004993	-0.0015488562216622	-0.843531591348726	0.518778944462285	-0.843499925712102	0.518568023035432	-0.0048577822394764	0.0101442215210216
6.5	0.00926295500601919	-0.0038711226983142	-0.752948241341552	0.643650682151037	-0.752972494806296	0.643446284761192	-0.00439384531941068	0.00963979954913348
6.6	0.00749814017461888	-0.0056327977552845	-0.643436011944124	0.752948077283228	-0.643510227546784	0.752695633575167	-0.00387875046366913	0.0092790688589969
6.7	0.00562075803317984	-0.00684603643054234	-0.518500683581667	0.843488243322478	-0.518603864655743	0.843266910128527	-0.00351004257706827	0.00905762305122897
6.8	0.00402555893865124	-0.00767388065673067	-0.381234838801851	0.913670426821269	-0.381376835316029	0.913499644123684	-0.00313348689108371	0.00902715960137717
6.9	0.00231508695943506	-0.00837007330569714	-0.234727333241572	0.961830371197905	-0.234954397366087	0.961720081942226	-0.00260014865064157	0.0090982806749196
7	0.000890020437313185	-0.00875203609926614	-0.0820486314497476	0.98653698288202	-0.082258893819847	0.986447434358458	-0.00175309855185887	0.00904541308155694
7.1	-0.000897067864262626	-0.0090316133829028	0.0720982890623317	0.986818477579817	0.0718958742973509	0.986685499680515	-0.00102525547984242	0.0088214327773319
7.2	-0.00251963175280493	-0.00875897713327847	0.224373714817529	0.963503532866051	0.224091312266563	0.963469477454455	-0.000111755134082761	0.00878143012076164
7.3	-0.00410287588693957	-0.00831285843900138	0.371241564170982	0.916851151776113	0.371005374568013	0.916877887248252	0.000873234589568235	0.00852525896881053
7.4	-0.0054157893795986	-0.00753447755082435	0.509232433862972	0.847768853279277	0.50901900038163	0.847820531687417	0.00166925427915581	0.00801377701768673
7.5	-0.00631639925737862	-0.00665705237516432	0.634235098436853	0.757808820795158	0.634065717075525	0.757878912819707	0.00265793361035377	0.00761268315585715
7.6	-0.00691840946983155	-0.00613044782019528	0.74387614668538	0.650326785185998	0.743618741903156	0.650409750937801	0.0038303370318088	0.00641399299496033
7.7	-0.00786001390933055	-0.00510833549672016	0.835720583375258	0.526861762917912	0.835535519991816	0.527079382850191	0.00426304555747596	0.00501833542864661
7.8	-0.00823421625667077	-0.00360166548944652	0.907286055122811	0.390455906751893	0.907183528916001	0.39068158986785	0.00440801025713248	0.00358016397329407
7.9	-0.00837271537625864	-0.00172848275775261	0.956497696518023	0.244801942473222	0.956360057353412	0.24498191568947	0.00390366239127107	0.002421745318393
8	-0.00706861176823102	0.000893583015187899	0.982502295380981	0.0937921650451454	0.982479703481003	0.0940549065876314	0.00287398364385945	0.0022081336025256
8.1	-0.00468988100616778	0.00172863642472752	0.985406272416989	-0.0600555739548244	0.985435669292784	-0.0597999884899774	0.00277733910867378	0.00188369640077804
8.2	-0.00295067692804405	0.00173432592764269	0.963718597577913	-0.212453234151589	0.963767566850127	-0.212136235268191	0.00207644315995186	0.0014284721057815
8.3	-0.00169140518229788	0.00154993224805394	0.918663158190276	-0.359288563270887	0.918715054775437	-0.359001575822752	0.00128167474247142	0.00128037156182309
8.4	-0.000768867860227666	0.00109068748107141	0.851654886179161	-0.497130527431566	0.851752965595119	-0.496928780830835	0.000370504439041379	0.00111898573757584
8.5	-0.000295166344196372	0.00148795236485276	0.764451153817076	-0.623378604764099	0.764502774271694	-0.62322794508245	-0.000956102619648426	0.00181724506133164
8.6	0.00158615278667675	0.00123560246458817	0.657707800686185	-0.734436327426564	0.657876716093709	-0.734199578972046	-0.000976184095937461	0.00301541220724719
8.7	0.00261495663779814	0.000289337014233498	0.535514565698818	-0.827133629424548	0.535774032868467	-0.826918766683661	-0.000631248865561082	0.00397889324350146
8.8	0.00349425180878308	-0.000663660461607355	0.400814697731907	-0.899889609379298	0.401000104526753	-0.899750925836376	0.00012722236472767	0.00467128255709537
8.9	0.00406248320070753	-0.00173221372654757	0.256421531417643	-0.951246248055664	0.256600812478657	-0.951076553089279	0.00142715657326389	0.00504804523662482
9	0.00472238848575585	-0.00266131019061258	0.105058150654565	-0.979171240588958	0.105366333748282	-0.979125370060551	0.00292514530639807	0.00513835900603288
9.1	0.0056130784643566	-0.00372379232892191	-0.047784327704808	-0.982970395194992	-0.04747548965896	-0.982930044100183	0.00493765851333161	0.00475953792751767
9.2	0.00659336824734721	-0.00478305416668172	-0.199607437840667	-0.963514142625718	-0.199260263680414	-0.963492464070491	0.00712008993678379	0.00376095799486969
9.3	0.0077584656945191	-0.00602174291305775	-0.346684520332669	-0.920753415283255	-0.346333004880515	-0.920728503733518	0.00935734010221643	0.00192848888596004
9.4	0.00861394132198285	-0.0078644291704075	-0.485405771391157	-0.855467149795273	-0.485083233260457	-0.855558507796228	0.0106484353542134	-0.00100157634865536
9.5	0.00925751158848882	-0.00944189722117601	-0.611519473788462	-0.769081615463074	-0.611283153453046	-0.769132203712047	0.0108143353582525	-0.00368082644554363
9.6	0.00880180408018527	-0.0122463174669283	-0.723043913340889	-0.665157119634884	-0.722733151733797	-0.665295887792288	0.00995583039705842	-0.00684813515825769
9.7	0.00713373696069633	-0.0134715741953251	-0.817322301323873	-0.54486585269442	-0.817035665519916	-0.545098624446547	0.00765003995036793	-0.00940414266334257
9.8	0.00561687412775182	-0.0140340307294801	-0.891650207290292	-0.411350508387483	-0.891397692226704	-0.411519345113372	0.00462621977073452	-0.0111885539396725
9.9	0.0039230421314107	-0.0136856336116171	-0.944079643486135	-0.268039586858315	-0.943828197990389	-0.268248023444582	0.000850183266990896	-0.0120736360752078
10	0.00340519382364889	-0.0122799708475161	-0.973938439584434	-0.119093505648031	-0.973785239121792	-0.119454824711049	-0.00296042123761589	-0.010940733912692
10.1	0.00358504092010962	-0.0125513498306947	-0.980724371876326	0.0335233576253555	-0.980661095693415	0.033092929700887	-0.00574789930487337	-0.00964555359791727
10.2	0.00276660428241074	-0.0128207299354569	-0.963403263810277	0.185154696687161	-0.963281798339979	0.184724684648554	-0.00858927342561748	-0.00771769821476201
10.3	0.00169345992839638	-0.0125646031300554	-0.922811466666881	0.332016559046787	-0.92282874799141	0.331476693815158	-0.0110012345639808	-0.00530036451155003
10.4	0.000581877284198247	-0.012201637378605	-0.860309952552725	0.470505946353515	-0.860445895703215	0.469996085739263	-0.012933295201473	-0.00263544764922838
10.5	-4.97170945575705E-05	-0.0107519061207575	-0.777476630056412	0.598587878413264	-0.777649015740801	0.598156770604083	-0.0140332793667901	0.000815949220232572
10.6	0.000779286588050031	-0.0102280675944069	-0.67468408765226	0.711875613631213	-0.674955849272057	0.71154656956876	-0.0134355857877568	0.00417851773774445
10.7	0.00142386775951285	-0.0105582303386969	-0.556082103412144	0.807533626531168	-0.556381813558901	0.807225212998344	-0.0118884849902701	0.00687845148116561
10.8	0.00147010928478369	-0.0116857234875486	-0.424287771158685	0.883737569163659	-0.42463740437895	0.883440243798936	-0.0100291590277293	0.00886028984920497
10.9	0.000727796767835701	-0.012407578496174	-0.282338022374111	0.939003492921325	-0.282727090320653	0.938880835673242	-0.00817640469327876	0.0105931193417452
11	0.000150851515753377	-0.0130228870671945	-0.132675087757739	0.971269533393034	-0.133110743527059	0.971179361120337	-0.00561567713099395	0.0120357614732585
11.1	-0.000719012063396226	-0.0136148457202986	0.0191162657066871	0.979392113406944	0.0186293837012487	0.979405461125031	-0.00272011902567924	0.0126938677162645
11.2	-0.00169756631589971	-0.0141411426774036	0.170400610276892	0.964692901763767	0.169945175407255	0.964765450464705	0.00048657265042331	0.0126438257244061
11.3	-0.00281182093925826	-0.0144170240467415	0.317817365275078	0.926765734605054	0.317359890710175	0.926901555113435	0.00376511352577998	0.0117574065953905
11.4	-0.0042277629491349	-0.0144198876400941	0.457883372595927	0.866128321263326	0.457480981187605	0.866240901850343	0.00648141743370391	0.010361725269977
11.5	-0.00475578393154988	-0.0138040336285207	0.585850243287674	0.784087390349044	0.585532859298457	0.784388034695435	0.00918938888356922	0.00883767619556676
11.6	-0.00597687642304793	-0.0146435789224207	0.700003802931952	0.684470954125304	0.699788887661424	0.684796950006755	0.0111743316865678	0.00599848720948923
11.7	-0.00803433532589382	-0.0142261279674412	0.797805550408324	0.567791376079205	0.797602664327826	0.568096309547847	0.0121076493267005	0.00309704332617531
11.8	-0.0101649977619397	-0.0132399847781848	0.876209790949449	0.437024110896041	0.876027982646611	0.437472733520029	0.0120872853470327	1.52030648501414E-05
11.9	-0.012195020682654	-0.0110005316337656	0.932887830826638	0.295960538350726	0.932781611154337	0.296408184376543	0.0106911150258758	-0.00254942015493254
12	-0.012848919376532	-0.00753098400664795	0.967593590305082	0.148858381005206	0.967563836976014	0.149221199100736	0.00919415915637143	-0.0036765818151352
12.1	-0.0119708771292974	-0.00582109142229188	0.979493174218166	-0.00314145986933257	0.979421350191274	-0.00275835507600613	0.00824802632974313	-0.00532412545635503
12.2	-0.0118364405576069	-0.00461276485808053	0.967145506396433	-0.154991819396755	0.967162046163851	-0.154694762902781	0.00653104364664918	-0.0066946026985742
12.3	-0.0115750103435641	-0.00336507395800088	0.931374460046932	-0.302810905913693	0.931492550708767	-0.302504866048726	0.00476142850286	-0.0078066515870394
12.4	-0.0117483740555391	-0.00251104838143825	0.873873386101496	-0.443236205455248	0.873934852048314	-0.44286737208895	0.00256697508010833	-0.00885535149835669
12.5	-0.0117121726027875	-0.000572592803776494	0.795200125804423	-0.574214808475014	0.795538482465997	-0.573823678533912	-0.000255560002009342	-0.00882011038089053
12.6	-0.0105302973466456	0.000184184978216103	0.696028572125858	-0.690646603944757	0.696278795336885	-0.690403563094803	-0.0022479714126059	-0.00845718780923081
