# GHZ S RI R 50
0.2	-0.000287555463840155	-0.000142207813016121	0.949035548738838	-0.308032913181316	0.948813295897807	-0.308007459070757	-0.000237447884643	-9.60402058193263E-05
0.3	-0.000400633333657089	-5.57881996073928E-05	0.889014923413126	-0.451693836043126	0.888858750054806	-0.451598446101063	-0.000407673843058651	-0.0002577918928581
0.4	-0.000263803328487086	1.50447806767638E-05	0.807497128790837	-0.583930690590619	0.80750891581936	-0.58395580601595	-0.000417539977774322	-0.000288625062936806
0.5	-0.000359514777230096	-8.99066514159812E-06	0.706776748303664	-0.702185183436644	0.706621760970635	-0.702083710113351	-0.000491840957070141	-0.000321795407400915
0.6	-0.000434495991374708	0.000176262060477142	0.588807660478411	-0.803212779869825	0.588688448499561	-0.803051083646088	-0.000596066384770926	-0.000281533807556481
0.7	-0.000369186861351729	0.000493779764312587	0.456695838903385	-0.884501402427589	0.456677093180675	-0.884388930344189	-0.000564147917329082	-0.000280467470121713
0.8	-6.82493974349733E-05	0.000613261517583324	0.313684917268763	-0.944415700227605	0.313653591319731	-0.944226016311477	-0.000606437369917251	-0.000220757991860637
0.9	0.000270742708142497	0.000747598658383143	0.163203421805663	-0.981321813395146	0.163138416279574	-0.981229924434675	-0.000680687971973113	-0.000258278777921227
1	0.000683093876491971	0.000313339813756768	0.00882773479186218	-0.994456617040251	0.00877610810388846	-0.994425154341276	-0.000749561334800428	-0.000399978903827813
1.1	0.000676563118367417	-0.00013684996487565	-0.145611951966492	-0.983598842786917	-0.145627672945105	-0.983468453645016	-0.00104165683477934	-0.000314131710842277
1.2	0.00088049701029449	-0.00127560638101824	-0.296619730212269	-0.948747321015696	-0.296543390901082	-0.948721252739851	-0.000648806488273185	1.4525103370858E-05
1.3	0.000807170949414059	-0.00311539664331674	-0.440192244316407	-0.89093420875127	-0.440169223669839	-0.890927601775946	0.000702864054274511	0.000360277080462146
1.4	0.000448358342606377	-0.00505079700550807	-0.572827758406754	-0.811662933011282	-0.572803594915058	-0.811641315534557	0.00247245742876011	-0.000231655745782684
1.5	-0.000254210234681069	-0.00570216572736922	-0.6919180706578	-0.712666254572417	-0.691816361344123	-0.712581366703315	0.00387137185553539	-0.00132944960332591
1.6	-0.000595588229653491	-0.0054875059479226	-0.793869730296454	-0.596384036253727	-0.793795710021587	-0.596324067663312	0.00387385140938865	-0.00259729933749844
1.7	-0.000841076195688269	-0.00515436676571594	-0.876231392820559	-0.466379199066974	-0.876395471511073	-0.465863457124575	0.00335457052821276	-0.00353128674665523
1.8	-0.00126050867384896	-0.00491253476981046	-0.938032370363782	-0.324275309602686	-0.93792120414017	-0.324273961462366	0.00239489929195175	-0.00427035504091326
1.9	-0.00173595221734765	-0.00469904333955429	-0.976726724658809	-0.175139418000395	-0.976819462737772	-0.174652243306482	0.00133966286895751	-0.00462065872865942
2	-0.00271118223654462	-0.00442890577599289	-0.991674169936962	-0.0208649691511162	-0.991686083056541	-0.0208191582984032	0.000350170753211889	-0.0046868152766171
2.1	-0.00331513153740709	-0.00351588194133412	-0.982751006930796	0.133148894193028	-0.982789070229001	0.133185954226683	-0.000381179751304657	-0.00452873465492094
2.2	-0.00384318284032325	-0.00292426613970264	-0.950166509865207	0.283921035977605	-0.950091487964572	0.283983771932197	-0.000987375158475944	-0.00443229896860708
2.3	-0.00434696640941386	-0.00225002060809697	-0.894662664884202	0.427273687084626	-0.894280824954764	0.427786391142608	-0.00172243257879942	-0.00439865366089537
2.4	-0.0048972580593906	-0.00167988511884861	-0.816565692555594	0.561863402825026	-0.816832051813905	0.56127818894662	-0.00257310647623116	-0.00422817488605339
2.5	-0.00563641747466076	-0.000982986995881147	-0.719779961243452	0.681486837152156	-0.719993316114491	0.680977509253045	-0.00314941926411083	-0.00411000995179005
2.6	-0.00618152163610273	0.000388641411363792	-0.605682866904059	0.784578401067788	-0.605576829976821	0.784395865905778	-0.00330380272600834	-0.00370462047388181
2.7	-0.00586915126037225	0.0017164643652971	-0.476001419432739	0.869162432728433	-0.476450018758157	0.868755880113179	-0.00329045249991176	-0.00360522663408443
2.8	-0.00496527813963832	0.00263708604671726	-0.336627718763614	0.931878251558058	-0.335960729638477	0.932036971114465	-0.00342287742988154	-0.00357111621109936
2.9	-0.00354572208391532	0.00306725678019469	-0.187465653015961	0.972794283003664	-0.187496853305546	0.972706998455153	-0.00315734024949373	-0.00314848472377307
3	-0.00217541422502716	0.00309767227050089	-0.0334860627311179	0.990234906443349	-0.0341865200396782	0.990076370900118	-0.00269522067085383	-0.00269507623572177
3.1	-0.000595214721744142	0.00286546681876762	0.119204646808379	0.983321401660677	0.119794803524746	0.983303610667447	-0.00192372035223614	-0.00245133455911554
3.2	0.000555623975353343	0.00207865004737055	0.270833367623053	0.952691753669156	0.270778617072945	0.952631494597169	-0.00154855656230743	-0.00238260977741539
3.3	0.00163129366487315	0.00111095810422717	0.415499653212979	0.899037565238355	0.415362598938671	0.899023370505003	-0.000903953383086921	-0.00231055095367633
3.4	0.00217117056339099	-0.000169297103013817	0.549965805246541	0.823694778077223	0.549803687754297	0.823812620019124	-0.000110244087545769	-0.00271087424307146
3.5	0.00236682391179892	-0.0012514521154227	0.671113892542984	0.72835244505953	0.671034365054276	0.728391193270062	0.000480265772800459	-0.00317343927137154
3.6	0.00241035938180465	-0.00224797740521719	0.775399619373638	0.615816096075693	0.77564028351993	0.615367739006177	0.000884553195474482	-0.00394301522978488
3.7	0.00226504989765586	-0.00347344311200413	0.861843774477156	0.487485476761903	0.861725603405109	0.487628503706537	0.000907935375865192	-0.00467965272594676
3.8	0.00159211492111897	-0.0046441372113852	0.926841030316052	0.348376199961162	0.926897679067724	0.347997256371947	0.00066981293899464	-0.00541540167202543
3.9	0.000782654840478997	-0.00578648414685837	0.969817762752442	0.199109031297147	0.96957974330428	0.19977612249204	-0.000152331021770745	-0.00631816790206574
4	-0.000954487586937277	-0.0065761593334514	0.988782024139531	0.0470259926401172	0.988743137303964	0.0471287894371811	-0.000925601661793691	-0.00678167935223605
4.1	-0.00250589694399186	-0.00669767302845917	0.984274158429426	-0.106816165178929	0.984089810349406	-0.106689074053838	-0.00158909866920928	-0.0073441623732731
4.2	-0.00428610867371479	-0.00665404314423723	0.955484465779002	-0.258936853300684	0.955519613182118	-0.25828351588864	-0.00259557078961889	-0.00795984058552609
4.3	-0.00604519757134466	-0.00644385690521786	0.904017921260644	-0.403456228213145	0.903882169437241	-0.403345153705423	-0.00388704911780997	-0.00856647409883257
4.4	-0.00800182349539751	-0.00584771489696669	0.830425928885483	-0.538755326902927	0.830260857880547	-0.538622068063163	-0.00550514501330745	-0.00888495822437048
4.5	-0.0101168915011064	-0.00500189149108353	0.736973719181295	-0.661049387835496	0.736784990858079	-0.660876356973894	-0.0072233449875391	-0.00881699993866535
4.6	-0.0122094660157201	-0.00306053151859935	0.625007031100174	-0.768009907089012	0.625348696846464	-0.76731214798345	-0.00874170414378759	-0.00848560528072874
4.7	-0.0135178889547457	-0.000932036081166352	0.498588026903789	-0.855471039259859	0.498604412186767	-0.855115278707866	-0.0103033450686971	-0.00830169651024546
4.8	-0.0143843677696013	0.00163215678390954	0.359522510753058	-0.922319146909674	0.359743941958737	-0.922002717295056	-0.0118506364730375	-0.00785633018153338
4.9	-0.014302339175802	0.00413002548227481	0.21254367820233	-0.966423451476673	0.212323692452059	-0.966431318019291	-0.0130881752920013	-0.00705138378673172
5	-0.0135704898991551	0.00662079400525699	0.0597849351384364	-0.98782884124813	0.0599620842911545	-0.987583404704783	-0.0137501211383383	-0.00569425957751032
5.1	-0.0117036931619638	0.00875489444640129	-0.0941748640715975	-0.98518768971241	-0.0938432004552345	-0.984962266459702	-0.0139178284105131	-0.0043959873413689
5.2	-0.00941563597454646	0.0103563757158399	-0.246026401158264	-0.958646929099727	-0.245534373172622	-0.958619947094614	-0.0140908046497143	-0.00293346647335652
5.3	-0.00696282459411234	0.0111627014810698	-0.391796758021459	-0.908946244582479	-0.391455864844027	-0.909162412853572	-0.0138360279815028	-0.00139742013754476
5.4	-0.00472016578164412	0.0116868763410025	-0.528290099710539	-0.837269627195212	-0.528077141226098	-0.837470421937197	-0.0134078760224117	9.12338256922293E-05
5.5	-0.00282113504983281	0.0122718713355522	-0.65204052556766	-0.744940644540223	-0.651801384832404	-0.74513544966725	-0.0127370501402558	0.00143384447347548
5.6	-9.63915442496921E-05	0.0129438925199082	-0.759515140749167	-0.634609957419413	-0.75932527694363	-0.634781851169089	-0.0120524570790931	0.00223748123937721
5.7	0.00254546113263443	0.0125488947753416	-0.848892401107519	-0.509056979011648	-0.848762907977769	-0.509276885677958	-0.0118363886603393	0.00330015438166681
5.8	0.00490571205215347	0.011757475932012	-0.917583307874434	-0.370973298751363	-0.917515295613089	-0.371258428945613	-0.01153525042421	0.004708691033303
5.9	0.006860627390414	0.0102011244452055	-0.964054730784044	-0.224035331613647	-0.964069185065232	-0.224119021679295	-0.0110578366468928	0.00628332113894927
6	0.00783949841582595	0.00869258465307881	-0.987030726511951	-0.0717272093724353	-0.986911394084383	-0.0717852341134478	-0.0101609740370302	0.00817380605594716
6.1	0.00905018359877231	0.00753083602705217	-0.986190024794383	0.0822627652840447	-0.986063256995238	0.0821142740572249	-0.0082764136416332	0.00930585863616541
6.2	0.0100606995721677	0.00570716854614982	-0.961387453781204	0.234467444344121	-0.961373680703014	0.234264532175213	-0.00675994178327746	0.00940826515808
6.3	0.0103652391402651	0.00332434203720235	-0.913288262107151	0.380883657685252	-0.913283697841754	0.380698242290826	-0.0056729701691852	0.00897323957741403
6.4	0.0100240921142325	0.000749641245975802	-0.843000267603825	0.518009066416403	-0.842968548955262	0.517798339429673	-0.00513977021824966	0.00829775212437239
6.5	0.00890016753995661	-0.0017643681346229	-0.75241885814756	0.642487969224468	-0.752442971844624	0.642283797626038	-0.00485829099298916	0.00776467051411466
6.6	0.00763266083410115	-0.00380500406331274	-0.64351121919869	0.751712889794443	-0.643585148944884	0.751460608620132	-0.00455759230960801	0.00750041307812804
6.7	0.00588661810695471	-0.00562538053009959	-0.518809010840308	0.842450955054778	-0.518911936439765	0.842229699364981	-0.00429947406910813	0.00745710095170175
6.8	0.00399981958949056	-0.00683249801311687	-0.381653124310477	0.912717496526246	-0.381794887836562	0.912546729766063	-0.00387946388469039	0.00765840703117637
6.9	0.00189687870705808	-0.00760836368663143	-0.235326878379006	0.960791866734545	-0.23555365135602	0.960681483978255	-0.00308969015735613	0.00783555142982317
7	5.62263948627136E-05	-0.00765248165744266	-0.0832474526629892	0.985736213329218	-0.0834574525347728	0.985646460129856	-0.00208772601881452	0.00770870158457201
7.1	-0.00157646905372524	-0.00750149384074189	0.0709958085986431	0.986523837774567	0.0707936152769227	0.986390689593294	-0.00122227058219023	0.00742634817775271
7.2	-0.00303284917057936	-0.00707526056371967	0.223291276205099	0.963327020502303	0.223009027713894	0.963292689928998	-0.000220453627833089	0.00727349970426378
7.3	-0.00446444156767562	-0.00647480478416467	0.370049854986307	0.91685467892019	0.36981374149473	0.916881138316336	0.000819588983647697	0.00690321193729856
7.4	-0.00556272749735887	-0.00561249074369685	0.507902161327393	0.848181178936842	0.507688728699378	0.848232548093039	0.00168305647277365	0.0062583010517965
7.5	-0.00650386480280068	-0.00463555922059959	0.633401095006908	0.758735594270626	0.633231596022237	0.758805487162339	0.00261989249393018	0.00558515368525044
7.6	-0.00668311822300778	-0.00351389919387545	0.743253242346576	0.65104714423353	0.742995756254929	0.651129862328982	0.00358074420034994	0.0043026063451735
7.7	-0.00667399169074135	-0.00250501738911219	0.835113559809275	0.527744484162646	0.834928268638423	0.527961894159111	0.00385720836128114	0.00297012147051056
7.8	-0.00623538780479373	-0.00164213136152961	0.906895658970915	0.391557627250028	0.906792858295517	0.391783206876243	0.00395745971981874	0.00175705895335974
7.9	-0.00591872707931726	-0.00111478812672336	0.956566144345578	0.245975041343003	0.956428251322179	0.24615492359935	0.00372218822870907	0.000848116214479868
8	-0.00599659555428779	-0.000464145167097972	0.982677547715979	0.0944899337338435	0.982654769822682	0.0947527238508554	0.00324027207368315	0.000316252684700282
8.1	-0.00566214887384524	0.000975620548703041	0.985468432002633	-0.0590683435156004	0.985497572843155	-0.0588127280807543	0.00301010044070259	-0.000289142658411866
8.2	-0.00465534813030899	0.00206165846020036	0.964182607957868	-0.211391863828257	0.96423122334663	-0.211074736396467	0.00217262342950863	-0.000966919524044776
8.3	-0.00354740223473859	0.00292824451234895	0.919471098369378	-0.358460897511126	0.919522708804766	-0.35817372281882	0.00109462760395852	-0.00116390964544859
8.4	-0.00203532502587056	0.00329672678235322	0.852480112047206	-0.496711405286038	0.852578082169626	-0.496509478726786	2.92273798884701E-05	-0.00100911136567694
8.5	-0.00117530347058334	0.00310940540712745	0.765119289637539	-0.622741045722999	0.765170776144381	-0.622590320540147	-0.000860076136290027	-0.000313995615516995
8.6	-0.000125141967444718	0.00354210632741309	0.658897603545847	-0.734029774895028	0.659066325081953	-0.733792710232068	-0.000840646014843684	0.000532431646231432
8.7	0.0013814803037406	0.00366536800759362	0.536691019398093	-0.827165258227948	0.536950450324287	-0.82694999475932	-0.00066155382863403	0.00103140134879606
8.8	0.00327548934403902	0.00327602423392002	0.401822035991963	-0.900151822768296	0.402007450479585	-0.900012894693721	-0.000483759901996133	0.00137938802420534
8.9	0.00519595590124515	0.00217139097882507	0.257344175062055	-0.951462817621341	0.257523394142651	-0.951292893417673	8.92375151850811E-05	0.00190677336760357
9	0.00686870963304044	0.00018230392866309	0.106403414415938	-0.979757444265419	0.106711765434177	-0.979711140887012	0.00124254502404306	0.00240556582474366
9.1	0.00812481559323953	-0.00186840773590274	-0.0469668085016004	-0.984092027386282	-0.0466576670529212	-0.984051358644383	0.00315697911279187	0.00245689348652099
9.2	0.00904575976167296	-0.0042910508470585	-0.199124368822343	-0.964595951885581	-0.198776870737362	-0.964574007821945	0.00545990166602606	0.00177121774735571
9.3	0.00922210030633249	-0.00657390021580274	-0.346305789525725	-0.92182961304466	-0.345953980482036	-0.921804417237582	0.00786467880198992	0.000249033097508561
9.4	0.00883832469082662	-0.00882873239789224	-0.485032684825249	-0.856815656651965	-0.484709730485913	-0.856906781842992	0.00976177976520199	-0.00229262222133422
9.5	0.00742301885458537	-0.00980383012213425	-0.61195927802757	-0.770746104895702	-0.611722542843451	-0.770796607989537	0.0104672077660185	-0.00536413997255726
9.6	0.00708290437950061	-0.010310252278333	-0.723774010502711	-0.666251219128796	-0.723462800713687	-0.666390069561666	0.00990083713709495	-0.00882085509409157
9.7	0.00658643811750852	-0.0109024081396623	-0.818107751123807	-0.545862258563852	-0.817820670179598	-0.546095201464371	0.00755050231764396	-0.0117870138645243
9.8	0.00603726630754289	-0.0115493886528641	-0.892684691683122	-0.412309861879991	-0.892431756585067	-0.412478816701845	0.0042747447065827	-0.0136182473112966
9.9	0.00521254731849755	-0.0121305806903187	-0.945620951576381	-0.268740792270922	-0.945369023390986	-0.2689495194113	0.000618218988216829	-0.0141839754187919
10	0.00355217641328458	-0.0123608789911494	-0.975401700828468	-0.118891774476551	-0.975248416556741	-0.119253678354988	-0.00287821748071117	-0.0134531723266195
10.1	0.0026273070097378	-0.0114529371314022	-0.981890095980705	0.0336516699780723	-0.981826783211453	0.0332207234034799	-0.00583540098407802	-0.0123541666961194
10.2	0.00231240583838537	-0.0111102537812393	-0.964729260014472	0.185525430214313	-0.964607674576936	0.185094802664605	-0.00896755551164922	-0.0106116796521596
10.3	0.00188249885422556	-0.0109473091015234	-0.924072276535722	0.3328706936472	-0.924089791335157	0.332330022855843	-0.0118105973025501	-0.00807821590619939
10.4	0.00137459382793693	-0.0113727991997996	-0.861041364262098	0.471849617205509	-0.861177916235008	0.471339202529252	-0.01393329813541	-0.00494533209390609
10.5	0.000124478223015403	-0.0116237507565885	-0.777594921908668	0.599432677697761	-0.777767676920701	0.599001407199161	-0.0148003214147459	-0.0013137083186937
10.6	-0.000955406696205695	-0.0112383897436468	-0.675113524108697	0.712764265443447	-0.675385646759276	0.712434988877481	-0.0142158435889826	0.00216529802676976
10.7	-0.00158168052032745	-0.0105431264536015	-0.55626130776524	0.808665926343776	-0.556561489583371	0.80835733865771	-0.0125866182067599	0.00510494890245569
10.8	-0.00187291226705296	-0.010194787234929	-0.424081828813662	0.884853765427004	-0.424431991912013	0.884556400405256	-0.0104059302528675	0.00726207399929598
10.9	-0.00217274471265739	-0.0100071335359774	-0.281927624812289	0.939730336618803	-0.282316997353273	0.939607846052909	-0.00800929036267979	0.00890416928010281
11	-0.00247530241178657	-0.00996269370840406	-0.132710167022049	0.972173205581512	-0.133146230838627	0.972082989389487	-0.00513568961337609	0.00992051360683524
11.1	-0.00259850002184563	-0.00984374920475881	0.0197401258426454	0.980555844565518	0.0192526676808603	0.980569507015329	-0.00213530994364668	0.0101080580585583
11.2	-0.00274227643887328	-0.0101830767638816	0.171331287514941	0.965481308091294	0.170875474149733	0.965554288595104	0.000909410553547973	0.00962410209093505
11.3	-0.00308512779835108	-0.0105759858002787	0.318736830255908	0.927259876747805	0.31827909651679	0.927396134666927	0.00395479181916563	0.00857136569001352
11.4	-0.00391038530300624	-0.0112362266288599	0.458659090840093	0.866704703482043	0.458256389090546	0.866817555312425	0.0066430353140035	0.00709168916438764
11.5	-0.00533438225974193	-0.0109927402443606	0.587413136952251	0.784718658052014	0.587095554149822	0.785020028525305	0.00907787754666659	0.00512925785311321
11.6	-0.00611059941796263	-0.0105743971721051	0.701537730840939	0.684209767867977	0.701323034167848	0.68453634454774	0.0106893947987398	0.00227287252173906
11.7	-0.00690005176900229	-0.0101255575055961	0.799057149197525	0.56731558895684	0.798854455708285	0.567620984737779	0.0111440736188092	-0.000489529080904008
11.8	-0.00789263813177936	-0.00980348525310173	0.877417708877536	0.436463630998098	0.87723622315219	0.436912827488769	0.0107697964273479	-0.00295314427685208
11.9	-0.00900981949999874	-0.00927060023052211	0.934398188013816	0.295083692559922	0.934292432073594	0.295532016024104	0.00975071152304365	-0.00453649578741744
12	-0.011186689013888	-0.0083734397377049	0.968541936027325	0.146938319775861	0.968512919829583	0.147301439080692	0.00916371224756466	-0.00574021691032007
12.1	-0.0121645311512571	-0.00613439500898457	0.979691115605329	-0.00481810273185824	0.979619932178214	-0.00443479552267332	0.0088418362170476	-0.0074904897350123
12.2	-0.0127222035635611	-0.00450978160022119	0.967111083641534	-0.156661991707035	0.967128129085415	-0.156364893303641	0.00747991139749326	-0.00952246242339285
12.3	-0.0131118383096355	-0.00278210706688483	0.930949438380251	-0.304592009828626	0.931068117069831	-0.304286144258534	0.00547797876679108	-0.0111807198224235
12.4	-0.0133651946900695	-0.00130427634300555	0.872680621012963	-0.445046149957802	0.872742882290781	-0.444677543915263	0.00299831603090074	-0.0122055205508566
12.5	-0.0137235090397832	0.00021238162097685	0.79340648028405	-0.574891677063312	0.793745109554706	-0.574501520501812	0.000359830005179975	-0.0123797765408295
