# GHZ S RI R 50
0.2	-0.000173846817960015	-3.19912986748122E-05	0.948947120854813	-0.308077757280095	0.948724885449926	-0.308052289379819	-0.000174300295953749	7.08546410210446E-05
0.3	-0.000206845394499256	2.72412419929354E-05	0.888890711730869	-0.451720084578145	0.888734561475128	-0.451624691614013	-0.000277845151959994	-5.14558393314737E-05
0.4	-3.27215008980992E-05	3.55347231027929E-05	0.807365451632375	-0.583917499499989	0.807377235633876	-0.583942612824775	-0.000230409732752786	-8.01596462055818E-05
0.5	-0.000116669259056977	2.94585073623464E-05	0.706661544214233	-0.702190832819695	0.706506577657159	-0.702089354155118	-0.000279538756226181	-8.53437252827725E-05
0.6	-3.98973093672414E-05	0.000136713616242127	0.588621202379121	-0.803191349437276	0.588502028030312	-0.803029657425251	-0.000289444852445626	-6.08695267352127E-05
0.7	4.08568228302455E-05	0.000267926500736704	0.456511724761035	-0.884413403433197	0.45649299603626	-0.88430094739631	-0.000234271733207941	-0.000117674299296093
0.8	0.000251008835616783	0.000207440261814998	0.31352718465568	-0.944294540429057	0.31349588516327	-0.944104884383756	-0.000281386406247288	-0.000109961416933777
0.9	0.000311507473028511	0.000164043025577648	0.1630488590768	-0.98121144577386	0.16298387475909	-0.981119560421977	-0.000427457429893849	-0.000239488117091941
1	7.53908288984067E-05	1.27472418241998E-05	0.00857453514210018	-0.994259943915587	0.00852292676143843	-0.994228474453647	-0.000844828477565657	-0.000296646270517713
1.1	-1.53622042537112E-05	0.000353434615457145	-0.145737858997328	-0.983268716481288	-0.145753552409938	-0.983138365011212	-0.0012910743542486	0.000202628786291394
1.2	0.00023996851655981	9.08363249554244E-05	-0.296665474332413	-0.948428856223668	-0.296589153659739	-0.948402806213564	-0.00108733260908939	0.00119738462688682
1.3	0.000779026067555575	-0.00075761753824406	-0.440207028459791	-0.890606450446541	-0.440184013399245	-0.890599849053486	0.00050000684392198	0.00249733496420723
1.4	0.00133328836323094	-0.00261220545031616	-0.572812468175791	-0.811255635450842	-0.572788308130465	-0.811234030817555	0.002852197343832	0.00223642802084368
1.5	0.00139639966134978	-0.00395269790755973	-0.691636333481472	-0.71219836898968	-0.691534668023009	-0.712113539267302	0.00472462264705895	0.000864631827934488
1.6	0.000974119245303432	-0.00523199433639339	-0.79352392658665	-0.596141922412986	-0.79344993857061	-0.596081978275031	0.00478483170454275	-0.00119806535539685
1.7	1.26117522710991E-05	-0.00557884736818881	-0.875894326916228	-0.46615655986682	-0.876058319257928	-0.465641020604648	0.00406774063247879	-0.00253249649481686
1.8	-0.00102996315917403	-0.00556766090883103	-0.937602139439995	-0.324062070116276	-0.937491026446304	-0.324060729504405	0.00294372443360541	-0.00356253620436133
1.9	-0.0021298659977167	-0.00515289185644691	-0.976113606867047	-0.175050636237065	-0.976206297291068	-0.174563767526509	0.00156972600711402	-0.00405169231487489
2	-0.00285865333990524	-0.00412204987654131	-0.991144819685483	-0.0211556507892352	-0.991156740468644	-0.0211098677592107	0.000590390549273558	-0.00378154607066997
2.1	-0.00305143174344284	-0.00377712323496442	-0.982404002511149	0.132933244741853	-0.9824420577527	0.13297028440855	1.14797704758509E-05	-0.00393428448412544
2.2	-0.0039745791645925	-0.00340748877540165	-0.949778964404554	0.283634706331123	-0.949703987140406	0.28369742595635	-0.000761001790216805	-0.00388296545293615
2.3	-0.00486578435133756	-0.00262226935334294	-0.894339711479603	0.426833798206637	-0.893958190099316	0.427346352797838	-0.00156013419155706	-0.00384457655643243
2.4	-0.00589270365041591	-0.00161507601350067	-0.816480467467018	0.561298069714463	-0.816746475294311	0.560712974317893	-0.00261323063503227	-0.00368060516924964
2.5	-0.00647200375968082	0.000456391114841226	-0.719910496688662	0.681228833861073	-0.72012369141053	0.680719488758881	-0.00331924399035303	-0.00298763270183457
2.6	-0.00563550810365282	0.00204200961777571	-0.605574107221138	0.784271471728928	-0.60546808471364	0.784089004424165	-0.00295277423891382	-0.00245959844429786
2.7	-0.00465453090806312	0.00285023944000789	-0.476030011588672	0.868734262326594	-0.476478352454667	0.868327753715659	-0.00275083186542554	-0.00247575297085119
2.8	-0.0036432220241039	0.00321664215019008	-0.336813344670886	0.931510250751319	-0.336146594058289	0.931669126683921	-0.00290940985564282	-0.0025280948316287
2.9	-0.00235583557558339	0.00342802931170593	-0.1876632289107	0.972635540864176	-0.187694405703147	0.972548259719892	-0.0027247128222117	-0.00198015338703126
3	-0.000827141267711722	0.00325891242375855	-0.0333659672756722	0.989910897067483	-0.0340662102154924	0.989752491112422	-0.00206568009048221	-0.00137696816451381
3.1	0.000501910556475089	0.00261548488638074	0.118918669267109	0.982791696314192	0.119508496138663	0.982774046557596	-0.00122756694501091	-0.00119104258608038
3.2	0.00145304032515229	0.0017623403841797	0.27040789729356	0.952379359636369	0.270353189493644	0.952319108027031	-0.000700014928762981	-0.00115845077643587
3.3	0.00238854347633664	0.000728822706173752	0.415106133984828	0.898834086623875	0.414969132014088	0.898819859287087	2.80719721043244E-05	-0.00127200580948035
3.4	0.0028028807772324	-0.000445658996226415	0.549609954207536	0.823377861779182	0.54944789792795	0.823495629216035	0.000729543416534327	-0.00179584094693089
3.5	0.00353250730686908	-0.0015840738851215	0.670205831060579	0.728008359164967	0.670126356295794	0.728047038501232	0.00152939029345073	-0.00232050308754914
3.6	0.00326484743018329	-0.00345961580698112	0.774541133263806	0.616098166033231	0.774782018422521	0.61565021738487	0.00168007152409831	-0.00356580773731078
3.7	0.00243006700434701	-0.00477416967492526	0.861184230244099	0.487874662057667	0.861066008981565	0.488017554575957	0.00135897533410179	-0.00431306274342153
3.8	0.00121116436041542	-0.00571737683730729	0.926199353431623	0.348845994808833	0.92625623198287	0.348467255912507	0.000871295233935242	-0.00500192993766098
3.9	-7.14751964786653E-05	-0.00620277346526304	0.969076315251752	0.199852449322117	0.968837843324259	0.200518940950618	-0.00028792130774531	-0.00571187010379608
4	-0.00105847604209661	-0.00583306879076536	0.988567708775874	0.0484121998822125	0.988528682912346	0.0485149264845502	-0.000848221268013445	-0.00553669722366967
4.1	-0.00163073398383558	-0.00659576205870639	0.984640738943945	-0.105862811536545	0.984456215410954	-0.105735870675271	-0.00112046650348156	-0.00638573530119574
4.2	-0.0033308921128378	-0.00708214274863762	0.955897840695877	-0.258152943078917	0.955932424278169	-0.257499446970223	-0.00208128033284827	-0.00714368037777184
4.3	-0.00519039712858738	-0.00733564250823584	0.904581814460819	-0.402693839491918	0.904445930731698	-0.402582869051979	-0.00332155990019281	-0.00800807939851761
4.4	-0.00772225600712272	-0.00699854295405355	0.831386876400956	-0.538058345139984	0.831221585098025	-0.537925213563059	-0.00523832817886442	-0.00867034183468193
4.5	-0.0100553940039597	-0.00523433085592265	0.738163884194299	-0.661207512523372	0.737974848522409	-0.661034437416125	-0.00734400850432349	-0.00823465067657842
4.6	-0.0112157181675492	-0.00345290810834501	0.625567983266965	-0.768234632531054	0.625909624688001	-0.767536399908972	-0.00866101661496442	-0.00796486715867693
4.7	-0.012362821067286	-0.00185368989083833	0.499193713852545	-0.855600312779429	0.499209941399415	-0.855244394930377	-0.0104012533678777	-0.00780321540674635
4.8	-0.0132913697158859	0.00024471425316208	0.360217866878719	-0.922627618341835	0.360439247584065	-0.922310896263714	-0.0120572271003343	-0.00727419479444302
4.9	-0.013515988013538	0.00238313546825495	0.213063670163921	-0.967153101893742	0.212843503954717	-0.967161053053114	-0.0134104919952118	-0.00637105958200639
5	-0.0129268015097743	0.00462744458789077	0.0595814951616642	-0.988260929926553	0.0597587761555099	-0.988015430489866	-0.0140271291449341	-0.00483376747439311
5.1	-0.0119046285999001	0.00618924789506516	-0.0938782219956977	-0.985312966890293	-0.0935465960175512	-0.985087418706269	-0.0143963425425947	-0.00357309896056795
5.2	-0.0108093159047136	0.0081825169014155	-0.245708175141044	-0.959089990942497	-0.245215984531844	-0.959062791408382	-0.0148249815439364	-0.0018131317325876
5.3	-0.00911680140995103	0.0101289462933711	-0.391724967036689	-0.909476413861036	-0.391383855727954	-0.909692587280045	-0.014696349657055	0.000179347827326581
5.4	-0.0067000145395588	0.0123353747636081	-0.528416260698343	-0.837491150050771	-0.52820324508095	-0.837691993977692	-0.014181947449826	0.002350583681566
5.5	-0.00250996397274619	0.0135233415545552	-0.651409656298199	-0.745074339244998	-0.651170480858586	-0.745268946484112	-0.0123259408030388	0.00404334643608564
5.6	0.000330693386135269	0.0124390020784995	-0.759190140080629	-0.635585430311704	-0.759000037854677	-0.635757205817998	-0.0116606481104915	0.0039701964751246
5.7	0.00220659090852628	0.011879990565323	-0.849042551560378	-0.510009925377611	-0.848912812886555	-0.510229872793339	-0.01163940240941	0.00503939051094765
5.8	0.00405245763561588	0.0114677303068904	-0.917912618841473	-0.371769315452098	-0.917844387838999	-0.372054577526088	-0.0113745937854408	0.00642997153857333
5.9	0.00562732551547159	0.0110835338263642	-0.964288164040984	-0.224897905051271	-0.964302557783711	-0.224981642691362	-0.0112121408874789	0.00817845811621291
6	0.00879643992940703	0.0114172412754931	-0.988049618976239	-0.0731739069327164	-0.987930071101681	-0.0732318325940234	-0.0095496274659291	0.0109819178109272
6.1	0.0121595896397848	0.00825003329518409	-0.987861470000502	0.0818695017561352	-0.987734413357768	0.0817208332932642	-0.00689688010152561	0.0111259979335432
6.2	0.0132013089085454	0.00464431787688524	-0.96279232061164	0.234617305228629	-0.962778489645094	0.234414108358268	-0.00549543644336056	0.0106475609307214
6.3	0.012735682027564	0.000957461097175101	-0.914497441897027	0.381218948210483	-0.914492842658304	0.381033300123237	-0.00466190700863698	0.00979106502810684
6.4	0.011076470598313	-0.00192916721037372	-0.844403215076817	0.518438811601826	-0.844371372448299	0.518227793803616	-0.00462540416175332	0.00907948782174999
6.5	0.00918816455095414	-0.00394879300024505	-0.753754411731123	0.644077526706278	-0.753778645899582	0.643872940742048	-0.00450688005355502	0.00891845642555044
6.6	0.00725524641552177	-0.00541221550938479	-0.643710495807122	0.753151210154488	-0.643784716825433	0.752898675882554	-0.00426198681828583	0.00891240735175664
6.7	0.0055367971780623	-0.00628390661332464	-0.518936240605295	0.843570440461097	-0.519039379450862	0.843349006450253	-0.00377440096753608	0.00915842541476861
6.8	0.00421666960767393	-0.00706412174509456	-0.381792390107473	0.913955588591923	-0.381934385359058	0.913784665420835	-0.0030693965643111	0.00927703442133107
6.9	0.00270393145631869	-0.00785813674797786	-0.235057912993826	0.962490883714276	-0.235285123939438	0.962380476521565	-0.00223185943797069	0.00929029525931649
7	0.00138262433393358	-0.00858333152741196	-0.081852570748307	0.986766508357192	-0.0820628976480608	0.986676986167998	-0.00117867504430084	0.00881838684799691
7.1	-0.000713343620517326	-0.0090112983772601	0.0717611268613773	0.986963987407048	0.0715587340554423	0.986830922357612	-0.000770832161100242	0.00836254995225008
7.2	-0.00248132778232084	-0.00869797300966534	0.224095914381923	0.963980061690779	0.223813410373153	0.963945884390159	-1.54311322547814E-05	0.00832451153144124
7.3	-0.00416381921517376	-0.00822411618557934	0.371229787294363	0.917397196679705	0.370993472068964	0.917423894169665	0.000857218025435485	0.00805332902142323
7.4	-0.00555772215704061	-0.00737791622818865	0.509377902060015	0.848011067622512	0.509164407598581	0.848062760777028	0.00156398375537498	0.00756914274459828
7.5	-0.00627114533791865	-0.00657892996265424	0.633724195157834	0.758171623042493	0.633554778007868	0.758241604482995	0.00271941683185208	0.00702306569452367
7.6	-0.00724943966544103	-0.00642354213816803	0.743875370511701	0.651328434303263	0.743617730771349	0.651411258776194	0.00340120234313224	0.00537083023808987
7.7	-0.00874444455528321	-0.00523493517089568	0.836163070293086	0.527684101734155	0.835977753387878	0.52790181461618	0.00311699101183084	0.00413003649043534
7.8	-0.00953871213590634	-0.0032877551140038	0.907862204627731	0.391052682534439	0.907759525791288	0.391278507212076	0.00269538283030834	0.00326728091236764
7.9	-0.00996239734976925	-0.00052836346337426	0.956991631044373	0.245425614906967	0.95685381580456	0.245605636378977	0.00197856693445238	0.00336836139954941
8	-0.00754379969216215	0.00327158793372584	0.983768233776006	0.094643696918976	0.983745417542873	0.0949067788343101	0.0022167562017376	0.00449066673863248
8.1	-0.00416854030319064	0.00345746465617531	0.986887615192175	-0.0602157375990038	0.986917074446579	-0.0599597688943179	0.00354384793774087	0.00336885623051361
8.2	-0.00212796041183525	0.00300583455637398	0.964810078784507	-0.212965817844677	0.96485919173764	-0.212648454311014	0.00321254323276718	0.00223916441663915
8.3	-0.00071935601917173	0.00228696424924805	0.919552627879475	-0.359841108584703	0.91960463409183	-0.359553831611381	0.0025369662068425	0.00137961156400477
8.4	-0.00017851901316228	0.00135353104574317	0.852743535697226	-0.497776125097305	0.852841742780251	-0.497574120436189	0.00111659914931285	0.00066306839243684
8.5	0.000300326668485682	0.0022659431751192	0.765259705593743	-0.624979785705535	0.765311523281253	-0.624828913959171	-0.000201401515094576	0.00197173651733041
8.6	0.00258862441807512	0.00124140744237677	0.657666442899152	-0.735723995095238	0.657835731613966	-0.735487175374719	0.000328117966704777	0.00223167197705306
8.7	0.00312210180684628	-0.000155123453308837	0.53544360575469	-0.828211625412474	0.535703441789445	-0.827996743718829	7.64288352577193E-05	0.00250249330683563
8.8	0.00352036445506253	-0.0012151445601185	0.400675167881306	-0.901077632507312	0.400860854234336	-0.900938919140433	8.97011917543998E-05	0.00293811394928456
8.9	0.00349305525690191	-0.00221258806679083	0.255825870466854	-0.952716709559772	0.256005546665059	-0.95254697105356	0.000454668309630294	0.00341921817481131
9	0.0037842622676911	-0.00252877692287514	0.103685068221388	-0.979864881949194	0.103993488340778	-0.979819436510563	0.00136711316640522	0.00436239997799879
9.1	0.00450265172110402	-0.00309711886198181	-0.048565983317296	-0.983359983233777	-0.048256980007933	-0.983319853701904	0.00312978124737617	0.00471436038633217
9.2	0.00570142439793134	-0.00333835322961637	-0.200536892420084	-0.964080550717393	-0.200189438525137	-0.964059136368888	0.00556458828111628	0.00480690372883622
9.3	0.00764539863525643	-0.00418377547121955	-0.347993254803564	-0.921128844136523	-0.347641421393163	-0.921104302361639	0.00877077181246371	0.00358855993934529
9.4	0.0091650671000677	-0.00604236634816175	-0.486904272116801	-0.855107912218986	-0.486581731525265	-0.855199795424765	0.0110317200405712	0.000768486085620517
9.5	0.0109592127636582	-0.00840831323049652	-0.612071700491232	-0.768507557081252	-0.611835446350757	-0.768558329687445	0.0127667195110204	-0.00286698751195636
9.6	0.00963442748008412	-0.0124800676488944	-0.723948539124695	-0.665011561745489	-0.723637699653095	-0.665150637391772	0.0110643420088974	-0.00772507234007508
9.7	0.007230103103558	-0.0135938270929512	-0.818376275360215	-0.544271346083672	-0.818089735408821	-0.544504562346425	0.00782086124402177	-0.0103392932949437
9.8	0.0052993074157252	-0.0139600035052004	-0.892406111691444	-0.410363350884023	-0.892153734778151	-0.41053254654945	0.00418330490437938	-0.0119152857602302
9.9	0.00313176694462921	-0.0130022410069895	-0.944255464114962	-0.267152057193574	-0.94400422893682	-0.267360709480529	-0.000187644193382258	-0.0119915709890118
10	0.00370283773303186	-0.0107876420374307	-0.974651941868575	-0.118676154273967	-0.974498823196811	-0.119037793678483	-0.00268012479282163	-0.00984788581138913
10.1	0.00405481026467591	-0.0121604941886591	-0.981305582467332	0.034845453695163	-0.98124283672335	0.0344146672324343	-0.00513869115768769	-0.00986345209373763
10.2	0.00271592589963941	-0.0125918618546122	-0.963351894686299	0.186462647820877	-0.963230972138779	0.186032389376892	-0.00862238289198775	-0.00822607708844815
10.3	0.00120927008869599	-0.0122263141908076	-0.922540548168555	0.332993079575731	-0.922558387193791	0.332453190416079	-0.0116407651364615	-0.00566522202653509
10.4	-0.000423128178688867	-0.0113395599321296	-0.860399302186774	0.471349562360978	-0.860535675062463	0.470839547231536	-0.0142266112068334	-0.00226674098541651
10.5	-0.000653434355719127	-0.00864533210670639	-0.777283374740082	0.600472140258374	-0.777456643160738	0.600040877873358	-0.0147649757007862	0.00275133295135092
10.6	0.00134552771207488	-0.00802749959269671	-0.67344151169087	0.713269498544032	-0.673713940955552	0.712940917422381	-0.0126675887298698	0.00622098863299072
10.7	0.00281001252100302	-0.00894027019177313	-0.554722806239964	0.808443226150932	-0.555023024118186	0.808135319383052	-0.0100896024717603	0.00819273725677473
10.8	0.00297631882495925	-0.0109353556536068	-0.422875597612616	0.884459212193718	-0.423225725685482	0.88416244034317	-0.00802069707671286	0.00911606491445498
10.9	0.00190846587523644	-0.0121368003870346	-0.280502978922359	0.939756083434845	-0.280892370095322	0.939634185418672	-0.00644529816803852	0.0102109806565894
11	0.00117622915313482	-0.0130515836760078	-0.130143507821366	0.970775353464993	-0.130579018282559	0.970686342743274	-0.00401322327724938	0.0111428791659811
11.1	-0.000180332025217604	-0.0138559933183399	0.0206513481340812	0.978300012875762	0.0201650151543703	0.978314119556563	-0.00173679689182733	0.011376021814358
11.2	-0.00148403193648878	-0.0143174100157541	0.171703251862665	0.963623785952718	0.171248309887392	0.963696956292396	0.000973438287859957	0.0112912450189291
11.3	-0.00287867939290083	-0.01450108204871	0.319105353982841	0.925421742486218	0.3186485072809	0.9255582171218	0.0038052800808778	0.0104904076639642
11.4	-0.00452560313940406	-0.0140765099231149	0.4589154943074	0.864021145292953	0.458513887907664	0.864134346507934	0.00618129584158647	0.0095937519980769
11.5	-0.00427935485094941	-0.0134904635026008	0.58535832623498	0.782012476586866	0.585041837159051	0.782312794867878	0.00974129467270519	0.0080261342461354
11.6	-0.00616561592105449	-0.0150863693296894	0.699668526185831	0.683190154314384	0.699454086983338	0.68351592178393	0.0109176382985645	0.00423681834919793
11.7	-0.00890331557862542	-0.0144422481936172	0.797416267303423	0.566317655419545	0.797213927578873	0.566622426035008	0.0108887135703179	0.00158346678465652
11.8	-0.0115832488082945	-0.0130727265123218	0.875307281013453	0.435472663636388	0.875126202754438	0.435920781993779	0.010074106906878	-0.000904152365258419
11.9	-0.0143165652284863	-0.00985520466597359	0.931187028431512	0.294968423025832	0.93108121458429	0.295415237249209	0.00784954651084459	-0.00200895278177867
12	-0.0135383716616998	-0.00480436685024082	0.966609135837594	0.148867823106781	0.966579353153185	0.149230276295017	0.00822792437506251	-0.00113940523752706
12.1	-0.0120822611100254	-0.00361683849576029	0.978536269532759	-0.00367544697724305	0.978464725608816	-0.00329267640069863	0.00824629542477069	-0.00344045363778572
12.2	-0.0115440501119487	-0.00234221190672795	0.965831236125348	-0.155164619935457	0.965847869260004	-0.154867955108251	0.00709845962617477	-0.00490594161425651
12.3	-0.0106351141998657	-0.00131988033220613	0.930204701765504	-0.302432196540256	0.930322644648156	-0.302126541076479	0.00605410677661301	-0.00640931630083068
12.4	-0.0106221846932724	-0.00101636711526056	0.873470439133601	-0.442655600797733	0.873531739746004	-0.442286980512965	0.00401792940449195	-0.00809642156344415
12.5	-0.0102670039916901	0.000969378789715466	0.794701433035562	-0.574813901106401	0.795040081321054	-0.574423060793486	0.00165296604357963	-0.00802380967433109
12.6	-0.00875602588607731	0.000553293936016521	0.694658108555886	-0.690587596232648	0.694908301788635	-0.690345042457149	0.000111042204753059	-0.00909898703517722
