# GHZ S RI R 50
0.2	-9.74099103296339E-05	-0.00040414645633887	0.95029533972633	-0.307717998889015	0.95007282406834	-0.307692670042411	-4.34683269695308E-05	-0.000361953861210018
0.3	-0.000403627006330326	-0.000346960647703589	0.890620669359954	-0.45155152232951	0.890464200178638	-0.451456135396313	-0.000405601250384556	-0.000558266806472169
0.4	-0.000523355529431088	-0.000161286439825716	0.809467581759992	-0.584185645725247	0.80947941333601	-0.584210793944857	-0.000673547453305494	-0.000479574580829989
0.5	-0.000528852452584313	0.000311628049382693	0.708732452610505	-0.703232215926238	0.708577069914268	-0.703130625013069	-0.000658764383697863	-1.67909264003286E-05
0.6	-0.000223430406592838	0.000233455238479198	0.590428750795666	-0.804486393113225	0.590309211120633	-0.804324440875039	-0.000378313133933196	-0.00024487495669528
0.7	-0.000319996319710664	0.000376542227285692	0.458273210210866	-0.886144662061189	0.458254350187158	-0.886031955437861	-0.000508656842385841	-0.000428818012031216
0.8	-0.000172753608524986	0.00045354134128274	0.314994133383583	-0.94657627177338	0.314962622886605	-0.946386136043352	-0.000711993608619566	-0.000421612551323719
0.9	-0.000213997194504891	0.000577605022376491	0.163904973214283	-0.983923154508008	0.163839767982984	-0.983831035226939	-0.00118306172821884	-0.000475889447559849
1	-4.02931429953869E-05	0.00118990839104238	0.0088749713120728	-0.996838986947903	0.00882322011233581	-0.996807450227753	-0.00151684202084208	0.00044428070010305
1.1	0.00124277450619903	0.000637143355347656	-0.145610739629958	-0.986189335774802	-0.14562655102488	-0.986058616645179	-0.000520424974497353	0.000455099149262364
1.2	0.00156717450504067	-0.00129031136256387	-0.297291102580204	-0.95159865464445	-0.297214544398401	-0.951572493623362	2.21998875999757E-05	1.82642297113114E-05
1.3	0.0013498771462431	-0.00376471539889437	-0.441611610633452	-0.893649166060495	-0.441588518579337	-0.89364254034272	0.00126343774784505	-0.00026043171937704
1.4	0.000604985631418248	-0.0059573979290053	-0.57477416484021	-0.813918707043437	-0.574749922927725	-0.813897032076656	0.00267371112660337	-0.00112421764101636
1.5	0.00036182697213164	-0.00685139510986604	-0.693960351954654	-0.71487649460065	-0.693858340954216	-0.714791342009132	0.00455237070092551	-0.00250331689186071
1.6	-0.00111330500234004	-0.00723129030993487	-0.796982899811348	-0.59843357216181	-0.796908588252511	-0.598373396114171	0.00342162167017609	-0.00440867055784083
1.7	-0.0019364164837549	-0.00603974541090519	-0.879934990951411	-0.467492285249944	-0.88009930290404	-0.466974447667538	0.00228438723337823	-0.00451463181448223
1.8	-0.00241786962347883	-0.00509815275783053	-0.941896674960074	-0.3245052723303	-0.941785089832429	-0.324504036190886	0.00122664108677461	-0.00455225692455485
1.9	-0.0027238305428433	-0.0039360965680796	-0.980593352415864	-0.17474803468447	-0.980685915555087	-0.174258925592014	0.000316962932653595	-0.0039296285340581
2	-0.00190631143613249	-0.00335063707355031	-0.996134684722179	-0.0196560534545766	-0.996146590968019	-0.0196100221584185	0.00114408373262677	-0.0036519583674473
2.1	-0.00270888982970403	-0.00402430690994906	-0.986707518832806	0.136017025884078	-0.986745661033923	0.136054335545223	0.0002298956851449	-0.00511026046541166
2.2	-0.00393926000229729	-0.00337185834652542	-0.95321904285621	0.287552136038496	-0.953143556229498	0.287614925716734	-0.00109922151177989	-0.00496909751210151
2.3	-0.00473617380844004	-0.00243339907250462	-0.896959940510407	0.431462062961644	-0.896575164543454	0.431975698118737	-0.00215367455372943	-0.00466567441267346
2.4	-0.00555802675224362	-0.00128481312889004	-0.818161753324832	0.566711969089542	-0.818431028635008	0.566125186435464	-0.00329817585194686	-0.00388885576118872
2.5	-0.00511281777704777	0.00032873549205101	-0.719794680567357	0.687249800001021	-0.720011035745232	0.686739329270083	-0.00267417204914918	-0.00280532207777083
2.6	-0.00492853360085305	0.000260161822777044	-0.604098108167464	0.789630200245908	-0.60399254657849	0.78944664255883	-0.00203371001032501	-0.00382717001475804
2.7	-0.00520245611442362	0.000881559778914822	-0.473588419498361	0.87374494174503	-0.474040084890376	0.873339170243655	-0.00257184622457552	-0.0044671153887529
2.8	-0.00494904911041002	0.00166571465745682	-0.333242885594811	0.936052403209024	-0.332573290675714	0.936208469741893	-0.00335267133709187	-0.00460661682994499
2.9	-0.00391021732317009	0.00237655164370912	-0.182830964899157	0.976248355697825	-0.18286270292133	0.976161013506608	-0.00348289439438888	-0.00391203999896725
3	-0.00255388164891572	0.00240142630988222	-0.0280585585261717	0.991767111797661	-0.0287608449744758	0.991612232034432	-0.00304075198386239	-0.00347753122173409
3.1	-0.0015125171323519	0.00244807944031204	0.124152733541866	0.983942355117742	0.124743525442076	0.983921660215367	-0.00282862510117987	-0.00302801727728142
3.2	-0.000304621848681883	0.00213854484963125	0.276019068709844	0.952489768250401	0.275963943676431	0.952429713514327	-0.00242359369476706	-0.00243875876048888
3.3	0.000926459159374348	0.00150949177934093	0.42071627122733	0.897603345190615	0.420579017773854	0.897589876299394	-0.00163928247346676	-0.00201236160574185
3.4	0.00188142804769056	0.000640963611717213	0.554599976785498	0.820826897605654	0.554438476529615	0.820945653457072	-0.000429716234396857	-0.00197850177674091
3.5	0.00296529790024927	-0.00101701747209975	0.674411059254562	0.72513010220355	0.674331722943245	0.725169215149216	0.00108367670675876	-0.0030263849443134
3.6	0.00224665083915265	-0.00256262366537706	0.778779028001261	0.612239666226819	0.77901757495484	0.611789926515246	0.000716948188106565	-0.0043784569751486
3.7	0.00183247255555225	-0.00341167198579052	0.864503917988495	0.482865311126435	0.864386512118883	0.483008980202809	0.00044493359820014	-0.00474176206709259
3.8	0.00113261477473332	-0.00427002149034669	0.928303771923068	0.343178842999331	0.928358335514292	0.342799767456864	0.000159085851216973	-0.00515212810081894
3.9	0.000470301972682585	-0.00481917819112839	0.970063727722136	0.194015731741786	0.969829291676614	0.194683506464681	-0.000525079336242101	-0.00542637324472061
4	0.000162433194822411	-0.00560359489509745	0.988878967474434	0.0419048644108372	0.98884061807658	0.0420078471299071	0.000170795718091073	-0.00585043648024779
4.1	-0.00168417443067321	-0.00706235778854234	0.982832863940112	-0.112773468588911	0.982649443210211	-0.112645347163206	-0.000747440289610184	-0.00777946343052744
4.2	-0.00406157523825132	-0.00703824919472894	0.952396429047727	-0.264329444228535	0.95243548883466	-0.263677356448024	-0.00235275769438982	-0.00844781668807361
4.3	-0.00611560518683605	-0.00668662746674731	0.899850285094875	-0.407948156913454	0.899715454939801	-0.40783650860918	-0.00395647953500057	-0.00892808918326938
4.4	-0.0083595339523973	-0.00564782701152422	0.825631846564152	-0.542495862186495	0.825467880442927	-0.542361912303721	-0.00588735904231229	-0.00880040963355388
4.5	-0.00951591645291592	-0.00410417500532037	0.730672511031832	-0.664386458597004	0.730485421678979	-0.664212582474598	-0.00664987756035677	-0.0079983313943373
4.6	-0.0112010501005836	-0.00342860845749891	0.617719022819219	-0.768947356548352	0.618063752451613	-0.768254481356776	-0.00771986763582747	-0.00892297649949006
4.7	-0.0131788536625416	-0.00172720700023953	0.491584841418345	-0.854674761534276	0.491603186838182	-0.85432060867516	-0.00993404141621322	-0.00919107449228732
4.8	-0.0145692429133012	0.000898960722526485	0.352848991294945	-0.920178511237987	0.35307117324546	-0.919864710864879	-0.0120050573013144	-0.00871209716186738
4.9	-0.0147833184143049	0.00374465381417312	0.206002191656004	-0.962923044950489	0.205783233491846	-0.962929619967501	-0.0135619092582806	-0.00756964230665333
5	-0.0138722871086334	0.0062854348376595	0.0541283650833301	-0.981839447111983	0.0543056934658362	-0.981596523946286	-0.0140530041399967	-0.00615414347537234
5.1	-0.0125755722984884	0.0084966708951592	-0.0974972125351625	-0.978487599563019	-0.0971667796036281	-0.978264945484514	-0.0148103338228576	-0.0048101909789919
5.2	-0.0103921072235904	0.0107342155450389	-0.248028347484122	-0.951653793081578	-0.247539339290614	-0.951628810405031	-0.0151404233555241	-0.00269515115557069
5.3	-0.00765101631261046	0.0121586376221316	-0.392384810490427	-0.90149605447074	-0.392046955482589	-0.901711981046379	-0.0146226359415298	-0.000481207887677879
5.4	-0.00446286504171398	0.013317284597069	-0.526928593282632	-0.829440547590711	-0.526717829168467	-0.829640503032203	-0.0132173625053655	0.00172574471445933
5.5	-0.00092079574190906	0.0124563883698677	-0.648221201398546	-0.738392666913408	-0.647984141609549	-0.7385863550625	-0.0107823833092612	0.00162244754839649
5.6	0.000269882259186078	0.012070013224849	-0.755327881175586	-0.629311118557559	-0.755139525457295	-0.629482129167587	-0.0116161634509716	0.00128614428040634
5.7	0.00239007783207481	0.0121949756280447	-0.843696079529002	-0.504362479759761	-0.84356778601281	-0.504581037036257	-0.011951107149341	0.00284453411516307
5.8	0.00469556718808626	0.0117598161217914	-0.911212488982371	-0.36746024965126	-0.911145223441141	-0.367743358648412	-0.0117133256858035	0.0046241610556469
5.9	0.00686856057711882	0.0108901790208622	-0.956931375780256	-0.222487964932674	-0.956945714737957	-0.222571040197078	-0.0110053880416408	0.00692241447611493
6	0.0098068230198458	0.00881136681951097	-0.980896095288338	-0.0717331977466023	-0.980777474218433	-0.0717908093854127	-0.00806361241904164	0.00828249593910599
6.1	0.00970618071996332	0.00552708265566448	-0.979660623496572	0.0818954287288145	-0.979534719633673	0.0817478958786067	-0.00737716109715208	0.00721492500231782
6.2	0.00917972396193163	0.00409448769827597	-0.954683616401096	0.232453791386818	-0.954669865134285	0.23225231771881	-0.00738418698874558	0.00758699396408772
6.3	0.0088734020324107	0.00260569832711002	-0.907256048461988	0.377255774507552	-0.907251323930213	0.377071668737144	-0.00694990650864118	0.00796427349074744
6.4	0.00856833380595377	0.00102959645818229	-0.838268221800633	0.513422708465166	-0.838236404749742	0.513213397343995	-0.00645952133561329	0.00825092305271456
6.5	0.00812171996943029	-0.00111058223110628	-0.747837249075571	0.637749765978671	-0.747861073262835	0.637546932972633	-0.00554359384499553	0.00809532911311972
6.6	0.0070839141178014	-0.0030085434861058	-0.639725138298285	0.744936487121984	-0.639798109261432	0.744686031735534	-0.00506249738380344	0.00795990973661588
6.7	0.00581780864558451	-0.00472468488343261	-0.517024923537545	0.834856216553876	-0.517126528207622	0.834636359983093	-0.00437262756108582	0.00805020886785709
6.8	0.00432106874141607	-0.00610075763174232	-0.381613050767914	0.905094201185774	-0.381753303001325	0.904924234996769	-0.00357245474375896	0.00811600865022845
6.9	0.00256371146820721	-0.00711775429934814	-0.236423892228043	0.953355038180498	-0.236648752784833	0.953244782498957	-0.00244542866450683	0.00807779639117656
7	0.000713519240934402	-0.00786767317971916	-0.0860684387579868	0.977364522271871	-0.0862763992074452	0.97727475816094	-0.00143906554905327	0.0072133207791655
7.1	-0.00140282984598238	-0.00770517718680658	0.0653437237766061	0.979491161565896	0.0651437383265008	0.979357963037928	-0.00109961667424035	0.00692761732113765
7.2	-0.00291929354324817	-0.0071953245087825	0.216418548337073	0.958037644136612	0.216138404508221	0.958001976241169	-0.000181530858655322	0.00686985295141571
7.3	-0.0044322087555614	-0.00657444199206215	0.362304380179998	0.913043419593564	0.362069648940182	0.913068332233072	0.000758415411040082	0.00652741851794335
7.4	-0.00551678793537903	-0.00554558288370151	0.499091614499166	0.845726377627536	0.498879286510248	0.845776042542554	0.00159262814619762	0.00607489182550348
7.5	-0.00614585563895039	-0.00484794906277114	0.623406608387277	0.75934580205852	0.62323755727834	0.759413892316473	0.0028287977170321	0.00512914133305705
7.6	-0.00700814006795133	-0.00386846579369543	0.734753770824487	0.654144049886621	0.734496755219678	0.654224337074898	0.00313318844453668	0.00364490805172151
7.7	-0.00720436321478577	-0.00241458904163335	0.827536285238191	0.532156520113978	0.827350041757251	0.532371580357129	0.0031258809368423	0.00283195488275553
7.8	-0.00677887259741494	-0.00108146367464873	0.900149909703862	0.397513560923244	0.900045648530041	0.397737418068849	0.00317632569460455	0.00215751767272787
7.9	-0.00613745519966582	0.00029888080891288	0.951172010465187	0.25390697233839	0.951032927264334	0.254085002852004	0.00337545041396459	0.00217525161266985
8	-0.00391584680453045	0.000690483589250608	0.980522782562743	0.103305778495835	0.980497643830941	0.103568015041177	0.00519248964501844	0.00158814266238445
8.1	-0.00410770653557253	5.99476803492642E-05	0.984649777103819	-0.0509539404523622	0.984676794956972	-0.0506984246676102	0.00463951297737884	-0.00123824708530844
8.2	-0.00412780007510788	0.000817577611900633	0.964790118661923	-0.202956852546063	0.964835985407262	-0.202639702620211	0.00282244206523003	-0.00232993095420171
8.3	-0.00385336880182036	0.00174523920401973	0.922111868354817	-0.350098212736249	0.922160902199039	-0.349810748359983	0.000916788058765379	-0.00254818199076967
8.4	-0.00326097152036915	0.00295344004874259	0.857422442572245	-0.489488104313332	0.857518689067389	-0.48928518123939	-0.00111542045680255	-0.00161791625979288
8.5	-0.00108249155297271	0.00416581869536249	0.770433415825971	-0.617660646533921	0.770483835506275	-0.617509400914072	-0.000712809912819656	0.000510642297993573
8.6	0.000384089776084917	0.00312618315175854	0.664945191218472	-0.728987840293234	0.665112070896891	-0.728749360569756	-0.000192973988873999	-0.000162919691213304
8.7	0.00111173420191093	0.00308829999129713	0.544215447603046	-0.823496226243277	0.544473332246499	-0.823278554379796	-0.000819010692050175	3.73797585589521E-05
8.8	0.00251984067052708	0.00302952223887276	0.410027015689608	-0.898507713943571	0.41021162649274	-0.898366990785138	-0.001243038688673	0.000629040779370473
8.9	0.00417401164127414	0.00265059939095314	0.265068610113212	-0.95173619005649	0.265246970700603	-0.951564529847947	-0.00110311070553883	0.00188052073919314
9	0.00669771199884184	0.00139030984585664	0.114067306941574	-0.980207621045317	0.114375701192631	-0.980158889093709	0.000785706374497541	0.00321829803032662
9.1	0.00841021766475874	-0.00101408326282178	-0.0384780773243193	-0.986878520076539	-0.038168545010557	-0.986835050877279	0.00310921411349981	0.0030192442525525
9.2	0.00962576002200151	-0.00361390286547331	-0.191674787888944	-0.969540135029159	-0.191326297634726	-0.969515189910315	0.00570827618040011	0.00228759085317832
9.3	0.00994699611868255	-0.00613769416052041	-0.340250213111324	-0.928117741351161	-0.339897263467174	-0.928089634097504	0.00834005636040696	0.000636534021404564
9.4	0.00995138614196155	-0.00815400577984193	-0.479992634304705	-0.863799493320074	-0.479667776430714	-0.863888383993414	0.0107361277101609	-0.00159945759317208
9.5	0.0095907142143564	-0.0110160407548037	-0.607590920186295	-0.779978735154854	-0.60735262876457	-0.780027265941811	0.0126880477535753	-0.00659543578018234
9.6	0.00697696080657507	-0.012253813722484	-0.722801966343936	-0.676582902949227	-0.722487603229602	-0.676720027234937	0.00989679882379512	-0.0109664279118491
9.7	0.00566267326634523	-0.0119257529379801	-0.819511406547399	-0.555764091709816	-0.81922061423518	-0.555996436126539	0.0066666964046798	-0.013105782644412
9.8	0.00479645583735345	-0.0117758222096108	-0.895980661154566	-0.421732331601391	-0.895724707807991	-0.421900634658779	0.00299417189481439	-0.0141679775267197
9.9	0.00414167478012001	-0.0109649747289322	-0.950943946685789	-0.277975614850811	-0.950688482388858	-0.27818406163601	-0.000571929783364473	-0.0133297713003747
10	0.00493116173901878	-0.0114590253817622	-0.98426690683833	-0.126477534367632	-0.9841097283904	-0.126842010023946	-0.0015732837444754	-0.0127710152530028
10.1	0.00300220992642934	-0.0122491415456004	-0.991513730540999	0.0292797383469141	-0.991447746433851	0.0288449414910497	-0.00548300674155127	-0.0134490572948956
10.2	0.00187119019797308	-0.0114582379947622	-0.974768175310586	0.183094635046797	-0.974643549235425	0.18266041750206	-0.00951065990873435	-0.011316196618851
10.3	0.00130124756614036	-0.0107009392641514	-0.934640318663635	0.332551224562676	-0.934655871848328	0.332005071017579	-0.0126056829244126	-0.00816711469031954
10.4	0.00104189247497758	-0.010356842705384	-0.871942909879446	0.474390426146908	-0.872079396110446	0.473873988154576	-0.0145795131424215	-0.00414695901029711
10.5	0.00144820372716998	-0.0104858279453269	-0.786310067817888	0.605234330173879	-0.786484341654426	0.604798344181513	-0.0137331238297826	-0.000200260099936631
10.6	0.000632379044020844	-0.0117919054653229	-0.682105091287859	0.7189411628721	-0.682379511815278	0.718608540015692	-0.0127315004218787	0.00161971930682524
10.7	-0.000877458418135281	-0.0119041098698355	-0.562306765729808	0.816136048660055	-0.562609642737551	0.815824220265606	-0.0119020206466352	0.00372053821858531
10.8	-0.00207913453711239	-0.0115882023128295	-0.428428329795922	0.893812055293715	-0.428782031585435	0.893511655718766	-0.0106167526182697	0.00592727964105462
10.9	-0.00292552239181498	-0.0108657940008192	-0.283495127098241	0.949522011731831	-0.283888564329787	0.949398814838045	-0.00859924936204257	0.00800255790340077
11	-0.00329052791418709	-0.0106921845979911	-0.132426425946674	0.980480151867347	-0.132866259691356	0.980389806771585	-0.00574856601593388	0.00904614128638571
11.1	-0.00386736426025815	-0.010106062928178	0.020725552345164	0.989484521148192	0.0202336587674793	0.989498708567045	-0.0032351015772842	0.00963501821851576
11.2	-0.00398278525955656	-0.00985161183996133	0.174597410805231	0.974418473418152	0.174137364790955	0.974492920294227	-0.000174593225391125	0.00970583093594454
11.3	-0.00407410899512138	-0.0096686577065694	0.324134403503823	0.935063776574759	0.323672762215457	0.935202502529562	0.00303861190173241	0.00927024781684655
11.4	-0.00412662738390788	-0.0095883511379189	0.465114769973872	0.872595396091684	0.464709029517818	0.872710406404233	0.00650019179914871	0.0085453926641658
11.5	-0.00416567453825463	-0.0105032870940877	0.594107391161796	0.790552435400725	0.593787568337069	0.790857078752604	0.0104225430892584	0.00534732073423161
11.6	-0.00611535583924613	-0.0106598129698264	0.710781638316009	0.688632267424131	0.710565911079667	0.688962798944099	0.0108805589065992	0.00180025851854013
11.7	-0.0070228043455208	-0.00967119106186014	0.809109842174401	0.569099279151893	0.808906600059962	0.56940845407355	0.0111226969029744	-0.000481320272321569
11.8	-0.0078023750960942	-0.00905374521073747	0.887305727062314	0.436028097188611	0.887124835098324	0.436482150608678	0.0108634979346381	-0.00259905809886514
11.9	-0.00781104704143145	-0.00800061674575227	0.944000848105228	0.293331551545591	0.943896248340522	0.293784315556021	0.0107963964963028	-0.00353347619720642
12	-0.00814569722824643	-0.0083207098381125	0.979326630947049	0.142754750831429	0.979299450326713	0.143121760321424	0.0122762543443046	-0.00585319798455152
12.1	-0.0106954106587664	-0.00868693214833761	0.988563633550512	-0.0123711389708457	0.988494740784855	-0.011983800303151	0.0104864226652819	-0.0103196625453145
12.2	-0.0131377815415162	-0.00703934629635463	0.973827094052041	-0.165757846751049	0.973846677296195	-0.165458434397219	0.00728744348041597	-0.0124049504716684
12.3	-0.0147920481689666	-0.00457914652824888	0.935747715900666	-0.314859489925883	0.935869915253181	-0.314552204874044	0.00402409326806755	-0.0134161199990501
12.4	-0.0158923075855841	-0.001593449057293	0.87563603653076	-0.456782053138144	0.875702232738842	-0.456411029354788	0.00066141842642398	-0.0130054123800808
12.5	-0.0147534120287534	0.00136461518382391	0.792131450111492	-0.587955426995756	0.792476882065025	-0.587566543970303	-0.000496665693041434	-0.0117943034204976
12.6	-0.0141871832527957	0.00275962732878753	0.690416382576978	-0.702093944512869	0.690670640690721	-0.701852974964494	-0.00227521955795937	-0.0124136964409301
