# GHZ S RI R 50
0.2	-0.000223860800140263	-0.000340442052888868	0.949599956447811	-0.307867150537016	0.949377586958417	-0.307841757969139	-0.000252447688150854	-0.000205970434258511
0.3	-0.000429184142727978	-0.000311292923065912	0.889756053965194	-0.451606373940698	0.889599743757623	-0.451510989371686	-0.000535763522509618	-0.000321545719763695
0.4	-0.00043670874105248	-0.000219516048762155	0.808422773270958	-0.584040162717548	0.808434581364832	-0.584065293297694	-0.000659092044040483	-0.00023095187252491
0.5	-0.000471556152730732	-1.57442522819955E-06	0.707678180527333	-0.702678365225179	0.707523010565452	-0.702576835774907	-0.000651453237805894	-6.3406095179434E-06
0.6	-0.000324022771259296	-8.5891641801689E-06	0.58956198069863	-0.803799393369041	0.58944261623975	-0.803637579231443	-0.000622543646483532	-6.1908132926384E-05
0.7	-0.000336608264897169	0.000130770794417556	0.457431982114934	-0.885273943132806	0.457413183246246	-0.885161360975654	-0.000656320724750687	-3.94752186448569E-05
0.8	-0.00016905563987431	0.000119120275517829	0.314287249641333	-0.94543863482442	0.314255839659275	-0.945248737523079	-0.000698792350144697	8.83077681957038E-05
0.9	-0.000193421852985138	0.000172504608105531	0.163503084512182	-0.982552269567736	0.163437987799072	-0.982460270076497	-0.000815205723132322	0.000103270081767646
1	-0.000135368338668197	0.000436190373630278	0.00881745570428783	-0.995560643127046	0.00876577234467319	-0.99552914446452	-0.000772396144374501	0.000349420918026022
1.1	0.000531834580214048	0.000248145346006299	-0.14564068739506	-0.984803477009692	-0.145656446689526	-0.984672933391815	-0.000502127157806558	0.000109313653126642
1.2	0.00101731662868691	-0.00104601568164574	-0.296967081690364	-0.950063494679409	-0.296890639553533	-0.950037386040522	-0.000207689358538324	-4.90318789191728E-05
1.3	0.00121967971672092	-0.00317688743865112	-0.440885512256429	-0.892175784653247	-0.440862458236368	-0.892169169892301	0.000828662429182492	-4.22605427782451E-05
1.4	0.000883405988623967	-0.00548117146483421	-0.573755227367135	-0.812677629187716	-0.573731026946999	-0.812655986231237	0.00211075311994765	-0.000604054960288306
1.5	0.000564629248936428	-0.0065683777960895	-0.69286960804717	-0.713674864296015	-0.692767758466557	-0.713589855898233	0.00345186488641592	-0.00149888650606597
1.6	-0.000445999138426093	-0.00715577671123409	-0.795330237599912	-0.597318878934158	-0.795256080579516	-0.597258815576228	0.00300710787118876	-0.00246893442151133
1.7	-0.00133933964360452	-0.00662784124742222	-0.87795950914248	-0.466878387603875	-0.878123685850857	-0.466361669808393	0.0026496584073337	-0.00277928711759411
1.8	-0.00212816533842399	-0.00602101017425812	-0.939831388598884	-0.324373092815245	-0.939720027684413	-0.324371797802734	0.00203242591035567	-0.00325093695985135
1.9	-0.00275259833926296	-0.00509132527661629	-0.978533106319493	-0.174967603270331	-0.97862576818543	-0.174479524937385	0.00130600247371032	-0.00341543205493816
2	-0.00263304523545702	-0.00435642039388281	-0.993800346706803	-0.0203127917572628	-0.993812257670659	-0.0202668760880263	0.00104517796521114	-0.00368299192932924
2.1	-0.0031318015045838	-0.00445671855484517	-0.984649901881412	0.1345069083587	-0.984688003639159	0.134544087405624	1.4863410497643E-05	-0.00414029579294016
2.2	-0.00418887926733284	-0.00400712228664535	-0.951642489588561	0.285654922657263	-0.95156724477677	0.285717685781406	-0.000762708269699048	-0.00391454013145363
2.3	-0.00511929008354423	-0.00314337219411905	-0.895781359591357	0.429281776314057	-0.89539810983944	0.429794937716891	-0.00142153970145808	-0.00386382698601386
2.4	-0.00606003255450196	-0.00193377611487983	-0.817361901964374	0.564196407915262	-0.81762966114797	0.563610421153186	-0.00223724571354866	-0.0037451229469346
2.5	-0.00598984646771669	-0.000119459735284219	-0.719817087908732	0.684283373602281	-0.720031892806175	0.683773475504109	-0.0024555399271912	-0.00376030182811562
2.6	-0.00547849348189156	0.000621938003787912	-0.604951340635093	0.787046965086009	-0.604845526931564	0.786863929074073	-0.00289814683612878	-0.0041319036480252
2.7	-0.00507757523577116	0.00126094782633939	-0.474864822075374	0.871427649009295	-0.475314929013624	0.871021449130236	-0.00355558995580244	-0.00409443425877899
2.8	-0.00443086940310165	0.00174246057002846	-0.33500763316677	0.933970530530712	-0.334339331924588	0.934127972904644	-0.00416263276593408	-0.00376255263156895
2.9	-0.00327444191306999	0.00208497475702669	-0.185209260345052	0.974559705363226	-0.185240726418799	0.974472386004952	-0.00407901694689612	-0.00287578260767435
3	-0.00192977064954868	0.00189511737950405	-0.0308060591881932	0.991063069499629	-0.0315074706603145	0.99090632938061	-0.00357733694491777	-0.00209397278673185
3.1	-0.00082017431531723	0.00154509229921038	0.121674713289631	0.983690226993143	0.122265222022855	0.98367098955157	-0.00278294583135826	-0.00143177323867249
3.2	0.000112066527223496	0.000968585077651851	0.273431733883731	0.952649248114948	0.273376793549948	0.952589087106031	-0.00207365911272229	-0.00108915104508894
3.3	0.00110781937023597	0.000262958131750292	0.418129425169529	0.89838399444256	0.417992262181289	0.898370160681767	-0.0011580563689875	-0.000940405731744173
3.4	0.00185415415914733	-0.000617527254387494	0.552326366116078	0.822320020225384	0.552164545625872	0.822438328389618	-0.000103749955375467	-0.00130110330073616
3.5	0.00281177145251423	-0.00197746575169064	0.67281493031833	0.726789801104654	0.672735492921049	0.72682873492736	0.000741778975993471	-0.00205753889602405
3.6	0.00249957229892744	-0.00361103058070076	0.777152841164555	0.614080172752029	0.77739246736354	0.613631087465234	0.000880494947736742	-0.00282870106660928
3.7	0.00199374764913254	-0.00478754163953473	0.863269265891749	0.485225249166627	0.863151465097434	0.485368613147056	0.00108170713344366	-0.00339482665003491
3.8	0.00108865747243077	-0.00575972818296385	0.927698681982101	0.345799682349499	0.927754286297302	0.345420623205088	0.00107251844747506	-0.00421501430615433
3.9	0.000211015547545081	-0.00635010016158954	0.97007660387207	0.196545050905208	0.969840374816967	0.197212581836564	0.000392674396508561	-0.00528618055029752
4	-0.000467092667652313	-0.00681294512527591	0.988967086961336	0.0444188220763329	0.988928469079673	0.0445217278565828	-0.000155439418264259	-0.00623258534419301
4.1	-0.00182434985725216	-0.00794349256825754	0.983687401821893	-0.10988020866538	0.983503499959556	-0.109752571001518	-0.00153716061157682	-0.00725354493287995
4.2	-0.00403424872735987	-0.00819413577782716	0.954049569778096	-0.261751362535032	0.954086734676591	-0.261098563057389	-0.00302448013997629	-0.0075672068488727
4.3	-0.00616740477411936	-0.00796125029442699	0.902018548433648	-0.405829440363258	0.901883248939422	-0.405718053270989	-0.00447135298604517	-0.00784621439513635
4.4	-0.00851070213747872	-0.0069440713286464	0.828111540903137	-0.540759064480802	0.827947007686613	-0.540625429837901	-0.00605711457275518	-0.00787114750407703
4.5	-0.00997217250274354	-0.00520701113631368	0.733909039139631	-0.662888667746602	0.733721108567392	-0.662715169860228	-0.00738997046636745	-0.0077553168402854
4.6	-0.0112152623096019	-0.00392573985005964	0.62141727208347	-0.768697772072493	0.62176060806372	-0.768002344239872	-0.00919032052302687	-0.00792113777861294
4.7	-0.0125505270678412	-0.00239362478779823	0.495097032967142	-0.85532211858412	0.495114443771867	-0.85496708452946	-0.0113067077111304	-0.00753527189123302
4.8	-0.0136052615722847	-0.000202544258380336	0.356145156490772	-0.921526550827197	0.35636706198566	-0.921211388860406	-0.0131140383442663	-0.00661056104113343
4.9	-0.0137767771286388	0.00212666331214161	0.209155718662764	-0.964977041503937	0.208936184912158	-0.964984224487987	-0.0143075964526285	-0.00525150471983719
5	-0.0130483818611305	0.00431140377577089	0.0567301719286871	-0.985121932268359	0.0569075200453998	-0.984877728142629	-0.0146731806451358	-0.00353369331914461
5.1	-0.0119239895870972	0.00601450892199863	-0.0961425923083328	-0.98205541157376	-0.0958113968218788	-0.981831412210509	-0.0145822816179439	-0.0018318010706462
5.2	-0.0104356634726379	0.00796305579276166	-0.247386050384477	-0.955297253477939	-0.246895408759041	-0.955271419391002	-0.0140929413370694	-0.000161190263877917
5.3	-0.00835556946848706	0.00961352770768442	-0.392494858119202	-0.905283605220545	-0.392155484826996	-0.905499819388214	-0.0132181573237122	0.00116165597990003
5.4	-0.00555749238283736	0.0112708386923687	-0.528035177228718	-0.833305170657934	-0.527823354575987	-0.833505666474222	-0.012357071902963	0.00222922243931007
5.5	-0.00186748469182701	0.0113309419375568	-0.650514527655327	-0.741504870904669	-0.650276473535382	-0.741699238787105	-0.0116176328822799	0.00264901919212599
5.6	0.00025537234316941	0.0106609591345355	-0.757758622869069	-0.631740765868366	-0.757569557342658	-0.63191231231967	-0.0117331783680534	0.00349862396510712
5.7	0.00217428218409132	0.0102838665300725	-0.846591518194355	-0.506415920529773	-0.846462701232804	-0.506635228537	-0.0113345008513325	0.00484110080375932
5.8	0.00407979848918512	0.00987022657670854	-0.914620410849408	-0.368847956796362	-0.914552889806829	-0.369132125220582	-0.010733935024319	0.00599844167725506
5.9	0.00596264696770259	0.00933398634989296	-0.960598918244757	-0.222854810704501	-0.960613350565121	-0.222938188157639	-0.0102202446293395	0.00704603536391891
6	0.00884731546367606	0.00826014799573485	-0.983968619373774	-0.0713610831175857	-0.983849666839723	-0.071418944466648	-0.00960228875154475	0.00793085807870341
6.1	0.010289762473377	0.00532813949510511	-0.982883710118737	0.0824140275440424	-0.982757426641387	0.0822659743718382	-0.00960649018855857	0.00884480280245947
6.2	0.0105282867887113	0.00299905260713413	-0.957952671748575	0.233761446386226	-0.957938973655662	0.23355925104406	-0.00907271307329276	0.0102774062734476
6.3	0.0102260994901083	0.000633086637600725	-0.910176718772091	0.379335523868143	-0.910172127145974	0.379150759334237	-0.00781005792651738	0.011184387127178
6.4	0.00946730957441421	-0.00159012883763965	-0.840551823487003	0.515971345859913	-0.840520109127615	0.515761304921251	-0.00643139995905694	0.0112678131606171
6.5	0.00836562757296108	-0.00388057103188696	-0.750043448657543	0.640432201149918	-0.750067481491027	0.640228677278006	-0.00520446406733894	0.0107342858842028
6.6	0.00679582810583113	-0.00571568814700858	-0.64144372875447	0.748681437464782	-0.641517283810986	0.748430056244927	-0.00430672669390845	0.0101757990296421
6.7	0.00512014980332859	-0.00702774616511415	-0.517646267707964	0.838996062025751	-0.517748640117224	0.838775515084133	-0.00368650069543615	0.00962398547033255
6.8	0.00363739135459345	-0.00793712573935433	-0.381276217959707	0.909212627810442	-0.381417323930633	0.909042300384496	-0.00331083973849931	0.00933369624323018
6.9	0.00212549079169332	-0.00870588235897387	-0.235421058176937	0.957328369074295	-0.235646962940391	0.957218149359768	-0.00278113924135563	0.00928141822359292
7	0.000687425843796075	-0.00937364196231356	-0.0841028513900245	0.981688418758686	-0.0843119020725179	0.981598771758216	-0.00214545802655397	0.00905630341299858
7.1	-0.00118923055960967	-0.00956425347840509	0.0687419840890266	0.982992990304164	0.0685408123000651	0.982859930266186	-0.00152173961111174	0.00909038710743892
7.2	-0.00272724558168141	-0.00927722648647058	0.220411928148449	0.960550038559916	0.220130713007474	0.960515202844523	-0.000507189879713293	0.00915972814175484
7.3	-0.00426499399025471	-0.00883915460535173	0.366713734361438	0.914700443260769	0.366478334900663	0.914726269538262	0.000543160161737178	0.00898516439677188
7.4	-0.00545181095313739	-0.0080092516447219	0.503991411081735	0.84656352715816	0.5037785806708	0.846614174875471	0.00148678310712229	0.00861185159698363
7.5	-0.00619493319845739	-0.00735910981704578	0.628757728401018	0.758516571258606	0.628588526427269	0.758585654608459	0.00262632010386853	0.00811643915478572
7.6	-0.00704533780052947	-0.00674859563663671	0.739211592606551	0.652032345535467	0.738954444630918	0.652113976352868	0.0037653750706105	0.007187531382005
7.7	-0.00777970061265367	-0.00554419209298988	0.831410187470755	0.529361493723585	0.831224585246875	0.529577777393158	0.00473362753522081	0.00601413023159492
7.8	-0.00787693918569982	-0.00398061077889984	0.903452811585701	0.393955113327227	0.903349426660402	0.394179817075679	0.00543598924000741	0.00440125148773107
7.9	-0.00751753295992113	-0.00200581802025102	0.953643650169142	0.249448884641372	0.953505286230604	0.249627837650489	0.00550447546028414	0.0027460006199794
8	-0.00518393224688444	-0.000542147524650552	0.981325981107401	0.0985843703470469	0.981302105867876	0.098846809637418	0.00501871826093312	0.00102423959733792
8.1	-0.0038444679392563	-0.000943785534069098	0.984830899973131	-0.0552419593333578	0.984859036199862	-0.0549864563318658	0.0032170389561462	-0.000346478996068798
8.2	-0.00320721397632139	-0.00105995358369844	0.964289811228048	-0.207372306674921	0.964337120574233	-0.207055227656751	0.00125517145893974	-0.000523974742767408
8.3	-0.00291756495967106	-0.000864685190310898	0.920619375881836	-0.35447014841981	0.920669763121713	-0.354182867959544	-0.00046277606008033	3.3678771178189E-05
8.4	-0.00260734986843902	-0.000216805702206659	0.854796407320283	-0.493307207230669	0.854893565353266	-0.493104813966327	-0.00175740686436804	0.00113015510911537
8.5	-0.00114325166527556	0.00102183421549343	0.767597408059824	-0.620479822101441	0.767648413421386	-0.620328848179494	-0.00209738954185353	0.00248145277449281
8.6	0.000858341886443279	0.000284851160936886	0.661617261052905	-0.731802574183854	0.661785165865223	-0.731564870557201	-0.00227715476578376	0.00348915037620731
8.7	0.00172220568624863	-0.000612749309121976	0.540053045413317	-0.825557469682162	0.540311796167947	-0.825341128846414	-0.0019235897908891	0.00496093729640677
8.8	0.00243944679233083	-0.0014330384021628	0.405466641633614	-0.899476864323245	0.405651711816756	-0.899337136006372	-0.000854411150913582	0.00607632306113314
8.9	0.00291953437941817	-0.00206553423010214	0.260692745083111	-0.951669293311579	0.260871611401321	-0.95149860608276	0.000993201543693892	0.00684936176749735
9	0.00420210416724228	-0.00270670462171317	0.109646595874038	-0.979909956164422	0.109954953170824	-0.979862625560244	0.0035223189789376	0.00677944503915954
9.1	0.00548253130041395	-0.00407112829629438	-0.0432605978631017	-0.985218248203187	-0.0429513139056285	-0.985176361839125	0.00605903189843352	0.00567539746775841
9.2	0.00668339333149797	-0.00555886343396143	-0.195830917511497	-0.966691388375787	-0.195483011600263	-0.966668125961284	0.0084136485663174	0.00375302920268893
9.3	0.00769609119739016	-0.00712066014696679	-0.343609481397326	-0.924525115384461	-0.343257198433435	-0.924498638841251	0.0101628832376489	0.00119586205304664
9.4	0.00869688919654528	-0.00876556420719474	-0.482746698733915	-0.859789420148579	-0.48242294518262	-0.859879547578861	0.0110872271060032	-0.00177724944735269
9.5	0.00963194034705991	-0.0113566268251224	-0.609819355791418	-0.774794906077006	-0.609581962707703	-0.774844494878893	0.0107091667588742	-0.00519692303352423
9.6	0.00828232701953946	-0.014114334150069	-0.723186223893664	-0.670941310716554	-0.722873602784113	-0.671079330931342	0.00889992515548782	-0.00752736144177425
9.7	0.0064726808749612	-0.0150344320232562	-0.818635271164299	-0.550419302177555	-0.818346495385866	-0.550651927068752	0.00682118455870356	-0.00945981954942991
9.8	0.00484306533309157	-0.0152962411468056	-0.894098155044295	-0.416708299000212	-0.893843831230188	-0.416876916525254	0.00405126746428296	-0.0109574017132902
9.9	0.00346408559707951	-0.0143203107530822	-0.947999025084573	-0.273158506481407	-0.947745437045151	-0.273367053314134	0.000838018196538021	-0.0116102020799713
10	0.00397373989663501	-0.0137127624855081	-0.979613641564726	-0.122644345771288	-0.979458450050488	-0.123007455106688	-0.00240025944412777	-0.0116662342544375
10.1	0.0032189561087126	-0.0145497208731363	-0.986619393193683	0.0315095938066322	-0.986554770460987	0.031076754635017	-0.00643546764543491	-0.010529739906295
10.2	0.00196843401081291	-0.0144730530296758	-0.969711995871228	0.184424682793052	-0.969588944277592	0.183992251802651	-0.00950113851130978	-0.00800106977389785
10.3	0.000814385478358668	-0.0138265590248183	-0.929299434951267	0.332889115918791	-0.929316071915266	0.332345703316062	-0.0116920025259133	-0.0052341625127559
10.4	-1.40140830784178E-05	-0.0130528015819424	-0.866399072333167	0.473323239185757	-0.86653570952589	0.47280983551179	-0.0131116047122338	-0.00250732482025006
10.5	0.000128489759409047	-0.0120186976738338	-0.781807900045475	0.602601019529532	-0.781981554876882	0.602167422625464	-0.0136205105910596	-0.000130900669735538
10.6	0.000539672934672407	-0.0125169161074506	-0.678328755769469	0.716089145683946	-0.678602144306616	0.715758304593594	-0.0141058042521003	0.00227039984194918
10.7	0.000202217176516651	-0.0128959912607327	-0.55895572753663	0.812533422640479	-0.559257342072689	0.812223344433885	-0.0139309431189301	0.00521522347372733
10.8	-0.000327793739934356	-0.0133617519102993	-0.425937533404367	0.889396763378607	-0.426289532599599	0.889098017233217	-0.0127912935683078	0.00825287531833341
10.9	-0.000990792052623098	-0.0134136885967203	-0.282381187577656	0.944669038212062	-0.282772612161848	0.944546331596971	-0.0108428194035034	0.0109512247592323
11	-0.00130809757065053	-0.0138517295066687	-0.132181971819592	0.976281916766488	-0.132619912335435	0.976191812420649	-0.00801907599515654	0.0128971744541052
11.1	-0.00205958583399595	-0.0141527082816808	0.0205452677181842	0.984863549334782	0.0200556709241366	0.984877629024701	-0.00478035000551114	0.0142290735243387
11.2	-0.00278326976840113	-0.0144793655114395	0.173209959033534	0.969776782034343	0.172752108882776	0.969850612731195	-0.000974855697768183	0.0145668550075958
11.3	-0.003568455688627	-0.0145253515414076	0.321663337047474	0.930982468390624	0.321203732198468	0.931120074796471	0.00298603094487158	0.0139495375862959
11.4	-0.00429109753696604	-0.0143240859274126	0.462100939078459	0.8694136907158	0.461696797153246	0.869527732342386	0.00661311848611158	0.0125424291340149
11.5	-0.00436543775087464	-0.0146378281350869	0.590841030616568	0.78734869386393	0.590522459253613	0.78765172169648	0.00957950497672565	0.0100663429335872
11.6	-0.00603845087987565	-0.0154863144748556	0.706178442299791	0.686235674181446	0.705963304340756	0.686564221567411	0.0113955170332282	0.00758433655843492
11.7	-0.00791276029582184	-0.014845758505976	0.804122606262288	0.568061896156397	0.803919693330642	0.568369194410297	0.0130538647170412	0.00482618469940914
11.8	-0.00966712880057678	-0.0137065538720389	0.882400709605463	0.436103725813964	0.882219592307371	0.436555364528155	0.0138476439748961	0.00148194559132349
11.9	-0.0105595737106653	-0.0113690085913301	0.939207245471588	0.294113410575921	0.939102112045336	0.294563954651055	0.0137945609091702	-0.0019288342725693
12	-0.0101109767294917	-0.00967029183886817	0.974054874271851	0.144847754447559	0.974026778588034	0.145212863610143	0.0126011474490265	-0.00555497926054049
12.1	-0.0103542481973987	-0.00969628004193564	0.98437632608545	-0.00871304307966208	0.984306315720837	-0.00832761399821464	0.00976439836761099	-0.00879245592477282
12.2	-0.0116693602023722	-0.009105015506418	0.9706901409586	-0.161471338189393	0.97070852737113	-0.161173007842455	0.00622504566131579	-0.0104685692192591
12.3	-0.013057901910261	-0.00767443397876218	0.933476998478471	-0.310053016442719	0.933597549279859	-0.309746404096461	0.0026265240991941	-0.0110748141059302
12.4	-0.0144319920515253	-0.00543974732188768	0.874235572370835	-0.45123834059502	0.874299910327978	-0.450868460494847	-0.000739002717243251	-0.0105418412511695
12.5	-0.013826447264291	-0.00231791178950842	0.792820684597928	-0.581828234744965	0.793162930159531	-0.581438706495447	-0.0032451130689427	-0.00934462052804196
