# GHZ S RI R 50
0.2	-0.000450446120704857	-4.80501433163532E-05	0.948757502920656	-0.307980760343714	0.948535313500765	-0.307955305319331	-0.000390551475857216	-1.29164147748687E-05
0.3	-0.000494590026902426	0.000115414617117757	0.88873946941309	-0.451579473559715	0.888583344814244	-0.451484108490136	-0.00048929768490899	-0.000110310621089528
0.4	-0.000230719552349915	0.000230197367751311	0.807211402519094	-0.583756482900734	0.807223184946498	-0.58378159022598	-0.000375855474915559	-0.000109539248490781
0.5	-0.000178095906346002	6.20476686972746E-05	0.706491933840533	-0.701832880827116	0.706337011567865	-0.701731461022049	-0.000304447745896595	-0.00028875674087594
0.6	-0.0003677074411632	0.000209820134968168	0.588735525064306	-0.802810604591513	0.588616327872875	-0.802648989448582	-0.000512178548953008	-0.000298025188877491
0.7	-0.000242420155659937	0.000575605787905699	0.45669260972005	-0.88413092974496	0.456673851366862	-0.884018498163346	-0.000421854383600151	-0.00027326288001328
0.8	0.000116155740077722	0.000674946065711479	0.313747204449464	-0.944025487669464	0.313715854857195	-0.943835876324133	-0.000422804883415927	-0.000258378294909225
0.9	0.000518200930841075	0.000842200952734078	0.163388948116051	-0.98089494873349	0.163323944780215	-0.980803112387926	-0.000473413655719566	-0.000279675750997273
1	0.00114404561684323	0.000193859411093343	0.00924274034702934	-0.99417268470181	0.0091911150453397	-0.994141252550388	-0.000385738674853804	-0.000598115214067545
1.1	0.000589973808580508	-0.000347417894167801	-0.145298850729158	-0.983483263360113	-0.145314607543621	-0.98335289987322	-0.00120987809700077	-0.000530925051202445
1.2	0.000486553538768076	-0.000917499581204024	-0.296288053267747	-0.94862469648315	-0.296211737869363	-0.948598612386215	-0.00107992335659517	0.000405691261788221
1.3	0.000216580983399138	-0.00211419404811541	-0.439787372520022	-0.890890819671243	-0.439764359200895	-0.890884206197035	0.000146138135099662	0.00140255027928869
1.4	-0.00016061184151989	-0.00349569031711127	-0.572401633025459	-0.811801862489109	-0.572377482051806	-0.811780237487801	0.00196292580715103	0.00131844991376102
1.5	-0.000927336839724163	-0.00406094081776398	-0.691743420362685	-0.712903703963454	-0.69164173088101	-0.712818782189056	0.00335679752404635	0.000225110302752565
1.6	-0.000774674281778211	-0.00351776216608042	-0.793622835994882	-0.596440385082791	-0.793548839563179	-0.596380411988432	0.00382525894506126	-0.000853056496771871
1.7	-0.000428116375702895	-0.00366584857437578	-0.875889438680022	-0.466569469610279	-0.876053652968755	-0.466053892413494	0.00379636164913121	-0.00231993939865979
1.8	-0.000613277471971793	-0.00395606176456354	-0.937753005977456	-0.324610078416423	-0.937641857601151	-0.324608684860649	0.00298026083713822	-0.00357714778285509
1.9	-0.000937199310395696	-0.00432063863802153	-0.976609341087557	-0.175501498281313	-0.976702259458067	-0.175014384215537	0.00201783068814167	-0.00444051320131891
2	-0.00251465713210237	-0.00476979079581539	-0.991441217422013	-0.0210906457513285	-0.99145313842615	-0.0210448482511328	0.000469280205322181	-0.00514466912641582
2.1	-0.00349004004498225	-0.00326263042336677	-0.982526028137374	0.132549164678676	-0.982564100869854	0.132586191690143	-0.000584007927211666	-0.0044385529071439
2.2	-0.00369775224824726	-0.00258141043492144	-0.950251855660738	0.28325812220831	-0.950176883662503	0.283320901211852	-0.00091262430451505	-0.00428505954813344
2.3	-0.0040067928076707	-0.0020319339603263	-0.894940727177721	0.426709166297857	-0.894559209706313	0.427222116635553	-0.00151420523652395	-0.00435557003368387
2.4	-0.00432299944714113	-0.00172155878452849	-0.816870935562377	0.561400446844133	-0.817136964539693	0.560815090455962	-0.00218343290914299	-0.004356786962782
2.5	-0.00538314036870634	-0.00183659235845829	-0.720235512393913	0.68078128550648	-0.72044840983179	0.680271859209896	-0.00302069836840122	-0.00489250070332239
2.6	-0.00690852046912631	-7.50133716730479E-05	-0.606612302167154	0.784205847206785	-0.606506058572709	0.784023364808039	-0.0039869162765295	-0.00408488423121769
2.7	-0.00680786725050673	0.00200575008789142	-0.476901629410972	0.869150651996711	-0.47735009352863	0.868743566216575	-0.00409506331647854	-0.00331446178346033
2.8	-0.00567080889644471	0.00359932627037906	-0.337455779017008	0.932044567055997	-0.33678861088817	0.932203842947952	-0.0039713564848837	-0.00269588763632791
2.9	-0.0037886533530946	0.00434496130840261	-0.188334364717185	0.973048885363812	-0.188365507126775	0.972961538947242	-0.0032478209519388	-0.00202677027243965
3	-0.00211266491806087	0.00453711167446148	-0.034523643108699	0.991012589153049	-0.0352245129450884	0.990853209100621	-0.00248519242146123	-0.00148337320358756
3.1	9.77208541006869E-05	0.00431415737619191	0.118780432358291	0.984407954844963	0.119371211250509	0.984390474210736	-0.00113490889154202	-0.00128937488329945
3.2	0.0016426492104608	0.00312667185177006	0.270675600414685	0.953691059387289	0.27062082497771	0.953630720963443	-0.000444535324595892	-0.00163823570097882
3.3	0.00287245898781587	0.00170949300511442	0.415488178531715	0.900060388113043	0.415351002742395	0.900046119321391	0.000308392963029544	-0.00199415490453792
3.4	0.00337590799871473	-0.000120570758202026	0.550180509118947	0.824896861535384	0.550018150296207	0.825014756580267	0.00105779631869277	-0.00290149623264055
3.5	0.00292930926534408	-0.00145036913802911	0.672070645910652	0.729442560335408	0.671991000615818	0.729481362463803	0.0010639417890963	-0.00361187306199667
3.6	0.00305775046468931	-0.00209412628994306	0.776340973231475	0.616281177745667	0.776581786664272	0.615832302149474	0.00154114973952264	-0.00410051123552298
3.7	0.00307261236420787	-0.00353569428317917	0.862737729013043	0.487865122202826	0.862619458613883	0.488008301631649	0.0016583234073647	-0.00506853660147483
3.8	0.00240741089213943	-0.00494566863411341	0.927881373261215	0.348627085268139	0.927938032569523	0.348247727695707	0.00137002514367652	-0.00600862949841769
3.9	0.00162517992182982	-0.00648397068331605	0.971064098523124	0.198989305897507	0.970826039262264	0.199657291944566	0.000546845558284164	-0.00721721713670122
4	-0.000882246768947179	-0.00784216617607989	0.989580476362912	0.0463149197798603	0.989541637219477	0.0464178252854372	-0.000892912446117039	-0.00814736291698439
4.1	-0.00288259976543838	-0.0072370891039186	0.98483628845813	-0.107174844001531	0.984651867108569	-0.107047621063615	-0.00189301527166268	-0.00805192066283066
4.2	-0.00446296139796984	-0.00696179839560165	0.956206571899401	-0.25942752334577	0.956241936506848	-0.258773651361096	-0.00269264755402466	-0.00850774422113778
4.3	-0.00607710846329142	-0.00668986484070269	0.904641521925818	-0.404245925470821	0.904505700276498	-0.404134686919348	-0.00386752799228749	-0.00909040328476622
4.4	-0.00769994733885896	-0.00617141555995483	0.830630742320482	-0.539717664383028	0.830465648994054	-0.539584195864139	-0.00520213214410283	-0.00947044509938314
4.5	-0.00995420915169071	-0.00613912100549848	0.737035357045476	-0.661477239436467	0.736846613982758	-0.661304097754919	-0.00702115101439425	-0.0101089541758513
4.6	-0.0128383258272142	-0.0039359563454576	0.625450389333933	-0.768795681352744	0.62579246911563	-0.768097348059546	-0.00919186299458788	-0.00954319485066054
4.7	-0.0142912529966253	-0.00140914550029355	0.498690463560975	-0.856553746945964	0.498707029258037	-0.856197639324769	-0.0108367840578262	-0.00906358886668102
4.8	-0.0151821224505107	0.00150648745755695	0.35926594837979	-0.923364204651709	0.359487774279437	-0.923047631947168	-0.0124010311909218	-0.00837095479852058
4.9	-0.0149879773393599	0.00428434164816786	0.212191602055854	-0.967217854062645	0.211971456540984	-0.967225611787726	-0.0135655229666546	-0.00737404854981675
5	-0.0143194806130538	0.00705744122800319	0.0596101912640006	-0.989052951124813	0.0597876188607999	-0.988807258624348	-0.0143264517219845	-0.0058259782421142
5.1	-0.0119735536590974	0.00968000707485573	-0.0952682265902869	-0.986445064342948	-0.0949358879835341	-0.98621965694881	-0.0141519402580151	-0.00413885716522848
5.2	-0.00910757075814079	0.0111410524398366	-0.247408342481014	-0.95936981383982	-0.246915764017285	-0.95934337950196	-0.0139288089192747	-0.00278981149566744
5.3	-0.00633827683024646	0.0114477318065602	-0.39319775005292	-0.909335541136428	-0.392856790059331	-0.909552298633231	-0.0134781226636878	-0.00161950631676215
5.4	-0.00431220623776699	0.011152247786425	-0.529764901786871	-0.837609312212675	-0.529551928389931	-0.837810554163448	-0.013250365324184	-0.000760964309914495
5.5	-0.00391370432430451	0.0118595923689087	-0.654265600270513	-0.744798954091449	-0.654026479026261	-0.744994453638955	-0.0138827161819443	0.000755084200081117
5.6	-0.000709962965164785	0.0138812002985302	-0.761268913977503	-0.633408032496554	-0.761079295244883	-0.633580418891077	-0.0126920823345899	0.00276147035139225
5.7	0.00270445747531287	0.0134528378558407	-0.850134058902719	-0.507654661554758	-0.850004929786355	-0.507874885575983	-0.011802822720941	0.00376367324085967
5.8	0.00559821656311374	0.0123357344129	-0.918567164494416	-0.369425840433828	-0.918499648846319	-0.369711190382045	-0.0110557834661876	0.00492855231890544
5.9	0.00801562587399833	0.00988504457114706	-0.964906182142703	-0.22210436678555	-0.964920817344652	-0.222188059915799	-0.0101209187873835	0.00580626178756916
6	0.007624171299394	0.00715437049738548	-0.986832309085305	-0.0691970100525042	-0.986713169620469	-0.0692553153053518	-0.0103036457265761	0.00665755130894847
6.1	0.00802348520117654	0.00726446071490752	-0.985345382369272	0.0839924394279263	-0.9852189731469	0.0838438228899847	-0.00896157538545406	0.00884885562766425
6.2	0.00934611010562325	0.00604861753673341	-0.960477384712619	0.235996236650363	-0.960463967687619	0.235793407660623	-0.00710911798299147	0.00932619612592904
6.3	0.0101398090310882	0.00404430154823983	-0.912054668663573	0.382359189244145	-0.912050451208832	0.382173872193685	-0.00562617009951772	0.00910713075737297
6.4	0.0104597515951684	0.00145794307391434	-0.841119026024948	0.519224015586886	-0.841087768606067	0.519013429673164	-0.00457982786948843	0.00836506651211974
6.5	0.00962552155522203	-0.00136875471749585	-0.750438117618329	0.642469025922897	-0.75046245675187	0.642265198623944	-0.00411950903215235	0.00752995508341163
6.6	0.00869424404377452	-0.0037700103022464	-0.642171556626664	0.751757546081962	-0.642245690705671	0.751505556498441	-0.00360773350618159	0.00696908984058677
6.7	0.00676150130045308	-0.00620665433781595	-0.51722285408378	0.842445163672672	-0.517325994013875	0.842224235203196	-0.00356860654366786	0.00643696908665063
6.8	0.00434441509849503	-0.00764426324670875	-0.379919164962575	0.912234078144436	-0.380061012680648	0.912063706274081	-0.00361764624865826	0.00650015452383043
6.9	0.00171965837990853	-0.00831416623482494	-0.233944555138197	0.959628114635457	-0.234171112536216	0.959518138961611	-0.00325103088544182	0.00678946362230809
7	-0.000482758487113353	-0.00780347933385264	-0.082632830789886	0.984974735237135	-0.0828427084073257	0.984885171900211	-0.0025326111051294	0.00715441005576145
7.1	-0.00179241965751334	-0.00732659047703333	0.0722259248217075	0.985712787434877	0.0720237057742135	0.985579998973275	-0.00133708301160537	0.00712048133940112
7.2	-0.0030979612623339	-0.00688991536980396	0.224311859920846	0.961919311536375	0.224029891506201	0.961885395078879	-0.000197974838391119	0.00692581637466313
7.3	-0.00443493046045798	-0.00629949825497564	0.370549264573362	0.915236534576495	0.370313493386228	0.915263214047458	0.000916109347911699	0.00649707833183647
7.4	-0.00549667858610649	-0.00555290652885655	0.508008257539009	0.846874655561388	0.507795094748079	0.846926133872113	0.00177172172464728	0.0057023892944531
7.5	-0.00687133300533801	-0.00446805123324368	0.6341493234204	0.757269087747984	0.633980042364207	0.757339194621554	0.0022843686685048	0.00506872791153205
7.6	-0.00669378966816628	-0.00271796174053551	0.743145368719746	0.6487152260067	0.742888445081843	0.648798247262783	0.00349691343121019	0.00427589699744201
7.7	-0.00606699388719621	-0.00181973993609589	0.834219338601671	0.525696268944711	0.83403467036103	0.525913506928665	0.00418934389841986	0.00287712364761438
7.8	-0.00514440838304721	-0.00141480160894553	0.905664709596313	0.38987273268319	0.905562337855392	0.390098011913259	0.00462791832803383	0.00135772294475496
7.9	-0.00450243755421034	-0.00190156774493084	0.955250241146396	0.244315529069654	0.955112816780915	0.244495282576603	0.00465808408949663	-0.00034561639710388
8	-0.00632538973738618	-0.0026617442298453	0.980151794753481	0.0926174583438208	0.98012951080498	0.0928795689167185	0.00281002702344522	-0.00200744578559066
8.1	-0.007064210872356	0.000266407758054934	0.982444516266901	-0.0594210782179512	0.982473706642914	-0.0591662546055841	0.00176079959531396	-0.00123634260392431
8.2	-0.00584417097259926	0.00222390658148958	0.961502344202023	-0.211013149364909	0.961550892216647	-0.210696899171885	0.00123731134028152	-0.00123960457797931
8.3	-0.00429231313097314	0.00364715320238459	0.916965128986575	-0.357666623864204	0.917016651763421	-0.357380221445196	0.000585620854475003	-0.00104723189656374
8.4	-0.00184745383569371	0.00414807649468622	0.849782964947184	-0.495394356220966	0.849880682824978	-0.495193064150491	0.000342322968431933	-0.000827603565209546
8.5	-0.00107592441248671	0.00262903922904981	0.763015667960398	-0.619826769034532	0.763066830864643	-0.619676525527616	-0.000596388968485996	-0.00136029231896239
8.6	-0.000972569317271729	0.00399035834805791	0.6582204033536	-0.731330681532228	0.658388391738514	-0.731093986127377	-0.00138414226444355	0.000227919651902313
8.7	0.00105779339906813	0.00490052174485445	0.536361145583289	-0.824652807102465	0.536619736586616	-0.824437755973329	-0.000779520339495465	0.00126844152193451
8.8	0.00369475832893394	0.00488665238908553	0.401879574102228	-0.897490556825287	0.402064375624835	-0.897351754012918	-0.000108106261904667	0.00183552207726888
8.9	0.00666464095818752	0.00378777567270678	0.258267665844707	-0.948517665607726	0.258446125577236	-0.948347888054416	0.00118293744081271	0.00238731297937294
9	0.00902593838416476	0.000906779164928044	0.10850917900769	-0.977966992299058	0.108816936803461	-0.977920046389082	0.00280004594979849	0.00221011328982662
9.1	0.01059878854736	-0.00191924690790335	-0.0454788482453384	-0.982814615296764	-0.0451701882647517	-0.982773554904097	0.00494843743363098	0.00172887041020782
9.2	0.0112070855940741	-0.00565035151967699	-0.19732565049266	-0.963228704109824	-0.196978786211512	-0.963206274007719	0.00697065811282175	-4.39749771306708E-06
9.3	0.0101175056520683	-0.00872186963909086	-0.343932177696876	-0.920879617150896	-0.343581032884557	-0.920853791009888	0.00828260751121676	-0.00210620720985379
9.4	0.00832698250179068	-0.0111134595041691	-0.482394841089482	-0.856968142664213	-0.482072050050114	-0.857058382334819	0.0090535847935708	-0.00466365254256291
9.5	0.00478342210692502	-0.0108020882033106	-0.610524672045074	-0.771286969625928	-0.610287974683394	-0.771337097613785	0.00804810539174211	-0.0065925602988298
9.6	0.00544861659787311	-0.00902006624082519	-0.721853832318126	-0.666349032905486	-0.721542854859643	-0.666487259178033	0.00851587551682138	-0.00815937902416986
9.7	0.00614167727782976	-0.00942199302832837	-0.815977315682318	-0.546682632626358	-0.815690177494637	-0.546914719311026	0.00716571396869688	-0.0110962042335352
9.8	0.00639191080470825	-0.0102134162825229	-0.890949681059494	-0.413766009189316	-0.890696641963051	-0.413934271077193	0.00449975405330917	-0.0130638383685819
9.9	0.00639606592471333	-0.011657029487548	-0.944628072802301	-0.270202153389015	-0.944375930845026	-0.270410332666255	0.00156733179730376	-0.0142959690581055
10	0.00323048784351498	-0.0130138275209614	-0.973712121908584	-0.119920734933492	-0.973558628209804	-0.12028187593107	-0.00318687750204451	-0.014505030344614
10.1	0.00216314737627348	-0.0103332916537917	-0.980403967173913	0.03118711725338	-0.980339697508104	0.0307570145916765	-0.00613623954071638	-0.0118744289094814
10.2	0.00293646333571418	-0.00967533876072249	-0.964247587949377	0.182785910113444	-0.96412498572937	0.182356038355713	-0.0083159586058964	-0.00995710520795033
10.3	0.00342614296789032	-0.00973944838706704	-0.924210134993832	0.330322140632565	-0.924226291100668	0.329781830300797	-0.0104206676844641	-0.00762444344179977
10.4	0.00390595044701146	-0.0110212201780632	-0.861169901706497	0.469383930481269	-0.86130514835713	0.468873763886989	-0.011685891426794	-0.00515010055585344
10.5	0.00226305581242767	-0.01312899251986	-0.778588907201304	0.595734461280838	-0.778759850199738	0.595303214593327	-0.0128163702030544	-0.00310423925529016
10.6	-0.000333251909483691	-0.0130335669567704	-0.67783017078552	0.710046079932563	-0.678100975705169	0.709715773636408	-0.0134206642257982	8.80024821723298E-05
10.7	-0.00166888100834638	-0.0119083032471962	-0.559313641422482	0.806942139077648	-0.55961282020896	0.806632385866	-0.0123895111351073	0.00340901840992344
10.8	-0.00215664335094311	-0.0109177822425248	-0.42729957789531	0.883752026669416	-0.427648859217439	0.883453335674897	-0.0103187280938735	0.00615697634509687
10.9	-0.00235043125745799	-0.0102533439254516	-0.285691366194447	0.939009633623396	-0.286080418231363	0.938885581163977	-0.00780732047337852	0.00796271404875702
11	-0.00277353464730987	-0.00997575142148935	-0.137197672555189	0.973466340817446	-0.13763418306562	0.973374052713068	-0.00506599730481659	0.00908237667050185
11.1	-0.00254238652780051	-0.00962463720628941	0.0167861225211123	0.982882609637408	0.0162974958272567	0.982894812531732	-0.00178296254604087	0.00934593569581922
11.2	-0.00251783142681178	-0.0100747412023468	0.168952857480628	0.96796584706548	0.16849589350442	0.968037688343427	0.00129003634088393	0.00866881861512704
11.3	-0.00276885750702482	-0.0106255047500793	0.316669912623554	0.930213651841968	0.316210783456164	0.930348843837894	0.00430036106683877	0.00745013817676709
11.4	-0.00363802256103867	-0.0118683695624857	0.45725846552992	0.870691088876028	0.456854228778726	0.870802996665974	0.00688397582909837	0.00550834174570448
11.5	-0.00650658161535262	-0.0113414810656137	0.588254670610603	0.788575285770338	0.587935420682941	0.788877230005247	0.00798861173998069	0.00381692272931608
11.6	-0.00655355895516815	-0.0095313028488555	0.702400009216355	0.686947433265677	0.702184306013349	0.68727455520557	0.0101909264872718	0.00213724736975554
11.7	-0.00642747627541407	-0.00919085208304081	0.800171287630183	0.570186212049015	0.799967534076265	0.570492058104314	0.0112874565236458	-0.000707819478677456
11.8	-0.00672402721791199	-0.00932097135407597	0.879354344465414	0.439301386945521	0.879171534319136	0.43975164676095	0.0113863261001717	-0.00340175690641953
11.9	-0.00724370903905524	-0.0102272135295339	0.93745368399966	0.297048518834285	0.937347113504131	0.297498343177258	0.0109039323094394	-0.00604504920300984
12	-0.0116774788372238	-0.0109311403034031	0.970768888972877	0.147496447680876	0.970739724388832	0.147860407663773	0.0084155622988449	-0.00848073244239891
12.1	-0.0137586160282787	-0.00703424780365993	0.982009813443058	-0.0035793018179972	0.981937972850362	-0.00319518070618371	0.00741247218524979	-0.00868773217822334
12.2	-0.0142250867296669	-0.00457451641653816	0.97017063625207	-0.156023574250432	0.970187392972433	-0.155725571488048	0.00632141114990014	-0.0100498461680768
12.3	-0.0143061167539867	-0.00213879283165864	0.934100599401378	-0.304977008297897	0.934219463728908	-0.304670095751169	0.00469718046296285	-0.0111853846134366
12.4	-0.013598313766612	-0.000444202910692563	0.874998560011699	-0.446168712274061	0.875060964991783	-0.445799133984891	0.00311970529870296	-0.012089740708805
12.5	-0.014224172540336	-0.000126118662958405	0.795840373478143	-0.575048713449969	0.79617919771477	-0.574657285869471	0.000335844253021369	-0.0133969879516524
