# GHZ S RI R 50
0.2	-0.000260032092562617	-0.000164235837836735	0.949041144351849	-0.308009276988537	0.948818891333173	-0.307983828320872	-0.000290559999039128	-2.7741911375234E-05
0.3	-0.00034728038979592	-0.000108198693629235	0.889033354925023	-0.451668382993891	0.888877177829709	-0.451572997444171	-0.000456282488149116	-0.000113770265988846
0.4	-0.000186739581836016	-7.19997119561683E-05	0.807516003570063	-0.583909704447095	0.80752779134178	-0.58393481961566	-0.000410641752471809	-7.62448468660064E-05
0.5	-0.000247067425526434	-0.000152109861664741	0.706795866240644	-0.702127268841078	0.706640877591343	-0.702025806780742	-0.000428072985651143	-0.00014946031858787
0.6	-0.000312545899855205	-2.66610941648788E-05	0.588889508608423	-0.803163446458426	0.588770280147521	-0.803001760229942	-0.000614266828532856	-6.9966237324537E-05
0.7	-0.000238238156946934	0.000206364422285297	0.456789968761846	-0.884485883470215	0.45677121223212	-0.88437340977312	-0.000560810726208195	5.11557677064748E-05
0.8	1.31317660817796E-05	0.000231781668624769	0.313781419644152	-0.944415448241651	0.313750075274833	-0.944225761456342	-0.000515956724691088	0.000220612732268617
0.9	0.000235665924615355	0.000337749566073506	0.163321088805191	-0.981318379790571	0.163256071467013	-0.981226496978893	-0.000377813583207948	0.000290775658656469
1	0.000576107006449598	-3.6106637233987E-05	0.00902037604892961	-0.994525675394365	0.00896873961491815	-0.994494220421745	-4.1511772169826E-05	-0.000108395666011097
1.1	0.000481089735142824	-0.000341474825631386	-0.14549643575141	-0.983758438894876	-0.145512177005908	-0.983628033442808	-0.000532202963852516	-0.000477276875869119
1.2	0.000752633371199301	-0.00129522030043071	-0.296544028741118	-0.948911933207425	-0.296467682279384	-0.948885852081066	-0.000470284577262324	-0.000306144834429125
1.3	0.000752291070742003	-0.00303844277413841	-0.440134305963	-0.891124857464638	-0.44011128285539	-0.891118246363417	0.00034483122110213	8.53715095494956E-05
1.4	0.000495009767485942	-0.00493490149340248	-0.57280343576462	-0.81192068949451	-0.572779271154731	-0.811899063643087	0.00169302364068077	-5.91816654865401E-05
1.5	-5.76001283288046E-05	-0.00578214276951828	-0.692073217013048	-0.712953970041207	-0.691971483105625	-0.712869046172732	0.00280148225209879	-0.00070144769948825
1.6	-0.000316828072126539	-0.00584182142466623	-0.794055687951943	-0.596524098657585	-0.793981650333486	-0.596464115987636	0.00310751319361125	-0.00112175404493201
1.7	-0.000686002330432456	-0.00581101736892496	-0.876403238271844	-0.466504025382715	-0.8765673670253	-0.465988179019822	0.00328943144882178	-0.00191427290148978
1.8	-0.00130964577223581	-0.00565447295072828	-0.938246690081587	-0.324392811705756	-0.938135496917404	-0.3243914586459	0.0028539636279303	-0.00283901637143598
1.9	-0.00186277756693012	-0.00537524614681487	-0.977029633376659	-0.175188178645224	-0.977122397432139	-0.174700852838719	0.00221085342423666	-0.00366498783755509
2	-0.00285574409919559	-0.00516070863318084	-0.991901563997351	-0.0207221152794206	-0.991913472983834	-0.0206762922989465	0.000826926094612338	-0.00446782667386467
2.1	-0.00346556828022344	-0.00419449690009682	-0.982889318307216	0.133199234371503	-0.982927385952328	0.133236300973704	-0.000323046781952971	-0.00384410430212648
2.2	-0.00403385515548422	-0.00367820608376689	-0.950364962396696	0.283990427797748	-0.950289923996798	0.28405317630243	-0.000602927086772089	-0.00354370243548575
2.3	-0.00468667390025504	-0.00295518290974858	-0.894860625229021	0.427428625627443	-0.894478662604742	0.427941435598965	-0.000972047644666309	-0.00363546912746841
2.4	-0.00529317114508906	-0.00215020561132997	-0.816657087255017	0.56209605033842	-0.81692358475784	0.561510751729096	-0.00143296203179958	-0.00393597807856253
2.5	-0.00588699773207923	-0.0013255258263255	-0.719792792056578	0.681551002491107	-0.720006177830385	0.681041655275112	-0.00232245309864814	-0.00496368644538092
2.6	-0.00632788577135352	0.000192356820222336	-0.60586112461711	0.784721712185272	-0.60575505403464	0.784539141792292	-0.00374797628876143	-0.00456909010655268
2.7	-0.00583543383914328	0.00156924301950378	-0.476099722293333	0.869416716468541	-0.476548458693581	0.869010069239699	-0.00433422900248065	-0.00378183119673225
2.8	-0.0047428045183368	0.00247124833749273	-0.336627077974118	0.932131659335064	-0.335959914670127	0.932290358675022	-0.00449985323236317	-0.0030125573583951
2.9	-0.00314462088207944	0.00277199189535726	-0.18744981607713	0.972958182271084	-0.187481025442847	0.972870885279904	-0.00397084291426425	-0.00215804277472801
3	-0.00170367140511027	0.00258422481626291	-0.0336195522507651	0.990542583835547	-0.0343202104533607	0.990383911406139	-0.0033717309702986	-0.00136818494083859
3.1	-0.000116708699289941	0.00211950910775025	0.119356450955603	0.983742668849992	0.119946865932559	0.983724810436778	-0.00209087523147996	-0.000798338732089198
3.2	0.000930904430903677	0.00115560626809781	0.271091962009189	0.952987331224662	0.271037181619447	0.952927059835276	-0.00125999100157682	-0.000848502254274713
3.3	0.00190572246485719	0.000124416638718538	0.415767122797461	0.899267468658469	0.41563002201909	0.899253289577025	-0.000358023403195099	-0.00102874820405108
3.4	0.00244530615193884	-0.00120238112390338	0.550248607390307	0.823982997923717	0.550086433899823	0.824100899371027	0.000489684001952634	-0.00184285036404979
3.5	0.00257365025159887	-0.0024206216308173	0.671744855746383	0.728611434067098	0.671665289920071	0.728650229624636	0.000495530783440703	-0.00245164188946889
3.6	0.00260013409887935	-0.00348639491342222	0.775991621994613	0.615682677897772	0.776232164630476	0.615234033609439	0.000977832512791047	-0.00264104464365259
3.7	0.0023046716055906	-0.00482554220405432	0.86231652309363	0.487276740765881	0.86219837504198	0.487419861765133	0.0014021120106832	-0.00336666521573614
3.8	0.00145630268643839	-0.0059303867627569	0.927300968158002	0.348110050091902	0.92735747890531	0.347730954060059	0.00146160802182096	-0.00432465995559745
3.9	0.000647546455971691	-0.00688399553618865	0.970331874449769	0.19867321420886	0.970094112318947	0.199340713168993	0.000858311327027744	-0.00577677611075068
4	-0.000995357008013314	-0.00765211474073348	0.988982797341507	0.0462303823683823	0.988943987630376	0.0463332276602372	-0.000673145770424175	-0.00705017108469929
4.1	-0.00237711082380951	-0.00768986137583825	0.984186490064944	-0.107358827655813	0.984002217779961	-0.10723163798799	-0.00210129493709687	-0.0069650937036052
4.2	-0.00403007944877182	-0.00779111086466652	0.955404049277775	-0.259435303151935	0.955439529945957	-0.25878194874729	-0.00303271972850217	-0.00711379042341933
4.3	-0.00580341507630643	-0.00766129997581385	0.903840722309218	-0.404009517505215	0.903705026547032	-0.403898356665805	-0.00410455692088861	-0.00748990560389924
4.4	-0.00771949751824504	-0.00700124990454354	0.829972501883208	-0.539312551264306	0.829807539889929	-0.539179183699637	-0.00524964723786517	-0.00787657822427236
4.5	-0.00964190970292283	-0.0062530265468325	0.736365178327019	-0.661124378892833	0.736176607591095	-0.660951330353486	-0.00704827073199125	-0.00877281580095554
4.6	-0.0116419248918419	-0.00438420921143169	0.624715147072171	-0.768083672358961	0.625056961330128	-0.767386096947918	-0.00963488935665163	-0.00834850387985909
4.7	-0.0128371389405356	-0.00247719522517752	0.498216962990153	-0.855605068214685	0.498233486531118	-0.85524933961347	-0.0116239425502174	-0.00757660498120992
4.8	-0.0137407427159987	-0.000144053318998569	0.359055450576027	-0.922339984215077	0.359276989701979	-0.922023701651675	-0.013279226244256	-0.00649016333015313
4.9	-0.0137680564514218	0.00217475902866242	0.21214835730802	-0.966191667475655	0.211928438087866	-0.966199456775391	-0.0143185928515777	-0.0051293578964539
5	-0.0132252404915808	0.00448079327706242	0.0597497160027947	-0.987780758979611	0.0599268641866003	-0.987535340638459	-0.0148601266247185	-0.00328740238396056
5.1	-0.0115967799338875	0.0065027701688132	-0.0945631371049055	-0.985261951642438	-0.0942313499033555	-0.985036630297762	-0.0142525175702733	-0.00125583692699697
5.2	-0.00965732047529798	0.0081107012589183	-0.24645468307017	-0.95848157370658	-0.245962669349581	-0.958454819834774	-0.0132880124592905	6.83141929512445E-05
5.3	-0.00745195574402221	0.00913477510913569	-0.392097888478286	-0.908675347685648	-0.391757123735274	-0.908891619832234	-0.0122734598545464	0.000737592639366973
5.4	-0.005190726049408	0.00989986837472463	-0.528487794028312	-0.837121112223165	-0.528274889845529	-0.837321955902821	-0.0119649805037483	0.000870431788228899
5.5	-0.0033366013046877	0.0105631861165173	-0.652661468971584	-0.744760467470034	-0.652422377469614	-0.744955467930773	-0.0131199858826355	0.00189991881125801
5.6	-0.00038120916880501	0.0113562691728939	-0.759910419291041	-0.633906071444345	-0.759720721682593	-0.634078091744813	-0.0124026964191393	0.00425402178221024
5.7	0.00223420020494965	0.0108686387701172	-0.848979408639823	-0.508353859552891	-0.848850096940782	-0.508573787218523	-0.0112924176862153	0.00549600113892755
5.8	0.00453822303958548	0.0102569374590166	-0.917549801614905	-0.370340387727545	-0.917481973183292	-0.370625480104916	-0.0102842900379191	0.00644505825235595
5.9	0.00679543246826535	0.00899083152101786	-0.964058231310563	-0.2233264665628	-0.964072741709881	-0.223410133265582	-0.00940268475476317	0.00673933299311787
6	0.00812886468776421	0.00729857501707056	-0.986538362309328	-0.0706657053059358	-0.986419158296425	-0.0707238201319193	-0.0103796313898584	0.00699012393894435
6.1	0.00970786335820723	0.00605215041461264	-0.98532466956531	0.082753289350793	-0.985198091117978	0.0826048495328991	-0.0102964898889261	0.00962476753820527
6.2	0.0108831265589706	0.00376323620526415	-0.960617301579022	0.234724263112666	-0.960603626625604	0.23452148584842	-0.00883652975109933	0.0111516969257313
6.3	0.0110353188383142	0.00105782849933137	-0.912506423695094	0.381073751144376	-0.91250195167598	0.380888455031746	-0.00709732982401881	0.0117717315011091
6.4	0.0104746197449357	-0.00163848203271757	-0.841974349690544	0.518098359860562	-0.841942788159932	0.517887789406152	-0.00546603996572707	0.0113972673275733
6.5	0.00911069655051679	-0.00421832826375487	-0.751379181430308	0.641820802187479	-0.751403299917416	0.641616887235173	-0.00447517491378922	0.0105582265415794
6.6	0.00761739870624235	-0.00622081068920461	-0.643074689474383	0.751081148857247	-0.6431485419584	0.750829056491786	-0.00348450681251353	0.00983797150453746
6.7	0.00563594673376831	-0.00790449280944118	-0.518374316232755	0.841916795413201	-0.518477190929037	0.841695701783421	-0.00314838761072382	0.00889383684869071
6.8	0.00368355281777072	-0.00884223013757772	-0.381207032307401	0.912022650815559	-0.381348704064722	0.911852044979177	-0.00324250786907116	0.00855376418872523
6.9	0.00174814756297534	-0.00944983914278403	-0.235144014075325	0.959755927534368	-0.235370538708958	0.959645646126692	-0.00314875851832341	0.00864785267985591
7	8.75257098790675E-05	-0.00947172530510774	-0.0837319880167254	0.985050868109254	-0.0839418025281783	0.984961058412814	-0.00274680344345991	0.00910302705458736
7.1	-0.00133412242864209	-0.0094569262198448	0.070846993425204	0.986111449008172	0.0706449023647043	0.985978333343791	-0.00163931424329885	0.00934938749603281
7.2	-0.00272717940480818	-0.00923368254996929	0.223079028031117	0.962754968356147	0.222796954976107	0.962720636651701	-0.000472662745549982	0.00934559638254337
7.3	-0.00416327859569135	-0.00884566275995689	0.369590239028923	0.916323662122907	0.369354278128458	0.916350049422037	0.000682603047332457	0.00912249638566185
7.4	-0.00533258007740618	-0.00821126137293378	0.507268845091168	0.848031907302165	0.507055486109819	0.848083152154863	0.00165425502267631	0.00855533688636609
7.5	-0.00656163786501406	-0.00745273320354673	0.633394957576349	0.758737446515403	0.633225458611771	0.758807338217538	0.00234893009995668	0.00817722376040681
7.6	-0.00696102446859159	-0.00634119768116007	0.742994812386878	0.650519138792973	0.742737486610662	0.65060187061604	0.00393995082754223	0.00775643812344244
7.7	-0.00724675750358153	-0.00531867723280679	0.834554783155506	0.527390699177932	0.834369616154838	0.527607963733225	0.0053940290996999	0.00636733941249195
7.8	-0.00700540485886629	-0.00416349680955812	0.906320660444273	0.39143681302423	0.906217892971252	0.391662248988724	0.00645474252373344	0.00429884671704974
7.9	-0.00647582490108538	-0.0031705678536691	0.956195322030529	0.245848569523424	0.956057489035384	0.246028384846159	0.00656687303005384	0.00157390851555822
8	-0.00631909673468053	-0.00264284590716835	0.981792841133941	0.0939874436093248	0.981770195278214	0.0942499960906306	0.00394143353230165	-0.00113903869440647
8.1	-0.00559536081259175	-0.000956739813425491	0.98431848679021	-0.0587684362670114	0.984347533524708	-0.0585131158823159	0.00140420769056332	-0.000299750131348985
8.2	-0.00424534158729232	-0.000123071951399204	0.963370424618769	-0.210780063481375	0.963418858368585	-0.210463212161182	0.000170722082137908	0.000506889149392047
8.3	-0.00305190119532172	0.000488884861690233	0.918865011925629	-0.3578183284773	0.918916470473298	-0.357531366230562	-0.0006301816087387	0.00150449735101406
8.4	-0.00144010620512321	0.000799921027127885	0.851732275191419	-0.496044534060821	0.85183010694407	-0.495842788626688	-0.000599800084746045	0.00226964108691108
8.5	-0.000367132009643918	0.00017599503767744	0.764543544927745	-0.621205858316937	0.764594831167491	-0.621055306250029	-0.00134802289368007	0.00174290240700339
8.6	0.000637882440206521	0.000357111285872806	0.6592209153159	-0.732721169799251	0.659389239309477	-0.732484096598884	-0.00254209849572627	0.00372004772836175
8.7	0.00199047132377559	-8.2852949966082E-05	0.537139066425275	-0.826164512649365	0.537398139662005	-0.825949137011408	-0.00166389940778642	0.00568629076001894
8.8	0.00321847806609205	-0.000849010996957154	0.402334394135001	-0.899192648185048	0.402519562123177	-0.899053652579332	-2.91483306525593E-05	0.00686983074355988
8.9	0.00438601888137171	-0.0017653153428028	0.258196555471026	-0.950332711753972	0.258375423933247	-0.950162733996519	0.00255603446788301	0.0073346803365627
9	0.00567880388883244	-0.00335103349432576	0.107989157186774	-0.979351744935945	0.108297359453807	-0.979304945491819	0.00511897540051933	0.00628570891620878
9.1	0.0068276503842589	-0.00501255965042308	-0.0459530363530407	-0.984154035211542	-0.0456439325437222	-0.984113047229563	0.00755362657879981	0.00484270104505251
9.2	0.00765237853925028	-0.00723313135214093	-0.19813358770107	-0.964579284702384	-0.197786187561248	-0.964557004309341	0.00951330731889855	0.00213686801228111
9.3	0.00770949027725051	-0.00911511089306094	-0.345103780752672	-0.922001995766913	-0.344752095380898	-0.921976383012124	0.0102666202089232	-0.000780184246066075
9.4	0.00771680366648726	-0.010839405734863	-0.483746100953055	-0.857651015793612	-0.483422974315318	-0.857741647437279	0.0101055184138619	-0.00384601081347261
9.5	0.00669947499091102	-0.0117611516687321	-0.611690180712368	-0.771877314436932	-0.611453225791062	-0.771927634593617	0.00774946976357521	-0.0055451310173105
9.6	0.00704817375010537	-0.0124585299212379	-0.723442090551956	-0.666846190997093	-0.723130737101036	-0.666984854283317	0.00764641906253155	-0.00575022963997414
9.7	0.00652796988363206	-0.013577563952626	-0.817719109986259	-0.546686504260604	-0.817431776476741	-0.54691921583659	0.00689295211750369	-0.00785663221177034
9.8	0.00569759529858963	-0.0142406461464464	-0.892600160324203	-0.413345039866311	-0.892346965828333	-0.413513805162287	0.00495952817899846	-0.00976016914647182
9.9	0.00502175280831618	-0.0144582660731958	-0.946102322175251	-0.269570137275422	-0.945850075822994	-0.269778840013072	0.00244769849513026	-0.0116410835050838
10	0.00349499179989661	-0.0148270798657056	-0.975431258487761	-0.119018478973807	-0.975277922158525	-0.119380380225489	-0.00285156124167145	-0.0126858414336858
10.1	0.00290433025996975	-0.0137807149860312	-0.981791541263401	0.032835131518762	-0.981727880172366	0.0324042928086165	-0.00673116535083975	-0.00963444383250419
10.2	0.00265870110860213	-0.0137282401168637	-0.965095505555876	0.184694241948512	-0.964973506924772	0.184263635162608	-0.00875559443583514	-0.0071185652426766
10.3	0.00204582534602181	-0.0135179953149266	-0.924620841000025	0.332336971507528	-0.924637983011637	0.331796103953419	-0.0103644801928047	-0.00480865305062977
10.4	0.00165192966860491	-0.0135945955983478	-0.861258563628159	0.471537811312988	-0.861394924793434	0.471027323009138	-0.011318777568742	-0.00299534734604005
10.5	0.00067274152025083	-0.0139200239418867	-0.777899399986304	0.598217689925015	-0.778071562436724	0.597786437280609	-0.0129743734812577	-0.00206907972400421
10.6	-0.000101051514594098	-0.0136042615924635	-0.676371201018137	0.711990455821578	-0.676642922876662	0.711660676870264	-0.0147368014664102	0.00121176447853588
10.7	-0.000617217725294172	-0.0130303494584658	-0.557557022647971	0.808429152850852	-0.557856991616524	0.808120027930885	-0.0147381913099277	0.00511391441210869
10.8	-0.000603788420026673	-0.0128364508948938	-0.425269771042253	0.884851540777802	-0.425619791802926	0.884553638057604	-0.0130652189249454	0.00879033581492399
10.9	-0.000631760450384314	-0.012904012053357	-0.283289695053559	0.939660722007991	-0.283679031173013	0.939537665166063	-0.0105690942389958	0.0114720743554823
11	-0.000863254872592571	-0.0134352693894115	-0.13467464862853	0.973115182418802	-0.135111078152412	0.97302404758665	-0.00770650713540186	0.0133927461141721
11.1	-0.00111234391309602	-0.0139259448086008	0.0187934788584757	0.982091826402739	0.0183052532765492	0.98210502423235	-0.00393021666838997	0.0145719573898211
11.2	-0.00171122340814005	-0.0147403376664689	0.170786523973831	0.966890894420924	0.170330051444173	0.966963607323635	7.73919701488856E-06	0.0144240331736012
11.3	-0.00255268425789537	-0.0152763148153097	0.318314384645271	0.928732469423832	0.317855942860613	0.928868491814817	0.0039121788241703	0.0132882150380094
11.4	-0.003643552013674	-0.0159768772653965	0.45846449246945	0.868691528458397	0.45806098017292	0.868804119630267	0.00715370816644025	0.0110140823332301
11.5	-0.00559348609607384	-0.0158350916152888	0.588639436658329	0.786624483564996	0.58832107214047	0.786926497096134	0.00826987515206633	0.00905723614100079
11.6	-0.00653549202254296	-0.0153368711047907	0.702697624345128	0.685124571577842	0.702482657450892	0.685451671789505	0.0108244585352012	0.00792507276495364
11.7	-0.00786887675160356	-0.0148533356538464	0.800133412835267	0.568180166519825	0.799930408785202	0.568485974819161	0.0130476417196742	0.00503759854813753
11.8	-0.00934466646309285	-0.0139389017688612	0.8787915435102	0.437287167226734	0.8786097045554	0.437737072420585	0.0141877024022009	0.00145936768739597
11.9	-0.0102858032143224	-0.012481578709307	0.936371329823306	0.295376978003667	0.936265505196049	0.295826236673172	0.0140961530460402	-0.00286518267220169
12	-0.0121545643667681	-0.0113212881657358	0.969808629295186	0.146130781032822	0.969779945991466	0.146494348909967	0.0105059564550883	-0.00713829743708946
12.1	-0.0123921675147813	-0.00858670232976569	0.980627046493653	-0.0051029009899847	0.980555904602035	-0.00471920672827286	0.00762080554320942	-0.00752922851799862
12.2	-0.0123656219490149	-0.00716018471238358	0.968293566867976	-0.157167780336978	0.96831072809607	-0.156870308852602	0.00543546500064539	-0.00833915464906038
12.3	-0.0124408400575016	-0.0056052304245459	0.931999418326297	-0.305595151209394	0.932118451479722	-0.30528895258367	0.00316286065337212	-0.00880289049701251
12.4	-0.0122744274317737	-0.00419076187094495	0.872956277648148	-0.446375020647557	0.873018991229308	-0.446006162324554	0.00135748781030157	-0.00908796847030821
12.5	-0.0122304572807265	-0.00330577935429806	0.793454582746246	-0.575135803035324	0.793793342464779	-0.574745632517808	-0.00168625013524889	-0.0101424644927851
