# GHZ S RI R 50
0.2	-0.966043614102328	0.251491140703101	8.82276142805673E-06	5.32106654966212E-06	1.13678662577232E-06	-2.88961672671402E-06	0.999607519588585	-0.00690832924587736
0.3	-0.926616589643734	0.371310441187045	-7.66220544821809E-06	-8.19591244675794E-07	-1.47818372701961E-08	3.65948622515138E-06	0.999517289990707	-0.00983081769235358
0.4	-0.871939599880878	0.485066276279231	-2.19892800050734E-06	6.33923971712118E-06	2.91912115052126E-06	5.73665757862967E-06	0.999494955733914	-0.0124895462920565
0.5	-0.803604724851553	0.591161373671896	-2.64898892638424E-06	5.48866288674888E-07	1.05200986862623E-05	4.88510855271566E-06	0.999288517661685	-0.0156706058862789
0.6	-0.722350713464819	0.68749206661871	-1.72516992787513E-06	-1.838096666341E-08	4.16364455330884E-06	-1.03352199313981E-05	0.999325158876199	-0.0185324618021635
0.7	-0.629884509876757	0.772928621780041	-2.04693817833517E-06	9.88122875659909E-07	3.7824329333901E-06	1.11597409385913E-05	0.998997332626531	-0.0215131484747874
0.8	-0.52732723868687	0.846125730263906	-5.60523178630261E-06	3.78134730480772E-06	-3.16751552279934E-06	-2.13906711673731E-06	0.998758039517779	-0.0237064997922147
0.9	-0.416616571065665	0.905617101604351	-6.68977037956426E-07	5.24958921398766E-06	3.26602390268747E-06	-2.94476524951534E-07	0.99866342632649	-0.0261109812000689
1	-0.29886908507845	0.95074669877335	1.56834464661444E-05	-3.68525012049653E-06	-9.59707254929398E-06	5.26287591073675E-07	0.998364870578274	-0.0277578527441897
1.1	-0.177415777923958	0.980478004480113	1.34252596865681E-06	-2.98152784600988E-06	9.39287942631133E-06	1.25972793844434E-05	0.998081823400391	-0.0297363453280371
1.2	-0.0523011330295056	0.994790432407602	-7.9066916653029E-06	-3.26078145112461E-06	-3.09615443606846E-06	-4.4789204840082E-06	0.997453191759409	-0.0307255602919027
1.3	0.0736759698546669	0.993155615895726	1.77384596011842E-07	3.33378359747911E-06	1.92874544974974E-06	3.41703808040078E-07	0.997608440201067	-0.0316072953029194
1.4	0.198080383116833	0.975544447615371	2.11005365578536E-08	3.76673208128391E-06	-2.52507189437166E-06	-5.6147359587501E-06	0.997422683502689	-0.0336386934081978
1.5	0.319293091754356	0.942790021510685	3.18619649691593E-06	-2.65371888787812E-07	2.70072426811704E-06	2.09502412008594E-06	0.997979167004849	-0.0370841765032947
1.6	0.435242498487993	0.895218514355823	1.78792829106582E-06	-1.93830924481367E-06	-8.92456587610691E-07	-3.06312077554244E-06	0.997533975671437	-0.0405394587074546
1.7	0.54409882461218	0.833152450152221	-8.45329195940396E-08	-3.52429376949326E-06	2.00356353485179E-06	4.92623294429278E-06	0.997907645541079	-0.0431236852591798
1.8	0.644081662838001	0.758350805039788	-2.0566997762314E-06	-1.81431765406293E-06	-4.64375085304854E-06	1.83142890509667E-05	0.997742129435511	-0.0458801756518096
1.9	0.733759258525899	0.671796946747533	-4.38892130204133E-06	-1.46825070171297E-06	-4.92314750428867E-06	-6.00408532654737E-06	0.997568963847948	-0.0480980047562635
2	0.812077893362409	0.574661215632325	-9.45028582405664E-08	-6.74101292883911E-07	-1.66752957514009E-06	-1.41832686746903E-06	0.997184827492198	-0.0508459972731631
2.1	0.877902533984252	0.467285337799287	-1.14247685133489E-06	9.44567811358861E-06	1.99407338709197E-06	-3.79817770068868E-07	0.996887517467486	-0.0531833168861953
2.2	0.929257333600443	0.353346363092303	-2.18841812478325E-08	-5.92732554856373E-06	-7.36951642883818E-07	2.73622011525116E-06	0.996849523786621	-0.0555594220303596
2.3	0.965889312534284	0.233830310376832	-1.31524144489584E-06	2.76435440659333E-06	-2.72502324400923E-07	1.19676648894968E-05	0.996555166442818	-0.0574087935332198
2.4	0.987294884444812	0.109866038075326	-5.8690985142319E-06	-3.70740255330564E-06	-1.7587981743214E-05	1.45146894967344E-05	0.996484825980218	-0.0605036226482199
2.5	0.993347762844404	-0.0149120929701334	1.81948892218624E-06	-2.96116632997298E-06	-1.79327453425985E-06	7.54466137723737E-06	0.996126534941876	-0.0627355650714504
2.6	0.983551052391221	-0.138528234626284	2.86153984099341E-06	9.20124106892815E-07	-1.75284991046729E-06	4.50145459296597E-06	0.996063045123615	-0.0656140687757218
2.7	0.958271744492841	-0.260496031212518	3.82071471097011E-06	1.04462364833837E-05	2.32192459853678E-06	3.86885757091119E-06	0.99569801899458	-0.0685939741277869
2.8	0.91795878334755	-0.378558980642616	-8.13256841699796E-07	-2.29302301459863E-06	2.19658996081938E-07	-1.8879921052907E-06	0.995843701331783	-0.070626767799684
2.9	0.863460812625601	-0.490236575990184	3.76739932272621E-06	-8.31683797820489E-06	-1.27313475459123E-06	-1.42250974854667E-05	0.99553206736656	-0.072687370931254
3	0.795340790366974	-0.594743600452777	-1.29200549582781E-08	6.64906285952963E-06	-1.47701373130309E-05	5.30195164007236E-06	0.995407313038312	-0.0751781348216452
3.1	0.715556849729098	-0.688852499637926	-4.98392144478936E-06	7.82281803682963E-06	5.80818345105181E-06	-8.51905593447095E-08	0.995097769757248	-0.0772185871723954
3.2	0.622890451714952	-0.773391044965126	9.60011015907011E-07	2.12562353436313E-06	-4.56062989446594E-06	4.77809856858083E-07	0.99481411579115	-0.0789940415106974
3.3	0.520642617526411	-0.845527924929786	7.19565019702527E-07	-1.45941779081322E-06	-4.58119639539623E-06	7.30805553463265E-07	0.99456370263504	-0.0822562301156922
3.4	0.409716426212555	-0.903969772140905	6.46952845839375E-06	2.36588917914813E-07	-8.13378187243162E-06	-7.18249546151942E-06	0.994536472003887	-0.0842648991631676
3.5	0.292654408448323	-0.948085354454622	-7.69814089401425E-06	1.95993728909971E-06	-5.90015386538169E-06	-7.98244338449474E-06	0.994390570952936	-0.0870854965669599
3.6	0.170111973016899	-0.977413807480271	-8.56201491993352E-07	-4.38136810001039E-06	-7.81504122957953E-06	-6.33273853028436E-06	0.994066253878371	-0.0896338708815009
3.7	0.0452831917909319	-0.991324425657387	-6.71487578739183E-06	-6.77013970157134E-06	5.28233167811179E-07	-4.7638027830689E-06	0.993855392493519	-0.0923205366773068
3.8	-0.0804984972580157	-0.988933780184547	-3.64351431022045E-06	1.08291106225561E-06	-3.29646636536722E-06	-2.46547761432385E-06	0.993416588411945	-0.0943267665790783
3.9	-0.204144447184379	-0.970739798493761	-4.79591714496859E-07	3.50764741551268E-06	2.05338920756025E-06	-1.21922471245555E-06	0.993427430231382	-0.0974233370095775
4	-0.324756162676926	-0.937530167177447	1.16800010574894E-05	8.11729878366592E-06	7.26542808378139E-06	-4.04144584157402E-06	0.993105224078073	-0.0988427201186814
4.1	-0.439973061974722	-0.889402153322894	5.21769588679375E-06	1.32281413685044E-06	-3.45707393864825E-06	6.65218368702735E-06	0.99289705615107	-0.100672926386301
4.2	-0.54806248398748	-0.827549094810665	-7.09813991823461E-06	-1.2009099497096E-06	-8.26604403057677E-06	-4.0780382501242E-08	0.992390324621995	-0.103304307006558
4.3	-0.647699365683996	-0.752153190382408	7.0224671155148E-07	-2.36816393192929E-06	5.21327334895434E-06	8.80199065567995E-07	0.992295095043721	-0.105311576420161
4.4	-0.737119957365189	-0.66447566734903	4.47338668450071E-06	-1.77464621956056E-06	-8.68351475004042E-07	1.34690637398474E-06	0.991857977500973	-0.107700625617211
4.5	-0.814907751017107	-0.566057853438709	6.78573404966101E-06	1.8668690718865E-06	-8.04988163025947E-07	-3.25747273034342E-06	0.991814908684869	-0.109783870483314
4.6	-0.879863142626749	-0.458629397067783	2.45653837863274E-06	2.95138156024775E-06	-6.58729980727428E-06	9.74896805693249E-06	0.991569697391173	-0.112608291140516
4.7	-0.930631687180488	-0.343103218274001	-1.40515879789351E-05	5.92010785175261E-06	-3.46256183445599E-06	-3.38691983997502E-08	0.991489734942284	-0.114756132430475
4.8	-0.966316147512753	-0.222627906255806	-3.16257344120167E-06	-5.1427494254568E-06	-5.52395585444041E-06	2.36638765379953E-06	0.991068179537419	-0.117300785630028
4.9	-0.986044575058288	-0.0990750303893493	-1.0224392538229E-06	-8.55238911880212E-06	-4.22131577119292E-06	7.40609339653693E-07	0.990659285083634	-0.119118916077465
5	-0.990343996253775	0.025143235700963	7.55089265042759E-06	-1.57132649739373E-06	-1.7526944070296E-06	-2.72173692463019E-06	0.990490561559901	-0.120707631238707
5.1	-0.979217753387458	0.150232070756155	-2.60157984305733E-06	-6.39391546737916E-06	-1.00887479733295E-06	-1.95305936140474E-06	0.990518235237878	-0.12209410575094
5.2	-0.952810498905896	0.272203803517818	3.99735038860114E-06	-4.36556413882853E-07	-5.4386682239929E-06	6.30775837281297E-06	0.99032747890275	-0.124353074715661
5.3	-0.911413813444484	0.389956026152248	5.13960251506697E-06	6.00687675522815E-06	-9.60637936772786E-07	-3.58607091450079E-06	0.990090087575992	-0.126689925409758
5.4	-0.855459008212189	0.501553754729153	3.06228815016425E-06	-2.01670885814413E-06	-1.13143301365473E-05	2.20093723601912E-06	0.990051408626252	-0.129497436484899
5.5	-0.785496566119907	0.604904435818608	-4.32402003628301E-07	-2.19449008129398E-06	-5.78740249067674E-06	6.12620982300296E-06	0.989859228792086	-0.13238026543149
5.6	-0.702962763544988	0.698503331172378	2.38102617452443E-06	7.30416296209456E-06	-5.3760437126464E-07	2.92949123292178E-06	0.989590146066703	-0.134994249435327
5.7	-0.609616120595118	0.781370591945753	-2.57146175769487E-06	2.36145886295708E-06	7.91225934173654E-06	2.77812490469356E-06	0.989293542744404	-0.137461754918995
5.8	-0.506380632048402	0.851286055434725	-4.64809790539386E-06	5.1049403689515E-06	-3.65994442558966E-07	3.42260868545483E-06	0.9891111237837	-0.139683717438054
5.9	-0.395574946710717	0.907975332725127	6.35796166717891E-06	1.49847889137308E-06	-2.7112952170809E-06	2.54725501547464E-06	0.988805070043165	-0.14198570365469
6	-0.278778843187553	0.950105035462015	3.52367084771056E-06	3.29902975779116E-06	-3.2836391473464E-07	-1.43394132770306E-06	0.988375481554863	-0.143687936262588
6.1	-0.157742287344258	0.977186845760636	9.17498316910708E-06	1.52152985557378E-06	-1.28024997569422E-07	-1.80822432105946E-06	0.988295243745866	-0.145029591987089
6.2	-0.0338710315081704	0.989033637479975	2.43838151122267E-06	-1.72999095927166E-06	1.47870845583378E-06	-4.84402187751557E-06	0.987947849688977	-0.146459617763015
6.3	0.0905845680362215	0.985392646650066	-4.35755854551212E-06	4.24399616472469E-06	-6.15232086549071E-07	-1.72434455115428E-06	0.987517020371188	-0.148442188012206
6.4	0.213516234582099	0.966194915322535	-4.26286797271064E-06	1.07001710238393E-06	-1.75958212767363E-06	8.83986434491109E-06	0.987051976754923	-0.150553355823078
6.5	0.333177088647503	0.931987219770322	2.45080826412263E-06	-1.33041524557025E-06	1.48663198137877E-06	-2.92838988906933E-06	0.986803946309221	-0.153218350795654
6.6	0.447452989420202	0.882796677207319	-4.73137638319507E-06	-2.25474552603378E-06	-1.86217921291974E-06	-6.63598956878454E-06	0.986585251732474	-0.1558549538026
6.7	0.554402630499449	0.819625258618568	4.16014323824654E-06	-6.58979571136038E-07	-4.67312857423666E-06	1.00874543041919E-06	0.986336270544217	-0.158254242776005
6.8	0.652523197820073	0.743686576159309	3.75491665556065E-06	-2.07710619449548E-06	6.20985621290961E-06	-9.20604967086534E-07	0.985898462307136	-0.160584379778862
6.9	0.740232431649175	0.65618007222783	2.04609736613771E-06	1.64014606409383E-06	8.77661703572152E-06	-2.75233004905292E-06	0.985531502718742	-0.162716099199806
7	0.816202388432576	0.558352918773911	2.17071966062983E-06	4.09376379923122E-06	-9.38769088253364E-08	5.37884291125696E-06	0.984936700004158	-0.164540303993612
7.1	0.879247972558796	0.452257919867998	-1.33542176309699E-07	1.71553118040945E-06	8.25285007278678E-06	-4.63682140722533E-06	0.984389013636506	-0.166200859255101
7.2	0.928576940194053	0.338840369805757	4.84353886742911E-06	-1.38896052921428E-06	7.24686320955934E-06	3.78228970956039E-06	0.983780940389933	-0.167902650103626
7.3	0.963038170604049	0.220106751961716	4.85703783630781E-06	-1.10286274989603E-06	-7.32661963071448E-06	-7.37981664185919E-06	0.982809133817499	-0.169625797447065
7.4	0.982624412925671	0.0976223400657	-1.84994631186368E-06	9.88304138114864E-06	1.43670469102534E-06	-4.06305422402944E-06	0.981884661258043	-0.17186235305741
7.5	0.986812677203023	-0.0264903130568857	8.38392181423642E-07	8.06765613040321E-07	1.67029720548939E-06	9.94493276968993E-07	0.981050393684205	-0.174220270496488
7.6	0.975472015682425	-0.150555844475597	1.45606345113323E-06	-2.61158681699577E-06	-5.41271303579785E-06	-3.62857041653797E-06	0.980510581426368	-0.177215393322943
7.7	0.948652493889512	-0.2723655215984	5.56678283369262E-06	2.41042375742327E-06	-6.82872302692166E-06	1.20348969281768E-05	0.98005201120709	-0.180407675220203
7.8	0.906990905924146	-0.389756090816814	-6.1022864291817E-07	-5.23925684771609E-06	3.73398237207912E-06	-4.73180031932022E-06	0.979876778526513	-0.183556218588659
7.9	0.850722651426786	-0.500908979521635	8.84528314452972E-06	1.5308046816087E-06	-9.5261449865251E-06	-8.63487286592002E-06	0.979687067781146	-0.186774828516032
8	0.781112714678624	-0.60389962882775	-6.65116537229302E-06	-1.62992669045865E-06	-1.19992103907627E-05	2.49203116805852E-06	0.979296961125885	-0.189783593856063
8.1	0.699194119119019	-0.697260068175383	5.07113154752531E-06	7.31378841697809E-07	2.88881499115004E-06	2.2604775572308E-06	0.978779516610077	-0.192456624017544
8.2	0.606292554359096	-0.779466826425796	3.56196130727278E-06	-2.57185750972263E-06	-3.67438369931514E-06	-1.16059870820057E-05	0.978467493236973	-0.194870223477712
8.3	0.503580063852223	-0.849337540246095	2.72592961092991E-06	-1.85521613233002E-06	1.63503655672654E-06	5.2880345441688E-06	0.977882781867855	-0.197563364338505
8.4	0.392838595323219	-0.905602196361235	-5.54754535220819E-06	-1.02037794133349E-06	1.05357120339097E-06	2.94900116578557E-06	0.977126462520289	-0.200219525108474
8.5	0.275473687776309	-0.94750614977447	-3.28631613902408E-06	1.62185844268404E-06	-4.78570898047642E-06	-5.00042045393426E-06	0.976448051919242	-0.202914965784039
8.6	0.153533382100549	-0.974189925282069	-8.13318270222531E-06	1.38188706727934E-06	-4.33497416530805E-06	-6.85721351939961E-06	0.976006695432286	-0.205556902019223
8.7	0.0292148339615337	-0.985424785680242	2.24479591521202E-07	-2.14414627791179E-07	6.11293471061283E-06	5.10585326705293E-07	0.975560721010823	-0.208114747170867
8.8	-0.095536722852825	-0.980840016412656	1.024371942341E-06	-1.81647401466364E-06	-2.38835130459932E-06	-1.28022957813936E-06	0.975168109223965	-0.210378241144514
8.9	-0.218187085432292	-0.961201364442154	-3.02998964525993E-07	3.03276935330526E-06	-1.23207245170798E-06	-1.64128578679102E-06	0.975125202150857	-0.21247968078964
9	-0.336928567395765	-0.926102913999774	2.97454171894145E-06	1.58989699273621E-06	-1.57664684013493E-06	2.11223132909923E-06	0.974974532652071	-0.214831922253328
9.1	-0.450226837414117	-0.876732600709778	-9.31197429568362E-06	2.25404846697134E-06	-1.56641110612537E-06	2.40711595869637E-06	0.974706602872957	-0.217034756752476
9.2	-0.556778046888279	-0.813563616582154	7.50439860742836E-06	-2.23569462001788E-07	-9.10841698490942E-06	1.95613560737588E-06	0.974237972826651	-0.219656364396326
9.3	-0.654431394190442	-0.737744422623388	8.68843984776229E-08	-7.16366165051901E-06	1.58852554975843E-06	-1.29808116749534E-06	0.973814018921935	-0.222195654111926
9.4	-0.74198201558111	-0.650341037819316	5.96403906666197E-07	2.48459561066399E-06	1.62180838447553E-06	-3.59622786542001E-06	0.97314171750567	-0.225132712240096
9.5	-0.817883912363852	-0.552086517933422	-2.87808799668466E-06	6.64424190433893E-06	4.72658129704905E-06	-1.36486714818863E-06	0.972347331826409	-0.227951360020129
9.6	-0.880686886791019	-0.444493332957743	-5.02177742212273E-06	-5.20856251559553E-06	4.7598737518882E-06	2.88539221652237E-06	0.971652899595318	-0.23097640450894
9.7	-0.929576066140701	-0.329577677084652	-1.99893984686552E-06	-5.0760636633022E-06	2.09733675329636E-06	1.17030917860541E-08	0.970996149600028	-0.233565053739695
9.8	-0.963872577323766	-0.208910738026689	5.95508127449823E-07	-4.28598944753843E-06	-2.94048037331104E-06	-2.51995011056862E-06	0.970625614175256	-0.235650415840671
9.9	-0.982347270494185	-0.0847176663857326	-6.1173632202605E-06	4.20729189974693E-06	-3.08571145068211E-06	1.66398029101073E-06	0.970168698083546	-0.237529177598601
10	-0.985320524888274	0.0400928642943204	3.57337520640537E-06	-4.01414938576818E-08	8.22724895443857E-06	1.11109299268327E-05	0.969779895325238	-0.23916533057
10.1	-0.972316071595837	0.164482196053645	-2.85869628143123E-06	-2.52509380442111E-06	-2.00958672420225E-06	-2.49991217297467E-06	0.969218032214733	-0.240802154151878
10.2	-0.943697684218291	0.286384126291164	2.35836397672906E-06	-1.02116005511928E-06	-2.76966138722736E-06	-1.06799188905523E-06	0.968850588356324	-0.242232242779503
10.3	-0.899822640757928	0.40363028370065	7.76575715604143E-06	-5.95262106300124E-06	3.86109107435405E-06	8.23685267262676E-06	0.968263151764365	-0.244070539139677
10.4	-0.841998178510509	0.514136584083834	1.70655373035358E-06	2.50949496801658E-07	6.27946126204699E-06	-1.18719771546777E-06	0.967406973527356	-0.246164238398381
10.5	-0.770873878755184	0.616564879267063	8.35270467168274E-06	-4.14071138643904E-06	-4.9486107892916E-07	1.97286049481998E-06	0.966648875061	-0.24861387353287
10.6	-0.687577257280429	0.70856877594022	8.93863081938928E-06	-1.26660153925336E-06	-1.48189616047626E-06	1.36441561707386E-05	0.96595241580696	-0.251170241394864
10.7	-0.59315024702368	0.789164612442286	8.01886445429017E-06	-1.90044749001298E-06	-3.05231205020288E-06	-5.28342865217955E-06	0.965195787267444	-0.253879257824812
10.8	-0.488666912872675	0.857516907912025	2.44973545887666E-06	5.24925089466267E-06	-3.62835317089302E-06	-2.06232113650373E-07	0.964526970752956	-0.25597935627828
10.9	-0.376010346135057	0.912198587982867	-5.55941660378175E-06	4.8414330513871E-07	1.59637559469646E-06	4.02925428614389E-06	0.964077618980526	-0.257945402114797
11	-0.257852649878231	0.952015739215995	4.8999020608201E-09	-5.2230143552351E-06	-8.38271221202996E-06	2.22939762716508E-06	0.9635272048784	-0.259651880349305
11.1	-0.135647503450956	0.977096673517965	6.31177609892549E-06	4.0909401889375E-06	-1.90500572524385E-06	1.07631609680323E-05	0.962954792184432	-0.261311687259705
11.2	-0.0116205468042725	0.986370936156493	1.5789529903898E-06	1.35531232291194E-06	5.13840702075085E-06	8.90430252685899E-06	0.96209922401014	-0.263112264094173
11.3	0.112504223127012	0.979626826609944	-4.62105844233783E-07	-1.73748094564373E-06	-6.98209871543796E-07	-4.39571688530035E-06	0.961484833920665	-0.264886738159071
11.4	0.234658975918553	0.957877757109768	2.21367442714165E-07	1.18593501421341E-05	2.42148753401005E-06	4.92933734594806E-06	0.960597100240041	-0.267447636308772
11.5	0.353520318804165	0.921139675724013	6.19433384936138E-06	-3.23517432664385E-07	3.17033372448964E-07	-1.88182148328434E-06	0.959592420630983	-0.27020512173552
11.6	0.465684783537755	0.869804014164955	-6.00258677728936E-06	3.07125453803895E-06	-4.8680005376549E-06	1.91472134401536E-06	0.958369082620817	-0.273647768896319
11.7	0.570446960410704	0.805504928325525	3.3255579554911E-06	-1.79411444766213E-06	-1.70634805048764E-06	2.23544271167853E-06	0.957188004972924	-0.277163587693107
11.8	0.666567079817723	0.728200315148492	-8.24873872459397E-07	9.78850230030115E-06	-2.71971180354732E-06	1.05316900542805E-05	0.956118629092051	-0.280630896465474
11.9	0.751900918524955	0.63890988239193	-7.2924459986614E-06	-1.04053708874259E-06	-3.91515531926352E-06	1.12424535534254E-05	0.955642678828897	-0.283103006797252
12	0.825410045664519	0.539573447084734	-6.45137500562846E-07	1.38170616262509E-06	-3.13581309896068E-06	-1.9264056619625E-06	0.954934081173015	-0.285643868931199
12.1	0.886433638583019	0.431853604886002	-3.87931041489775E-06	4.98765740814252E-06	-1.33975467400239E-06	8.41560784073657E-06	0.954034918871695	-0.287777385861503
12.2	0.933082503922046	0.317117585687118	-5.76705881239408E-07	-3.79874053710999E-06	-3.11442288653953E-06	-7.31200951316123E-07	0.953283278326629	-0.29030593538796
12.3	0.964954086818853	0.198280247863251	3.5972866161337E-06	3.43281133602651E-06	-3.43583299918561E-06	6.26743887283526E-06	0.952310546417713	-0.29298237561657
