# GHZ S RI R 50
0.2	-0.96606472141199	0.25145331517923	8.82264349859735E-06	5.32135773964518E-06	1.13687909046799E-06	-2.88959634975845E-06	0.999603655529688	-0.00688822500383137
0.3	-0.926657594251068	0.371265734996466	-7.66225505946252E-06	-8.19943665256029E-07	-1.49459107992851E-08	3.65952678990422E-06	0.999515124486311	-0.00979359914627709
0.4	-0.872002459739815	0.485024263062315	-2.19933736968936E-06	6.33926651010817E-06	2.91886736723134E-06	5.73695836416514E-06	0.999504702158708	-0.012438054943901
0.5	-0.803676172246556	0.591129006973085	-2.64909174029664E-06	5.48734515777572E-07	1.05201155497757E-05	4.88582496825229E-06	0.999300098884877	-0.0156197975395945
0.6	-0.72244218318487	0.68745820944209	-1.72522183307253E-06	-1.85138067994043E-08	4.16456564738402E-06	-1.03352200955103E-05	0.999341208444201	-0.0184563241289992
0.7	-0.629996124266801	0.77291183655866	-2.0471217846925E-06	9.87993919908921E-07	3.78165271874924E-06	1.11606036016403E-05	0.999032746839336	-0.0214279799268002
0.8	-0.527451932428981	0.846129899148684	-5.60592209797589E-06	3.78106771606152E-06	-3.16751490150844E-06	-2.13948812972511E-06	0.998806941521492	-0.0236167588634292
0.9	-0.416750765951433	0.905645532912574	-6.69543332663085E-07	5.24991451164912E-06	3.26629620267068E-06	-2.94177153510138E-07	0.998726567947583	-0.0260132010237081
1	-0.299008308198296	0.950804948019734	1.56853497034346E-05	-3.68397996397663E-06	-9.59805778279771E-06	5.2534271164015E-07	0.998453150467732	-0.027660426108567
1.1	-0.177551782168718	0.98057014673699	1.34297690252753E-06	-2.98173038175204E-06	9.39267806154337E-06	1.25996463937747E-05	0.998180244949615	-0.0296410737542996
1.2	-0.0524216122594111	0.994918434003955	-7.90741993728071E-06	-3.26201004134703E-06	-3.09611834084987E-06	-4.47982901519516E-06	0.997575927272762	-0.0306294874194193
1.3	0.0735826038954727	0.993308366716531	1.77104293241605E-07	3.33429753760769E-06	1.92900189964212E-06	3.41932298651642E-07	0.997747405662522	-0.0315226867588091
1.4	0.198008675131551	0.97571065872664	2.07647615619516E-08	3.76730246482189E-06	-2.52494772746391E-06	-5.61581057432927E-06	0.99756264429146	-0.0335528111860972
1.5	0.319244888338061	0.942973332756673	3.18672899167174E-06	-2.65111335376667E-07	2.70095514820354E-06	2.09561433521125E-06	0.998132305665615	-0.0369926079734053
1.6	0.435222060331507	0.895418070504831	1.78842172655104E-06	-1.93846651846303E-06	-8.9231149704004E-07	-3.06373034260127E-06	0.997700288424324	-0.0404453475038654
1.7	0.544117924936742	0.83336422394548	-8.42228818861783E-08	-3.52497015486316E-06	2.00348783052769E-06	4.92735283181851E-06	0.998093933528828	-0.0430365364771434
1.8	0.644143576167286	0.758564605816909	-2.05697109894259E-06	-1.81486170775116E-06	-4.64623065810065E-06	1.83176642576555E-05	0.997943450527037	-0.045802770421161
1.9	0.733864584689353	0.672009637663277	-4.38977808684115E-06	-1.46892811416729E-06	-4.92375967041428E-06	-6.00581249288569E-06	0.997790226421861	-0.0480245589097901
2	0.812246061217569	0.574857641886624	-9.44841703488399E-08	-6.74280581424256E-07	-1.66786775172328E-06	-1.4187977329351E-06	0.99744027274033	-0.0507989332113135
2.1	0.878105051794309	0.467441238251953	-1.14314917013991E-06	9.44809811374374E-06	1.99460887022848E-06	-3.79837915061078E-07	0.997141673462338	-0.0531588776166668
2.2	0.929495560375361	0.353470890016658	-2.17034694720635E-08	-5.92896562432061E-06	-7.37241685534156E-07	2.73695368135131E-06	0.997119438669693	-0.0555461726640487
2.3	0.966161486624937	0.233911285776748	-1.31567475393518E-06	2.7651534754189E-06	-2.72770658912444E-07	1.19712092378073E-05	0.996841210130546	-0.0574140017867345
2.4	0.987592670449425	0.10989544003681	-5.87095586241945E-06	-3.70853373131058E-06	-1.75934163689892E-05	1.45193259906582E-05	0.996785522377907	-0.0605282657319426
2.5	0.993664175648205	-0.0149426294242612	1.82001621430449E-06	-2.96216466935909E-06	-1.79369654088188E-06	7.54714498965018E-06	0.996444019123197	-0.0627822753209305
2.6	0.98387429277651	-0.13862503825878	2.86257495157264E-06	9.20324679366208E-07	-1.75327179262114E-06	4.50309570720092E-06	0.996395338262171	-0.0656869681117977
2.7	0.958585311528085	-0.260668393176143	3.82290477591177E-06	1.04497400464513E-05	2.3230653174457E-06	3.87008557128744E-06	0.996041856739675	-0.0687008802378785
2.8	0.918240255961113	-0.378803244389407	-8.1381457621259E-07	-2.29377851473137E-06	2.19528175501118E-07	-1.88871398222292E-06	0.996190715457268	-0.0707678910745921
2.9	0.863696828858974	-0.490543942201778	3.76758606698378E-06	-8.32048106262616E-06	-1.27568523385132E-06	-1.42302018662275E-05	0.995879885710712	-0.0728593976069736
3	0.795519852506592	-0.595107498072605	-1.17236352246456E-08	6.65154787554733E-06	-1.47746944385959E-05	5.30659975326776E-06	0.99575708396221	-0.0753845918148977
3.1	0.715665982291259	-0.689259920326431	-4.98412521144329E-06	7.82681344659727E-06	5.81034388316244E-06	-8.64591918211216E-08	0.995444965516469	-0.0774631861979408
3.2	0.622917820844207	-0.773827286265345	9.60892261262751E-07	2.12616353415968E-06	-4.56218246832472E-06	4.79120796018735E-07	0.99515344473603	-0.0792711579692493
3.3	0.520582357911029	-0.84597827582203	7.19412921180918E-07	-1.46014739024652E-06	-4.58264322618932E-06	7.32361706443641E-07	0.994892051726325	-0.0825678055763239
3.4	0.409566392447059	-0.904410870616081	6.47186241823502E-06	2.3464131231275E-07	-8.1388768702596E-06	-7.18245169276593E-06	0.994849762031372	-0.0846061072820075
3.5	0.292428200837411	-0.948512128314391	-7.70013936632524E-06	1.96318855436003E-06	-5.90485877044565E-06	-7.9832216302743E-06	0.994696215299345	-0.0874530347539506
3.6	0.169788795998907	-0.977806899911752	-8.58129119352384E-07	-4.38253453069458E-06	-7.82005877702337E-06	-6.33196668115761E-06	0.994355313283573	-0.0900368798787172
3.7	0.0448817252160408	-0.991654966683229	-6.71978050708187E-06	-6.76957840630081E-06	5.26465212483376E-07	-4.76554403754675E-06	0.994123652179697	-0.0927520009085171
3.8	-0.0809632156373716	-0.989190795967961	-3.64414059358666E-06	1.08482173273944E-06	-3.298531319613E-06	-2.4647864652421E-06	0.993663833877744	-0.0947845243987089
3.9	-0.204657224543127	-0.970914581707373	-4.78112211062913E-07	3.50886455430482E-06	2.05341079484415E-06	-1.22051683638458E-06	0.99365595597309	-0.0979044014598396
4	-0.325309112670362	-0.937617356391669	1.1687164097362E-05	8.11366014965786E-06	7.26536145355645E-06	-4.04614142453682E-06	0.993321073559741	-0.0993630894452354
4.1	-0.440549309992421	-0.889383623786936	5.21961822206658E-06	1.32037980567101E-06	-3.45438649447912E-06	6.65556609977532E-06	0.993072040338023	-0.101224745319568
4.2	-0.548638956518373	-0.827422498964047	-7.10028256775316E-06	-1.19724783395278E-06	-8.26779082192981E-06	-3.6232490868785E-08	0.992534352422315	-0.103877464709788
4.3	-0.648253599918719	-0.751918564610019	7.01008481834632E-07	-2.3689926851568E-06	5.21471431347565E-06	8.77353960686462E-07	0.992407646163558	-0.105908558851658
4.4	-0.737634426035	-0.664137869284449	4.47299121985221E-06	-1.77759059454608E-06	-8.67674260825837E-07	1.34762750862271E-06	0.991935341530577	-0.108318042892185
4.5	-0.81536186503063	-0.565620561649894	6.78767383764997E-06	1.86285976843109E-06	-8.07107832355205E-07	-3.25734514201581E-06	0.991852153059106	-0.110420991207997
4.6	-0.880237362988692	-0.458111574893389	2.45861699715328E-06	2.95005253878523E-06	-6.58161400201894E-06	9.75394989141365E-06	0.991564537457704	-0.113257951317498
4.7	-0.930910744465027	-0.342512937983806	-1.40483422956718E-05	5.92959632825684E-06	-3.46274141371743E-06	-3.15989043407445E-08	0.991446446896439	-0.115418518150013
4.8	-0.966486257947963	-0.221977222817185	-3.16606156915251E-06	-5.14065236377795E-06	-5.52239808071276E-06	2.3701273611392E-06	0.990983137907762	-0.117969525780872
4.9	-0.98609055799799	-0.0983861233896128	-1.0283091736475E-06	-8.55137138863784E-06	-4.22065046489542E-06	7.43498038893152E-07	0.990528139363023	-0.119795144929138
5	-0.990250513158193	0.0258328064619175	7.54914741229601E-06	-1.57645685478139E-06	-1.75444161557855E-06	-2.72028059447388E-06	0.990312878644789	-0.121387340016536
5.1	-0.979002697884395	0.150904569304216	-2.60575220054959E-06	-6.39127800952651E-06	-1.01012225604758E-06	-1.9521029623638E-06	0.99029438064311	-0.122774593435986
5.2	-0.952461560955088	0.272838077079345	3.99634425504511E-06	-4.39322129210434E-07	-5.4332373935374E-06	6.31052676274648E-06	0.990057501925015	-0.125032425102982
5.3	-0.910939438081923	0.390518354024782	5.14272780916062E-06	6.00187083182308E-06	-9.62976095793691E-07	-3.58458317556911E-06	0.989771697884211	-0.127367323997565
5.4	-0.854878072615457	0.502019024546922	3.06001642471296E-06	-2.01832181718267E-06	-1.13096546441391E-05	2.20834304885029E-06	0.989678399434995	-0.130166956397795
5.5	-0.784831581405391	0.605256188431094	-4.33795800693908E-07	-2.19347937425966E-06	-5.78125311265988E-06	6.12827575378964E-06	0.989437092934426	-0.133032895717279
5.6	-0.702230579450454	0.698729231765633	2.38519458149078E-06	7.29978853875706E-06	-5.35375513572442E-07	2.92877014927006E-06	0.989114694161137	-0.135631102189443
5.7	-0.608845952144502	0.78145300758739	-2.56877037274126E-06	2.36220586092927E-06	7.91079827707123E-06	2.77157699891131E-06	0.988763585051487	-0.138078881169347
5.8	-0.505595472911558	0.851217886815209	-4.64252636423455E-06	5.10558622049082E-06	-3.63563042388216E-07	3.42122733026217E-06	0.988533444525362	-0.140270919631102
5.9	-0.394806905202003	0.907755926126273	6.35560013224458E-06	1.49367029872563E-06	-2.70826941834797E-06	2.5476463338089E-06	0.988186763676347	-0.142537399798124
6	-0.278047235951455	0.949745127528046	3.52374168742147E-06	3.29501163347019E-06	-3.29066358786837E-07	-1.43293805269913E-06	0.987723984689325	-0.144221640313112
6.1	-0.157077305590351	0.976677159073275	9.17023690984686E-06	1.51512707771839E-06	-1.29023250872608E-07	-1.80703403121716E-06	0.98758554223036	-0.145532127374874
6.2	-0.0333087655919546	0.988393120327718	2.43579063385157E-06	-1.73020879675688E-06	1.47500882723747E-06	-4.84163183949509E-06	0.987193919689844	-0.14692008096709
6.3	0.0910197668253515	0.984641601928191	-4.35225363688317E-06	4.24323097949856E-06	-6.15687560405874E-07	-1.72279696564033E-06	0.986725447821573	-0.148851011224649
6.4	0.213803205094212	0.965370347331078	-4.25916399950854E-06	1.07124058698876E-06	-1.75406266241558E-06	8.83407390594982E-06	0.986228414526811	-0.150909022421269
6.5	0.333309221535073	0.931102220412831	2.4482819902126E-06	-1.33041956994726E-06	1.4841798219385E-06	-2.92670509961553E-06	0.985945600484289	-0.153524048911833
6.6	0.447404181176741	0.88189741855545	-4.72829078951095E-06	-2.25111704720778E-06	-1.86310151251656E-06	-6.62979424761876E-06	0.985703265302139	-0.156093607159229
6.7	0.554188536576851	0.818742138774365	4.15637446969745E-06	-6.59754174146487E-07	-4.66880872133011E-06	1.00938598197435E-06	0.985438435977947	-0.158440394506208
6.8	0.652143838924558	0.742845596305109	3.75103938143756E-06	-2.07629300731503E-06	6.20412678787637E-06	-9.21478864230857E-07	0.984979570400827	-0.160718025727164
6.9	0.739695930839639	0.655417410728857	2.04460824602586E-06	1.63821082099242E-06	8.76806989595696E-06	-2.75177669313053E-06	0.984592424773326	-0.162792190995651
7	0.81552882519184	0.55769304179013	2.16940964917941E-06	4.08962252872217E-06	-9.28818087645601E-08	5.37389926011059E-06	0.983985551927997	-0.164562193785639
7.1	0.878451918194562	0.451725289736131	-1.33214443604692E-07	1.71392329600752E-06	8.24449545602949E-06	-4.6334018030171E-06	0.983421093546862	-0.166160504409866
7.2	0.927685694776267	0.338459733924462	4.83878367754244E-06	-1.38790048946808E-06	7.24008794514862E-06	3.77821952077392E-06	0.982807401299596	-0.167797400154218
7.3	0.962079613356899	0.219894155473336	4.85227662098386E-06	-1.10176833176057E-06	-7.31941398197499E-06	-7.37259714852601E-06	0.98183251983432	-0.169456170555699
7.4	0.981618986193958	0.0975913535516023	-1.84866816335285E-06	9.87300860258157E-06	1.43550023738358E-06	-4.0588899617984E-06	0.980896969452472	-0.171623216935692
7.5	0.985820388001174	-0.0263202751550094	8.37434352318725E-07	8.06077812752565E-07	1.66847772351576E-06	9.93737675917264E-07	0.980086777314787	-0.173903212523786
7.6	0.974533434424938	-0.1502021337886	1.45521201369568E-06	-2.60867367756804E-06	-5.40653746522602E-06	-3.62620132222931E-06	0.979571564381917	-0.176834149706236
7.7	0.947780547497389	-0.271834495263917	5.56059761244278E-06	2.40961911107569E-06	-6.82538466302231E-06	1.20210665584405E-05	0.979123895857648	-0.179958764165944
7.8	0.906227317304086	-0.38906375498676	-6.07796779821762E-07	-5.23435151366886E-06	3.73199183372135E-06	-4.72586876976518E-06	0.978970491052157	-0.18303995517309
7.9	0.850111186338249	-0.500077595645357	8.83623711416534E-06	1.53308992626283E-06	-9.51344963289711E-06	-8.63070028683294E-06	0.978820549787523	-0.18618684596959
8	0.780654786638258	-0.602979145847336	-6.64427411447866E-06	-1.63149964164405E-06	-1.19892912147611E-05	2.48418067445975E-06	0.97846523462581	-0.189153398447113
8.1	0.69890902152789	-0.696250767756647	5.06611668559971E-06	7.33381998168823E-07	2.8849871160975E-06	2.25993534933406E-06	0.97797446575915	-0.191761008290628
8.2	0.606208533815659	-0.778409278110706	3.56033193368616E-06	-2.56745076687511E-06	-3.66420295370921E-06	-1.15978730545753E-05	0.977705565752753	-0.194110175540136
8.3	0.503703106043277	-0.848276622767982	2.72483179189901E-06	-1.85182859674673E-06	1.63014080743867E-06	5.28460480281967E-06	0.977170577888569	-0.196745234508175
8.4	0.393167229431267	-0.90457709726177	-5.54228483102006E-06	-1.02356582336182E-06	1.05057584834458E-06	2.94736112003235E-06	0.976468617159096	-0.199346880397094
8.5	0.276002252874358	-0.94656206401322	-3.28506293812812E-06	1.61800153012546E-06	-4.77804995737883E-06	-5.00035036889428E-06	0.975845743614327	-0.201991568623912
8.6	0.154236627551542	-0.973362104541883	-8.12853792515402E-06	1.37397414059929E-06	-4.32603386095213E-06	-6.85599599033056E-06	0.975467513954795	-0.204580146872059
8.7	0.0300719667771087	-0.98474455969942	2.24525139278956E-07	-2.14070227937921E-07	6.10843758767526E-06	5.1577199372198E-07	0.975091239434852	-0.207093405384195
8.8	-0.0945577233546421	-0.980337308314707	1.02548784698996E-06	-1.81440728785248E-06	-2.38569741892048E-06	-1.28173681333027E-06	0.97477053612017	-0.20931879749679
8.9	-0.217123728411616	-0.960890451056476	-3.05849677505055E-07	3.03083451562569E-06	-1.22977765437311E-06	-1.64162606474895E-06	0.974801780486151	-0.211387202119368
9	-0.335802988838426	-0.926000381598555	2.97145760420344E-06	1.59221746598382E-06	-1.57807878848457E-06	2.10957670833518E-06	0.974729225656588	-0.213711679909486
9.1	-0.449092778397512	-0.876859140710393	-9.31056596187108E-06	2.24306557354692E-06	-1.56836352739722E-06	2.40443182315073E-06	0.974540245354516	-0.21589571030922
9.2	-0.555678110108248	-0.813914355772804	7.50207795459715E-06	-2.15117330465387E-07	-9.10748066751547E-06	1.94529986658426E-06	0.974150167478975	-0.218502255719955
9.3	-0.653412557685926	-0.738313075790024	9.51051074976319E-08	-7.16164536016685E-06	1.5895944472608E-06	-1.29590584918794E-06	0.973803547328198	-0.221028856751301
9.4	-0.741088428362339	-0.651103360687024	5.93355453426519E-07	2.48483113900645E-06	1.62575146988537E-06	-3.59363240684753E-06	0.9732098593336	-0.223949377433088
9.5	-0.817153841078607	-0.553029924398431	-2.88582159055033E-06	6.64009945690795E-06	4.72775462721848E-06	-1.35902292944116E-06	0.97250656867353	-0.22676660114752
9.6	-0.880152138463491	-0.445556859216794	-5.01536293647159E-06	-5.21456798923137E-06	4.75628508866585E-06	2.89112101804404E-06	0.971896214453192	-0.229795837032687
9.7	-0.929247104330147	-0.330737173109623	-1.99283661592772E-06	-5.07882708311656E-06	2.09745116887753E-06	1.42762630176881E-08	0.971325032660937	-0.232389543573987
9.8	-0.963772129946449	-0.210129005361653	6.00889867494182E-07	-4.28587610162464E-06	-2.93779402470297E-06	-2.52394895787937E-06	0.971040866321946	-0.234484830420591
9.9	-0.982487845359567	-0.0859533788449456	-6.12401822318301E-06	4.20067585333046E-06	-3.08849912918409E-06	1.66053599762797E-06	0.97067545737398	-0.23637790655754
10	-0.985702232344981	0.0388871955268514	3.57458018201369E-06	-3.57494306509327E-08	8.21621243864398E-06	1.11246648334428E-05	0.970376982647971	-0.238054398534513
10.1	-0.972934974884028	0.163357519017879	-2.85676485679063E-06	-2.52962207029704E-06	-2.00734103842337E-06	-2.50339002346508E-06	0.969887612273894	-0.239717966745698
10.2	-0.94453471214884	0.285387106775963	2.36077349619295E-06	-1.01880998084805E-06	-2.7697439146688E-06	-1.0718787067944E-06	0.969607510812485	-0.24118111207938
10.3	-0.900852023376478	0.402804626693959	7.77740297063811E-06	-5.94688350526075E-06	3.85356357674982E-06	8.24628765106308E-06	0.969104789595609	-0.243063303754544
10.4	-0.843182060580224	0.513524269807502	1.70742052277409E-06	2.53094873493533E-07	6.28509357441376E-06	-1.18073478980664E-06	0.968331617128669	-0.245207859418802
10.5	-0.772154779989248	0.616183967248039	8.36364975763958E-06	-4.13450010376123E-06	-4.97441565272594E-07	1.97379843729204E-06	0.967649587163563	-0.247716927990572
10.6	-0.688928446215289	0.708429762311866	8.9475223026724E-06	-1.25796900859885E-06	-1.49794529177233E-06	1.3654023053021E-05	0.967032059404641	-0.250334877755639
10.7	-0.594523206575408	0.789286603485346	8.02826980546783E-06	-1.89389987219104E-06	-3.04966728019354E-06	-5.29149109400135E-06	0.966345873609664	-0.25312252517316
10.8	-0.490009952079719	0.857907183664417	2.44706789139979E-06	5.25694242623548E-06	-3.63181038103526E-06	-2.09991577317872E-07	0.965734579368388	-0.255302072070821
10.9	-0.37726026856495	0.912837402798361	-5.56588099222841E-06	4.79583300051086E-07	1.59441970943236E-06	4.03507849742875E-06	0.965351937717281	-0.25735017895766
11	-0.258974308811423	0.952886685880923	9.35880723222443E-09	-5.22904760535284E-06	-8.39430284946953E-06	2.224827390373E-06	0.964855308835814	-0.259141975837002
11.1	-0.136589402457861	0.978187371373677	6.3163430644005E-06	4.10086724168143E-06	-1.91570984312672E-06	1.07748904395894E-05	0.96432996247992	-0.260890211262644
11.2	-0.0123385976998354	0.98763287193452	1.58004095600737E-06	1.35816445399227E-06	5.13880422427421E-06	8.91937875184905E-06	0.963517108011076	-0.262785009926558
11.3	0.112047998390289	0.981033769291282	-4.6165963442631E-07	-1.74010512018905E-06	-6.96446812796168E-07	-4.40206628252892E-06	0.962916426333124	-0.264643299162143
11.4	0.234478260998299	0.959358842717061	2.153968610338E-07	1.18760269801951E-05	2.42225859072693E-06	4.93750256035475E-06	0.96205538737756	-0.267298203755153
11.5	0.353614075693266	0.922633353675849	6.20345135287433E-06	-3.21197216517433E-07	3.18339791411222E-07	-1.88440437260146E-06	0.961095964169677	-0.27016952119128
11.6	0.466063350988009	0.871266646261665	-6.01263312734309E-06	3.0737201204187E-06	-4.87594455035006E-06	1.91586090807997E-06	0.959883072116734	-0.273723376605183
11.7	0.571102257812205	0.806883236985573	3.33109675248473E-06	-1.79599922319641E-06	-1.70952792129993E-06	2.23841745889265E-06	0.958709417285511	-0.277343293129297
11.8	0.667479974198827	0.729443913967188	-8.27734254732877E-07	9.8036170785051E-06	-2.72564339091803E-06	1.05476575179941E-05	0.957646739320425	-0.28091655711631
11.9	0.753052147754748	0.639965795166947	-7.30388679066517E-06	-1.04262485352757E-06	-3.92201974495027E-06	1.125994992417E-05	0.957161955833	-0.283483838776736
12	0.826758539001388	0.540394024659908	-6.46115196083657E-07	1.38395676358755E-06	-3.14094097793314E-06	-1.92936812528843E-06	0.956460322239612	-0.286157377216611
12.1	0.887922827920027	0.432403974850184	-3.88477934588983E-06	4.99629627200056E-06	-1.3405980816779E-06	8.42937103638557E-06	0.955519117456374	-0.288396450189804
12.2	0.934668968138886	0.317381016809412	-5.78643658471622E-07	-3.80475204678687E-06	-3.11966906280779E-06	-7.31565826075801E-07	0.954741917124984	-0.291034559444345
12.3	0.966582901171593	0.198236237978512	3.60443153409658E-06	3.43702744823519E-06	-3.43904311969107E-06	6.27892370059564E-06	0.953732551921064	-0.293821741968278
