# GHZ S RI R 50
0.2	-0.966062598807633	0.25147497419563	8.82277674813131E-06	5.32110478287643E-06	1.13679721499454E-06	-2.88962320451507E-06	0.9995954650931	-0.00692060745610238
0.3	-0.926643980987968	0.37130292028275	-7.6622487979378E-06	-8.19582670742689E-07	-1.47756800456562E-08	3.65950628700368E-06	0.999499864303891	-0.00984376282938899
0.4	-0.871958469408963	0.485072080974269	-2.19882595304971E-06	6.33926209376495E-06	2.91920449731894E-06	5.73660192600105E-06	0.99946506363157	-0.0125118622271587
0.5	-0.803607079799612	0.59114112782229	-2.64888186929741E-06	5.48835988425821E-07	1.05196527636517E-05	4.88493906323205E-06	0.999214118921318	-0.0156608063941644
0.6	-0.722390796582822	0.687474705524329	-1.72515460737886E-06	-1.84471948576048E-08	4.16400698017923E-06	-1.03349721705298E-05	0.999297841377778	-0.0184778015252908
0.7	-0.629921781814168	0.772936131737645	-2.04698468998284E-06	9.88080872936512E-07	3.78218725722266E-06	1.11599535352345E-05	0.998997495239506	-0.0214725997243003
0.8	-0.527351273439078	0.846145166570688	-5.60538362964458E-06	3.78131314470998E-06	-3.16752971883638E-06	-2.13915394381295E-06	0.998772892688167	-0.0236756622814021
0.9	-0.416622760759929	0.905644106598333	-6.69025079039019E-07	5.24974325706635E-06	3.26612352508323E-06	-2.94467972633842E-07	0.99870488255978	-0.0261050075015279
1	-0.298842521944938	0.950772725607083	1.56836613045298E-05	-3.68625104679423E-06	-9.59730330051765E-06	5.26853069655938E-07	0.998370701467309	-0.0278336713683105
1.1	-0.177352659602	0.980472995610597	1.34223841317531E-06	-2.98148968731098E-06	9.39339011484548E-06	1.25959823036979E-05	0.998013899871231	-0.0297832180182256
1.2	-0.052215533074547	0.994711489144712	-7.90605119872876E-06	-3.25975559035902E-06	-3.09616728089439E-06	-4.47815066691767E-06	0.997333440662814	-0.0307741505690065
1.3	0.0737001857844818	0.99298103582849	1.77486217104641E-07	3.33302591985018E-06	1.92832596266298E-06	3.41545035558017E-07	0.997380699831873	-0.0315914534489379
1.4	0.197986535708847	0.97538060959513	2.07676001954147E-08	3.76576295038153E-06	-2.52393282532973E-06	-5.6135081674679E-06	0.99720967451085	-0.033474264515744
1.5	0.319143665371098	0.94269474397652	3.18561382685821E-06	-2.64807689444387E-07	2.69985749040325E-06	2.09504703788205E-06	0.997854731119474	-0.0368787366715829
1.6	0.435089720364334	0.895243513018244	1.78821520917027E-06	-1.93771564046261E-06	-8.91662265838429E-07	-3.06304750061357E-06	0.997547699495489	-0.0402981727617644
1.7	0.544012794659262	0.833244448543708	-8.37262695166525E-08	-3.52435742616194E-06	2.00245969535759E-06	4.92675402783903E-06	0.998028091887393	-0.0429391768882598
1.8	0.644070410149185	0.758481475355035	-2.05649979940973E-06	-1.8149485465073E-06	-4.64824635788558E-06	1.83150495573755E-05	0.997943027895507	-0.0457508928451591
1.9	0.733885646616977	0.671925515635334	-4.38971086749888E-06	-1.46932317244494E-06	-4.92331147067226E-06	-6.00631362035567E-06	0.997876819809861	-0.0480960783773315
2	0.812234047165369	0.574553947871313	-9.45790291111934E-08	-6.7422556347581E-07	-1.66797819275927E-06	-1.41846280368575E-06	0.997323821433571	-0.0510928345850177
2.1	0.877880591975882	0.467259469816133	-1.14290890020654E-06	9.44601741052448E-06	1.99417035221292E-06	-3.79751931944742E-07	0.996891549682939	-0.0532264447795518
2.2	0.929310256699657	0.353404644922515	-2.12883573888805E-08	-5.92810873225659E-06	-7.37325122347741E-07	2.73650619643191E-06	0.996952725843749	-0.0555490448057472
2.3	0.966037163177983	0.23388112304608	-1.31572074371439E-06	2.76480472693272E-06	-2.73492492736578E-07	1.19700383128419E-05	0.996732108623811	-0.0574147461423757
2.4	0.987536780561986	0.109843480615847	-5.87027790279071E-06	-3.70861929288333E-06	-1.75929882276086E-05	1.45171224970358E-05	0.996737965143403	-0.060565801260795
2.5	0.993611456774007	-0.0150813184760754	1.82033467686839E-06	-2.96215101590751E-06	-1.7943810973128E-06	7.54733796814602E-06	0.996394211171996	-0.062921510636518
2.6	0.983762579594371	-0.138833184861862	2.86300706402371E-06	9.20060138987547E-07	-1.75288921714425E-06	4.50381448704857E-06	0.996293688377784	-0.0658877715576566
2.7	0.958324733083485	-0.260882849125667	3.82549164483102E-06	1.04485632204072E-05	2.32400572420034E-06	3.86941868411571E-06	0.995828367812914	-0.0689277179048896
2.8	0.917877472735346	-0.378891601259324	-8.14268587453505E-07	-2.2932082456961E-06	2.19013381008921E-07	-1.88847051512591E-06	0.995892570488962	-0.0709237660445869
2.9	0.863332301980266	-0.490494904676671	3.76494672133104E-06	-8.31909112666612E-06	-1.27820900876914E-06	-1.42262772634368E-05	0.995562293466002	-0.0729448324211823
3	0.795171082005303	-0.594957951352241	-1.08859640383702E-08	6.64940059573422E-06	-1.47692562748471E-05	5.30673774010156E-06	0.995406909014464	-0.0754277168275264
3.1	0.715365588472339	-0.688955196605703	-4.98183174197389E-06	7.8238535896914E-06	5.8080059403864E-06	-8.66402795531337E-08	0.995054617092229	-0.0774097436232027
3.2	0.622760628191094	-0.773406007096147	9.60267652872856E-07	2.12535438684017E-06	-4.56028620161831E-06	4.78455208103812E-07	0.994765800757884	-0.0791086615538253
3.3	0.520617683674532	-0.845490026366241	7.19462696198272E-07	-1.45936466102414E-06	-4.58090416915572E-06	7.30956066047405E-07	0.994544190401383	-0.0822849424217774
3.4	0.409890810143717	-0.903987451201818	6.46960043933422E-06	2.37306959695404E-07	-8.13311202906163E-06	-7.18350262541964E-06	0.994629235738277	-0.0842090343258226
3.5	0.29272306493252	-0.948457102371099	-7.70060932798007E-06	1.96018124535964E-06	-5.90160087312006E-06	-7.98518440984399E-06	0.994636296153955	-0.0871635026913674
3.6	0.169963515398328	-0.977558423724686	-8.57092250493468E-07	-4.38202957801529E-06	-7.8175369365506E-06	-6.33259347990093E-06	0.994217411920102	-0.0897563475049936
3.7	0.0452710297251648	-0.991401208416043	-6.71642749735802E-06	-6.77006775003343E-06	5.27715153394886E-07	-4.76438701092398E-06	0.994054425949791	-0.0924166593428003
3.8	-0.0804344607121431	-0.989095016583137	-3.64389741942279E-06	1.08342192568076E-06	-3.29715790671636E-06	-2.46548018899223E-06	0.993713373201019	-0.0944773648051506
3.9	-0.204136035697203	-0.971046203325954	-4.79000270167207E-07	3.50842137949029E-06	2.0535495878034E-06	-1.21986189692205E-06	0.993836559803903	-0.0977958485618766
4	-0.324963796903301	-0.937793208803667	1.16825631615185E-05	8.11300627468471E-06	7.26383447242659E-06	-4.04389495954292E-06	0.993158281574722	-0.09958976251294
4.1	-0.440158132528801	-0.88953454557563	5.21731469814259E-06	1.32186763963875E-06	-3.4556691713576E-06	6.65196867409088E-06	0.992671477382358	-0.101114997059209
4.2	-0.548230353690071	-0.827649737894743	-7.09777642240206E-06	-1.19998948080485E-06	-8.2654609957491E-06	-3.98050160304783E-08	0.992196724173527	-0.103640139854266
4.3	-0.647870500605755	-0.752226428012448	7.0193057033631E-07	-2.36809811634606E-06	5.21305181681226E-06	8.79544342661366E-07	0.992096720047641	-0.105615992688544
4.4	-0.737299875994156	-0.664481299312739	4.47281713012829E-06	-1.77515786908722E-06	-8.68098106281255E-07	1.34693471829422E-06	0.991635028462338	-0.107993625892309
4.5	-0.815004930286999	-0.566030092596964	6.78492819349683E-06	1.86604115885102E-06	-8.05144704374435E-07	-3.25694459929293E-06	0.991499908018667	-0.109971745330779
4.6	-0.879975612133742	-0.458590416436123	2.45659816851711E-06	2.95110369965882E-06	-6.58643110076222E-06	9.74890673338589E-06	0.991392033952243	-0.11269548987287
4.7	-0.930688640837161	-0.34299598237837	-1.40502064800916E-05	5.92148822410368E-06	-3.46239844892678E-06	-3.34568837981824E-08	0.991367003766433	-0.1148889594301
4.8	-0.966249015654223	-0.222484269068736	-3.16298152545832E-06	-5.14178703241124E-06	-5.52306752222308E-06	2.36692943798328E-06	0.99095469953432	-0.117443622639304
4.9	-0.985757188881614	-0.0990593274876496	-1.02289317501204E-06	-8.55071063639001E-06	-4.22046949569088E-06	7.407892087178E-07	0.990575871951814	-0.119248755506974
5	-0.990311085718889	0.0247856904934418	7.55075780371302E-06	-1.5704587884675E-06	-1.75233414189378E-06	-2.72181475875953E-06	0.990460816529636	-0.1208484231752
5.1	-0.979321892756343	0.150217731956439	-2.60219750538296E-06	-6.39421513211861E-06	-1.00907930287528E-06	-1.95313664684452E-06	0.990542564630065	-0.12226072321535
5.2	-0.952753134481717	0.272183430230613	3.99737471189282E-06	-4.36996819822406E-07	-5.43808297541374E-06	6.30845987279925E-06	0.990377102504473	-0.124592107023723
5.3	-0.91138272596787	0.389851848434912	5.14020370645059E-06	6.00640576147505E-06	-9.6098805333006E-07	-3.58599315623493E-06	0.990079551868367	-0.126980685410656
5.4	-0.855530830159307	0.501490036480438	3.06226665454826E-06	-2.01701962174017E-06	-1.13146392697681E-05	2.20186639079494E-06	0.990010494852513	-0.129724880743888
5.5	-0.785566702226806	0.605029154715105	-4.32906948250106E-07	-2.19467760507113E-06	-5.78687349487358E-06	6.12816921512161E-06	0.989861746212074	-0.132714246344401
5.6	-0.702842468209077	0.698697616353003	2.38304906719818E-06	7.30335274419393E-06	-5.36765193253107E-07	2.92958872452868E-06	0.989443716590397	-0.135264752307313
5.7	-0.609346535676513	0.781531768986744	-2.57069549813696E-06	2.36196404608562E-06	7.91246318687871E-06	2.7759298368545E-06	0.98922729988831	-0.13765093228246
5.8	-0.505994308145365	0.851407478350966	-4.64655530182788E-06	5.10601616904158E-06	-3.65057041527256E-07	3.42258703890793E-06	0.989177332628411	-0.139932321353804
5.9	-0.394980117871967	0.908095622288805	6.359053165024E-06	1.49563976167488E-06	-2.71029059708112E-06	2.5486662603504E-06	0.989003060408243	-0.142570577825421
6	-0.277770110283892	0.949766138992259	3.52541418550586E-06	3.29452472996011E-06	-3.29571934694644E-07	-1.43309994994051E-06	0.987895254059552	-0.144794172674641
6.1	-0.157091001005627	0.97632475189336	9.16789774221879E-06	1.51501745255769E-06	-1.28937859595805E-07	-1.80658565444962E-06	0.987319041987311	-0.145568797885511
6.2	-0.0335727617111301	0.988055676765464	2.43551948794322E-06	-1.72910535334664E-06	1.47578755712049E-06	-4.83987153105377E-06	0.986919501105699	-0.146676079884037
6.3	0.0906310228571633	0.984471517026781	-4.35267072465826E-06	4.24046825074263E-06	-6.14879267831099E-07	-1.72256484755248E-06	0.986520048187334	-0.148382698632863
6.4	0.21353985918679	0.965236772130736	-4.25827287217416E-06	1.06931743521098E-06	-1.75684448231289E-06	8.83073390505849E-06	0.986149519318176	-0.150414189628585
6.5	0.332541125025037	0.930836686506936	2.4482541123477E-06	-1.32772756985195E-06	1.48595257480547E-06	-2.92407651858315E-06	0.985786352902651	-0.152728996285857
6.6	0.446683070444788	0.88242025988451	-4.72677888965464E-06	-2.25661009944973E-06	-1.8563542457932E-06	-6.63305111502357E-06	0.986196290291067	-0.155191684936752
6.7	0.553845216603378	0.819443355004681	4.15913864375737E-06	-6.56426855624092E-07	-4.6721508108757E-06	1.00578922892207E-06	0.986184790887388	-0.157870810801124
6.8	0.652058500253986	0.743638385599286	3.75531302107565E-06	-2.07503814252415E-06	6.20933889221548E-06	-9.17568180835319E-07	0.985804611943267	-0.16033913710833
6.9	0.739931069300745	0.656234036278519	2.04557965046537E-06	1.64092677535826E-06	8.77787855163091E-06	-2.74929604993866E-06	0.985529639507584	-0.16260134746563
7	0.815943645817164	0.558302443871751	2.17053687020822E-06	4.09386771943076E-06	-9.41210086476103E-08	5.3788458274E-06	0.984711213992682	-0.164584235347852
7.1	0.87891890768145	0.452385126089079	-1.33832658621536E-07	1.71509699950253E-06	8.25175327838502E-06	-4.63416509015723E-06	0.984151450820684	-0.165906388686803
7.2	0.928354864980561	0.339146073055104	4.84303890985211E-06	-1.38667301995383E-06	7.24371800627658E-06	3.78441991220049E-06	0.983754393157285	-0.167462729534729
7.3	0.962992609645543	0.22063298801893	4.85711011225713E-06	-1.09930530545329E-06	-7.32040066952642E-06	-7.38388059312643E-06	0.983033482354268	-0.169030266897938
7.4	0.983129064975092	0.0984240113116275	-1.86248007080118E-06	9.88330214547981E-06	1.44202980870077E-06	-4.06233616280573E-06	0.982719675856542	-0.171130114755587
7.5	0.988119298200701	-0.0264509981246815	8.38790284075703E-07	8.08688931953033E-07	1.67167485646642E-06	9.9747157667288E-07	0.98249411010556	-0.174392130147772
7.6	0.976406910010367	-0.151052853168689	1.45874530082404E-06	-2.61468822667252E-06	-5.41897097487816E-06	-3.6349488412167E-06	0.981459698321599	-0.177745020905746
7.7	0.949458378739991	-0.273131931218344	5.57445865612095E-06	2.4137990764153E-06	-6.83825609013568E-06	1.20514787381872E-05	0.98090113708615	-0.181046312971377
7.8	0.907578567152975	-0.390813369063904	-6.12921005540608E-07	-5.24632019855099E-06	3.73750351021628E-06	-4.73968825116599E-06	0.980637657810514	-0.184350618382351
7.9	0.850933353155591	-0.502363444346501	8.85829499393835E-06	1.52476496793532E-06	-9.54651689676418E-06	-8.63754491849217E-06	0.980360454434774	-0.187953902926208
8	0.779911813929498	-0.605332038168781	-6.65605447636139E-06	-1.61868141724434E-06	-1.19984429667959E-05	2.51396226523573E-06	0.978890547686344	-0.191426570599245
8.1	0.698031447290894	-0.697309538413884	5.06867567192864E-06	7.26012733948696E-07	2.88920115619856E-06	2.25627029561159E-06	0.977928648490641	-0.193095478135415
8.2	0.605604916157653	-0.779168091291375	3.5582618053095E-06	-2.57176631332491E-06	-3.67735619820585E-06	-1.15961732646106E-05	0.977798199318203	-0.195156083234931
8.3	0.503214240339468	-0.84891478801023	2.7235937645215E-06	-1.85442030379316E-06	1.63490954863043E-06	5.28389413820695E-06	0.977303956441966	-0.197706316647269
8.4	0.3927935256208	-0.905194337964172	-5.54322907494789E-06	-1.02014457163898E-06	1.05248218733474E-06	2.94686267577939E-06	0.976567916168293	-0.200291717468668
8.5	0.275429666669643	-0.947312494103164	-3.28558851546939E-06	1.61988588330634E-06	-4.78174271897851E-06	-5.00022843245806E-06	0.975817560257029	-0.202754746935227
8.6	0.153510143045435	-0.973759173718054	-8.13114885479463E-06	1.38044188044714E-06	-4.3328922450462E-06	-6.85591529979838E-06	0.975658228013248	-0.205228813215368
8.7	0.0294256841373756	-0.984897471610752	2.24401903202758E-07	-2.14324246367068E-07	6.11057987146118E-06	5.10620596141892E-07	0.975381137101406	-0.207850107591082
8.8	-0.0950424758467749	-0.980238346705174	1.02381503397752E-06	-1.81549047372544E-06	-2.3870580544174E-06	-1.2795334592803E-06	0.975082951909075	-0.21019600229672
8.9	-0.217071978140066	-0.960629905186631	-3.031453844425E-07	3.03008100476356E-06	-1.23077460312168E-06	-1.64002004545323E-06	0.97509718398131	-0.212400568622185
9	-0.335430970044119	-0.926609289019354	2.97108010636331E-06	1.59085943316855E-06	-1.57698529109957E-06	2.1094439911327E-06	0.974938808942072	-0.214921223215613
9.1	-0.449310832496134	-0.877644627064749	-9.30934546193832E-06	2.24620207863092E-06	-1.56745218597251E-06	2.40486453258357E-06	0.974486126509331	-0.217207431291275
9.2	-0.556210136283933	-0.814720846440273	7.50219275178759E-06	-2.1719844438592E-07	-9.1071539616126E-06	1.94786546227621E-06	0.97381988700478	-0.219717482191005
9.3	-0.654322672608375	-0.738970539376492	9.34582517656204E-08	-7.16303413480081E-06	1.5895965071269E-06	-1.2965227115723E-06	0.973326675162697	-0.221965001017301
9.4	-0.742254014798915	-0.651625696632093	5.94082264163818E-07	2.48588038411672E-06	1.62585672942359E-06	-3.59560025032024E-06	0.972918240450877	-0.224583211740661
9.5	-0.819055972151107	-0.552798358094627	-2.88295621323839E-06	6.64809936153748E-06	4.73070801593163E-06	-1.36398397055751E-06	0.972397848225492	-0.22769437541828
9.6	-0.881218899327089	-0.444361579556101	-5.02250906394928E-06	-5.21028572466772E-06	4.76075702733677E-06	2.88652980940782E-06	0.971550223490232	-0.23062284638755
9.7	-0.929699257073933	-0.329585277191625	-1.99790321332748E-06	-5.07717494908942E-06	2.09758530285333E-06	1.22318500050888E-08	0.971078204089347	-0.233084179241387
9.8	-0.963890417902432	-0.20905425465427	5.96969552781957E-07	-4.28666069230686E-06	-2.94027966631933E-06	-2.52137529344108E-06	0.971004557914413	-0.235195154349021
9.9	-0.982317539490071	-0.0849901010307664	-6.12014649143716E-06	4.20776217293947E-06	-3.08704195149217E-06	1.66405951326608E-06	0.97089742113234	-0.237543388924075
10	-0.985466676746569	0.0397202833476786	3.57342875525555E-06	-4.04406477925154E-08	8.22830815586804E-06	1.11104195636757E-05	0.969645341512809	-0.239708579177516
10.1	-0.972507449310801	0.164304205937764	-2.85804196386492E-06	-2.52567084313208E-06	-2.00896225095341E-06	-2.50029721792902E-06	0.969065840598646	-0.240533466159596
10.2	-0.943781344144962	0.28633882891285	2.35884001667214E-06	-1.02080647429609E-06	-2.76976732418121E-06	-1.06866858038404E-06	0.969094345921459	-0.241962625072978
10.3	-0.899648353852661	0.403694245398958	7.76707717761896E-06	-5.95287731011291E-06	3.86106118700499E-06	8.2381024568528E-06	0.968707102173124	-0.243979117597915
10.4	-0.841216796148391	0.514000636308087	1.70637031973757E-06	2.50755308182982E-07	6.27858395048456E-06	-1.18765565275097E-06	0.967894405686529	-0.246390616293777
10.5	-0.770205117928657	0.615151062314531	8.35072944353433E-06	-4.13501306397036E-06	-4.95527543720668E-07	1.97172596810562E-06	0.966902749943342	-0.248848495939855
10.6	-0.688140836099255	0.707039239233531	8.94015415725817E-06	-1.26063314733486E-06	-1.49126027527207E-06	1.36441650660045E-05	0.96626559059339	-0.251750604476952
10.7	-0.594269680401426	0.788085421070753	8.02202651232833E-06	-1.89712429877911E-06	-3.0506271798461E-06	-5.2863776875103E-06	0.965119276631215	-0.25463254341527
10.8	-0.48969382698532	0.856967442106586	2.44845121115804E-06	5.25164740353943E-06	-3.62929572380313E-06	-2.0765383038855E-07	0.964329255643726	-0.256293485009429
10.9	-0.377047910664349	0.911796289802513	-5.56104811703884E-06	4.81588110908919E-07	1.59483697029027E-06	4.03103647246403E-06	0.963941138701525	-0.258010971015936
11	-0.259302603169916	0.952235927684363	7.46999550543299E-09	-5.22630416593067E-06	-8.38909178431299E-06	2.22668294947421E-06	0.963442010886041	-0.25960938891479
11.1	-0.136367184875698	0.977816337682881	6.31421295526928E-06	4.09426086876865E-06	-1.90807196830911E-06	1.07683015463477E-05	0.963033327915476	-0.261024927355984
11.2	-0.0119906978421419	0.986968074468643	1.5791590108506E-06	1.35620395124639E-06	5.13790618241529E-06	8.90879589067458E-06	0.962394162266425	-0.262713035835653
11.3	0.112286661367751	0.98016619012928	-4.61498035887106E-07	-1.73816605102482E-06	-6.96539662315308E-07	-4.39725019342018E-06	0.962031795150056	-0.264340055504718
11.4	0.234596382139129	0.958422271823654	2.12650020335746E-07	1.18637507980759E-05	2.41869628635435E-06	4.93289433308581E-06	0.9616985455783	-0.266801091239514
11.5	0.353605083547437	0.921659357902899	6.19996299527396E-06	-3.19976631840826E-07	3.1847308827409E-07	-1.88327518641418E-06	0.960931078633987	-0.270363068701244
11.6	0.465942284961297	0.870365796614013	-6.00768691835657E-06	3.0715404814239E-06	-4.87195995791396E-06	1.91455423840543E-06	0.959313478585186	-0.273735295330235
11.7	0.570979863160956	0.80605457139616	3.328396356951E-06	-1.79401402302649E-06	-1.70830415464864E-06	2.23624385536184E-06	0.958378205338031	-0.277175156002743
11.8	0.667487658520315	0.728671901823741	-8.29656540645618E-07	9.79657784842043E-06	-2.72643342227026E-06	1.05396163106551E-05	0.957703507055199	-0.280908829073515
11.9	0.753595943901785	0.638903012299224	-7.30287439526518E-06	-1.04165579270065E-06	-3.92016841011395E-06	1.12586452636385E-05	0.957567787517637	-0.284428908628967
12	0.826515482976717	0.538104794086257	-6.44258818769847E-07	1.38333840066744E-06	-3.13996817858702E-06	-1.92474711325709E-06	0.955322407910389	-0.28782528719372
12.1	0.886788480045735	0.430727017395157	-3.87761151888561E-06	4.9924795204227E-06	-1.33461154825672E-06	8.42020024294919E-06	0.953926892902437	-0.289265896350291
12.2	0.933382077961353	0.315990622402499	-5.80454478918512E-07	-3.7996713029343E-06	-3.11630356103529E-06	-7.28592311569473E-07	0.953026562006722	-0.291688721992441
12.3	0.964993093705157	0.196970314413762	3.60120823600894E-06	3.4285215121201E-06	-3.42842268798123E-06	6.27129717842912E-06	0.9517763905425	-0.29426802134717
