# GHZ S RI R 50
0.2	-0.966049811734377	0.251487056957113	8.82277108093288E-06	5.321065825591E-06	1.13678592447381E-06	-2.88961955854518E-06	0.999602727492059	-0.00691370320856028
0.3	-0.926626524671365	0.371309044777095	-7.66221655850461E-06	-8.19581485441332E-07	-1.47766869952255E-08	3.6594909993747E-06	0.999509390690693	-0.00983548457469546
0.4	-0.871951066696988	0.485069281174906	-2.19891525389205E-06	6.33925528232842E-06	2.91914038823572E-06	5.73665912155947E-06	0.999485259222975	-0.0124922027002668
0.5	-0.803615515862058	0.591168762691001	-2.64899096222799E-06	5.48876759276608E-07	1.05201324682422E-05	4.8850777241027E-06	0.999278398144255	-0.0156708420283962
0.6	-0.722359466518307	0.687503212072356	-1.72517271537686E-06	-1.83729048397587E-08	4.16360260328043E-06	-1.03352556408835E-05	0.999315975029152	-0.0185307023122004
0.7	-0.629890138659769	0.772942587754208	-2.04693522481006E-06	9.88136259770069E-07	3.78250367243907E-06	1.11597342524106E-05	0.998989528839841	-0.0215101435903134
0.8	-0.52732920734747	0.846141393908374	-5.605211156754E-06	3.78138996070488E-06	-3.16753352357954E-06	-2.13904728276685E-06	0.998751800654144	-0.0237027003787057
0.9	-0.416614712308956	0.905633305408757	-6.68936294693978E-07	5.24959615123857E-06	3.2660226733152E-06	-2.94502105791815E-07	0.998658698778375	-0.0261066535444781
1	-0.298863667918373	0.950762024575242	1.56833984050375E-05	-3.68537497029837E-06	-9.59705736151691E-06	5.26365945623838E-07	0.998360927231613	-0.0277527016303426
1.1	-0.177408224991772	0.980490597145041	1.34249982884874E-06	-2.98152382826676E-06	9.39292354338974E-06	1.25971601942058E-05	0.998077429700752	-0.0297278754669917
1.2	-0.0522948508433148	0.994798507785458	-7.90660693547142E-06	-3.26073219903297E-06	-3.09612620946604E-06	-4.47886484133402E-06	0.997446010935373	-0.0307079901302083
1.3	0.0736745979968839	0.993159284731666	1.77342535142912E-07	3.33370751971972E-06	1.92869638322369E-06	3.41717733660232E-07	0.99759708233296	-0.0315695659785849
1.4	0.198069478853415	0.975549072451651	2.09873248451186E-08	3.76659715322845E-06	-2.52481339871671E-06	-5.61460927809914E-06	0.997413220432431	-0.0335741652364934
1.5	0.319279665389619	0.942800576095738	3.18607486296861E-06	-2.65213195893451E-07	2.70051373994701E-06	2.09506112076876E-06	0.997982663568236	-0.0370015073727697
1.6	0.435234707321384	0.895234653618188	1.78796851799365E-06	-1.93812616884357E-06	-8.92241740806536E-07	-3.06304815951456E-06	0.997557754571154	-0.0404531603952573
1.7	0.544100353588343	0.8331698210759	-8.42861313649322E-08	-3.52418084209353E-06	2.00315503267932E-06	4.92620559622525E-06	0.997954398983671	-0.0430459943555956
1.8	0.644091886927893	0.758364793216433	-2.05651033364264E-06	-1.81444645056443E-06	-4.64513642939026E-06	1.83135336031371E-05	0.997810003559852	-0.0458218457143412
1.9	0.733774893049523	0.671803632693669	-4.38878965525157E-06	-1.46864021246563E-06	-4.92261274442324E-06	-6.00452105135894E-06	0.997648358151436	-0.048068673907108
2	0.812093379382182	0.574659858017842	-9.44459691108207E-08	-6.74126784320302E-07	-1.66744730640662E-06	-1.41850969587E-06	0.997259921389341	-0.0508480427227971
2.1	0.877914713666271	0.467280626343052	-1.14325976309462E-06	9.44607162977925E-06	1.99420410834912E-06	-3.79684124503349E-07	0.996945674846463	-0.053206397779278
2.2	0.929269225855383	0.353341111583083	-2.15582671928289E-08	-5.92774634910922E-06	-7.37154977434385E-07	2.73637309659077E-06	0.996888849470669	-0.0555910325959583
2.3	0.965904373409606	0.233822280761923	-1.31542891616463E-06	2.7645407371734E-06	-2.72873313205165E-07	1.19686295977149E-05	0.996581315213573	-0.0574409727939098
2.4	0.987312981843691	0.109849365252216	-5.86957500933488E-06	-3.70772282906077E-06	-1.75894698367973E-05	1.45158481306152E-05	0.996504253354532	-0.0605347213114841
2.5	0.993364004793725	-0.0149414489736939	1.81957569118418E-06	-2.96144745058457E-06	-1.79326255970727E-06	7.54531773063827E-06	0.996142539364261	-0.0627692767269084
2.6	0.983558691946982	-0.138570013712517	2.86180662939152E-06	9.20075121138482E-07	-1.75279713419454E-06	4.50188731096247E-06	0.996075708924613	-0.0656513620227509
2.7	0.958265727313496	-0.260545563734365	3.82163599511083E-06	1.04468008693339E-05	2.32233482190957E-06	3.86901185834084E-06	0.995707578021117	-0.0686322193285138
2.8	0.917938595019066	-0.378608988721829	-8.13483507520114E-07	-2.29313119733193E-06	2.19537327752263E-07	-1.88814604396526E-06	0.99585296550454	-0.0706612428850161
2.9	0.863430198412223	-0.490281803332573	3.76700387247102E-06	-8.31773684512289E-06	-1.27436524481114E-06	-1.42260169767119E-05	0.995545858676659	-0.0727140394364083
3	0.795304447988171	-0.5947810447024	-1.23620090884322E-08	6.64953895328614E-06	-1.47707467675525E-05	5.30357209613894E-06	0.995430723916006	-0.0751962981718339
3.1	0.715518671555668	-0.688879331788703	-4.9835899385689E-06	7.82379114069874E-06	5.80857844781792E-06	-8.56989414964868E-08	0.995134988181119	-0.0772266141891765
3.2	0.622855719516165	-0.773413233082077	9.60267637263124E-07	2.1256966125515E-06	-4.56092491335527E-06	4.78243635984779E-07	0.994869419929648	-0.0789996284873454
3.3	0.520611248188987	-0.845547538252874	7.19488439276156E-07	-1.45959565601983E-06	-4.58148401798849E-06	7.3127682222184E-07	0.994639612843207	-0.0822621782607739
3.4	0.40968784260161	-0.903990153901805	6.47007421244963E-06	2.35986711651407E-07	-8.13512925858341E-06	-7.18229496545539E-06	0.994634966523628	-0.0842775483671054
3.5	0.292624500536269	-0.94810917403672	-7.69858242933058E-06	1.96091683370529E-06	-5.90149560053213E-06	-7.98249206943485E-06	0.99451123623658	-0.0871147508917394
3.6	0.170076567558832	-0.977438039697146	-8.56803963190972E-07	-4.38161825739418E-06	-7.81644400866685E-06	-6.33229960473555E-06	0.994205688883863	-0.089689111424856
3.7	0.0452408410666697	-0.991344288257439	-6.71629747547465E-06	-6.76966343603663E-06	5.27598055794479E-07	-4.76420851266161E-06	0.994005150915687	-0.0924140677084597
3.8	-0.0805445674357802	-0.988941439241819	-3.64350213834139E-06	1.08354884418653E-06	-3.29701262098408E-06	-2.46505470122473E-06	0.993562018852931	-0.0944701930988015
3.9	-0.204182111732892	-0.970731738070249	-4.7897533982937E-07	3.50774349625382E-06	2.05318119495844E-06	-1.21959049607961E-06	0.993545892271892	-0.0976247605087139
4	-0.324771575492219	-0.937516374784226	1.16808061846987E-05	8.11487486156026E-06	7.26436309586524E-06	-4.0424920644786E-06	0.993166005931905	-0.0990990546080226
4.1	-0.439966532590408	-0.889405460060452	5.21736170222154E-06	1.32193742178332E-06	-3.45577876657311E-06	6.65201015060462E-06	0.992871923208772	-0.100959959841
4.2	-0.548057632612075	-0.827583338189653	-7.09734796658164E-06	-1.20006199450801E-06	-8.26498900735341E-06	-3.99668534204706E-08	0.992268857816051	-0.103582555477617
4.3	-0.647720261062043	-0.752208733915463	7.02026598146299E-07	-2.36789174398419E-06	5.21263813475318E-06	8.7980170547458E-07	0.992093323377078	-0.105542428112171
4.4	-0.737176413280799	-0.664526754599464	4.47282189534277E-06	-1.77454889325582E-06	-8.68217303754985E-07	1.34677065465303E-06	0.991612681881958	-0.107860438671018
4.5	-0.814989578496942	-0.566085123187576	6.78509799653364E-06	1.86662259428182E-06	-8.04942442604247E-07	-3.25715073375674E-06	0.991562528350264	-0.109873961091745
4.6	-0.879955685365859	-0.458621672009425	2.45637243737352E-06	2.9511405015175E-06	-6.58673214852432E-06	9.74827390639109E-06	0.991339150369658	-0.112640631447494
4.7	-0.930719664342861	-0.343065125597275	-1.40506900706226E-05	5.91991505790356E-06	-3.46235730937905E-06	-3.38283730223901E-08	0.991291929560448	-0.114753777724235
4.8	-0.966390304952925	-0.222566629233533	-3.16253000042481E-06	-5.142454291869E-06	-5.5236589185696E-06	2.36638779305144E-06	0.990907852998984	-0.117283170423232
4.9	-0.986099991468203	-0.0989962925370905	-1.02265777260247E-06	-8.55206533561675E-06	-4.22114896064907E-06	7.4070910050143E-07	0.990535965061739	-0.119098662736821
5	-0.990381412075825	0.0252335492374186	7.55064094734834E-06	-1.57159109562568E-06	-1.75276017056795E-06	-2.7215984650522E-06	0.990398526084399	-0.120693813523204
5.1	-0.979236727167905	0.150334735028654	-2.6018655975729E-06	-6.39366065052236E-06	-1.00895810044184E-06	-1.95297033250073E-06	0.990449245406074	-0.122090074715215
5.2	-0.952809161333086	0.272317838147916	3.99725710419857E-06	-4.36803441235883E-07	-5.43817797565877E-06	6.30800080975783E-06	0.990272523632006	-0.124357086155651
5.3	-0.911388988682809	0.390083119983388	5.13995985933595E-06	6.0063813199695E-06	-9.60889694564753E-07	-3.58593340386318E-06	0.990042296086324	-0.126697273825905
5.4	-0.855402479194188	0.501695439458356	3.06203524221209E-06	-2.01692754516819E-06	-1.1313856400443E-05	2.20187543986647E-06	0.990007713735022	-0.129503316430015
5.5	-0.785394180655225	0.605058301101995	-4.32612741063865E-07	-2.19436342178109E-06	-5.78655297678635E-06	6.12657939003227E-06	0.989819919062431	-0.132383856743251
5.6	-0.702794425914953	0.698657568354666	2.38177589039469E-06	7.30343199561632E-06	-5.37213803958801E-07	2.92938056202352E-06	0.989555251102721	-0.134998326702627
5.7	-0.609352380627694	0.781499656662104	-2.57086675036416E-06	2.36158683633652E-06	7.91185756470252E-06	2.77671934480733E-06	0.989266233744956	-0.137468166092585
5.8	-0.506018476515835	0.851334272621034	-4.64653928983627E-06	5.10485718734217E-06	-3.65391989621477E-07	3.4221161207812E-06	0.989075821335892	-0.13971410784783
5.9	-0.395138840002237	0.907867164111091	6.35661699718206E-06	1.49709719971559E-06	-2.71021626885215E-06	2.5470512042414E-06	0.988730469200282	-0.142052335775086
6	-0.278359525941484	0.949772275250923	3.52278933013688E-06	3.29742349944292E-06	-3.2841481178886E-07	-1.43338526199636E-06	0.988209037777191	-0.143776026940273
6.1	-0.157493474146872	0.976643627407066	9.17077657697322E-06	1.52070882874003E-06	-1.27989696510401E-07	-1.80738967511623E-06	0.988001873874379	-0.145071024372379
6.2	-0.0339065941463187	0.988425638719649	2.43742058855083E-06	-1.72880650336756E-06	1.47864612720932E-06	-4.84143886598177E-06	0.987566677491618	-0.146369678241021
6.3	0.0903004794075129	0.984916129259711	-4.3568326210925E-06	4.24103091279152E-06	-6.14511627821352E-07	-1.72377426625304E-06	0.987152601509523	-0.148198351864542
6.4	0.213135889802822	0.965938751187042	-4.26197408800549E-06	1.06832837149221E-06	-1.76192707161084E-06	8.83672504747962E-06	0.986807362898868	-0.150235455129554
6.5	0.332828673402693	0.931916884907003	2.45083854311666E-06	-1.32946725519197E-06	1.48729513197883E-06	-2.92749103874277E-06	0.986685374324349	-0.152924824221841
6.6	0.447187269777042	0.88283936342513	-4.73059892708833E-06	-2.25580349924457E-06	-1.8604588513715E-06	-6.63613538734572E-06	0.986549535535506	-0.155631029621408
6.7	0.554217183704552	0.819722451542799	4.16034331648154E-06	-6.5822288692047E-07	-4.67340296259069E-06	1.00790049052896E-06	0.986339663955968	-0.158095789395257
6.8	0.652400897202437	0.743809979765732	3.75542155565333E-06	-2.07671228017582E-06	6.21034602222428E-06	-9.19806354474499E-07	0.985919861344682	-0.160468263410977
6.9	0.740160679681718	0.656318421777014	2.04610063863415E-06	1.64050087760874E-06	8.77765674465128E-06	-2.751645926766E-06	0.985566687785074	-0.162622260817398
7	0.816174969412759	0.558500864284828	2.17060377110391E-06	4.09438183291126E-06	-9.4341811510907E-08	5.37940578037912E-06	0.98498849075784	-0.164454878127983
7.1	0.879264590722627	0.452414424860699	-1.33690298010784E-07	1.71573764327431E-06	8.25424721030668E-06	-4.63677563830583E-06	0.984466496634988	-0.166114451349654
7.2	0.92864359243057	0.339001754875509	4.84437856954426E-06	-1.38879953183611E-06	7.2476703535864E-06	3.78341777191082E-06	0.983895160977316	-0.167813830402426
7.3	0.963163966368378	0.220264952907841	4.85801853655719E-06	-1.10266239884124E-06	-7.32734993498005E-06	-7.38177477141512E-06	0.982971209180012	-0.16953756957251
7.4	0.982818332593564	0.0977611666311278	-1.85125447289848E-06	9.88507088015117E-06	1.43739283140489E-06	-4.06382721949139E-06	0.982103228055549	-0.171783871080053
7.5	0.987076000123115	-0.0264022188115822	8.38544639710848E-07	8.07058954123055E-07	1.67065659068237E-06	9.94912705876456E-07	0.981325746011543	-0.174172974288057
7.6	0.975779216824029	-0.150550963609793	1.4567089799124E-06	-2.61227813856231E-06	-5.41409945002337E-06	-3.63009587374841E-06	0.98082170073971	-0.177218807888271
7.7	0.948952962795455	-0.272461500948877	5.5685121093462E-06	2.41135912765728E-06	-6.8312674795664E-06	1.20385898114299E-05	0.980359409998463	-0.180473484127499
7.8	0.907223245079353	-0.389938933764604	-6.10644524195316E-07	-5.2407928441537E-06	3.73488531194E-06	-4.7333787725753E-06	0.980138845023044	-0.183680234380438
7.9	0.850832592977815	-0.501122425837263	8.84738070027708E-06	1.53000315657384E-06	-9.52929703522696E-06	-8.63551179545108E-06	0.979869272555346	-0.186942244531857
8	0.781137937822243	-0.604129958332184	-6.65240094425496E-06	-1.62879753431053E-06	-1.20003361317027E-05	2.49480706373695E-06	0.979431716514937	-0.189992535728858
8.1	0.699114992079664	-0.697418947487418	5.07122830490555E-06	7.30162757334711E-07	2.88930823343765E-06	2.25975679662987E-06	0.978816426935319	-0.192690191917788
8.2	0.606163624045164	-0.779558678772007	3.56093620080437E-06	-2.57228473480292E-06	-3.67639802384857E-06	-1.16036606654898E-05	0.978415732710725	-0.195120019435888
8.3	0.503428750203177	-0.849358181909639	2.72506327790097E-06	-1.85525062435105E-06	1.63551847768279E-06	5.2866612412233E-06	0.977733746134578	-0.197796643323203
8.4	0.392691158654076	-0.905552524150274	-5.54627599266595E-06	-1.01963772890442E-06	1.05357356740547E-06	2.94818537769051E-06	0.9768986564872	-0.200395180091662
8.5	0.275355093542613	-0.947396045517413	-3.28546200647183E-06	1.62156979710431E-06	-4.78470453924805E-06	-4.9990454463472E-06	0.976183164330748	-0.203010054248909
8.6	0.153463189649383	-0.974036990697048	-8.13134881257386E-06	1.38155293588797E-06	-4.33397625016648E-06	-6.85567587682622E-06	0.975749117480932	-0.205576281831165
8.7	0.0291983497392888	-0.985253097482806	2.24439125548561E-07	-2.14366746911716E-07	6.11169624905018E-06	5.10614225025915E-07	0.975338295011645	-0.20808036066045
8.8	-0.0954982739549335	-0.98067795709003	1.02425620112085E-06	-1.81612583109682E-06	-2.38789574691569E-06	-1.28008890721127E-06	0.974996233590561	-0.210314663289957
8.9	-0.218108348825099	-0.961072037206273	-3.0308309549355E-07	3.03232830300429E-06	-1.23182973365846E-06	-1.64110552553101E-06	0.97500408489492	-0.212407662464356
9	-0.336834800422606	-0.926022866937231	2.97414879033713E-06	1.58987914084549E-06	-1.57658705253998E-06	2.11192981505664E-06	0.974894319924996	-0.214762275418223
9.1	-0.450142728262927	-0.876701504700544	-9.31144147741252E-06	2.25337970153968E-06	-1.56643252692322E-06	2.40686054556878E-06	0.974653997648436	-0.216973267602259
9.2	-0.556723733817721	-0.813566764497397	7.50413302962422E-06	-2.23103877305401E-07	-9.10819730047296E-06	1.95550782475391E-06	0.974198741051761	-0.219589564246885
9.3	-0.654412627816811	-0.737765061009889	8.73728205348134E-08	-7.16359016501106E-06	1.58859966163879E-06	-1.29796080645938E-06	0.97378216919309	-0.222110992934423
9.4	-0.741994992241574	-0.650365135936547	5.96220412179135E-07	2.48467447079711E-06	1.62210689952293E-06	-3.59615057743448E-06	0.973118503953762	-0.225019439973006
9.5	-0.817922780801481	-0.552102421792826	-2.87874447687397E-06	6.6442283894463E-06	4.72685809620345E-06	-1.36451726617066E-06	0.972342662828465	-0.227806530040082
9.6	-0.880735793906183	-0.444497299650763	-5.02154756415994E-06	-5.20928182786412E-06	4.75984436738216E-06	2.88597242081094E-06	0.971676456504273	-0.230800339855708
9.7	-0.929629001601626	-0.32957662409829	-1.99856762621346E-06	-5.0766081017651E-06	2.09747790037039E-06	1.19137250920995E-08	0.971063254226242	-0.233368184897358
9.8	-0.963929941609855	-0.208911265094986	5.9600406446539E-07	-4.28631837568307E-06	-2.9404884437312E-06	-2.52048262931416E-06	0.970747740308275	-0.235455378004487
9.9	-0.98241555087036	-0.0847276165413185	-6.11846658066223E-06	4.20719984000876E-06	-3.08622473293075E-06	1.66388096264578E-06	0.97034128548179	-0.237374359509802
10	-0.985419396950163	0.0400821986062776	3.57388091907935E-06	-3.98992096831514E-08	8.22763596533083E-06	1.11130645488869E-05	0.969977351501042	-0.239081724337341
10.1	-0.972450671088986	0.164499801545934	-2.85907233564807E-06	-2.525569323804E-06	-2.00983066304675E-06	-2.50035983560969E-06	0.969400424998148	-0.240796493597751
10.2	-0.943839679536846	0.286458345265186	2.35869529760793E-06	-1.021366147151E-06	-2.77010119557752E-06	-1.06809032914972E-06	0.968985459794553	-0.242283784050285
10.3	-0.899921980219668	0.403751555938755	7.76634422137941E-06	-5.95381583335769E-06	3.8620593411228E-06	8.2376235155063E-06	0.968354001734092	-0.244144878048147
10.4	-0.842032162409036	0.514251888016962	1.70672391218086E-06	2.5084781511246E-07	6.27993407656001E-06	-1.18775978290201E-06	0.967480693100423	-0.2462524317828
10.5	-0.770876583181697	0.616625455564922	8.35303337293538E-06	-4.14151557527801E-06	-4.94774091876031E-07	1.9730288991584E-06	0.966716391201009	-0.248725672218659
10.6	-0.687738334756068	0.708525665523564	8.93895453407604E-06	-1.26696747457908E-06	-1.4814782596836E-06	1.36447701803072E-05	0.965916401538357	-0.251412486031171
10.7	-0.593375725935324	0.789129514179172	8.01930578936879E-06	-1.90075699579039E-06	-3.05262537320957E-06	-5.28367588270749E-06	0.96513207992583	-0.254140781091213
10.8	-0.488774459801226	0.85753007585489	2.45005981310592E-06	5.249752235501E-06	-3.62872656281212E-06	-2.06201867898058E-07	0.964553766099351	-0.256107774737088
10.9	-0.37613922294812	0.912250702147723	-5.56009844580842E-06	4.8421479144593E-07	1.59658039406751E-06	4.02974576722515E-06	0.964109485123471	-0.2580454053049
11	-0.257986454951131	0.952115461654209	4.96403607951893E-09	-5.22377057713379E-06	-8.38395308315494E-06	2.22961864555332E-06	0.963583862947615	-0.259717790569519
11.1	-0.135762895916808	0.977244743676178	6.31271775014537E-06	4.09178341071082E-06	-1.9056016769657E-06	1.07648984827708E-05	0.963052006965843	-0.261346365214215
11.2	-0.0117023811343529	0.986558713723898	1.57919507529217E-06	1.35563180872732E-06	5.13901181993621E-06	8.90618830407031E-06	0.962248412856926	-0.26312576181597
11.3	0.112471405507795	0.979844899348806	-4.62107358115394E-07	-1.73787553545361E-06	-6.98113723569922E-07	-4.39668899238871E-06	0.961695198405291	-0.264891205667135
11.4	0.234679070508768	0.958114307202184	2.20665971938909E-07	1.18622114346985E-05	2.42175523117583E-06	4.93067486767413E-06	0.960863698067906	-0.267465243321418
11.5	0.353598794106746	0.921382438206058	6.19603679474436E-06	-3.23234722377884E-07	3.17232140062425E-07	-1.88231398270343E-06	0.959902627872459	-0.270255454385165
11.6	0.465833854577883	0.870043570002565	-6.00453871670432E-06	3.07196298576571E-06	-4.8695614531779E-06	1.91511986804804E-06	0.958707300859156	-0.273741934820437
11.7	0.570678214951694	0.80572967039318	3.32669442499617E-06	-1.79475421167042E-06	-1.70692301379108E-06	2.23622472257844E-06	0.957540066983565	-0.277315260107538
11.8	0.666897307345682	0.728385527975151	-8.2438211051277E-07	9.79232112119021E-06	-2.71988476839436E-06	1.05359500280379E-05	0.95646889031429	-0.28084893572967
11.9	0.752395167060976	0.639019685396224	-7.29601801898433E-06	-1.03928889066378E-06	-3.91428511032489E-06	1.12485063479551E-05	0.956005074721386	-0.283462430857065
12	0.826009300037724	0.539525477106174	-6.4486671751409E-07	1.38256071025083E-06	-3.13793648378629E-06	-1.92599110579177E-06	0.955249185392027	-0.286083893832539
12.1	0.887108716593398	0.431521282154674	-3.87764376265544E-06	4.99211712171026E-06	-1.33488531873538E-06	8.41979304498096E-06	0.954277825888162	-0.288440622169364
12.2	0.933651736412738	0.316433051504151	-5.80109300918351E-07	-3.79908306066452E-06	-3.11574201404636E-06	-7.28676828943782E-07	0.953335351917592	-0.291146320443658
12.3	0.965189350652021	0.197320876309277	3.6005015770126E-06	3.42906863376642E-06	-3.42944425856445E-06	6.27051828536044E-06	0.952062170925541	-0.293908170247506
