# GHZ S RI R 50
0.2	-0.966048646393414	0.251489740098126	8.82276718454851E-06	5.32106512868177E-06	1.13678591362362E-06	-2.88961836565846E-06	0.999603218298073	-0.00691065706850675
0.3	-0.926623010986094	0.371312010220633	-7.66221044142008E-06	-8.19584167567547E-07	-1.47782513415237E-08	3.65948823999831E-06	0.999511615093787	-0.00983140211589518
0.4	-0.871945594520295	0.485070986272969	-2.19891849039925E-06	6.33924675303624E-06	2.91913233978225E-06	5.7366556852006E-06	0.999489206092925	-0.0124883453388169
0.5	-0.803609203133799	0.591168740435665	-2.64898862469345E-06	5.48872852607298E-07	1.05201144333877E-05	4.8850851913714E-06	0.999283398824167	-0.0156679390576271
0.6	-0.722353048559826	0.687502019296108	-1.72517087668486E-06	-1.83750515881573E-08	4.16361119807363E-06	-1.03352395360336E-05	0.999321450856356	-0.0185289906682442
0.7	-0.629883378822127	0.772941300947557	-2.04693401889919E-06	9.88134327995915E-07	3.78249450019572E-06	1.11597268197721E-05	0.998995303133179	-0.0215098908340921
0.8	-0.527320389729714	0.846141098319894	-5.60520115846712E-06	3.78139697749423E-06	-3.16753508819898E-06	-2.1390405575448E-06	0.99875810859893	-0.0237050156321104
0.9	-0.416599734724347	0.905634094978664	-6.68898604323174E-07	5.2495957916027E-06	3.2660174347586E-06	-2.94524867053773E-07	0.998665627237356	-0.026114958486984
1	-0.298834910055076	0.950760040749604	1.56832670027658E-05	-3.68565760646982E-06	-9.59700970391932E-06	5.2654568638745E-07	0.99836585282838	-0.0277754129426377
1.1	-0.177356975891299	0.980470562424722	1.34235236115167E-06	-2.98152936300559E-06	9.39329090337657E-06	1.2596553587772E-05	0.998066187214644	-0.0297798556509571
1.2	-0.0522305787505081	0.994727823295695	-7.90638548983519E-06	-3.259984595171E-06	-3.0962666399751E-06	-4.47838873226354E-06	0.99737673008183	-0.0307960492862827
1.3	0.0736958119319759	0.993030283966182	1.77535734907328E-07	3.33330464824169E-06	1.92849182979168E-06	3.4155378165343E-07	0.997442610844163	-0.0316390507073191
1.4	0.198013743147938	0.975439274018212	2.1000507663855E-08	3.76614979677036E-06	-2.52453695233173E-06	-5.61393205734953E-06	0.997256839090279	-0.0335684424789202
1.5	0.319209424214801	0.9427615008072	3.18594754596277E-06	-2.65125166155129E-07	2.70034983432758E-06	2.09503837135895E-06	0.997908712885191	-0.0369816373948351
1.6	0.435181875291575	0.895233841548616	1.78800972401564E-06	-1.93813383443675E-06	-8.92223957670362E-07	-3.06309564944805E-06	0.997519759352509	-0.0404600598999219
1.7	0.544064725389319	0.833183907117353	-8.43587554639734E-08	-3.52431138622679E-06	2.0033272749824E-06	4.9263509143957E-06	0.997917664224222	-0.0430733867971474
1.8	0.644066699694868	0.758387660882089	-2.05667858226134E-06	-1.81442513116158E-06	-4.64447617135293E-06	1.83144974957975E-05	0.997762431689511	-0.0458481591257595
1.9	0.733758496050104	0.671836480856496	-4.38901290471436E-06	-1.46840868101014E-06	-4.92313656815876E-06	-6.00439150716215E-06	0.997595091075033	-0.0480737354190019
2	0.812090935250088	0.574702589309855	-9.44925402738839E-08	-6.74129152186662E-07	-1.66756430339805E-06	-1.41841587639472E-06	0.997218229269751	-0.0508255855003743
2.1	0.87793253088857	0.467329202163527	-1.14270871784134E-06	9.44613074460086E-06	1.9941804186737E-06	-3.79799967172569E-07	0.996933522716722	-0.0531640072756037
2.2	0.929313288524758	0.353388829363859	-2.17958594050175E-08	-5.92773691853463E-06	-7.37044220183228E-07	2.73639869222869E-06	0.99691689692143	-0.055544916676267
2.3	0.965982793933882	0.233857851400884	-1.31538567470816E-06	2.76462045083863E-06	-2.72591531246705E-07	1.19688448951957E-05	0.99665381820449	-0.0574104600914166
2.4	0.987431245583756	0.109846435181471	-5.86998914070462E-06	-3.7077810145306E-06	-1.75900760589791E-05	1.45170808808981E-05	0.996617909732745	-0.0605461263808859
2.5	0.993497241795879	-0.0150308418483613	1.81953859142326E-06	-2.96184161763747E-06	-1.79290924567206E-06	7.54612739000532E-06	0.996272131443931	-0.0628619070066551
2.6	0.98361485925558	-0.138758630031733	2.8621554558153E-06	9.19712713696411E-07	-1.75224950503125E-06	4.50248195072746E-06	0.996143643072519	-0.0658352669935203
2.7	0.958169289839787	-0.260725631997383	3.82356921470211E-06	1.04457454767834E-05	2.32302413597824E-06	3.8684433970381E-06	0.995647746928125	-0.0688248823150761
2.8	0.917765512013077	-0.378661468836707	-8.13699339364588E-07	-2.29269478854222E-06	2.19235654178836E-07	-1.88791438957709E-06	0.995713347494925	-0.0707680925977916
2.9	0.863295484069193	-0.490223182143373	3.7658879556363E-06	-8.3164224258594E-06	-1.27487278089525E-06	-1.42233680678724E-05	0.995406206715078	-0.0727410908066795
3	0.795237876440972	-0.594679786766924	-1.24953265510003E-08	6.64836654380051E-06	-1.47682511017774E-05	5.30233621975788E-06	0.995314884110179	-0.0751851010497989
3.1	0.715499856073846	-0.688778444790568	-4.98328641995744E-06	7.82224916000667E-06	5.80766725107305E-06	-8.53269779114656E-08	0.99503281370783	-0.077208333931872
3.2	0.622866957702579	-0.773318293247332	9.59942593974491E-07	2.12546817175439E-06	-4.5602976353832E-06	4.77778191552724E-07	0.994765474631339	-0.0789752515193669
3.3	0.520643170799642	-0.845459154732196	7.19543043142442E-07	-1.45931638153845E-06	-4.58092424443456E-06	7.30689574449843E-07	0.994524315317796	-0.0822308074256442
3.4	0.409739718503092	-0.903904837003462	6.46916464618942E-06	2.36771227770888E-07	-8.13311657136939E-06	-7.18234509383004E-06	0.994503662030297	-0.0842309823942064
3.5	0.292705799048051	-0.948028291493036	-7.69785790411022E-06	1.9594679236648E-06	-5.89947725019167E-06	-7.98233741787827E-06	0.994366346946847	-0.0870400942266747
3.6	0.170195095815239	-0.977370829849505	-8.55867270929272E-07	-4.38123126032077E-06	-7.81426583581898E-06	-6.33298536828139E-06	0.994053117638364	-0.0895782289056491
3.7	0.0454064584492819	-0.991322696436027	-6.71401896924308E-06	-6.77057992045294E-06	5.28675852348081E-07	-4.7636066193901E-06	0.993862911736951	-0.0922582491084147
3.8	-0.0803562304041948	-0.989017710254804	-3.64366479160815E-06	1.08245706402341E-06	-3.29616920644656E-06	-2.46590187551265E-06	0.993449751394416	-0.0942750318511632
3.9	-0.204063187644522	-0.970933995436177	-4.80085344417136E-07	3.50780990844596E-06	2.05368222279738E-06	-1.21903228397256E-06	0.993469594032157	-0.0974055893153094
4	-0.324830703237599	-0.937754949509355	1.16807030246896E-05	8.11929711353847E-06	7.2666574798438E-06	-4.04130008949872E-06	0.993116186158414	-0.0988531806964821
4.1	-0.440167021340284	-0.889517892910967	5.21833469102563E-06	1.32307102617518E-06	-3.45762590111036E-06	6.65296784569381E-06	0.992871055740854	-0.100666488941853
4.2	-0.548251551731538	-0.827531355702948	-7.09882862034939E-06	-1.20082075441178E-06	-8.26680779560569E-06	-4.05512492686107E-08	0.99236323422853	-0.103265562838186
4.3	-0.647822617249622	-0.752064990728158	7.02182777376651E-07	-2.36832256713164E-06	5.21359389303239E-06	8.80022229499798E-07	0.99228816000492	-0.105260520838703
4.4	-0.737180564658119	-0.664370719802398	4.47344115125362E-06	-1.77488096189238E-06	-8.68320781877384E-07	1.34698051689467E-06	0.991868999846205	-0.10765216178765
4.5	-0.814924211553897	-0.565958693105752	6.78588558626806E-06	1.86665022216407E-06	-8.05114505849201E-07	-3.25748475401115E-06	0.991836965663984	-0.109744298188666
4.6	-0.879849490305235	-0.458542697087322	2.45663551104717E-06	2.95131631602726E-06	-6.58702487362829E-06	9.74919817341508E-06	0.991599141923951	-0.112578064762306
4.7	-0.930594882543274	-0.343029327200484	-1.40513664019397E-05	5.92045673898245E-06	-3.4625471309062E-06	-3.377649749934E-08	0.991523666176204	-0.114735409977518
4.8	-0.966256990947305	-0.22256753936384	-3.16265684954098E-06	-5.14262080624699E-06	-5.52384133108001E-06	2.36648848889062E-06	0.991108609319797	-0.117287282310384
4.9	-0.985960480656367	-0.0990347142696699	-1.02257466251203E-06	-8.55223659969536E-06	-4.22123631123244E-06	7.40672466897128E-07	0.990712264954111	-0.119114072790534
5	-0.990234278264697	0.025147753569814	7.55075254511194E-06	-1.57137275475507E-06	-1.75269143213551E-06	-2.72167506712589E-06	0.990566635391083	-0.120720504755066
5.1	-0.979092778208413	0.150174278740771	-2.60155417634821E-06	-6.39384757087991E-06	-1.00886470555192E-06	-1.95303856569971E-06	0.99062303252822	-0.122150795506397
5.2	-0.952719080583755	0.272054624675442	3.99737700992856E-06	-4.36535266971788E-07	-5.43873842191716E-06	6.30776394262037E-06	0.990433194862502	-0.124494397496756
5.3	-0.911442341297237	0.389750903882288	5.13977059966438E-06	6.00703442459443E-06	-9.60677208819976E-07	-3.58617176355148E-06	0.990115218619087	-0.126917145250664
5.4	-0.855623148529405	0.501413660041861	3.06235093554686E-06	-2.01687631729414E-06	-1.13147129208875E-05	2.20134899022989E-06	0.989942406693026	-0.129716402611012
5.5	-0.785695333496128	0.604898411865481	-4.32528850893758E-07	-2.19453433178114E-06	-5.78726083451186E-06	6.12669579298455E-06	0.989676859325626	-0.132501858276031
5.6	-0.703109719862808	0.698592521474023	2.38151047776262E-06	7.30412013508191E-06	-5.37431382126218E-07	2.92956609351673E-06	0.989416581672291	-0.135022770059215
5.7	-0.609692236047475	0.781495780971215	-2.57131840013254E-06	2.36162352904395E-06	7.91244613227853E-06	2.77763489247972E-06	0.989163175814992	-0.137439695221422
5.8	-0.506399740652901	0.851415501339096	-4.64775051186006E-06	5.10519947200132E-06	-3.65778381926543E-07	3.42261058194854E-06	0.989021200779201	-0.13964320465392
5.9	-0.395550157345259	0.908095482268718	6.35798333097594E-06	1.49805441960565E-06	-2.71110050336033E-06	2.54739881581803E-06	0.988746649849883	-0.141943237401345
6	-0.278717895062496	0.950207887541543	3.52382701205405E-06	3.29872667948958E-06	-3.28455009656677E-07	-1.43389134735756E-06	0.98833777804396	-0.143651254720426
6.1	-0.157652505739343	0.977266743669513	9.17481860582203E-06	1.52084477931054E-06	-1.28147387948292E-07	-1.80816203269593E-06	0.988273001180649	-0.144997616329058
6.2	-0.0337559845508016	0.989083274323573	2.43815179569391E-06	-1.73008566364929E-06	1.47830238915981E-06	-4.84391106012333E-06	0.987937810052925	-0.146432502407281
6.3	0.0907169433315311	0.98540070511614	-4.35699686286258E-06	4.24398431180743E-06	-6.15299238915354E-07	-1.72418936156983E-06	0.987517154886458	-0.14841517892288
6.4	0.213649759957303	0.966144327910007	-4.26239934775706E-06	1.07006040738272E-06	-1.75909043271658E-06	8.83903385706578E-06	0.987067366253356	-0.150519580479544
6.5	0.333274615358391	0.931866400165171	2.45052756727859E-06	-1.33017479194356E-06	1.4865205999321E-06	-2.927969100455E-06	0.986846463991426	-0.153181181539679
6.6	0.447461674522585	0.882628749116376	-4.73057141750096E-06	-2.25505330961167E-06	-1.86117782780753E-06	-6.63545891413237E-06	0.98665599195579	-0.155841482223797
6.7	0.554294919459278	0.819486616245317	4.16012026681955E-06	-6.58182066338969E-07	-4.67315275437865E-06	1.00784018545534E-06	0.986394952191957	-0.158278494905947
6.8	0.652355502825902	0.743652913288017	3.75551776355693E-06	-2.07652983035632E-06	6.21038428988439E-06	-9.19507039336558E-07	0.985917170317066	-0.160608256952188
6.9	0.74008590310273	0.656249135116136	2.04609055328072E-06	1.64063400005313E-06	8.77802471590338E-06	-2.75135630413866E-06	0.985533526962142	-0.162704687521494
7	0.816114030643942	0.558480534553296	2.17056050476295E-06	4.0945590654525E-06	-9.44853249924451E-08	5.37956155796077E-06	0.984951558740805	-0.1644919777467
7.1	0.879221557936184	0.452413066703109	-1.33719436350555E-07	1.71576781859791E-06	8.25447431690705E-06	-4.63673470145881E-06	0.984435147937667	-0.16612570177707
7.2	0.928611601634359	0.33900624296366	4.84442429974763E-06	-1.38876061339367E-06	7.24768060205655E-06	3.78351465070151E-06	0.983868706782542	-0.167811955546648
7.3	0.963137886694884	0.220272585454966	4.85801254275907E-06	-1.10262434937879E-06	-7.32727593178221E-06	-7.3818062567408E-06	0.982948113298371	-0.169528406109405
7.4	0.982799007227711	0.0977722491711418	-1.85129933411784E-06	9.88499929365656E-06	1.43740709761238E-06	-4.06379393819619E-06	0.982085463904698	-0.171770399700896
7.5	0.987077198648262	-0.0263879814743099	8.38545815036775E-07	8.07068536192178E-07	1.67066213946478E-06	9.94927850566955E-07	0.981327849614036	-0.174158943030897
7.6	0.975823683626246	-0.150554520242444	1.45676775954509E-06	-2.61239982323484E-06	-5.41435326797445E-06	-3.63024525558885E-06	0.980865946082943	-0.17722212924471
7.7	0.94903606213737	-0.272529141395457	5.56915507088282E-06	2.41143047043515E-06	-6.83158660914171E-06	1.20400305059033E-05	0.980449228716387	-0.180531818481761
7.8	0.907285823307938	-0.390128053964258	-6.11350003926831E-07	-5.24151783313157E-06	3.73489948861651E-06	-4.73453468096467E-06	0.980237594530408	-0.183845393421784
7.9	0.850763919463996	-0.501387985632761	8.84878328702777E-06	1.52816932089375E-06	-9.53240002191501E-06	-8.63436900638503E-06	0.979882955580315	-0.187212016318779
8	0.78082210325422	-0.604333489135367	-6.65255647062629E-06	-1.62667387886413E-06	-1.19989510516869E-05	2.49835714629713E-06	0.979238962102034	-0.190274072814527
8.1	0.698791442441888	-0.697387967140353	5.0704742581237E-06	7.2928397289933E-07	2.88915295946641E-06	2.2589424640997E-06	0.978516985863813	-0.19279021211115
8.2	0.605964599049217	-0.77936652115301	3.5604157881011E-06	-2.57180439637964E-06	-3.67558599383488E-06	-1.16018741831602E-05	0.978143746274287	-0.195015429829006
8.3	0.503384098630679	-0.849135918339492	2.72504694942732E-06	-1.85483677502437E-06	1.6348623745418E-06	5.28643126467292E-06	0.977586448723855	-0.197575739288178
8.4	0.392754795319396	-0.905372463186593	-5.54612371193957E-06	-1.02024657762176E-06	1.05323869880604E-06	2.94828165125515E-06	0.976878954963308	-0.200155494554519
8.5	0.27547759087696	-0.947276569833941	-3.28568890901602E-06	1.62127916278649E-06	-4.78430965532382E-06	-4.99961905323055E-06	0.976246067963848	-0.202806548703995
8.6	0.153615595473722	-0.973969509902738	-8.13161603759679E-06	1.38083988772047E-06	-4.33343040218453E-06	-6.85618848846925E-06	0.975845845417401	-0.20542107246594
8.7	0.0293789432928913	-0.985226983440977	2.24459223717407E-07	-2.14344157650526E-07	6.11162549816782E-06	5.11207501608214E-07	0.975440201348599	-0.207964697799435
8.8	-0.0952782421141311	-0.980689348932537	1.02443851166754E-06	-1.81594146307339E-06	-2.38766130357242E-06	-1.28033088447809E-06	0.975087583813129	-0.210224312186381
8.9	-0.217829706857572	-0.96114575897692	-3.03543980394623E-07	3.03208133335154E-06	-1.23148873479698E-06	-1.6411931741712E-06	0.975085657528613	-0.21234131989909
9	-0.336505089687984	-0.92621966621855	2.97357191230449E-06	1.59038299265623E-06	-1.57690883705385E-06	2.11142510134498E-06	0.974967266773668	-0.214737356561004
9.1	-0.449851517810301	-0.87707819106764	-9.31157616434098E-06	2.25080367142184E-06	-1.56699184404746E-06	2.40632664771616E-06	0.974700390861531	-0.217004427079621
9.2	-0.556645071544818	-0.814113668940434	7.50454121086822E-06	-2.21013908575051E-07	-9.10916424919121E-06	1.95304872972446E-06	0.974182690841348	-0.219678696891834
9.3	-0.654677209214154	-0.738253886956772	8.87652709151441E-08	-7.16475949471453E-06	1.58911237449271E-06	-1.29787013893251E-06	0.973690378563684	-0.222199102045119
9.4	-0.742428967835333	-0.650530257446651	5.96269673867663E-07	2.48516437097377E-06	1.62251007515235E-06	-3.59679504054656E-06	0.973001331142407	-0.225058906044718
9.5	-0.818238702656703	-0.551982070956245	-2.87836640085907E-06	6.64532551014113E-06	4.72726956651245E-06	-1.36518983026825E-06	0.97227398897936	-0.227841537394426
9.6	-0.880863148496504	-0.444283185047853	-5.02251605921926E-06	-5.20862707604597E-06	4.76043579686448E-06	2.88529486287578E-06	0.971634923011765	-0.230875360506052
9.7	-0.929622873271491	-0.329369621083533	-1.99933807051302E-06	-5.07607143364686E-06	2.09739641738221E-06	1.15620664933249E-08	0.971010243273597	-0.233483507943272
9.8	-0.963840996521915	-0.208730266803756	5.9526864945719E-07	-4.28603480089621E-06	-2.94063027315934E-06	-2.51979165038948E-06	0.970662307330911	-0.235580340865369
9.9	-0.982264154207826	-0.0845685614467397	-6.11712935543028E-06	4.20750928744494E-06	-3.08561271997954E-06	1.66409423527146E-06	0.970228946903256	-0.237463228138473
10	-0.985188683396863	0.0402150731399294	3.57331792490218E-06	-4.02485936243677E-08	8.22745482823156E-06	1.11105075465619E-05	0.969875393076153	-0.239100495554575
10.1	-0.972129376043576	0.16456975282522	-2.85868419153803E-06	-2.52501615246773E-06	-2.00958776425879E-06	-2.49984609452761E-06	0.969371746783982	-0.24073824949969
10.2	-0.94344834867788	0.286410535279151	2.35834993965137E-06	-1.02113262117776E-06	-2.7696276127771E-06	-1.06800312653093E-06	0.969088793752846	-0.242192341305811
10.3	-0.899519019098626	0.403546031735436	7.76601774699574E-06	-5.95239779661669E-06	3.86083646839074E-06	8.23704491756361E-06	0.968603966076541	-0.244102479403787
10.4	-0.841694982491398	0.51387555654122	1.70661050752094E-06	2.51067240010745E-07	6.27980261057775E-06	-1.18685415941841E-06	0.96783429123254	-0.246351769032957
10.5	-0.770716393026736	0.61609586239935	8.35391274447571E-06	-4.14052185093015E-06	-4.95063547819622E-07	1.97303423491502E-06	0.967054241974021	-0.249050391618206
10.6	-0.687905258599331	0.70795043630995	8.94009176455437E-06	-1.26645151423423E-06	-1.48266441020903E-06	1.36462524617261E-05	0.966024801471236	-0.251975220529074
10.7	-0.593813738692964	0.788829770658408	8.02023439963869E-06	-1.90142239598991E-06	-3.05329468487551E-06	-5.28419306675398E-06	0.964850742953499	-0.254661022975209
10.8	-0.489123469963876	0.85757228810014	2.45096483048426E-06	5.24957241641475E-06	-3.62889613028961E-06	-2.0564837729679E-07	0.964091188681711	-0.256323413620927
10.9	-0.376281927637576	0.912450919527583	-5.5595784007036E-06	4.8525073219749E-07	1.59723563372782E-06	4.02912845171173E-06	0.963637438965153	-0.258021927508859
11	-0.25794322494987	0.95227181284372	4.01734192421729E-09	-5.22287997244248E-06	-8.38211854602604E-06	2.23075618089034E-06	0.963196693487187	-0.259582387391068
11.1	-0.135633139902354	0.97729782839334	6.31186314535227E-06	4.08979248605875E-06	-1.90342021241397E-06	1.07626281603464E-05	0.962715472309661	-0.261176776024864
11.2	-0.011557920537567	0.986513069638226	1.57891907441726E-06	1.35500286122877E-06	5.13875604446316E-06	8.9028045885022E-06	0.961919631455047	-0.262939276793675
11.3	0.112571529568761	0.97971201207799	-4.62164692867682E-07	-1.73722626406986E-06	-6.9841925663497E-07	-4.39510459731276E-06	0.96136294819572	-0.26470903749952
11.4	0.234739300557555	0.957934972359603	2.21800583190959E-07	1.18573362004339E-05	2.42127370506668E-06	4.92840781971586E-06	0.960507157428709	-0.267220003670155
11.5	0.353631008282471	0.921172484994603	6.19288911406134E-06	-3.23506825563723E-07	3.16939954855102E-07	-1.8813869128251E-06	0.95954258024334	-0.269905053618752
11.6	0.465815479205132	0.869797353228487	-6.00091919647055E-06	3.07006752582588E-06	-4.86662277167086E-06	1.91393170801663E-06	0.958395720002198	-0.273293827991719
11.7	0.57059284925919	0.805429347394459	3.32457161414894E-06	-1.79296194409939E-06	-1.70603194946182E-06	2.23435887540546E-06	0.957338874956669	-0.276782069401881
11.8	0.666681485539633	0.728018811571664	-8.27671185884508E-07	9.78416233485239E-06	-2.72195868859853E-06	1.05264326963625E-05	0.956430970776845	-0.280303197238644
11.9	0.751882392801632	0.638628850316801	-7.28941437580743E-06	-1.0442275410539E-06	-3.92006671485652E-06	1.12364992984116E-05	0.95606057355113	-0.282962743326728
12	0.825171696412465	0.539347570601866	-6.46099514695247E-07	1.38115157131522E-06	-3.13421907943179E-06	-1.92856002049133E-06	0.955287438596714	-0.285726133710435
12.1	0.886116258235618	0.431852133071508	-3.8835026730956E-06	4.9865136544625E-06	-1.34545154731062E-06	8.41698282707066E-06	0.954188512164987	-0.28792857255651
12.2	0.932871971701052	0.317290786517308	-5.75437657077556E-07	-3.80056901234271E-06	-3.11544306367351E-06	-7.32747545809569E-07	0.953320611825751	-0.290382897116131
12.3	0.964892147662391	0.198489659767617	3.5981432980221E-06	3.43494466914183E-06	-3.4384787879354E-06	6.26941867582394E-06	0.952335874479673	-0.29298501144256
