# GHZ S RI R 50
0.2	-9.56930989121763E-05	-0.000388436523086904	0.950467795585655	-0.307532820119784	0.950241389744759	-0.307675074722939	0.000130847028012504	-0.000304319825059434
0.3	-0.000510178642333727	-0.000176762802250903	0.890927514282683	-0.451408400342105	0.890789926616469	-0.451461826987483	-0.000234657448926147	-0.000569909921098277
0.4	-0.000696144205253832	9.66576155063954E-05	0.809860943628234	-0.584155410624441	0.809901278154633	-0.584295251940071	-0.0004709868167866	-0.000528078404285192
0.5	-0.000756306413419822	0.000879406307544635	0.70906786481353	-0.703373497965895	0.708957066082697	-0.703469655495709	-0.000326722051200499	-4.64641353078016E-05
0.6	-0.000325748117615562	0.000725220493574929	0.590718631702014	-0.80466209977608	0.590528668930693	-0.804665111117551	8.0597183149622E-05	-0.000575418534589657
0.7	-0.000565581572134943	0.000960726753959452	0.458570001403679	-0.886406028476832	0.458495823180382	-0.886440532928784	-0.000166231498299306	-0.00106355282664295
0.8	-0.000507039871131392	0.00103426559354359	0.315228787811427	-0.947015471540482	0.315109903637016	-0.946928588730805	-0.000569589668818975	-0.00135250527927929
0.9	-0.000809447156626692	0.0013540124979181	0.163956901024469	-0.9844983567077	0.163807489118123	-0.984455406667859	-0.00144756476417891	-0.00164237254023852
1	-0.000864052745003681	0.00254942138768057	0.00867812560102707	-0.99726743966063	0.00855979434328511	-0.997237670169934	-0.00229520395843555	-0.000480576757397445
1.1	0.00088141616145782	0.00243707300733728	-0.145171273734144	-0.986560594518309	-0.145820293051144	-0.986525543627181	-0.00132111237083498	-0.000311159534822796
1.2	0.00146886182354961	0.000652812350326841	-0.297606036072557	-0.95203365729511	-0.297599045927324	-0.952089483878435	-0.00103557352811629	-0.000874213132503541
1.3	0.00184348116943676	-0.00162862978134761	-0.442014087239707	-0.89399327448734	-0.442106446418354	-0.89401777611665	0.000123926219346525	-0.00106739320025055
1.4	0.00163248395637743	-0.00410431917244646	-0.575296278596205	-0.814109546720017	-0.575370198326196	-0.81400968323809	0.00143921027125567	-0.00203024518181909
1.5	0.00201105274815926	-0.00534017849224194	-0.694275758896898	-0.714963792278116	-0.69430041152705	-0.714891572510138	0.00333380082516185	-0.00353633093207115
1.6	0.000288118535850036	-0.00647302534709532	-0.797160197789939	-0.599079081496653	-0.79759089402353	-0.598576791433581	0.00150428971244432	-0.00569928581913834
1.7	-0.000681822853658895	-0.00525599866792397	-0.880595313443715	-0.467418649254872	-0.880900177353584	-0.466926872089394	-0.000295401624791389	-0.00524416658879461
1.8	-0.00115566398338375	-0.0043622468601201	-0.942443461464911	-0.324233024428945	-0.942458947185527	-0.3242235106184	-0.00167020654438403	-0.00473597783983809
1.9	-0.00135972661671245	-0.00300857964476802	-0.981186978433051	-0.173906628726306	-0.981231690686813	-0.173959478604311	-0.00270508588354635	-0.00345989516063902
2	0.000267526606029068	-0.00238071988959259	-0.996785520711395	-0.0199528561906131	-0.996879730442029	-0.0193007235178365	-0.00150992661086213	-0.00235563436545062
2.1	-0.000285361568784311	-0.00407756288684673	-0.987252735114543	0.13734845372886	-0.987353951635988	0.136862706364339	-0.00211545090190702	-0.00392194045109868
2.2	-0.00182500751355274	-0.00396971593637096	-0.953510810226449	0.288316630648025	-0.953549315470218	0.28845094277317	-0.00365262200467287	-0.00360071615095283
2.3	-0.00284069829031382	-0.00337972075511463	-0.896950440209954	0.432785572028408	-0.896785811288313	0.432873798574136	-0.00478043863203915	-0.00287212875757645
2.4	-0.0040962612411101	-0.00237472228038847	-0.818327043978202	0.567572848209638	-0.818620962780325	0.567110336658604	-0.00588442120732518	-0.00158459667190735
2.5	-0.00342277234337228	-0.000326936566402387	-0.719595013954225	0.688462485350878	-0.719900114378823	0.688081944593505	-0.00462662715722987	0.000454975618166514
2.6	-0.00280635506470245	-0.0011817794961593	-0.603452450050098	0.790590541733728	-0.60337332958787	0.790530632248476	-0.00299849915892861	-0.000727939667443522
2.7	-0.00326093066615332	-0.00128010518219025	-0.473294667147481	0.874204704615019	-0.473265066701452	0.874218683098816	-0.00319769215141003	-0.00166914604870821
2.8	-0.00364934344555757	-0.001119866612864	-0.331790022629514	0.936918092823303	-0.331671193496805	0.937002157647754	-0.00358717040587848	-0.00199275799727734
2.9	-0.00320629592472861	-0.000654447508314875	-0.181669264572121	0.976820071412801	-0.181664495332796	0.97687492381771	-0.00363175726171753	-0.00146865930777498
3	-0.00248315172643272	-0.000821010697918137	-0.027167252592925	0.991687591264112	-0.0272311450895199	0.991759434970403	-0.00281439718581379	-0.00129515795286678
3.1	-0.00228711192781337	-0.000697633913961043	0.125312187805781	0.983695476871051	0.125960621773207	0.983773379222915	-0.00279565821218574	-0.000980960192652687
3.2	-0.00173732333473896	-0.000520487355296535	0.277203792242469	0.952104320156114	0.27719404415064	0.952143964137372	-0.00228916882416622	-0.000350224437301116
3.3	-0.000821555833971959	-0.000619164069634506	0.422418194887854	0.896736340879861	0.421797352744801	0.897021244437019	-0.00128456281569959	-2.03446975065805E-05
3.4	-8.65029410440155E-05	-0.000763323427335884	0.555591568608237	0.819757386965521	0.555507400344586	0.819873034635964	9.14744160924423E-05	6.90685958332139E-05
3.5	0.00148880033631828	-0.00200125048230419	0.674680992546933	0.723981560126297	0.674695316586365	0.724007647297355	0.00209411934237065	-0.00142735907208134
3.6	0.000466415604020055	-0.00348847545222145	0.779060317337045	0.611257222771133	0.779480161818163	0.610861561126791	0.00132128607579834	-0.00342218387087251
3.7	4.83246940404549E-05	-0.00374383906143529	0.864708972563288	0.48172871405966	0.86471662204125	0.481855045894112	0.000678591232860128	-0.00386139745193602
3.8	-0.000505968058123797	-0.00402865077055022	0.928301558464781	0.341411442256195	0.928330844981565	0.341594246484783	-5.68217216592476E-05	-0.00431470993175744
3.9	-0.000669969356043447	-0.00385505588456566	0.969556310814053	0.193099227732338	0.969460874002126	0.193686277575338	-0.0011064413975544	-0.00426885682561837
4	0.000428297778431754	-0.00403081413698052	0.988638247614542	0.0412948280121557	0.988720329332869	0.0413374074156156	-0.000171276191386602	-0.0042728969582333
4.1	-0.000258801575449782	-0.00624474612191179	0.982518208398059	-0.11379600974775	0.982456560496818	-0.1137317413139	-0.00128099426194729	-0.00662023250437651
4.2	-0.0020776670807608	-0.006826238268662	0.951735847368532	-0.265228985012479	0.951932082214649	-0.264662272442111	-0.00343540880874245	-0.00715987250817781
4.3	-0.00356608270922272	-0.00730495322929308	0.899032002259228	-0.408693774583695	0.89903297168291	-0.408675306044542	-0.0055831953690728	-0.00733698552472891
4.4	-0.00575638910392587	-0.00699791998112845	0.824949756056723	-0.543098598063568	0.824870158868262	-0.54308229613567	-0.00831136204543186	-0.00644300862757723
4.5	-0.00632490476410981	-0.00566096634091662	0.729708900377906	-0.665501308950143	0.729586737300732	-0.665354882240016	-0.00920453638780931	-0.00398239060599532
4.6	-0.00716135239868777	-0.00621950911874878	0.61656423378183	-0.769109296248218	0.616551199310071	-0.768880880848339	-0.00959793831737197	-0.00388396555096206
4.7	-0.00891014032219816	-0.00622553535846963	0.489980061598217	-0.854749009601378	0.490097897105342	-0.854506274325977	-0.0113242725143396	-0.00330920114466396
4.8	-0.0106264418708837	-0.00536801035075195	0.351295338550107	-0.920006858062323	0.351588484470785	-0.91982092353048	-0.0127020893697092	-0.00196886505729028
4.9	-0.0116824448932233	-0.00432947088766118	0.203840605110954	-0.96273034490725	0.20409922012055	-0.962681101250844	-0.0134520883133732	0.000140500043350106
5	-0.0120324105025668	-0.00336407821493017	0.052350054501432	-0.980595474970166	0.0525078147335142	-0.980469433104044	-0.0127598871332909	0.00225143747409757
5.1	-0.0128264045431963	-0.00267519866084431	-0.0984287567378455	-0.976865637597331	-0.0981098690801014	-0.976804544047769	-0.0125144106393425	0.004103627595485
5.2	-0.0131528483367486	-0.00100917739778761	-0.248595399870901	-0.950125902279881	-0.248171502177304	-0.950248435435029	-0.0116213033821858	0.00701630729327665
5.3	-0.0129229793603814	0.000422684788985191	-0.392754129485856	-0.899895733652191	-0.392468396149002	-0.900238554659177	-0.00943515009610307	0.010017054431671
5.4	-0.0119203242325429	0.00246137671484621	-0.526954051616549	-0.827540476611014	-0.526820004115845	-0.827827958768445	-0.00580000475172831	0.0127977930443856
5.5	-0.00961389532262012	0.00190359219689887	-0.647184502777229	-0.736721025059269	-0.647135211280201	-0.737032178610032	-0.000257934572386257	0.0119542238435483
5.6	-0.0115033736289108	0.00173653655053105	-0.754390818464238	-0.628371839946393	-0.754404244380689	-0.628540961952036	0.000304390451670411	0.00991654128064131
5.7	-0.0123394703086821	0.00373565344189375	-0.84278681657575	-0.503495969403492	-0.84276330741679	-0.503669811626397	0.00131898885721888	0.0104689754973467
5.8	-0.0123795234917282	0.00615701140054856	-0.910082610660311	-0.366725311442705	-0.910127118597861	-0.367015237322497	0.00300313092278054	0.0110621981055149
5.9	-0.0118053145839762	0.00904748606221804	-0.95555959110189	-0.22219857072608	-0.955679010485197	-0.222246269529905	0.00508274946664856	0.0123375427021179
6	-0.00792787194465686	0.0111504213164984	-0.980088522599192	-0.0719674086776901	-0.980085355911457	-0.0720356839473861	0.0107674613338916	0.012346841740678
6.1	-0.00702676058210258	0.00966014439300782	-0.97895957729774	0.0820954437504061	-0.978962689206131	0.0819927396087879	0.0131799931006197	0.00745311983498393
6.2	-0.00701487710397553	0.0103096700804079	-0.953733636410836	0.232544356212309	-0.953781200773357	0.232363827837386	0.0134407996272167	0.00407648252364862
6.3	-0.00682835224430968	0.010958351799614	-0.906304955512462	0.377028623952753	-0.906328894526772	0.376900777717829	0.0129718679680919	0.000860793745484016
6.4	-0.00639926729686751	0.0120445723561143	-0.83764879917639	0.513001572718482	-0.837639608494321	0.512789313867235	0.0116418104252121	-0.0017011252500273
6.5	-0.00515608326129844	0.0126582842693914	-0.747148691959313	0.637883499702243	-0.747248434645678	0.63771205079285	0.0106484217110165	-0.00403744025564704
6.6	-0.00393405912717821	0.0131240580307652	-0.638569747166673	0.744405260429116	-0.638716866427816	0.744260079699497	0.00891108044324202	-0.0058959180566806
6.7	-0.00218532316500126	0.0132335392275333	-0.516286505939718	0.833968546506975	-0.516406332425881	0.83381211534132	0.0074082316038759	-0.00713106118323452
6.8	-0.000338439006853802	0.0127732818816362	-0.381151409830219	0.904169646946294	-0.381360845898127	0.904094357542598	0.00581386597523851	-0.00829192213720581
6.9	0.00125022494646962	0.0117129825918284	-0.235973078763972	0.952648976666834	-0.236222177700282	0.952644405245525	0.00431821850622083	-0.0091264116939794
7	0.00245382597872524	0.00995962207553365	-0.0853609576579062	0.976060458170991	-0.0856170681911548	0.976029738679808	0.0024873493232459	-0.0106041275730901
7.1	0.00242805995798877	0.00885709045868269	0.0650332497983066	0.978073517831242	0.0648282210958218	0.978060370676168	-0.00046643270626886	-0.0106857695167089
7.2	0.00291637396256178	0.00802548078232879	0.215871946086724	0.957041566949737	0.215618074761748	0.957083813990631	-0.00249037140068359	-0.00973138186750514
7.3	0.00295434563553445	0.00691079934140541	0.361789605278297	0.912180066789963	0.361550392896864	0.912268790111188	-0.0041818436834606	-0.00849712179764937
7.4	0.00300145300453586	0.00611956975582508	0.498385487468723	0.844579099363801	0.498167724100391	0.844738507236946	-0.00548866233621464	-0.00682596940714711
7.5	0.003231174449265	0.00464963438620489	0.621668039352263	0.758671587235593	0.621507580423824	0.758840897894866	-0.00563890051466552	-0.00558536570865975
7.6	0.00201787127135741	0.00321057963370832	0.733431969294165	0.65451216140984	0.733216115155174	0.654670395629721	-0.00690367754132156	-0.00498665397381258
7.7	0.000659387101479603	0.00318688384802765	0.826567381958027	0.532685903971053	0.826415264974117	0.532878747828301	-0.00805947364264896	-0.00287718969409039
7.8	-0.000141753798608452	0.00382224243905581	0.899336822763712	0.398160194630045	0.899214435333377	0.398379881277595	-0.00818144602499	-0.000234823747239357
7.9	-0.000653229991930469	0.00534143257882255	0.950281003375687	0.254905948898028	0.950238452683051	0.25513023767339	-0.0071154856131979	0.00341363858208018
8	0.00218334885768416	0.00651049052603165	0.98078810816847	0.10479009935539	0.980855593673826	0.105082648045515	-0.00260286625401929	0.0060545878084604
8.1	0.00210834268418679	0.00447791488629442	0.985214513687239	-0.0503446619601991	0.985336320454166	-0.0500725215046557	-5.23309421830058E-06	0.0039300437146354
8.2	0.00131954087932886	0.00451963627806101	0.965174113924766	-0.202479351017984	0.965237443132551	-0.202183048753178	0.000597110932584579	0.00320054603254828
8.3	0.00062232167374015	0.00495913127583547	0.922518465361956	-0.349556352118041	0.922653731672594	-0.349299204619427	0.00114432457387205	0.00250213616722339
8.4	-0.000164747437885735	0.00610354912077047	0.858308638138196	-0.489005309636383	0.858518795549256	-0.48880332965137	0.000837040425735834	0.00233837153943565
8.5	0.00149603167445054	0.00863879845501372	0.771242812382803	-0.618269972911989	0.771357931714071	-0.618143034064568	0.00313984007397409	0.00385577675637278
8.6	0.00318292950840208	0.00709561155914182	0.665132983498271	-0.729168935941455	0.665329054625856	-0.728982019157886	0.00538989262991153	0.000492532592755358
8.7	0.00295320279027413	0.00693185233273325	0.544714924109065	-0.823493611435437	0.544996040662519	-0.823381939482759	0.0047066240291861	-0.00184756557190228
8.8	0.00355980975699893	0.00704881170661085	0.410721493000927	-0.898848439976234	0.410927469122665	-0.898792238747122	0.00340451902457544	-0.00336057533252923
8.9	0.00420724957525657	0.00709419582652262	0.265411956491421	-0.952614610829345	0.265653337861497	-0.952472152507721	0.00177757462039596	-0.00371568742353486
9	0.00620115859340711	0.00693477885692582	0.113807562908728	-0.980444104834412	0.11416975083122	-0.980411816291364	0.00165703157662829	-0.00273923633890812
9.1	0.00769176399537558	0.00547748640316353	-0.0379055024920734	-0.987220406790466	-0.037552267177126	-0.987231952075176	0.00194794111321461	-0.00267772855688519
9.2	0.00951997983366927	0.00391748412423723	-0.191352369507213	-0.970470554087148	-0.190994807488171	-0.970538520129981	0.00323197771637852	-0.00195951505489018
9.3	0.0110608345938947	0.00152354127950667	-0.340543240128486	-0.929157837372051	-0.340184292698333	-0.929219767792905	0.00549410789058802	-0.00210074573677707
9.4	0.0120088881489848	-0.00120944246205545	-0.480625534254626	-0.86423847950561	-0.480300188980821	-0.86438453915048	0.00786272447883005	-0.00281799049946262
9.5	0.0128358025274901	-0.00607215561568604	-0.607411942561913	-0.78055220592705	-0.607203798338372	-0.780688138637133	0.0110342393813849	-0.00682899309705305
9.6	0.00828482734588936	-0.00997737926778552	-0.723385121491045	-0.677765279107506	-0.723109192614697	-0.677948912512601	0.007543849722549	-0.0108758136837651
9.7	0.00469437951284758	-0.0103367474728709	-0.820548599435337	-0.556534945896478	-0.820298810332069	-0.556804131705788	0.00476018253360662	-0.0110636418856023
9.8	0.00162424325102291	-0.0103712803953679	-0.897035130040861	-0.422052299848961	-0.89682289253165	-0.42232750281372	0.00261677668394043	-0.010514255682859
9.9	-0.00145643453414257	-0.00866195918212219	-0.951640293170779	-0.278378391545408	-0.951524683740368	-0.278708986210967	0.00116982845171414	-0.00828751877369408
10	-0.00096439079286101	-0.00784353904699051	-0.98607477928288	-0.12725519046403	-0.985991198607379	-0.127636763951001	0.00432054773569699	-0.00713209908584357
10.1	-0.00458113916535262	-0.00921444259262596	-0.993394835350792	0.0297902188126627	-0.99337276782941	0.0293079695550894	0.0033051327212129	-0.0102807059508972
10.2	-0.00815001200154514	-0.0073763854795605	-0.976153250795785	0.183823995516489	-0.976136408671708	0.183370288075073	0.00109623004002789	-0.0103919536357956
10.3	-0.0109418901806882	-0.00454405154036239	-0.936016808614047	0.333253745630345	-0.936151270923319	0.332708048478561	-0.000769351768362845	-0.00996500435627179
10.4	-0.0129694560539773	-0.000980502249690825	-0.873859350285116	0.475489608259172	-0.874125450324363	0.474947543297413	-0.00239146145331885	-0.00860086781182595
10.5	-0.0123576791807346	0.00352577064839843	-0.787798952784069	0.607984173775787	-0.788084665491922	0.607593292370009	-0.000940217257237221	-0.00665391289808577
10.6	-0.011022358457456	0.00528351908680369	-0.68220791564243	0.721524361313335	-0.682637905960193	0.721177918895558	0.000739213340050349	-0.00822109359731194
10.7	-0.0101300402813352	0.00728427315845949	-0.562080699787045	0.818546640839202	-0.56249582979528	0.818256331550146	0.00109194185875841	-0.0101648976722349
10.8	-0.0090147337013417	0.00885940402933111	-0.427736294004958	0.896302151292417	-0.42825144108729	0.896071830369228	0.000359839662400071	-0.0122060639859748
10.9	-0.00757523584187888	0.0109390298868439	-0.281874564872232	0.95220702509999	-0.282366807275277	0.952157164060317	-0.00115692350751648	-0.0133628607101826
11	-0.00509082593386628	0.0118966924660758	-0.129709497478616	0.981706431122978	-0.130259044931263	0.981704439885177	-0.00226895625860894	-0.0146407215569782
11.1	-0.00307086255256307	0.0130703967277701	0.0227285321975672	0.990272648665887	0.0220955903007096	0.990357805753394	-0.00445508642839829	-0.0153843346765388
11.2	-6.33754613135827E-05	0.0135274668995776	0.176782834425384	0.975184417972406	0.176260748128135	0.975390669469494	-0.00606782923923517	-0.0153945207034524
11.3	0.00304537857896721	0.0133584133004416	0.32668573383787	0.935349849941771	0.326254505531966	0.935616102036003	-0.00740226742526074	-0.0148031604362223
11.4	0.00626932557082458	0.0126705075062016	0.467768953673273	0.871813416573462	0.46730362269202	0.872077144228831	-0.0080154010932546	-0.0133038994203726
11.5	0.0104133612556352	0.00970985182411185	0.595464754076397	0.789681238597549	0.595106211758249	0.79010260208901	-0.00663165212492434	-0.0142596026720055
11.6	0.010367905768543	0.00597502537901481	0.71272836313907	0.688151031559599	0.712461869183501	0.68863618742831	-0.0100084213208632	-0.015543495196058
11.7	0.0107048868076977	0.00430722338221552	0.8112595647449	0.567929193059256	0.811021432625747	0.568355540840001	-0.0127591111855786	-0.0138799099635516
11.8	0.0106568291618629	0.00225697301746222	0.888974168064278	0.434217723913654	0.888792577390547	0.434774534431688	-0.0150249377712102	-0.0114736042897298
11.9	0.0104226827269335	0.00182796361783976	0.944805734669413	0.291651080365097	0.944770521717862	0.292198499581503	-0.0165467084771122	-0.00677209157434449
12	0.0131610653224634	-7.71844995546058E-05	0.980901439958336	0.141458410159529	0.980892293879386	0.141941987360784	-0.0121580311185547	-0.00330345458086438
12.1	0.0115172599035606	-0.00450620194831844	0.9897863247286	-0.014836737773621	0.989765773928738	-0.014360165691386	-0.0116607165118503	-0.00468790458639439
12.2	0.00902924721647753	-0.00663350778914085	0.974197496726807	-0.16829473263014	0.974308867666509	-0.167855872404316	-0.0118590671850168	-0.00397157181224763
12.3	0.00652713711777863	-0.00805700873014329	0.935865009247088	-0.317082881089382	0.93605501073543	-0.316724403453749	-0.0117978552108797	-0.00337647945808796
12.4	0.00307619421899218	-0.00859319742161456	0.876049668277394	-0.459118842896086	0.8761869120186	-0.458742726979279	-0.0124156393226138	-0.00222449186737159
12.5	0.0017900125882372	-0.00742099293918129	0.791649605447515	-0.591745990648784	0.792115753710551	-0.591356977890115	-0.0105641504291751	-6.57049204347212E-05
12.6	-0.000335712405280506	-0.00882002803179078	0.688439326494981	-0.705102336048309	0.688790887738345	-0.704796188247356	-0.00943422616357866	-0.00194997111374543
