# GHZ S RI R 50
0.2	-0.00032365752354435	8.94057461609518E-05	0.948351627577085	-0.308052765166045	0.948125478559124	-0.308194496096492	-0.000164983254444563	0.000248536713171962
0.3	-0.00037771206932666	0.000339153010528124	0.88821468996451	-0.451627424881189	0.888077345988373	-0.451680531551371	-0.000188715276111625	0.000110738817733244
0.4	-7.32610332078034E-05	0.00038359612703174	0.806505533622132	-0.583664337519287	0.806545527504409	-0.583803820697907	9.16315467506565E-05	1.06658844620812E-05
0.5	-0.000317877414180201	0.000234972741233676	0.705812877848086	-0.701440240650369	0.705702397962724	-0.701535942574498	6.85360452811139E-05	-0.000424496336306315
0.6	-0.000524319088561515	0.000590974169403588	0.588115516890276	-0.802406663624192	0.587926190960513	-0.802409519506598	-0.000237759027915691	-0.000359290126490272
0.7	-0.000423445642249815	0.00108744473187978	0.456063699396699	-0.883539912801794	0.455989764546999	-0.883574221854594	-0.000134483827111362	-0.000412272555620484
0.8	-7.55899326672413E-05	0.00120216794573682	0.313226416183392	-0.943277960105022	0.313108092351882	-0.943191355337278	-0.000132474578093123	-0.000487117976038408
0.9	0.000357789595300291	0.00154063195764075	0.163090962601943	-0.980031229602154	0.162942236823093	-0.979988457292313	3.41636727524152E-06	-0.000642109701698681
1	0.000839393634926256	0.000739699807578249	0.00903335095547038	-0.993380561932793	0.00891546887434636	-0.993350954528585	9.91682805611348E-05	-0.00174327212823376
1.1	0.000325351123900576	0.000722908011204214	-0.144853817749815	-0.982439992257743	-0.145500143622965	-0.982404900251901	-0.00126580436839623	-0.00197434870797123
1.2	0.000757756884035988	2.46502459769731E-05	-0.296163328741177	-0.947550214711531	-0.296156369398115	-0.947605777409708	-0.00147593724315296	-0.00173402020005801
1.3	0.00105841129425302	-0.00148490284298442	-0.439345643059463	-0.88987805719469	-0.439437537106833	-0.889902491744858	-0.000889580658028079	-0.00120916172741738
1.4	0.00106870360524112	-0.0034342285612828	-0.571869024418889	-0.81096511371351	-0.571942705653637	-0.810865778623228	0.000218882179667966	-0.00132428295583961
1.5	0.000390157103841016	-0.00391500409586088	-0.691052792968788	-0.711914016875543	-0.691077349516222	-0.711842123031505	0.000660714421568623	-0.00152580229974676
1.6	0.000928218819503141	-0.00361623577068097	-0.792203166852713	-0.596134936304898	-0.792631702111234	-0.595635803021893	0.00128365057855217	-0.00136259364944281
1.7	0.00118167722304202	-0.00391418690481862	-0.874742926517961	-0.46605596075791	-0.875046774084259	-0.46556751964744	0.00138819518129219	-0.00202910558040051
1.8	0.000941141753887449	-0.00425215642131231	-0.936503797581877	-0.32431287814856	-0.936519215610712	-0.32430344890712	0.000856996963061749	-0.00282267522769649
1.9	0.000634854099051748	-0.00464767186445497	-0.975467520157714	-0.174835997863711	-0.975511885512374	-0.174888643495523	0.00013031970997443	-0.00374906428268674
2	-0.000968263950869578	-0.00480223330735556	-0.989968137762081	-0.0219140790760223	-0.990063078917654	-0.0212665773091153	-0.0022239994563677	-0.00399781958423516
2.1	-0.00111832808506467	-0.00361283838114384	-0.981270800508626	0.132564828437824	-0.981369441191335	0.13208189218662	-0.00277199581335472	-0.0023304609851184
2.2	-0.00137677925114612	-0.00375168934152717	-0.949113156216224	0.282447293634773	-0.949152018976676	0.282580641169404	-0.00272451671375286	-0.0020224092956735
2.3	-0.00192370426679041	-0.0036842277668693	-0.893753361246077	0.426207528607017	-0.893590082626121	0.42629599650897	-0.002955616176725	-0.00196170807422069
2.4	-0.00264532200063164	-0.00371780775074139	-0.816070617807532	0.560041177774011	-0.816360445593156	0.559580073837726	-0.00315544889212161	-0.00229967562740902
2.5	-0.00410747863303826	-0.00358353934403703	-0.719906955771324	0.679207793735041	-0.72020752754603	0.678827496776509	-0.00442076158124417	-0.00322768802165424
2.6	-0.0050501567826154	-0.00187782705478365	-0.60657111421615	0.782779483415565	-0.606491902360418	0.782720408124567	-0.00551772523259698	-0.00198546887767256
2.7	-0.0046414279415326	-0.00066323003354075	-0.477570676460713	0.867364953148742	-0.477541293187709	0.867379084569555	-0.00550893658135135	-0.00107139114813319
2.8	-0.00400280723089598	-0.000108002812806726	-0.337461563111821	0.93079185995591	-0.337343823211976	0.930876480120375	-0.00505410965805716	-0.000357317371255706
2.9	-0.00290412839128365	6.76300013112232E-05	-0.189312040054597	0.971781705674287	-0.18930775359082	0.971836402250407	-0.00434762861115793	0.000316734048442161
3	-0.00204797193281088	0.000113104122989515	-0.036169415518884	0.990082662777448	-0.0362338754377362	0.990153825762501	-0.00334451069608796	0.0011621196512079
3.1	-0.000593402284873333	-0.000246745262103121	0.117614961989719	0.983616230246418	0.118262109465718	0.983699036308162	-0.00163856720880174	0.00154264065006055
3.2	-2.97791840142083E-05	-0.00108942154773646	0.269254129621716	0.953176012026619	0.269244076139565	0.953215530325098	-0.000662100181273861	0.00113116649842263
3.3	0.000621523710757158	-0.00187792486197472	0.414481901005635	0.899771737295027	0.413859021900089	0.900051151121832	0.000375100086629672	0.00061132031017572
3.4	0.000677168749302891	-0.00283211150580651	0.548773740761495	0.825245378415575	0.548688492838676	0.825360368548968	0.00111667344671465	-0.000413220046518732
3.5	0.000572629160914202	-0.00310699149133628	0.670701146748048	0.729838025224659	0.670715311523452	0.729864253751008	0.00100628787808842	-0.000948626917023164
3.6	0.00107778033035277	-0.00356294413928402	0.77489420000003	0.617082271558535	0.775317037996968	0.61668951621311	0.00184320256364933	-0.00136115542974707
3.7	0.00122093841630973	-0.00464792844631075	0.861678149307618	0.489056025877856	0.861684800675972	0.489182535780904	0.00222588634562253	-0.00252717092167942
3.8	0.000735832909507375	-0.00561114781653699	0.927304240693097	0.349394413517357	0.927332132729323	0.349577786063964	0.00195850725811851	-0.00390043922015509
3.9	0.000375952226606672	-0.00666254046605361	0.97058990265308	0.200378804538279	0.970490111104239	0.2009666309492	0.000896066366709688	-0.00570362825636427
4	-0.00132498821461297	-0.00718468472523924	0.989240420159157	0.0479530885955939	0.989322289653927	0.0479962556016376	-0.00168210264507314	-0.00675062249445617
4.1	-0.00175184359449538	-0.00683612411079997	0.985135133828823	-0.105524234351257	0.985072829745149	-0.105460389748963	-0.00331412967139324	-0.00606880769779924
4.2	-0.00261637153288389	-0.00719686611264847	0.956817250623924	-0.25793672934573	0.95700925716199	-0.25736666582599	-0.0045637375763351	-0.00587355524645244
4.3	-0.00348398678621338	-0.0076087599638125	0.905472133624466	-0.402931350327124	0.905472958519645	-0.402912808981811	-0.00590160901546154	-0.00572642050115622
4.4	-0.00463746394514196	-0.0079603582301301	0.831805418769508	-0.538403149118003	0.831725441232145	-0.538387415170771	-0.00723215299066661	-0.00559770327396792
4.5	-0.00649718384161544	-0.00855718517000508	0.738845920913935	-0.660609111903669	0.738721881750716	-0.660463381756509	-0.00965085812221693	-0.0057973779744988
4.6	-0.00847985891175175	-0.00743749634188648	0.627702592306355	-0.768140750183638	0.627687321540546	-0.767911018468176	-0.0121814512734329	-0.00389111813684002
4.7	-0.00972150665820518	-0.00681710410049583	0.500482575976179	-0.856633814931344	0.500599217824819	-0.85638841227667	-0.0138580343771408	-0.00199889816474931
4.8	-0.0110531313077812	-0.00567078904844126	0.361077502106708	-0.923878825021599	0.361371298857188	-0.923689239534931	-0.0149053920545411	0.000372719890575141
4.9	-0.0116950526584063	-0.00469578978763373	0.213474829878496	-0.968445823983339	0.213735026397622	-0.968394034821044	-0.0149943981672269	0.00304053107896696
5	-0.0122567729763959	-0.00346024145542297	0.0608706491408662	-0.990650927524404	0.0610290722103752	-0.99052225775333	-0.0142584909484659	0.00601572927322162
5.1	-0.0117302384254113	-0.00264091666683806	-0.0943487939086683	-0.988010286263163	-0.0940267597300066	-0.9879468468215	-0.011816946006709	0.00873543563366644
5.2	-0.0115677226901394	-0.00208412489742067	-0.246725385557437	-0.961246961355757	-0.246296471492207	-0.961368781929596	-0.00917539038936037	0.010430009235658
5.3	-0.0115728036488018	-0.00181947917124857	-0.393023004730444	-0.911473576645022	-0.392732621172821	-0.911818864118758	-0.00636335332720408	0.0113783882842334
5.4	-0.0119731971912991	-0.00112496704725603	-0.530305715444007	-0.839746225149517	-0.530168922595139	-0.840036742261216	-0.00420388014215146	0.0115009656285791
5.5	-0.0127545804869703	0.000757284220625218	-0.655100425749467	-0.746424854011736	-0.655050360109947	-0.746739955549834	-0.00316631379958707	0.0127555106236164
5.6	-0.0113239494006691	0.00262220511296543	-0.76229908929606	-0.635147030774394	-0.762312632712669	-0.635317948405689	0.000557528546555844	0.0139062430133957
5.7	-0.0107897972887373	0.00319177954096554	-0.851721529353768	-0.509175293502488	-0.851697714855426	-0.509351002723938	0.00373608909689841	0.0132602821987649
5.8	-0.0104754012107543	0.00426816965692639	-0.920516179383705	-0.370493696408665	-0.92056130967984	-0.370786879656601	0.00644472265611451	0.0119403676943734
5.9	-0.010284676222339	0.00480096340138108	-0.966971908352148	-0.222634167563306	-0.967092797860321	-0.222682148611107	0.00825498905313362	0.00949002199174326
6	-0.0113113165998525	0.00645382067488999	-0.988866441942605	-0.0695885228552725	-0.988863457034013	-0.0696574039795666	0.0071225282412934	0.00777373005158446
6.1	-0.0101713537476017	0.00917959381779796	-0.987844933615801	0.0840878952642973	-0.987848204026759	0.083984251900323	0.00796356734743672	0.00844006060321831
6.2	-0.00867712052091851	0.0107026498750143	-0.962927096755131	0.236821165141722	-0.962975506605376	0.236638903644743	0.00954670911151673	0.00747338375095959
6.3	-0.00723965377168319	0.0116236455761046	-0.91426648657411	0.383709702396301	-0.91429107261708	0.383580640344084	0.0109619097341954	0.00560319331630918
6.4	-0.0057274263347356	0.0119030365433048	-0.84305148348567	0.520890693431075	-0.843043055274486	0.520676512075429	0.011754059346685	0.00255504343160087
6.5	-0.00470188081462351	0.0118054867587448	-0.752387778179913	0.644804025504452	-0.752488706476784	0.644631286026755	0.0113294075443082	-0.00065450267499321
6.6	-0.00326380520508916	0.0117381524722737	-0.643245149124455	0.754641408834459	-0.643394351695568	0.754495094828597	0.0105527982063754	-0.00353538101634366
6.7	-0.00212622582460297	0.0113265356605739	-0.517655966496963	0.845438144185874	-0.517777849587552	0.845280638022008	0.00861812304518885	-0.00617339942438965
6.8	-0.000829192288399967	0.0110625329805985	-0.379736562871718	0.915228088278734	-0.379948486272224	0.915153254287642	0.00603628524991985	-0.00778255547740133
6.9	0.000388210445834581	0.0103607139371044	-0.233240314096991	0.962790988940214	-0.233491768598141	0.962787666863832	0.00345732812281772	-0.00845311657082608
7	0.00185925934861666	0.00980837005311695	-0.0807594750596143	0.988171190541439	-0.0810188112644494	0.988141579312575	0.00121430308855881	-0.00829987243028888
7.1	0.00313127480775853	0.008381849114225	0.0745844978899716	0.988106899265596	0.0743771236938625	0.988095463456498	-0.000511915730277911	-0.0080860477659367
7.2	0.00386213744348885	0.00691874612911711	0.227041234062121	0.963929625132445	0.226785391961494	0.963974694583238	-0.00221466039147895	-0.00738988337902905
7.3	0.00393109012708268	0.00532036513619148	0.373810657108679	0.916767489388358	0.373570182256877	0.916859310641428	-0.00375048970853525	-0.00628722453412058
7.4	0.00368218254591273	0.0039831541752313	0.511823209071316	0.847583231558515	0.511604987753571	0.847746400916961	-0.00521423057803654	-0.004904857887914
7.5	0.00288407239868935	0.00309379747156304	0.637849790499424	0.756722090339496	0.637690274278866	0.756895160821971	-0.00634884540432699	-0.00254966366876458
7.6	0.00297880316919358	0.00242461457885762	0.746551904768055	0.647795055566562	0.746337096091373	0.647957164266433	-0.00551263432654475	-0.000432228697551081
7.7	0.00248929885588402	0.00153655669805954	0.837558415773604	0.524102627928549	0.837408171410339	0.524298408870207	-0.00452902230214211	0.000777685532999434
7.8	0.002052807947383	0.00105499800014415	0.908663267259625	0.387491768724666	0.908543378339531	0.387714079278885	-0.0032857175637462	0.00133904763211053
7.9	0.00125135742940296	0.000640517105714649	0.957431591490216	0.24122458617656	0.957392330106784	0.241450292943881	-0.00257270428440694	0.00106817301247186
8	-0.000373485410135639	0.00108399302628761	0.981731545996687	0.0896655628441334	0.981803475900313	0.0899568774150385	-0.00414098457075495	0.0012744682687566
8.1	-0.000225643237246699	0.0028153691059225	0.983806974831271	-0.0628085417939019	0.983932140251711	-0.062538159476214	-0.00371050782838422	0.0039344092167817
8.2	0.000286133212413674	0.00340417173739164	0.962134753029944	-0.214802388597271	0.962201864806088	-0.214507034438304	-0.00242751797171019	0.00516884923738922
8.3	0.000474890918356371	0.00408635087160295	0.916681078409352	-0.361592542670671	0.916819653969643	-0.361337533223819	-0.000850809297307193	0.00590067936053161
8.4	0.00125018107886836	0.00447485440722589	0.848723793812773	-0.499041731445333	0.848935989637092	-0.498843303071661	0.00121872842622327	0.00554215986805409
8.5	0.000804605850437641	0.00452368252236109	0.761633900114915	-0.623644266420227	0.761749848140966	-0.623519046959337	0.00136713217655764	0.00392480135875421
8.6	0.00169709358727831	0.00608224912493034	0.655610513959318	-0.734956970823402	0.655808230827037	-0.734772632129894	0.00181086008111666	0.00477688685399467
8.7	0.00315751655873395	0.00631665008204641	0.532997782019199	-0.827457611690114	0.533279352046204	-0.827349702050424	0.0034741676806519	0.00456396433349697
8.8	0.00467548553945208	0.0059462870803414	0.398069802172608	-0.899565349508612	0.39827548961713	-0.899511870760713	0.00485120621920086	0.00362059775585273
8.9	0.00612671827365074	0.0050875850930112	0.254100126714004	-0.95000238512358	0.254341621535676	-0.949863215347882	0.00637146756176418	0.002193340699275
9	0.00746310130048589	0.0034350013222082	0.103545959887847	-0.978558303146787	0.103907352627513	-0.978529775127963	0.0071301675099768	1.99506049466493E-05
9.1	0.00875577942744055	0.00161412804173708	-0.0501818072939506	-0.981892162808415	-0.0498304529829588	-0.981908110553326	0.00773631503224431	-0.00184282083369406
9.2	0.00949730461580203	-0.000979289056697029	-0.201558892248594	-0.961475855342293	-0.201204614078981	-0.961547599448945	0.00776417332739159	-0.00401271905739673
9.3	0.00943487636861041	-0.0032271666062786	-0.347826478975617	-0.918451355638191	-0.347470927155063	-0.91851663064814	0.00715432044545162	-0.00554077495990468
9.4	0.00899989555983729	-0.00575354671754271	-0.485989494503064	-0.85368229172076	-0.485667776742236	-0.853830604209855	0.00611248259808303	-0.0069659541144578
9.5	0.00740570058044742	-0.00664293831983258	-0.612978927680845	-0.766924473136785	-0.612774081432286	-0.767062084045308	0.00396059097714423	-0.00589406492720104
9.6	0.00757471697810207	-0.00843031785386553	-0.723229554738052	-0.662070638599082	-0.722958746902144	-0.662255421666148	0.00500708931985058	-0.0049433070711272
9.7	0.00578014496438957	-0.0105189103662902	-0.816634098450347	-0.542262258646998	-0.816389754689389	-0.542530811925087	0.0053696411319496	-0.00572172064746337
9.8	0.00337143712840278	-0.0118443213507206	-0.890746025366916	-0.409134501114724	-0.89053868517433	-0.40940852658867	0.0052370598662234	-0.00653269857291214
9.9	0.000501582889156681	-0.012483819466756	-0.943154060646006	-0.265620661892773	-0.943043106622967	-0.265948496345848	0.00480135803228766	-0.00803098965792632
10	-0.00359930467538348	-0.0116819451405053	-0.971498568926259	-0.116413942183434	-0.971419730539048	-0.116790182213366	0.00169581896610125	-0.00830203635435425
10.1	-0.00530661210393822	-0.00933807164841246	-0.977999983015362	0.0345370456024992	-0.977980780327306	0.0340620784723276	0.00148344005409211	-0.00617854345569153
10.2	-0.00690510508187053	-0.0081195897723443	-0.961023390015244	0.185772828756549	-0.961008947607878	0.185325668090545	0.00210206413944898	-0.00598362754331957
10.3	-0.00871493426403682	-0.00622957686543282	-0.920276295360585	0.332544421347405	-0.92041125127837	0.33200762330731	0.00238681103349262	-0.00668907585873437
10.4	-0.00992068139357808	-0.00452948008530082	-0.856941582094074	0.4705292399994	-0.857205104820985	0.469997561171632	0.00244155414571267	-0.00852271782439557
10.5	-0.0118135538991741	-0.00232983142938322	-0.774630286196957	0.596415946164632	-0.774910539407852	0.596031616422567	0.000521749805454788	-0.011022097874827
10.6	-0.0121738707137857	0.000666579647884664	-0.673233149414978	0.709942541023109	-0.673656324477553	0.70960056417827	-0.00162896057134996	-0.0114052173256901
10.7	-0.0119090043306251	0.00378587374754852	-0.554944784943594	0.80564126339507	-0.555353362431222	0.805354650568206	-0.0033451850908123	-0.0112788004430033
10.8	-0.0105639381082235	0.00655300494110649	-0.423454664243591	0.88155201733924	-0.423961372679936	0.881323920339161	-0.00463258673883626	-0.0108373831096657
10.9	-0.00870303025793009	0.00889614506395848	-0.282521557255443	0.936383209774599	-0.283006113036427	0.936331567364585	-0.00570842700636078	-0.0105030948309173
11	-0.00608391073754227	0.0107042917653377	-0.134006867494668	0.970180163518587	-0.13455037420504	0.97017499190957	-0.00665518809601466	-0.00978613640780953
11.1	-0.0027312061466215	0.0117127634594348	0.0189185895888417	0.978681366942358	0.0182928036921359	0.978763256268503	-0.00677544935014804	-0.0093287429191066
11.2	0.000568501051806538	0.0115045387832345	0.169950519391348	0.963621317779657	0.169434098814404	0.963822492958449	-0.00688647699559604	-0.00930177602894244
11.3	0.00370829550508553	0.0107418781336779	0.316786115798807	0.925949799084099	0.31635849216631	0.926210070354937	-0.00686632706078829	-0.00938509403097426
11.4	0.00633205593724557	0.00892798932891176	0.456829299488679	0.866387883383038	0.45636676389848	0.86664563057181	-0.00737797599554856	-0.00977045612542807
11.5	0.0082520708652534	0.00798997822157609	0.586422295542318	0.784126407284047	0.58606568361111	0.784542156824401	-0.00905382799177511	-0.00851237332534265
11.6	0.0113191816469471	0.00556917256441389	0.699644706213146	0.683610816887713	0.699378741553235	0.684088253254456	-0.00827336016586338	-0.00712588954189801
11.7	0.0128985421109737	0.0024594576397246	0.797134458639653	0.567578586108119	0.796895793523227	0.567997986658518	-0.00783375516891834	-0.00715775165857507
11.8	0.0134647127626069	-0.000934335972480724	0.87588299783338	0.437233334394076	0.875698564654544	0.437782717622008	-0.00788809133737214	-0.00765003849225273
11.9	0.0134449457369759	-0.00436501645952513	0.93327926475118	0.295758525105496	0.933240345838112	0.29630025673991	-0.00851979967081878	-0.00896651771316157
12	0.0104295147423382	-0.00680989343853814	0.966681396933845	0.147892656037276	0.966668274442114	0.148369736296447	-0.0126834932835513	-0.00894071065794478
12.1	0.00955584427358253	-0.00808027399434037	0.978667958683682	-0.00269329733160754	0.978641877051404	-0.00222241367250094	-0.0141900725514133	-0.00649824755996004
12.2	0.00747713484126881	-0.00996018888069224	0.966939946369572	-0.15470227277334	0.967044853694457	-0.154266244664359	-0.0152792822241529	-0.00436562582954659
12.3	0.00502029134722231	-0.0107042109885001	0.931154728425821	-0.302855923011651	0.931338654211071	-0.302498419768648	-0.0157254221104303	-0.00192377431968006
12.4	0.00256313123895869	-0.0111576140968661	0.872800687925194	-0.443126743841013	0.872931689286759	-0.44275278896171	-0.0151718494395891	-2.30999823061511E-05
12.5	-0.000434742859393714	-0.0107960554854565	0.794795988428933	-0.572215463456134	0.795250911894282	-0.571821794733328	-0.0158316027639572	0.00113534588136552
12.6	-0.00206081790764126	-0.00919635671765666	0.697139561811888	-0.689672828178661	0.697484070233919	-0.689362155639887	-0.0152131967913334	0.00418513613358878
