# GHZ S RI R 50
0.2	-0.000264311501470003	0.000117681901253636	0.948507540003399	-0.307978499490112	0.948281379444747	-0.308120275180079	-0.000126781646196418	0.00030062901894805
0.3	-0.000294397583689908	0.00037889704984348	0.888427458711243	-0.451563772608444	0.888290100735356	-0.451616908961255	-0.000132095322938388	0.000202182322966732
0.4	4.77329212028498E-05	0.000432753584937047	0.806769002033983	-0.583641758432085	0.806809028166852	-0.583781262719139	0.000194420734235644	0.000138578477958725
0.5	-0.000125645538037767	0.0002751603145151	0.706098464288365	-0.701467786584134	0.705987977244477	-0.701563530038644	0.000248276163003411	-0.000301516612611837
0.6	-0.000279573065885665	0.000566781036294176	0.588434031563872	-0.802484017172329	0.588244658540942	-0.802486913960251	-2.95841980761916E-05	-0.000274735506641476
0.7	-0.000162436327274953	0.000992873375383802	0.456397497459175	-0.883696717007096	0.456323548626279	-0.883731052856966	9.33421202554218E-05	-0.000344462217542563
0.8	0.000161958130545201	0.00104163570899263	0.313544709145907	-0.943518775905653	0.313426326468707	-0.943432169408468	0.000107806945266598	-0.000431801442219248
0.9	0.000523114870810607	0.0013704120857798	0.163371495383245	-0.98033645988232	0.163222707896017	-0.980293706550516	0.000257966340381949	-0.000560861937141769
1	0.000994857962058586	0.000633897502555601	0.00931035345454482	-0.993755444412826	0.00919241845649312	-0.993725858230748	0.000469119137713518	-0.0016815490545702
1.1	0.000402225139235302	0.000654189863436806	-0.144655404932733	-0.982933927710891	-0.145302039479714	-0.982898994113598	-0.00100367779000688	-0.00203340910986705
1.2	0.000691099114596884	0.000125975983333364	-0.296075794117242	-0.948105509480235	-0.296068817288546	-0.948161098638188	-0.00146161944109233	-0.00171404742186978
1.3	0.000793559243878492	-0.00108211665002572	-0.439369633860073	-0.890473200307677	-0.43946157234277	-0.89049767066658	-0.00123363002508895	-0.000899774569190525
1.4	0.000773822506267322	-0.00267380135248082	-0.572006069960933	-0.811600641408722	-0.572079821070402	-0.811501265302775	-0.000290838308709892	-0.00054864364473705
1.5	0.000303421718769082	-0.0031773630950782	-0.691395432401439	-0.712586513654711	-0.691420022914417	-0.712514573065866	0.000241588175221614	-0.000603755610149384
1.6	0.00101037627191818	-0.00303442806037906	-0.792716427808318	-0.596677941771132	-0.793145344507192	-0.59617849180041	0.00109147770027528	-0.000306530784108463
1.7	0.00138489014111067	-0.00358624561277384	-0.87535829012107	-0.466497433610301	-0.875662417209634	-0.466008653312282	0.00153073881653791	-0.0011058591319946
1.8	0.00117056030020972	-0.00410960782636083	-0.93723020513405	-0.324646734760567	-0.937245636262123	-0.324637299169855	0.00121875165274734	-0.00210745193385962
1.9	0.000942562822132205	-0.00461841623072339	-0.976330530925827	-0.175018575341451	-0.976374934273935	-0.175071269052592	0.000699592297235016	-0.00328922059405829
2	-0.000641739858566393	-0.00507128529898219	-0.990872762662195	-0.0218000057879613	-0.990967702610322	-0.0211519014448871	-0.00173467526337279	-0.00401543784287445
2.1	-0.000953439707520969	-0.00392462881739103	-0.982093525507826	0.132826696601842	-0.982192323748953	0.13234336046934	-0.00255308777845158	-0.00228229964316617
2.2	-0.00125095829480998	-0.00409708908947061	-0.949915749678427	0.28288374993763	-0.949954622006429	0.283017225250144	-0.00244813925820793	-0.00193391645892819
2.3	-0.00186250076081779	-0.00403015528816116	-0.894475866234699	0.426853178626956	-0.894312409965631	0.4269416848045	-0.0026078884079646	-0.00191951283790354
2.4	-0.00257776612930548	-0.0039947690847681	-0.816608338471566	0.560899622865503	-0.816898626323997	0.560438204250979	-0.00268255829905629	-0.00237378239075677
2.5	-0.00397886272960583	-0.00400702065527612	-0.720177722898209	0.680080558807998	-0.720478708892027	0.679700092418764	-0.00400584857158847	-0.00378532888702301
2.6	-0.00520928810536595	-0.00228817866650356	-0.606761275428479	0.783719539366903	-0.606682020174325	0.783660378764343	-0.00575303666966402	-0.00257282815748776
2.7	-0.00495689542692996	-0.000817377501983695	-0.477528352687042	0.868391931571947	-0.477498935702787	0.868406059731064	-0.00610667186357829	-0.00123490723522061
2.8	-0.00427650257301118	4.43304416914404E-05	-0.337150853893929	0.931799071873031	-0.337032959659899	0.931883688343191	-0.00566819139000388	-1.63509822616613E-05
2.9	-0.00297831118841778	0.000419537039748556	-0.188770784838075	0.972635128821208	-0.188766456818368	0.972689862945763	-0.00473981925528107	0.00100767027838587
3	-0.00192886923904785	0.000511162608786792	-0.0355947399939642	0.990844174186629	-0.0356592048029269	0.990915429497345	-0.00352500424909422	0.00204521948884098
3.1	-0.000241563261299857	0.000136181930437602	0.118460840267574	0.984325514204374	0.119108576603194	0.984407893860966	-0.0014536025978078	0.00254853981711223
3.2	0.000513620905366534	-0.000854398943373031	0.270258486265878	0.953641504204175	0.270248458982007	0.953681059794554	-0.000140505272421176	0.00201447254248611
3.3	0.00127689233185744	-0.00180316589066281	0.415535153430634	0.89999967046935	0.414912110000646	0.900279808509885	0.00110500570787028	0.00128380803698315
3.4	0.00145032922024293	-0.00296298388020196	0.549805903859732	0.825320727582027	0.549720696260182	0.825435861651811	0.00197892636832966	-4.44229011999221E-05
3.5	0.00125133466949464	-0.00353069231724556	0.671925175953352	0.729789884753063	0.671939376768464	0.729816120913939	0.00163829186971858	-0.000875644326699123
3.6	0.00170708469128015	-0.00402932934226331	0.776091901158042	0.616593709935978	0.776514561815817	0.616200222163935	0.00244983657914978	-0.00116279264416934
3.7	0.00182315691108486	-0.00526208329678373	0.862707855218659	0.488333302864537	0.862714655358368	0.488459873931167	0.00294893482171235	-0.0024429722949821
3.8	0.00126671265195831	-0.0063207901422698	0.928193451341216	0.348486530889615	0.928221573018621	0.348669965442585	0.00273433399454125	-0.00398660354381019
3.9	0.000924134643257822	-0.00745096827509625	0.971380690433786	0.199256957894697	0.971281590234996	0.199845235850767	0.00174617838981918	-0.00606201310102436
4	-0.000898006763272079	-0.00828118908992429	0.989692477466876	0.046430878656689	0.989774445415604	0.0464739346368285	-0.00117861573437831	-0.00763650504269432
4.1	-0.00158715077583344	-0.00785688130645328	0.985118038762481	-0.106973261498137	0.985055819002756	-0.106909317328466	-0.00332111497434356	-0.00672815094770268
4.2	-0.00253176611375981	-0.00815940808002859	0.95654826660153	-0.259350114730256	0.956741119405431	-0.258780266961632	-0.00466462877034926	-0.00631117155025355
4.3	-0.00345807744315231	-0.00846844598412226	0.904903887443168	-0.404329760919284	0.904904740601544	-0.404311219907302	-0.00599910257785655	-0.00598270927085318
4.4	-0.00448953827597944	-0.00867573844810515	0.830823203627581	-0.53973650718363	0.830743260411598	-0.53972064139905	-0.00709383068171697	-0.0057399522965218
4.5	-0.00614653721791748	-0.00952387801389715	0.737463142018392	-0.661451753600246	0.737339389453644	-0.661305898477231	-0.00937885079552066	-0.00641656119910891
4.6	-0.00837010702204063	-0.00853108987608641	0.626384996409816	-0.768703957883822	0.626370050574488	-0.768474297062224	-0.0124563529022299	-0.00459189003534164
4.7	-0.00977357069499156	-0.00787144403177552	0.499018293619281	-0.856991196792273	0.499135242224784	-0.856746070362723	-0.0144310847146426	-0.00244486251924838
4.8	-0.0112246499355425	-0.00659065645310707	0.359477413132248	-0.923896653188973	0.359771328364257	-0.923707619185388	-0.0156103316887124	0.000285203481322266
4.9	-0.0118707386608455	-0.00544948393129885	0.211885353404918	-0.967968703188065	0.212145413596732	-0.96791733654005	-0.0156189912087543	0.00330794261199588
5	-0.0124429113407015	-0.0041397367591312	0.0596692675239833	-0.98993357181337	0.059827714306395	-0.989805188792689	-0.0148144490124607	0.0065317123061445
5.1	-0.0118547062108389	-0.00316774403797494	-0.095604952760372	-0.987156938446644	-0.0952830703497311	-0.987093977728519	-0.0120382961914842	0.00962298865438019
5.2	-0.0115850473017725	-0.00258832604873312	-0.24780117174013	-0.960008591016605	-0.247372826195815	-0.960130880597125	-0.00889941433405612	0.0112945454893575
5.3	-0.0114950566712152	-0.0023640603400041	-0.393736971427215	-0.909977795740709	-0.393447341072606	-0.910323068820507	-0.0057307513621935	0.0119120701482511
5.4	-0.0118025520268064	-0.00183348826141447	-0.530590682549832	-0.83823108782202	-0.530454352300412	-0.838521419327485	-0.00351977935535513	0.0114490279274491
5.5	-0.0129565378649078	-0.000127387695377775	-0.655361866160208	-0.744964373877517	-0.655312215135755	-0.745279240339257	-0.00331861752627726	0.0124244673388747
5.6	-0.0114515097865544	0.00214912110782491	-0.762155362934515	-0.633345063995123	-0.762169111688319	-0.633515746294327	0.000421890086660314	0.0143495860171185
5.7	-0.0106723600438225	0.00269786129739341	-0.851057074052292	-0.507471674214277	-0.851033492722928	-0.507647154591338	0.00407613452125798	0.0137506932629388
5.8	-0.0101572913491907	0.00370080875888597	-0.919483373216054	-0.369036703692834	-0.919528720545277	-0.369329399193874	0.00717553168930526	0.0121923241683775
5.9	-0.00964685880059159	0.00398153521600197	-0.965780991944974	-0.22142040182892	-0.965901751052457	-0.221468202041747	0.0093272210946304	0.00908185945438415
6	-0.0109392252007762	0.00485789783197446	-0.987265607773074	-0.0683421332305615	-0.987262706359217	-0.0684109007958026	0.00733269881077514	0.00620600400838448
6.1	-0.010416384325376	0.00780254719714054	-0.985848932205843	0.084674213237792	-0.985852274903331	0.0845707749795797	0.00698105864997078	0.00752686942713703
6.2	-0.0090800205325379	0.0096864895155406	-0.960967914984918	0.236932823521562	-0.961016339132724	0.236750934851519	0.00835501459387805	0.00742262358171669
6.3	-0.00748132869130592	0.0110187589784387	-0.912350232891061	0.383480573561434	-0.91237484193502	0.383351766134904	0.0101451169966311	0.00633123409680176
6.4	-0.00555269387882898	0.0114636417167494	-0.841060965165639	0.520370109490876	-0.841052684088461	0.52015634809043	0.0116944302529037	0.00355550785790549
6.5	-0.0042355716081046	0.0111611624085518	-0.750404616980782	0.643476388723291	-0.750505353129451	0.643304091083031	0.0118054569480163	9.55055839834937E-05
6.6	-0.00268121506913491	0.0108508195279434	-0.641904422433926	0.753018493792451	-0.642053303516	0.752872485447135	0.0113970920018013	-0.00315160117353937
6.7	-0.00167323242277373	0.0101694781427674	-0.516578929352191	0.843673016218331	-0.516700557708855	0.843515838161281	0.00941690179576595	-0.00632895669248697
6.8	-0.000605009322886911	0.00985724052515766	-0.378930485027855	0.913191606596352	-0.379141937356023	0.913116930274577	0.00649368491422493	-0.00819062763608888
6.9	0.000486234802061484	0.00921307766081341	-0.232911258741314	0.960360686443426	-0.233162093198921	0.960357308447435	0.00357544816264262	-0.00885468940866598
7	0.00183349304980184	0.00879248867608187	-0.0813614616600065	0.985874665707596	-0.0816201885028545	0.985844915483467	0.00102809846146807	-0.00842853095892881
7.1	0.00323452171390145	0.00746697341606035	0.0737980009528772	0.986115435545135	0.0735910620393536	0.986103890574383	-0.000560458245294168	-0.00795043966967463
7.2	0.00403093727135441	0.0059557986106057	0.225831846816484	0.961979430090638	0.225576533525051	0.962024211921507	-0.00216537915475379	-0.00721281474976506
7.3	0.0041143056047265	0.00429763033756774	0.372062127472139	0.915078421275058	0.371822101851269	0.91516979787739	-0.00364744321412151	-0.00608402665717382
7.4	0.00385080695633845	0.00287448496040632	0.509592559825711	0.846509062440187	0.509374572121072	0.846671591771427	-0.00508417718786733	-0.00471548805404642
7.5	0.0028277744841369	0.00195889920728246	0.635896833748118	0.756315059652626	0.635737355299592	0.756487657255094	-0.00643084677007175	-0.00226489445984653
7.6	0.00296007252307636	0.00153799051923185	0.744426386268415	0.64739418600169	0.744211804786488	0.647555751375627	-0.00532920800176945	0.000303430063050924
7.7	0.00266988561825279	0.00067007099319589	0.835208363689708	0.524231740072645	0.835058143150624	0.524426933606272	-0.00376351734215859	0.00154332101670427
7.8	0.00242300667419979	0.000110943814088261	0.906384154560857	0.388237171817109	0.906264129080647	0.388458884642554	-0.0020247740673275	0.00172282684401085
7.9	0.00195477446344946	-0.000495105187500984	0.955548969846389	0.242432653438433	0.955509396374602	0.242657945477688	-0.000986299499459006	0.000618725612928318
8	1.03483321647019E-05	-0.00094072291685161	0.979867300217963	0.0908450928602996	0.979938705263965	0.0911359886024867	-0.00345556047460352	-0.000564706743114679
8.1	-0.000352365454176059	0.00108659348446568	0.982043963794811	-0.0607915420892884	0.982168368229947	-0.0605214362735453	-0.00427555325645216	0.0027038877959341
8.2	3.6736057573175E-05	0.00185860502105863	0.96105713147294	-0.212363556422675	0.961123492699165	-0.212068530518722	-0.00330136142505985	0.00457678725267619
8.3	0.000133103488347577	0.00277281478242928	0.916249783741603	-0.359084907367973	0.916387610774639	-0.358829934083677	-0.00176841616815411	0.00592184360625427
8.4	0.00111280160737002	0.00351650382897856	0.848643150437876	-0.496665569159731	0.848854667132261	-0.496466964883461	0.000768362807664129	0.00609524618348095
8.5	0.000966538670691786	0.00319208567902241	0.761936776562166	-0.620777214924354	0.762052231659746	-0.620651912821329	0.00119651044534233	0.00389931554346673
8.6	0.00155765793463362	0.00492015807093015	0.656942180219923	-0.732398180633769	0.657139186908025	-0.732213491973625	0.00103780806853583	0.00528675239121762
8.7	0.003126341813823	0.00530564024870636	0.534729139289529	-0.825398440162103	0.535010200472913	-0.825289882140615	0.00303687914663881	0.00574864439479616
8.8	0.00469127222944116	0.00506865489247467	0.4000558590046	-0.897869563461268	0.400261254205978	-0.897815602082528	0.00501699304477072	0.00525814525357535
8.9	0.00637269273560982	0.00447283624883861	0.256426011298954	-0.948472403575702	0.256666916818319	-0.948332709071316	0.00749372653225367	0.00402850967710541
9	0.00817907790385392	0.00268251189947865	0.106605288576967	-0.977806861221839	0.106966434645021	-0.977777199118413	0.00919162188151776	0.00120193793304769
9.1	0.0097608792517361	0.000469672582433879	-0.0474454806007593	-0.981904467206711	-0.0470941274205803	-0.981919436077093	0.0102508515746039	-0.00155125731715106
9.2	0.0103445035525671	-0.00283151094104904	-0.198829112493168	-0.961818273386225	-0.198474715164195	-0.961889012297513	0.0100475660498815	-0.00500256774468561
9.3	0.00959283428694642	-0.00538731070526014	-0.344985592720849	-0.919327772418735	-0.344629911254442	-0.919391960927309	0.00835488958976119	-0.00730476884450517
9.4	0.00869189230391387	-0.00772308450887215	-0.483152002292445	-0.855470507231568	-0.482829729527762	-0.855617745127656	0.00623066111731225	-0.00881060006399973
9.5	0.00647570270413787	-0.00837534547721413	-0.611160889581302	-0.769485071523377	-0.610955439767793	-0.769622173831813	0.00250804980903468	-0.00717506253383657
9.6	0.006945631605378	-0.00939566139933311	-0.721809107805051	-0.664551319790934	-0.721537601160153	-0.664735450827321	0.00378556280571401	-0.00454715864624947
9.7	0.00545374218336065	-0.0114739781223295	-0.815620416946507	-0.545161016507443	-0.815375068827161	-0.545429036061757	0.00487265231558292	-0.00493761011644948
9.8	0.00316695686975495	-0.0127043797835961	-0.890465594401258	-0.412369649588918	-0.890257167950755	-0.412643334716728	0.00529297288908536	-0.00565553486861757
9.9	0.000725519595251326	-0.0133025731549609	-0.9439242855697	-0.268799824004867	-0.943812196079808	-0.269127871908954	0.0055641101013612	-0.00753984608369047
10	-0.00359247449208789	-0.0130840955284387	-0.972616268619773	-0.11881998846315	-0.972536450184127	-0.119196583559269	0.00174978937434932	-0.00883171142241717
10.1	-0.00542908047571711	-0.0101361162151274	-0.979473642153782	0.0319360059625446	-0.979453125500366	0.0314604206190699	0.00107830424786723	-0.00562919472733418
10.2	-0.0066610323396757	-0.00873195870091029	-0.963270591243447	0.183574244827308	-0.963254941456911	0.183126304991937	0.00234915122043856	-0.00497031125613199
10.3	-0.0080888261565361	-0.00673126503630566	-0.922971022520117	0.331094584470337	-0.923105009617792	0.330556352092877	0.00340421683974293	-0.00565107110701198
10.4	-0.00862425998570929	-0.00512485368031833	-0.859515440715974	0.469879687211522	-0.85977850395007	0.469346464074455	0.00440704747644305	-0.00804515112673291
10.5	-0.0100218543818842	-0.00391994894505523	-0.777114609967621	0.595573401289685	-0.77739442168675	0.59518787404771	0.0025887212071028	-0.0120283002752543
10.6	-0.0110511930244499	-0.00148643568720903	-0.676395049244591	0.70980636421606	-0.676818287619146	0.709462628426227	-0.000816012191986369	-0.0131997197221342
10.7	-0.0114477795537542	0.00159075170712875	-0.558017114318367	0.806364183669102	-0.558426047108071	0.806075999923795	-0.0036417893346498	-0.0128521037549666
10.8	-0.0103667519407829	0.00462280892379052	-0.426192233728794	0.882893003627636	-0.42669974263098	0.882663370227187	-0.0053231218110478	-0.0116918812168006
10.9	-0.00841625223779289	0.00728142945751682	-0.284970250491363	0.937986319620543	-0.285455817924332	0.937933626639685	-0.00645199283108896	-0.0107320082686956
11	-0.0058290926615987	0.00905502841581476	-0.136627292338911	0.972714038737662	-0.137172379334868	0.972707603952349	-0.00744616145331688	-0.00968222138929915
11.1	-0.00242362226902277	0.0100530182407505	0.0174679535001563	0.981911996013067	0.0168399940127458	0.981993186116243	-0.00731175855838641	-0.00883527139280247
11.2	0.00078895770583051	0.00976179346093661	0.169259701964351	0.966843327728185	0.168741415145122	0.967044476208999	-0.00718028710216493	-0.00867245880761022
11.3	0.00384861224544527	0.00905519822218246	0.316616842401909	0.929178960219279	0.316187587087083	0.929439502756138	-0.00691087780120251	-0.00867184696016117
11.4	0.00657321415822867	0.00716233914918251	0.457149603115453	0.869929962088987	0.456685157157398	0.870187926732962	-0.00710865483437444	-0.00933532916789578
11.5	0.00800335036799834	0.00611349594691908	0.588243337261012	0.78763796235794	0.587885030165141	0.788055134178529	-0.00950936957383247	-0.00815457084437833
11.6	0.0112525425063568	0.00421191361385984	0.701894657231576	0.686123924167183	0.701627667595719	0.686602942045786	-0.00826341654938878	-0.00578766574853859
11.7	0.0131299633922648	0.00110018776919534	0.799670282427689	0.56974238902344	0.799430682326775	0.570163141641097	-0.00691892304016144	-0.0058482634620069
11.8	0.014001492262864	-0.0023295130384511	0.878929335667077	0.439026478149283	0.878744101309373	0.439577794508088	-0.00614565784638745	-0.00680525173462298
11.9	0.0147275278344873	-0.00609111547644157	0.937093256678211	0.296789666819191	0.937054274499999	0.29733358938652	-0.00581468730324121	-0.00949201427666871
12	0.0110352603647314	-0.00980541412485403	0.970241240633644	0.147418616049528	0.97022856315782	0.14789739151285	-0.0115315404460146	-0.0114727160892622
12.1	0.0094932702617364	-0.010980782808008	0.981913544707838	-0.00336698028986221	0.981887696378803	-0.00289451645292278	-0.0145623974455017	-0.00875815422522344
12.2	0.00689702008437786	-0.0126775029010905	0.970241636043845	-0.15614608935695	0.970347319639942	-0.155708604856055	-0.0165660798604061	-0.00605116978822266
12.3	0.00404590970844257	-0.0129152202715779	0.934073129953754	-0.305249221546888	0.934258217493426	-0.304890692706297	-0.0175569567633855	-0.00270275997892137
12.4	0.00174273766304406	-0.0126858880492631	0.874682778472274	-0.446324703230537	0.874814962054067	-0.445949821729353	-0.016733347715782	0.000120193916753112
12.5	-0.00098742783823027	-0.0124982038213501	0.795795187673242	-0.574874112888126	0.796251842036223	-0.574480224919268	-0.0173366747221091	0.00100184755497447
