# GHZ S RI R 50
0.2	-0.000396066634540331	7.56472326341862E-06	0.948566624602752	-0.307945261204745	0.948340460715818	-0.308087054732177	-0.000251840028754741	0.00018295960684006
0.3	-0.000487935703121271	0.000279736694396499	0.888531617599806	-0.451550925417084	0.888394250754883	-0.451604074493745	-0.000317135529982122	8.66050731673085E-05
0.4	-0.000211240912505355	0.000384816115810467	0.806914137221362	-0.583693034707723	0.806954175385245	-0.583832557930966	-5.87093565442218E-05	6.56180569524693E-05
0.5	-0.000334853622906085	0.000318829011803599	0.706175033983468	-0.701616699181752	0.706064524285525	-0.701712452220956	4.32231467048485E-05	-0.000284230593352908
0.6	-0.00048973107028343	0.000552886543910006	0.588476401952151	-0.802602770678654	0.588287005827966	-0.802605660958056	-0.000227948855192108	-0.000323419130018526
0.7	-0.000408125482114235	0.00101234132321668	0.456426082169479	-0.883854796995859	0.456352120285871	-0.883889134643229	-0.000141621215168657	-0.000377021513735755
0.8	-8.55086051341086E-05	0.00108283546078948	0.313517202787218	-0.943713280610548	0.313398806775596	-0.94362664837999	-0.000140483353711445	-0.00045967772199036
0.9	0.000225876168180923	0.00142814068245625	0.163242843527637	-0.980537265242259	0.163094036423731	-0.980494480360055	-6.77052889801254E-05	-0.000583408569073868
1	0.000739229719141584	0.000887197418400774	0.00912269024926981	-0.993841101547396	0.00900475089503315	-0.993811490497721	0.000145255718624515	-0.0014818559635694
1.1	0.000362619828426982	0.000808215944259203	-0.144823189133412	-0.983019257070341	-0.145469889128747	-0.982984219687657	-0.00110234990703301	-0.00188320571307008
1.2	0.000747815943765314	0.000153431224648351	-0.296301893189537	-0.948150638870038	-0.296294926913234	-0.948206235628681	-0.00142903332772577	-0.00166052631714717
1.3	0.000955718376506559	-0.00132971822834443	-0.439622389055923	-0.890435000631481	-0.439714340725748	-0.890459450347534	-0.00104486875508571	-0.00111582690697997
1.4	0.000784100716329858	-0.00316948954931207	-0.572225869446234	-0.811454952323631	-0.572299594735975	-0.811355555882248	-0.000211102956843645	-0.00104493488329852
1.5	0.000172007082901459	-0.00370657559038503	-0.691515019974375	-0.712450282804905	-0.691539597040208	-0.712378338788073	0.000218027238691786	-0.00119178089957714
1.6	0.000580174771108137	-0.00341214474104568	-0.792887618066384	-0.596514906546942	-0.793316434119126	-0.596015336261331	0.00075483134096594	-0.000831090300192739
1.7	0.000938189316186816	-0.00369148992348385	-0.875476294613435	-0.466254522961182	-0.875780285629892	-0.465765664892276	0.00110810702997577	-0.0013995276525422
1.8	0.000770608621435569	-0.00406242016112049	-0.937260714313373	-0.324376942440972	-0.937276142005109	-0.32436750328774	0.000778425082660441	-0.0022419843223894
1.9	0.000598935203489046	-0.0044055755948329	-0.976281079101036	-0.17479235844017	-0.976325489860155	-0.174845037859055	0.000274044678555696	-0.00321292213926099
2	-0.000693994784359897	-0.00483668176609153	-0.990880260383008	-0.0215875014201143	-0.990975061571992	-0.0209393748446352	-0.00183794895519497	-0.00386029976327037
2.1	-0.00108413790967709	-0.00387010398762811	-0.981992833498081	0.133120237112674	-0.98209177416195	0.132636960812647	-0.0027001662799174	-0.0023411458565442
2.2	-0.00142003760885095	-0.00399156214694485	-0.949723369381445	0.283122849289786	-0.949762198896388	0.283256320109486	-0.00266349719146229	-0.00196532728598554
2.3	-0.0020258697750472	-0.00390932396922721	-0.894242366235499	0.427027541250725	-0.894078909298377	0.427115992780082	-0.0028602168657763	-0.00192182315654901
2.4	-0.00276463312836554	-0.00381750006843224	-0.81638085028377	0.561037921588177	-0.816671219213277	0.560576624983501	-0.00299732811080782	-0.00226109094115671
2.5	-0.00396005391323404	-0.00373750492357318	-0.719843112233622	0.68024816706447	-0.720144194319598	0.679867856749426	-0.00407660215829249	-0.00347425547425095
2.6	-0.00511161820772136	-0.00228099325386484	-0.606374790489628	0.783706496466513	-0.606295572743029	0.783647326799158	-0.00562921198229349	-0.00250978178438422
2.7	-0.00495590658434721	-0.000952456847006319	-0.477191780687532	0.868299275017475	-0.477162367362683	0.868313392271222	-0.00601403872682814	-0.00136747724854471
2.8	-0.00440510859189552	-0.000144548332675826	-0.336840640010385	0.931661728669726	-0.336722752786668	0.931746295946433	-0.00568635540717675	-0.000264992431313886
2.9	-0.0032074866046585	0.000249844922890685	-0.188438272749649	0.972452494128163	-0.188433929686575	0.972507213570155	-0.0048648057200373	0.000732068495269164
3	-0.00221784464771756	0.000345386570007877	-0.0352938799146355	0.990465110155702	-0.035358298766923	0.990536356127067	-0.00371490398427331	0.00172637789899843
3.1	-0.00063502242776533	6.09000924971815E-05	0.118585268556231	0.983943800075174	0.119232781055417	0.984026038967111	-0.00179025408185284	0.00227411145912661
3.2	0.000106962988558907	-0.00083517778735196	0.270335013410395	0.953256777104755	0.270324996783224	0.953296320561878	-0.00053459892126994	0.00182630096872043
3.3	0.000867224276854177	-0.00170172410485331	0.415547810505737	0.899575740882829	0.414925059113356	0.899855890566488	0.000676555583139965	0.00119285177229017
3.4	0.00107610886331575	-0.00274811559636485	0.549695362668519	0.824835603236955	0.549610215570532	0.824950698522437	0.00158001252541403	7.9396281706561E-06
3.5	0.00100375047460798	-0.0033301038898659	0.671597145172908	0.729418611363918	0.671611339165837	0.729444834278115	0.00140649083683537	-0.000837823221296726
3.6	0.00139095178770035	-0.003816794985817	0.77579720525819	0.616333190473887	0.776219690222899	0.615939849822591	0.00214102503299492	-0.00116500102309977
3.7	0.00156469166659611	-0.00497037695766497	0.862353746445584	0.48809567013822	0.862360547800756	0.48822218669114	0.00265111803068828	-0.00237649588807898
3.8	0.00107773846858633	-0.00602357079068225	0.927758528682504	0.348327819936813	0.92778663643548	0.348511168957413	0.00246517936676249	-0.00389045695286527
3.9	0.000775962380086282	-0.0071409860805186	0.970888927083985	0.199256646265795	0.970789816592626	0.199844628548073	0.00149850984126286	-0.00589010706835042
4	-0.000873781613898122	-0.00804119408720978	0.989345045619583	0.0465528906723151	0.989426979326666	0.0465959432505869	-0.00118238626635668	-0.00746249653028673
4.1	-0.00169949774293518	-0.00782420817622315	0.984724171015547	-0.106883849950739	0.984661973456783	-0.106819934584389	-0.00338093869441378	-0.00680731911637549
4.2	-0.00279468784570746	-0.00809839581051617	0.956134250509409	-0.259118440453218	0.956326947490668	-0.258548834868915	-0.00486739721293455	-0.00641413337265351
4.3	-0.00382109518089233	-0.00833723782172309	0.904570956074562	-0.403958429190649	0.904571805041257	-0.403939896525885	-0.00632499101312011	-0.00604350367021829
4.4	-0.00493760616898238	-0.00840192292683498	0.830660005727882	-0.539304754924234	0.830580088161228	-0.539288917141327	-0.00754144312307136	-0.00564778353690886
4.5	-0.00644952399838897	-0.00903728082122886	0.73732231028038	-0.661105512013752	0.737198575589183	-0.660959726820308	-0.00965772637957391	-0.00603807154243069
4.6	-0.00855537404899961	-0.00813328647826651	0.626304175404314	-0.768200777830059	0.626289177112494	-0.767971223026442	-0.0125176076710236	-0.00431781982497831
4.7	-0.00994210562750868	-0.00749382235202093	0.499124814759348	-0.856481478464357	0.499241631588918	-0.856236406563919	-0.0144312187656071	-0.00225930995936103
4.8	-0.011374713245451	-0.00623617975698323	0.359720061023499	-0.923467010742153	0.360013810807423	-0.923277923081177	-0.015587488244594	0.000371622983032832
4.9	-0.0120197949594487	-0.00509688057206483	0.212160979693648	-0.967650711193617	0.212420956345135	-0.967599269085185	-0.0156225418444131	0.0033314218341515
5	-0.0125485506880122	-0.00380998101569426	0.0599910026080289	-0.989537371393999	0.0601493446316487	-0.989408981947606	-0.014802133227613	0.0064750277920117
5.1	-0.0120020844946218	-0.00284388378392724	-0.0950781483585201	-0.986921422527784	-0.0947563903583099	-0.986858317103874	-0.0121563544632904	0.00949255541454834
5.2	-0.0117023491668727	-0.00222405401569552	-0.247278867020141	-0.959946268411525	-0.246850543489833	-0.960068322688163	-0.00911139392401958	0.0112192729815047
5.3	-0.0115561793193687	-0.00198293129787335	-0.393249164477119	-0.910016734725629	-0.392959418987761	-0.910361817500097	-0.00597089174911477	0.0119455495611884
5.4	-0.0117606049523664	-0.00143137501578513	-0.530098137643323	-0.838308690978851	-0.529961700648373	-0.838598901681006	-0.00364570410367351	0.0116374407317481
5.5	-0.0127319622848891	3.07726250398189E-05	-0.654767447234921	-0.74525791666301	-0.654717601691568	-0.745572696432956	-0.00311785031060306	0.0124040248081978
5.6	-0.011504481736284	0.00216607351639413	-0.761786357682405	-0.633811808700687	-0.761800004208209	-0.633982501738492	0.000365008379634719	0.0140744708776181
5.7	-0.0108171107326659	0.00279278857869161	-0.850808866910266	-0.50794637051205	-0.850785190179478	-0.508121843451929	0.00385082613925738	0.0135312735049738
5.8	-0.0103637522826009	0.00382014309478907	-0.919304650127431	-0.369540756982144	-0.919349840642507	-0.36983348339637	0.00682608536140911	0.0120521750353974
5.9	-0.00992777405042165	0.00420439962172572	-0.965666791330132	-0.222026352393943	-0.965787523721863	-0.222074228850886	0.00889551700590766	0.00918050922973896
6	-0.0110185408566588	0.00509622497226764	-0.987450426532033	-0.0690030038799184	-0.987447479605285	-0.0690717854513936	0.007296717739999	0.00644383413877674
6.1	-0.0107007800072766	0.00784390931569323	-0.986097078846107	0.0841797441162291	-0.986100368540345	0.0840762827760289	0.00692261722718568	0.00743247067562994
6.2	-0.00953583789006612	0.00985231171575645	-0.961287150326105	0.236423855716249	-0.961335478819802	0.2362419046188	0.00814820207924288	0.00729773821697124
6.3	-0.00799673780969332	0.0113315981965941	-0.91283347702527	0.382989226788701	-0.91285800907555	0.382860370268351	0.00981141458740065	0.00623438495702457
6.4	-0.00603473633957845	0.0118974186172201	-0.841772759521962	0.52001680006572	-0.84176432904573	0.519802953679188	0.0112897704660707	0.00354261060447061
6.5	-0.00461026785841798	0.0116367325122323	-0.751107339993786	0.643458426734472	-0.751208047203547	0.643285990163993	0.0114294659024577	0.000136062067677825
6.6	-0.00301050103625411	0.0113390782381689	-0.642574070355324	0.75302216443782	-0.642722942364532	0.752876015268993	0.0109897167696714	-0.00305673823256639
6.7	-0.00191450091848917	0.0106569039338432	-0.517322480988747	0.843851066628697	-0.517444089763682	0.84369373623217	0.00907361916832586	-0.00615211705504484
6.8	-0.000794663604315881	0.0102962929295042	-0.379640598282769	0.91361025122888	-0.379852154085533	0.913535419192862	0.00623780220564005	-0.00800024351588373
6.9	0.00030949274918823	0.00961618438690737	-0.23342927474094	0.961004852480401	-0.233680297878071	0.961001382683553	0.00339836672570962	-0.00868521911941246
7	0.00163984851194684	0.00913304706846388	-0.0816823934763058	0.986453622156749	-0.0819412699348717	0.986423782581583	0.000893146150088302	-0.00836555901677262
7.1	0.00297675278062262	0.00786057981652393	0.0734795192221552	0.986844596802361	0.0732724374621973	0.986832965765465	-0.000759639131625935	-0.00788939997539714
7.2	0.00379050545641981	0.006409036392769	0.225742740954658	0.962826613276543	0.22548720711722	0.962871359119163	-0.00235797671090086	-0.00712243150441544
7.3	0.00390564392476502	0.00479845822665312	0.372219782397578	0.915908976049987	0.371979539971666	0.916000388789638	-0.00382102621445962	-0.00597440789798091
7.4	0.00370145665447325	0.00343375086015733	0.509916055745386	0.847194665535967	0.509697889069744	0.847357302067753	-0.00521560382777129	-0.00457583541854522
7.5	0.00280889808490921	0.00248534567470201	0.63619874497418	0.757025396126716	0.636039107935456	0.757198086134577	-0.00644025049304548	-0.00219650311748447
7.6	0.00292225222368453	0.00202434181787652	0.745051937826386	0.648094804257055	0.744837134319698	0.64825649652245	-0.00542072342276277	0.000267424404085216
7.7	0.00267195190795775	0.00118237984090224	0.835991172233839	0.524710911902793	0.835840813921821	0.524906288675217	-0.00394852552304943	0.00153774016269635
7.8	0.00247525447235751	0.000596866115415753	0.907211862129293	0.388522891464251	0.907091744563436	0.388744808367889	-0.00225427649615771	0.00179067046197458
7.9	0.00203569238116197	-6.13960258081596E-06	0.956379679735942	0.242626509243464	0.956340075772408	0.242851996851702	-0.00119241639374148	0.000859005614564711
8	0.000336391679601021	-0.000562150856472753	0.980946315986448	0.0909088491158974	0.98101781010058	0.0912000615785417	-0.00321398718207489	-0.000241066212435768
8.1	-0.000198457971752376	0.00104993087337441	0.983064643417931	-0.0611101503554926	0.983189249132601	-0.0608397917085784	-0.00399016510772953	0.00250650105962137
8.2	-0.000117246052701549	0.00174898257713522	0.961968343407627	-0.21285144886601	0.962034855589851	-0.212556143570147	-0.00326412491481605	0.00416583083137417
8.3	-0.000299511825241475	0.00272683032410409	0.917097278292511	-0.359735602151605	0.917235325934009	-0.359480404449594	-0.00202414545367202	0.00545632432770672
8.4	0.000420955439375424	0.00369227011690924	0.849458944664692	-0.497550426178575	0.849670779976843	-0.497351665057214	0.000172763070021215	0.0057976752969033
8.5	0.000381702557027591	0.00376410872102542	0.762417283345783	-0.622040829197456	0.762532962168466	-0.621915457271232	0.000717258740229185	0.00406281403046597
8.6	0.00107707056680809	0.0054681185935905	0.657072901960352	-0.733591318802358	0.657270235260445	-0.733406587068785	0.000760082962980658	0.0053104649505501
8.7	0.00266896744482782	0.00595382714700925	0.534665070758803	-0.826608009169149	0.534946490631962	-0.826499546254076	0.00271265741398685	0.00569969047842743
8.8	0.00434159458447128	0.00577034190979042	0.39974245484548	-0.899107874636443	0.399948103128208	-0.89905402329447	0.00462594162864948	0.0051597719334678
8.9	0.00608101688984968	0.00516596312789308	0.255751142936094	-0.949694342882323	0.255992432462698	-0.949554743638154	0.00693291735049919	0.00394022687317684
9	0.00797082558375366	0.00340913239143387	0.105625315406682	-0.978657896978785	0.105986765246453	-0.978628604121229	0.00856578766510055	0.00130593056768489
9.1	0.00960428522857344	0.00117926543024346	-0.0484432891985757	-0.982624704303079	-0.0480916763337764	-0.982640028632478	0.00962276501092997	-0.00131053349275065
9.2	0.01031048904052	-0.00209512539764544	-0.200039542840276	-0.962375930294474	-0.199684937268049	-0.962447113158319	0.00956018082977039	-0.00455375716871762
9.3	0.00970275972227602	-0.00474559369528545	-0.346367877818648	-0.919581290411286	-0.346012013218952	-0.919645962696943	0.00813125504538199	-0.00679953129377294
9.4	0.00887554722776136	-0.00719484561854995	-0.484551438837886	-0.855292101807849	-0.484229187031943	-0.855439848042477	0.0062730347717822	-0.0083372346796988
9.5	0.0067340123768061	-0.00810925985892554	-0.612300713080462	-0.769128872870617	-0.612095328800229	-0.769266268104263	0.00292261653721986	-0.00705095247555243
9.6	0.00686198168634664	-0.00922673281163387	-0.723032841517306	-0.6640243747773	-0.722761412813667	-0.664208944436148	0.00388533148655203	-0.00480061909334604
9.7	0.00530134269368696	-0.0111784514100097	-0.816719406566634	-0.544302677003831	-0.816474311030567	-0.544571147068135	0.00477626320275811	-0.00518157715081267
9.8	0.00300560501384362	-0.0123837719832797	-0.891308172164132	-0.411276973429337	-0.891100056115091	-0.411551029543701	0.00505727113941111	-0.00587366983718015
9.9	0.000514508100235061	-0.0129003264573154	-0.944466444372424	-0.267656810899079	-0.944354748155713	-0.267985071017388	0.00519047618891697	-0.0075557877164327
10	-0.00355637047144852	-0.0126984737111398	-0.973168465908231	-0.117633899690799	-0.973089092810438	-0.118010751500798	0.00177657426034905	-0.00872787880819604
10.1	-0.00559135981513968	-0.00999162974799883	-0.979704688496613	0.0334177333220643	-0.979684881036236	0.0329419816335346	0.00101041310268863	-0.00591758656325772
10.2	-0.00695798309493311	-0.00851341273857172	-0.963133503260073	0.185058517227489	-0.963118528936558	0.184610488296559	0.00205706526436281	-0.00527514551816682
10.3	-0.0084216369188959	-0.00648049719825179	-0.922541326115241	0.332507148855224	-0.92267613258113	0.331969078175142	0.00295223588363003	-0.00590269075521479
10.4	-0.00903259163731456	-0.00484011225680698	-0.858890857161941	0.471230875272068	-0.859154755741629	0.470697996465348	0.00378557179151648	-0.0081223860794971
10.5	-0.0103512684485924	-0.00354174817583312	-0.77603386377945	0.596993072515834	-0.776314379795319	0.596608052885047	0.00213776667455022	-0.0118078743996089
10.6	-0.0113808938408707	-0.00122796183215446	-0.674924010866851	0.710761024072541	-0.675347713829541	0.710418145846378	-0.00106949913280298	-0.0130705584631017
10.7	-0.011877239397411	0.00179238254558223	-0.556438353915823	0.806944610024125	-0.556847589655352	0.806657229302628	-0.00385399632109068	-0.012855876523094
10.8	-0.0109648588853188	0.00485394790204498	-0.424552462558476	0.883158279130241	-0.425060098915944	0.882929580955653	-0.00563534810199865	-0.011785413320793
10.9	-0.00915114621582597	0.00769113277875069	-0.283217853253902	0.937958510510509	-0.283703244801135	0.937906672865519	-0.006892642271355	-0.0107707364777717
11	-0.00655230158535986	0.00962965799339477	-0.134877447910396	0.97206297625247	-0.135422052747002	0.972057458562728	-0.00786565374434536	-0.00966402039899888
11.1	-0.00312573414961349	0.010823080603524	0.0188456693867162	0.980995553507526	0.0182183953577892	0.981077561101377	-0.00777415771570941	-0.00874427764152666
11.2	0.000228171411439667	0.010688269656343	0.170465912754093	0.965733387001342	0.169948376115788	0.965935082492589	-0.00760402221231727	-0.00848592492016651
11.3	0.00344699048714091	0.0100459660239886	0.317629536925851	0.92781756396465	0.317201073244139	0.928078462350025	-0.00726782135583722	-0.00842039089691686
11.4	0.00633924610327408	0.00824273505847794	0.457830341322175	0.868250078743936	0.457366811808069	0.868508390275147	-0.00735983517558657	-0.00893012654565915
11.5	0.00806131740010041	0.00706540874357212	0.588336223390228	0.786001799919854	0.587978820891951	0.786418822999697	-0.00939856110786247	-0.00789076636165321
11.6	0.0112401264241481	0.00504402012154481	0.701852685020709	0.684580100764802	0.701586521548938	0.685058869642363	-0.00830535693644704	-0.00578225138363855
11.7	0.013187062420605	0.00195029601330916	0.799325881386394	0.568142596722548	0.79908704894784	0.568563100528593	-0.0070735366047103	-0.00581897129161655
11.8	0.0141367839534512	-0.00153334013445833	0.878193155049985	0.437493176916869	0.878008759170213	0.438043935821543	-0.00638354767841165	-0.00670209570706074
11.9	0.0149800192981097	-0.00539816326549163	0.935978944102845	0.295552886241448	0.935940485117115	0.296096047765638	-0.00602713170591151	-0.00919677184254812
12	0.0116482547992231	-0.00914959675939351	0.969150804648219	0.146480798518224	0.969138515327808	0.146958989176718	-0.0110991822788314	-0.0109305890257186
12.1	0.00992870280254859	-0.0109342615582743	0.98053685385071	-0.00427045511627249	0.980511478665082	-0.00379862828202989	-0.0140223098068103	-0.0089093573650321
12.2	0.0070115941280786	-0.0128767357331484	0.96859812275723	-0.156684036460842	0.968703993735449	-0.156247321459058	-0.0162268482263984	-0.00656981999656229
12.3	0.00372880224062153	-0.0132155391455466	0.932344276967968	-0.305344279511387	0.932529289448705	-0.304986457626099	-0.0176028420868817	-0.00344300228421246
12.4	0.000935286234784973	-0.0127819872217793	0.873096854082911	-0.446038484595254	0.873229007853162	-0.445664254766991	-0.0173021532337028	-0.000483155408901848
12.5	-0.00186819735719253	-0.0122223117383047	0.794147564842287	-0.574456137647654	0.794603735250025	-0.574063174913607	-0.017769554059767	0.000877635482740663
