# GHZ S RI R 50
0.2	-0.000351524670142549	-5.4190792378181E-06	0.948956993681067	-0.307891621477028	0.948730773740607	-0.308033504343504	-0.000118718953652406	7.09634110892458E-05
0.3	-0.00050264477542061	0.000304707917824583	0.889012053225631	-0.451566123086445	0.888874637285359	-0.451619323500372	-0.00021978901144352	-0.000104071091792552
0.4	-0.000293181135840572	0.000489607501452466	0.807491294821299	-0.583847459781613	0.807531385284719	-0.583987052628761	-6.3573922077643E-05	-0.00015831665824147
0.5	-0.000363588823655816	0.000596767152481172	0.706700767494876	-0.702044464013465	0.706590189376579	-0.702140289371956	6.8129933984402E-05	-0.000352641890056287
0.6	-0.000440792057511853	0.000752718138278512	0.588848470439652	-0.803070202788745	0.58865896077778	-0.803073099301545	-2.49607328457393E-05	-0.000578830090420837
0.7	-0.00043837749737177	0.00123861495140091	0.456758926103875	-0.884415651364147	0.456684917137245	-0.884450014335916	-3.1547086903941E-05	-0.000830849062303674
0.8	-0.000137180378958528	0.00138388566542046	0.313734512798667	-0.944410969063774	0.313616030995476	-0.944324271543029	-0.000202186409575854	-0.00106256509099716
0.9	0.000137831652705484	0.00178631133484071	0.163229291702217	-0.981337275631254	0.163080373024882	-0.98129443520447	-0.000526983159494289	-0.00127867167319263
1	0.000694959630595945	0.00151108564011543	0.00886995411597759	-0.994484542324892	0.00875194639054326	-0.994454881476735	-0.000794682105742034	-0.00156299642312544
1.1	0.000596375503753677	0.00121971137488948	-0.145061282803508	-0.98366131378059	-0.145708413793086	-0.983626160369471	-0.00164594082646199	-0.00152111172627072
1.2	0.000732618539295905	0.000434417461673639	-0.296742136020848	-0.948810429952522	-0.296735176907494	-0.948866070870023	-0.00179103836981092	-0.00106571866973917
1.3	0.000756435926877876	-0.000868212300718076	-0.44026599352215	-0.890965129149372	-0.440358024016909	-0.89098956587599	-0.000930939203191777	-0.000281342591535056
1.4	0.00062945295111989	-0.00247704818886936	-0.572958147515047	-0.811745187271742	-0.57303187858177	-0.811645692823851	0.000518173422364712	-0.000417384013035097
1.5	0.000290249622782208	-0.00306431607286563	-0.692128952200728	-0.712690870685309	-0.692153524334185	-0.712618876416931	0.00173119721083396	-0.0013224723513954
1.6	0.000368743850428929	-0.0028648636816739	-0.79375665950802	-0.596728886152586	-0.794185654311546	-0.596228749554484	0.00167918346147083	-0.00226487973515272
1.7	0.000761150491346585	-0.00283790020818218	-0.876435879492634	-0.466168533717442	-0.876739857964836	-0.465679116649275	0.00117348309718816	-0.00302436247437386
1.8	0.00076437962100357	-0.00309943662579487	-0.938150707764505	-0.324033193017422	-0.938166140917969	-0.324023737360223	0.000217050354833721	-0.00365804172714209
1.9	0.000731491498115933	-0.0033783219446498	-0.977036130200814	-0.174328226973361	-0.97708060190653	-0.17438091512371	-0.000685485845658122	-0.00397207300693285
2	-0.000190522976236408	-0.00395436980406528	-0.99176311358941	-0.0210014734862998	-0.991857602280706	-0.0203527201920364	-0.00201375619644345	-0.00401929865322669
2.1	-0.000919515088101745	-0.00331560877953754	-0.982644906871589	0.134143238981043	-0.982744377425848	0.133659673005238	-0.00276303393190252	-0.00327910503978845
2.2	-0.00136044558749221	-0.00319243026425992	-0.950046184365933	0.284223971663108	-0.950084908632928	0.284357564240138	-0.00323185695773845	-0.00296481897377716
2.3	-0.00182345074794056	-0.00303513498148577	-0.89434589600307	0.428142400240228	-0.894182258603032	0.428230744401501	-0.00384951168662632	-0.00265595191370902
2.4	-0.00246744634522997	-0.00301610568468437	-0.816336863981006	0.562221816234754	-0.81662788481401	0.5617605175626	-0.00437913193355063	-0.00229233981860839
2.5	-0.00346471969117618	-0.00307421664352347	-0.719355812622867	0.681652953800437	-0.719657600965578	0.681272821120764	-0.00475409921012808	-0.00224798330471455
2.6	-0.00493116270471728	-0.00206950084265296	-0.605436165900187	0.784721152631553	-0.605357011319909	0.784661860388543	-0.00511046736176697	-0.00156668820605692
2.7	-0.00518790891772433	-0.000563120723757204	-0.476147320433633	0.869044086932565	-0.476117884489692	0.869058168512787	-0.00505672034890512	-0.000951213749373807
2.8	-0.00473025615368947	0.000559387510248847	-0.335670467726947	0.932208039780338	-0.335552456895156	0.932292463898883	-0.00458298327317987	-0.000361243753796992
2.9	-0.00343396096270966	0.00113547948792071	-0.18705647069074	0.972777931742025	-0.187052049005118	0.972832648086397	-0.00376077513309984	0.000209791056530224
3	-0.00242169835675712	0.00125101056545749	-0.0338197835044734	0.9901810618037	-0.0338840753136743	0.990252378685206	-0.00265768139962237	0.000615281389193929
3.1	-0.000943183311925043	0.00122403945995964	0.119691737871193	0.983473178277176	0.120339127429128	0.983554634868427	-0.00139413248664426	0.000795835962393606
3.2	9.57790648407156E-06	0.000533754518747748	0.271428845172663	0.952650439131581	0.271418880025069	0.95268998352756	-0.00053132456132972	0.000497699788861507
3.3	0.0009853595436763	-0.000311004891366116	0.416574312241193	0.898676082754705	0.415952173718587	0.898956945989129	0.00050101647793932	9.28990894742858E-05
3.4	0.00133527433910704	-0.00143690606986085	0.55044701365622	0.823557194550098	0.55036207708239	0.823672329341903	0.00148513862817519	-0.000770834742476935
3.5	0.00128991023285907	-0.00227868312447399	0.67175512334752	0.728175889153727	0.671769331120409	0.728202077005066	0.00190301895205521	-0.00186572339813457
3.6	0.00131338704038293	-0.00268366428073976	0.775959077840995	0.615210540345552	0.776380930150871	0.614817008861275	0.00216945912498553	-0.00281987691860596
3.7	0.00153531734404766	-0.00358788144473132	0.862267320812405	0.486818788602079	0.862274253778455	0.486945207912403	0.00212522946784817	-0.00391883733048329
3.8	0.00117809928529202	-0.00456873116640214	0.927286324803968	0.347090532103798	0.927314591285088	0.347273690724718	0.00155016754884908	-0.00504547718057629
3.9	0.00098880304031217	-0.00567970921224429	0.970083011448087	0.198331995155161	0.969984439718283	0.198919473184825	0.00045698771540699	-0.00622887767554704
4	-0.000455248254828958	-0.00678795129321695	0.98874566467979	0.0459163054638823	0.988827572797723	0.0459592804433351	-0.00108192024390467	-0.00709775834668612
4.1	-0.00164807994814579	-0.00677124205858293	0.983901979333281	-0.107706492001634	0.983839886025251	-0.107642566724439	-0.00262318940964505	-0.00726475435875254
4.2	-0.00283724509190236	-0.00688862106012299	0.955054875540432	-0.259674686818753	0.955247869217264	-0.259105755955304	-0.00414904647965442	-0.00738732080560242
4.3	-0.00390324663638942	-0.00715394028395558	0.903460874641285	-0.404225819411811	0.903461735866004	-0.404207304262351	-0.00589720779073048	-0.00737642301811533
4.4	-0.00523473927633195	-0.00718829146378741	0.82967383602924	-0.539441373143864	0.829593989621964	-0.539425494812603	-0.00780110194659189	-0.00680953821756359
4.5	-0.0067797527456562	-0.00759326304256454	0.736040642386582	-0.661401021376247	0.735917160621512	-0.661255213216229	-0.00964775504857475	-0.00602271446740152
4.6	-0.00900727140353206	-0.00658357225729119	0.624752610335686	-0.767856280177289	0.624737859016579	-0.767626999373381	-0.0113512881543144	-0.00437155543462849
4.7	-0.0102960218961501	-0.00562653356184496	0.497781678723628	-0.855710660628955	0.497898528320337	-0.855466011573545	-0.0125777908855595	-0.00289310058536913
4.8	-0.011493820226152	-0.00429490597901698	0.358601600004296	-0.922436099304431	0.358895072184096	-0.922247470369645	-0.0134327500733417	-0.00113779320506716
4.9	-0.0119906790428758	-0.00318775214783375	0.211154093148774	-0.966415789350169	0.211413733979366	-0.96636460977972	-0.0136546069710712	0.000983112791858703
5	-0.012469281155686	-0.00195408178653861	0.0592632836185822	-0.987653274681656	0.0594213975316608	-0.98752523230006	-0.0131207332962791	0.00332515475048679
5.1	-0.0119270262485247	-0.000777247774183442	-0.0949490339827351	-0.985071209859057	-0.0946278745476469	-0.985008238309905	-0.0116059505214775	0.00562383482018132
5.2	-0.0112485449948351	-6.59200341732388E-05	-0.246798932205972	-0.958322956140755	-0.246371332280126	-0.958444776271095	-0.00981498207089897	0.00760598511430573
5.3	-0.0108004825055555	-0.000108158596856465	-0.392477074986172	-0.908509909626566	-0.392187784635588	-0.908854371858139	-0.00747895624622093	0.00923787743232217
5.4	-0.0110211467428863	-7.85670757786051E-06	-0.528906302855672	-0.836862675063881	-0.528770052976873	-0.837152309532469	-0.00502289065954672	0.0102258646561618
5.5	-0.0124708651511346	0.000887548604507594	-0.652919091361065	-0.744434086755068	-0.65286907013096	-0.744748240603299	-0.00304330014026407	0.0108580710734202
5.6	-0.0122423475876611	0.00350040947941906	-0.760209454490788	-0.633627268486528	-0.760222933389028	-0.633797744355964	-0.000338320188340266	0.011465735044362
5.7	-0.0115878494854111	0.00485443223880074	-0.84931065471508	-0.507983001935866	-0.849286866676087	-0.508158231340513	0.00212127625478529	0.011358869390663
5.8	-0.0109604244546524	0.00633813426439739	-0.917812362457094	-0.369878252757919	-0.917857238576856	-0.370170647016151	0.00443974145629352	0.0110397166829287
5.9	-0.0102157426509985	0.00714832219184717	-0.964253697245243	-0.222831213437275	-0.964374230586656	-0.222879166308062	0.00671000785218785	0.0103173843829846
6	-0.0105991465485427	0.00807317202027108	-0.986719127332444	-0.0700987150844188	-0.986716102877502	-0.0701674479534341	0.00828234637457796	0.00921091414460578
6.1	-0.0101289065991423	0.0106627252780253	-0.985402153057319	0.0833897030578705	-0.985405364137836	0.0832863186526792	0.0104305759166226	0.00826915785969886
6.2	-0.00848382421560406	0.0124438412306423	-0.960588837055021	0.235389180578367	-0.960636966388842	0.235207358602567	0.0123516953761708	0.00583986704399486
6.3	-0.0068401760698027	0.0133405411797144	-0.912390902644613	0.381713287038639	-0.912415281489367	0.381584522982516	0.0132463501294108	0.00270120465379272
6.4	-0.00509949264456636	0.0136148999481299	-0.841803193217566	0.518719456426568	-0.841794526324995	0.518505761347852	0.0130725057072552	-0.000731601026333469
6.5	-0.00384901037436745	0.0132890186560892	-0.751115158778375	0.642552744439004	-0.751215685788996	0.642380339018242	0.0120023298609493	-0.00395661200841789
6.6	-0.00229523980574805	0.0130250752882477	-0.64263754964036	0.751665246382174	-0.642786135426102	0.751519103799067	0.0105066053431081	-0.00655673136363242
6.7	-0.00118565306086843	0.0121447580225946	-0.517917890276906	0.842485389377677	-0.518039200069336	0.842328044516736	0.008278661463306	-0.00870904991378261
6.8	-0.000344964416974004	0.0115212717239343	-0.380596574778794	0.912527374142108	-0.380807896961331	0.912452312359177	0.00566910963614383	-0.00994460289562068
6.9	0.000294627868032859	0.0107873751845111	-0.234420649119048	0.960261960239475	-0.234671544386588	0.960258203099302	0.00331202072455035	-0.0104249560924089
7	0.00108771208956078	0.0104948654772609	-0.0827921832691887	0.98545423976257	-0.0830507873308617	0.985424116588044	0.00110762948843115	-0.0105235739726746
7.1	0.00211715436128372	0.00978942911537973	0.0717383418001238	0.986353366877619	0.0715314095918687	0.986341387353189	-0.000870200157361099	-0.010212712067563
7.2	0.00293718019756621	0.00883305161560419	0.22406096946174	0.962916752765177	0.223805437121282	0.962961056784014	-0.00257932389502236	-0.00935438699756971
7.3	0.00322078485494069	0.00766641450308378	0.370711282430564	0.916306079257667	0.370470945572153	0.91639709756608	-0.00402391573082403	-0.00816477427510551
7.4	0.00337184729344151	0.0065854680995238	0.508409682848094	0.847692256782321	0.508191339021724	0.847854494289165	-0.00524369443976488	-0.00680785431150786
7.5	0.00285323486831191	0.00556330494091224	0.634349481232864	0.758212155192099	0.634189509010979	0.758384444249392	-0.00615348729295388	-0.00508477452008925
7.6	0.00298013242330857	0.00516631254637168	0.743966255465105	0.649963746886512	0.743751015750879	0.650125044143692	-0.00611994787684782	-0.00347407381152727
7.7	0.00297762301021222	0.0044394661384037	0.835468711079685	0.526673373921449	0.835317877249335	0.526868574098398	-0.00598717088624263	-0.0020498634320944
7.8	0.00309255868886774	0.00370028993679156	0.907156512173461	0.390538461208603	0.907035882707987	0.390760316937098	-0.00525660043163919	-0.000679632246631174
7.9	0.00272105489057875	0.00256340734303036	0.956780487704068	0.244762464356453	0.956740396446893	0.24498808163167	-0.00423852714373646	0.000360133789406922
8	0.000826806829262045	0.00148033312880653	0.982415760813662	0.0928373930991839	0.982486846460918	0.0931292201977034	-0.00385497148871953	0.000994488194019513
8.1	-0.000891211329018878	0.00320526314793907	0.984668342381462	-0.060152896149374	0.984792853510243	-0.0598819810058372	-0.00290870582294935	0.00254134183419351
8.2	-0.00101335004718586	0.00478872801918559	0.963452827303937	-0.212193446329583	0.963519139044611	-0.211897684180222	-0.00156668230813929	0.00319844621343419
8.3	-0.000834078436197584	0.00628823396292877	0.918652550654544	-0.359255987915445	0.91879051385923	-0.359000318358249	-0.000165548893067566	0.00342969124291621
8.4	0.000331091511507084	0.00736795639783362	0.851294313728903	-0.497433421328149	0.851506269429433	-0.497234131065568	0.00139387751067156	0.00315864130491258
8.5	0.000691203244981465	0.00716116693359363	0.763874846372419	-0.622698413653915	0.763990654352726	-0.622572796440655	0.0024341525628368	0.00199748139821288
8.6	0.000827480801071558	0.00865321673965164	0.658244390355128	-0.733998288792108	0.658441828256663	-0.733813233141222	0.00317780774573691	0.00150709598808655
8.7	0.00236111277302346	0.00990833328949449	0.536007371626297	-0.827198312415844	0.536289052733744	-0.827089484027334	0.00413697723168095	0.000467801832281125
8.8	0.00474009930276861	0.0102546008208001	0.401053216346709	-0.900096460012443	0.401259121147545	-0.900042363699491	0.0044399793928342	-0.000868541027628163
8.9	0.00738071547847853	0.00952457919092274	0.256688425194931	-0.951084499180263	0.256930026709585	-0.950944541452465	0.00462738565326536	-0.00194011454499841
9	0.00973704714193835	0.00716874758606895	0.106310835577653	-0.979771434031319	0.106672702202891	-0.979741899720503	0.00476882510857352	-0.00304547285374492
9.1	0.0113279487318841	0.00463019530519635	-0.0475673984870629	-0.984315011463309	-0.0472151828073527	-0.984330019021181	0.00509550693772145	-0.0039040323957676
9.2	0.0123038799488382	0.0010976135754315	-0.199836453925016	-0.964528600660696	-0.199481056871107	-0.964599703315432	0.005583310740527	-0.00498308070772903
9.3	0.0117211941460227	-0.0022311403003271	-0.346922787195728	-0.921667413470823	-0.34656613054848	-0.921732148766031	0.00585371058703498	-0.00594874760003278
9.4	0.0103138588206516	-0.00532977774679128	-0.485531844112447	-0.856870780244997	-0.485208994783862	-0.857018829975126	0.0060764543156788	-0.00698019381286326
9.5	0.00706080419326283	-0.00655114188349314	-0.613209083664501	-0.770809705854202	-0.613003259366023	-0.770947293669294	0.00543089574376478	-0.00746514121023482
9.6	0.00615611163457771	-0.00649294681137893	-0.724833967638484	-0.66558211422393	-0.724561894092753	-0.665767151012598	0.00560049222992295	-0.00780941868346955
9.7	0.00504711309820353	-0.00746754069328336	-0.818871375801152	-0.545148300138966	-0.818625849864924	-0.545417510598466	0.00516112407248315	-0.00873340526727931
9.8	0.00343996515512576	-0.00848281458197075	-0.89345007022935	-0.41152826468876	-0.893241706284125	-0.411803035061892	0.00434206335398029	-0.00917023036484065
9.9	0.00142359633601898	-0.00938876236438467	-0.946473192019711	-0.267643081720102	-0.946361463847282	-0.267972050007811	0.00387244098027255	-0.00938880523678738
10	-0.00265648370672808	-0.0100442277534202	-0.975678483710941	-0.117184155520499	-0.975599200592231	-0.117562005136521	0.00259359362317933	-0.00962517218323188
10.1	-0.00567081648938395	-0.00729427128431314	-0.981690146246733	0.0348472201829183	-0.981670958203949	0.0343704542540235	0.00222590064280279	-0.00879080862368368
10.2	-0.00699271323369778	-0.00534857352493088	-0.964552832924475	0.186612464344038	-0.964538407618176	0.186163645481022	0.00215862211726566	-0.00885422101556021
10.3	-0.00825821290208197	-0.00339701949183341	-0.923774008318854	0.334083390498492	-0.923909631975071	0.333544536604712	0.00168528252713278	-0.0092572619452996
10.4	-0.00901080512964466	-0.00201892591025536	-0.860223101296939	0.47317177808496	-0.860488143017645	0.472638041826734	0.00123242246504167	-0.00990007527239528
10.5	-0.0107352563714866	-0.000767366722308198	-0.77658749389685	0.599845607275649	-0.776869390431696	0.599460282084053	0.000469560493745207	-0.0109316634321573
10.6	-0.0122077310346253	0.00210253930784008	-0.674621309181356	0.713316556948485	-0.675046415729338	0.712973959009587	-0.000454760353529471	-0.0113591395676988
10.7	-0.0123222058730683	0.00574504993383924	-0.555660298875432	0.809402005085652	-0.556070791789018	0.809115010860954	-0.000972797653993618	-0.0116721611524021
10.8	-0.01088501589881	0.00883804302913536	-0.4231963423732	0.88548340116439	-0.423705280253222	0.885255506335922	-0.00135343217672432	-0.0122547848151105
10.9	-0.00889301466522717	0.0114659448216686	-0.281088977624906	0.939982251014094	-0.281575162716616	0.939931643012274	-0.00221176740798372	-0.0130643872308544
11	-0.0064055299143631	0.0131798911559389	-0.132357289513792	0.972870125185949	-0.132902160299556	0.972866051680223	-0.00323878753736752	-0.01375321819417
11.1	-0.00309237236621356	0.0146025836827707	0.0209558363056794	0.981530459855988	0.0203283699141023	0.981613857725622	-0.00421492648919904	-0.0143305562859694
11.2	0.000474891871209327	0.0145820596240294	0.172791262840036	0.966016002154606	0.172273826865301	0.966219020595076	-0.00530171024853265	-0.0148413533182159
11.3	0.00388752552533632	0.0137548734505104	0.320122760721087	0.927515363078449	0.319694722718867	0.927777473582547	-0.00622195343451927	-0.0149780773531517
11.4	0.00675729022964612	0.0116095489060751	0.460100758024361	0.867130189911248	0.459637862195635	0.867389714511043	-0.00721131846876947	-0.0149860702029565
11.5	0.00792752324203782	0.010079521387196	0.58987000657142	0.784880365801693	0.589513403297894	0.785298089556999	-0.00894616633649002	-0.0144607085567556
11.6	0.0103838689306336	0.00876578713245101	0.703704658512092	0.683280516065536	0.703439467238639	0.683760092841188	-0.00981185936208102	-0.0134477700114301
11.7	0.0125354608235251	0.00624445454376874	0.800914103948438	0.566188050631249	0.800676309677509	0.566609236064531	-0.0109110573684069	-0.0127052838640017
11.8	0.0136904092909412	0.00290271375485882	0.879178392975122	0.435136206765065	0.878995459760964	0.435687349803177	-0.0121637960506978	-0.0115356175956927
11.9	0.0139835413477743	-0.000781695034178166	0.936308754033444	0.293273690328536	0.936271567291898	0.293816735164073	-0.0131450016128946	-0.00974879143771394
12	0.0111126352688932	-0.00471029254482888	0.969521516904075	0.144173530674696	0.969510367345684	0.14465176124254	-0.0141165859083517	-0.00820895240189258
12.1	0.00907125669832265	-0.00516593170335378	0.979988273522997	-0.00711685026791926	0.979964282987386	-0.00664520772651031	-0.0137391778399582	-0.00569629201132565
12.2	0.00745433671957923	-0.00660110143049991	0.967214351731142	-0.159021405386494	0.967321240902267	-0.158585405064206	-0.0130482924940632	-0.0044458980359041
12.3	0.005342137908725	-0.00755943862974888	0.930693490139452	-0.307077688526735	0.930879096708432	-0.30672064959166	-0.0126101910068283	-0.00350428418697531
12.4	0.00308515051038434	-0.00832227796231684	0.871558543372074	-0.447551862408771	0.871691386830719	-0.447178168662306	-0.0121141189651682	-0.00265165328337889
12.5	-5.08371505681397E-05	-0.00908364312805777	0.791846634815478	-0.57623781496412	0.792303542989618	-0.575846480518607	-0.0120841007015034	-0.0023728467583209
