# GHZ S RI R 50
0.2	-0.000282886459073842	7.90612082581354E-05	0.948817316818365	-0.307933909053998	0.948591112193773	-0.308075755986766	-4.3624890319931E-05	0.000148106966007616
0.3	-0.000390797160185452	0.000387220156755013	0.888811633260115	-0.451576031718344	0.888674236013163	-0.4516292091123	-9.98255341733772E-05	-3.73781711991393E-05
0.4	-0.000123370491720971	0.000532129347845785	0.807231805860389	-0.583769113398509	0.807271873611433	-0.583908673919998	0.000111755937879124	-0.000139825726903294
0.5	-0.000268847617981174	0.000534778329210048	0.706515047969452	-0.701818335320957	0.70640450500892	-0.701914135954063	0.000166723096778755	-0.000439806425677378
0.6	-0.00039392860761633	0.000803089786774271	0.58872586449618	-0.802863390914436	0.588536400437842	-0.802866291189166	3.31453786226068E-05	-0.000561611973038984
0.7	-0.000341921504249392	0.00132122880732719	0.456657097254594	-0.884151791815466	0.45658311024841	-0.884186147358131	7.5138656177881E-05	-0.000797658897763241
0.8	8.57818093638902E-06	0.00149930407542049	0.313709820919735	-0.944083639634652	0.313591370076912	-0.943996979353325	-5.70512613047197E-05	-0.00101294460180712
0.9	0.000444561952108111	0.00191605658463431	0.163348919819336	-0.980983269397446	0.163200042892903	-0.980940469525902	-0.000247110938263018	-0.00122582062293804
1	0.00111791287352135	0.00132132582354485	0.00909344850256471	-0.994272534370956	0.00897545897221873	-0.994242906531919	-0.000436426660050418	-0.00180433712948668
1.1	0.000850065326259119	0.000956747600985286	-0.144857799974147	-0.983448873447971	-0.14550478088182	-0.983413839365052	-0.0014476865399935	-0.00178680431682867
1.2	0.000982311369384359	1.41626867658149E-05	-0.296440057811366	-0.948635077546834	-0.296433087297038	-0.948690702399999	-0.00156346846826258	-0.00145397897366569
1.3	0.000824790316174549	-0.00143120288009868	-0.439899089281359	-0.890900060866867	-0.43999109194564	-0.890924519954202	-0.000830319633119068	-0.000808532071386764
1.4	0.00052025122552748	-0.0029830796409112	-0.572612683903306	-0.81183358151075	-0.572686438917067	-0.811734124506286	0.000486842695664453	-0.000926482637116438
1.5	-6.02520707514205E-05	-0.00328044119975836	-0.691911360339418	-0.712773403401643	-0.691935945672295	-0.712701421109106	0.00147954238128429	-0.00159642174468404
1.6	0.000322437597921947	-0.00271244746196587	-0.79344520313394	-0.59683414490472	-0.793874254354419	-0.596334219026045	0.00172353738102014	-0.00227072082685594
1.7	0.000903177482066319	-0.00270531612346282	-0.87615550533934	-0.466399198887626	-0.876459606499994	-0.465909953126042	0.00133535635188386	-0.00308100083216591
1.8	0.00102135155444018	-0.00301806322762666	-0.937961499252757	-0.324335329513383	-0.937976934470284	-0.32432588001387	0.00043343006999603	-0.00375257523841418
1.9	0.00105572704183734	-0.00349054128516663	-0.976942711600863	-0.174611016497856	-0.976987165758977	-0.174663715605529	-0.000441357596685343	-0.00421712996304823
2	-0.000232799841990106	-0.00413066715767459	-0.991587659222157	-0.0213000495260172	-0.991682329454742	-0.0206514356080931	-0.0021066504657231	-0.0042737482894417
2.1	-0.000840840389063873	-0.00316038931908631	-0.98261942090111	0.133683963675288	-0.982718662497269	0.133200395004357	-0.00270161089730395	-0.00323471382364872
2.2	-0.0011094746678872	-0.00307864489293544	-0.950170551760789	0.283803125338217	-0.950209335091004	0.283936700579469	-0.00302772550598942	-0.00298474504065878
2.3	-0.0014617781851842	-0.0029988017264723	-0.894550465330058	0.427781284322485	-0.894386860105173	0.427869699362323	-0.00357680824622488	-0.00273969000699705
2.4	-0.00197301336737374	-0.0031933341479288	-0.816565094329485	0.561880922342193	-0.816855922676241	0.561419505744523	-0.00401014132223688	-0.00253434521704529
2.5	-0.00325611234526518	-0.00361306097211302	-0.719777347524173	0.681249995651399	-0.720078921226123	0.680869674552993	-0.00463574543218198	-0.00274862416953467
2.6	-0.00496545435971443	-0.00240879148054063	-0.605987761763195	0.784576413643243	-0.605908558015439	0.784517150030126	-0.00512779271220169	-0.00185558033517461
2.7	-0.00523275581867007	-0.000822600665830015	-0.476663407909312	0.869036464868521	-0.4766339712904	0.869050563429104	-0.00502462743616352	-0.00120833248588406
2.8	-0.00479039295805782	0.000326674059121988	-0.336169822659835	0.932290592715638	-0.336051820085824	0.932375090496936	-0.0045470337821194	-0.000646443189957748
2.9	-0.00354658800573353	0.000951238557992977	-0.187594265022918	0.972946734274452	-0.187589869560935	0.973001467603212	-0.0037735454346113	-8.13364295692481E-05
3	-0.00254752740315541	0.00122530565171617	-0.0343154574919138	0.990635684247707	-0.0343798144285178	0.990707003916314	-0.00269049674441983	0.000437644897813839
3.1	-0.000881467657130307	0.00120912411129026	0.119436860259998	0.983934198516818	0.120084503359419	0.984015891929495	-0.00127669249608958	0.000587199104382873
3.2	9.68870076728922E-05	0.000428926540501514	0.271207705462898	0.95312502104802	0.271197722651085	0.953164577798709	-0.000436826926102192	0.000190135896635302
3.3	0.00104014741933535	-0.00048353160518375	0.416420272459982	0.899240199740922	0.415797746272159	0.899520952940733	0.000531720867804286	-0.000266266497943142
3.4	0.00128822088943963	-0.00168362913765025	0.550466114137306	0.824248036997855	0.550381084630985	0.824363208226601	0.00140945110171161	-0.00117317643060139
3.5	0.00101300552961271	-0.00235205948715406	0.672091250538461	0.728737358665363	0.672105463965299	0.728763565366726	0.00164156330108955	-0.0020927313092367
3.6	0.001215937732535	-0.00257423484060221	0.776263487036607	0.615644307358113	0.776685615686517	0.615250638216683	0.00207819408604902	-0.0029150615013635
3.7	0.00151979309819712	-0.00349640628835218	0.862681309669734	0.487247580626333	0.862688224949703	0.487374074065535	0.00207180886337397	-0.00404278144743426
3.8	0.00121775467392923	-0.00448916882415548	0.927850129450763	0.347417422071025	0.9278783942064	0.347600702665779	0.00151361499904604	-0.00515840629070525
3.9	0.00106399512861894	-0.00570757381162077	0.970751761679096	0.198427077790814	0.97065314703356	0.199014959925367	0.000437301148633394	-0.0063895589370792
4	-0.000680863809144442	-0.00681464970869973	0.989221839550377	0.0458323609013508	0.989303791307593	0.0458753475962448	-0.00133386497772114	-0.00718950620149337
4.1	-0.0017705701134066	-0.00643138697044644	0.984447896705494	-0.10774419024119	0.98438576767898	-0.107680231026018	-0.00269738779877245	-0.00703476083328163
4.2	-0.00271958459746187	-0.00646776334310219	0.955633890178885	-0.259907139458202	0.955827046313029	-0.259337866474732	-0.00397875888227878	-0.00712346062628391
4.3	-0.00350771952032259	-0.00675287185103704	0.903928658627118	-0.404637575945735	0.903929523826849	-0.404619049823805	-0.00546725473711766	-0.00715749833703958
4.4	-0.00448875898877428	-0.00707197743583025	0.829925947680588	-0.539902273102533	0.829846067944128	-0.539886367260185	-0.00705388911184592	-0.0068635369240436
4.5	-0.00616720442129457	-0.00812454920703816	0.736325767284376	-0.661715480120253	0.736202239211001	-0.661569604334181	-0.00901004029288414	-0.00665383305760821
4.6	-0.00885251241848962	-0.00728898798582193	0.625040868206844	-0.768410760939164	0.625026137031464	-0.768181336494562	-0.0110786908174971	-0.00519367016830276
4.7	-0.0105855404186419	-0.00630160153766795	0.497877223673333	-0.856342047951469	0.497994201407366	-0.856097279873021	-0.0127060064602628	-0.00375131064099349
4.8	-0.0121115817505749	-0.00467536562268901	0.358537359367328	-0.92305064853942	0.35883104834507	-0.922861998653859	-0.0138809409388365	-0.00176952540622263
4.9	-0.0126973648683655	-0.00321374287883643	0.211035357059261	-0.966979195758822	0.211295147929733	-0.966928051032768	-0.0142175070160776	0.000646349145410178
5	-0.013152894554553	-0.00161644339350936	0.0590206154525835	-0.988417283928128	0.0591788861845772	-0.988289190756348	-0.0136847830730558	0.00329805259155547
5.1	-0.0122745593492945	-0.000177317898576556	-0.0955604626883458	-0.985659725095305	-0.0952390589784251	-0.985596891720766	-0.0119147645439201	0.00579174986541244
5.2	-0.0112806283208423	0.000526782238468804	-0.247484541676841	-0.958691236645289	-0.247056784191007	-0.958813368928501	-0.00992750624175839	0.00777818291143811
5.3	-0.0106111384409337	0.000343653368023373	-0.393197487153698	-0.908739232933847	-0.392908250288016	-0.909084034610207	-0.0074498908098047	0.00935611788081303
5.4	-0.0108179898949386	0.000204493998171552	-0.529718332796472	-0.837010524392252	-0.529582183730178	-0.837300405940977	-0.00496566031833547	0.0102322729784209
5.5	-0.0125240823445458	0.00133248382920633	-0.653928380659489	-0.744218607096035	-0.653878619816884	-0.744532966183583	-0.00309696596886848	0.0111238671136038
5.6	-0.0117501834386396	0.00414512055455155	-0.760929219907571	-0.633116360667958	-0.760942848876202	-0.63328686378455	0.000165102243504753	0.0118140233368742
5.7	-0.0107249214586435	0.00520420902741808	-0.849876237609516	-0.507405574702614	-0.849852584182315	-0.507580856426085	0.002921619742009	0.0113903267858767
5.8	-0.00984502973857365	0.00622884229668625	-0.91827579224482	-0.369213419038787	-0.918320909979251	-0.369505831012992	0.00543078230583646	0.0106623281170664
5.9	-0.00913679029091819	0.00622015187340201	-0.964607014047963	-0.221998441350891	-0.964727609630229	-0.222046293259719	0.00765852041070155	0.0092450431834551
6	-0.0105982964900037	0.00654863643363985	-0.986659054568205	-0.0691996427895882	-0.986656092470683	-0.0692683697832557	0.00832718055760212	0.00765544871174101
6.1	-0.0109251312367459	0.00960572624472412	-0.985299922478612	0.0840802220839591	-0.985303206240117	0.0839768444994782	0.00985325042618426	0.00705333879330959
6.2	-0.00971827021965477	0.0120244359661454	-0.960413662028644	0.236162718162772	-0.960461937832659	0.235980932203397	0.0113514741044548	0.0051020723553435
6.3	-0.00800515564203499	0.0136468802600709	-0.9119897180195	0.382525432579386	-0.91201421318177	0.382396698181044	0.0122411721412263	0.00257964706271148
6.4	-0.00585611017319025	0.0143092294111519	-0.841073226476314	0.519396507064395	-0.841064769261772	0.519182861124011	0.0123588790066491	-0.000494155843854617
6.5	-0.00423768468574397	0.0140991375039275	-0.750386588830387	0.642843267124386	-0.750487199868489	0.64267099594265	0.0115792447546693	-0.00357218777653764
6.6	-0.00229214769225636	0.013764250612556	-0.641896070045371	0.752007110013783	-0.642044738615283	0.75186111829429	0.0103999318719094	-0.00619920489170566
6.7	-0.00099420396229302	0.0126957396596929	-0.516991616891311	0.842639227819082	-0.517113021647983	0.842482045970525	0.00833429081638965	-0.00844705249954493
6.8	-5.7281323414063E-05	0.0119355804905526	-0.379628733732874	0.912377442038867	-0.379840010174807	0.912302597643586	0.00586155952677558	-0.00974375423361553
6.9	0.00062371875401386	0.0111018434439755	-0.233627273925905	0.959820316769884	-0.233878015095874	0.959816731043077	0.00361828550143431	-0.0103114609717183
7	0.00149327610530228	0.01080634863353	-0.082148455634849	0.98509838835116	-0.082406971536591	0.985068437602828	0.00155713654907452	-0.0104601453323287
7.1	0.00269127628052432	0.00990903085039109	0.0724774767177959	0.985732634960849	0.0722706533485665	0.985720825989796	-0.000252726519460804	-0.0103882042904862
7.2	0.00349747448100819	0.00870853934328845	0.224557536036705	0.962076328529239	0.224302216388409	0.962120775166657	-0.0019744105476108	-0.00979975252980411
7.3	0.00364796840712204	0.00733946861483555	0.370945235668822	0.915434221609938	0.370705124072362	0.915525305821337	-0.00355110705204292	-0.00884546234769528
7.4	0.00355578197144278	0.00616201261659539	0.508522445094076	0.84693416668832	0.508304311933598	0.847096414503086	-0.00505410721178243	-0.0076152035181004
7.5	0.00272484496699199	0.00537035649964236	0.634565993095516	0.757248282086573	0.634406254757746	0.757420593485813	-0.0062738777210921	-0.00570095841713638
7.6	0.00301253022167275	0.00529691078253596	0.743745183285824	0.648831616401542	0.743530257593416	0.648992918925264	-0.00611574451925722	-0.00388595559644371
7.7	0.00327640949387738	0.00454841242117942	0.834960103165111	0.525662154014539	0.834809532868485	0.525857251786879	-0.00585593232592867	-0.00243125054071254
7.8	0.00353325608648901	0.00364523140610335	0.906445708284262	0.389659903458689	0.906325319115375	0.389881598721787	-0.00507633456267697	-0.0011344772610834
7.9	0.00314148077753752	0.00220765370447635	0.955900309029559	0.243946904119268	0.955860391257305	0.244172303629685	-0.00410710398038047	-0.00022707186672585
8	0.000601153639408586	0.00099114660181787	0.981048852828737	0.092237481865465	0.981119974969213	0.0925288560648354	-0.00414614409805097	0.000438577114413586
8.1	-0.00116458273388838	0.00326848841740154	0.983314800668566	-0.0601867483219544	0.983439173481295	-0.0599162183129111	-0.003052668098191	0.00245204126309286
8.2	-0.00110309078862859	0.00504651914407701	0.962203309628673	-0.211982634498541	0.962269555148552	-0.211687256002582	-0.00146745726697806	0.00316598324888247
8.3	-0.000706852718361313	0.00663980029090971	0.917439054081082	-0.358827605257729	0.917576848540841	-0.358572275083188	0.000134025165490518	0.00337612849865684
8.4	0.000782324775023761	0.00758977974798335	0.850063247530538	-0.496684267400794	0.850274888283671	-0.496485262839314	0.00193818774802667	0.00292638210593144
8.5	0.00092572555463052	0.00693093436377931	0.763046650600722	-0.62145162818422	0.763162234102633	-0.621326141137555	0.00277309248488066	0.00137901144549272
8.6	0.000870534898931053	0.00871357479352565	0.657780564936976	-0.732860030432377	0.657977693296322	-0.732675108928653	0.00341581455656122	0.00106645878540021
8.7	0.00250382954505447	0.01006440379303	0.535688088707357	-0.826001408884325	0.535969390868871	-0.825892601139918	0.00441342955153759	-3.98652336205547E-05
8.8	0.00498545257880872	0.0104992906963941	0.400958466191581	-0.898796893273986	0.401164090603086	-0.898742771812119	0.00464862730837852	-0.00138634183688792
8.9	0.00791602339347016	0.00981558569872074	0.256964224370276	-0.949720338582306	0.257205432160646	-0.949580405276431	0.00490513985395673	-0.00238966359894845
9	0.0105566661073705	0.00720076939778727	0.106851399985232	-0.978742998433728	0.107212893189834	-0.97871325493247	0.00518804123423229	-0.00359927819109735
9.1	0.0123241544972188	0.00421936424357818	-0.0470240400810622	-0.983185804904194	-0.0466722294415248	-0.983200620392282	0.00564723553208118	-0.00475016630894673
9.2	0.0129860078220706	0.000134320695268617	-0.198888756841639	-0.963402748857207	-0.198533776398785	-0.963473505660288	0.00584296959371286	-0.00620984821496698
9.3	0.0118183951177001	-0.00331011832487348	-0.345593956209996	-0.920834135765494	-0.345237689061492	-0.920898444975057	0.00564620567822035	-0.00715349753292153
9.4	0.00991787989392667	-0.00627933036257521	-0.484066748226315	-0.856557022230427	-0.483744056787546	-0.856704555268151	0.00556444918072787	-0.00797770640657717
9.5	0.00617404856622032	-0.00683314642049075	-0.611941107860551	-0.770642968749179	-0.611735351710912	-0.770780242461098	0.00470410395805568	-0.00789357800981628
9.6	0.0057725339313588	-0.00623877864906394	-0.723295949541468	-0.665648036054038	-0.723023972176225	-0.665832567215096	0.0053962067279745	-0.00797573334894779
9.7	0.00496784619580857	-0.00722238625408815	-0.817382562374214	-0.545681122366863	-0.817136924927222	-0.545949757900005	0.00512857442011352	-0.00902118435961335
9.8	0.00356902877455577	-0.00829584330978982	-0.892199910501959	-0.412403916391568	-0.89199134125924	-0.412678192681412	0.00438446187741339	-0.00951069345993899
9.9	0.00169249476670639	-0.00951955168086984	-0.945515714713187	-0.268622651177133	-0.945403658549531	-0.268951263805866	0.00397947367628768	-0.00991091055761907
10	-0.00296242450624872	-0.0102599410211633	-0.97462169764698	-0.118322380060452	-0.974542005298403	-0.118699777106706	0.00227751487243339	-0.0101005843154634
10.1	-0.00582086215775428	-0.00697668152254393	-0.981045923827689	0.033269265461595	-0.981025995187248	0.0327928695620081	0.00216687964990423	-0.00887296318764485
10.2	-0.006832216921952	-0.00497535854770149	-0.964331914049407	0.185021784628971	-0.964316802082555	0.184573225218902	0.00232836823185749	-0.00896369502915096
10.3	-0.00777400423504648	-0.00307229345372333	-0.923815654731023	0.332545767508071	-0.923950410646922	0.33200697740854	0.00206530088734541	-0.0093903831188352
10.4	-0.00810790233465009	-0.00206460175426054	-0.860389511942042	0.471566258362233	-0.860653575760633	0.471032462101468	0.00194797011630646	-0.0102614949173497
10.5	-0.00997044122354128	-0.00159247744510048	-0.777330918337467	0.597948681302638	-0.777611882797644	0.597563018657485	0.00115546817613048	-0.011863005783594
10.6	-0.0121928190879924	0.000838073257915543	-0.675922080871118	0.711830358889335	-0.676346420652744	0.711486974497787	-0.000218368381104991	-0.012755564632371
10.7	-0.0131140684649386	0.00461218346944041	-0.557245524320333	0.808256928761153	-0.557655426068634	0.807969130732143	-0.00137603963039606	-0.0130949072238308
10.8	-0.0119671160323021	0.00813933122061984	-0.425021952643329	0.88468932253102	-0.425530465178796	0.884460379442465	-0.00206734842332138	-0.0132716121657912
10.9	-0.0100666223399323	0.0113143621755529	-0.283200318387687	0.939588589755025	-0.283686506160056	0.939536911638638	-0.00301354376354449	-0.0136474872829608
11	-0.00751811664239783	0.0135614669404347	-0.134503913961518	0.973332986906834	-0.135049191331555	0.973327764488286	-0.00397042708755726	-0.0139414104803745
11.1	-0.00386253349169431	0.0153189200121651	0.019235551228416	0.982305012693535	0.0186074658696299	0.982387363421561	-0.00467883705881225	-0.0143203316383011
11.2	1.14154308755481E-05	0.0154497482196156	0.171209957654276	0.967048014710659	0.170691773218924	0.967250269149932	-0.00556740373278442	-0.0147559783084622
11.3	0.00373344486259227	0.0146971475970097	0.318725374933352	0.928907835706668	0.31829648738413	0.929169401624856	-0.00630496996265287	-0.0148563994089766
11.4	0.0068294820908986	0.0124225467613354	0.459101279449231	0.868957975803888	0.458637383249811	0.869216983099476	-0.00714372059542879	-0.014939436327124
11.5	0.00796091147391823	0.0110800260605878	0.589550145271041	0.78662269225718	0.589192551770131	0.787040453777029	-0.00886844869234622	-0.0142067525951593
11.6	0.0110818586779687	0.00993576052340196	0.703450880312543	0.68497566834862	0.703184737921575	0.685455356865613	-0.00915600522469872	-0.0131526703063329
11.7	0.013809853447071	0.00708099416763312	0.800991557282378	0.5680409738028	0.800752857838754	0.568462289717639	-0.00987112917085733	-0.012731496340546
11.8	0.0154365689435563	0.00312027764718312	0.879712611419707	0.43699677161537	0.879528631288451	0.437548380567969	-0.0108163368317433	-0.0120353512409532
11.9	0.0161169433213456	-0.00182765692028446	0.937248588215465	0.294867089290476	0.937210663332195	0.295410847134999	-0.0115148535904473	-0.011198958113027
12	0.0116993093419507	-0.00664122622116936	0.970526413759286	0.145591146331385	0.970514638513431	0.146069949314363	-0.0137870982458111	-0.0103336483419396
12.1	0.00862136691462239	-0.00710556256046547	0.981544377163356	-0.00565384662780683	0.981519639287738	-0.00518149641953197	-0.0141646947517079	-0.007866269971385
12.2	0.00599433608415229	-0.0078462975012626	0.969238666602103	-0.158082961598686	0.969345199016693	-0.157646003700006	-0.0143506798703358	-0.00601370952322217
12.3	0.00361370738861901	-0.00769009797042593	0.932840909979662	-0.306765049501607	0.933026530922243	-0.306407119664993	-0.0141283721825997	-0.00406827429298711
12.4	0.00182313452121116	-0.00769350487760648	0.873514325204891	-0.447694598009351	0.873647121074619	-0.447320111884918	-0.0131855915740599	-0.00251658722708059
12.5	-0.00102305351074459	-0.00828285512636248	0.793961883041398	-0.576523645595356	0.794419262636163	-0.57613108764573	-0.0127902302600018	-0.00202574423934806
12.6	-0.00382858837432505	-0.00610794175150683	0.695774350750791	-0.6935468775256	0.696120652038174	-0.693236954094899	-0.0121841538172364	-0.00066117509035803
