# GHZ S RI R 50
0.2	0.000105520200981863	-0.000840200724532998	0.95260763232572	-0.306964096746433	0.95238097560286	-0.307106888263495	0.000335255246082405	-0.000758955332446104
0.3	-0.000626709368160657	-0.000642287896169044	0.893709366065814	-0.451140976405592	0.893571533210774	-0.451194735389021	-0.00034595424124808	-0.00104308444271786
0.4	-0.00124191267447692	-0.000120508658620767	0.813319785544862	-0.584630381691866	0.8133604740253	-0.584770588581765	-0.00101209738346568	-0.00075805776920894
0.5	-0.000983032746750647	0.0015741024791922	0.712415363898091	-0.705317623105559	0.71230424375442	-0.705414249652169	-0.000548866084716974	0.000633244241528852
0.6	0.00015844025833481	0.000794206468636401	0.593449815597019	-0.806934404619165	0.593259199290728	-0.806937589452229	0.00057290567113653	-0.000526188609251884
0.7	-0.000385844815825705	0.00065328550490906	0.461216257392197	-0.889348392454074	0.46114182909817	-0.889383103533645	2.24348463981397E-05	-0.00140197553068745
0.8	-0.00065382341050817	0.000546977933927574	0.317348693635648	-0.950876999135527	0.317229224402045	-0.950789833469283	-0.000714367475049756	-0.00188131407186832
0.9	-0.00186894406781389	0.000784313635076958	0.164907671121353	-0.989106192531928	0.164757547627526	-0.989063067288693	-0.00252077807332382	-0.00226147909259995
1	-0.00261318317823037	0.00416865843224383	0.00845800150998501	-1.00131182395515	0.00833919834084487	-1.00128190354618	-0.00408519693801378	0.00110157179243984
1.1	0.00125011755772074	0.00416794838345012	-0.145433458126281	-0.990989087806974	-0.146085367464139	-0.990954132584723	-0.00100005096274269	0.00140049269176988
1.2	0.00180091428872778	0.00188153545378962	-0.299097209026112	-0.956814994588943	-0.299090183747362	-0.956871101530707	-0.000727276832284116	0.000340806764296618
1.3	0.00219573593467198	-0.000480609458458356	-0.444798433437996	-0.898398699613165	-0.444891286083467	-0.898423278201671	0.000468138789757711	8.23899511892949E-05
1.4	0.0019435326928713	-0.00301145517228312	-0.578891741225956	-0.817551473958843	-0.578965928068043	-0.817451050490767	0.00175578040899302	-0.000929895324689267
1.5	0.00369167259347092	-0.0052863457381616	-0.697834354158585	-0.718377895830412	-0.697859116027584	-0.718305314546544	0.00506216447848997	-0.00350333654458209
1.6	-4.26272037802874E-05	-0.00834724756793895	-0.802573667012926	-0.602184944588141	-0.803006650691815	-0.601679202401778	0.00120438136149984	-0.00760739117960715
1.7	-0.00216550191649465	-0.00610025707400496	-0.88689417340547	-0.46884749209213	-0.887200109244944	-0.468352122931179	-0.00177800964680081	-0.00615668105821228
1.8	-0.00291556470302949	-0.00432490478427268	-0.948868337683066	-0.324154437495295	-0.94888389670576	-0.324144832332764	-0.00345689512229084	-0.00476885355732303
1.9	-0.00301538990703892	-0.0013969287170269	-0.987482561536369	-0.172865520933242	-0.987527656428449	-0.172918594667739	-0.00440816058188873	-0.00189592981073394
2	0.00189612532413553	-0.000375125533924742	-1.00415305674477	-0.017583869081123	-1.00424631235752	-0.0169267115153343	9.06141468533358E-05	-0.000369570718458048
2.1	0.000707729301920597	-0.00510104039895508	-0.993593703744519	0.142602588872941	-0.993697741802233	0.142113867826355	-0.00113500953029974	-0.00498384986278975
2.2	-0.00224697873891745	-0.00484298636536202	-0.958203162772173	0.294729007779034	-0.958241268868975	0.29486436052484	-0.00410014129972917	-0.00452214441520788
2.3	-0.00393557467686498	-0.00372305421347984	-0.90032212225696	0.440013159199282	-0.90015602525377	0.440101099153068	-0.00591794869554587	-0.00325518176158583
2.4	-0.0058713045251868	-0.00149781308430099	-0.820547048055748	0.575830786149079	-0.820845458020894	0.575366870907347	-0.00771802855594223	-0.000719491299580131
2.5	-0.00302603663020948	0.00257204883978774	-0.719011088311402	0.698283591405156	-0.719321005308739	0.697902915289108	-0.0042634122844603	0.00338133160488591
2.6	-0.000985280272977489	-0.000663893789273122	-0.60010900078464	0.798894732941717	-0.600029980172589	0.798833935790009	-0.00113776943608661	-0.000173479738167132
2.7	-0.0023369187147323	-0.00174104032523129	-0.468685459346938	0.881568439315857	-0.468655625145612	0.8815822529339	-0.00219740925826606	-0.00213036086638616
2.8	-0.00362611953220479	-0.00160958664191534	-0.325637312003017	0.943494390015149	-0.325517311084631	0.943577849627787	-0.00348309306620295	-0.00252862250633236
2.9	-0.00349309575964863	-0.000555728785767162	-0.173467651385515	0.982141603472752	-0.173462365327514	0.982196618575199	-0.00386697043085822	-0.00140258437107735
3	-0.00253211287196694	-0.000944901943115628	-0.0177303341053523	0.9934868655016	-0.0177936390610371	0.993559431471584	-0.00281065203694502	-0.00146776452724701
3.1	-0.00327248977711974	-0.000501238883803681	0.133619050859001	0.984065025218614	0.134269054630947	0.984137681087365	-0.00375360851615315	-0.000938299046364488
3.2	-0.00247834118780358	0.000518118350224063	0.285870048548019	0.95114186045028	0.285860629134931	0.951181648779903	-0.00301794308228485	0.000601896227806274
3.3	-0.00112201982745825	0.000832783525598101	0.431051492045295	0.893651553894103	0.430432716096454	0.893942427818725	-0.0015834663007137	0.00135282478777286
3.4	0.000472837163733659	0.0012057652562057	0.56305214556054	0.814182788920664	0.56296910020937	0.814299177219298	0.00064985812588294	0.0019703397475452
3.5	0.00372744173308566	-0.00145133959998059	0.679540464448047	0.718040922196081	0.679554974007131	0.718066872039515	0.00435231633234586	-0.000959425517136585
3.6	0.00114616662041533	-0.00424087606314519	0.784111370092541	0.604892650096647	0.784527987233721	0.604493525502692	0.00201114160393072	-0.00428787285113769
3.7	0.000109170246175934	-0.00402402854971999	0.868428474415296	0.47369867585837	0.868437245143028	0.473824855398805	0.000720784280566117	-0.00425471901052316
3.8	-0.000678077658351418	-0.00392991756950228	0.929886975260565	0.332613779034788	0.929917843097649	0.332796036332301	-0.000269592865739205	-0.00431463972606395
3.9	-0.000774956416734501	-0.00278152368963003	0.969072735359878	0.184799086170267	0.968982278621437	0.185385668384237	-0.0012606610018812	-0.00325647306917496
4	0.00282057188442694	-0.00308404800342724	0.98816711415347	0.0331657615018297	0.988249477347466	0.0332076339410398	0.00220422717497721	-0.00335510459912851
4.1	0.00133025783588245	-0.00789396727396745	0.979500793322773	-0.123275684455138	0.979439898697919	-0.123210931352742	0.000328190248551499	-0.00831269968085414
4.2	-0.00189735912812092	-0.00859706976983534	0.946087446138999	-0.273547720660983	0.946288510023012	-0.272984740893777	-0.00322631520172249	-0.00900092117538579
4.3	-0.00436989880996349	-0.00878912303212361	0.891830291649883	-0.415364768530896	0.891831426658857	-0.415346379855016	-0.00636390573768796	-0.00889784809571545
4.4	-0.00760405401509323	-0.00728760279443796	0.81703861861837	-0.548530622203972	0.816959459926027	-0.548513663814148	-0.0101470450058724	-0.00680874506905452
4.5	-0.00661605032002221	-0.00381104616743513	0.719404882781765	-0.670543859430228	0.719284822989174	-0.670396737970072	-0.00946711163402339	-0.0021790683268737
4.6	-0.00612174261997124	-0.00585245956566712	0.604622050715544	-0.770060135803674	0.604611402154166	-0.769833148305201	-0.00847482431615996	-0.0035645506601306
4.7	-0.00813317986330412	-0.0064337286683976	0.478703527390715	-0.852863900889107	0.47882267589185	-0.852624008226681	-0.0104399881021817	-0.00360191106669419
4.8	-0.0100531048830737	-0.00588576835909333	0.340703773082545	-0.916010406374205	0.34099628197647	-0.915828411149	-0.0120162903111279	-0.00261969667881297
4.9	-0.0113457679811677	-0.00482673425835679	0.193506736189528	-0.956651957357989	0.193763668794534	-0.956605444336888	-0.0130061561051919	-0.000520224397374884
5	-0.0113689704578854	-0.00432918581992735	0.0434629003568341	-0.970321546324299	0.0436200050542906	-0.970198219815	-0.0119966260956518	0.00107652854094739
5.1	-0.0136235225899285	-0.00392141133255682	-0.103157535039303	-0.965644304132633	-0.102841756927509	-0.965585769343914	-0.013262248552019	0.00258597905897942
5.2	-0.0146236869404128	-0.00122187023442085	-0.25119155177529	-0.938680586846856	-0.25077282440154	-0.938804155005173	-0.0131084071933748	0.00652063529434571
5.3	-0.0143061073220361	0.00140391374692531	-0.393099454765329	-0.887844977340705	-0.392818688872704	-0.888185485188444	-0.0108876291596838	0.0107270368057133
5.4	-0.0119256380275661	0.00481278848647512	-0.524117013104184	-0.814924244052732	-0.523985912277817	-0.815208760226348	-0.00591589456022085	0.0149140431099411
5.5	-0.00671401195125221	0.00173894895606423	-0.640205612621424	-0.726557445113831	-0.640157401180126	-0.726864787946904	0.00253996155554305	0.0115810427567984
5.6	-0.011761680644827	-0.00024418200272381	-0.747219774470505	-0.620447078795285	-0.747233313959515	-0.620614357447701	-6.21881772243713E-05	0.00769473449711845
5.7	-0.0138796247975171	0.00304781657888127	-0.834180751097994	-0.496543946564637	-0.834157779336706	-0.496715886365812	-0.000405320095874951	0.00952468807185701
5.8	-0.0142661643582972	0.00670703019660365	-0.899709053571896	-0.361672487558315	-0.899753278419819	-0.361958975684907	0.000867455112059961	0.0114110667500051
5.9	-0.0131782698040316	0.0118302978239414	-0.94406194376438	-0.22039268018421	-0.944179909017744	-0.22043991755488	0.0034244042856406	0.0150286287321556
6	-0.00469063670839257	0.0139152952938433	-0.970597760922759	-0.0726600466640495	-0.970594528284086	-0.0727276633317767	0.0138257196265854	0.0151235600635471
6.1	-0.00436903128223931	0.00855828152418492	-0.968825951435663	0.0811396233481412	-0.968829019827271	0.0810379832175457	0.0157218083795422	0.00631875707241834
6.2	-0.00582221161536621	0.00869540654507515	-0.943302020791277	0.228911086988973	-0.943348857262695	0.228732529448569	0.0145144379596394	0.00241936506678192
6.3	-0.00650867392615292	0.00943851142204131	-0.897112154761292	0.370783251275675	-0.897135536659202	0.370656768266734	0.0131848124979807	-0.000676854405525302
6.4	-0.00657698249964479	0.0112130310168055	-0.830812389695854	0.505370122010126	-0.830802656033866	0.505160011271623	0.0113739620231512	-0.00253632267971359
6.5	-0.00488814098233241	0.0119951154065279	-0.740531923437675	0.630447707432701	-0.740630427926657	0.630277841329443	0.0108056219049391	-0.0047121298071716
6.6	-0.00404421391332782	0.012591311779486	-0.633071224908798	0.733686996479683	-0.633216171578243	0.733543129072521	0.00869919210470838	-0.00636020216140159
6.7	-0.00209961896093231	0.0130442075236644	-0.51408190796542	0.822087862839677	-0.514199660182979	0.82193269276852	0.00745649586064792	-0.00721147923839705
6.8	-6.97325238692408E-05	0.0125429188523624	-0.381692782578438	0.892514641624522	-0.381899585533923	0.892439087301346	0.00611628152407069	-0.0084126184419144
6.9	0.00179547602590701	0.0114169402077734	-0.238064557610103	0.941572259704937	-0.238311033417348	0.941566544788473	0.00491544542726187	-0.00929437989614694
7	0.0027949820040861	0.00869423055025694	-0.089790022392304	0.963234673535632	-0.0900427205989333	0.963202897171428	0.00296402083827575	-0.011724143056111
7.1	0.00160060819044336	0.0080162350578612	0.0559115927456455	0.96745427381064	0.055709019667259	0.967439520567979	-0.00107518740284134	-0.0114860760042447
7.2	0.00196428614579929	0.00785297122701515	0.205062483862699	0.949293385904048	0.204810803240004	0.949332917541207	-0.00322033828006026	-0.00994521930609169
7.3	0.00209390935260891	0.00721725437850222	0.349837609234556	0.906643713516858	0.349599905523664	0.906729362346593	-0.00483845586436921	-0.00829269535866599
7.4	0.00253086053317599	0.00694713487866008	0.484740190524184	0.840844143383218	0.484523079683443	0.840999713165596	-0.00574735510986822	-0.00611683308162402
7.5	0.00378217254772475	0.00484315465370661	0.605834314237495	0.759983836954543	0.605673073441904	0.760149450980451	-0.0048933561449986	-0.00562774669621964
7.6	0.00146120192829033	0.00261163895967773	0.720263681170537	0.660016894643785	0.720047107124742	0.660171310211135	-0.00734309463666065	-0.00589845258061769
7.7	-0.000610447937294194	0.00329431392998684	0.814985459056868	0.540176377957297	0.814831755220243	0.54036616383319	-0.00930925101126111	-0.00308333611828655
7.8	-0.00162881292272952	0.00482972358325821	0.889162022290366	0.40801071575196	0.889037364424058	0.408227581610491	-0.00972653998598547	0.00049140732894042
7.9	-0.00170878600931433	0.00804125022115876	0.942318167797282	0.267945736123782	0.94227246220867	0.268168407883354	-0.008076304835158	0.00590387988172927
8	0.00539064510559828	0.00901124924822365	0.97850822849601	0.119163006641239	0.978571352790241	0.119456330219948	0.000446557363083954	0.00855383666565178
8.1	0.0049668273050148	0.00300288459529976	0.985051243171883	-0.0376123986215543	0.98516944406925	-0.0373389133718885	0.00293307918745198	0.0023270151678811
8.2	0.0022551950846438	0.00220024064770599	0.967120462704758	-0.189467249537785	0.967179796375604	-0.189170334182615	0.00163702330086776	0.000719140064082853
8.3	-5.53132813815927E-05	0.00258206886474247	0.927631512754361	-0.336789738490097	0.927763230316914	-0.336530638498893	0.000576543515985225	-7.32761856921532E-05
8.4	-0.00279414299285688	0.00515794860705362	0.867158083344794	-0.478262461455274	0.867365940940571	-0.478057078873275	-0.00171044597526425	0.00115860407193181
8.5	0.00105048627779107	0.0107232458181676	0.780383784054712	-0.611586333786554	0.780497843064869	-0.611457742642569	0.00275222190196098	0.00574701671116548
8.6	0.00390011622286667	0.00655022221003261	0.674882471505706	-0.722298618517021	0.675076598668123	-0.722109068153531	0.0062816700745932	-0.000240493957246864
8.7	0.00233473067595067	0.00605973343108334	0.556760571484102	-0.818761698412816	0.557041024790883	-0.818646117468171	0.00429169900211872	-0.00303616222150731
8.8	0.00216206898652125	0.00664025000517304	0.423726567427782	-0.897428904512002	0.423932694803131	-0.89736988088769	0.00214015840980202	-0.00419933807224594
8.9	0.00209850760549937	0.00775736616578666	0.277303706583522	-0.954430453242699	0.277544713708069	-0.954284606065122	-0.000347602470639961	-0.00353357851180467
9	0.00512219636429653	0.0091597136484656	0.125188148739961	-0.981936630984841	0.125550998023922	-0.981900166404162	0.000445523258422612	-0.000891943182924615
9.1	0.00703286967409132	0.00775305326539185	-0.0248685897594187	-0.992649672921828	-0.0245134388083168	-0.992656543366173	0.00112057298711393	-0.000725453949010841
9.2	0.0098055502709824	0.00672608192811991	-0.180438545232145	-0.979520386629014	-0.180077680747517	-0.979584314245479	0.00331140266489743	0.00061751684257479
9.3	0.0124278515165963	0.00400411040332443	-0.332387485262381	-0.940072065380042	-0.332025124618659	-0.940130321701863	0.00669918961203392	0.000254707858524275
9.4	0.0144578835197061	0.00136158135307754	-0.474294889341173	-0.875556727008039	-0.473965672605899	-0.87570016320449	0.0102124922230901	-0.000293259909203909
9.5	0.0178130401747178	-0.00747357836103417	-0.601633937344126	-0.795384579596901	-0.601422198082331	-0.795518755507035	0.0160651314123972	-0.00829769302385526
9.6	0.00874652845461059	-0.0133728559181596	-0.723468676185725	-0.694254482747099	-0.7231873725693	-0.694436882811498	0.0080822102853427	-0.014473465598208
9.7	0.00336111948782912	-0.0122300938774299	-0.824434549389557	-0.571820101214896	-0.824178946045023	-0.572089852779077	0.00345842688864592	-0.013196789626769
9.8	-0.000558430687729132	-0.0109064621100093	-0.903695794859397	-0.436199295421202	-0.903478211569047	-0.436475710288498	0.000417132872281253	-0.0112764225102223
9.9	-0.00371774728070971	-0.0064478612806175	-0.961194338719679	-0.29221764544357	-0.961073672766156	-0.292551356968981	-0.00115838646735657	-0.00627571309641026
10	0.00153764572963068	-0.00571857507027647	-1.00169933698242	-0.138329167552412	-1.00161088698895	-0.138716477008594	0.00686940596490631	-0.00509007216723248
10.1	-0.00375847855339145	-0.010492021830322	-1.00983254841838	0.0245235439554325	-1.00980732563693	0.024033526989543	0.00430112335381622	-0.0117365959862187
10.2	-0.00896911911272475	-0.00799088966193137	-0.992807072964625	0.181738544494119	-0.992787615841713	0.181277624499411	0.000439362532134907	-0.0112739254729498
10.3	-0.0123488039132679	-0.00411663593092221	-0.953310860394737	0.334553760759068	-0.953445073686515	0.33399825650985	-0.00204642154326093	-0.00985338145469008
10.4	-0.0145314299633936	0.00121918250701421	-0.891694505390832	0.481618934611748	-0.891963868209852	0.481065897772498	-0.00385984356095301	-0.00673445607486681
10.5	-0.0109796283585158	0.0072989340894923	-0.801438911137021	0.620160545353099	-0.801730373095614	0.619762875228335	0.000510196845744306	-0.00321107730616485
10.6	-0.0080158707932737	0.00687689394354616	-0.692049937371229	0.733873830391184	-0.692487206615027	0.733522475302838	0.00392711592728272	-0.00682987859777066
10.7	-0.00720187896438841	0.00732095117501407	-0.569921884944184	0.832584320954892	-0.570344142065662	0.832289950363283	0.00419172440076273	-0.0105735960236364
10.8	-0.00681906127018474	0.00808416794793429	-0.432410995860845	0.912363477204521	-0.432935331964989	0.912130727488625	0.002548196107738	-0.0135365569645293
10.9	-0.00581409961454428	0.00975011186103598	-0.281475209830914	0.969177111717944	-0.281975722990025	0.969129016839719	0.000768151037525082	-0.0151451243797513
11	-0.00378892166883444	0.00980705025570137	-0.125937816186255	0.994888386230288	-0.126494353161817	0.994889402903629	-0.000889461235998067	-0.0173135218375431
11.1	-0.00328874034877815	0.0112744970729291	0.0269887758784476	1.00402413618624	0.0263473264829294	1.00411300396983	-0.00466416752774118	-0.0178829233333224
11.2	-0.000831224971681411	0.0124467873984149	0.184681628405113	0.988527156594115	0.184153006301232	0.988739273518915	-0.00699364866413557	-0.0172187711594187
11.3	0.00210086210036802	0.0131198166242081	0.337840353812166	0.946278394737033	0.337404895222325	0.94655142286815	-0.00873967836000335	-0.015555980349045
11.4	0.00607356820993541	0.0138958447482437	0.480167025970964	0.87883833432906	0.479698053922682	0.879108851209594	-0.00864726591510264	-0.0124261550702426
11.5	0.0124337047005169	0.0088640998517432	0.607120246825497	0.796773760120079	0.606759253114883	0.797202351674099	-0.00486772147525236	-0.0156795459222771
11.6	0.00942911446411628	0.00390155235347757	0.728602037609058	0.692896910541733	0.72833531257991	0.693391320246901	-0.0114104673588181	-0.0181513232183118
11.7	0.00866034100096898	0.00364446473619723	0.827940633741603	0.56804304649823	0.827703278334414	0.56847758366406	-0.0153668706918241	-0.0149610333075301
11.8	0.0081308043260064	0.00301515753098814	0.90470399280512	0.430639207402121	0.904525791322537	0.431204945986596	-0.018163582739984	-0.0109372514922429
11.9	0.00898553728737194	0.00562821096600115	0.959444660310298	0.286177363451314	0.959414292828752	0.286731972644853	-0.0186968924143254	-0.00307504116777495
12	0.0174534343613076	0.00321931052385532	0.997360165276287	0.132094862475747	0.997356549608141	0.132585843449907	-0.00834900466137555	0.000235716050598568
12.1	0.0146721964626749	-0.00543935192135407	1.00216099571227	-0.0296350451376511	1.00214721777548	-0.0291521060012112	-0.00884909200528838	-0.00538526159874215
12.2	0.0109532995221767	-0.00858981364425898	0.982341261912933	-0.184880703567868	0.982460494737404	-0.184438712676153	-0.0100756187374235	-0.00569115553342264
12.3	0.00702334357915283	-0.010722263147184	0.940638686266617	-0.334708181563432	0.940836144978952	-0.334348927127069	-0.0113206317663253	-0.00586036328786752
12.4	0.00158333809187556	-0.0103553475029917	0.877959419438614	-0.478458366926656	0.87810432048373	-0.478080447880486	-0.0138102294458925	-0.00384303753024676
12.5	0.00165099767230856	-0.00731842544214189	0.786481747377368	-0.613024609571474	0.78695987771792	-0.612641709312959	-0.0105436198263006	0.000135406359028278
12.6	-0.000679419401456715	-0.010375914478466	0.678254671716693	-0.722011423511082	0.678613944443667	-0.721710541465317	-0.00953176814926183	-0.00357599292029534
