# GHZ S RI R 50
0.2	-0.000140689816409549	-4.10866893490607E-05	0.949110522707071	-0.307915968257379	0.948884271393848	-0.308057878453679	2.45175657607596E-05	0.00011122086710216
0.3	-0.000297403383811416	0.000165857436483247	0.889154627211433	-0.451605032574481	0.889017192917995	-0.451658244828444	-0.000100048423289682	-7.80762639566918E-05
0.4	-0.000166323545563269	0.000248927720836789	0.807652098077899	-0.583881832081184	0.807692203889971	-0.584021443335634	4.42707699478501E-06	-0.00014780805142659
0.5	-0.000384512244204891	0.000438000722250277	0.706929455579869	-0.7021830139305	0.706818854658811	-0.702278871270788	6.43145074332748E-06	-0.000246835397050132
0.6	-0.000304361907942769	0.000608179701614381	0.588937484283038	-0.803264869895215	0.588747934599685	-0.803267758775175	-6.26145481781807E-06	-0.000375634812964524
0.7	-0.000327942031122975	0.000940050937576883	0.456831203401052	-0.884570410882475	0.456757181505754	-0.884604779244602	-2.82224106128026E-05	-0.000610043794171388
0.8	-0.000125830680688285	0.000986485241938883	0.313814730891016	-0.944588823721984	0.313696224228369	-0.944502111686725	-0.000183132448052673	-0.000769628357130103
0.9	-4.15179325154036E-05	0.00125918107644945	0.163272757674984	-0.981591494234954	0.163123800333319	-0.981548642882349	-0.000422750755594677	-0.00100146244091835
1	5.53694856796907E-06	0.0012404974159271	0.00872212902185345	-0.994693161369374	0.0086041011537918	-0.994663476584809	-0.000800720756210938	-0.00129489154397546
1.1	0.000298840998502035	0.00146749676304314	-0.145098020074779	-0.983737104936415	-0.145745202468081	-0.983701932229768	-0.00135546706966594	-0.00123836019722056
1.2	0.00083188132534233	0.000581299319652566	-0.296758320050758	-0.948966933414965	-0.296751358115897	-0.949022582745076	-0.00142981542971559	-0.00116235761656603
1.3	0.0013622522330188	-0.000941267185817231	-0.440353099690845	-0.891144961708864	-0.440445148658024	-0.891169403493438	-0.000568482530452644	-0.000644354925032001
1.4	0.00164765552581325	-0.00309187940412741	-0.573120001049917	-0.811841418756114	-0.573193737202817	-0.81174190138924	0.000852224319704561	-0.000987320785370357
1.5	0.001659799778449	-0.00407522839707913	-0.692099613081763	-0.712709990764923	-0.692124187553893	-0.712637997822099	0.00202694129679678	-0.0017366653032644
1.6	0.00135062849808679	-0.00486324819950539	-0.793811462538638	-0.597005047220087	-0.79424064255655	-0.596504886097476	0.00177734326835908	-0.00272807608251274
1.7	0.000829503379031012	-0.00482446097188344	-0.876673280648895	-0.466378650852343	-0.876977390023858	-0.465889104454803	0.00105331108046133	-0.0031025217758226
1.8	0.00024427552796253	-0.0047271795195592	-0.938421891192915	-0.324123314753718	-0.938437328767217	-0.324113856309002	0.000121945969409311	-0.00346048320323632
1.9	-0.000262866571587526	-0.00436850087948461	-0.977220883142907	-0.17438770078568	-0.977265362090992	-0.174440400309563	-0.000844028018595704	-0.00359166553816187
2	-0.000617288444554597	-0.00388955112137737	-0.992123450501242	-0.0212573634778542	-0.992218136366596	-0.0206083946683523	-0.00192019221992483	-0.00315343762332566
2.1	-0.000710209758479073	-0.00394794210806999	-0.983192539875231	0.13425991119152	-0.983292086690017	0.133776077136837	-0.00237887883207986	-0.00276708743498907
2.2	-0.00159566955965219	-0.00408628458003869	-0.950420107418848	0.284496092212019	-0.950458828040741	0.284629749560178	-0.00298519109279348	-0.00247992583092321
2.3	-0.00246856691567171	-0.00377157768018852	-0.894629274533322	0.428422858659627	-0.894465563330335	0.428511214833517	-0.00358092885144478	-0.00215915751188551
2.4	-0.00356085246788909	-0.00325686854354013	-0.816684968672489	0.562512247965345	-0.816976141473462	0.562050751457714	-0.00419006044346081	-0.00189492408914627
2.5	-0.00420300661423216	-0.00190097472828647	-0.71968542254277	0.682377625735678	-0.719987550363003	0.681997301225131	-0.00459944901199373	-0.0015068619569906
2.6	-0.00402670555006099	-0.00103129035785645	-0.605239376320507	0.785372801687607	-0.60516022329923	0.785313441556232	-0.00446563754973826	-0.00108465199969498
2.7	-0.00364381254752533	-0.000520275966834913	-0.475894942043314	0.869501098269232	-0.475865491549034	0.869515170753634	-0.00441896562640724	-0.000923948342507481
2.8	-0.00330689157908402	-0.000381227502793616	-0.33538925857323	0.932646759360101	-0.335271174724767	0.93273116134658	-0.00424795646395564	-0.000687401922980114
2.9	-0.0025126454187254	-0.00027910842194267	-0.186594615235578	0.97329515996195	-0.186590161228477	0.973349897104335	-0.00385855480230423	-0.000124816525957133
3	-0.00172015286993466	-0.000445607271439976	-0.032901133099651	0.990297161629575	-0.0329653640349792	0.990368544453358	-0.00292239519012507	0.000466290707302073
3.1	-0.000917120217789413	-0.000790641074997041	0.120193840282825	0.983195917699487	0.120841133363137	0.983277009073724	-0.00191418556184483	0.000795601060595487
3.2	-0.000513728009959148	-0.001224242205779	0.271809422321728	0.952451915809241	0.271799474828565	0.95249146097801	-0.00112826330466647	0.000803754950405019
3.3	0.000160510603153071	-0.00169606708530895	0.416997360151877	0.898419790313978	0.416375395321962	0.89870094683266	-9.66546729878673E-05	0.000613926931895908
3.4	0.000431569168454488	-0.00224444115618054	0.550861108372049	0.823010642570115	0.550776266345795	0.823125806853604	0.000855500249849738	2.10653841372329E-05
3.5	0.0011812694215665	-0.00282567929725159	0.671518086009999	0.727502948032718	0.671532291840746	0.727529114515816	0.00163590397573333	-0.000821289134969582
3.6	0.00106062207919588	-0.00397190871615607	0.775770897076031	0.615082328443115	0.776192659169681	0.614688894219704	0.001837969962459	-0.00197491197502195
3.7	0.000761443459081168	-0.00477105292793086	0.862234575611686	0.486623687603861	0.862241527341551	0.486750089950986	0.00173578200872195	-0.00286518316660045
3.8	7.56692511452144E-05	-0.00538386556588787	0.927151514249552	0.346816560038651	0.927179813107279	0.34699967156137	0.00122951796640168	-0.00386635657449495
3.9	-0.000361834746138376	-0.00573730945669752	0.969693413621273	0.198218145474768	0.969594902039654	0.19880538683693	7.12102364689155E-05	-0.00491245760705291
4	-0.000741716531751265	-0.00568458040871444	0.988747610459998	0.0463283191511377	0.988829502455085	0.046371329095573	-0.0011191003459287	-0.00531757142017173
4.1	-0.000860481100797362	-0.00653112498799529	0.984208102021471	-0.107871282811767	0.984145996926494	-0.107807328536104	-0.00236991118959237	-0.00587523944281313
4.2	-0.00205558578085943	-0.00719561056127656	0.955071663198026	-0.259974485154356	0.955264839137849	-0.259405555316036	-0.00394628170320099	-0.00603177287391021
4.3	-0.00321692907870167	-0.00780423402395875	0.903362586877413	-0.404408528331086	0.903363451961179	-0.404390013643368	-0.0055929866903005	-0.00609695862884256
4.4	-0.00501263125490375	-0.00797684264103367	0.82977462470537	-0.539530405254225	0.82969476788312	-0.539514523196954	-0.00759888742514681	-0.00578149055282086
4.5	-0.00650061405828212	-0.00741718592466058	0.736137061942974	-0.662174149667424	0.736013581986624	-0.662028191075947	-0.00961984574211919	-0.00475580111074152
4.6	-0.00761031985701187	-0.00685151824621232	0.624057988220011	-0.768352642017429	0.624043435055987	-0.76812336087193	-0.0111729931012487	-0.00341501147351871
4.7	-0.00881035519418576	-0.00665793011579275	0.49711704116327	-0.855795841974695	0.497234012570624	-0.855551330175736	-0.0127646008199322	-0.00202155128212283
4.8	-0.010178061371009	-0.0058934882123904	0.358049505387441	-0.92241920700926	0.358343010492968	-0.922230769974206	-0.0138519886638483	-0.000100180217101819
4.9	-0.011035753594394	-0.0051724533619269	0.210471409513793	-0.966518047150886	0.21073107395502	-0.966467050739358	-0.0141749896606155	0.00225250970204388
5	-0.0115897084953204	-0.00425433239775941	0.0580357092239392	-0.987083967878642	0.0581938747302939	-0.98695619892424	-0.0134528937714645	0.00483771201457762
5.1	-0.0118915702945025	-0.00380815364291989	-0.0953432795326714	-0.983993084899782	-0.0950224245333538	-0.983930340147805	-0.0119367968023972	0.0071089987801066
5.2	-0.0124258136346907	-0.00277866483069824	-0.246886181765921	-0.957454218630124	-0.246458973030235	-0.957576068002118	-0.0101130141572954	0.00928626050172936
5.3	-0.0127095459587	-0.00170184689689438	-0.392513300605481	-0.907648273709335	-0.392224367786616	-0.907992575235502	-0.00766327798747276	0.0111241535097194
5.4	-0.012608249685934	0.00010089586639756	-0.528790443323926	-0.835670798725616	-0.528654498281575	-0.835960194471245	-0.00500421290513886	0.0124705512969412
5.5	-0.011467094149194	0.00133046870469069	-0.651697629872144	-0.74330275558935	-0.651647637655069	-0.743616375336499	-0.00194060808419766	0.0131033092517806
5.6	-0.011282532508975	0.00177741422386341	-0.759096930363978	-0.633502845726211	-0.759110290332393	-0.63367316901113	0.000548648958506776	0.0127506492948364
5.7	-0.0116612507180847	0.00286032568019199	-0.848450254606018	-0.507965018309668	-0.848426409093946	-0.508140105027472	0.00274813149833872	0.0126023054670124
5.8	-0.0117743216188277	0.00470925772575653	-0.916892023503026	-0.369928129154012	-0.916936746452886	-0.370220294321731	0.00496440567253532	0.0121145420814548
5.9	-0.0116059723994674	0.00675955226713763	-0.96307673923472	-0.223283901449384	-0.963197111142477	-0.223331889639656	0.00673690537622143	0.0113181633669761
6	-0.00987391176646812	0.00949807647673997	-0.986335249157509	-0.0714334497504857	-0.986332131248673	-0.0715021583571688	0.00856180138372998	0.0108178296075241
6.1	-0.00772154178152727	0.0099832572625032	-0.985609500897708	0.0828604091358808	-0.985612655565972	0.0827570061108865	0.010578264839623	0.00909472767258759
6.2	-0.00653916823386314	0.0103524171669535	-0.960544589419003	0.235044908600602	-0.960592653149937	0.23486309389348	0.0118435207456372	0.00684003226710797
6.3	-0.00582477692116816	0.010436875647706	-0.912322325209229	0.381222152680996	-0.912346642279658	0.381093411071275	0.0124895815765335	0.00405289295661764
6.4	-0.00532713701474622	0.0107261588109449	-0.842157931620241	0.518118980734948	-0.842149114128182	0.51790529460312	0.0121817072799478	0.000998617730014427
6.5	-0.00466641212945867	0.0110297014676011	-0.751523696079977	0.642963610976459	-0.751624289975754	0.642791109572959	0.011319581967913	-0.00181228742872574
6.6	-0.00367714609920762	0.0113914511316691	-0.642117337626474	0.751643563277682	-0.642265926513788	0.751497530401332	0.0100215478111191	-0.00419731004920449
6.7	-0.00237765700053027	0.0115874634897795	-0.517659667521134	0.841967425903535	-0.517780898476149	0.841810166500089	0.00825440129673628	-0.00613442638016458
6.8	-0.000685901348433976	0.011475394523218	-0.380693870931469	0.912047052748914	-0.380905085562078	0.91197196311675	0.00612673345091994	-0.00754032276564687
6.9	0.000900043570741352	0.0106674151497077	-0.234430924123533	0.96019449758837	-0.23468180332221	0.960190734164605	0.00398388726104349	-0.00830959784042089
7	0.0024658588199827	0.00944335410976135	-0.0821136394721973	0.984661706233479	-0.0823720407479498	0.984631768411956	0.00189169712520043	-0.00886266196970069
7.1	0.0030866648365961	0.00794866256715407	0.0713071686726611	0.985161779440398	0.0711004958722268	0.985149742854037	-0.000455141580626825	-0.0087825769517484
7.2	0.0036195744436591	0.00672194557797894	0.223301681859471	0.962223185346053	0.223046342524466	0.962267300886986	-0.00236315606982136	-0.00790300817902889
7.3	0.00362497658336418	0.00530375424937624	0.370018407287936	0.915839285839175	0.369778195814839	0.915930126771058	-0.00398477006949159	-0.00666234872427634
7.4	0.00345364757151544	0.00416849991538034	0.507723426608128	0.84692694055761	0.507505273738179	0.847088969354554	-0.00536153928750718	-0.00509609998178727
7.5	0.00319068253915731	0.00295022131352136	0.632381067638361	0.75766642422364	0.632221165456307	0.757838232571431	-0.00597698347901104	-0.00315383578252679
7.6	0.00251913489378401	0.00157926221268416	0.742411512992534	0.650772183905416	0.742196146076044	0.650933021323257	-0.00603820636232047	-0.00178354041732544
7.7	0.00112314652409733	0.00103894962453415	0.834477044247454	0.527560684769262	0.83432601339333	0.5277556172628	-0.00606846264786101	-0.00025254056702093
7.8	8.14778019524301E-05	0.00137182088836925	0.906258430065346	0.391428295077169	0.906137595013239	0.39164990135368	-0.00553340410683732	0.00122504135160419
7.9	-0.0009008350214933	0.0024717256874886	0.955687832060376	0.246095279855992	0.955647413519097	0.246320667355582	-0.00487169168566875	0.00274890913761931
8	9.24674264043431E-05	0.00438011353182419	0.982535027160394	0.0951605563858304	0.982605456439095	0.0954526490428125	-0.00382645014564633	0.00450702316489874
8.1	0.00121674474871829	0.00425870143271343	0.985574873000715	-0.0589839412565052	0.985699153738781	-0.0587126429556231	-0.0021303860010515	0.00518726562809296
8.2	0.00163317539098373	0.00407900459552765	0.964115655855777	-0.21136351424732	0.964181713381156	-0.211067547490749	-0.000907898994795221	0.00553483523733742
8.3	0.00160038908472687	0.00409352008403616	0.919359182955361	-0.35833364404458	0.919496901866573	-0.358077734843639	0.000432569796873245	0.00550115803452038
8.4	0.00144971711216166	0.00428927067938314	0.852684158623725	-0.496520587102631	0.852895972252435	-0.496320827209247	0.00150389364287994	0.0049078380006484
8.5	0.00164714645585161	0.00564385416304092	0.765350829432993	-0.623338558165291	0.765466763748669	-0.62321269229368	0.00231588197476311	0.0046497750957885
8.6	0.00329654239828815	0.00551438472121501	0.658581325767232	-0.734311713341446	0.658778847637191	-0.734126563338957	0.00359779253687031	0.00369718521259232
8.7	0.00378744219969591	0.00498727939761061	0.536567091731286	-0.827191477840073	0.536848805909216	-0.82708248117869	0.00422970259495611	0.00258190153238431
8.8	0.00437365532647238	0.00447509961424584	0.401847785281141	-0.900353598764753	0.402053772636604	-0.900299342016604	0.00450984151973853	0.00140280243827569
8.9	0.00470944013891141	0.00392479858118507	0.257115018592827	-0.952000558060597	0.257356839670415	-0.951860416423292	0.00470239513530445	0.000305934875383915
9	0.00561226482416209	0.00344978158580256	0.105655211702416	-0.979758802086944	0.106017067236328	-0.979729509097841	0.00489025951600851	-0.000533786544986349
9.1	0.00668379096650693	0.00246139633487292	-0.0470279829445025	-0.983902357671451	-0.0466759159855882	-0.983917173104233	0.00523099656687202	-0.00141947901502529
9.2	0.00798244308390092	0.00123157596717287	-0.199164007778425	-0.964749471800289	-0.198808531152844	-0.964820326474059	0.0058422284760379	-0.00206746004334972
9.3	0.00932363737936834	-0.000447389135387114	-0.346639140035097	-0.922091467870937	-0.346282348597566	-0.922156072435514	0.00674854442057474	-0.00288894073027042
9.4	0.0102874293831924	-0.00292552714795131	-0.48554517318797	-0.856697067167572	-0.485222385919776	-0.856845126991222	0.007293701661478	-0.00418336049992689
9.5	0.0108582052470621	-0.005865495583376	-0.61176081721545	-0.770682146199969	-0.611555055002663	-0.770819373744003	0.0075581806295834	-0.00528793266760731
9.6	0.00899652798956782	-0.00987361230796633	-0.724013892916076	-0.666799905147434	-0.723741485605501	-0.666984581722799	0.00657000562473737	-0.00680749686214916
9.7	0.00580392678812352	-0.011618887878617	-0.818701448697299	-0.546205761181575	-0.818455545033136	-0.546474850013992	0.005409931491641	-0.00733088543623741
9.8	0.00259578666906709	-0.0124140358955402	-0.893317686479944	-0.412344523626197	-0.893109052993242	-0.412619187014727	0.00435723892277159	-0.00758989549636884
9.9	-0.00088843570142064	-0.0116571576434426	-0.945950587894277	-0.268835691378111	-0.945838448590702	-0.269164453594313	0.00327136447544395	-0.00755782222194224
10	-0.00253296234820786	-0.00997028639940892	-0.976551529595441	-0.119422281336677	-0.976471340729891	-0.119800395899482	0.00278659005996394	-0.00682397865351775
10.1	-0.00450676062201432	-0.00986935754407007	-0.983248279633164	0.0341142896420014	-0.983228679326539	0.0336367960217162	0.00241623473764411	-0.00710004173619208
10.2	-0.00730399045660945	-0.00875502662496299	-0.965691201448017	0.186238858206439	-0.965676494392658	0.185789569760267	0.00175474626284347	-0.00709975856273548
10.3	-0.0100201645653872	-0.00645085658961678	-0.924938833914459	0.33359294921316	-0.9250741154566	0.333053467570264	0.00102945796381351	-0.00737279456122258
10.4	-0.0121306958133311	-0.00349863927891353	-0.862216947382798	0.472792632648775	-0.862481708388713	0.47225769685976	0.000123073651830127	-0.00783417754183306
10.5	-0.0127867178498006	0.000846263127572778	-0.77851318865852	0.601527761817544	-0.778795878977665	0.601141478699392	-0.000514986303180008	-0.00791253654455621
10.6	-0.0114162481466521	0.00382592327023168	-0.674963598526711	0.714698781895808	-0.675389486398311	0.714356055103643	-0.00073805571559427	-0.00849775853836309
10.7	-0.00985241415782899	0.00614017419164324	-0.555948784541192	0.810393299260518	-0.556359781882919	0.810106153655309	-0.00106740502120812	-0.00925666916083001
10.8	-0.00811076291930239	0.00752873825636631	-0.423508700001237	0.886649440391061	-0.424018304576477	0.886421384667201	-0.00184660605303707	-0.0102345610504907
10.9	-0.00650655781964996	0.00911732131606776	-0.280737756558795	0.941759110932932	-0.281224778974574	0.941708839409367	-0.00323577876612124	-0.0108264056731209
11	-0.00399365967291202	0.0100628375681426	-0.130595512324921	0.973229686811044	-0.13114045640062	0.97322660855931	-0.00432050910708231	-0.011039493158567
11.1	-0.00158988084805862	0.0105874034596205	0.0213677754459692	0.981209355814602	0.020740544221629	0.981292994778316	-0.00544191227255806	-0.0111817736012286
11.2	0.0011078279679703	0.0104384074611987	0.173060045836059	0.966145671548023	0.172542567640324	0.96634885365495	-0.00628104145540527	-0.0111535566297296
11.3	0.00376186403178556	0.00987394677369424	0.320765794105958	0.927612451969761	0.320337778467575	0.927874894376331	-0.00689124819030658	-0.0109873318910038
11.4	0.00620205305889346	0.00879581662484589	0.460876717172742	0.866275628199451	0.460414292920312	0.866535561478295	-0.00763554649824004	-0.0105375069619718
11.5	0.00940118954313464	0.00721260364634837	0.588687446721244	0.78408799424717	0.588331131891605	0.784504975782749	-0.00791741436451635	-0.00998027866647499
11.6	0.0108056256022991	0.00358603088046478	0.703210094697737	0.683952961767411	0.702944468372484	0.684432370504211	-0.00893388361127571	-0.00991516936653489
11.7	0.0110409327286499	0.00113735389299158	0.801004061725417	0.566548152793178	0.800766095272021	0.566969400324674	-0.0100063471586633	-0.00922106397685091
11.8	0.0106180333108492	-0.0011978036343587	0.879069059196908	0.435133957019921	0.878886118303421	0.435685035776037	-0.011157403984138	-0.008481849303635
11.9	0.00971970926528227	-0.00217211752323629	0.935388910744929	0.293757376474459	0.935351344128169	0.294299987613492	-0.0126983019013141	-0.00701417774232226
12	0.0102301525489381	-0.002658639729137	0.970143405501703	0.146009018032395	0.970131404710933	0.146487660870349	-0.0130973474512811	-0.0049051643437045
12.1	0.0104525845244274	-0.00522394097226956	0.981255053639742	-0.00679964607173297	0.981230875088673	-0.00632740296225398	-0.0132559026318239	-0.00372141393954063
12.2	0.00903549622519475	-0.0075659386315441	0.968022223753224	-0.158972588765959	0.968129119290036	-0.158536217825739	-0.0135241511701534	-0.00216980777756072
12.3	0.00717687717318806	-0.00920207797196564	0.931545240540946	-0.306846563217664	0.931730809405042	-0.306489163884726	-0.0133123382465039	-0.000764650154355235
12.4	0.00437785633169967	-0.0104259733988609	0.873356013169534	-0.447443380519993	0.873488716727773	-0.44706897138367	-0.0131584169993014	0.000301381151928378
12.5	0.00215791578338809	-0.00984360541036056	0.793367381125931	-0.578508163372486	0.793825862261067	-0.578116242718963	-0.0128597860513692	0.00175676871558395
12.6	0.000629156632507717	-0.0104199377059437	0.693338820749435	-0.694197088255567	0.693685363533528	-0.693888332665528	-0.0120227402474841	0.00237604195135286
