# GHZ S RI R 50
0.2	0.000320444044762965	-0.00100336038161028	0.953296585122861	-0.306845910219298	0.953069834297265	-0.306988863463042	0.000468975932757085	-0.000831272574381833
0.3	-0.000493199821826681	-0.000881911776770535	0.894543238864281	-0.4511250359767	0.894405325428576	-0.451178888253061	-0.000315780023804316	-0.0010848339069635
0.4	-0.00122617724908939	-0.000373412823443849	0.814285057541603	-0.584802189899093	0.814325841227983	-0.584942503307778	-0.0010683391201867	-0.000708617690019894
0.5	-0.000986121523411289	0.00146992689856007	0.713396650018607	-0.705803694366144	0.713285447894501	-0.705900459255866	-0.000601080541755796	0.000848992251525219
0.6	0.000309520674890998	0.00058658026889005	0.594302038044694	-0.807579458526326	0.59411122774913	-0.807582704475851	0.000581904473497528	-0.000315117311765479
0.7	-0.000316333939873711	0.000316509053941468	0.462027118259408	-0.890179633814824	0.461952619127075	-0.890214408377134	-3.80300672582928E-05	-0.00111267897020393
0.8	-0.000697159372006587	0.00016669817381727	0.318023763335214	-0.951942182866586	0.317904121915822	-0.951854946823891	-0.000749486854407287	-0.00142829007645901
0.9	-0.00208369538286364	0.00043475628637922	0.16533410257289	-0.990346199942243	0.165183776205272	-0.990303051463681	-0.00239349979647566	-0.0016389176417499
1	-0.00280176660056169	0.00421472782585746	0.0086798261953431	-1.00255762546725	0.00856086879365946	-1.00252769265055	-0.00344269758073879	0.00179676813214857
1.1	0.00172221169128687	0.00403388867613636	-0.145349686649466	-0.992430811460047	-0.146002526370447	-0.992395997146927	0.000181603780270737	0.00129988094278268
1.2	0.00246522705113518	0.000994879730129839	-0.299388125947768	-0.958371561029195	-0.299381079094302	-0.958427754837283	0.000239194647375273	-0.000858116961125689
1.3	0.00263795613225395	-0.00217929619911954	-0.44546382597584	-0.899911483743412	-0.445556829729084	-0.899936109849966	0.000596446424266043	-0.00197229133804651
1.4	0.0019890127511673	-0.00496358586098288	-0.579848662086008	-0.818937249946943	-0.579922975683421	-0.818836659155224	0.000963643170695825	-0.00282345163662384
1.5	0.00382679113036487	-0.00730320153539897	-0.699119369919219	-0.71974814506414	-0.699144180672857	-0.719675428480756	0.00390278719278688	-0.00479865266741876
1.6	-0.000382598721309996	-0.0104314090828152	-0.804379422878862	-0.603244915192045	-0.804813185526116	-0.602738022480169	-0.000194863609805474	-0.00779288913209698
1.7	-0.00284203915196856	-0.00774362419412443	-0.888950027872686	-0.469408821936124	-0.88925636862114	-0.468912284039498	-0.00265060688724302	-0.00546969133085447
1.8	-0.00372074310898216	-0.00548063776739104	-0.951032146076955	-0.324252546466687	-0.951047731562544	-0.324242911939938	-0.00372852031180338	-0.00371005578958003
1.9	-0.00365166779958621	-0.00194807198728463	-0.989731617161316	-0.172526689774874	-0.989776847281463	-0.172579845232682	-0.00401388384000811	-0.000789837650819435
2	0.00200172864077469	-0.000892078648963168	-1.00646825378963	-0.0165703154902138	-1.00656103308044	-0.0159115569936604	0.0008356957937318	8.05351356979294E-05
2.1	0.000713270996419005	-0.00607082829169742	-0.995475827413049	0.144228879451312	-0.995580736136579	0.14373927799287	-0.000903949644573426	-0.00456493116471579
2.2	-0.00248198429369778	-0.00577382733031697	-0.959682807110773	0.296697956360428	-0.959720793613328	0.296833633211039	-0.00372834576251305	-0.00378421763329724
2.3	-0.00430964828350719	-0.00445770782921067	-0.901391987098555	0.44231432374009	-0.901225423098264	0.442402171899412	-0.00515945513062565	-0.00251082584793936
2.4	-0.00620654404789985	-0.0018375177443476	-0.821073198176739	0.578483883429924	-0.821373055197033	0.578019620109462	-0.00648888969177929	-0.000301251442626324
2.5	-0.00265355662749058	0.00237640470578926	-0.718656396407707	0.700998181566354	-0.718967652999959	0.700617562341138	-0.00279756521382637	0.00263724623205779
2.6	-0.000443741202803438	-0.00150857018043302	-0.599261136140158	0.801292313866609	-0.599182133060673	0.801231263562317	-0.000921433826306	-0.00171920488074427
2.7	-0.00202227778770798	-0.00286371457719025	-0.467364319784003	0.883803435095236	-0.467334414491723	0.883817201222735	-0.0030107147979783	-0.00328116722399459
2.8	-0.00345034096257439	-0.00281832606798235	-0.323774266830927	0.945427041576693	-0.323653919368547	0.945510315572858	-0.0046530312631216	-0.00296737306767958
2.9	-0.00333430305799812	-0.00187390353816195	-0.171099108608774	0.983497853767889	-0.171093676000757	0.983552906199597	-0.00492732128329382	-0.00140017544045627
3	-0.00248012101238279	-0.00254151636682268	-0.0153945776081118	0.994104807051245	-0.0154577479211932	0.994177564590551	-0.00389570797159855	-0.00118378294694661
3.1	-0.00351820127269169	-0.00217956520046171	0.136034000729613	0.984444256742353	0.136684634466211	0.984515431003212	-0.00464594673336509	-0.00013146913789036
3.2	-0.00297104624753397	-0.00105051275124449	0.288416990854129	0.950969593222727	0.288407665754136	0.95100942791597	-0.00353259228617848	0.00151781104736685
3.3	-0.0017395071244867	-0.000532312475669678	0.4334848114974	0.892868524317946	0.432866558355318	0.893161080412188	-0.00186670021663591	0.00226413592402277
3.4	-6.38760649756416E-06	6.1438156281342E-05	0.56511452510134	0.812943319161275	0.565031749191146	0.813059926968762	0.000554868270179263	0.00271081031156028
3.5	0.00334659595121703	-0.00287687700376296	0.681490673689239	0.716727193482328	0.681505249785801	0.716753119367969	0.0038063493340792	-0.000501972115701931
3.6	0.000416206997823425	-0.00562970292597694	0.785973328377092	0.60290497190221	0.786388962319381	0.602504601983365	0.00121398366464386	-0.00311670966451455
3.7	-0.000784377403187265	-0.0051385122353822	0.869728408284345	0.471253182105347	0.869737532017838	0.47137933329471	0.000325830622462305	-0.00269668003909475
3.8	-0.00161885375920037	-0.00463229193624023	0.93060863158827	0.329974158427733	0.930639996418203	0.330156291767715	-0.000240627636058929	-0.0026471300405079
3.9	-0.00139963432953903	-0.00290817957117893	0.969371397717276	0.182096397672596	0.969282572295299	0.182683101862619	-0.000710983047712781	-0.00175844118987886
4	0.00297274641665756	-0.00325164325574512	0.987957741644603	0.0300240542274885	0.988040211295396	0.0300656523593594	0.00266735809368088	-0.00271669344826884
4.1	0.00165533286307026	-0.00827245825765142	0.978250719043188	-0.126265592606932	0.978190082698977	-0.126200703759104	2.74196947245882E-05	-0.00731702995222181
4.2	-0.00132710746511514	-0.00907464295240169	0.944236277381477	-0.276118107911929	0.944438829426002	-0.275556345679486	-0.00333121511454759	-0.00748439118358718
4.3	-0.00360468182925512	-0.00940845272518764	0.889480575336418	-0.417555500804071	0.889481764619492	-0.417537138084422	-0.00604717079263497	-0.00721422852621466
4.4	-0.00660220333376801	-0.00795021543300935	0.814099973721962	-0.550359876555892	0.81402098366594	-0.550342688713553	-0.00917223433962768	-0.00529141499952726
4.5	-0.00497095246149887	-0.00492170738178937	0.715657219736463	-0.671402329281855	0.715537899367858	-0.671255141754659	-0.00809548466426892	-0.00195438144236507
4.6	-0.0046943301411197	-0.00788433660244965	0.601125062731763	-0.769798637828832	0.601115040135658	-0.769572170523169	-0.00844131221566003	-0.004091944664761
4.7	-0.007238884389924	-0.00888882033312222	0.475395304569929	-0.851964830205108	0.475514759963182	-0.851725824846008	-0.0114617769276115	-0.00374431031046141
4.8	-0.00969276378602362	-0.00841632319591175	0.337558098370206	-0.914411647485039	0.337850275817154	-0.914230851121135	-0.0136465005535623	-0.00197100748488242
4.9	-0.011356936149952	-0.00717932424598178	0.190690487946133	-0.954144878036935	0.190946734558268	-0.954099104530463	-0.0146734018873707	0.00100528148339094
5	-0.0115444637950425	-0.00664139216553222	0.0417996801360119	-0.967120939488267	0.0419564484021092	-0.966998273985141	-0.0135388919328169	0.0032355252133851
5.1	-0.0141157094966656	-0.00604941859474546	-0.104208045750027	-0.962584887458254	-0.10389313799017	-0.96252697464668	-0.0141392254476545	0.00579174651190014
5.2	-0.015187648118041	-0.00303934916231933	-0.251672777321031	-0.935365568732765	-0.251255544388257	-0.93548931507766	-0.0125669106077006	0.00987456327694318
5.3	-0.0147338740363047	-0.000120342373198946	-0.392757660796125	-0.884427810543064	-0.392478213981257	-0.884767483768716	-0.00922370614074274	0.0132669066621472
5.4	-0.0118733326961924	0.00345282669016414	-0.522821675528603	-0.811816693458418	-0.522691196853369	-0.812100316419787	-0.00392250663178674	0.0160086029964924
5.5	-0.00650821659738892	-0.000328858313318295	-0.63869769339083	-0.724219490465498	-0.638649750406101	-0.724525980794548	0.00285125934263715	0.0115658745211575
5.6	-0.0119536254317224	-0.00216646298983889	-0.745388950436103	-0.617979366677196	-0.745402573903668	-0.618146121050539	-0.00036271967173513	0.00929436021072339
5.7	-0.0141071753353468	0.0013150209424376	-0.831648588033806	-0.494479313072859	-0.831625777637142	-0.494650691742305	0.000224903797303372	0.0116036454620942
5.8	-0.0143384390706772	0.00528570065864488	-0.896744016647477	-0.360341035581148	-0.89678813167271	-0.360626558203444	0.00240298202104424	0.0131533204660646
5.9	-0.012564287665902	0.0107160449162065	-0.9411669784119	-0.219829532632851	-0.941284579708466	-0.219876639681046	0.00574350182199346	0.0155067959349345
6	-0.00324936711399786	0.0117759491825405	-0.967691225527502	-0.0720833625914667	-0.967688027602281	-0.0721507760666355	0.0147415806350965	0.0130882376356316
6.1	-0.0035608688169154	0.00566673098396726	-0.965383609619476	0.0808801964766046	-0.965386670170762	0.0807789173858957	0.0137665298174836	0.00510154134752821
6.2	-0.00564233747256346	0.00563860942374548	-0.940076930834774	0.227805196368868	-0.940123545795108	0.227627248191548	0.0116725778658453	0.00296585932187981
6.3	-0.00691488597682935	0.00661093788571332	-0.894222994353887	0.369115318713973	-0.894246239682862	0.368989256134976	0.0105926507336003	0.00147078164941529
6.4	-0.0071913037580715	0.0089128148221464	-0.828093598521242	0.503341951769717	-0.82808382960887	0.503132574072389	0.00983474606579705	0.000582093276052911
6.5	-0.00540641128079768	0.00993919879156128	-0.737790899972066	0.627340150235495	-0.737888886070622	0.627170940862683	0.0102882429577987	-0.00154118305565787
6.6	-0.00449497720586115	0.0107469993655787	-0.631594851703865	0.729811887839087	-0.631739005409811	0.729668387798936	0.00917459987915098	-0.00342441222836595
6.7	-0.00242859142240843	0.0112885120093938	-0.513493664867564	0.818143703044982	-0.513610718220314	0.8179889247541	0.00838544670529178	-0.00517556181162494
6.8	-0.000252166414597634	0.0109104018667788	-0.381821050884655	0.88846434103886	-0.382026938049176	0.888388708281578	0.0067800075526122	-0.00703049661961799
6.9	0.00192540479836418	0.00978992550853887	-0.23903521020108	0.937226738885867	-0.239280665402036	0.937220538241768	0.00512876000892632	-0.00818656849610856
7	0.00306543552726687	0.00682852281740082	-0.0925274763574347	0.959155259563033	-0.092779078007298	0.959122797443996	0.0025504389835809	-0.0103701840551465
7.1	0.00203862474397098	0.00602999003718637	0.0526216679256568	0.964615254331943	0.0524197744974204	0.964599894807032	-0.00130641116553028	-0.00957284601335494
7.2	0.00250421692840945	0.00555578907222653	0.201332343464979	0.947075781997484	0.20108129929719	0.947114369877027	-0.00322394227409818	-0.00798407885251195
7.3	0.00257400118929092	0.00459031155778036	0.345527284725198	0.905216711152714	0.345289977095005	0.905301247973863	-0.0047641636453781	-0.0063250652368432
7.4	0.00288777426050093	0.00406012871774173	0.479878408560309	0.840717394125226	0.479661200463199	0.840871628954475	-0.00563063233038132	-0.00414677623135336
7.5	0.00374505622876098	0.00155926130778191	0.601796651132175	0.761428212630685	0.601634949107837	0.761592916903116	-0.0052339134090367	-0.00359566193328585
7.6	0.000857495813602239	-0.000429191813078267	0.716782821716979	0.661632938880439	0.716566014581735	0.661786335967269	-0.00741405923162137	-0.0027245281043958
7.7	-0.00141111184732845	0.000571590544364331	0.811710958819965	0.54246513142265	0.811556763844436	0.542654048644818	-0.00811946605372166	0.00038241881275345
7.8	-0.00244565014922717	0.00259199936683419	0.886437910543363	0.411104013668345	0.886312528704847	0.411320113646179	-0.00737627334047525	0.00335765427254518
7.9	-0.00187563101637581	0.00625552025964311	0.940725642826307	0.271551880673832	0.940679075292412	0.271774246295136	-0.00490079137249871	0.00693985654740049
8	0.00570930829992164	0.00685140489923964	0.977487821994826	0.122097427487878	0.977550000646036	0.122390749641636	0.00205210803183949	0.00711239093245124
8.1	0.00510898675515743	0.000602620637188086	0.984063097118347	-0.0340454460487949	0.98418018488797	-0.0337718496310809	0.00125030060743223	0.00175912471866067
8.2	0.00253154438269074	-5.87664609095039E-07	0.967065463829829	-0.185483307235187	0.967123573421353	-0.185186404155181	-0.000663894754144382	0.00215837961640363
8.3	0.000415756481028724	0.000397370048521883	0.928573496051964	-0.332937123120318	0.928704121148172	-0.332677609608996	-0.00133698340900109	0.00288214582099683
8.4	-0.00201091569847083	0.0032059369317998	0.86867222531316	-0.474984593865613	0.868879281999042	-0.474778508684907	-0.00227407644963381	0.00509956465403203
8.5	0.00294981123163952	0.00811891715293125	0.781990282254078	-0.607922347244795	0.782103724001024	-0.607793439437197	0.00338566040955583	0.00818521397396182
8.6	0.0054588937183976	0.0027972172725154	0.678135957977636	-0.718883449333611	0.678329128412538	-0.718693026745199	0.00522228943488448	0.00227975892379876
8.7	0.00323565444099751	0.00159889262718046	0.560736067884904	-0.816466730677647	0.561016082510293	-0.816349813652029	0.00332829752180149	0.000993730476592036
8.8	0.00204287657269213	0.00190738276160553	0.427916005766715	-0.896091189965265	0.428121994077926	-0.896031226473349	0.00230165230700178	0.000925147167445601
8.9	0.00108636954087005	0.00359862548226735	0.281586892977093	-0.953570292382083	0.281827351004207	-0.953423335328697	0.00186506042525014	0.00203751488159097
9	0.00424557988432589	0.00556233414066235	0.130626719307961	-0.982143958045618	0.130989698149616	-0.982105491894779	0.00471613378803836	0.00316077803628545
9.1	0.00635497662532972	0.00414445561709237	-0.0201915364220127	-0.994658489934034	-0.0198356765280964	-0.994663683416451	0.00620481377368518	0.0013724116309485
9.2	0.00896787906109192	0.00277620993506636	-0.176431427042271	-0.982150444637823	-0.176069605184226	-0.982212891100661	0.00805795089721561	7.57750678785781E-05
9.3	0.0109347377569806	0.000233142804344958	-0.328699570957021	-0.943356024244529	-0.328336264700999	-0.943412727775349	0.00924618010601614	-0.0019856313874195
9.4	0.0130773476727814	-0.00145816038145183	-0.470865484944794	-0.880063561930171	-0.470534754167815	-0.88020562672943	0.0105540951327652	-0.00271470571748414
9.5	0.0167295622539932	-0.0106850672249791	-0.600278876402916	-0.801350108059811	-0.600065669617659	-0.801483821272158	0.0128594508899697	-0.00995290374975005
9.6	0.00781874358622993	-0.0160641811585638	-0.723611972959063	-0.699516092791578	-0.72332894655873	-0.699698137851686	0.00467051833554886	-0.0119420673243799
9.7	0.00267349186953821	-0.0149424261986104	-0.825465698804875	-0.576964185620327	-0.825208154807344	-0.577234025864403	0.00191763598199235	-0.00916464648187352
9.8	-0.00124800533227215	-0.013342151481937	-0.905917798054511	-0.441219550070554	-0.905698328347172	-0.441496346038837	0.000537245800329998	-0.00693026694852192
9.9	-0.00380060481602256	-0.00825900453723086	-0.965082776194626	-0.296599846170343	-0.964960493239996	-0.296934849172207	0.000917349683760522	-0.0028623495026682
10	0.0022543126768734	-0.00850629720825061	-1.00612354982707	-0.140534595498824	-1.00603408519217	-0.140923561083097	0.00781795115641035	-0.00452007875457259
10.1	-0.003426703415704	-0.0134307229683286	-1.01393739937348	0.0227013240630684	-1.01391114344325	0.0222093858159292	0.00349269309181127	-0.00951144804530355
10.2	-0.00873120959440755	-0.0109985429748879	-0.997465832224907	0.18066327662359	-0.99744542445694	0.180200389246753	0.000576022515531734	-0.00799508718247366
10.3	-0.0122863098497475	-0.00692073068617309	-0.958199277787213	0.334738369625579	-0.958333317338137	0.334180103857992	-0.000613382289838191	-0.00662885093194219
10.4	-0.0140842673851561	-0.00108294075410958	-0.895927291294411	0.483264753767169	-0.896197544385796	0.482709107597089	-0.000913007025232909	-0.00471677345339059
10.5	-0.00962046037941385	0.00426714995381117	-0.804484189339609	0.621459311294591	-0.804776244296363	0.621060143577267	0.00324330629643285	-0.00464844774787944
10.6	-0.00729341771297339	0.00298174300676436	-0.695950201672293	0.735618826612738	-0.696388609837694	0.735265386166236	0.00320401596631627	-0.00956926602230932
10.7	-0.00733699955379124	0.00365555441507269	-0.573483217211264	0.835630019869514	-0.573907012555193	0.835333819226747	0.000812434635707531	-0.011704240510532
10.8	-0.0069605030104507	0.00509156276396154	-0.434955071123012	0.916233363927847	-0.435481641231586	0.915999223695529	-0.00156276741107335	-0.0123261014113678
10.9	-0.00536327509515195	0.00685680567543191	-0.283043449777634	0.972920178806805	-0.283545940510779	0.972871662631063	-0.00304369409971859	-0.0125900350974657
11	-0.00309578977425898	0.00652992469939862	-0.128031416761694	0.999270132502408	-0.128590514007891	0.999270306674816	-0.00445819425576072	-0.0136387967707198
11.1	-0.00243327377115772	0.0076085698854217	0.0268374810842815	1.00958149043228	0.0261924598850416	1.00967065725822	-0.00719921901281151	-0.0129608555596467
11.2	-0.000151553891905137	0.00828517682540784	0.186030099106589	0.99359566833875	0.185498810950827	0.993809095993924	-0.00836905296055332	-0.011889844599643
11.3	0.00243992528001237	0.00886021759417169	0.340028368368689	0.950716145103554	0.339590934271328	0.950990755325246	-0.00888190613767831	-0.0102978463357365
11.4	0.00661310533301986	0.00955226257937617	0.48273272200916	0.883182969523764	0.482261433852879	0.883454926904314	-0.00768750424514564	-0.00814583036475434
11.5	0.0124893696028261	0.00356134601037633	0.61200436858655	0.80114414199164	0.611641584316263	0.801575932796196	-0.00560320916593436	-0.0121974714961674
11.6	0.00879463233753329	-0.00104554294952788	0.734194405754328	0.694840903497337	0.733927452676364	0.69533861325469	-0.0116802181035074	-0.012326819593832
11.7	0.00765154690907406	-0.000977134433194598	0.833359028708753	0.568807891533078	0.833121568552174	0.569245125088317	-0.0135499591051323	-0.00891500198250729
11.8	0.00693280259329362	-0.000913254997399679	0.910199379306049	0.430544120877451	0.91002168463112	0.431113073238966	-0.0144212065658166	-0.00588388098936209
11.9	0.0089709368863752	0.00262860669793222	0.965572596369571	0.284761318817801	0.965543784845308	0.285319051002645	-0.0128087946896556	-0.000985004586377342
12	0.0178002066713276	-0.00121085601882075	1.00242405156449	0.128033383051689	1.00242270916226	0.128526570516097	-0.00573765669475746	-0.00278464715220407
12.1	0.0138736854824157	-0.00933321660654478	1.00562857720476	-0.0338290195646031	1.00561671989118	-0.0333442949338452	-0.010485215057671	-0.00667733170311233
12.2	0.0101870493286471	-0.0118724497052729	0.98518792278409	-0.189584035615299	0.985309404101488	-0.189140911653029	-0.0131320356312728	-0.00498541434070657
12.3	0.00669349304809753	-0.0133159511427322	0.942518348404626	-0.340269973320771	0.94271818480136	-0.33991032247162	-0.0146059369220504	-0.00310518051660088
12.4	0.00236860287530503	-0.0124702515875358	0.877945801158455	-0.484839469192462	0.878093263205538	-0.484461213509502	-0.0158333943546652	0.000284820996646348
12.5	0.00377115309003038	-0.010504422721923	0.784254822921466	-0.617822019307195	0.784735503865027	-0.617441131639897	-0.0117261703866945	0.00314698354353719
12.6	0.00114821164987344	-0.014731636704223	0.676252030347046	-0.726228096559838	0.676613240638672	-0.7259282738038	-0.0120892553209254	0.000352788366319176
