# GHZ S RI R 50
0.2	-0.000232497452019289	-0.000359983366701172	0.950266896664268	-0.307550542213892	0.95004052169892	-0.307692752537325	1.51710993925728E-05	-0.000299547243595903
0.3	-0.000629401582967395	-8.43704258430292E-05	0.890694232691373	-0.45140750838039	0.890556668150181	-0.451460909457568	-0.000327117021645763	-0.000528986447059068
0.4	-0.000731707011147648	0.000237821920203672	0.809563616446262	-0.584116283695943	0.809603920393136	-0.584256093780152	-0.00048809690876886	-0.000465421407719554
0.5	-0.00072210161101514	0.000895384494949553	0.708739781267747	-0.703158495701249	0.708629017624257	-0.703254607530393	-0.000279893262840446	-0.000113231198785491
0.6	-0.000430801790103373	0.000792746036103645	0.590531796349213	-0.804409928340475	0.590341893296922	-0.804412938473358	1.22826030025189E-05	-0.000616513164838304
0.7	-0.000607524072885107	0.00114567941331399	0.458391526499329	-0.886144517301457	0.45831737030694	-0.886179008037565	-0.000174776030219175	-0.00104078319557761
0.8	-0.000444457163055902	0.00128803652818374	0.315075718760818	-0.94667916421609	0.314956881745215	-0.946592308744336	-0.000509399735989255	-0.00131436775255667
0.9	-0.000521646776924209	0.00170558235269011	0.163916768937517	-0.984056655409397	0.163767421821147	-0.984013729340636	-0.00124832567051563	-0.0015422742285867
1	-9.83830163815216E-05	0.00253120176374728	0.00887111400485913	-0.996938014472137	0.00875281577988128	-0.996908278008512	-0.00174307614903355	-0.00066786634105053
1.1	0.00131145544927243	0.00197621220647837	-0.14509104512279	-0.986319525550442	-0.145739903180503	-0.986284512267575	-0.0010730022058347	-0.000781902252398263
1.2	0.00172271814802666	4.82497153118133E-05	-0.297463784743656	-0.951724362273088	-0.297456794536385	-0.951780169644446	-0.000860460359635717	-0.00139558207738031
1.3	0.0015969525916338	-0.00242010970104679	-0.441749484116473	-0.893721659331141	-0.44184180701223	-0.893746162906448	-3.71193763780292E-05	-0.0017599228425868
1.4	0.000759979636953878	-0.00459492201414964	-0.574960737363516	-0.814007501998419	-0.575034658097071	-0.813907682219102	0.000795150403680448	-0.00253218382789426
1.5	0.000572268164624149	-0.00527697341956177	-0.694190766426245	-0.714922944434398	-0.694215419216003	-0.714850731892352	0.00223138384758321	-0.0036636442491772
1.6	-0.000675357658011824	-0.00528864765106062	-0.796925461555095	-0.598809307450581	-0.797355969140615	-0.598307161322727	0.000828395792712088	-0.00501467517593484
1.7	-0.000824476613923998	-0.00405390523917452	-0.880197101582719	-0.467283084127155	-0.880501871531341	-0.466791532294326	-0.000376558517387497	-0.00465079931911504
1.8	-0.000792892590267786	-0.00340175314452156	-0.942053580545958	-0.32425751313962	-0.942069062098249	-0.324248005100804	-0.00144166292677641	-0.00434873644416449
1.9	-0.000548131956113298	-0.00257455389049313	-0.980929652938868	-0.173955510116356	-0.980974349274108	-0.174008351174941	-0.00215629958403639	-0.0034560401897406
2	0.000518135149477607	-0.00279054551684627	-0.996315990572618	-0.0198254301485281	-0.996410078514619	-0.0191735950389746	-0.00142358991434768	-0.0030176563188445
2.1	-0.000378760155385851	-0.00380870663235933	-0.986688383685558	0.137049724647306	-0.986789432960708	0.136564247600036	-0.00226502333206297	-0.00401228024877813
2.2	-0.00149490717517974	-0.00361835286145469	-0.953163187599851	0.28790511379079	-0.953201714912852	0.288039353657609	-0.00347521896174149	-0.00368186645606923
2.3	-0.00220910683520399	-0.00321453868605113	-0.896697776747416	0.432386805937598	-0.89653323617085	0.432475038189589	-0.00443681540635761	-0.00309407026407037
2.4	-0.00308854778884617	-0.00264111194885974	-0.818001943348252	0.567149529779241	-0.818295636603502	0.566687206360194	-0.00528013429224292	-0.00205184996357445
2.5	-0.00277496855737908	-0.00184057742348699	-0.719382053106288	0.687562520829174	-0.719686723556942	0.687182122476313	-0.00425943697486599	-0.000923134227611809
2.6	-0.00348347018211325	-0.00252290110297477	-0.603800726552988	0.789877967788685	-0.603721591610456	0.789818136106907	-0.00359785099590987	-0.00189920200599134
2.7	-0.00443945100988268	-0.00193342364671013	-0.473671664419186	0.873715574871452	-0.473642079360165	0.873729566620483	-0.00410218431247623	-0.00232322275254619
2.8	-0.00483370396018946	-0.00106931172797854	-0.332188331608023	0.936465064787385	-0.332069582176229	0.936549167684125	-0.00444557144988142	-0.00213333954122437
2.9	-0.0041242404660726	-0.000199654881264476	-0.182257755211319	0.976292975779424	-0.182253025211524	0.976347808739959	-0.00422974496655647	-0.00135644149439126
3	-0.00325287651374079	-8.20778748916112E-06	-0.0281968734670422	0.991641088191972	-0.0282608394171723	0.991712864199834	-0.00328246497564125	-0.000972814380924073
3.1	-0.00239640663638363	0.000354141903963011	0.124755027124979	0.983960374193664	0.125403540829964	0.984038674949678	-0.00273369344321203	-0.000558134841207638
3.2	-0.0014431345678987	0.000239849298028406	0.276679091812069	0.952291611713951	0.27666932116038	0.952331251553054	-0.00197509681589657	-0.000242838265217093
3.3	-0.00036324868828299	-0.000144312390428441	0.421808451822253	0.897056719287854	0.421187393112028	0.897341200469993	-0.000904919149518016	-0.000147154377340027
3.4	0.000401386540677665	-0.000695969620098534	0.555023113042323	0.820474114912407	0.554938819546792	0.820589720453745	0.000484605658701038	-0.000365568388530426
3.5	0.00131612169060409	-0.00200703539161203	0.67486935498369	0.724804156600644	0.674883678437359	0.724830269145951	0.00196663000594624	-0.00193695203610412
3.6	0.000610202317715612	-0.00285709811156984	0.779166288440226	0.611575403149613	0.779586325431732	0.611179708114944	0.00148185193859058	-0.0034570928263993
3.7	0.000663588280584278	-0.00328394309290536	0.864755487052837	0.48217081342038	0.864763092105498	0.482297180709656	0.00116638563114397	-0.00409865873673976
3.8	0.000390938864931717	-0.00390567043794218	0.92855911060612	0.341904531693452	0.928588340218406	0.342087423124516	0.000589539894565419	-0.00481215986388466
3.9	0.000449129535545673	-0.00439834001800429	0.970137935613039	0.193329083738476	0.970042372997708	0.193916488175436	-0.000293910205145023	-0.00523866231270659
4	0.000572532992352636	-0.00553575745984914	0.988757328579251	0.0409390544317938	0.988839434445035	0.0409816084176124	-0.000109068806136217	-0.00598722781952587
4.1	-0.000919760200652397	-0.00694019217416023	0.98238993180295	-0.11358066670609	0.982328280447508	-0.113516420572684	-0.00177921251332603	-0.00767458712925074
4.2	-0.00270554169454488	-0.00705528346741152	0.951875391599336	-0.264966731898908	0.952071472772188	-0.264399924989984	-0.00388898436493032	-0.00790777119885827
4.3	-0.00400341147343901	-0.00715683864679736	0.899216063960937	-0.408574610342087	0.899217030052986	-0.408556139413488	-0.00590741140844483	-0.00778826659891373
4.4	-0.00551288443598813	-0.00678923374229956	0.824864574345811	-0.543027198140222	0.824784985849338	-0.543010899073047	-0.00806354750868706	-0.00679917635149374
4.5	-0.0059804532722998	-0.00666644784734374	0.729702889623626	-0.664642103000224	0.729580705196926	-0.664495840826149	-0.0087830323921112	-0.00532937715187817
4.6	-0.00793913682468324	-0.00722848452363768	0.617420823583453	-0.768619656777691	0.617407561242494	-0.768391218655328	-0.0100013645568369	-0.00528160351762759
4.7	-0.0102190220252656	-0.00677154648281571	0.490806206362774	-0.854715231294558	0.490923906775674	-0.85447231429048	-0.0121216517533442	-0.0044562209998514
4.8	-0.0122033320220572	-0.00524151045402465	0.352001571192139	-0.92012954865947	0.35229470991311	-0.919943361555864	-0.0137448905386404	-0.00266643170478237
4.9	-0.0131078884784471	-0.00354783032994042	0.20466362646459	-0.96278137787554	0.204922259635345	-0.962731914367464	-0.0144291878961519	-9.25466729204892E-05
5	-0.0133530253941408	-0.00204910320790989	0.0536513873883126	-0.981432056645842	0.0538091319053462	-0.981305697048558	-0.0137151219277895	0.00238401446514549
5.1	-0.0132564433582627	-0.000648499299383747	-0.0981028059656147	-0.978145367309075	-0.0977835435281249	-0.978084049559128	-0.0128382495342928	0.00473180157492898
5.2	-0.0125036823528516	0.000778016339900032	-0.248584908634483	-0.951150659070942	-0.248160550557347	-0.951273199246212	-0.0112514747324731	0.00744448402450756
5.3	-0.0115806417016931	0.00137353356430929	-0.392818885464454	-0.900902474267047	-0.392532756196127	-0.901245526556478	-0.00863433059121245	0.00989353724528982
5.4	-0.0106457436558198	0.00209504684908044	-0.527225944558879	-0.828870014180858	-0.527091581818657	-0.829157801517129	-0.00502826149489727	0.0117786797598535
5.5	-0.0102283855834571	0.00135971317234941	-0.648635621352116	-0.737846074975353	-0.648586349551791	-0.738157818082041	-0.00089385985247504	0.0108603079289772
5.6	-0.0115218261630881	0.00276316342386108	-0.755597006131847	-0.628449728494505	-0.755610568064245	-0.628619008995718	0.000315340263278854	0.0100121568752127
5.7	-0.0112982962495749	0.00451958673482565	-0.843723685878551	-0.503483359436006	-0.84370024462199	-0.50365735470475	0.00214798399005671	0.0102585489029084
5.8	-0.0106515146147089	0.0061284378335573	-0.911060473302965	-0.366651605170218	-0.911105149348654	-0.366941771224621	0.0043264594282449	0.0102023176878812
5.9	-0.00975554626740709	0.0072919878557345	-0.956786670656847	-0.221731171700997	-0.956906258303946	-0.2217788341888	0.00671141463317739	0.0101522067108337
6	-0.00847384861246292	0.00726674610558059	-0.980469936428062	-0.0706788684314364	-0.98046686003821	-0.0707471677476068	0.0103686442532231	0.00839383371876784
6.1	-0.0100198063586041	0.00763208662630921	-0.978904415551526	0.0825178636247411	-0.978907571837421	0.0824151629266412	0.0108931166249076	0.00495226842728667
6.2	-0.0104737935763558	0.0102491481433012	-0.954008488861262	0.232895005270886	-0.954056120795577	0.232714425864689	0.0107522801585272	0.00304690553858004
6.3	-0.00956333416589945	0.0126360898522486	-0.906602268370384	0.377632987943636	-0.906626277505328	0.377505086494317	0.0107886819593454	0.00119911008987904
6.4	-0.00758726045055122	0.0143394829940973	-0.837465018069361	0.513779294555638	-0.837455989139552	0.513566974662134	0.010653379767927	-0.000858701598707021
6.5	-0.00530568082185187	0.0145600061435308	-0.746917669755023	0.637682661324618	-0.747017380883947	0.637511265553165	0.0104524236405251	-0.00349976080003678
6.6	-0.00324992757846691	0.0144049864464199	-0.639169654861594	0.744765194228523	-0.639316840979497	0.744619882075683	0.00932336689074512	-0.0058589885142723
6.7	-0.00145432712140734	0.0135480776110524	-0.516481083694823	0.834807260846557	-0.516601053827323	0.83465073332227	0.00777593112906124	-0.00779682986637324
6.8	-7.30266646202533E-05	0.0126407412559015	-0.380908014787219	0.904906528771678	-0.381117614761813	0.904831303464353	0.00582646183710379	-0.00918488937596386
6.9	0.00102761493775638	0.0115416611994632	-0.235788549960835	0.952904534428244	-0.236037701702277	0.952900023084999	0.00407085490624439	-0.00999521311093387
7	0.00184616890708307	0.0103611625446235	-0.0858361737887327	0.977062462359789	-0.0860925439340494	0.977031609298064	0.0020728989842829	-0.0110597921685167
7.1	0.00236210193287975	0.00957263883912279	0.0657585014074868	0.979331201662982	0.0655531915317607	0.979318170889279	-0.000367764688713234	-0.0110007042007107
7.2	0.00309278002507768	0.00859685367675289	0.216845895813714	0.957724724008038	0.216591830992322	0.9577672159332	-0.00217385734899277	-0.0102715937071664
7.3	0.00320087942954056	0.00736208831135027	0.362649095986517	0.912652353944364	0.362409755833925	0.912741297944264	-0.00381632062034309	-0.0092490411423536
7.4	0.00321903760634097	0.00644353468000533	0.499285456876228	0.845407318093419	0.499067491136959	0.845566994890124	-0.00523469288912906	-0.00779183970300693
7.5	0.00291577752684589	0.00527433345595467	0.623971339240782	0.759109713746364	0.623810845653819	0.75927958092391	-0.00592866949869026	-0.00636448519768995
7.6	0.00239453681589283	0.004902053011665	0.735227403916797	0.653482602866462	0.735011722229748	0.653641373553401	-0.0066779936125438	-0.00500040095174815
7.7	0.00233501523409119	0.00470860747854667	0.827747749473152	0.531502362744367	0.827595898683139	0.531695528254521	-0.00693435329723158	-0.00295498416517264
7.8	0.00254909686095397	0.00442885407165818	0.900289922233943	0.396935439365523	0.900167824386455	0.397155397294173	-0.00633750421266195	-0.000924614442827061
7.9	0.00257200333309926	0.00411928285705482	0.951320359194481	0.25325369544457	0.951278208777401	0.253478196138082	-0.00488608923407077	0.0012949082318027
8	0.0031587051330764	0.00267348522127966	0.980454061918646	0.102299716629972	0.980522230515012	0.10259192133631	-0.00176991834466187	0.0020980496376939
8.1	0.000770294428427517	0.00207958574160748	0.984202305502954	-0.0515292536201266	0.984324335523128	-0.0512575278112818	-0.000941807427288872	0.00104353608118108
8.2	-0.000561447553207345	0.00327591107809721	0.964511718914074	-0.203331016254686	0.964575309014292	-0.203034918489621	-0.000667116482812508	0.00101667503682058
8.3	-0.00140047592749136	0.00487191163183902	0.921871245233691	-0.350569806081049	0.92200678460092	-0.350312884125112	-0.000303600496401035	0.00109056310846773
8.4	-0.00129649388388993	0.00694211533871766	0.856955828374308	-0.490096910944332	0.857166181536247	-0.489895405059064	1.92812030401306E-05	0.001672308297507
8.5	0.000471191989450974	0.00830265646506651	0.769793343890247	-0.617833048547027	0.769908372351194	-0.617706355868293	0.00245208717997844	0.00223781791624476
8.6	0.00102766131144923	0.00827651172585161	0.664741185475653	-0.729216889965561	0.664937272124204	-0.72903008043087	0.00388473640247598	1.83012514165226E-05
8.7	0.00173943983405557	0.00940857645794419	0.543907675710702	-0.823867461751876	0.544188853707226	-0.823756055326648	0.00391361729732423	-0.00156348437249181
8.8	0.00360505438006488	0.0101580161397456	0.409516437335524	-0.89889383638975	0.40972238107491	-0.898837893669098	0.00331579520422899	-0.00276924748188758
8.9	0.00602705144280875	0.0102824379972915	0.264430586858463	-0.951848265669972	0.264671830298055	-0.951706132188114	0.0027341831032408	-0.00297429164414134
9	0.00946288704282544	0.00870589749442309	0.113818342979122	-0.980485424219941	0.114180546220623	-0.98045313212174	0.00359577402048261	-0.00291145002023108
9.1	0.0117061168372043	0.00562992783547034	-0.0391855752266229	-0.987242558634125	-0.0388323294033838	-0.987254561721731	0.00446473035793939	-0.00397731053265638
9.2	0.0129849586100409	0.00167640845089137	-0.192464755599787	-0.969555789085528	-0.192107527278918	-0.969624166647052	0.00527393476730508	-0.00506809125336286
9.3	0.0124260531466633	-0.00200689151299539	-0.340918571441007	-0.927982611354851	-0.340560024570943	-0.92804475533796	0.00583443273053834	-0.0060416219786133
9.4	0.0113661670269821	-0.00483782686343727	-0.480459603293018	-0.86380580400713	-0.480134418342934	-0.863951817537623	0.00681252241439566	-0.00658612492602726
9.5	0.0091363561979725	-0.00802798443468586	-0.60862945260033	-0.780111475497645	-0.608421393297553	-0.780247723000019	0.0078590776947664	-0.00924446275087239
9.6	0.00584670123413081	-0.00868086691306907	-0.723734706028449	-0.676124981372131	-0.723459284845878	-0.676308854364396	0.00570882089152508	-0.0109421536422721
9.7	0.0038996213618617	-0.00869562532682957	-0.820213025521633	-0.555282049851005	-0.819963714330338	-0.555551183102259	0.00414502751915842	-0.0111642545993871
9.8	0.00194580530846267	-0.00890560414972329	-0.896706366015179	-0.421209697152563	-0.896494441966228	-0.421484851078562	0.00268560106027583	-0.0107886236174336
9.9	7.28948587963694E-05	-0.00838385270433742	-0.951804398662907	-0.277245620863796	-0.951689185801481	-0.277576294094331	0.00215358856674869	-0.00930763441902917
10	-0.00150530093428829	-0.00936065717613736	-0.98482946709955	-0.125174276086928	-0.98474674349729	-0.125555433450305	0.00374215880379347	-0.00951183530802223
10.1	-0.00570321996040764	-0.00836861146598695	-0.991715131726367	0.0302946085507895	-0.991693370287008	0.0298131542830016	0.00247426253569028	-0.0107735823234844
10.2	-0.00795709220061775	-0.00586123889558135	-0.974987237483456	0.184149127029327	-0.974970658305848	0.183695906469761	0.00130736594582619	-0.0104990972770021
10.3	-0.00935555599834074	-0.00318911831623137	-0.934714085769841	0.333847553019883	-0.934848956141498	0.333302555399795	0.000450364013603214	-0.010165029483412
10.4	-0.00973909286778429	-0.000991890729549953	-0.87148014209375	0.475941977098131	-0.871746577049915	0.475401343448579	0.000172974954142389	-0.00972124913238394
10.5	-0.00961917619439815	0.000173933833423057	-0.785416564743592	0.60606215483845	-0.785701372864794	0.605672456564588	0.00143717904700252	-0.0104064676862092
10.6	-0.0110838838317984	0.000961365277216864	-0.681540221980494	0.719763720802778	-0.68196920689367	0.719417571118338	0.00100544592930753	-0.0128714827188285
10.7	-0.0126203028700693	0.00379329629119551	-0.561615720205483	0.817063040487999	-0.562030095248802	0.816772974916433	-0.000607641710634299	-0.0142557183073142
10.8	-0.012537664542609	0.00732429846627027	-0.427417136075113	0.89463722659814	-0.427931332789581	0.894407063406762	-0.00224787247895722	-0.014744091866951
10.9	-0.0110675105578389	0.0108733235065967	-0.282374548767592	0.949940418949008	-0.28286572772069	0.949890103293657	-0.00358546492294239	-0.0148569059439258
11	-0.00847070422088848	0.0130958540646877	-0.131728735118105	0.981065636887332	-0.132278072391375	0.981062488844998	-0.00453872357284945	-0.0152855441727865
11.1	-0.00536569348452205	0.0153029254353524	0.0221419990153419	0.990241076475241	0.0215090355911782	0.990325855232412	-0.00590273829924211	-0.0154158885403941
11.2	-0.0014276185988297	0.0160608256510587	0.176188260591597	0.974693656748294	0.175666380939787	0.974899523523347	-0.00693229746347	-0.0153246318278969
11.3	0.00260000844333785	0.0159115536608364	0.325599184288238	0.934987902305425	0.325168017025582	0.935253571782652	-0.00766052395836096	-0.0147283773705955
11.4	0.00660277020284615	0.014489500433367	0.466469859402486	0.872565925859706	0.466004105468949	0.872828960806758	-0.0076989970946716	-0.0137821115483
11.5	0.0094691042071364	0.0116464074179914	0.596206314922313	0.790380874969902	0.595847481031771	0.790802728611643	-0.00750181002144285	-0.0146411374569083
11.6	0.011035344437874	0.00963609124598217	0.7125646293385	0.687536062122885	0.712298442919496	0.688021039545716	-0.00950337839018223	-0.0146065230722994
11.7	0.0134099876069229	0.00741573198147454	0.810548308323002	0.567880027510124	0.810310164834727	0.568306023901236	-0.0108299379667917	-0.013468800964512
11.8	0.0150486666528655	0.00395437925085264	0.888566584212923	0.434724070086737	0.88838466325674	0.435280683190172	-0.0119432832546962	-0.0120309097590261
11.9	0.0169485444797701	0.000131485309765898	0.945367365010582	0.29178607713427	0.945332151804586	0.292333816755782	-0.0115977583427978	-0.00963614614027272
12	0.0154226566914982	-0.00572968338898224	0.980079625121575	0.140481533550926	0.980070902373934	0.140964653652287	-0.0105967840892337	-0.00944894453808408
12.1	0.0110430748901013	-0.00961785862847158	0.988822845226363	-0.014281904589812	0.988802054460552	-0.0138058115468765	-0.0118913629507634	-0.0103935961230028
12.2	0.00644343475197826	-0.0109176264156164	0.973960902472514	-0.167804471023885	0.974072041158913	-0.167365701458316	-0.0137945135947842	-0.00922832629570245
12.3	0.00236308002252563	-0.010541768470253	0.93557028201514	-0.317080379287927	0.935760263124792	-0.316722020936167	-0.0151336710476138	-0.00722219916950676
12.4	-0.00100833290521899	-0.00904380797607698	0.874684870482954	-0.459119051444755	0.874822187470077	-0.458743483124138	-0.0157482415769986	-0.00429161708254141
12.5	-0.00242570941580747	-0.00765003713614702	0.790593175062501	-0.589346044017204	0.791057738922082	-0.588957321533969	-0.0138213206617207	-0.00177870333492906
12.6	-0.00491241693245157	-0.00637377341073442	0.689250495169989	-0.703448925840543	0.68960129735986	-0.703142350385243	-0.0127569403866075	-0.00159775805259915
