# GHZ S RI R 50
0.2	-0.000360087199202041	-3.51729912110648E-05	0.949029519350789	-0.30784898840496	0.948803295701437	-0.307990893481652	-0.000118898178314417	3.18680424148016E-05
0.3	-0.000532821440689194	0.000274994489909782	0.889116653696	-0.451523390276056	0.888979232130414	-0.451576606412132	-0.000239314731672208	-0.000154175767580538
0.4	-0.000351682484855101	0.000471660613115933	0.807639138776376	-0.583821527528529	0.807679248527612	-0.583961130700471	-0.000114703232092604	-0.000207388671903031
0.5	-0.000427772867076658	0.000638464315854183	0.706870708875136	-0.702086552558773	0.706760122729064	-0.702182402349418	9.12105378181992E-06	-0.000343765419619699
0.6	-0.000453786713547502	0.000793459226893346	0.588989817546016	-0.803133707407724	0.588800282453686	-0.803136618859276	-2.32439139794866E-05	-0.000581175228277192
0.7	-0.00044672880412224	0.00126564997363461	0.456909461255863	-0.884500287124314	0.456835444837462	-0.884534662134467	-2.6326990591021E-05	-0.000868246845303584
0.8	-0.000139602144911523	0.00140279571802377	0.31388455213327	-0.944540871195632	0.313766041182405	-0.944454170891831	-0.000205196101075754	-0.00112941979742743
0.9	0.000117628423165668	0.00177912627515161	0.163342694036969	-0.981524029220843	0.163193741497141	-0.98148119221941	-0.000581931088963355	-0.00138597012511057
1	0.000614795115483841	0.00159553494009393	0.00890835762883517	-0.994652559020604	0.00879032882250964	-0.994622897531545	-0.000959637259185862	-0.00154562843008473
1.1	0.000700083865237901	0.00134665152247901	-0.14498739695323	-0.983824116993091	-0.145634629179666	-0.983789021299967	-0.00161639336585206	-0.00139924584364833
1.2	0.000944706847316115	0.000427673733260888	-0.296690239133638	-0.949025921078483	-0.296683272319058	-0.949081571841805	-0.00160506355549095	-0.00103182924726328
1.3	0.00101053487446243	-0.0010803633439286	-0.440270103177803	-0.891205971776075	-0.440362151304749	-0.891230423394186	-0.000635219756507467	-0.000448415572641029
1.4	0.000723944726804791	-0.00285589570503684	-0.573017371612535	-0.811964621433399	-0.573091126344009	-0.811865111410869	0.000708070614499246	-0.000798130078398951
1.5	0.000277208192326808	-0.00337507307742702	-0.692153582704413	-0.712914860620667	-0.692178169267084	-0.712842856883267	0.00184196149531156	-0.00170624261368024
1.6	0.000227794798829895	-0.00314454172027283	-0.793882242373314	-0.597029348699094	-0.794311441490562	-0.596529141757134	0.00165241465596423	-0.00274259639088817
1.7	0.000554640229026352	-0.00296059427880138	-0.876659442554397	-0.466419394880049	-0.87696357497447	-0.465929858087726	0.000990838338130048	-0.00338792057908876
1.8	0.000563444032470834	-0.00311828172392478	-0.938414597309788	-0.324225637039145	-0.938430036229934	-0.324216179890739	-3.84825275158873E-05	-0.00390123753420544
1.9	0.000522082193304029	-0.0032689635666772	-0.977310589084178	-0.174504300908623	-0.977355067640202	-0.174557010648589	-0.00100034825803075	-0.00403087693116667
2	-0.000154972326741246	-0.00366183275845841	-0.992179333633397	-0.0212007206543662	-0.992273986880816	-0.0205517105854277	-0.00204405003153864	-0.00382376721631114
2.1	-0.000744646311398064	-0.00327487851898781	-0.983147932313361	0.134154810854056	-0.983247425425801	0.133670995434107	-0.00261067906288092	-0.00337856120044936
2.2	-0.00126694985792265	-0.00323038471852756	-0.950501710876716	0.284358347890969	-0.950540453930989	0.284492004380981	-0.00319872611916557	-0.00317238043096224
2.3	-0.00178219608785982	-0.00308969335682593	-0.894772287579804	0.428353034077903	-0.894608571171703	0.428441419639603	-0.00392219602079662	-0.00286229427648254
2.4	-0.00250827753146978	-0.00303675428741441	-0.816780363452555	0.562525153299213	-0.81707154122947	0.562063604055615	-0.00458334123321727	-0.00239541417929302
2.5	-0.0033991213681079	-0.00286185181956923	-0.719725507318584	0.682208271593726	-0.720027550779907	0.681827934775364	-0.00480786146117686	-0.00198647953913197
2.6	-0.00456467382265206	-0.0020596878443647	-0.605556504038029	0.785298163933364	-0.605477322495638	0.785238819428441	-0.00472185478692932	-0.00148782617625054
2.7	-0.00485580946931291	-0.000862044145306474	-0.47616975766831	0.869612695042323	-0.47614030298839	0.869626776338923	-0.00462126297393237	-0.00124345424768283
2.8	-0.00464872519523985	8.14876124673466E-05	-0.335572579614579	0.932815406592291	-0.335454479284446	0.932899841104155	-0.00437269754016331	-0.0009079233500829
2.9	-0.00361899096169758	0.000757043058923612	-0.18674668121119	0.973410383829449	-0.18674223361157	0.973465129357543	-0.00381848418911043	-0.000303035835976464
3	-0.00262800915073434	0.00103812036502873	-0.0332347470764891	0.990576130227464	-0.0332990201537435	0.990647512910495	-0.00274629913840398	0.000210981574749982
3.1	-0.0011722364810858	0.00107010734769761	0.120185005038168	0.983652670814487	0.120832588442327	0.983733841162883	-0.00155468223506101	0.000391930088407135
3.2	-0.000219921947068389	0.000449806694525383	0.271916170301488	0.952778684301507	0.271906219876894	0.952818243313777	-0.000753661530004422	0.00015661352811114
3.3	0.000737950178390475	-0.000341161413416569	0.417102267651069	0.898702006718771	0.416480107626007	0.898983233582729	0.000221343998168483	-0.000173115431894322
3.4	0.00108841216147543	-0.0013364516268693	0.550970159112327	0.823392265327197	0.55088527057508	0.823507463122143	0.00119972496527822	-0.000865347780882242
3.5	0.00126392155578656	-0.0021252241738266	0.672027153140239	0.727926692665804	0.672041370683454	0.727952875260581	0.00189639925034248	-0.00190568983980028
3.6	0.00126266180357487	-0.00268989324256154	0.776271667532014	0.615091787747732	0.776693478602973	0.614698065867668	0.00212790892728141	-0.00308708035248519
3.7	0.00143284451132115	-0.00356589414519143	0.862628392628529	0.486595600932506	0.862635374504294	0.486722043772599	0.00197508504119897	-0.00417162285293123
3.8	0.00106239922965787	-0.00452026124158843	0.927583003806857	0.346757355794655	0.927611351847087	0.346940532331551	0.00133786024548464	-0.00524244557019264
3.9	0.000827480523837884	-0.00554640078848488	0.970245708585535	0.19799066673625	0.970147345542813	0.198578235311805	0.000176269130241516	-0.00626416930918937
4	-0.000392953779106257	-0.0064813626997625	0.989019662912317	0.0456705811958523	0.989101603945565	0.0457135461999883	-0.00105040872258185	-0.00687353808568561
4.1	-0.00147612827087161	-0.006718202647802	0.984170421589273	-0.108250399746023	0.98410834086075	-0.108186421325795	-0.00238471816711335	-0.00735179001427314
4.2	-0.00274654208749044	-0.00686922933148258	0.9550874210327	-0.260302877099047	0.955280796519651	-0.259733949978683	-0.00398565239510845	-0.00757150628668364
4.3	-0.0037804757508983	-0.00711913662145675	0.903320131930786	-0.404804510687006	0.903321004206279	-0.40478599403032	-0.00572539697011851	-0.00757851291064228
4.4	-0.00505875214844471	-0.00722608875485939	0.829493290457167	-0.539954794075358	0.829413442168157	-0.539938871013874	-0.00762132331639204	-0.00707145735551458
4.5	-0.00649862406196034	-0.00766977410183412	0.735723541169206	-0.662101546921564	0.735600138417515	-0.661955613056365	-0.00933731474289386	-0.00623252943745686
4.6	-0.00874331143611052	-0.00712142418724585	0.624087813176949	-0.768340372921644	0.624073252719671	-0.768111090087758	-0.0109340098022573	-0.00506043719063704
4.7	-0.01051462500863	-0.00633270039577375	0.497092585594625	-0.855970032431158	0.497209600189326	-0.855725499300521	-0.0125866796602097	-0.00383561810590104
4.8	-0.0121075352140126	-0.00480243876355107	0.357901075664263	-0.922594298900104	0.358194651669896	-0.922405900850035	-0.0138272081237818	-0.00197151421642629
4.9	-0.0127819582833823	-0.00335107703651767	0.210326746223589	-0.966522031275071	0.210586410936134	-0.966471073576606	-0.014258367039774	0.000417712579273105
5	-0.0131528682493607	-0.00182195110985735	0.0582114250661499	-0.98734445082492	0.058369613128168	-0.987216621323808	-0.0136470617499795	0.00298438904306791
5.1	-0.0125757457763033	-0.000559078138823524	-0.095675971382129	-0.984441676089457	-0.0953549427846278	-0.984378994394969	-0.0122051540388447	0.00527700821731354
5.2	-0.0118779488391457	0.000346787270601041	-0.247367364778916	-0.957621542959098	-0.246940086398888	-0.957743610366782	-0.0105519586426188	0.00746739780019205
5.3	-0.0113193723507038	0.0005609742343844	-0.392939571720746	-0.907664867517643	-0.392650718942898	-0.90800934564789	-0.00821126611008357	0.00946692662080105
5.4	-0.0112307249569224	0.000990126519855859	-0.529161592983792	-0.835763336093814	-0.529025687205176	-0.836052849112177	-0.00543475327373646	0.010947038562335
5.5	-0.0118614837815381	0.00182119881065722	-0.652582527009021	-0.743318528485883	-0.652532712470015	-0.743632370198834	-0.00245830183349764	0.0115568901325853
5.6	-0.0115154393427231	0.00381132177802752	-0.759751221107125	-0.632855268634145	-0.759764740104095	-0.633025594606325	0.000384447533405243	0.0113955985945854
5.7	-0.010862772203395	0.00491212117127118	-0.848759834094201	-0.507265659129819	-0.848736125213321	-0.507440747588839	0.00274425148863581	0.0110079396241896
5.8	-0.0102120094257507	0.00604513749028159	-0.917045052153354	-0.369263143423973	-0.917089969393124	-0.369555246528866	0.00500455208219026	0.0104056543299066
5.9	-0.00971253850254089	0.00647506386841575	-0.963239550099544	-0.222530749085366	-0.963359957959551	-0.222578642902518	0.00701493735881855	0.00947013671083448
6	-0.0102385036001652	0.00719465043204907	-0.985955337675291	-0.0702857907999833	-0.985952298752901	-0.0703544708564983	0.00868016200234499	0.00831934589340627
6.1	-0.0105358216936691	0.00927365484882667	-0.984824170375386	0.0833571535715875	-0.984827381226217	0.0832538297489179	0.0102933521081675	0.00670008443905447
6.2	-0.00979935649905964	0.0115789780536085	-0.959917043343714	0.235293288269658	-0.959965152036923	0.235111593691475	0.0113274057643597	0.00459541324738319
6.3	-0.0083493539949236	0.0133170965199001	-0.911733843195168	0.38143526090248	-0.911758204051679	0.381306589640631	0.0119427228465849	0.00216158821885909
6.4	-0.00634813553495702	0.0142153417709371	-0.841354600327819	0.51830778952669	-0.841345913785549	0.518094224637176	0.0118959173844102	-0.000686465123435062
6.5	-0.00459628622516896	0.0141764588912516	-0.75068984350524	0.642434825411772	-0.750790362464662	0.642262508703223	0.0112277116409429	-0.00360450992588251
6.6	-0.00270729678980221	0.0139195855774706	-0.641912379609449	0.751267111487752	-0.642060892376887	0.751121127185534	0.0099694750384111	-0.00613516186327183
6.7	-0.0012622799196698	0.0130551882370639	-0.517352084473692	0.841795106727637	-0.517473305002239	0.841637917341348	0.00805285864590011	-0.00815798847207895
6.8	-8.66499760904176E-05	0.0123073112104428	-0.380244936682979	0.911750715091329	-0.380456078721266	0.91167572347573	0.00583172701674321	-0.00943354846012487
6.9	0.000808905729785157	0.0113817796469435	-0.234123249089424	0.959531961841361	-0.234373946941132	0.95952823708051	0.00380990100632133	-0.0100877662891679
7	0.00178266021626191	0.0107152306948579	-0.0824136718159043	0.984321098195498	-0.0826719809386936	0.984291084258341	0.00186810868150325	-0.0106070053929144
7.1	0.0026939204481391	0.00971386237881045	0.0714926235620999	0.985042179621592	0.0712859705355514	0.985030184805429	-0.000214377470349783	-0.0106607579233813
7.2	0.0034052905739515	0.00856768978278701	0.223477465809023	0.961810913117561	0.223222231803086	0.961855080844628	-0.00203470831492005	-0.0100359206923491
7.3	0.00349556887168764	0.00723557965069258	0.369952307159532	0.915364829323743	0.369712219388782	0.915455655844558	-0.0036798031492481	-0.00905630195486455
7.4	0.00338245272944632	0.00615984324673898	0.50747372329298	0.846759876364249	0.507255609399128	0.84692183225182	-0.00520693352115259	-0.0077242360782486
7.5	0.00280037873681655	0.00530156124475618	0.632820293504277	0.757546960247303	0.632660432614224	0.757718868663367	-0.0061722507836789	-0.00589535410510248
7.6	0.0028151323201473	0.00494072621505166	0.742522087336541	0.649934411201512	0.74230693726045	0.650095325530655	-0.0063103856419157	-0.00440216995644319
7.7	0.00276433652372907	0.00430503251704526	0.834127958049452	0.526829218575745	0.83397711737618	0.527024081671704	-0.00640530985991871	-0.00283152646350004
7.8	0.00278152258592914	0.0036821912462306	0.90574726935885	0.390923480157737	0.905626574778759	0.391144968066534	-0.00589436327150427	-0.0012329553151441
7.9	0.00229203532860835	0.00286588800039598	0.955294654129497	0.24563210115993	0.955254335955896	0.245857389666566	-0.00497535991416929	0.00039031678164395
8	0.00108251592759804	0.00230441822109108	0.981520796355504	0.0943573735215885	0.981591355700668	0.0946490944855516	-0.00374675104046391	0.00173965966505953
8.1	-0.000225364605322593	0.00335948185447257	0.984249775553706	-0.058824040752526	0.984373866477914	-0.058553098408212	-0.00206895226794084	0.00250037027521032
8.2	-0.000504557550920037	0.00452416062326825	0.963209982633477	-0.210824572642899	0.963275873521996	-0.210528883516124	-0.00080458482568961	0.00256111707362543
8.3	-0.000614598612620396	0.0057971689436557	0.918730217052324	-0.357783379619405	0.918867752549898	-0.357527634552709	0.000291874499998943	0.00241531755534585
8.4	8.52446452983775E-05	0.00688320293787692	0.851923023717845	-0.496020913412781	0.852134632298306	-0.495821327109482	0.00128538857796859	0.00207419656645421
8.5	0.000407025573053197	0.00731020309427032	0.764712803522613	-0.621977107974826	0.764828495523624	-0.621851338153306	0.00228185393825819	0.00162200955707632
8.6	0.000919401730247991	0.00859231303862818	0.658832386013008	-0.733256653291678	0.659029616857105	-0.733071440769957	0.00352513630174131	0.000792422355216101
8.7	0.00228290141151696	0.00968801223143447	0.536814267261726	-0.826474671876327	0.537095782000727	-0.82636555612178	0.00424418637137976	-0.000621104058242421
8.8	0.00446759645376615	0.0100879523344112	0.402033121300162	-0.899636398256921	0.402238962206797	-0.899582076963008	0.00413313459622882	-0.00204077851323831
8.9	0.00697185284235785	0.00957762652614707	0.257523688075961	-0.95100251262247	0.257765205950333	-0.950862332203693	0.00388774413598426	-0.0028760169102629
9	0.00956371979805676	0.00756290960485969	0.106778337417189	-0.979366386712757	0.1071400594639	-0.979336676252815	0.00406694620710633	-0.00342714037673964
9.1	0.0114181976935129	0.00484114893971165	-0.0465674909017583	-0.983807264124631	-0.0462154588919452	-0.983821915017054	0.00460052313798649	-0.00427015737013061
9.2	0.0123682000459749	0.00122507213510339	-0.198629526503342	-0.964352822893924	-0.198274197145798	-0.964423481907646	0.00508064309759786	-0.00520554142587335
9.3	0.0118230207029525	-0.00205836898929142	-0.345723527174848	-0.921761780569058	-0.345366915559351	-0.921826075390467	0.00554165124005537	-0.00593487777411855
9.4	0.0105247067735178	-0.00505612290556092	-0.484350700124346	-0.857003214209608	-0.484027839593002	-0.857150835492877	0.00611828029025037	-0.00675124353488583
9.5	0.00787444916832775	-0.00657522323438645	-0.611481310172836	-0.771302054879549	-0.611275398430301	-0.771439199706751	0.00644393753269106	-0.00765947173594298
9.6	0.00650984583822858	-0.00722485984861921	-0.723470174647338	-0.666878738759784	-0.723197783323278	-0.667063232543419	0.00618586145037081	-0.00907515659377203
9.7	0.00491949662225111	-0.00814974458141473	-0.817957237865431	-0.546655343764025	-0.817711211476065	-0.546924135068898	0.00509909503818756	-0.010098690997715
9.8	0.00299921780241766	-0.00901489238776218	-0.892818345230733	-0.413163265122628	-0.892609469309443	-0.413437695812992	0.00379782455012213	-0.0103838338952702
9.9	0.000649205234188049	-0.00952465731277192	-0.946049937289155	-0.269593232356022	-0.945937528998539	-0.269922015747467	0.00289199059407479	-0.0100403661201818
10	-0.00285001488165859	-0.00960149023551251	-0.976213040990324	-0.119531647949332	-0.976132820895293	-0.119909626338515	0.00238873523497429	-0.00951498463917191
10.1	-0.00572199558552742	-0.00737169182734957	-0.982865407615319	0.0331787538082253	-0.982845368270862	0.0327014799564617	0.00230553097019684	-0.00938526724123681
10.2	-0.00728485946695033	-0.00537084611720012	-0.965889860582673	0.185318929804891	-0.965874723409509	0.184869645883557	0.00189447566351147	-0.00950876351579535
10.3	-0.0085404830163236	-0.00320573200648649	-0.925322355116069	0.33304726907714	-0.92545730781555	0.332507602545141	0.00128511572088647	-0.00967422944601206
10.4	-0.00912701875020054	-0.00164959969490519	-0.86216938411988	0.472494329955585	-0.862433965429125	0.471959430635581	0.000890876045493088	-0.00996796985558189
10.5	-0.0102756127515579	-0.000326180111926224	-0.778469468323574	0.600164086013076	-0.778751495898597	0.599777841462997	0.000820946252436991	-0.0106705855914713
10.6	-0.0114605933415832	0.00169734127811561	-0.675964510674766	0.713677685055997	-0.67638987647414	0.713334358459362	0.00046022394470491	-0.0119064179027576
10.7	-0.0121404818055316	0.00471577288211567	-0.557054079647452	0.809854794983624	-0.557464797385186	0.809567087786981	-0.000417103496990543	-0.0129747118713669
10.8	-0.0114969173632992	0.0078117165561769	-0.424580642720299	0.886322694871743	-0.425090076764293	0.886094025543098	-0.00151496105511811	-0.0137499697316493
10.9	-0.00998233795489457	0.0108804647579683	-0.282058398071205	0.941327440095067	-0.282545331368029	0.941276481976085	-0.00285140035326086	-0.0142268340506755
11	-0.00752040226284967	0.013103226182327	-0.132638179131869	0.97386001595336	-0.13318361458902	0.973855857776414	-0.00390721759898111	-0.0145528236685992
11.1	-0.00422818206948365	0.0149116301881294	0.0203811683357367	0.982441265401692	0.019753077351181	0.982524359898312	-0.00498229985686499	-0.0149202230192182
11.2	-0.000502407585373258	0.0152992626809184	0.17239212875953	0.967209425367317	0.171873985648489	0.96741235431522	-0.00605683372618409	-0.0151280391495101
11.3	0.00317192204181724	0.0148327418699749	0.320110575740966	0.928747125674802	0.319681921095849	0.929009365816994	-0.00692173790698171	-0.0149425922308604
11.4	0.00640596160296886	0.0130849595316548	0.460338650585022	0.868002706933739	0.459875286164185	0.868262371031303	-0.00765409413197604	-0.014448954012869
11.5	0.00855133610772575	0.0115395616556085	0.589599945113287	0.785812047266832	0.589242800258589	0.786229737157298	-0.0082692979176627	-0.0139246564997244
11.6	0.0112563292171065	0.00963231418736646	0.703921438595656	0.684708162153548	0.703655509420035	0.685188065136876	-0.0090025622829898	-0.0136943795222207
11.7	0.0136219488341139	0.00685127934482885	0.801566805348796	0.567423560231306	0.801328437512037	0.567845127548358	-0.0101375281784414	-0.0131922222005564
11.8	0.0149998379755085	0.00304571421952268	0.87994359368172	0.436137587421155	0.879760136207002	0.436689261269517	-0.0113748067234508	-0.0123035721929579
11.9	0.0156232462150103	-0.00127823636531649	0.93696451386947	0.294390111731068	0.936926809584059	0.294933654668361	-0.0121444253834832	-0.01074850497352
12	0.0126072053592164	-0.00557026251666148	0.971109180235432	0.14561145759421	0.971097430395507	0.146090544045101	-0.0129767745509182	-0.00931661229947034
12.1	0.00970133927502188	-0.00760370698078943	0.982091161885259	-0.00657625441440009	0.982066852461479	-0.00610361533098858	-0.0130801178206196	-0.00837810372747821
12.2	0.00642352547840313	-0.00887084313111551	0.969278784471623	-0.15907757585797	0.969385772468718	-0.158640634881807	-0.0138624007981127	-0.0070953187339597
12.3	0.00335814378711699	-0.00888034021926051	0.932693257147286	-0.307563934512069	0.932879192184793	-0.307206117007474	-0.0143043311999884	-0.00535855234199885
12.4	0.000667686558767498	-0.00850685623801633	0.873690127193246	-0.44852065996936	0.873823245079909	-0.448146059015164	-0.0142710024782551	-0.00346372840292343
12.5	-0.00191032310627212	-0.00783876628921271	0.79349753748063	-0.578392374137096	0.793955967903691	-0.578000359242969	-0.0135930868548418	-0.00168029825982903
12.6	-0.00413898228323318	-0.00598088499647017	0.694305698389862	-0.694598839876342	0.694652456949482	-0.694289638450488	-0.0123708234437184	-0.000753144216379994
