# GHZ S RI R 50
0.2	-3.43698578368966E-05	-0.000600978833979783	0.951328162296076	-0.307263049693866	0.951101664021177	-0.30740552723546	0.000191980414326426	-0.000516337406927502
0.3	-0.00059589701457586	-0.000400177100414322	0.892060767559565	-0.451242957550854	0.891923086225952	-0.451296525162347	-0.000320181589480416	-0.000792705375226039
0.4	-0.000967533615198472	-2.89638935516256E-05	0.811282018527644	-0.584269481778418	0.81132250576735	-0.584409464000575	-0.000741775549310969	-0.000653185364729374
0.5	-0.000940057901995915	0.00110534128724451	0.710493228980973	-0.704044583789181	0.710382316332519	-0.704140942746579	-0.000509438832019049	0.000179505825328883
0.6	-0.000264203694557135	0.000754197111932641	0.591957727599364	-0.805495950132273	0.591767498897467	-0.805499061884855	0.000142983692518494	-0.00054650951851047
0.7	-0.000618863458280825	0.000887424022062116	0.459806647158599	-0.887538421803884	0.459732371934698	-0.887573023633182	-0.000217933779458592	-0.00113757621086391
0.8	-0.000659549890865565	0.000936276319127979	0.316288810769821	-0.948549780038772	0.316169667960206	-0.948462803436684	-0.000720589514294288	-0.00145181663768357
0.9	-0.00123126631232557	0.00125603548294407	0.164590444619645	-0.986377762808168	0.164440726003308	-0.986334775837739	-0.00186784259774541	-0.0017427684219486
1	-0.0014139465522991	0.00321037932810457	0.00887146351354154	-0.999026124862508	0.00875291809650521	-0.998996323918519	-0.00284535419775814	0.000176284513425119
1.1	0.00123926234566659	0.00298266052107818	-0.145036607788826	-0.988547967634414	-0.145686908854209	-0.988513123352953	-0.000968889537199831	0.000225880033203099
1.2	0.00191132177456587	0.000665045424392743	-0.297996032120481	-0.95423332351883	-0.297989010532361	-0.95428927215501	-0.000595678025281973	-0.000871609551303852
1.3	0.00220006795526758	-0.00209944382335333	-0.442971289024788	-0.896121881168625	-0.443063862113814	-0.896146448023071	0.000474085894857527	-0.00154242205172475
1.4	0.00166640770053064	-0.00478773163553152	-0.576667259679456	-0.815938182544778	-0.576741342383791	-0.815838085425177	0.00146351040337557	-0.00270980431219022
1.5	0.00229269496382832	-0.00620181012528476	-0.695789980456624	-0.716796228181364	-0.695814705499353	-0.716723841407596	0.00360606339077884	-0.00439487917962857
1.6	-0.000243509095662572	-0.00764519206358524	-0.799502877578153	-0.60076053799213	-0.799934787162841	-0.600256768421597	0.000967055932339201	-0.00685625001825956
1.7	-0.00155157045307695	-0.00578883647165205	-0.883399996818086	-0.46841710536835	-0.883705547824082	-0.467923742853945	-0.00116938441127655	-0.00576487738277334
1.8	-0.00202319527594401	-0.00441667913462133	-0.945422156877952	-0.324583056191529	-0.945437682049217	-0.324573504488109	-0.00254074969374387	-0.0047773221418584
1.9	-0.00206839404274046	-0.00241712688143772	-0.984236600733278	-0.173766258967414	-0.984281482190885	-0.173819236722184	-0.00341564523196597	-0.00285642170247729
2	0.000820588029855877	-0.00165604393877781	-1.00029558424198	-0.0191399286456246	-1.00038954648418	-0.0184854276950811	-0.000958148617566176	-0.00162032949924011
2.1	6.17994276495645E-05	-0.00443704669796264	-0.990407823445278	0.139396980401953	-0.990510162891745	0.138909734502089	-0.00177082340480272	-0.0042706678526677
2.2	-0.00194661713827843	-0.0042696287297458	-0.956051486563359	0.290983489541371	-0.956089870603102	0.291118303908655	-0.00377483154100474	-0.00388861307015227
2.3	-0.00315585663807461	-0.00350652483826386	-0.898946013498126	0.435948416592962	-0.898780684723349	0.436036596590608	-0.00509341930113695	-0.00298707858961426
2.4	-0.00459326614888092	-0.00211520206156329	-0.819781681645843	0.571297208435398	-0.820077615918822	0.570833814524351	-0.00637826730955282	-0.00131558169242021
2.5	-0.00309670217431789	0.000511224578671842	-0.719864853227289	0.692883826690739	-0.720172099218705	0.692502965095407	-0.0042959506294002	0.00129430622475216
2.6	-0.00205722818359805	-0.00135439137449113	-0.602563613574211	0.794581656598269	-0.602484472059533	0.794521339653108	-0.00224213849623964	-0.000899564831432015
2.7	-0.00296080897919577	-0.00189591773663277	-0.47173009127102	0.877952793981976	-0.471700370422775	0.877966714241551	-0.00289242673367343	-0.0022862030119616
2.8	-0.00380886959241975	-0.00177409778385432	-0.3294155366995	0.940420741730867	-0.329296119387337	0.940504611388745	-0.00374492465034487	-0.00264909155684379
2.9	-0.00359817396571384	-0.0010769150054465	-0.178293232145972	0.979827865474058	-0.178288238070708	0.979882828479817	-0.00402761224351657	-0.00188024139064015
3	-0.00287308450101791	-0.00123773589330133	-0.0231286715399788	0.993342837037189	-0.023192367837091	0.993415055483256	-0.00320671813055211	-0.00169679742075145
3.1	-0.00302366137246471	-0.00088996931673664	0.129183919630275	0.984709742926225	0.129833623085335	0.984785335146373	-0.00353048750016904	-0.00118934377998647
3.2	-0.0024021271381286	-0.000380971515414238	0.281396880527634	0.952442095203015	0.281387274900017	0.952481837657914	-0.00295231757187622	-0.000197965008383628
3.3	-0.00135421624152631	-0.000252178167560235	0.426743467954568	0.8960843850731	0.4261230452583	0.896372273620524	-0.00181375611545994	0.000360315013662479
3.4	-0.000305235050788526	-0.000121415116425822	0.559593064829704	0.817973120499036	0.559509335020729	0.818089224468449	-0.000122690586734072	0.000723014164192772
3.5	0.00186545593131834	-0.00179234471381555	0.677854162803965	0.721804054058492	0.677868595440119	0.72183010116536	0.00247572025848021	-0.00121520893823151
3.6	0.000343921171550605	-0.00361998485632645	0.78231577291743	0.608578777205119	0.782734357383718	0.608181007378777	0.00120125012566206	-0.00354796934153552
3.7	-0.00019251449176841	-0.00363913084946823	0.867404644582052	0.478125443237414	0.867412867886517	0.478251817351374	0.000439612276717079	-0.00374892256565984
3.8	-0.000725298943065236	-0.00377245561829429	0.930087532509802	0.337224551895289	0.930117666063729	0.337407264210586	-0.000273769548223261	-0.00405072740826456
3.9	-0.000772455160876344	-0.00328428548870857	0.97039533727432	0.188797092840355	0.97030250495258	0.189384555457075	-0.00120595509870461	-0.00368873289689429
4	0.00123058495949753	-0.00360300618806546	0.989170126756675	0.0367663324289772	0.989252432530466	0.0368085494023639	0.000632377830577383	-0.00383855533557175
4.1	0.000177193793194556	-0.0067334876632874	0.981722246783433	-0.118951216007438	0.981660949892921	-0.118886635527482	-0.00084649407719133	-0.00709876088362997
4.2	-0.00215609846551018	-0.00727518913481644	0.949592497571833	-0.270010339386313	0.949791549195773	-0.269445103943038	-0.00351306374818884	-0.00759761541632986
4.3	-0.00391946472527732	-0.00756413383299928	0.895923711936569	-0.412843133752947	0.895924774967377	-0.412824690981923	-0.00593498963949854	-0.00758180378398427
4.4	-0.00631158738987313	-0.00683495077114487	0.821176866358782	-0.546672519074886	0.821097448276287	-0.546655828953026	-0.00885960249456906	-0.00626669317289456
4.5	-0.00619320430647125	-0.00496976601793349	0.724697006363519	-0.668642256904501	0.724575884359208	-0.668495360599947	-0.00906175844157115	-0.00328215028448317
4.6	-0.00673505061383233	-0.00629814279530968	0.610768875974485	-0.770464931307313	0.610757119728712	-0.770237039775601	-0.00916066845438995	-0.00395311493253038
4.7	-0.00885976028369078	-0.00653394615422358	0.484240009483625	-0.854781212116042	0.484358737771263	-0.854539770805181	-0.0112636663488823	-0.00360805525647315
4.8	-0.0108488679003595	-0.00562219801878652	0.345656290045059	-0.918929654290653	0.345949459709082	-0.91874574333333	-0.0129088422782475	-0.002216097812461
4.9	-0.012039639594033	-0.00435552340107726	0.198225995991272	-0.960490024423021	0.198483981015271	-0.960442270202403	-0.0137885189078021	0.000121671162918551
5	-0.0122143605796124	-0.00338692923911045	0.0473450975393547	-0.976457761019698	0.0475027642914282	-0.976333051216162	-0.0129182653240353	0.0022271355181436
5.1	-0.0133735951003087	-0.00265479199599728	-0.101877955690028	-0.97205214257032	-0.101560267672021	-0.97199259688996	-0.0130387784405831	0.00411228876204968
5.2	-0.0137219521810082	-0.000593148261669279	-0.251118629384192	-0.944844175108293	-0.250697132837954	-0.944967781088041	-0.0121647725967117	0.00741023872107105
5.3	-0.0132658358858436	0.0011903673671521	-0.394200498008814	-0.894054376449734	-0.393917432936951	-0.894396595951022	-0.00975386084563758	0.010742483507876
5.4	-0.0116301240055669	0.00357159513881454	-0.526910547395219	-0.821243678422802	-0.526778209111109	-0.821530054446123	-0.00550481269804974	0.0138448367303846
5.5	-0.00830969584991452	0.00196138788891668	-0.64533406483358	-0.731125557478977	-0.64528577668389	-0.731435105388168	0.00101815565884491	0.0119446314071564
5.6	-0.0112748838181793	0.00116037404477756	-0.752040904045335	-0.62338199807592	-0.75205466297287	-0.62355022709523	0.000489812391384204	0.00928352252335193
5.7	-0.0124258232885092	0.00351465801042523	-0.839421174763918	-0.498809869581642	-0.83939819906684	-0.498982829595937	0.0011727794825203	0.0101907910505708
5.8	-0.0124882230601775	0.00613704332598429	-0.905590833162598	-0.362816265239143	-0.905635661148052	-0.363104440029085	0.00281720753043425	0.0109934311250326
5.9	-0.0117667860975448	0.00942706999404281	-0.950234476329901	-0.219652341875338	-0.950353256122044	-0.219699605374866	0.00502728003424863	0.0126819024544543
6	-0.00670533476228042	0.0110493256019947	-0.975050924013281	-0.0705433505257256	-0.975047846941317	-0.0706112728957504	0.0118879403982141	0.0122212590788866
6.1	-0.00680638554920797	0.00826608349004841	-0.973301896848039	0.0829805548599821	-0.973305132841344	0.0828784367582336	0.0132719761981796	0.00605074035277905
6.2	-0.00780375313170671	0.00928798479007541	-0.947763274265708	0.231987336430892	-0.947810711758211	0.231807941396774	0.0125099427557085	0.00308548157957826
6.3	-0.00793892990900453	0.0106109180027455	-0.900669131011227	0.375052103433489	-0.900692968819045	0.374925042125284	0.011732461544125	0.000589725636352755
6.4	-0.0073740830350872	0.0123272864720913	-0.832814324753477	0.510042030935741	-0.832805187309576	0.509830996947462	0.0105646363767812	-0.00131402653135403
6.5	-0.00562864795224589	0.0130793851769093	-0.742442171763427	0.634414559756462	-0.742541395263646	0.634244171021994	0.0100854999666683	-0.00350230741858479
6.6	-0.00427455511394574	0.0135374775859102	-0.634548373115298	0.739270262909255	-0.634694471901135	0.739126003018393	0.00850854834554604	-0.00533411700721188
6.7	-0.0022867091596977	0.0136535740255983	-0.513746086788904	0.828023017588368	-0.513864977710277	0.827867487481193	0.00728507638712509	-0.00655588158197377
6.8	-0.000278726045356253	0.0130817040543434	-0.379963701826536	0.897939273073943	-0.380171712296729	0.897864176622219	0.00588399997152925	-0.00783460750887448
6.9	0.00146764745903066	0.0119195283316629	-0.235814335345839	0.946301830727487	-0.236061854501687	0.946296939958403	0.00454391564724882	-0.00877341681282117
7	0.00263045386344294	0.00975824587619197	-0.0866875945854537	0.968957254647087	-0.086941824826992	0.968926246185755	0.00270343030474843	-0.0106466172502542
7.1	0.00226814372660159	0.00875325703515804	0.0615370750458381	0.971806313831268	0.061333444068957	0.971792610977455	-0.000547752365025739	-0.0106605521499429
7.2	0.00274482956556263	0.00805089496895611	0.211244560745293	0.951872343896209	0.210992112327496	0.951913456203386	-0.00256938282082828	-0.00960504353216496
7.3	0.0027766921128516	0.00700914201697488	0.356220562144115	0.908016577987777	0.355982464434458	0.908103878011863	-0.00426162471729099	-0.00832273552217606
7.4	0.00289159399380772	0.0063760088815104	0.491748218484605	0.841443644711477	0.49153113363585	0.841601149853468	-0.00551336546186469	-0.00649961414236741
7.5	0.00338408103715093	0.00474333148743321	0.614021206543531	0.757781605360285	0.613860729501285	0.757949085258542	-0.00540318317664944	-0.00546523282550629
7.6	0.00181565724403989	0.00324386741463539	0.726464579375232	0.655438122920042	0.726248873394204	0.655594449226493	-0.00700862592508911	-0.00498659447511433
7.7	0.000450337884397616	0.00347161086809691	0.819935855265048	0.534798234202569	0.819783370867827	0.534989378919655	-0.00820339588534717	-0.00258881814373556
7.8	-0.000252580501878298	0.00431159336798177	0.8930846321573	0.401685037902615	0.892961493288662	0.401903050288554	-0.00823593666004325	0.000249389597688064
7.9	-0.000544507189804428	0.00622186988288017	0.944876062904974	0.260155252035233	0.944832204145563	0.260378380948935	-0.0068968403876755	0.00422795874276115
8	0.00375300260283378	0.00692029956390635	0.977528425784316	0.111023064499918	0.97759379394591	0.111315295991819	-0.00103724590458601	0.00649094902235011
8.1	0.00315248760707103	0.00346437921122544	0.98293233712062	-0.0440805852638961	0.983052129338067	-0.0438084036884593	0.00104064717668972	0.00289408292253839
8.2	0.00144554491300311	0.00328060697987787	0.964128532760882	-0.195602576220861	0.964189747955202	-0.195306587217152	0.00071995696840024	0.00196261290123365
8.3	-5.25580977784564E-06	0.00387003446330004	0.923178485840026	-0.342446141313537	0.923311697273732	-0.342188545911567	0.000517734956154996	0.00143215161929439
8.4	-0.00151007475616888	0.00576296254760546	0.8608649047414	-0.482458393030746	0.861073423350699	-0.48225514215661	-0.000498911501637177	0.00202034084468554
8.5	0.00101800891155628	0.00941823392515311	0.774466588027918	-0.612995665926114	0.774580828609462	-0.612868113679829	0.00266569880648461	0.00466480938614733
8.6	0.00305790009809505	0.00705849371059169	0.669316167678925	-0.723898102082956	0.669510767242934	-0.723710069207855	0.00529349780598556	0.000510600659398141
8.7	0.00242861835557996	0.00690182172154635	0.550311857999978	-0.819240684042663	0.550592050426005	-0.819127066907489	0.00424042606874961	-0.00183046884621646
8.8	0.00286005139619881	0.00726789850643465	0.417165095681795	-0.896111437346869	0.41737071312021	-0.896053766767108	0.00278093018353672	-0.00311776743473569
8.9	0.00345113167698814	0.00776372146903643	0.271907125429186	-0.951403249876832	0.272147699292077	-0.951259101923334	0.0010948253038068	-0.00304811555878178
9	0.00610409085566269	0.00803088459837071	0.120595788978531	-0.979693370929842	0.120957767021306	-0.979658575070348	0.0016258448772227	-0.00164996956091457
9.1	0.00793933140887473	0.0062553085784884	-0.0303882845958382	-0.988496167633686	-0.0300346082429102	-0.988505021221846	0.00225108072542664	-0.00192143650466763
9.2	0.00998534263930182	0.00447608162719794	-0.184450856285532	-0.973608638247622	-0.184092157025358	-0.973674057013768	0.00373566961959126	-0.00143346547102974
9.3	0.0115701539333183	0.00181604395392488	-0.334560249413999	-0.933635541181166	-0.334200075860629	-0.933695009270207	0.00602725304916555	-0.00183831161874406
9.4	0.0126519279354939	-0.000775597076434723	-0.475399889361463	-0.869648284600337	-0.475072761277381	-0.869792299806638	0.00850717944192745	-0.00241062270033126
9.5	0.0141542842632655	-0.00690701021384981	-0.602877754159643	-0.787923964784252	-0.602667857336677	-0.788058608376168	0.0123377239392724	-0.00767171663650762
9.6	0.00807181174419157	-0.0111950769032975	-0.721430272087121	-0.686175602166247	-0.721151754985864	-0.686357956486994	0.0073164132239078	-0.0120850908817149
9.7	0.00400975236383093	-0.0109331031329125	-0.820525700828911	-0.564960010083524	-0.820272828645143	-0.565228715037795	0.00406972203320879	-0.0116356612431053
9.8	0.000766373871514093	-0.0104775779919256	-0.898725753534652	-0.430387874272676	-0.898510534977196	-0.430663026402452	0.00176099031085551	-0.0105859934125958
9.9	-0.00220305758268511	-0.00788406125769944	-0.955207111349873	-0.286692303878109	-0.955088503970004	-0.28702400455671	0.00043505781538586	-0.00749122382644027
10	-0.000119359745018017	-0.00731783200055917	-0.992518822371195	-0.134380746578071	-0.992432232164737	-0.134764598108639	0.00518730881791095	-0.00656717111617815
10.1	-0.00448037470123631	-0.00977901404778291	-1.00081197697727	0.0249127445140297	-1.00078727453758	0.0244270819794048	0.00345819010853626	-0.0108051935990758
10.2	-0.00857973679797753	-0.00760187394248351	-0.984346213818639	0.180514037311776	-0.984327067261866	0.180057012919515	0.000740066148507549	-0.0105897091191156
10.3	-0.0114231994117139	-0.00437529676204032	-0.944947304329167	0.331776552870543	-0.945080428702693	0.331225913401685	-0.00115733349034376	-0.00979130710802637
10.4	-0.0132538014173413	-0.000359206154021593	-0.883234079717755	0.476411637911198	-0.883500500084266	0.475863864155501	-0.00256976978573494	-0.0080104954179869
10.5	-0.0115490767482919	0.00412947999554264	-0.79582692061226	0.611526233636816	-0.796114254236638	0.611131402675354	-4.10536591706063E-05	-0.00612675645285967
10.6	-0.0101616775456604	0.00465745113948245	-0.689180709523967	0.725796504930561	-0.689613374860151	0.725446385067651	0.00168447322216518	-0.00894093245332684
10.7	-0.0100560323512062	0.00616643665469873	-0.568385946157705	0.824231562806497	-0.568803948842344	0.823938012158222	0.00123663964884185	-0.0114118250805562
10.8	-0.00969003889637593	0.00797884967974469	-0.432732182609233	0.903508545982557	-0.433251493497001	0.903275488955101	-0.000389976915936595	-0.0132505911298783
10.9	-0.00852362692705591	0.0104819690650308	-0.284714790512322	0.960423195929406	-0.285211318022647	0.960372704904233	-0.00204280883950604	-0.0139914450539427
11	-0.00608869688206393	0.0116079577555891	-0.130979889052131	0.989326175701653	-0.131533720664207	0.989324023876945	-0.00324274042345842	-0.0151005337752112
11.1	-0.00431830015549335	0.013273219279741	0.0224467743576027	0.998734358594586	0.0218083902462478	0.998819938471632	-0.00570919013181877	-0.0153888231954588
11.2	-0.00115173896696498	0.014209064396352	0.178649988422196	0.98383138170141	0.178123306057121	0.984039628430325	-0.00722201743815618	-0.0149321224733475
11.3	0.00227498785856251	0.014456514176045	0.330583617549324	0.94329094465787	0.330148851996924	0.943560018819935	-0.00833305151300595	-0.0138316883616829
11.4	0.00615584650743864	0.0142568291629338	0.472987951930163	0.878410567774186	0.472519120756044	0.878677198757922	-0.00830754452607893	-0.0117988222289798
11.5	0.0112997625275821	0.0104792874660339	0.601515165961004	0.7960851662921	0.601153864944559	0.796510613714543	-0.0059257367102004	-0.0136547788338802
11.6	0.0105761631365158	0.00632886905041462	0.721076611153693	0.693114060765979	0.720808665597239	0.693604445141983	-0.0100429340877903	-0.0152842460705509
11.7	0.0109716327953943	0.00494505845815278	0.820542650738762	0.570617867608681	0.820303662906559	0.571048903834098	-0.0127489049612658	-0.0132766752161045
11.8	0.0111580159930759	0.00294613894160878	0.89847313527528	0.43485436250573	0.898291951106427	0.43541679412322	-0.014776762587267	-0.0107393151484039
11.9	0.0119718846475856	0.00280593581885035	0.954422650781036	0.290714303173944	0.954389186378265	0.291266789562497	-0.0152996314196803	-0.00573925765281356
12	0.0158211665027228	-0.000306573404010887	0.991257668638887	0.138063621312458	0.991250793226426	0.138552008247297	-0.00980122759139952	-0.00345216722273681
12.1	0.0129677324802322	-0.00674811970448554	0.998594825823784	-0.0211311533158354	0.998577056674216	-0.0206501676452562	-0.0104453541827918	-0.00677409302682751
12.2	0.00901280460509396	-0.00910374898975432	0.981248536882699	-0.176242339469827	0.981363786647404	-0.175800541366252	-0.0120412375606814	-0.00624703853403532
12.3	0.00526095858603095	-0.0101484049788206	0.94114903231619	-0.32636924219105	0.941343144767753	-0.326009233032234	-0.013173760403605	-0.00526384411061263
12.4	0.000862808645876717	-0.00952175361491518	0.879455934766653	-0.469783114304669	0.879597274747709	-0.469405059929603	-0.014682476260084	-0.00295317043029354
12.5	0.000333237155435198	-0.00703956784430685	0.791576842109472	-0.60341516400895	0.79204995381302	-0.603027853128301	-0.0120452800699621	0.000540574554446139
12.6	-0.00159639852461631	-0.00853590217764194	0.685810817728419	-0.715520107540351	0.686167228384047	-0.715215481833138	-0.0106882222523932	-0.00148888166778996
