# GHZ S RI R 50
0.2	-0.000260484188612558	6.08341157776916E-05	0.949011972913857	-0.307901135842632	0.948785741575475	-0.30804302835919	-1.9571182705753E-05	0.000128105017987836
0.3	-0.000384249433666832	0.000380096510179035	0.889057168304332	-0.451582570041375	0.888919746101963	-0.451635773793282	-9.11847512931324E-05	-4.84892459026004E-05
0.4	-0.000133197042239105	0.000556330823992846	0.807521430293865	-0.583855752240596	0.807561523467576	-0.583995348748579	0.000103356061576686	-0.000121696988826204
0.5	-0.000215011369017379	0.000621941431904312	0.706762918809075	-0.70202743023128	0.706652342505459	-0.702123264878799	0.000221552100479772	-0.000359043684025513
0.6	-0.000286686710996472	0.000810072184297815	0.588920234538465	-0.803090195981114	0.588730713867701	-0.803093101425523	0.000143335459930341	-0.000563003588539966
0.7	-0.000261936548911697	0.00129115604002211	0.456827703615146	-0.884439189762185	0.456753692486071	-0.884473558282655	0.000157945621768939	-0.000840506309314759
0.8	5.51176455504833E-05	0.00144633051802574	0.313812004245954	-0.944438431324731	0.313693510782488	-0.944351737126081	-1.05656448810283E-05	-0.00108305336613611
0.9	0.000400793253640378	0.0018701162684936	0.163335034874699	-0.981372065354591	0.163186104221921	-0.981329237458706	-0.000298002424347548	-0.00129198822031339
1	0.00104955310462104	0.00145687755847009	0.00899890843563328	-0.994595637134215	0.00888088358402127	-0.994565988118945	-0.000522715736592492	-0.0016828183850137
1.1	0.000858055597988098	0.00107724421571528	-0.14498004462652	-0.983803714227359	-0.145627263160293	-0.983768622083845	-0.00145686209052268	-0.00166880385213204
1.2	0.000873218063603915	0.000218371277725968	-0.296677254398673	-0.948981851382895	-0.296670287940876	-0.949037499583104	-0.00168625223239769	-0.00124915806179396
1.3	0.000635562980088603	-0.00101972212590895	-0.440231570695388	-0.891177415896151	-0.440323614327436	-0.891201868496847	-0.00102704158345349	-0.000392792674741628
1.4	0.000386558703528638	-0.00237673278663949	-0.572983473518038	-0.812013077664514	-0.573057235304345	-0.811913569769078	0.000354230117942369	-0.000318528108343829
1.5	4.54534886622008E-05	-0.00279129130211003	-0.692291871396706	-0.712945536965727	-0.692316455239845	-0.712873522733717	0.00160644319116263	-0.00112036936676656
1.6	0.000336374164081815	-0.00242723967622811	-0.793950247000911	-0.596913156219244	-0.794379372075074	-0.596412899300345	0.00175205860953875	-0.00201096240067677
1.7	0.000914977474372982	-0.00246299675960556	-0.876673047678266	-0.466326977133902	-0.876977127104189	-0.465837428885376	0.00134749597953261	-0.00287687338537977
1.8	0.00104245843924476	-0.00281193610068622	-0.938447299665565	-0.32414542389807	-0.938462737830082	-0.324135965369869	0.000441702131276383	-0.00358713960230021
1.9	0.00112660217778863	-0.00325796825456933	-0.977397917160053	-0.174342914936317	-0.977442407540318	-0.174395619936104	-0.000392379598435963	-0.00401432938154589
2	3.18717498945021E-05	-0.00405676631426764	-0.992064983141185	-0.0208753195263168	-0.992159413653135	-0.0202263579885912	-0.00185502201995383	-0.00421618835871066
2.1	-0.000771671758648221	-0.00326667118319275	-0.982914998557407	0.134271575967221	-0.983014541880945	0.133787880127352	-0.00263665558056328	-0.00336643044066698
2.2	-0.00113624789871294	-0.00312873971455021	-0.950314955355774	0.28442346570971	-0.950353676542368	0.284557105129433	-0.00306573724470324	-0.00306631430653262
2.3	-0.0015253064140663	-0.00300151341981231	-0.894569074251166	0.428427626904164	-0.894405368971359	0.428515973418188	-0.00366158361552582	-0.00277082771515955
2.4	-0.00205227232236947	-0.00310249128162734	-0.816447519443573	0.562570937396607	-0.816738729778607	0.562109570145652	-0.0041161390173169	-0.0024566723444243
2.5	-0.00317676145895431	-0.00351645315130876	-0.719392289839529	0.68192578547105	-0.719694209731218	0.681545623326666	-0.0045715974897807	-0.00264090016130708
2.6	-0.00502881413446794	-0.00245009195921925	-0.605481107381671	0.785058263879179	-0.60540193947653	0.784998940424352	-0.00517696661953198	-0.00188620822704481
2.7	-0.00544597389358236	-0.000707265478397537	-0.476086342778645	0.869412227884868	-0.476056894834156	0.869426306792049	-0.00521097645299824	-0.00110004245216395
2.8	-0.00496838691584004	0.000653321228116237	-0.335506921030968	0.932543830179212	-0.335388856359581	0.932628244617425	-0.00470002395279803	-0.000343956622714631
2.9	-0.00356831541894585	0.00136390713508893	-0.186848068370846	0.973023139059637	-0.186843631921346	0.973077865410911	-0.00377970237095793	0.000309327079448429
3	-0.00247455629801681	0.0015856693319613	-0.0336463613284772	0.990465298072363	-0.0337106580093782	0.990536646853824	-0.00260235516725713	0.000766714171475742
3.1	-0.000790585004967627	0.00160391741080924	0.120026383478945	0.98373301332079	0.120673992734293	0.983814297884481	-0.00118369275247168	0.000934061383617603
3.2	0.000303684620070972	0.000822850619125345	0.271800950472943	0.952802198310877	0.271790995458742	0.952841755785999	-0.000235960645838747	0.000545663838818967
3.3	0.00135022127595745	-0.000132039713929166	0.416941992602323	0.898759986510943	0.41631979372895	0.899041102531715	0.000832270982026143	5.23497798149177E-05
3.4	0.00171712238712045	-0.00142177685456235	0.550820118731722	0.823644587467011	0.550735188560217	0.82375977723545	0.00183110106479621	-0.000936933797474484
3.5	0.00146365795364563	-0.00233407099489768	0.672309196469828	0.728190892238539	0.672323420284026	0.728217084618218	0.00209570621898981	-0.00210424644448873
3.6	0.0015146259604858	-0.00260361030694993	0.776460675098125	0.614995775569459	0.776882447288408	0.614601936462448	0.00238205302733941	-0.00298686775390149
3.7	0.00179846845339454	-0.00353639953900103	0.862697552732741	0.486527637243582	0.862704546693202	0.486654082854227	0.00234564420023394	-0.00412836140231197
3.8	0.00147884392445556	-0.00455782080254317	0.927683685480748	0.346724418690052	0.927712048118601	0.346907608645607	0.0017614719910156	-0.00526801412695615
3.9	0.00135215523288396	-0.00578829539769167	0.97046961139086	0.197830230629737	0.970371349579987	0.198417930405251	0.000709290359468713	-0.00649749811284433
4	-0.000329443470418665	-0.00710786259646688	0.98889771263988	0.0452017352180245	0.988979661880141	0.0452446557011095	-0.000980173978099787	-0.00749510417422149
4.1	-0.00167867381679934	-0.00683519125160509	0.983862469511297	-0.108308273315863	0.983800413472641	-0.108244308546244	-0.00258364210726119	-0.00746469622187644
4.2	-0.00277700375500383	-0.00682429600148946	0.954941137526962	-0.260274511788187	0.95513449036612	-0.259705672234077	-0.00401309952904796	-0.00752120958318104
4.3	-0.00370652377323958	-0.00703991014310681	0.903208202029689	-0.404847527456188	0.903209075820911	-0.404829012454353	-0.0056487962196122	-0.00749241244929805
4.4	-0.00479220573580896	-0.00715523666686478	0.829182967860548	-0.540023758244849	0.82910314117007	-0.540007820439698	-0.00734924550162679	-0.00699379435784874
4.5	-0.00632606413878324	-0.00803680488672742	0.735416719506143	-0.661654468929431	0.735293363737262	-0.661508628627114	-0.009155531854502	-0.00659701362305561
4.6	-0.00896645706935465	-0.00713206846933326	0.624239613592815	-0.768046567790819	0.624224984879836	-0.767817320068979	-0.0111592450231931	-0.005069725667578
4.7	-0.0105395680952249	-0.00606112956378634	0.497199434863248	-0.855840058375185	0.4973164035596	-0.855595521114186	-0.012617422468941	-0.00355938104696113
4.8	-0.0119074959549297	-0.0044864410346524	0.357962374050539	-0.922417212783477	0.358255884577655	-0.922228805987389	-0.0136330726692049	-0.00164701954932001
4.9	-0.0124082015989796	-0.00312264174545295	0.210572855525371	-0.96617109680191	0.210832427721039	-0.966120071350156	-0.0138906515170489	0.000656726522455981
5	-0.0128745162170471	-0.00167189223936332	0.0589027044904556	-0.987439448042418	0.0590608257668634	-0.987311491544376	-0.0133756370567236	0.00314715798047463
5.1	-0.0120905895355215	-0.000229227909930356	-0.0954423674657879	-0.984829882403358	-0.0951212379042731	-0.984767089999613	-0.0117211517028425	0.00562562787102345
5.2	-0.0110831583429332	0.000479240409303018	-0.247231008465716	-0.957906872276391	-0.246803600366767	-0.958028881705419	-0.00975139497772407	0.00761705933796037
5.3	-0.0103962211825698	0.000236018091279575	-0.392761877582588	-0.908010822755291	-0.392472848027528	-0.908355299107984	-0.00728017408020251	0.00915370343913984
5.4	-0.0105968043001954	-2.90913183796001E-05	-0.529058661084928	-0.836423691237841	-0.528922557357053	-0.836713290956828	-0.00479312219643412	0.00993562854036747
5.5	-0.0125687610345753	0.000814516146598748	-0.653225012196182	-0.743967170811884	-0.65317516913189	-0.744281304462141	-0.00315807512897009	0.0105535459819795
5.6	-0.0121708461013818	0.00389848910368967	-0.760304788219567	-0.632915214714932	-0.760318366616561	-0.633085616401204	-0.000269037127510452	0.0114894359392133
5.7	-0.0111802885251688	0.00522436629320865	-0.849183947478294	-0.507314775954195	-0.849160260297559	-0.507489937608014	0.0024315595259104	0.0113303500447698
5.8	-0.0102711922219478	0.00649550650397085	-0.917570785284365	-0.369301789806807	-0.917615772742957	-0.369594034051202	0.00495404359089801	0.0108659520736611
5.9	-0.00932682400176442	0.00677259144806614	-0.964006955758258	-0.222275059024106	-0.964127468080767	-0.222322934968409	0.00741669338240217	0.00977021575441088
6	-0.0104021834314441	0.00696791957325577	-0.986192768355878	-0.0694172213162485	-0.98618979022465	-0.0694859163805416	0.00851827854430227	0.00807803628937
6.1	-0.0106643726931655	0.00999994119609089	-0.984703723298058	0.0837331850984681	-0.984706974135152	0.0836298716497301	0.010149503725118	0.00742339709474258
6.2	-0.00920211955523213	0.0122998400515622	-0.959927587580918	0.235599038239337	-0.959975754501891	0.235417342676442	0.0119095728490421	0.00532429553130449
6.3	-0.00739472470940816	0.0136810563937102	-0.911694274230359	0.381858753797074	-0.91171869111063	0.38173007600568	0.0128858899119535	0.00253952857413073
6.4	-0.00524799306025415	0.0141668413013948	-0.840942055245037	0.518761325780064	-0.840933499935482	0.518547780110233	0.0129831222715201	-0.000718770765091873
6.5	-0.00370321572288532	0.0137700467782381	-0.750242528349416	0.642110788021935	-0.750342999075665	0.641938571890633	0.0121148935440645	-0.00397743844340191
6.6	-0.0018864469554357	0.013352562853124	-0.642086775315761	0.751173182980832	-0.642235265755819	0.751027163402488	0.0107969430778669	-0.0066788179828951
6.7	-0.000747378864751864	0.0121890141831396	-0.517401755431811	0.841953830326721	-0.517523002195749	0.84179662029656	0.00856938468155666	-0.00900746799882564
6.8	-3.56903257230968E-05	0.0114260496436271	-0.380139483758285	0.911834807827979	-0.380350643513929	0.911759841104533	0.00588092195906957	-0.0102964068415113
6.9	0.000457137553796044	0.0106710602621581	-0.23419752054057	0.959330692216111	-0.234448172738555	0.959326937665911	0.00347036296941236	-0.0107830747609419
7	0.00112997527157001	0.0105224186639665	-0.0830220291669517	0.984701452670248	-0.0832804332221863	0.984671275374118	0.0012319133410974	-0.010801482043697
7.1	0.00229744185465148	0.00988705438239627	0.0715826308100257	0.98573246171816	0.0713758318633269	0.985720466769749	-0.000613249764534794	-0.0104910331925548
7.2	0.00316757900565151	0.00886572186554124	0.22375730818794	0.962255064390684	0.223501953673114	0.96229929877088	-0.00228003473175543	-0.00973334861070102
7.3	0.00343783267530854	0.00763963351573291	0.370187897024666	0.915745399965445	0.369947708956085	0.915836285504473	-0.00374530083784427	-0.00864235731086926
7.4	0.00353221745265277	0.00651951032041563	0.507744463103416	0.847442391784197	0.507526169648528	0.847604440339898	-0.00506000368695574	-0.00736798347940543
7.5	0.00280104225982279	0.00559231381042533	0.634021656998366	0.75813483100902	0.633861693245704	0.758307040421444	-0.00618752911079794	-0.00560428696729555
7.6	0.00307854432228071	0.00552724696617159	0.743516530984005	0.649680786429968	0.743301392107238	0.649841979951488	-0.00606112419484199	-0.00376565215279089
7.7	0.00341420279646899	0.00479750118281448	0.834879506771777	0.526543874555894	0.834728719161629	0.526738931309149	-0.00576453093482722	-0.00231674401648613
7.8	0.00379978534718935	0.00385160776868879	0.906586756276116	0.390593428519687	0.906466126123774	0.390815137889362	-0.00488329432736448	-0.0010345277643235
7.9	0.00357932616342783	0.00224331916494179	0.956369042145249	0.244858929476321	0.95632892145245	0.245084453212784	-0.00373228250908219	-0.000280525375234328
8	0.00101309210064232	0.000467255151738596	0.981768489528618	0.0927648663354126	0.981839531606765	0.0930565000264519	-0.00375131739009558	-8.34568972879258E-05
8.1	-0.00130877500994441	0.00275211329838029	0.983940647944689	-0.0597738079290319	0.984064972753102	-0.0595030564469085	-0.00316324539039182	0.00189318390098488
8.2	-0.0014421229137365	0.00476900103050799	0.962953342020617	-0.211643232653033	0.963019484134929	-0.211347623326134	-0.00175583142222357	0.00281139102663113
8.3	-0.00110692973900873	0.0065953343593357	0.918310458436816	-0.358689771589058	0.918448243851125	-0.35843418173331	-0.000217992172772303	0.00322424714308688
8.4	0.000485325984884545	0.00782789515529755	0.850913075400478	-0.496862811923241	0.851124837750178	-0.496663581819569	0.00166803032294782	0.00304173659766624
8.5	0.00094197653256758	0.00706437834143142	0.763641098220997	-0.621661372258261	0.763756724282769	-0.621535784554432	0.00281956594717734	0.00140970808573057
8.6	0.000679321273842276	0.00882563194407118	0.658527783150986	-0.733120571502486	0.658724978493358	-0.732935443386862	0.00328041437017636	0.00104296983163773
8.7	0.00235593777750578	0.0103912735119527	0.53639119463106	-0.826510976294817	0.536672693711738	-0.826401989684109	0.00429700023187378	0.000108638769892845
8.8	0.00500656781930629	0.0109541770547032	0.401493802954823	-0.89947200785841	0.401699589991724	-0.89941779581618	0.00465217080422415	-0.0011354863012268
8.9	0.00815602287133198	0.0103152814047823	0.257319662762672	-0.950398204974363	0.257561030122588	-0.950258124690496	0.00506428511782742	-0.0020847433780752
9	0.0109958452575613	0.00754403964460502	0.107337651199649	-0.979507656404001	0.10769943077378	-0.979477741348896	0.00550976732991236	-0.00340803214198264
9.1	0.0127923895988181	0.0044519769945894	-0.0468259429851785	-0.9843000096435	-0.0464737341770431	-0.984314751995666	0.00598347786616505	-0.00462142857616178
9.2	0.0135167683086586	0.000170872852983111	-0.199056026255742	-0.964515261582084	-0.198700636059454	-0.964586077126427	0.00625300139483983	-0.00622760905331922
9.3	0.0122058849345438	-0.00350467756075374	-0.346000497150343	-0.921837792179157	-0.345643839723631	-0.921902182284805	0.00595015657888973	-0.00736842352405923
9.4	0.0101553931777079	-0.00656389309166429	-0.484574364781052	-0.857501762323769	-0.484251318238063	-0.857649448626667	0.00577028265495272	-0.00826271253808913
9.5	0.00598137224349133	-0.00724280889803225	-0.612861101317297	-0.771674883837319	-0.612655067561009	-0.771812366558487	0.00455290443132382	-0.00833774184260267
9.6	0.00539521543320438	-0.0061527403276295	-0.724520039343167	-0.666230559783468	-0.724247778765125	-0.666415444837413	0.00506387520983419	-0.00799729004937362
9.7	0.0047804075153796	-0.00692827023487537	-0.818632930884004	-0.545960702494313	-0.818387120929774	-0.546229780105162	0.00495148396002014	-0.0088650422261747
9.8	0.00355294451286373	-0.00791062250924903	-0.893486373172755	-0.412460061787165	-0.893277687538042	-0.41273477421785	0.00434314379921992	-0.00926309814726402
9.9	0.00198583312039679	-0.00912171129734927	-0.946933704171708	-0.268428822956423	-0.946821690436361	-0.268757939281169	0.00421539640423175	-0.00961230243401067
10	-0.00262503939488679	-0.0103574072048607	-0.97597791514617	-0.117514888718343	-0.975898492273809	-0.11789284423226	0.00260268972316139	-0.0102614605267979
10.1	-0.00581415039572035	-0.0069204633726321	-0.981987765690006	0.0342364397657172	-0.981968270894242	0.0337595521185156	0.00218503413264321	-0.00892047577686175
10.2	-0.00672163715660233	-0.00476603162091925	-0.965121118331096	0.186100267266103	-0.965106407218383	0.185651246934998	0.00242504327458213	-0.00887828466412263
10.3	-0.00754370893113387	-0.00284714935227476	-0.924429823385543	0.333827545461861	-0.924565265850142	0.333288336993888	0.00224918590980492	-0.00928026679451058
10.4	-0.00774740445536026	-0.00185944818286959	-0.860653769881493	0.473113292499096	-0.860918765160607	0.472579296569178	0.00223743812220839	-0.0101347991458501
10.5	-0.00955556432806303	-0.00162851478345054	-0.777035592895856	0.599323884842423	-0.777317229927652	0.598938348382788	0.00151997031012057	-0.0119220867761825
10.6	-0.0118089728844505	0.000888513640727198	-0.675563370320044	0.7130787019964	-0.675988386315411	0.712735571306122	7.64482059089386E-05	-0.0126760387690733
10.7	-0.012641266330542	0.0047207893141909	-0.556607268434715	0.809506156977732	-0.557017810298332	0.809218679024942	-0.000979119087351923	-0.0129006610054225
10.8	-0.0117531669050045	0.00854859795504851	-0.424050829744062	0.885799328231561	-0.424559959223599	0.885570952332056	-0.00174067450722388	-0.0131141208716005
10.9	-0.00948789491539998	0.0113956059865085	-0.281964550633091	0.94029283019526	-0.282450968865134	0.94024182220632	-0.0023670893401075	-0.0136685569129627
11	-0.00698939753672486	0.0133833551430895	-0.133475689912071	0.973775981922555	-0.134021138528791	0.973771356799158	-0.00336746448470627	-0.0142526965809945
11.1	-0.00343093535476559	0.0150576592199788	0.0204787477100744	0.982749758448945	0.0198504659522444	0.982832937545158	-0.00419906567864071	-0.0147520285248033
11.2	0.000345865462722649	0.0151010468693665	0.172604747026508	0.967159156567507	0.172086655400043	0.967362198087239	-0.00521720383910222	-0.0152858950049723
11.3	0.00396881880146133	0.0142705922421092	0.320073194528362	0.928666072791735	0.319644576262919	0.928928285336802	-0.00606016728374743	-0.0154301837083501
11.4	0.00701973899024436	0.0118973692155038	0.460237834566849	0.868540138028127	0.459774178423449	0.868799754364114	-0.00694833374159764	-0.0156001637823393
11.5	0.0077439152463702	0.0103760671029774	0.590860934312932	0.786194641153311	0.590503734299712	0.786613066127487	-0.00909242111012295	-0.0150811841203246
11.6	0.0105740936821269	0.00961819881208464	0.70471155722472	0.684004322636733	0.704446123369544	0.684484548393779	-0.00970010582880426	-0.0136662193525657
11.7	0.0132817748764811	0.0070138119475371	0.801929539914291	0.566813098614736	0.801691489681595	0.567234813414223	-0.0104797137856039	-0.0129860961852972
11.8	0.0149326278446587	0.00332808172862224	0.88038931807852	0.435662670536563	0.88020617562353	0.436214566701121	-0.0114408452427121	-0.0119782464666879
11.9	0.0157161317445719	-0.00135111719174228	0.937852461756953	0.293426374877943	0.937815392192119	0.293970272274699	-0.0120540363864878	-0.0107931380689578
12	0.0116553973825161	-0.00641649825305525	0.970727929075139	0.143629622563611	0.970717115947479	0.144108404447094	-0.0138754445807615	-0.0100821426308218
12.1	0.00861917478507291	-0.00650086748958018	0.981035426326567	-0.00749449831470594	0.98101158818872	-0.00702234148445329	-0.0141417163290137	-0.00726983636693477
12.2	0.00647068400237761	-0.00736957199791013	0.96837005378072	-0.159673958125072	0.968477281860988	-0.159237453245853	-0.0138224194338509	-0.00557875117441399
12.3	0.00423269870558697	-0.0075875900746823	0.931693058809118	-0.308151166841585	0.93187916613021	-0.307793793305041	-0.0134378022240055	-0.00403705395446479
12.4	0.00242816020395822	-0.00782995344891156	0.871990842349042	-0.448926253599188	0.872124214082404	-0.4485523127115	-0.0125091175684837	-0.00274389288248107
12.5	-0.000502974438376198	-0.00893659856865291	0.791998812070655	-0.577071293224365	0.792456239992728	-0.576679986319401	-0.0121285382138741	-0.00284202435403067
12.6	-0.00389715657756369	-0.00672592692597328	0.694054162916325	-0.693614268698153	0.69440044964061	-0.693305159516994	-0.0121536607352891	-0.00143146377165755
