# GHZ S RI R 50
0.2	-0.000459673976088949	5.91154054870112E-05	0.948499876389992	-0.307951838862439	0.94827372261997	-0.308093617559602	-0.000227424169487844	0.000135806122492649
0.3	-0.000555158524956223	0.000375645161439954	0.888459343448077	-0.451541938955491	0.888321984725779	-0.451595080970484	-0.000273165162106818	-3.19971429700246E-05
0.4	-0.000276729020110147	0.000521747679266117	0.806851732364537	-0.583671577631916	0.806891765301981	-0.583811092780996	-4.79200809890957E-05	-0.00012423707086184
0.5	-0.000386948833524192	0.000485263940244013	0.70610287402126	-0.701612156960212	0.705992365780008	-0.701707899479179	4.39287282977848E-05	-0.000461672152745664
0.6	-0.00057909573167533	0.000735252744081187	0.588385272437407	-0.802565840829402	0.588195892086374	-0.802568721035586	-0.000164508895117952	-0.000592950131760964
0.7	-0.000516939381830366	0.00127882582465833	0.456344610312374	-0.883798675559975	0.456270653307164	-0.883833006727813	-0.000111313372886408	-0.000785453323343069
0.8	-0.000157280544793246	0.00143009598152729	0.3134433863066	-0.943649710388621	0.313325004606866	-0.94356307948677	-0.000222226525976295	-0.00100959025748697
0.9	0.000231625584466032	0.00180780061289721	0.163155518079167	-0.980478286744617	0.163006725124259	-0.980435493538501	-0.000430529381568699	-0.00124926558359339
1	0.000803600260722625	0.00123271763472354	0.00899329888820434	-0.993715886150951	0.00887537835563417	-0.993686263650609	-0.000679175101431151	-0.00183535964717517
1.1	0.000377292036314505	0.00105185851164393	-0.144888144992969	-0.982842670693566	-0.145534734272152	-0.982807580561997	-0.00185707484997832	-0.00168616666225387
1.2	0.000607696720754994	0.000494879991319251	-0.296339007212146	-0.94796182964385	-0.296332047255796	-0.948017417579607	-0.00190783887779101	-0.000996935657981642
1.3	0.000832940962937644	-0.00075860465754746	-0.439636383903335	-0.890214878885501	-0.439728320577637	-0.890239313709081	-0.000848007890599027	-0.000167886049476187
1.4	0.000781396760355043	-0.00250801374971396	-0.572192963995023	-0.811170948603472	-0.572266656947104	-0.811071567137689	0.000671537596624337	-0.000448235742204712
1.5	0.00016067489451605	-0.00302258126951859	-0.691313512816024	-0.712153933130342	-0.691338076656265	-0.712082013162694	0.00158635567072659	-0.00127686358247634
1.6	0.000499400413709856	-0.00261518779978778	-0.792643562453655	-0.596332077791973	-0.793072247019801	-0.59583266131414	0.0018048358457085	-0.00201509890231169
1.7	0.000981230805705453	-0.00278286573325717	-0.875204626376266	-0.466093879418987	-0.875508513805381	-0.465605172434739	0.0013916540919114	-0.00296198111153877
1.8	0.00094455727664212	-0.00320289928445348	-0.936914979461456	-0.324247366934271	-0.936930401308214	-0.324237931159852	0.000398283663219457	-0.00375092834941732
1.9	0.00077468683811063	-0.00367994518908065	-0.975823827309398	-0.174769626275938	-0.975868214630619	-0.174822284201011	-0.000637703716510247	-0.00426653278564849
2	-0.00062211045125694	-0.00412497187466871	-0.990471442153359	-0.0217920683981122	-0.990566344243782	-0.0211442266227779	-0.00244290686689539	-0.00418639762968327
2.1	-0.00112053930431144	-0.00306979106989546	-0.981665812082302	0.13289617015746	-0.981764630534519	0.132413048778609	-0.00296324626763434	-0.00302735700013511
2.2	-0.0013500724037896	-0.00302038789202614	-0.949419715230453	0.282803023284715	-0.949458559365714	0.282936433989947	-0.00321900890438253	-0.00278571558127671
2.3	-0.00173817441487605	-0.00296074748706873	-0.894031154876383	0.426602770953434	-0.893867785664825	0.426691237342433	-0.00375972457378483	-0.0025755211056813
2.4	-0.00235210892277054	-0.00310422597188452	-0.816347179463407	0.560552562850445	-0.816637282285397	0.560091295514904	-0.00425979009263089	-0.00238085403953328
2.5	-0.00367348345030416	-0.00322274305586332	-0.719942396129917	0.679924432078307	-0.720243316038242	0.679544087170277	-0.00496537737353045	-0.00240173402165682
2.6	-0.00502186935636478	-0.00183229457909112	-0.606413103007418	0.783352802525216	-0.60633389102274	0.783293667908398	-0.0052154095358737	-0.00133272059220406
2.7	-0.00498919292601109	-0.000398437678822995	-0.477341591510448	0.867913654372805	-0.477312190581756	0.867927777267223	-0.00487621589806084	-0.000781478902458889
2.8	-0.00446889464557218	0.000519928921229619	-0.337105060146682	0.931331821762366	-0.336987229927411	0.931416413173981	-0.00433851428908974	-0.000388408951004361
2.9	-0.0032732347916204	0.000989680728899656	-0.188738474132003	0.972264405201032	-0.188734149872018	0.972319119043819	-0.00361105427913082	6.82913091934807E-05
3	-0.0023024493064775	0.00118038591154565	-0.0354790376514409	0.990233678355428	-0.0355434557863094	0.990304895608222	-0.00255182669444519	0.000553155698268496
3.1	-0.000706514522446496	0.00103681698510436	0.118200318546245	0.98370171121177	0.11884761461118	0.983784157108976	-0.00116114224764836	0.000639959077940472
3.2	0.000149020241667889	0.000208258205998191	0.269920061892987	0.953152567983474	0.269910032626908	0.953192099171963	-0.00039870141174248	0.000187993961191682
3.3	0.000979297179674983	-0.00072039582447499	0.415169240785049	0.899542396516505	0.414546514978875	0.899822285561637	0.000489636097048732	-0.000300366835740288
3.4	0.00109873163608328	-0.00186262735093992	0.549337254724222	0.824755537591303	0.549252100962833	0.824870580296773	0.0012447581043951	-0.00117999826852622
3.5	0.000877864051660051	-0.00239614060139819	0.670970205919655	0.729364444057286	0.670984382035311	0.729390660764004	0.00148775980013332	-0.00196216106860334
3.6	0.00111622760316873	-0.00272470490457635	0.775204909773358	0.616597620461845	0.775627495584796	0.616204643998957	0.00197245249307565	-0.0028376507711504
3.7	0.0013247764488061	-0.00368486407483348	0.861844412868387	0.488449598600164	0.861851141018711	0.488576084653994	0.00192008837211432	-0.00399445373653345
3.8	0.000919167901580789	-0.00465868449344694	0.927262822109467	0.348785957138764	0.927290809676709	0.348969267198715	0.00130048580770091	-0.0051176122423225
3.9	0.000625440533851487	-0.00577398592135636	0.970384562583973	0.199930892400995	0.970285035961544	0.200518585808486	0.000104015308037153	-0.00631174060788904
4	-0.00104892260730414	-0.00654703980691421	0.989195768757935	0.0475948037333514	0.989277648634739	0.0476379386354625	-0.00166963441364988	-0.00685057963265247
4.1	-0.00181685971941693	-0.00621257124802288	0.984949796818474	-0.106028521776269	0.984887534529166	-0.105964652815141	-0.0027910631443715	-0.00669825099124624
4.2	-0.00267683527593934	-0.00642669422621791	0.956506935083757	-0.258355946972836	0.95669918401892	-0.257786087116643	-0.00398856790728258	-0.00691393682233749
4.3	-0.00350083355541472	-0.0068790982634522	0.905128609651445	-0.403273611535708	0.905129442862181	-0.403255073834755	-0.00549394201671699	-0.00709107514854416
4.4	-0.00469320879651649	-0.00730235502747462	0.831486622471913	-0.53876051269494	0.831406658373984	-0.538744741715672	-0.00725893927604151	-0.0069135949270103
4.5	-0.00657917121532166	-0.00804260752064421	0.738253299239649	-0.661100642597135	0.738129386318313	-0.660954833940145	-0.00945152438912397	-0.0064649779613688
4.6	-0.00895319832016474	-0.0070039990956722	0.62691485252531	-0.768295722150637	0.626899751554481	-0.768066067179316	-0.0113078837054329	-0.00478547970295445
4.7	-0.0104245663749234	-0.00611506477653858	0.499721473153098	-0.856591167574116	0.499838222759498	-0.856345943727834	-0.0127204353306397	-0.00336967656355195
4.8	-0.0118183819723432	-0.00471074552087757	0.360330466434847	-0.923700363462371	0.360624253977397	-0.923511048557539	-0.0137717905350294	-0.00153337777011345
4.9	-0.0124407708957812	-0.00348598447988535	0.212657781616498	-0.968118882714153	0.21291788621095	-0.9680673102912	-0.0141183755096983	0.000710540916182852
5	-0.0129628997433585	-0.00202409918980908	0.0601312586286549	-0.989870220162682	0.060289639549915	-0.989741767441634	-0.0136249146352261	0.00328755072400435
5.1	-0.0122765642678591	-0.000811055197547901	-0.0947095916702693	-0.987168513711722	-0.0943877901792777	-0.987105268139945	-0.0119595412510619	0.00562935128861276
5.2	-0.0116448675457523	-0.000112094579730715	-0.246940340921084	-0.960381386570928	-0.246511818083326	-0.960503293781418	-0.0102073923821913	0.00760075718812205
5.3	-0.011275114067287	-6.17663227187458E-05	-0.393067765601615	-0.910521749952574	-0.392777777953002	-0.910866861829131	-0.00794122099213496	0.00932423178949019
5.4	-0.0115995179766269	0.000223172682655883	-0.530048296330298	-0.83868509283493	-0.529911748047513	-0.838975355359657	-0.00558126937379263	0.0104902299758998
5.5	-0.0128234754883784	0.00171877352443332	-0.654390356183685	-0.745637018915146	-0.654340339542139	-0.745951783275421	-0.00337888825287907	0.0117168352300385
5.6	-0.0118743782506452	0.00411635650157168	-0.76163348026029	-0.634615313643517	-0.76164700899198	-0.634786084820035	4.69088363882424E-05	0.0121125674331519
5.7	-0.0110666629929475	0.00506833477404	-0.850959039724029	-0.508744241799781	-0.850935242424002	-0.508919795494126	0.00267028691162815	0.0116031015241736
5.8	-0.0104210376431215	0.00619203189597521	-0.919630111362468	-0.370244908945439	-0.919675170418583	-0.370537826480023	0.00501455021927568	0.0109160963536629
5.9	-0.00994947725128359	0.00656020504975403	-0.966030707524689	-0.222707785417948	-0.966151473530492	-0.222755757463082	0.00701484781320857	0.00973696031354599
6	-0.0109347062636178	0.00771478899252983	-0.988254029032445	-0.0698597598092937	-0.988251024061994	-0.0699285989867853	0.00797263040673485	0.00885222578899469
6.1	-0.0102919347207056	0.0104579484226699	-0.98718752914058	0.0839191147853134	-0.987190785567669	0.0838155409361069	0.0102915712944866	0.00806598393879331
6.2	-0.00878856299384375	0.0122056472017485	-0.962232339270292	0.236476194469753	-0.962280681074434	0.236294063801742	0.0120685704779234	0.00559750635782807
6.3	-0.00725163482872462	0.0132181612897619	-0.913655551963845	0.383180367909001	-0.913680086191882	0.383051399570538	0.0128497118087301	0.00257518429177643
6.4	-0.0055893889638967	0.0136154002009108	-0.842659357058151	0.520285735458347	-0.842650867691768	0.520071697520249	0.012591677716961	-0.000732456106495141
6.5	-0.00434648188448396	0.013545739649246	-0.751918107852418	0.644317183992248	-0.752018956389471	0.644144555348325	0.011515855189564	-0.00370291661822403
6.6	-0.00263907861545491	0.0134121455769318	-0.642819961614238	0.753801281818218	-0.642968993812661	0.753655069502948	0.0101663520332892	-0.00617886238912964
6.7	-0.00135849856461824	0.0126492810116853	-0.517521816532953	0.844499206639378	-0.51764353284221	0.844341792582971	0.00810284742173849	-0.00821385175738896
6.8	-0.000268563695439366	0.0120290013046975	-0.379820582049708	0.914338544782196	-0.380032305011155	0.914263680873349	0.00573546797288812	-0.00944509577929696
6.9	0.000549818540319896	0.0112086029276029	-0.233374024468662	0.961970220239609	-0.233625283403394	0.961966818669073	0.00354700719545142	-0.0100209065443088
7	0.00158904669258127	0.010787589099786	-0.081068865734733	0.987074744281222	-0.0813279108125363	0.987045060898173	0.00157142610062705	-0.0102424475357755
7.1	0.00268868913006863	0.0097193209453457	0.0738193270658056	0.987215497094056	0.073612158969702	0.987203926555828	-0.000340056906440141	-0.0102738860987923
7.2	0.00340848115210004	0.00850225396939157	0.22615719485293	0.963283654795635	0.225901535128735	0.963328502353022	-0.00214456011077039	-0.00966519966688025
7.3	0.00351572610710136	0.00712124596239531	0.372848278159516	0.916266918073072	0.37260793903045	0.916358492087519	-0.00375931039729509	-0.00868299397240162
7.4	0.00337241456832109	0.00593153402366326	0.510674080241915	0.847155612777157	0.510455944840851	0.847318455833385	-0.00528415166565889	-0.00742854009026321
7.5	0.00262616912655946	0.00509690449658083	0.636354237589852	0.756774650530599	0.636194664347705	0.75694736971271	-0.00641070140708317	-0.0055017813341809
7.6	0.00275285579260572	0.00470236752842588	0.745333372828475	0.648294994709303	0.745118500054517	0.648456750581946	-0.00634800396390492	-0.00390498108832904
7.7	0.00256720619192743	0.00393977525483813	0.836500882722444	0.524796759208778	0.836350490934539	0.524992260681529	-0.00639653942038207	-0.0025030474904096
7.8	0.00242689334084781	0.00330609618472999	0.907753422316807	0.388399981669821	0.907633323401262	0.388622039337064	-0.00591206957421242	-0.00104161628500835
7.9	0.00174896104141133	0.00241832871498624	0.956717974349849	0.242428934048941	0.956678421954542	0.242654496511006	-0.00518129093757507	0.000326779642354918
8	-0.000262007566535028	0.00235434343245549	0.981626055355935	0.0909567704873149	0.981697603342873	0.0912481832343107	-0.00498254973014311	0.00183327098302632
8.1	-0.000983770999262568	0.00436871553145253	0.98381793400812	-0.0618244725800946	0.983942823302829	-0.0615539796810575	-0.00300034788754822	0.00372772410930775
8.2	-0.000520673625651555	0.00564654580779175	0.962195484231393	-0.213778926901033	0.96226228163029	-0.213483552894525	-0.00108179482906411	0.00408186829441432
8.3	-7.98034322910566E-07	0.00669716379856387	0.916945018864708	-0.360484830050204	0.917083280069627	-0.360229703723689	0.000657121228099161	0.00387004818131183
8.4	0.00117577544817609	0.00712111230799204	0.849366817806394	-0.498016498878953	0.849578777297653	-0.497817802806085	0.00223229977918871	0.00294788070352418
8.5	0.000929983377643928	0.00678892534961567	0.76227570575573	-0.622980481826379	0.762391545686116	-0.622855144307015	0.00266238117736886	0.001649221460478
8.6	0.00125787078901518	0.00838626028926947	0.656343927386152	-0.734155328921856	0.65654141985273	-0.73397079381677	0.00357941974266222	0.00127441173707875
8.7	0.00274425924436643	0.00933268019252327	0.53403064181016	-0.826812682597445	0.534312083249396	-0.826704422768971	0.00450004710372724	-5.37837442864005E-05
8.8	0.00488037157415601	0.00947711176016367	0.399266740568061	-0.89923638140242	0.399472399645454	-0.899182635966812	0.00457031421740597	-0.00157921037801683
8.9	0.00719232822569655	0.00864961312706971	0.255213907275889	-0.950009097907843	0.255455322368713	-0.949869622682571	0.00444738414327061	-0.00274786477088543
9	0.00915638595847134	0.0065125190085679	0.104650284651541	-0.978506889787739	0.105011669282504	-0.978477954602112	0.00420379390978278	-0.00364241761235542
9.1	0.010666237712645	0.00421683811164921	-0.0488690365561846	-0.982267424690093	-0.0485175507017652	-0.982282902061584	0.00446320267439403	-0.00425695537615483
9.2	0.0115454232581359	0.00100917598511512	-0.200478064943734	-0.962230736641685	-0.200123511763733	-0.962302081156382	0.00485619446518334	-0.00502793013706386
9.3	0.0111558508279568	-0.00197957587278043	-0.34704688689606	-0.919355129323244	-0.346691059333602	-0.919420062310678	0.00531294192589103	-0.00566743317136288
9.4	0.00989111603983555	-0.00500571875413752	-0.485359438884212	-0.854522980767574	-0.485037438463393	-0.85467104091597	0.00566590341907222	-0.00664187575488788
9.5	0.00709213581051601	-0.00582917252767636	-0.612283184364487	-0.768091457539912	-0.612078060211414	-0.768228869903303	0.00545220409647524	-0.0067248717094871
9.6	0.00665068361485704	-0.00637441063146674	-0.723054680249781	-0.663417855098298	-0.722783447216568	-0.663602478217408	0.0060815186040968	-0.00765872547208678
9.7	0.00534295866122943	-0.00771244213377304	-0.816749139219537	-0.543486347109879	-0.816504340778325	-0.543754873838937	0.00544757127291482	-0.00894212021806421
9.8	0.00351569966198473	-0.00890752448234259	-0.89101304945871	-0.410267709110491	-0.890805301073306	-0.410541740441431	0.00441304443964067	-0.00956014016946876
9.9	0.00105056176469665	-0.0099178314357445	-0.943562763085403	-0.266830543763769	-0.943451374722299	-0.267158500334723	0.00350983781262719	-0.00989370452144972
10	-0.00327672860480649	-0.00977753268574195	-0.972464526721409	-0.117521304944917	-0.97238522182431	-0.11789788518001	0.00195707564674085	-0.00934478608669508
10.1	-0.00563106746184806	-0.00705870923593938	-0.978975385264554	0.0338602501713234	-0.978955818934704	0.0333848354224091	0.00223376698928494	-0.00851812714460567
10.2	-0.00694679909264308	-0.00539567773311336	-0.962025189145015	0.185148938824721	-0.962010367276242	0.184701394723725	0.00217595739390872	-0.00884518948464263
10.3	-0.0083331110773917	-0.00353517328244768	-0.921513795383376	0.331992494493347	-0.921648370485636	0.331455031260767	0.00159102817177872	-0.00932551578141248
10.4	-0.00925607291239733	-0.00216963147629775	-0.858563179630988	0.470340122046238	-0.85882654638207	0.46980746457998	0.000981464299792844	-0.0099702617930066
10.5	-0.0111156704120196	-0.000533252619784334	-0.776068766594641	0.596953287782932	-0.776349262986688	0.596568251589332	9.58805939979167E-05	-0.010615259258255
10.6	-0.0121213004816257	0.00241153666147151	-0.674422654106439	0.710597045443865	-0.674846244367124	0.710254438038567	-0.000352024513619445	-0.0109595696045404
10.7	-0.012178276414404	0.00583283081311908	-0.556004931695739	0.806571581869858	-0.55641397916648	0.806284424210582	-0.00074927532208167	-0.0115951727656533
10.8	-0.0108192776659892	0.0085780772703656	-0.424253763557729	0.882760733818975	-0.424761169795385	0.882532199983941	-0.00123219520868451	-0.0124447089314734
10.9	-0.00902772947135816	0.0111763862278148	-0.282811298062719	0.937780936419456	-0.283296564886713	0.937729281523502	-0.0023145338115992	-0.013237138350378
11	-0.00656682463155311	0.0131231598639848	-0.13396667838858	0.971186427572673	-0.134510736144901	0.971181349171651	-0.00336041709187567	-0.0137012437744788
11.1	-0.0032027583589789	0.0145284772729709	0.0189204862545301	0.979782093312141	0.0182939951350277	0.979864062299522	-0.00426247049199103	-0.0142947948476801
11.2	0.000349540029802536	0.0145256050454866	0.170268221161578	0.96476821445444	0.16975119872024	0.964969693180128	-0.00534455013588965	-0.0148072483317709
11.3	0.00371507655517582	0.0137470726316978	0.317422943921003	0.926908381478665	0.316994911624501	0.927169076484799	-0.00633206986686564	-0.0149816422875957
11.4	0.00642764699530978	0.011703748865577	0.45756024102115	0.866977925838416	0.457097395681913	0.867236075464698	-0.00749877533979196	-0.0148986296163284
11.5	0.007933720347733	0.0106052568305446	0.58697607790078	0.78479014465628	0.586619171098894	0.78520627745183	-0.00886242443318881	-0.013882940494213
11.6	0.0108167554484679	0.0088582309072434	0.700585532041545	0.684198366313164	0.700319388567803	0.684676396065213	-0.00928574350229084	-0.01331775735717
11.7	0.0129028167487024	0.00600293655970026	0.798158034664982	0.567821599985141	0.797919301413847	0.568241514836958	-0.010445274563144	-0.0129298322842722
11.8	0.0138985547602991	0.0023594279083378	0.876800201089854	0.437234704367645	0.876615842393945	0.43778462543509	-0.0118547137667571	-0.0120826881861077
11.9	0.0137520620760198	-0.00162845378888303	0.934045124713459	0.295775152630987	0.934006295823449	0.296317299603327	-0.0132664277255952	-0.0106296211489257
12	0.0102990973324457	-0.00478728927533397	0.967793995483845	0.147824123644324	0.967780973502974	0.14830173855258	-0.0149055790093027	-0.0083778673514673
12.1	0.0084683933395221	-0.00522404416971048	0.979597699402399	-0.00321171383177061	0.979571841142399	-0.00274036840190424	-0.0143331863529627	-0.00584017841028179
12.2	0.00665994456919883	-0.00632083026713298	0.967704534471757	-0.155249846496899	0.967809718905879	-0.154813488677099	-0.0138547011333551	-0.00423653941005196
12.3	0.00483211489897702	-0.00682742619045944	0.931959765985984	-0.303466783449763	0.932143992237873	-0.303108994051602	-0.0131552145511633	-0.00282789519552624
12.4	0.00296901170671147	-0.00761236728956493	0.873740964943719	-0.444082601596634	0.873872299407354	-0.443708218198771	-0.0122794083895938	-0.00198408338682158
12.5	-5.31177535916765E-05	-0.00813070581097825	0.795208621583424	-0.573778310798797	0.795664537675458	-0.573384617587281	-0.012147921471226	-0.00144157999800589
12.6	-0.00254522256716496	-0.00659986410559948	0.697041364180444	-0.691062977869464	0.697386526487173	-0.690752389136544	-0.0113351683453802	-0.000506768388360388
