# GHZ S RI R 50
0.2	-0.000316098288184616	0.000157067084394449	0.948442729768988	-0.308037655429784	0.948216568202402	-0.308179407654536	-0.000103505490012657	0.000255769853427145
0.3	-0.000356488068606179	0.000443307607593264	0.888338814236871	-0.451626141116401	0.88820145815185	-0.451679261563471	-9.94052083161262E-05	8.357891583724E-05
0.4	-5.29902179807113E-05	0.0005273338652355	0.806681928430916	-0.583712033054674	0.806721938257017	-0.583851537568199	0.000158697178535088	-4.55919705846993E-05
0.5	-0.000218006435947989	0.000474775566346013	0.705949723049418	-0.701628459637913	0.705839214101299	-0.701724179543074	0.00020094636066394	-0.000395318408318009
0.6	-0.000340006554249628	0.00073181228173982	0.588159467379336	-0.802571889071934	0.587970110975107	-0.802574733566883	4.01476266530352E-05	-0.00049538148415687
0.7	-0.000275269034789285	0.00118432008720238	0.456097818916993	-0.88372093139589	0.456023869137244	-0.883755242616429	9.8763179518158E-05	-0.000728954883352214
0.8	3.24051640042794E-05	0.00126618524558461	0.31321543438105	-0.9435057846271	0.313097092403265	-0.943419151530283	-3.08370618226843E-05	-0.00097263481601916
0.9	0.000319327261771922	0.00156006269673938	0.162959451762456	-0.98030289555385	0.162810696626065	-0.980260086540188	-0.000260997917395469	-0.00126259696276285
1	0.000541013538919528	0.00103415193586623	0.00874911898824966	-0.993494741976945	0.00863123219012849	-0.993465097405775	-0.000743455586462264	-0.00187591371844382
1.1	1.83529049534917E-05	0.00126451901436693	-0.145049922769762	-0.982487884565589	-0.145696291476161	-0.982452668162575	-0.00204444607779949	-0.00146115699096038
1.2	0.000225095256014069	0.00111932232846559	-0.296410073364604	-0.947588402362412	-0.296403125784482	-0.947643972798096	-0.00221461319023903	-0.000445402500169919
1.3	0.000733475625787827	0.000442128097461947	-0.439646745563951	-0.889822904190873	-0.439738654615658	-0.889847313549119	-0.00101908183839618	0.000944563393573411
1.4	0.00130374923858256	-0.00120822994040846	-0.572148620684007	-0.810733451901654	-0.572222263573078	-0.810634092757459	0.000993511293497672	0.000861611140853421
1.5	0.00118829161567132	-0.00209103580093956	-0.691077944564263	-0.711651175037751	-0.691102482277096	-0.711579288623002	0.0023105364680799	-0.000171242065981976
1.6	0.00154329087619321	-0.00255261903117816	-0.792287040369029	-0.595991523893231	-0.792715484209931	-0.595492328973822	0.00259051530277161	-0.00150070494024947
1.7	0.00158932412350712	-0.00309257231758323	-0.874826004031954	-0.465808673499646	-0.875129711592523	-0.46532017470893	0.00194562755820251	-0.00271403753009996
1.8	0.00120275500380126	-0.00360967116184499	-0.936465185752332	-0.323994670009433	-0.936480598821888	-0.323985237663889	0.00078298192826717	-0.00362917827663292
1.9	0.000675589667181447	-0.00400706568946611	-0.975240496827035	-0.174595993458238	-0.975284860684442	-0.174648616237051	-0.000491534158731893	-0.00419737276604288
2	-0.000712989836195921	-0.0039987593038289	-0.989860054402101	-0.0218834982219141	-0.989954966718495	-0.0212360648921722	-0.00238061198063644	-0.00382947439631749
2.1	-0.000965803583480676	-0.00317056876514079	-0.981151989411446	0.132774648107836	-0.981250730342191	0.132291777862825	-0.00275654285329278	-0.00279757749208228
2.2	-0.00140916254393234	-0.00321597334786577	-0.94886101049331	0.282583547736839	-0.948899838030291	0.282716875897869	-0.00313763597837508	-0.00258201341585169
2.3	-0.00199027642967874	-0.00307668581171695	-0.893494916278368	0.426217893773346	-0.893331664620007	0.426306321339366	-0.0037459947733506	-0.00233327921916318
2.4	-0.00284766721838062	-0.00302263775127395	-0.815945256273462	0.559992501042748	-0.816235060077935	0.559531467106221	-0.00437969334030717	-0.00211313080277862
2.5	-0.00419842486935644	-0.00243348098718042	-0.719738768700925	0.67942580233004	-0.720039454059712	0.679045578101083	-0.00522766620835251	-0.00173682217381389
2.6	-0.00483927299424305	-0.000817973985089839	-0.606136985821295	0.782770342174194	-0.606057815939185	0.78271125620772	-0.00510338214504098	-0.000477877494044407
2.7	-0.00438678162126133	0.000411184053163643	-0.477231717109294	0.867182312130067	-0.477202340424235	0.867196432755148	-0.00452850033127918	2.51499303731991E-05
2.8	-0.00369547843183313	0.00102103528357171	-0.337214588612145	0.930576669909977	-0.337096869169288	0.930661246706769	-0.003870245963828	0.000288221995181891
2.9	-0.00251112478644685	0.00125506052115421	-0.189024625596466	0.971622951678669	-0.189020326107027	0.971677635518836	-0.00314109942710943	0.000646931165789471
3	-0.0015122222574215	0.0012459841061268	-0.0357223500282651	0.989591185174595	-0.0357867461068015	0.989662339607214	-0.00203772932730391	0.00106647397281955
3.1	-0.000146007681339135	0.000877305203224177	0.117637102060899	0.983014125029948	0.118283868521157	0.983096820271892	-0.000758906741082466	0.00106364741325335
3.2	0.000542828190099826	7.75766699531788E-05	0.269199913133822	0.952687191111671	0.269189867800266	0.952726690871466	-2.38191849584121E-05	0.000654821795158821
3.3	0.00130835308342068	-0.000817304695020492	0.41441333011697	0.899253650808352	0.413790808492765	0.899533020954521	0.000888270723493654	0.000153337037505689
3.4	0.00137291777720973	-0.00188070977658369	0.548587959346475	0.82453000564132	0.54850279952428	0.824644935489324	0.00160138093595804	-0.000737700891139032
3.5	0.00143006006400937	-0.00237880793403788	0.669924485666842	0.729199770740244	0.669938632513196	0.729225974926573	0.00199331634853717	-0.00148522153297229
3.6	0.00155694799337035	-0.00314713108771244	0.774164485414618	0.61690127935727	0.774587155719398	0.61650892864648	0.00239037768012804	-0.0026454746416618
3.7	0.00143263062045878	-0.00414486018057076	0.860951003449628	0.488934616262943	0.860957617823683	0.489061039467382	0.00213837132750659	-0.00380863524877138
3.8	0.000773658710672481	-0.00500949049142039	0.926439199239172	0.349421640988234	0.926467007606289	0.349604874818765	0.00138043067606875	-0.0048919367873995
3.9	0.000232233151324419	-0.0058311800315553	0.969576098687252	0.200796868243761	0.969476034178338	0.20138409402548	-1.01088392328827E-05	-0.00597294531802457
4	-0.0011280108335716	-0.00598769194928427	0.988731065437306	0.0489269631261603	0.98881285330469	0.0489701924578308	-0.00167885941346148	-0.00609867665489567
4.1	-0.00138701018550544	-0.00596197502906204	0.984951644628884	-0.104841771913227	0.984889314120077	-0.104777985197803	-0.00252058313948918	-0.00611675858967637
4.2	-0.00223763546973189	-0.00645110202866935	0.956679764279545	-0.257215734037606	0.956871328860212	-0.256645726889844	-0.00372195176115198	-0.00645732988218621
4.3	-0.00317868050984668	-0.00712959325264316	0.90554455489924	-0.402127787330511	0.905545365290119	-0.402109250223239	-0.0052854976423261	-0.00678171468792346
4.4	-0.00478693726751585	-0.00762430955737497	0.832282803892078	-0.53766492169873	0.83220281242177	-0.537649258716546	-0.00736124093991108	-0.00670916159969683
4.5	-0.00690578908937265	-0.00764166862250283	0.739369352937074	-0.660548135462715	0.739245212037874	-0.660402403266573	-0.00985628411163728	-0.00575067520635819
4.6	-0.00860631475124221	-0.0063427582367052	0.627789318758801	-0.767917270184803	0.627774001506415	-0.767687569044015	-0.0113218984730477	-0.00376844214494442
4.7	-0.00960068651689878	-0.00563606840329442	0.500700861511106	-0.856262708398221	0.50081738570414	-0.85601731359279	-0.012389497970273	-0.00233763243831902
4.8	-0.0106928828596285	-0.00464796422675246	0.361449800014876	-0.923578314327372	0.361743466820978	-0.923388621325841	-0.0131608251872768	-0.000704081159811258
4.9	-0.011319946929156	-0.00390406437881864	0.213781306896261	-0.968376895711993	0.214041486661812	-0.968325024197029	-0.0134372690803088	0.00124060805127301
5	-0.0119290181035738	-0.00282742017174224	0.0608892833273892	-0.990179935822247	0.0610476253890938	-0.990051319264956	-0.0129533798674138	0.00359936664316498
5.1	-0.0117474190366145	-0.0021027875855898	-0.0936854966237625	-0.987489005876556	-0.0933636903090656	-0.987425405470895	-0.0115462174463753	0.00565878552589433
5.2	-0.011836821803001	-0.00134904126749724	-0.245948500631582	-0.961084586093452	-0.245519650597466	-0.961206055878728	-0.0101530300084639	0.00765314838257772
5.3	-0.0120023057444394	-0.000832035714027766	-0.392317494431889	-0.911478043972019	-0.392026965413043	-0.911823045659404	-0.00817388373571074	0.00958354945595265
5.4	-0.01245215943193	0.000244205172635535	-0.529590207314433	-0.839653253364822	-0.529453315454736	-0.839943559252571	-0.00596950514221548	0.011153790971711
5.5	-0.0127126964286476	0.0021296599560862	-0.653736171622882	-0.746631067507582	-0.653685775012641	-0.746945874178337	-0.00323775030078494	0.0126760150685695
5.6	-0.0118694148519328	0.00368701458867178	-0.761346575520819	-0.636145077154997	-0.761359880495775	-0.63631599762221	3.92761183405267E-05	0.0125830314352731
5.7	-0.0116445881657463	0.00471428458213716	-0.851180578234854	-0.51026871646574	-0.851156545982969	-0.510444413732989	0.00230977389160083	0.0122149017436658
5.8	-0.0114209840779036	0.00629804677118223	-0.920195796202193	-0.371615388272448	-0.920240589114517	-0.371908660390054	0.00442489325750622	0.0118311530436196
5.9	-0.0111858722475121	0.00766451743391481	-0.966742400502343	-0.223957150930571	-0.966863234009828	-0.224005299119869	0.00621469704576415	0.0112614495263363
6	-0.0107900540924473	0.0103000064537731	-0.989490761129399	-0.0712809526208627	-0.989487659772498	-0.0713498805598881	0.0080152295189954	0.011506750198671
6.1	-0.00832425008576162	0.0121784359771893	-0.988887291282126	0.0832214564465618	-0.988890465420164	0.0831177089134998	0.0116365008921002	0.0102326249009426
6.2	-0.00621491739860458	0.0126065532276889	-0.963856846061765	0.23622668679106	-0.963905146161861	0.23604424633777	0.013962953381112	0.00689772020728124
6.3	-0.00496261897421652	0.0123182764552942	-0.915226736565643	0.383197258455326	-0.915251229772107	0.383068085985002	0.0146586238868222	0.00290578519272135
6.4	-0.00425195439180726	0.0120903374994298	-0.844357499565372	0.520516788952806	-0.844348846443774	0.520302418441662	0.0137732491244356	-0.000929768489642454
6.5	-0.00378981311251204	0.0121370351688578	-0.753618624495556	0.645372494299491	-0.753719621294566	0.645199489722445	0.0121458754461956	-0.00386198960596078
6.6	-0.00271164941956159	0.0123350047492529	-0.643839816602839	0.754988842097228	-0.643989083503323	0.754842397919136	0.0103769314219257	-0.00613327893693576
6.7	-0.00160466016887499	0.0121726688208778	-0.518416760814857	0.845695164699333	-0.518538637966387	0.845537497273566	0.00821066931967547	-0.00782145759175545
6.8	-0.000333526857610891	0.011887262201217	-0.380604586927358	0.91576867924606	-0.380816643389928	0.915693655231466	0.00590799789375828	-0.00891964954611226
6.9	0.00070194105423407	0.0111545319837616	-0.233797220288945	0.963816664111201	-0.234048960118752	0.96381326215098	0.00371999944083822	-0.00946493631718898
7	0.00195423608670305	0.0105143714934184	-0.0806437269249029	0.988721887795291	-0.0809032090144187	0.988692302369194	0.00175328530833994	-0.00976188422953219
7.1	0.00277912252288264	0.0092945529201063	0.074167430913533	0.988588837428674	0.0739599679451454	0.988577301802284	-0.000425270696655422	-0.00977731092794701
7.2	0.0033661637643792	0.008198969620594	0.226789781707652	0.964769167440835	0.226533723496917	0.964814158490171	-0.00234433283779958	-0.00895980415417802
7.3	0.00346991338519497	0.00691870798005963	0.37393959532092	0.917620947606877	0.373698897885476	0.917712797388377	-0.00394195997505696	-0.0077801010906225
7.4	0.00336886415336666	0.00577762022264817	0.512159162055521	0.848001014859598	0.511940835450021	0.848164287540924	-0.00535391821828366	-0.006395020279652
7.5	0.00293290000199809	0.00476757105030048	0.637378612941602	0.75718806017519	0.637218972695076	0.757361033388562	-0.00615690319637841	-0.00451187466071269
7.6	0.00274126103178073	0.00367911844432422	0.7466288878766	0.649037219586028	0.746413744047696	0.649199278413048	-0.0062346511247489	-0.00334046503569468
7.7	0.00172698903385994	0.00295378076585928	0.838177031051255	0.525171180046805	0.838026506284572	0.525367089373316	-0.00673188208640662	-0.00198123966892175
7.8	0.000932002180499823	0.0028210617326464	0.909512663145517	0.388275418419464	0.909392554853669	0.388497926933516	-0.00662284871083396	-0.000301003986185982
7.9	-0.000177583186708091	0.00296955719681918	0.958219475749913	0.241942460149919	0.958180061882761	0.242168361628844	-0.0062144960587412	0.00166161207105365
8	-0.00105871704945312	0.00458457644374601	0.983384174133749	0.0905647091842807	0.983456009902631	0.0908565886198418	-0.00560956283269599	0.00422544250916961
8.1	-0.000283500106224203	0.0059994264045396	0.985631790652633	-0.063207056262123	0.985757267707988	-0.0629362032324714	-0.00267235059400652	0.00583126131171724
8.2	0.000689528316288525	0.00659650373114003	0.963357912715797	-0.215624460396246	0.963425278481967	-0.215328731392105	-0.000438947393610819	0.00591746270405753
8.3	0.00141890540618107	0.00690571440538186	0.917538172222554	-0.362385393421659	0.91767701029307	-0.362130161849177	0.00155175420584441	0.00531374289071593
8.4	0.00216282688770739	0.00663996095252373	0.849762331546688	-0.499803173180811	0.849974829693693	-0.499604514613709	0.00293192217160216	0.00386010687355671
8.5	0.0016828941127161	0.00686860627028112	0.762357014891641	-0.625420956292491	0.762473277985634	-0.625295630436309	0.00309986771271511	0.00292542970787927
8.6	0.00265942856823982	0.0077461988013017	0.655392441339179	-0.736254319195105	0.655590515520115	-0.736070032509327	0.00438389613638649	0.00217222098040256
8.7	0.0036993231322159	0.00794521125710918	0.532829513268343	-0.828438178888282	0.533111366776724	-0.82833038122952	0.00506432948430794	0.000591360042539162
8.8	0.0051741665064435	0.00768410074746499	0.397937074829455	-0.900622288825353	0.398142982994389	-0.90056887525375	0.00498512019270014	-0.00104445365723649
8.9	0.00649351943470937	0.00670445127076143	0.253590578347939	-0.95140239841959	0.253832493850425	-0.951263265594391	0.00453850000058978	-0.00242757399622065
9	0.00747807897314617	0.00529609908367883	0.10227784410232	-0.979175540414411	0.102639451685788	-0.97914748549341	0.00374927689073142	-0.00305834538757577
9.1	0.00846410173719927	0.00399243835986746	-0.0507609158025856	-0.982349168479294	-0.0504093968464512	-0.982365322463771	0.00364280318359009	-0.00313752471605008
9.2	0.0095793414181361	0.00224085943237286	-0.202420328518849	-0.962253978298831	-0.202065761906205	-0.962326037402853	0.00420975543015541	-0.00299245376604586
9.3	0.0103941631775288	9.17239441226159E-05	-0.349253034661197	-0.91901570137937	-0.348897184285491	-0.919081455649722	0.00549890350218449	-0.0032236097998028
9.4	0.01032924013851	-0.00286702865813191	-0.487711326390845	-0.853325003390611	-0.487389684014176	-0.853473945499176	0.00645605001850347	-0.00437708635167755
9.5	0.00917536373552146	-0.00448705626324517	-0.613628072523538	-0.766247524276818	-0.613423382395833	-0.766385311739879	0.0070586260818686	-0.00494072169288205
9.6	0.00823745942473226	-0.00692877119213299	-0.724262785505676	-0.661819632726039	-0.723991980322595	-0.662004771103106	0.0071338621997093	-0.00693928012912726
9.7	0.00597484469370662	-0.00856313934340202	-0.817779246173119	-0.541435001352195	-0.817535140847798	-0.541704020111147	0.00594231196409554	-0.00818168353137523
9.8	0.00348690565218814	-0.00969194007098256	-0.891458287917056	-0.407817685666226	-0.891251344408818	-0.408092054370914	0.00464665437758279	-0.00874890234480205
9.9	0.0003052907886402	-0.0100635343322302	-0.94306281549824	-0.264420812241147	-0.942952286130496	-0.264748636652606	0.00326166401575472	-0.00885750831158382
10	-0.00301004343374201	-0.00870971901299929	-0.971882807904083	-0.115863543624633	-0.971804171740523	-0.11623995297267	0.00224352606486127	-0.00749326849078348
10.1	-0.00476506206761612	-0.00720883407894525	-0.978142973462752	0.0359715026734179	-0.978124460260567	0.0354964135083438	0.00281359474614785	-0.00744210940863808
10.2	-0.00669091128492666	-0.00601582851319735	-0.960429233215351	0.186956235468307	-0.96041537840397	0.186509219803359	0.00239665717930684	-0.00798080284678257
10.3	-0.00880785522919403	-0.0041618434183884	-0.919563862576324	0.333116863545194	-0.919699181103525	0.332580433904981	0.0014256334087005	-0.00853153943467584
10.4	-0.0106814231193377	-0.00212899570970466	-0.85690733258434	0.470827192502599	-0.85717103698868	0.470295526767405	0.000127292430187119	-0.00891415851498689
10.5	-0.0125095666538573	0.00154571041974119	-0.774510893659487	0.598019867106192	-0.774791928703481	0.597635575212119	-0.000990828607652987	-0.00822249861658365
10.6	-0.0117525782590142	0.00517743228978426	-0.671999192595478	0.711108072228934	-0.672422959535032	0.710766830871692	-0.000325633788483872	-0.00788142407665093
10.7	-0.0100417061599081	0.00805436667361951	-0.553565419834991	0.806339957369518	-0.553974359753636	0.806054045311909	0.000562836385189157	-0.00870072757464404
10.8	-0.00796483083893612	0.00957483194946178	-0.422019498487313	0.882026814722872	-0.422526456333898	0.881799539704682	0.000615057607903199	-0.0104796004253649
10.9	-0.0062752616922822	0.011023150573644	-0.280646455072895	0.936899029968724	-0.281131089791654	0.936848353316408	-0.000601161075912136	-0.0120432560065908
11	-0.00399081871743494	0.012135455310678	-0.131409791907866	0.969253888804594	-0.131952605098479	0.969250081241351	-0.001854288634939	-0.0129577921704848
11.1	-0.00134492046053286	0.0128161544075202	0.0202811100861269	0.977137062431386	0.0196564108966813	0.977219714759123	-0.00323799323959324	-0.0138677510422621
11.2	0.00150838819911597	0.0125836144902988	0.170991781156614	0.962188699005846	0.170476271713115	0.962390293819204	-0.00467999114866773	-0.0144072865205544
11.3	0.00420781845004629	0.0117504428874986	0.317784115824523	0.924280044952438	0.31735743623474	0.92454063075417	-0.00599107318545258	-0.0146054539044945
11.4	0.00629340927487991	0.0101245164446456	0.45753188028237	0.863912167846114	0.457070691528614	0.864170263764891	-0.00757923096578845	-0.0142812939636105
11.5	0.00836649552436065	0.00919300371277585	0.585372983162502	0.781749486160891	0.585017541010057	0.782164373077197	-0.00851358630367235	-0.0130772850279641
11.6	0.0104097068655609	0.00650129656333789	0.698765655618663	0.682212969933882	0.698500315683519	0.682689727419602	-0.00950250167965997	-0.0130918754167353
11.7	0.0112372597620704	0.00391830682971325	0.796201481102796	0.566028198308769	0.795963530030022	0.566447063773008	-0.0113529716722999	-0.012476157596226
11.8	0.0111090361954875	0.00110785037672706	0.874379884136476	0.435646779549185	0.874196257686102	0.436195151356201	-0.0133829101709963	-0.0112268019511438
11.9	0.00987929177200261	-0.000883153407860655	0.930874678342428	0.294818598232538	0.930835955659121	0.295358911146702	-0.0156590696768043	-0.00865035399121952
12	0.00830583214168457	-0.00121501268746746	0.964959835751399	0.148268510711788	0.96494642707697	0.148744780065928	-0.0162156405897667	-0.00439056263053641
12.1	0.00858188388215355	-0.00170087182587869	0.976976119679375	-0.00283162346499574	0.976950151919212	-0.00236154981881157	-0.0143978783404495	-0.00173814463229363
12.2	0.00829726163785949	-0.00328705219205096	0.964879772013874	-0.154153511800257	0.964984355750789	-0.153718404929182	-0.0127538236429153	-0.000294276522259295
12.3	0.00761272128384962	-0.00494389485997183	0.929491288030611	-0.301439711331768	0.929674530524678	-0.301082789245681	-0.0110654047391761	0.000290753457934803
12.4	0.0058328825926518	-0.00712448567681557	0.872355630216608	-0.441385080231128	0.872485956613892	-0.441011397314071	-0.0100607897482316	-6.89864324691255E-05
12.5	0.0027411721781307	-0.00792816804526109	0.794526480569306	-0.571946586516601	0.794981205049514	-0.571553040634513	-0.0102023519261327	0.000103268860536986
12.6	0.000490230104100113	-0.00792144009597259	0.696042554299913	-0.68875892009224	0.69638660151576	-0.688448741034649	-0.00944206157168586	6.46941004664681E-05
