# GHZ S RI R 50
0.2	-0.000285885442267098	9.02313266492638E-05	0.948442884490839	-0.308028745045376	0.948216724726013	-0.308170498832942	-0.00014055189938781	0.000264396517612326
0.3	-0.000332447622657271	0.000335523446718889	0.88833098124606	-0.451616398310992	0.888193627004305	-0.451669518859063	-0.000160293723724918	0.000139720649055914
0.4	-2.21096324120405E-05	0.000378339879967282	0.806644814104812	-0.583682831679687	0.806684822298098	-0.583822329507274	0.000131275828791372	5.50721298593769E-05
0.5	-0.000236509121227807	0.000239176258267291	0.70594951162528	-0.701504169964825	0.705839020880136	-0.701599891202479	0.000141977599499804	-0.000368091094707589
0.6	-0.000404246407398371	0.000551677290084461	0.588240378124806	-0.802490831843069	0.58805102537706	-0.802493697828127	-0.000140837258565233	-0.000329995055428122
0.7	-0.000304722987994482	0.000998592347129892	0.456182728645235	-0.883655237059961	0.456108783942519	-0.883689555463691	-3.68231447216761E-05	-0.000398687619992243
0.8	1.66367461089881E-05	0.0010697687234553	0.313323281767891	-0.943428529958666	0.313204933417851	-0.943341915374067	-3.86800743902882E-05	-0.000483301501399487
0.9	0.000380829057227144	0.00139287795921015	0.16314717517465	-0.980204543137647	0.162998421262704	-0.980161767110968	8.25177374936428E-05	-0.000631076590282228
1	0.000806536993626801	0.000676126726097645	0.00906294333237318	-0.993548633878324	0.00894504044435307	-0.993519024787528	0.000201333963874992	-0.00170074708078921
1.1	0.000298071204949509	0.000725206305134371	-0.14484478754054	-0.982633235857569	-0.145491238292037	-0.98259816130359	-0.00117662219302256	-0.00196544152046509
1.2	0.000696590709251184	0.000120733661826611	-0.296201764129974	-0.947754645487502	-0.296194801977012	-0.947810219578005	-0.00148586578275054	-0.00168920353606628
1.3	0.000968426042369812	-0.00124878233042601	-0.439430178497462	-0.89007451707964	-0.439522092045125	-0.890098957923326	-0.00102924888644281	-0.00103240393523371
1.4	0.00102425549029076	-0.00308103050523255	-0.571985059812816	-0.811144958407583	-0.572058757805804	-0.811045602565025	3.84866471767539E-05	-0.000962437747953566
1.5	0.000501021931701734	-0.00364429167177924	-0.691208083178428	-0.712101336316991	-0.691232647104161	-0.712029425367864	0.000562410326811592	-0.00113835586328192
1.6	0.00105588827063559	-0.00354037124562215	-0.792423873067105	-0.59628176866299	-0.792852514960649	-0.595782495502263	0.00123729044724726	-0.00098580263674607
1.7	0.0012684114373234	-0.00396470271140472	-0.874992833579575	-0.466147477979256	-0.875296743835247	-0.465658895710434	0.00143682380954077	-0.00170371015918736
1.8	0.000969044886458054	-0.00435625837199952	-0.936769602838761	-0.324354854964619	-0.936785024527608	-0.324345422470585	0.000968805117921772	-0.00256591400851613
1.9	0.000649128268291832	-0.00472733990946802	-0.975755263765184	-0.174835086480158	-0.975799644525947	-0.174887744843188	0.000309895330348315	-0.00355742951472972
2	-0.000867878773756878	-0.0049296540076545	-0.990282002806748	-0.0218226775375123	-0.990376909554194	-0.0211749624883601	-0.00202053930270647	-0.00396681325274674
2.1	-0.0010570746415003	-0.00383288901760909	-0.981540499669743	0.132731611118542	-0.981639232201847	0.132248546485454	-0.00267641151220836	-0.00232389670908142
2.2	-0.00137661141667182	-0.00399763041699119	-0.949350146181752	0.282667065978931	-0.949389001053334	0.282800458152758	-0.00262937506154097	-0.00199489866286981
2.3	-0.00199005412893544	-0.00390724141055437	-0.89395203563276	0.426485947410095	-0.893788692867906	0.426574414700886	-0.00284132161652714	-0.00193970509526795
2.4	-0.00274628098864047	-0.00384472441656012	-0.816206633302006	0.560391960501372	-0.816496650939379	0.559930774004226	-0.00300140524987943	-0.00229766246260429
2.5	-0.00410912663518088	-0.00364021786506191	-0.71991702184169	0.679583800239431	-0.720217776637622	0.679203482287149	-0.00424219598381574	-0.0033674621211184
2.6	-0.00503101421795408	-0.00196384048387577	-0.60651332511438	0.78313579367026	-0.606434109297064	0.783076682584307	-0.00554569660447902	-0.002181313233977
2.7	-0.00463713962797807	-0.000720775145189823	-0.477430773025109	0.867714633140255	-0.477401378497524	0.867728759329374	-0.00568070149203027	-0.00113376077590375
2.8	-0.00397986918947597	-0.00011086283017786	-0.337228936575187	0.931108788384679	-0.337111142738194	0.931193388383825	-0.00524404678622069	-0.000241112726144805
2.9	-0.00281865824482268	9.88487028227053E-05	-0.188988297711971	0.972016901873412	-0.18898399046934	0.97207160621245	-0.00446168354871517	0.000561053285951053
3	-0.00189895227746493	0.000111120459972295	-0.0358408016802249	0.990211783153776	-0.0359052452815108	0.990282976218163	-0.00338398852347283	0.00146499933398401
3.1	-0.000420143215273431	-0.000288919265560399	0.117970922416426	0.983697630011456	0.118618179040795	0.983780221779992	-0.0015705492423223	0.00189353435365911
3.2	0.000171896049435515	-0.00117699466533105	0.269627078848513	0.953166594593266	0.269617038852055	0.953206120243735	-0.00047396503658498	0.00145077196319197
3.3	0.000842285102486423	-0.0020019595069177	0.414833900254574	0.899666980574954	0.414211090909984	0.899946637682366	0.000642455835692153	0.000862872215985834
3.4	0.000947795435821909	-0.00299780720268665	0.549059413394694	0.825071982027599	0.548974203026085	0.82518700248274	0.00144296090075707	-0.000264763098473027
3.5	0.000867190669179388	-0.00340564971272928	0.670964437072341	0.729664246229884	0.670978610806468	0.729690471633907	0.00127058375701125	-0.000935095248080385
3.6	0.00130638567542087	-0.00394186002729413	0.775135022121035	0.616820671022458	0.775557730350454	0.616427754207844	0.00205639300006556	-0.00132144781299255
3.7	0.00137513201408459	-0.00506930755690259	0.861843213700716	0.488749910069979	0.861849909414983	0.488876416675404	0.00245540639122117	-0.00250841803996359
3.8	0.000817533881439348	-0.00601637932043262	0.927398846447829	0.349076254880681	0.927426799084686	0.349259613732179	0.00219408826703982	-0.00391252634306259
3.9	0.000456547565377324	-0.00699334989827274	0.970648665116671	0.20006805457269	0.970549061655129	0.200655909691872	0.00116727304560367	-0.00576350878159028
4	-0.00115223250873778	-0.00754067427240507	0.989258110171062	0.0475693971554105	0.989339996331762	0.0476125323704918	-0.00146031474806862	-0.00697459611161641
4.1	-0.00157107203835886	-0.00724237625309942	0.985032726199655	-0.105891587175895	0.984970450298777	-0.105827722958817	-0.00324101198657425	-0.00624955093664742
4.2	-0.00243287908066676	-0.00765433718223702	0.956655787972663	-0.258276420256246	0.956847994285212	-0.257706467246452	-0.00449825476714113	-0.00600291187296346
4.3	-0.00332814763349346	-0.00809881449407059	0.90525097555589	-0.403256021623635	0.905251807623596	-0.403237481911172	-0.00582419504592953	-0.00583515290748621
4.4	-0.00449483737868395	-0.00842281323451128	0.831495321131004	-0.538725919370263	0.83141535742678	-0.538710151300705	-0.00709572956641422	-0.00569879996928091
4.5	-0.00626168171546672	-0.00904751319529385	0.73838878908508	-0.660821314501836	0.738264842929855	-0.660675555734497	-0.00946500488193786	-0.00606988050898805
4.6	-0.00825661259959739	-0.00802524076495527	0.627246944542999	-0.768228648136979	0.627231771757269	-0.767998961142902	-0.0122002664082354	-0.00423516653105515
4.7	-0.00954704409441616	-0.00746443750801214	0.500002130630049	-0.856636669700832	0.50011884723964	-0.856391375326627	-0.014014540063761	-0.00226806561070016
4.8	-0.0109451553900006	-0.00633973755788062	0.360573992720154	-0.923771610130555	0.360867787779697	-0.923582206102092	-0.0151398525479511	0.000226737029727398
4.9	-0.0116367870203901	-0.00535259089818712	0.212972889225068	-0.968175949940768	0.213233010810164	-0.968124293550347	-0.0152263435616553	0.0030277561739023
5	-0.0122381241445358	-0.00413546949271568	0.0605206809609728	-0.990244674143421	0.0606790779398972	-0.99011611149966	-0.0144793528277456	0.00609510973427112
5.1	-0.0117970827596258	-0.00330924404268355	-0.0946301172713008	-0.987572009319163	-0.094308195413049	-0.987508700441086	-0.0119536779657572	0.0089610610607325
5.2	-0.0117193218759013	-0.00270057078148496	-0.246905289987674	-0.960723636694172	-0.246476613029476	-0.960845532080266	-0.00915036613375888	0.0106821745104
5.3	-0.0117645205438011	-0.00233814859207741	-0.393054971330016	-0.910900448106801	-0.392764827184104	-0.911245631885225	-0.00621153989210746	0.0115472995713535
5.4	-0.0121001646386887	-0.00155238218086412	-0.530152683257111	-0.839197707364863	-0.530016013358652	-0.839488087431645	-0.00401132931604583	0.0114954178541128
5.5	-0.0128482902361793	0.000263003069654463	-0.654882211671481	-0.745996817051317	-0.654832207040868	-0.746311776814763	-0.00323516642588278	0.0126173124854369
5.6	-0.0114377463938754	0.00216903697243348	-0.761995387230806	-0.634711849331205	-0.76200894774863	-0.634882676880308	0.000432921114940219	0.0140433366304828
5.7	-0.010899768481154	0.00276089399190282	-0.851296555203393	-0.508832485150903	-0.851272767146807	-0.50900810046755	0.003765462574594	0.0134643956581578
5.8	-0.010559599487748	0.00391539629635052	-0.920022141174885	-0.370287032232422	-0.920067249227533	-0.370580056936926	0.00662451129274865	0.0121190078728685
5.9	-0.0102102350930755	0.00454973103920481	-0.966501752549794	-0.222574266758558	-0.966622582272342	-0.222622230740756	0.0086108183792336	0.00951068624820718
6	-0.0110148020400437	0.00603835527116666	-0.98841730523555	-0.0695311646062864	-0.98841432340898	-0.0696000144236158	0.00732847621477382	0.00738616871572918
6.1	-0.00987432235928961	0.00862175255759091	-0.987347767539206	0.0840104337989185	-0.987351032595043	0.0839068427658813	0.00780632123217082	0.00817720084486082
6.2	-0.00841130995838068	0.0100461020693237	-0.962485867640253	0.236642916587219	-0.96253424202028	0.236460738337006	0.00932069574205596	0.00742715608793625
6.3	-0.00702167944127178	0.0109397808028733	-0.913881727311887	0.383475074524773	-0.913906293511729	0.383346068781709	0.0108250959559445	0.00576104879194432
6.4	-0.00552299632044211	0.0112535176416879	-0.842685948480956	0.520640600406999	-0.842677519564131	0.52042651483445	0.0118216019184382	0.00281649514269151
6.5	-0.00448270683892095	0.0111315675133843	-0.75198488530677	0.644399015575006	-0.752085747683814	0.644226370736004	0.0115680907740422	-0.000453037505694142
6.6	-0.00307390470456801	0.0110399282618302	-0.643008509104079	0.754147306216873	-0.643157611271753	0.754001049201872	0.0109184059557561	-0.00343908877221592
6.7	-0.0019897010941795	0.0106143559567643	-0.517504592326622	0.844924769796213	-0.517626389783902	0.844767328652911	0.00898332414387771	-0.00626309536183119
6.8	-0.000734818426393079	0.0103773122202759	-0.379657104667005	0.914674535388701	-0.37986890172277	0.914599712622987	0.00628646617680825	-0.00797847761913258
6.9	0.000500522614337909	0.00969063206641597	-0.2332574514766	0.962145937361182	-0.233508747306614	0.962142574585338	0.0035849615573651	-0.00867023020525107
7	0.00195850531981546	0.00911235873868269	-0.0810481153811424	0.987526160447974	-0.0813072794163566	0.987496478719455	0.00120653921267937	-0.00845201464498241
7.1	0.00323654244065536	0.007674975514515	0.0742093843345972	0.987586281383557	0.0740021285554009	0.987574781810578	-0.000509958785156806	-0.00814292729516314
7.2	0.00396166583118599	0.00617536208062142	0.226552778261356	0.963460077219252	0.226297066428815	0.963505025753919	-0.00220154465056242	-0.00742493064491139
7.3	0.00400894952888757	0.00453583189063084	0.373183432265625	0.916394892919587	0.372943057919041	0.916486553309548	-0.00373803208650184	-0.00630465825126777
7.4	0.00372852526957438	0.00314960818220292	0.511047009115815	0.847401591077347	0.510828816471138	0.847564542941391	-0.00519779840964834	-0.00492215528313425
7.5	0.00283937797559203	0.00219574722486999	0.63714808705324	0.756823949557762	0.636988525869229	0.756996857527679	-0.00641866441941072	-0.00255336084037007
7.6	0.00282941590383571	0.00156008651326208	0.745888588867697	0.647954079607985	0.745673775426376	0.648116002651511	-0.00555452453910219	-0.000257523177144624
7.7	0.00225355541596498	0.00071757854273853	0.836909445164889	0.524423802228708	0.836759136387224	0.524619414162961	-0.00440727487420535	0.000988975131753786
7.8	0.00177504775275089	0.000357964385595389	0.908104005263039	0.387988279532	0.907984002984969	0.388210436086746	-0.00301451632226997	0.00148145981465821
7.9	0.0010803052665089	9.95418132796178E-05	0.957066936189557	0.241857241248258	0.957027522112429	0.242082874577154	-0.00215038574940362	0.000997502401120527
8	-0.000361846395077607	0.000471370413635083	0.981502778708925	0.0902164723431228	0.981574527373774	0.0905077759475598	-0.0039622677880525	0.000782746140733727
8.1	-0.000180942027328162	0.0022154924385581	0.98363330774691	-0.0621445309098887	0.983758267074274	-0.061874124999825	-0.0039305330242184	0.00365008729949382
8.2	0.000420757157216422	0.00276286771529341	0.962148876522652	-0.214099582492049	0.962215772387255	-0.21380422317814	-0.00268275723666678	0.00512913814999419
8.3	0.000646236600836871	0.00338243981162736	0.916874955325368	-0.360936373286721	0.917013346018857	-0.360681283634322	-0.00103993190654955	0.00603889637196111
8.4	0.00145821455701223	0.00378494651292669	0.849015333937374	-0.498518502549592	0.849227406086073	-0.498319947920176	0.00123011175279688	0.00580544152832012
8.5	0.00117232350945173	0.00369609836608718	0.761937200853487	-0.623075880618486	0.762053053722636	-0.622950602680748	0.00152583318253191	0.0039212393049281
8.6	0.00200222787045745	0.00509630848029957	0.656137354057926	-0.734482625529645	0.656334937583349	-0.734298145132829	0.00171595219864756	0.00484396477487302
8.7	0.00335920748538502	0.00520687659921764	0.533587110774257	-0.827150596167793	0.533868625714594	-0.827042490542141	0.00341535221937352	0.00484430212124993
8.8	0.00466985510972662	0.00480744485324238	0.39865990434534	-0.899389609937855	0.398865574915551	-0.899335999237402	0.00493614747776891	0.00407344110369139
8.9	0.00595078810918231	0.00410589250129253	0.254677580901355	-0.949863680948038	0.254918995448951	-0.949724363226862	0.00674478792817732	0.00276302703818704
9	0.0073190678521577	0.00260880949317133	0.104288135542215	-0.978555419526879	0.104649534508752	-0.978526618154505	0.00783392968327432	0.000421887964971043
9.1	0.00867687040223567	0.000828886282760836	-0.0495478366793415	-0.982090357393346	-0.0491964127539723	-0.982106077944603	0.00860868566470939	-0.00171342621499191
9.2	0.00942395971414428	-0.00182328106362416	-0.200972273997232	-0.961735467518052	-0.200617901768883	-0.961806995138416	0.00860038155149242	-0.00430740944329243
9.3	0.00926905721487179	-0.00405900380862994	-0.347241912321938	-0.918799501513567	-0.346886273050695	-0.91886454187097	0.00764799873927782	-0.00611984374924063
9.4	0.00887428558853433	-0.00646080001381343	-0.485383376040995	-0.854213773805109	-0.48506148599753	-0.854361852150293	0.00624978021754377	-0.00759718376654681
9.5	0.00733336839488878	-0.00744283213704341	-0.612632394659588	-0.767692548687541	-0.612427363225323	-0.767830056846965	0.00356440389243353	-0.00640827262173214
9.6	0.00754004845338675	-0.00923412105443331	-0.723036558550552	-0.662790401872275	-0.722765531196974	-0.662975067090031	0.0046044918222415	-0.00488880921214981
9.7	0.00569585237091643	-0.0113955529166204	-0.816561805366889	-0.543046820513246	-0.816317178435999	-0.54331530331194	0.00518369255257025	-0.00550413931463541
9.8	0.00318683017098318	-0.0126543265416262	-0.890859038544683	-0.409972498953532	-0.890651402958155	-0.410246499810462	0.00522187194836526	-0.00625154987658928
9.9	0.000397232488238856	-0.0131030650817724	-0.943553907075209	-0.266439848903422	-0.943442656778365	-0.266767809370744	0.0050382588261095	-0.00783370242403754
10	-0.00356573421658167	-0.0123976688247197	-0.972034404351861	-0.116950782840781	-0.971955337465131	-0.117327214207405	0.00175570345715173	-0.00847532560217449
10.1	-0.00526744423356433	-0.010019518396153	-0.978577444766535	0.0340184776343677	-0.978557969690441	0.0335432498608155	0.00134130808481336	-0.00601725964762108
10.2	-0.00685313126835718	-0.00879789361816818	-0.961761491436866	0.1853873546296	-0.96174680252141	0.184939903978412	0.00214947009521849	-0.00564342745854704
10.3	-0.00867194867547997	-0.006809843555722	-0.921112666587231	0.332378906818835	-0.921247481910583	0.331841647467816	0.00266618441211657	-0.0062998051249408
10.4	-0.00973743195113023	-0.00493189312980074	-0.857726593863557	0.47064778107242	-0.857990168466508	0.470115623176475	0.00303927424861504	-0.00824153236084884
10.5	-0.0112095345693223	-0.00282977564149203	-0.775261161627242	0.596537010382647	-0.775541465661839	0.596152372271995	0.00127889485125434	-0.011091933557018
10.6	-0.0116208192318404	3.22451780491129E-05	-0.673963857605881	0.710219095691932	-0.674387218075747	0.709876725883268	-0.00127522094025796	-0.0118245114563291
10.7	-0.0113601998825444	0.00304933882225889	-0.555574145385164	0.8061273069873	-0.555982968087122	0.80584037088804	-0.00328939934445728	-0.011632562507455
10.8	-0.00995358668617834	0.00566582209225516	-0.423906253286325	0.882162040447509	-0.424413314620775	0.881933695483634	-0.00457273780502991	-0.0110231718909189
10.9	-0.00800880472973323	0.00798837623946453	-0.282776460685312	0.936972574595698	-0.283261328620482	0.936920861914922	-0.00568311891787045	-0.0105307700317442
11	-0.00539100910250671	0.00956458063423827	-0.13430758483456	0.97084767450415	-0.134851480271757	0.970842384565644	-0.0066455084247106	-0.00980530702901434
11.1	-0.00213126360208728	0.0103689815930817	0.018899980853926	0.9794501101758	0.0182737010207373	0.979532042380681	-0.00672391239803503	-0.00928986394847562
11.2	0.000978821436934787	0.0100127604478881	0.170102639138961	0.964293483973949	0.16958586205638	0.964494818128559	-0.00680962584377456	-0.00926947460962156
11.3	0.00391971423937133	0.00923162983883497	0.317017983131171	0.926520935191845	0.316590099754328	0.926781385218304	-0.00677649940101066	-0.00935047182677361
11.4	0.00645688939672542	0.00744017129889401	0.457057589138105	0.866963174269871	0.456594745480139	0.867221052043805	-0.00723297848143752	-0.00983439693105483
11.5	0.00820097661225781	0.0064211087347119	0.5869362007565	0.784742439760324	0.586579315145196	0.785158544965757	-0.0092174991337423	-0.00864498633552752
11.6	0.0111265512727676	0.00408327001685407	0.700217762498559	0.683966056270242	0.699951690346031	0.684443853677191	-0.0083974660590646	-0.00689263319933099
11.7	0.0125575184480368	0.00105264552638896	0.79770405004244	0.567859018981592	0.797465275776118	0.568278712968775	-0.00772060656390895	-0.00686398590668071
11.8	0.013021677470559	-0.00213606905361931	0.876506659087858	0.437470757013495	0.876322137912798	0.438020525356705	-0.0075401280116082	-0.0074261990027988
11.9	0.0131254765482141	-0.00524655384776015	0.934072974156939	0.295899569189744	0.934034081755659	0.296441747260084	-0.00790811064097087	-0.0090354309641454
12	0.0102500799231394	-0.00783511150212135	0.967450945125863	0.147663364572452	0.967437980248244	0.148140803611426	-0.0124739815961528	-0.00968529865763976
12.1	0.00943064282001828	-0.0089730757343818	0.979330407533967	-0.00294770300940006	0.979304429757393	-0.00247649355748546	-0.0144807633355065	-0.00698466411331152
12.2	0.00744204703066266	-0.0108088555196742	0.967624825504477	-0.155108881708804	0.967729942761845	-0.154672555294348	-0.0157212567643438	-0.00457134072237008
12.3	0.00509070234676413	-0.0115021336757861	0.931780341205095	-0.30348487900903	0.931964563011848	-0.30312716352656	-0.0161580495459431	-0.00184373949581641
12.4	0.00282445361183056	-0.011900929195661	0.873188060673099	-0.444016988409468	0.873319398462415	-0.443642830371792	-0.0153593177918416	0.000251084516712123
12.5	7.96844277271861E-05	-0.011801009011384	0.794856566062806	-0.572985850462317	0.795311958543429	-0.57259225503964	-0.015885181066637	0.00109314299376367
12.6	-0.00161024992904545	-0.0104411311664893	0.69715671325032	-0.690507577394382	0.69750161637079	-0.690196919241337	-0.0155237757739675	0.00426644546304559
