# GHZ S RI R 50
0.2	-0.000250250775302188	0.000214132522601786	0.948380617539537	-0.308076750332787	0.948154458619102	-0.30821848309264	-4.14639328019516E-05	0.000317066564632573
0.3	-0.000261346215837295	0.00049177539274287	0.88823758230253	-0.451653758724065	0.888100233172678	-0.451706865311596	-9.11418015557221E-06	0.000141300114306642
0.4	6.72885479940033E-05	0.000545088398200756	0.806547733249827	-0.583695927325201	0.806587729134791	-0.583835417920802	0.00027560383841052	-1.36942058050872E-05
0.5	-0.000142791671834648	0.000460438092047549	0.705849460465161	-0.701560060878708	0.705738962635081	-0.701655766847029	0.000273783326899349	-0.000394711104243833
0.6	-0.000249543899432482	0.000762643760268101	0.588052765678272	-0.802509428570616	0.587863430725109	-0.802512263388825	0.000123900618330967	-0.000444882182258845
0.7	-0.000162071598358878	0.00119630050921475	0.455991693147294	-0.883611849869639	0.455917752668814	-0.883646152774359	0.000205822446487556	-0.000687556096580439
0.8	0.000151168593531281	0.00126637233844148	0.31314267206633	-0.943356365026935	0.313024351616135	-0.9432697436702	8.83134637460878E-05	-0.000933392628298105
0.9	0.000464764627969138	0.00153291362727561	0.162944391426411	-0.980139547844176	0.162795660269097	-0.98009674766604	-9.96148794709538E-05	-0.00124429751408641
1	0.000608862940974075	0.000918833939180077	0.00874570482282085	-0.993363588177809	0.00862783365797391	-0.993333947257334	-0.000637094060183219	-0.00196053257672994
1.1	2.69682381008473E-05	0.00126052347329496	-0.145027900788815	-0.982310162158784	-0.145674152827146	-0.982274949391649	-0.00200254675918623	-0.00146236523281833
1.2	0.000246162483787663	0.00116225824570048	-0.296324136974719	-0.947424138755426	-0.296317188825832	-0.947479698751195	-0.00217715773944336	-0.000411200319691774
1.3	0.000781842913765452	0.000572226575147692	-0.439524037769581	-0.889696083217061	-0.439615929935388	-0.889720493428206	-0.000980018677603324	0.00106266556722316
1.4	0.00143847635901646	-0.00105784626708974	-0.572023935764953	-0.810644586312097	-0.572097573000178	-0.810545245394496	0.00109523237208531	0.00101574375264061
1.5	0.00136338898136748	-0.00192322245301428	-0.690932350581696	-0.711537693986708	-0.690956885611748	-0.711465821450348	0.0024228739212246	3.01445092345793E-05
1.6	0.0018162749588202	-0.00250312134610318	-0.792081670645941	-0.59594853379125	-0.792510077257926	-0.595449473025493	0.00281667825486669	-0.00136927344878988
1.7	0.00179365948719846	-0.00313814167282738	-0.874637012615712	-0.465820234026905	-0.874940719530219	-0.465331845125896	0.00213971615583602	-0.00265467579693335
1.8	0.0013486735949789	-0.00368994799648073	-0.936290078809188	-0.324033504574867	-0.936305490395198	-0.324024075147559	0.000952798904503279	-0.00360698450551333
1.9	0.00073724265962153	-0.00411765028968446	-0.975056657657453	-0.174649669598874	-0.975101009307526	-0.174702287089628	-0.000382880710416828	-0.00423125889813577
2	-0.000738582639794177	-0.00396107671633581	-0.989656034562978	-0.0220313583465966	-0.989751027256117	-0.0213840708628533	-0.00237686519466067	-0.00374707340803347
2.1	-0.000840545009295509	-0.00313469498966242	-0.981043857836539	0.132592885948776	-0.981142504879187	0.132110063333913	-0.00262123692264452	-0.00269799807943918
2.2	-0.00130509298590866	-0.00324713838879514	-0.948778904477877	0.282403457908099	-0.948817747001732	0.282536762699678	-0.00300651458101602	-0.00253654817219625
2.3	-0.00192029642879046	-0.00311918398827929	-0.893437232629602	0.426014414281082	-0.893274018191797	0.42610285556161	-0.00362498500807999	-0.00230726767157337
2.4	-0.00282673542940321	-0.0030781385748167	-0.815937044485636	0.559746266428663	-0.816226713088877	0.559285242465927	-0.00428730157906457	-0.00213490065565218
2.5	-0.00428097003664831	-0.0023546996242334	-0.719853760951402	0.679208456917333	-0.720154335351485	0.678828185882185	-0.00526204571320923	-0.00168447819781879
2.6	-0.00473548606334826	-0.000629020357325859	-0.606237848110632	0.782617878701645	-0.606158672603852	0.782558810088536	-0.00501729759754366	-0.000321841769029569
2.7	-0.00416806928363639	0.000508527958973138	-0.477360048606643	0.867025618720319	-0.477330676842946	0.867039743852537	-0.0043639875901007	0.000121448842105486
2.8	-0.00348473542158255	0.00100629868603426	-0.337391082100219	0.930447615542518	-0.337273387872763	0.930532212077958	-0.00372338129041882	0.000308962622296373
2.9	-0.00237461457327927	0.00121488970356317	-0.189241463073841	0.9715634285042	-0.189237176044348	0.97161811238121	-0.00306222988403437	0.000666074376837687
3	-0.00136822155127992	0.00124905781096923	-0.0358673171655698	0.989595320584955	-0.0359317242514944	0.989666466280768	-0.00194935270657468	0.00115540294761405
3.1	6.43467551418403E-06	0.000830527313113339	0.11745839241138	0.982965962074237	0.118105099415458	0.983048763731267	-0.000639519741309553	0.00113034014134714
3.2	0.000663817960573688	1.3814577075237E-05	0.268974408964174	0.95270600509391	0.268964355207011	0.952745500876327	9.07246875296952E-05	0.000707098301999077
3.3	0.00139936073945185	-0.00088872824962187	0.414201707120771	0.899348504644612	0.413579121592476	0.899627728310444	0.00098967758281917	0.000189905737012803
3.4	0.00141378786672352	-0.00193231739589505	0.548439773596676	0.824664972310608	0.548354588176945	0.824779888635877	0.00165577644922389	-0.000697581096124436
3.5	0.00152364603906301	-0.00234533138430152	0.669756857229932	0.72929364293997	0.669770998496891	0.729319848625299	0.00207739889225593	-0.0013603879370167
3.6	0.00168914099189926	-0.00322316982780185	0.773993655804921	0.61712202015697	0.774416438423058	0.616729787043208	0.00251778015566094	-0.00259966261017997
3.7	0.00148873063006413	-0.00424815346539501	0.860877779951339	0.489193954576228	0.860884361343638	0.489320387751239	0.002216045646556	-0.00378451641692298
3.8	0.000771503188636837	-0.00509833933038852	0.92643449968028	0.349669412275486	0.926462267170927	0.349852668030907	0.0014226504630012	-0.00486716506893244
3.9	0.000148243855751917	-0.0058772550294339	0.969589432472566	0.201023727511396	0.969489231851488	0.201610966144175	-3.90899966555491E-05	-0.00594067096459669
4	-0.00120621427681264	-0.00582525960759506	0.988791436945054	0.0492495504817407	0.988873217172073	0.0492928095137592	-0.00174202796655083	-0.00589758402186197
4.1	-0.00127840998554419	-0.00581680980399498	0.985174754356336	-0.104597341124129	0.985112394340344	-0.104533558568677	-0.00244107788833326	-0.00590685760400096
4.2	-0.00208850551844493	-0.00635362592510378	0.956918723026252	-0.257063764202844	0.95711020445847	-0.256493606604083	-0.00360472827981772	-0.00626615421778099
4.3	-0.00297379231269716	-0.0070740698914234	0.905784013029838	-0.402018166590358	0.905784819870675	-0.401999626059544	-0.00510148702071179	-0.00661768801329032
4.4	-0.00456535597797464	-0.00768119733383103	0.832558415065426	-0.537560690226639	0.832478405723551	-0.537545043620665	-0.00714018225298152	-0.00666401652939787
4.5	-0.00677176212931262	-0.00770651944005532	0.739748357677127	-0.660580061190977	0.739624145109363	-0.660434312959479	-0.00973668066146876	-0.0057542433772848
4.6	-0.00842128873630055	-0.00647742351571422	0.628050375430387	-0.768051796559589	0.628035026930313	-0.767822034840492	-0.0112069863501191	-0.00383518892078582
4.7	-0.00952762371119139	-0.00584691863175813	0.500936560704307	-0.856407068201439	0.501053081204214	-0.856161597789143	-0.0124124692064788	-0.00244215958323479
4.8	-0.0107224033301458	-0.0048259472008657	0.361680631582684	-0.923775585548867	0.361974350329909	-0.923585798959811	-0.0132883679019546	-0.000733776180978332
4.9	-0.0114081756737658	-0.00402216941336399	0.213978020656566	-0.968681708334978	0.21423828302876	-0.96862978587618	-0.013609703299871	0.00130635447752994
5	-0.0119995156131215	-0.00286815895858211	0.0608818776348597	-0.990520256661109	0.0610402775055848	-0.990391600638822	-0.0130923670740441	0.00377541880930612
5.1	-0.0118308180290909	-0.00218733638397806	-0.0936967893459181	-0.987722552655499	-0.0933749079489064	-0.987658933764505	-0.0116505461050891	0.00583024319791206
5.2	-0.012018562247583	-0.00138816948365669	-0.245980479942406	-0.961353441337937	-0.245551509520085	-0.961474928564671	-0.0102859924491343	0.00786362888178896
5.3	-0.0122435133413075	-0.000732187796294657	-0.392433551258941	-0.911755204513883	-0.3921429332389	-0.912100309792169	-0.00831787607376095	0.00988267766183423
5.4	-0.0126609523589386	0.000564752013108318	-0.529812928321181	-0.839859506388482	-0.529676018935636	-0.840149908840189	-0.00608597375357423	0.0115979878453942
5.5	-0.0125401194541506	0.00264379177182012	-0.653881069413182	-0.746697739431037	-0.653830686061604	-0.747012595593033	-0.00305713209844983	0.0132935854641168
5.6	-0.0114879354316155	0.00386903658498633	-0.761487232510369	-0.636319952490956	-0.761500532854289	-0.636490911446667	0.00041875213435176	0.0129361397095342
5.7	-0.0113021335313446	0.00473771674159112	-0.851412789662376	-0.510412365788197	-0.851388750110648	-0.510588111284231	0.00269532096128751	0.0124228723350644
5.8	-0.0111141274126954	0.00619043393008066	-0.92045897621956	-0.371681303712672	-0.92050379229391	-0.371974653547077	0.00481186041033381	0.0118771962999048
5.9	-0.0110424807344374	0.00744567000990129	-0.966958555017956	-0.223965663348502	-0.967079416338215	-0.224013816942484	0.00644283385072733	0.0111206261556516
6	-0.0107067209801795	0.0102611415671696	-0.989752228474345	-0.0714042445901035	-0.989749119041333	-0.0714731909636773	0.00807865701460426	0.0114795922980595
6.1	-0.00819171731271098	0.0119634767262058	-0.989307701685176	0.0832749653796647	-0.989310879071126	0.0831711736223707	0.0116507370159724	0.0101012957400256
6.2	-0.00627671018669263	0.0123914743641513	-0.964210686657644	0.23643794815002	-0.96425902817787	0.236255441145942	0.0137708783498031	0.00685141305331336
6.3	-0.00510389724804484	0.0122071044079747	-0.915488458325957	0.383476461543942	-0.91551298052987	0.383347247460709	0.014422767715871	0.00302897716726786
6.4	-0.0044322717755122	0.012074019327401	-0.844580390023115	0.520796692062274	-0.844571760187685	0.520582247730546	0.0135590850128986	-0.000690694101495599
6.5	-0.00393901649154142	0.0122411038202674	-0.753852941934609	0.645836364604169	-0.753954022447221	0.645663296723448	0.0120075909670124	-0.0035165447546465
6.6	-0.00283287442387457	0.0124964627935891	-0.643796090263322	0.755482823631091	-0.643945461680945	0.75533638139312	0.0103050600770244	-0.00575352914540871
6.7	-0.00164337742073149	0.0124449182261418	-0.518280946313594	0.846086383952428	-0.518402906651111	0.84592871415076	0.00823522825549138	-0.00737642628651708
6.8	-0.000213578864537711	0.0121883202151745	-0.380439513253043	0.916117117747085	-0.380651646636587	0.916042135385365	0.00607028368721594	-0.00848196901717264
6.9	0.000954697279807056	0.0114129541972343	-0.233574548248528	0.964205582355562	-0.23382637176452	0.964202257492705	0.00397178006053583	-0.00908699782907889
7	0.00234814043875219	0.0106331933915555	-0.0801691039645537	0.98901499070319	-0.0804286672034	0.988985527702021	0.00210573970765016	-0.00949448709746679
7.1	0.00313464473022682	0.00923554416212496	0.0745690470210357	0.988661371961202	0.074361558026326	0.988649917830106	-0.00010746721907873	-0.00965223083439459
7.2	0.00366125205334938	0.00804866674091594	0.227156239891009	0.964823123182048	0.226900162075324	0.964868209410601	-0.00207993553983246	-0.0089080249840535
7.3	0.00368044920402071	0.0066896366553637	0.374346674994233	0.917637872985956	0.374105970787563	0.917729828489163	-0.0037536023757481	-0.00778920464246566
7.4	0.00345879795389157	0.00554333136184419	0.512641348336066	0.84787973160958	0.512423068037623	0.848043133051406	-0.00528682634026494	-0.00639591088242122
7.5	0.00300653137841481	0.0046029999801864	0.637666721932279	0.756864251962685	0.637507166682435	0.757037283491609	-0.00609837781423989	-0.00441471557458262
7.6	0.00276414237000059	0.00343692523613964	0.746864246377173	0.648825529909596	0.746649145586531	0.648987663407303	-0.0061692562180716	-0.00329160168836758
7.7	0.00161605161214319	0.00270236134787998	0.838435700158905	0.524879606561272	0.838285241733852	0.525075587142321	-0.00674311514786962	-0.00193595487873735
7.8	0.00067033314104387	0.00265668996396208	0.909688206773402	0.387882280694774	0.909568194480418	0.38810484308951	-0.00672993049249182	-0.000224559058505005
7.9	-0.000631269623835482	0.00304683984248731	0.958211112565161	0.241520405755658	0.958171796210399	0.241746298001775	-0.00648838780330283	0.00189477268548024
8	-0.00124489755808614	0.00518043214668013	0.983354832389205	0.0903622366181643	0.983426723476948	0.0906540874591803	-0.00576015083623922	0.00485588268245065
8.1	1.06392228248086E-05	0.00645708942952861	0.985689328133014	-0.0635494662912136	0.985814907966598	-0.063278634450934	-0.00244244907761314	0.00638074569357637
8.2	0.00111905224767214	0.00680683489665488	0.963268934440688	-0.21602384605848	0.963336422809327	-0.215728144856207	-0.000114079524825453	0.00629839116710647
8.3	0.00186791686213438	0.00689525454867552	0.917324073780995	-0.362720773151388	0.917463002216355	-0.362465616193568	0.00190323729083078	0.00554087546582506
8.4	0.00245984882729852	0.00642285546610266	0.849549547763207	-0.500010489219093	0.849762086778574	-0.499811908203071	0.00317645740690283	0.00391064219507427
8.5	0.00181092137023758	0.00685459166964338	0.762198379762918	-0.625782372692072	0.762314703724459	-0.62565707809679	0.00316857865403622	0.00314020960608532
8.6	0.00302615951801559	0.00762891534807689	0.654958853230032	-0.736546467548432	0.655157010195013	-0.736362298077042	0.00463470048946189	0.00234992526012565
8.7	0.00397422802157827	0.00762265573741025	0.532368669689523	-0.828551790163798	0.532650528350492	-0.828444137825256	0.00526331716647882	0.000661106097485383
8.8	0.00528239330748022	0.0072837127011701	0.39751157040713	-0.900648271514787	0.397717469262409	-0.900594949571202	0.00511482237210548	-0.000995516650471678
8.9	0.00640884851760723	0.00630957470517561	0.253152409355931	-0.951445949564136	0.253394368883095	-0.951306933518919	0.00460249008028421	-0.0023836076252192
9	0.00727572555735142	0.00508021708978251	0.1016030199549	-0.979023970258302	0.101964565095257	-0.978996162368755	0.00377878990384048	-0.00292056035375316
9.1	0.00823223636268334	0.00384164321226177	-0.0512080595121237	-0.981904111764058	-0.0508566988535047	-0.981920426613392	0.00367636755368726	-0.00302161209737052
9.2	0.00927959916969751	0.00228070154277076	-0.202696973502397	-0.961799393665592	-0.202342573456378	-0.961871555703656	0.00416601764094425	-0.00279162825367255
9.3	0.0102289618227576	0.00034703190580157	-0.349460651606046	-0.918560540666366	-0.349104952329918	-0.918626400183074	0.00551761693478329	-0.00289268592186945
9.4	0.0103439264422319	-0.0025246371847863	-0.487906075516799	-0.852763192358844	-0.487584629002464	-0.852912221758452	0.00654091726989411	-0.00401016181349965
9.5	0.00964544428713137	-0.00418070869359408	-0.613462883176516	-0.765557365847878	-0.613258369368086	-0.76569512627096	0.00743951033086522	-0.00454600678972854
9.6	0.00865099439254821	-0.00715749914482033	-0.72398943092861	-0.661404931354421	-0.723718781618308	-0.661590012446912	0.00744698430392682	-0.00692225113391004
9.7	0.00610548192272295	-0.00887531391400831	-0.817515004369686	-0.541062221860152	-0.817271050313625	-0.541331164795914	0.00604772895674046	-0.00818489897626831
9.8	0.00342697515995547	-0.00997493154470198	-0.891113634661788	-0.40744977234028	-0.890906843098519	-0.407724050881957	0.0046372333983156	-0.00872677288261427
9.9	4.75627774659398E-06	-0.0101835153910136	-0.942527362412196	-0.264143644252106	-0.942416940628537	-0.264471284931857	0.003053525378648	-0.00875081570930801
10	-0.00309455097138831	-0.00835095956052581	-0.971415413441758	-0.11595042708227	-0.971336759320884	-0.11632665050479	0.00215649524791991	-0.00698199663894131
10.1	-0.00456472573583579	-0.00713024249398376	-0.977829488913167	0.0359927414728594	-0.977810997516658	0.035517803375173	0.0029535894148892	-0.00712220424266016
10.2	-0.00659882510663188	-0.00604377187759995	-0.960017526083526	0.186950985121071	-0.960003710593425	0.186504153499673	0.00247702384384215	-0.00771615800456038
10.3	-0.00878919140254145	-0.0041703558166259	-0.919116772561286	0.33296082813897	-0.919252028636252	0.332424658971539	0.00149827652878506	-0.00825658981290302
10.4	-0.0107379968722453	-0.00206446314324992	-0.85660250411759	0.470479093023193	-0.85686600519828	0.469947621023741	0.000177254852007053	-0.00863876260248711
10.5	-0.0123598150840973	0.00177046121018188	-0.774389255236518	0.597862768274666	-0.774670215393294	0.597478537555351	-0.000799172095582471	-0.00782955110736937
10.6	-0.0113627031432768	0.00538228731929933	-0.671692701857565	0.710872748056184	-0.672116324842731	0.710531666244256	5.32232870895272E-06	-0.00760093806912894
10.7	-0.00959897256768313	0.00797491512898579	-0.553367100285761	0.805950451682993	-0.553775842359437	0.805664642489628	0.000865741865154249	-0.00865698724610513
10.8	-0.00768045411454187	0.0093391848449778	-0.421988514248566	0.881622090259515	-0.422495241766676	0.881394827132259	0.000699337654959276	-0.0105860383727358
10.9	-0.00622831750768065	0.0107334088382003	-0.280693604378904	0.936648899793045	-0.281178121010194	0.936598176908582	-0.000740159605567733	-0.0120614929756465
11	-0.00399101632002635	0.011955791782299	-0.131240873391199	0.968899282249859	-0.13178347944529	0.968895542597802	-0.00204744633626704	-0.0127962605314747
11.1	-0.00143099821548413	0.012666766480872	0.0201559805766127	0.976623371986576	0.0195316016390511	0.976705907513301	-0.00346796705287763	-0.0136004170387755
11.2	0.00137771827477613	0.0125456831455834	0.170719656735002	0.961814923991685	0.170204324756055	0.962016326234401	-0.0048891502576844	-0.0139963547827023
11.3	0.00407480352251841	0.0118183906690911	0.317503352850248	0.924012379199298	0.317076776027789	0.924272795259806	-0.0061452862784078	-0.0140918781877949
11.4	0.00616313612127795	0.0103774856322234	0.457292941793768	0.863590912755098	0.456831923675575	0.8638488755127	-0.00769632958326227	-0.0136168094732461
11.5	0.00865065076734129	0.00959170992355382	0.584766041466887	0.781392606552706	0.584410720169515	0.781807118602765	-0.00823695251863404	-0.0122545341231928
11.6	0.0107945638185547	0.00653062806966528	0.698160683522474	0.682255111083694	0.697895232160443	0.682731548590393	-0.00907369254466514	-0.012575144787745
11.7	0.0115384791497366	0.00382655923414946	0.795715384755165	0.566154872533918	0.795477347270626	0.566573505843526	-0.0109008019156126	-0.0120886132191949
11.8	0.0113390452999768	0.000906879168125196	0.873898261824579	0.435804093912159	0.873714503601568	0.436352196283626	-0.0129066055418566	-0.0110315784171275
11.9	0.00990906674689578	-0.00115569894285516	0.930224591107935	0.295125041509097	0.93018561905723	0.29566504334366	-0.0153699478889322	-0.00869602791873572
12	0.00840996552993335	-0.00114773097898951	0.96460726523842	0.149028731276974	0.964593467100055	0.149504875911643	-0.0160124207437106	-0.00427916010152381
12.1	0.00869863366460566	-0.00202314311524591	0.976962532041519	-0.00222427452714306	0.976936272492674	-0.00175422440593663	-0.0143323783803273	-0.00195891987011348
12.2	0.00807148961995448	-0.00354954278556713	0.964935425817587	-0.153605865091441	0.965039761472068	-0.153170713398363	-0.0130934089983376	-0.000385845730237779
12.3	0.0072887000199373	-0.00495315779837076	0.92964894044285	-0.300873747586186	0.929831963909987	-0.300516724418564	-0.0115292135457645	0.000513744946855442
12.4	0.00548957685584014	-0.00695109244536056	0.872775354812312	-0.440795952664165	0.87290542232731	-0.440422132927349	-0.010538219087015	0.000371700631329087
12.5	0.00257852697648265	-0.00729658863124908	0.795149884624029	-0.571820915297237	0.795604622606913	-0.571426978989792	-0.0105411652406186	0.00100469054761552
12.6	0.000790926334679041	-0.00740187097565382	0.696389095198776	-0.688702744219644	0.696733125224469	-0.688392399982371	-0.00936844703038346	0.000957347297491145
