# GHZ S RI R 50
0.2	-0.000166420696435988	9.50565586645892E-05	0.948767093220666	-0.307995207007218	0.948540884642366	-0.308137033100897	4.21898885864561E-05	0.00019845098241187
0.3	-0.000258775344237466	0.000328636756030612	0.888718715404917	-0.451623702570153	0.888581322086488	-0.451676865039595	-6.62730028060095E-06	-2.1274717543744E-05
0.4	-5.58495990304507E-05	0.000389170245920232	0.807141002414018	-0.58377660953098	0.8071810590762	-0.58391616274461	0.000152512643524155	-0.000168924427545248
0.5	-0.00031193389860396	0.000489473720348713	0.706455743814348	-0.701906038666428	0.706345188655643	-0.702001829651879	0.000104957668391836	-0.000365186273083722
0.6	-0.0002869335430894	0.000744881001383598	0.588511246639097	-0.802930782297583	0.588321795768698	-0.802933641840717	8.64989740635221E-05	-0.000462035100226284
0.7	-0.000266384589889004	0.00112090038777179	0.456431137989356	-0.884119259147897	0.456357154424466	-0.88415359629652	0.000101772742005706	-0.000762250738002409
0.8	-1.68222467040887E-05	0.00118591991087634	0.313508374179802	-0.944013919224661	0.313389953513929	-0.943927250097185	-7.92482686636859E-05	-0.00101293675710753
0.9	0.000161472450703742	0.00142448212915011	0.163120804279704	-0.980946379958649	0.162971947831447	-0.980903550488722	-0.000401909788436621	-0.00135186915109723
1	0.0001111358817703	0.0011701370719576	0.0086570760395449	-0.994074341481499	0.00853912344423191	-0.994044668104158	-0.00113376831950288	-0.00170905053969206
1.1	6.00981214297299E-05	0.0015798857302612	-0.145075193937057	-0.983007786949124	-0.145721901605587	-0.982972585314468	-0.00197147634822773	-0.00114588875952164
1.2	0.00047130771595153	0.00111107403162275	-0.29653733480594	-0.94821237507007	-0.296530379172887	-0.948267980500949	-0.0019525513513041	-0.000467996402176608
1.3	0.00114893504295102	0.000118944911673062	-0.439956200306223	-0.890442757335411	-0.440048173590436	-0.890467183460094	-0.000616308395979183	0.000603922802746164
1.4	0.0017960419641185	-0.00187192337946754	-0.572605629673107	-0.811217775382215	-0.572679312070403	-0.811118343235402	0.00144551731873404	0.000199726266585318
1.5	0.00188759069479163	-0.002883208197538	-0.69141720898192	-0.712075972059807	-0.691441763902891	-0.712004047717065	0.00294030239716002	-0.000925336777496906
1.6	0.00183774067118524	-0.00383782514042408	-0.792876112992264	-0.596586431114746	-0.793304975903414	-0.596086871493424	0.00282753440728535	-0.00268982491278421
1.7	0.0013603829870492	-0.00407973082400934	-0.875668549650595	-0.466207829054291	-0.875972521082663	-0.465718857846581	0.00170264945138728	-0.00358438738878313
1.8	0.000759368348363088	-0.00422988511535213	-0.937391287862376	-0.324156548474764	-0.937406713955225	-0.324147104940187	0.000363840225486678	-0.00413713959844169
1.9	7.27833637787847E-05	-0.00415916058413192	-0.976138778688516	-0.174612082814303	-0.976183189845105	-0.174664746306266	-0.00104570562778225	-0.00426443057053359
2	-0.000696029824760706	-0.00353916400187796	-0.991012377903968	-0.0218667793029717	-0.991107373040358	-0.021218588816728	-0.00233298537929048	-0.0033182959279419
2.1	-0.000641020390077447	-0.00339511680285228	-0.982361759975578	0.133390329133897	-0.982460847128851	0.132906878628412	-0.00242141039583	-0.00295139816075759
2.2	-0.00144700478394221	-0.003562167028616	-0.949778156453765	0.283487719918144	-0.949816947134415	0.283621224933018	-0.00314647814146902	-0.00284383890618853
2.3	-0.00226439594669436	-0.00331959919904304	-0.894189174938747	0.427256880533245	-0.894025689107183	0.427345298681481	-0.00396507797455424	-0.00250054332454286
2.4	-0.00340363141131269	-0.00299674534592881	-0.816535198785226	0.561170219135953	-0.816825637036012	0.560708834725924	-0.00486147987363355	-0.00204888029935171
2.5	-0.00445168124622339	-0.00156604051694492	-0.720015772876367	0.681084209483451	-0.720317255521083	0.680703779138663	-0.00543198811625377	-0.000896915596385128
2.6	-0.00417860537072836	-0.000312427180247687	-0.605730183539518	0.784263982054354	-0.605651012921615	0.784204741633943	-0.00446013876444252	-3.46146087292109E-06
2.7	-0.00358033994053359	0.000273912613322821	-0.476613175962177	0.868454429293791	-0.476583758578596	0.868468527290736	-0.0037744737402477	-0.000109214694198231
2.8	-0.0031355419908118	0.000364820031440631	-0.336383096087237	0.93176189072272	-0.336265176509179	0.931846397538872	-0.00337080704071582	-0.000329872979939942
2.9	-0.00235306904279845	0.000444220527314438	-0.187825583859649	0.972740420429371	-0.187821203794362	0.97279514618266	-0.00304402036503772	-9.70815526939718E-05
3	-0.00151850555995275	0.000378642004312235	-0.0340276911643915	0.990096303407265	-0.0340919931011385	0.990167601038388	-0.00210245811065856	0.00029511825683843
3.1	-0.000621844813048804	8.67390577448773E-06	0.118989741491585	0.983067303881341	0.119636759094006	0.983149143693558	-0.0012702000949376	0.00030579755303486
3.2	-0.000168222699782686	-0.000450459157568739	0.270545469975257	0.952633754436934	0.270535473691261	0.952673280029247	-0.000739834664343988	0.000252447620654891
3.3	0.000540402394953788	-0.00101239132566287	0.415832173177738	0.898915271902098	0.415209874947197	0.899195622088436	0.000134087459914872	7.53149518498E-05
3.4	0.000695969790418674	-0.00165018133650808	0.549932146720609	0.82369424920944	0.549847166303148	0.823809320757407	0.000941567034324757	-0.000408038777489318
3.5	0.0014200561166594	-0.00204452727141732	0.670589293467548	0.728156067484942	0.670603467399455	0.728182246151478	0.0019752380474439	-0.00105396154880873
3.6	0.0014294561815549	-0.00329243227982564	0.774887699282938	0.616139997947844	0.775309993899117	0.615747164443048	0.00225930038402326	-0.00266271149257031
3.7	0.0011110456709364	-0.00418336395686752	0.861671475787345	0.487883267603151	0.861678253041147	0.488009696025925	0.00184058083824314	-0.00371261507371995
3.8	0.000389412005187808	-0.00491764665807326	0.926870749946793	0.348137753821398	0.926898807418897	0.348320940513707	0.00104377431126948	-0.00467996535827086
3.9	-0.00025711067561203	-0.00543889040540309	0.96957752297814	0.199564744761452	0.969478199299173	0.200151945142561	-0.000440560083818573	-0.00549667629828593
4	-0.00093667161956594	-0.00512377967788634	0.988920829409591	0.0480018201802875	0.989002669914901	0.048044978678189	-0.00147060060557666	-0.00519247072555266
4.1	-0.00090905349854524	-0.00587994623489703	0.985005216766479	-0.106371204159521	0.984942970292605	-0.106307308239882	-0.00207180441008184	-0.00596380525249435
4.2	-0.00210800820453246	-0.00656681190202836	0.95613955487235	-0.258749909671666	0.956332028773118	-0.258180287109069	-0.00362285736093873	-0.00647269684487826
4.3	-0.00328901980757538	-0.00723208957598689	0.904654859710601	-0.403395426122658	0.904655698287961	-0.403376895845478	-0.00541555111623996	-0.00676633042382833
4.4	-0.00526039179645402	-0.00754769378333168	0.83137255296489	-0.538702158681915	0.831292599362388	-0.538686388676866	-0.00783280698120595	-0.00652300720297728
4.5	-0.00721268900524808	-0.00670967860155358	0.738149334618267	-0.661980739732313	0.738025464639332	-0.661834765430905	-0.0101765133721255	-0.00475177325256953
4.6	-0.00815698609768128	-0.00567597202229792	0.625768191089797	-0.768717335138871	0.625753363674058	-0.768487754813299	-0.010939349586679	-0.00302591948556208
4.7	-0.00907935059944862	-0.00530217633929302	0.498689045700294	-0.856414644545687	0.49880591463118	-0.856169681555593	-0.011960693418961	-0.00188848064287195
4.8	-0.01016817725392	-0.00454615973083466	0.359530245333503	-0.923360080362648	0.359823971508548	-0.923171065772131	-0.0127322177723809	-0.000445923237230668
4.9	-0.0108745479906785	-0.00396521101264302	0.211758665851912	-0.967938217235351	0.212018717198969	-0.967886884312752	-0.0130700506978063	0.00137335424982489
5	-0.0113579813743148	-0.00308587419251659	0.0586030449184219	-0.988757419322	0.0587614224803189	-0.988629355316496	-0.0124407118508648	0.0035639464153647
5.1	-0.0116008465374796	-0.00280384299827539	-0.0949787977988778	-0.985483523622362	-0.0946575048828795	-0.985420522552474	-0.0114119671668693	0.00521525815279861
5.2	-0.012230252144649	-0.00188275189142313	-0.246778594683765	-0.959094401949589	-0.246350648037654	-0.959216221778619	-0.0104866929413079	0.00736678157874318
5.3	-0.0126766570664804	-0.000835492433015024	-0.392842362098021	-0.909329004286917	-0.392552813266479	-0.909673781726325	-0.00873859437396488	0.00976789122446324
5.4	-0.0128463764931519	0.00108687256888252	-0.529626114570484	-0.837114181672091	-0.529489921225651	-0.83740405609318	-0.00626757203221328	0.0120967914557663
5.5	-0.0115136096610737	0.00282149601849944	-0.652479798118456	-0.744274829680328	-0.652429726134755	-0.744588842247259	-0.002049145829009	0.0134467157099808
5.6	-0.0111080996679742	0.00297876360839748	-0.760025514933766	-0.634677990148746	-0.760038841773515	-0.634848570115544	0.000776124882595337	0.0120328325562043
5.7	-0.0115887760900267	0.00397787939873796	-0.849780881846133	-0.508921753559547	-0.849756972614313	-0.509097126128709	0.00238365941628827	0.0116500479458922
5.8	-0.0118325266590966	0.00576082569763648	-0.918431764782841	-0.370473193437881	-0.918476582389072	-0.370765837662211	0.00406263561532537	0.0114354799669615
5.9	-0.0120666093301547	0.00783548625845879	-0.964508338075928	-0.223427247014125	-0.964628892630231	-0.223475282168487	0.00537619976329988	0.0115047485556316
6	-0.0104504726510724	0.0114853827577483	-0.987821554689956	-0.0717105086579834	-0.987818420316079	-0.0717793211660163	0.00829389966060894	0.0127091599273865
6.1	-0.00748488839437994	0.0120996388390669	-0.987439237777156	0.0831792842331768	-0.987442415542817	0.083075688293528	0.012309386825177	0.0102450564087579
6.2	-0.00585238156975011	0.012169250615991	-0.962133963998601	0.235863349890179	-0.962182188929046	0.235681235827855	0.0141418015994002	0.00665503467686299
6.3	-0.00497371092670073	0.0117810992015062	-0.913617165172858	0.382293663164342	-0.913641585508243	0.382164724231996	0.0145063397991964	0.00264661343684956
6.4	-0.00467998104434978	0.0116703655415042	-0.843336295326436	0.519268769384546	-0.84332754168734	0.519054732910261	0.0132837305875243	-0.00103963027752735
6.5	-0.00429556324617188	0.0119697738024055	-0.75271332365647	0.644770156568441	-0.752814233477513	0.644597353592209	0.0116292649582172	-0.00374651303750337
6.6	-0.00345703021326619	0.0123786196920043	-0.642437137909039	0.753690002646796	-0.642586152339046	0.753543872452536	0.00966261994386263	-0.00581736610416297
6.7	-0.00219059148604464	0.012701321159	-0.517566354115312	0.843854944751053	-0.517687946264811	0.843697568273412	0.00768762038488476	-0.00706415564215125
6.8	-0.000472653754282232	0.0125828648891048	-0.380331143975618	0.913900837899191	-0.380542774060148	0.91382585303874	0.00582229764068691	-0.00804086554584302
6.9	0.00100668861075134	0.0117688561546526	-0.233686540989741	0.962217939822544	-0.233937878914395	0.96221447494768	0.00402695512033359	-0.00868389133917536
7	0.00257619481420839	0.0105783433084508	-0.0803764781718334	0.98638628420284	-0.0806353479493036	0.986356788891712	0.00233614216936818	-0.00948794301047835
7.1	0.00302389220608418	0.00906868189268202	0.0730860558386087	0.986130925410833	0.0728791331428923	0.986119232084929	-0.000190930368893061	-0.0097639325795092
7.2	0.00344945870473177	0.00800398521274167	0.225183872715968	0.962929806535867	0.224928320220724	0.96297440446916	-0.00226052769677711	-0.0089125574975961
7.3	0.00345468627763594	0.00675934317772775	0.372145105094231	0.916165937476971	0.371904796324902	0.916257329289339	-0.00395170956793706	-0.00768791467000203
7.4	0.00331489867629617	0.00576753434767295	0.510084414484054	0.84654135814695	0.509866431275727	0.84670402302415	-0.00539054322410955	-0.00613367023413443
7.5	0.00329831716167378	0.00472233016457767	0.634016032226817	0.756432594949406	0.633856469942171	0.756604752262967	-0.00576025763026741	-0.00427623251053288
7.6	0.00280937446121803	0.00305818708286751	0.743714990591567	0.649762045263852	0.74349981882828	0.649923287034652	-0.00610371360976323	-0.00365299004254337
7.7	0.00127160621582391	0.00241975617258007	0.835733803155405	0.526280779158412	0.835583060634132	0.526476054591527	-0.00706032714672532	-0.00221557722793789
7.8	4.9080736192368E-05	0.00266473639207214	0.907221637970066	0.389777742807893	0.907101200678454	0.389999632889678	-0.00732538481348189	-0.000216691283884141
7.9	-0.00145905108450617	0.00376384780943876	0.956001332787299	0.244248049385912	0.955961347087325	0.24447347748332	-0.00723941738398801	0.0026120972389183
8	-0.000485838875374326	0.00658691964978426	0.9826427333258	0.0938999038453309	0.982713535942235	0.0941919019967697	-0.00502707236687725	0.00627558564750934
8.1	0.00125572895675933	0.00648970385381475	0.985775490170792	-0.0606902679888626	0.98590027367578	-0.0604190995422548	-0.00118910968733151	0.00640001396994034
8.2	0.00188375291339346	0.00612298166037393	0.963717559794749	-0.21323116572866	0.963784190669239	-0.21293532344918	0.000647749642171838	0.00561504827613462
8.3	0.00199551347037536	0.00590383374941319	0.918417384669873	-0.359948548020286	0.918555541898398	-0.359692972044538	0.00202922036184648	0.00456006721122847
8.4	0.00168179904710818	0.00564406559974035	0.851617676700889	-0.497630080651077	0.851829715091831	-0.497430715331694	0.00240154853522068	0.00314350157411216
8.5	0.00126412527224693	0.00736304733135568	0.764380154636008	-0.624783350324084	0.764496328729872	-0.624657667655085	0.00261805591679371	0.00365552872042179
8.6	0.00323014825673224	0.00748625151792036	0.656727639013415	-0.735439524337971	0.656925481548286	-0.735254876186072	0.00483755160010327	0.00222959428975588
8.7	0.00383852140562598	0.00706287297114326	0.534583926357482	-0.827631774540776	0.534865648133443	-0.827523400191533	0.00514020918771228	0.000126270184764833
8.8	0.00472182253557389	0.00657135889905382	0.400006760903616	-0.900351632562309	0.400212683592161	-0.900297768270111	0.00457733007900683	-0.00168648131553536
8.9	0.00521646691494655	0.00568363562716719	0.255366040316839	-0.951945849319223	0.255607974544791	-0.951806190559275	0.00343705107850323	-0.00299860098812019
9	0.0058033528080228	0.00512418664719163	0.103296459036546	-0.979135008376611	0.103658061690293	-0.979106577921069	0.00233070490862418	-0.00286494189330839
9.1	0.00664206279323043	0.00434984413359699	-0.0486999036643647	-0.982457469236699	-0.048348350171296	-0.982472885719566	0.00211211945384867	-0.00251099829399522
9.2	0.00801684188596579	0.00365308712579685	-0.200423295201821	-0.963265704937402	-0.200068361354103	-0.963337026691499	0.00292069452540292	-0.00142683654912041
9.3	0.00993839503901093	0.00214046378126704	-0.347789373550613	-0.920477227218797	-0.347433090625996	-0.920542354959804	0.00523444604261907	-0.00110435969641014
9.4	0.0110749361103352	-0.000714657671669836	-0.486670666115455	-0.854520791930926	-0.486348626209721	-0.854669323318296	0.00727232545670707	-0.00219691835076151
9.5	0.0119340907660255	-0.00363321807524783	-0.61166751187007	-0.767884088921082	-0.611462452718516	-0.768021351221506	0.00971916279712839	-0.00399362733362394
9.6	0.00986050409979899	-0.00832044892458438	-0.723347987200835	-0.664684098729344	-0.723076319543996	-0.664868720059729	0.00864415790113089	-0.0080723009125975
9.7	0.00634912005860459	-0.0100603280283549	-0.817792794976931	-0.544181027645613	-0.81754768339058	-0.544449897245464	0.00628633310180176	-0.00934842230400125
9.8	0.00304109316191171	-0.0109704883172646	-0.891904823758374	-0.410369279282734	-0.891696972943726	-0.410643608233149	0.00425338168543519	-0.00969783752879553
9.9	-0.000969124793935636	-0.0104216823801335	-0.943688629356105	-0.267248568860109	-0.943577091250743	-0.267576562407346	0.0020904021974184	-0.00897083768368292
10	-0.00273901604630249	-0.00788309159233558	-0.974279919843788	-0.119175207623772	-0.974199905501732	-0.11955244160898	0.002523688513181	-0.00648910690762557
10.1	-0.00434181211756586	-0.00806548750062173	-0.981335136258435	0.0343872627366261	-0.981315738420826	0.0339106857025773	0.00320129758840805	-0.00803084957569135
10.2	-0.00724162431329238	-0.00706371309839146	-0.963503005457304	0.186127420591166	-0.963488470150226	0.185679118704287	0.00186954216842734	-0.008715220134886
10.3	-0.0100645692356675	-0.00491447859015809	-0.92277708719652	0.332760284460169	-0.922912022799052	0.332222066617268	0.000270352342680009	-0.00899033477273317
10.4	-0.0126630350270481	-0.00209506350181859	-0.860728007969483	0.471217146168323	-0.860991851609251	0.470683153539212	-0.0016877750577818	-0.00867937819939982
10.5	-0.0138268134705467	0.0031219393642991	-0.777828237064126	0.600589368232632	-0.778110479551877	0.600203430308924	-0.00221279339747613	-0.00653357248909971
10.6	-0.0117618407318926	0.00679418664523603	-0.673724139191679	0.713649678145516	-0.674149390910085	0.713307592285889	-0.000367912778653907	-0.0062578286559242
10.7	-0.00933438893533576	0.00897357569812598	-0.55493790164569	0.80882810711267	-0.55534810489919	0.808541484032883	0.00113662693106208	-0.00773980046077736
10.8	-0.00733334678624503	0.00968593724291226	-0.423020968821058	0.884869680464847	-0.423529555574236	0.884641876687743	0.00104322674892034	-0.0102569744955046
10.9	-0.0060600625753579	0.0109020876068768	-0.280632600289977	0.940318740384646	-0.281118907831539	0.940268387030402	-0.000578246980335878	-0.0119487547154563
11	-0.00373516539950357	0.0118923736204077	-0.129964460886096	0.971407238525579	-0.130508357186571	0.971404378784555	-0.00182744979856103	-0.0128916391906828
11.1	-0.00155527505678185	0.0124581916429516	0.02092536547758	0.97885496906599	0.0202996113954248	0.978938156699156	-0.00361512724164773	-0.0138382802946667
11.2	0.00109574684851771	0.012492989210264	0.171980376666807	0.964233820937194	0.171463840792634	0.964436191486775	-0.0052064729040913	-0.014085145170253
11.3	0.0037470843707355	0.0119614897099419	0.319492124473914	0.926097698358302	0.319064725140372	0.926359337629522	-0.00656231127535342	-0.0139462920214418
11.4	0.00593671781107007	0.0110112368383512	0.45962575440338	0.864691483451779	0.459164170661613	0.864950720786643	-0.00801640537240004	-0.0129525752927843
11.5	0.0095632879986998	0.00990369731348439	0.586175463456865	0.782457657241695	0.585819732506506	0.782873068603678	-0.00735557254965204	-0.0119418649687833
11.6	0.0110543090856795	0.00584155810045845	0.700575622625598	0.683695173243883	0.700309748986079	0.68417312386498	-0.00888111278166388	-0.0132786266472993
11.7	0.0111555151781803	0.00330018483406962	0.798676409311818	0.566731246032758	0.798438236837681	0.56715136077121	-0.0113520127983732	-0.0126039882964666
11.8	0.0105100337975307	0.000775120180804704	0.876762856906546	0.435553364857216	0.876579480774717	0.436103126066457	-0.0138019154207423	-0.0111445964602755
11.9	0.00878344998615074	-0.000177814043255062	0.932663671513714	0.294693592902692	0.932625247564177	0.295234854953632	-0.0165346633512897	-0.00770608807447664
12	0.00935074912682476	0.000814733145137029	0.968091441843822	0.148479052099232	0.96807812080889	0.148956850705328	-0.0151432976793779	-0.00230043792851613
12.1	0.010422340948761	-0.00174716364586353	0.980132078662809	-0.00456770194519745	0.980106857815811	-0.00409606150529491	-0.0126854441723363	-0.00162046573355301
12.2	0.00949110352384227	-0.00421753146820025	0.967121751036515	-0.156545305046297	0.967227506349032	-0.156109259240057	-0.0117316061602869	-0.000973907303957805
12.3	0.0080455044732478	-0.00631376473934745	0.931173893605105	-0.303987263396088	0.931358279185472	-0.303629826713173	-0.0108135306421714	-0.000766170466225666
12.4	0.00507093424019969	-0.00829566097744015	0.874155696817664	-0.444258240599842	0.874287079509602	-0.443883681371942	-0.0109919513183805	-0.000885090857382537
12.5	0.00222464314078867	-0.00748966551137214	0.795238896178227	-0.576677547906122	0.795696549267924	-0.576284248631884	-0.0109133767985791	0.000916252686783437
12.6	0.000866362075607187	-0.00808534202140285	0.694726836797352	-0.69267423010277	0.695072697743553	-0.692364777935825	-0.00929301390263166	0.000359340388126355
