# GHZ S RI R 50
0.2	-0.000404066827424035	6.20373672611998E-05	0.948491193680928	-0.308002125900844	0.948265031081608	-0.308143894176542	-0.000248393411434442	0.000224522540900453
0.3	-0.000467338303612891	0.000351996436450993	0.888423220902478	-0.451613875615673	0.888285857835937	-0.451667006556379	-0.000282172192163351	0.000130940350308515
0.4	-0.000161771418408396	0.000463462063676269	0.806769925646416	-0.583753653817045	0.806809941822783	-0.583893171019236	5.34879899840289E-07	0.000101816815067952
0.5	-0.000241224520481566	0.000386203443688832	0.705976425538639	-0.70166115204725	0.705865911512271	-0.701756875506384	0.000143416720732704	-0.000261434941403304
0.6	-0.000395657529158759	0.000579128025210127	0.588248160873558	-0.802597967562951	0.588058790652837	-0.802600822949811	-0.000114307399706573	-0.000355621980648627
0.7	-0.000320926868179627	0.00102338960021159	0.456172726686902	-0.88380762801171	0.456098769552528	-0.883841945069874	-3.66990144236405E-05	-0.000453267300905328
0.8	-1.4479908181504E-05	0.00107173296376683	0.313243005015655	-0.943609138702265	0.313124650889387	-0.943522495540522	-7.10374931511277E-05	-0.000586891788966284
0.9	0.000242925443702964	0.00140297572692973	0.162956716134126	-0.980364934722798	0.162807952463563	-0.980322121166445	-9.90320348708163E-05	-0.000743939462385143
1	0.000667877202737052	0.000909170786346424	0.00884794320266119	-0.993575518407035	0.00873004379960973	-0.99354588304351	-4.26630820300181E-05	-0.00155002883577322
1.1	0.000141628097668112	0.000949434674612523	-0.145056955799864	-0.982681786046178	-0.14570345077328	-0.982646576714882	-0.00142474138935862	-0.00174684450922789
1.2	0.000385735626961279	0.000668825878478246	-0.29648709218886	-0.947731840661258	-0.296480145205684	-0.947787420265404	-0.00183985162618641	-0.00110405069900187
1.3	0.000691305724860875	-0.000310979488286383	-0.439726642445866	-0.889936953158221	-0.439818564762478	-0.889961363951062	-0.00127699879196823	-4.97624829393424E-05
1.4	0.000851466529416767	-0.00193318912713253	-0.572216508999221	-0.810889882018733	-0.572290167758902	-0.810790508740034	-4.16963847267368E-05	0.000183213301391993
1.5	0.000520245418005562	-0.00268452151506226	-0.691351696560085	-0.711864062156342	-0.691376239290706	-0.71179214966807	0.000745344125760748	-0.000269990009472596
1.6	0.000954147618798214	-0.0027278112154614	-0.792588214717472	-0.595944347330527	-0.793016640178432	-0.595444950971246	0.00127087930677211	-0.000393710127072827
1.7	0.00127199259610453	-0.0032605999476758	-0.875026402565283	-0.465721590333472	-0.875330067487342	-0.465232972108799	0.00147219728987294	-0.0012846937509232
1.8	0.00101922002576026	-0.00380846589657566	-0.936657433869114	-0.323921927123929	-0.936672848145662	-0.323912491216548	0.000953259903216534	-0.00229705971478387
1.9	0.000732937067182018	-0.00424692818964574	-0.97552834184251	-0.174469112359042	-0.975572726710413	-0.174521741117006	0.000265357758157777	-0.00328644031298786
2	-0.000649240919122163	-0.00470063305054464	-0.990033533946103	-0.0214551476713988	-0.990128179419172	-0.0208075656957871	-0.00188147297206515	-0.0038597444167374
2.1	-0.00113135022603852	-0.00370937463051212	-0.981089484378506	0.133052667831161	-0.981188361295126	0.132569837921683	-0.00277652529502251	-0.00237495736592432
2.2	-0.00147833884119584	-0.00376700808811447	-0.948826258091933	0.282826137826991	-0.948865054385377	0.282959480334283	-0.00280322308121129	-0.00197532485864798
2.3	-0.00207098232743554	-0.00365726103346256	-0.893413941635176	0.426513521121783	-0.89325065408578	0.426601903777536	-0.00306028192236173	-0.00187949423149759
2.4	-0.00282396269717284	-0.00354588541002426	-0.815677602444022	0.560328865688666	-0.815967597118021	0.559867971458719	-0.00327178632151666	-0.00209904903842008
2.5	-0.00404595257371069	-0.00339033259697266	-0.719293011531521	0.679398889116178	-0.719593702811368	0.679018883534744	-0.0043129089919586	-0.0030549208738101
2.6	-0.00520041584352433	-0.00181792494901329	-0.605998727783582	0.782709371883298	-0.605919572797994	0.78265028806553	-0.00567293618880806	-0.00195298962773741
2.7	-0.00496814084044303	-0.000331015402587534	-0.477044590444628	0.867205979383964	-0.477015213316372	0.867220093786612	-0.00587198051913745	-0.000744827498727177
2.8	-0.00425702107347062	0.000578906924594974	-0.336946956100276	0.930525755536278	-0.336829233183081	0.930610292568314	-0.00535567826520647	0.000352106733408215
2.9	-0.00288614816973883	0.000945936180816989	-0.188805671435808	0.971352180492308	-0.188801364274092	0.971406846620777	-0.00437746207009449	0.00124362396089148
3	-0.00180387327046309	0.000945556588988788	-0.0358914244361182	0.989438784234889	-0.0359558235473382	0.989509916813496	-0.00314610832874347	0.0020636230892165
3.1	-0.000196792620026078	0.000595297896676612	0.11774805745142	0.98306266347376	0.118394872727629	0.98314529563841	-0.00127106231581124	0.00247447535827067
3.2	0.000592600365889246	-0.000379230820523745	0.269333661978105	0.952559427991424	0.269323624044282	0.952598925955719	-4.46273643528561E-05	0.00193329577920299
3.3	0.00138446351971297	-0.00135924305407394	0.414409773880091	0.899079109279816	0.413787372554991	0.899358478178606	0.00114605199765361	0.0012160513273334
3.4	0.00155933877381207	-0.00254455708943141	0.548451604081598	0.824548539918316	0.548366435061143	0.824663452147018	0.00200865745341346	-5.27122073241815E-05
3.5	0.00140046785076054	-0.00323971049617311	0.67023868268108	0.729381810426643	0.67025283734305	0.729408022241599	0.00182436179237349	-0.00100778656859158
3.6	0.00164243664993357	-0.00377739751298372	0.774420923348771	0.616600921850778	0.774843442917053	0.616208397305844	0.00240357824207004	-0.00147735392708267
3.7	0.00169786420003389	-0.00492109226599778	0.861003708973375	0.488659392460329	0.861010356627581	0.488785802389679	0.00271974238685311	-0.00269745497569109
3.8	0.00110982965664346	-0.00592908662947961	0.92649545501508	0.349206186473933	0.92652330370484	0.349389409755425	0.00236771365060981	-0.00412629800964994
3.9	0.000737445112537612	-0.00695836795349477	0.969786992441854	0.200458921363926	0.969687135613367	0.201046266741729	0.001302417518899	-0.00593504201330214
4	-0.000888750921902236	-0.00773473030169546	0.988547692932635	0.048071019044698	0.988629499107035	0.048114168651978	-0.00123094951519149	-0.00726799723456262
4.1	-0.00161663769924456	-0.00747255785197126	0.984300404735547	-0.105201101998315	0.984238140035582	-0.10513732771064	-0.00319778311258391	-0.00665354351829477
4.2	-0.00258654373611999	-0.00781012575348881	0.956113077810161	-0.257343114618035	0.956304698402924	-0.256773455558664	-0.0045537435451022	-0.00641426871582865
4.3	-0.00360112923860085	-0.00821618510097431	0.904970035647389	-0.402198217508991	0.904970851198567	-0.402179689933888	-0.00602964911930891	-0.00625066674595752
4.4	-0.00489108763570332	-0.00838741469870682	0.831474410090685	-0.537661588758211	0.831394480474196	-0.537645901352524	-0.00748117976205181	-0.00594805074348842
4.5	-0.0065891945663964	-0.008874595814733	0.738485357733415	-0.659729681572984	0.738361364506574	-0.659584129108319	-0.00974819303731384	-0.00607338639333273
4.6	-0.00862567989867898	-0.00772931832323354	0.627697856000163	-0.767073290050623	0.627682442424647	-0.766843760795689	-0.0123763003812522	-0.00413435481197944
4.7	-0.00976411326704503	-0.00700972750098161	0.500743986281895	-0.855640966086835	0.500860363129227	-0.855395657439972	-0.0139725786056288	-0.00211514801647816
4.8	-0.0109958240327883	-0.00589134310536946	0.361522701713755	-0.922966253217312	0.361816151972853	-0.922776578003234	-0.0149276648650637	0.000261631321559026
4.9	-0.0116041828852117	-0.00496548503069084	0.214071429657689	-0.967556555808675	0.214331391597796	-0.967504602200341	-0.0149733220281872	0.00290707910372856
5	-0.0122329988843732	-0.00382730501422181	0.0618846971576341	-0.989826438186542	0.0620428610420945	-0.989697697410792	-0.0142984018021352	0.00580838086962836
5.1	-0.0118427194560694	-0.0029006474223369	-0.0932035075813797	-0.987625553321686	-0.0928817035273709	-0.987561787266967	-0.0119589558117079	0.00867025430124527
5.2	-0.0116704386624733	-0.00225878444951672	-0.245570788091158	-0.961080193175525	-0.245141935704661	-0.961201493263078	-0.0092550750556487	0.0104470878659769
5.3	-0.0116478030389709	-0.00198669605330362	-0.391809099546569	-0.91152542232577	-0.39151844776089	-0.91187022706014	-0.00638134633577661	0.011366328828288
5.4	-0.0120083152817091	-0.00138390106641405	-0.529010390037867	-0.840106696477854	-0.528873273779854	-0.840396923088469	-0.00418947564894152	0.0113433043410336
5.5	-0.0131174381123259	0.000192082717317415	-0.65402233672719	-0.747284852258359	-0.653971837224315	-0.747599863837349	-0.00354426991936208	0.0122851593487786
5.6	-0.0120587234122187	0.00249896570741043	-0.761528105131843	-0.636039798487612	-0.761541445048935	-0.636210728701078	-0.00019374888322902	0.0139329134940866
5.7	-0.0114414450286532	0.00338657799925643	-0.85106782630841	-0.510215716944889	-0.85104379487606	-0.510391391950145	0.0031034710578788	0.0136182497282887
5.8	-0.0109958006800009	0.00473263997897393	-0.920084424010002	-0.371721209029175	-0.920129172757287	-0.372014468582004	0.00597753594655185	0.0125492282381903
5.9	-0.0104019636530117	0.00555410623547438	-0.966917601288477	-0.22399341796934	-0.967038456745357	-0.224041574200182	0.00820271049085036	0.0103286965077251
6	-0.010899481854963	0.00687850987426434	-0.989161128462312	-0.0706838332092155	-0.989158067861059	-0.0707527370843649	0.00752031200447694	0.00822279110700445
6.1	-0.00969539666922075	0.00949341961560392	-0.988140664020666	0.0829749717157413	-0.988143816520245	0.0828713035170659	0.00834026934676659	0.00883845376971309
6.2	-0.0079145901746219	0.0107828507900064	-0.963521788530745	0.235688337579861	-0.963569985061636	0.235505958916692	0.0102026996366783	0.0077123586091613
6.3	-0.00641664133579996	0.0113985745051182	-0.915156568404582	0.382737320366204	-0.915181003926847	0.38260816962254	0.0117157051772031	0.00558805645248714
6.4	-0.00492427603501546	0.0115225836338252	-0.844120893728365	0.520229258532994	-0.844112217630161	0.520014965211729	0.0125428231665401	0.00239735511200605
6.5	-0.00395362634576021	0.0112455819568248	-0.753388623212315	0.644216329714241	-0.753489398628305	0.644043412576258	0.0121008746974244	-0.000999951558079833
6.6	-0.00261930636600622	0.0110829611279053	-0.644628360821503	0.754206311602135	-0.64477745161628	0.754059713139201	0.0112651635733216	-0.00399642548561058
6.7	-0.00166200302795908	0.0105113465010654	-0.519139392935333	0.84544624700573	-0.519261171785056	0.845288461595291	0.00916439167139015	-0.00684477446710821
6.8	-0.00067118292904811	0.0102057644244943	-0.381125657090819	0.915600525355069	-0.381337681802316	0.915525381246429	0.00625597611847714	-0.00853529639384536
6.9	0.000276743452266486	0.00958617809044978	-0.234467047316805	0.963356100909105	-0.234718710991354	0.963352507116912	0.00337400844571592	-0.00913701269768696
7	0.00147447328753636	0.0092174364430551	-0.0821263000021901	0.988983099974665	-0.08238583829397	0.988953122176125	0.000829359894016333	-0.00878514594029125
7.1	0.00271168239700953	0.00810163714335881	0.0735544390313746	0.989449905182773	0.0733468138124059	0.989438218685696	-0.000940065162116889	-0.00824449220970176
7.2	0.00350826650362037	0.00682138077154359	0.226423801482693	0.965406970883224	0.226167581685155	0.965451856561443	-0.00258483290136442	-0.00735206516091562
7.3	0.00369087985233403	0.00535019016723685	0.373499066457469	0.918290277620937	0.373258197604142	0.918382009002837	-0.00401189262283163	-0.00610359275673844
7.4	0.00359883252099994	0.00402699175502604	0.51172012694436	0.849202573963906	0.511501459368319	0.849365759045544	-0.00530340073351892	-0.00469768971416148
7.5	0.00279988433322246	0.0029519460093316	0.638305278063683	0.758590016099483	0.63814533471284	0.758763249784294	-0.00644885064887282	-0.00250918948550501
7.6	0.00279811284772682	0.0023531279177763	0.74749668779223	0.649270602542124	0.747281432643238	0.649432879239342	-0.00568795683032482	-0.000245272082393174
7.7	0.00229915185565622	0.00153572100693724	0.83871744097865	0.525343217414747	0.838566860573652	0.525539257013667	-0.00465140368842838	0.00100588081043923
7.8	0.00195158547679276	0.00110646685419265	0.910096206160025	0.388512526246125	0.909976023861842	0.388735177801981	-0.00327304757443648	0.00157825887258927
7.9	0.00139279582398283	0.000627592394304636	0.959206659889417	0.241920874268276	0.959167268084865	0.242147003794547	-0.00231087770881265	0.00115401750382634
8	-0.0002265798013732	0.000483789734340802	0.983617274324373	0.0895842351189731	0.983689415323066	0.0898760840090254	-0.00395957916667014	0.000700503875074558
8.1	-0.000591875269679278	0.00237762686124234	0.985352181173139	-0.0631693752117799	0.985477617067685	-0.0628985968606955	-0.00415741556727629	0.00358559774675972
8.2	-8.81058515748103E-05	0.0032476352547774	0.963623828435794	-0.215390471603588	0.963691122621077	-0.215094660627965	-0.00289438076501979	0.00516531327361677
8.3	0.000202471361894466	0.00408803167240994	0.918066089937916	-0.362513936848391	0.918204984515866	-0.36225855555748	-0.00120078405516657	0.00610396494637705
8.4	0.00118386443057942	0.00464770786232165	0.84981312345811	-0.500364867086409	0.850025784794776	-0.500166241123066	0.00111498335628792	0.00593314897715785
8.5	0.001092284716082	0.00438381776037828	0.762197699931637	-0.62491020585263	0.762313872966929	-0.624784902177046	0.00160992997889591	0.00396704785907432
8.6	0.00163886708829963	0.00586676112646805	0.656209659044434	-0.736275685232803	0.656407734154956	-0.736091174170519	0.00166131562789725	0.00479978580955858
8.7	0.00310040630164888	0.00633578908990459	0.533307255721172	-0.829022114986739	0.533589314308856	-0.828914210708219	0.00335838233648916	0.00489553479097806
8.8	0.00475260640482182	0.00612867024712041	0.397955513076838	-0.901192811478645	0.398161543525523	-0.901139413886651	0.00494902925579935	0.00415815405762447
8.9	0.00641491271556981	0.00539394170725576	0.253597333264972	-0.951435079221728	0.253839257217692	-0.951295942151479	0.00678171401764051	0.0028440380956793
9	0.00800172973265742	0.00363423007209586	0.103089287563922	-0.979923939317747	0.103451178739261	-0.979895592906503	0.00785599776266967	0.000489770570863727
9.1	0.0093792176190082	0.0017259469883733	-0.0511608258255929	-0.983415536828423	-0.0508089245730745	-0.983431831698234	0.00856908732571744	-0.00153092317902614
9.2	0.0102138947114588	-0.00115673892765316	-0.202999628338826	-0.962652468061346	-0.202644913629392	-0.962724739323332	0.00867688275414007	-0.00407072526828037
9.3	0.00990509316012648	-0.00373928683718273	-0.349475222283061	-0.919192454923288	-0.349119293201336	-0.919258277990588	0.00776295098535411	-0.0059963105607119
9.4	0.00918621586939374	-0.00636270228628437	-0.487623104159152	-0.854106416601859	-0.487301183666198	-0.85425530300026	0.00633057818128155	-0.00756644087917463
9.5	0.0069624929478477	-0.00733741912792997	-0.614987158180943	-0.767197900279022	-0.61478220171967	-0.76733600855953	0.00343618871859867	-0.00651518277401267
9.6	0.00694344495264189	-0.00842409930134762	-0.725304556351687	-0.661533400028179	-0.725033764718707	-0.661718899593251	0.00429535503235585	-0.00472969306585121
9.7	0.00539954263867334	-0.0102586859790256	-0.818405576346598	-0.54125007788749	-0.818161503764472	-0.54151933650162	0.00497438033106623	-0.00520464203629336
9.8	0.00318587698740436	-0.0114489970985104	-0.892233910333042	-0.407808238393845	-0.892026911760814	-0.408082873367843	0.00510138138801401	-0.00588498051248781
9.9	0.000711301662130599	-0.0119965799734535	-0.944467571136895	-0.264001222217405	-0.944357164281519	-0.264329549566162	0.00509755496158097	-0.00737243547814332
10	-0.00330333911749852	-0.0117461416866216	-0.972320608551385	-0.114129765368937	-0.972242635872977	-0.114506405458596	0.00199971252285955	-0.00825921328196008
10.1	-0.00528747890094538	-0.0091204570488134	-0.977994334398076	0.0367017089313182	-0.977976180371319	0.0362266649835264	0.0014564533667671	-0.00578608670531747
10.2	-0.00663057454826007	-0.00773192030596907	-0.960641586768823	0.187760668691234	-0.960628069032455	0.187313477046853	0.00236497952737675	-0.00538170685195245
10.3	-0.00820986951608065	-0.00582087814892648	-0.919554275819204	0.334444064633971	-0.919690341798631	0.333907565189892	0.00292649371139159	-0.00607780375766563
10.4	-0.00924575398555864	-0.00413745320073981	-0.855722166927782	0.472395212923475	-0.855986852292605	0.471864226065465	0.00328769944406887	-0.00809164997115205
10.5	-0.0106133253769729	-0.00231248578165895	-0.772808252725743	0.59765466968278	-0.773089131470626	0.597271210350363	0.00165564511685795	-0.0107773535322226
10.6	-0.0112398247692345	0.000574672504933793	-0.671525944329909	0.710765544163791	-0.671949500533474	0.710424549750861	-0.000782164202912202	-0.0114174729873239
10.7	-0.0109345394907952	0.00367244954298124	-0.553049598075213	0.806232209595537	-0.553458485418921	0.805946560855546	-0.00250865348535084	-0.0112644160349524
10.8	-0.00951125294627973	0.00641375663166209	-0.421342938305691	0.881729042195925	-0.421849717719812	0.881502147131856	-0.00375605651108938	-0.0108176675128669
10.9	-0.00748327425526809	0.00845474366350814	-0.280353057805506	0.935876158273833	-0.280837164817432	0.935825530512556	-0.00466973127579917	-0.0107189878508587
11	-0.00504036790288379	0.00986555499670543	-0.132404469154317	0.969280691839634	-0.132947367590925	0.969276338779478	-0.00578258860969595	-0.0103413587309721
11.1	-0.00191631711311145	0.0107172348277528	0.0205668089608686	0.977703332467563	0.0199417672866547	0.977786208283341	-0.00610546205685816	-0.00998245956017876
11.2	0.00112745244838031	0.0103631494514029	0.171462305998893	0.962154346683579	0.170946867783023	0.96235619905577	-0.00642170671559103	-0.010060288375643
11.3	0.00397671886650833	0.00953583704322044	0.317875696184428	0.924065110231624	0.317449134052795	0.924325718095975	-0.00662712202149955	-0.0102071304008265
11.4	0.00643306210339909	0.00764895419276893	0.457310069381885	0.864412118755708	0.45684860764697	0.864670101051507	-0.00727006481345578	-0.0106912479944625
11.5	0.0077519702767099	0.00653802633384161	0.586848453761773	0.782291771644287	0.586492895408722	0.782707530199242	-0.00958376289219229	-0.00959264492099705
11.6	0.0104256476667326	0.00466283067081435	0.699639899572741	0.681298225299279	0.699375180993704	0.681775319981619	-0.00913692949815275	-0.00758492733812779
11.7	0.01192290375078	0.00188432781520794	0.796432956941481	0.565316577789738	0.796195366545719	0.565735521285108	-0.00867468299656117	-0.00729494552723562
11.8	0.0124351496308434	-0.00113247556271007	0.874675439927005	0.435273224376463	0.874492056752837	0.435821738770081	-0.00868534987305995	-0.00748195232209101
11.9	0.0121922964120638	-0.00420854783474716	0.931698381977927	0.294091835957959	0.931660157887399	0.294632499272269	-0.00942553662164299	-0.00860792187023348
12	0.00978273478720003	-0.00677851173232552	0.964764308889436	0.146096807607105	0.96475194007978	0.14657285079568	-0.0131857158888228	-0.00881319093901906
12.1	0.00898666883568707	-0.00733038320843493	0.97604941264834	-0.00374175936031261	0.976023908651842	-0.00327210610107718	-0.0147253200028034	-0.00563379442099655
12.2	0.00761783042910252	-0.00910791819895724	0.964242723218283	-0.155006774596716	0.964347673984062	-0.154571988862495	-0.0151558707607181	-0.00336931967851136
12.3	0.00564704555261297	-0.0101438132291002	0.928528646170838	-0.302603208911813	0.928712296995053	-0.302246753433916	-0.0151449534527308	-0.00118675460903187
12.4	0.00352628765559628	-0.0109482385606316	0.870135245689215	-0.442473835646941	0.87026612799861	-0.442100985238767	-0.0142543877022611	0.000384990175063007
12.5	0.000582121061444437	-0.0114172366262559	0.792082322368225	-0.570538698481701	0.792535858102653	-0.570146413286606	-0.0148799783529712	0.000666594841440562
