# GHZ S RI R 50
0.2	-0.000115866130480905	-0.000621618933674104	0.951355961452563	-0.307263216422633	0.951129458367516	-0.307405699640869	0.000123365095540864	-0.00055131495023952
0.3	-0.000688447843018037	-0.000385609788168551	0.892108477719916	-0.45126849328035	0.891970788869483	-0.451322063617208	-0.000396327055326942	-0.00080950160836981
0.4	-0.00105677642486128	3.78513921604623E-05	0.811338198370825	-0.584350135882732	0.811378684802097	-0.584490132407418	-0.000819662275413805	-0.000634311133912097
0.5	-0.000927951744445579	0.00121696483518951	0.710464349578841	-0.704187719224306	0.710353416286589	-0.70428407238822	-0.000489605053163935	0.000240391384555769
0.6	-0.000225604433970505	0.000785745649882999	0.591887630402698	-0.805596396868292	0.591697393837842	-0.805599486683519	0.000203930836250093	-0.000581375711897384
0.7	-0.000580060346485883	0.000906387170251112	0.459703859364417	-0.88764672159623	0.459629575624306	-0.887681314645529	-0.000158841047896266	-0.00121788779150555
0.8	-0.000621829521600264	0.00092513721220252	0.316125368444944	-0.948648436597599	0.316006236841184	-0.94856143417333	-0.000684606306692902	-0.00159478548388994
0.9	-0.00126515776669333	0.00123976404282662	0.164346239180615	-0.986427888889179	0.164196529883602	-0.986384864239002	-0.00195638860020556	-0.00191233006955556
1	-0.00144898096245697	0.00334056938098846	0.00861495489142583	-0.99894558323739	0.0084964269338116	-0.998915754454866	-0.00301227727330082	0.000204473694114344
1.1	0.00118490907529631	0.00310628395252584	-0.145272344938164	-0.988433420967514	-0.145922585855373	-0.988398416851471	-0.001136182313033	0.000344610638920408
1.2	0.00174103386586233	0.00101048962453062	-0.29823223464151	-0.954032683701748	-0.298225229917455	-0.954088627554692	-0.000814081323438182	-0.000474939874603518
1.3	0.00197794396400899	-0.00148407382501489	-0.443164826641757	-0.895823576344834	-0.443257390437693	-0.895848110396618	0.000301249432167106	-0.000867057414891461
1.4	0.00141673862195409	-0.0039707856367483	-0.576758742632494	-0.815551786673807	-0.576832776011553	-0.81545169378282	0.00134613625023082	-0.00189704453577162
1.5	0.00213577870313327	-0.00543429415942993	-0.695760903295214	-0.716436632118779	-0.695785604792579	-0.716364259817927	0.00365532014997017	-0.0037406717492446
1.6	-0.000399919356932359	-0.00692793011692443	-0.799427534208346	-0.600363576018314	-0.799859177695446	-0.599859839403948	0.000982056074932992	-0.00643445808096612
1.7	-0.00155551674055355	-0.00517171242227446	-0.88319234433954	-0.468010317798839	-0.883497651699557	-0.467517059741565	-0.00113727968871969	-0.00551340430075942
1.8	-0.00194094500746633	-0.0039401325980967	-0.945086003380065	-0.324231183231363	-0.945101519685599	-0.324221632193019	-0.00254079703279248	-0.00464936538559149
1.9	-0.00190835797025068	-0.00203462478973223	-0.983814741989537	-0.173527802116802	-0.983859611483282	-0.173580748405877	-0.00341625797197597	-0.00273473280487017
2	0.00110056479531649	-0.00152290761102303	-0.999875299943614	-0.01895412612187	-0.999969106117525	-0.01829988569403	-0.000777239844312489	-0.00163913214933741
2.1	0.000148138022435154	-0.00443268713446526	-0.989867701460799	0.139514243123364	-0.989970081081105	0.139027269415338	-0.0017176037398389	-0.00448457121707657
2.2	-0.00189775210697613	-0.00425726340552939	-0.95546465063046	0.290955943025366	-0.955502993290463	0.291090686129252	-0.00381821642097675	-0.00413933963203494
2.3	-0.00313350041840671	-0.00351856481727924	-0.898358359540339	0.435777633916348	-0.898193121515916	0.435865743660803	-0.00524555660160869	-0.00323400703518858
2.4	-0.00460505901749291	-0.00210734940907267	-0.819231736697114	0.571010028537794	-0.819527525262748	0.570546943352435	-0.00663335042087187	-0.00143077937269048
2.5	-0.00304186164802158	0.000460680192057662	-0.719289531952807	0.692469101220047	-0.719596600223754	0.692088538061902	-0.00441088804410768	0.00132481223619044
2.6	-0.00221474401766303	-0.00148383059150864	-0.602106468320558	0.793961145588984	-0.602027387319323	0.793900876106576	-0.00234818942136844	-0.000923615697055035
2.7	-0.00330059786950765	-0.00185521695573958	-0.471421798691932	0.877231567868855	-0.471392102109545	0.877245479303167	-0.0030564452155337	-0.0022450102431806
2.8	-0.00419585006327238	-0.00147301380824543	-0.329255604489279	0.939625030927732	-0.329136292935386	0.939708846367105	-0.00392318266797406	-0.00247071617075497
2.9	-0.00387845374606866	-0.000552208521847862	-0.178272949640178	0.978964168756418	-0.178267967261368	0.979019085337423	-0.00411363623491451	-0.00156400779039804
3	-0.00300489328277958	-0.000609290556672685	-0.0233584168103099	0.99238482818985	-0.0234220703621538	0.992456961254558	-0.00315673353989028	-0.00136602381200314
3.1	-0.00298490365585666	-0.000183715108890246	0.128718187413883	0.983850920831086	0.129367267540642	0.983926672632121	-0.00339568796006923	-0.00087217982841434
3.2	-0.00214865220348226	0.000281430151832371	0.280748068597617	0.951664091714563	0.280738455887073	0.951703793068281	-0.00269108514793101	6.87152372071447E-05
3.3	-0.000958896954310037	0.000306979070065513	0.425899563714988	0.895420831560433	0.425279604081814	0.895708143155669	-0.00146856326773592	0.000555190758039438
3.4	0.000213472597627076	0.000307358313685493	0.558538908073857	0.817476777131182	0.558455194066554	0.817592713553317	0.000335663972030173	0.000848773549097623
3.5	0.00242237518631866	-0.00158285846601429	0.676660497893819	0.721632234174067	0.676674896985116	0.721658267465232	0.00305867063659012	-0.00130677853758063
3.6	0.000860489590512391	-0.0034728715196565	0.781129383599273	0.608642358308843	0.781547901586916	0.608245277459074	0.00172804321521948	-0.00380624442427533
3.7	0.000384440546531296	-0.00361851185648252	0.866204877111977	0.478450243229903	0.866212982808997	0.478576510452785	0.000938593311378539	-0.00415197741593053
3.8	-0.000138162570678021	-0.00393337951205605	0.928945938033657	0.337832940284686	0.928975867721597	0.338015521963387	0.000160971587085506	-0.00458826122079024
3.9	-0.000211726604130451	-0.0036441768351531	0.969406709627969	0.18969444470008	0.969313316715194	0.190281332038715	-0.000830083089605032	-0.00430785709826683
4	0.00166272784393466	-0.00429265599841804	0.988431215302226	0.0378089847678872	0.988513417291235	0.0378512608180668	0.00101602175375005	-0.00465646269535834
4.1	0.000199559409036162	-0.00752118369716917	0.981119603027763	-0.11774762641669	0.98105827889752	-0.117683164026686	-0.000722480048200726	-0.00810555703159025
4.2	-0.00242321029411438	-0.00796293916779525	0.949248704397946	-0.268630500096357	0.949446907200217	-0.268065421410868	-0.00367140390333173	-0.00860452606102394
4.3	-0.00439736513380347	-0.0080584158376631	0.895902741300595	-0.411365594074764	0.895903778727808	-0.411347161788293	-0.00634037399822087	-0.00844614656902052
4.4	-0.0068453922963834	-0.00705390005624288	0.82150589482627	-0.545220193552972	0.821426495953237	-0.545203624427021	-0.00939148024426807	-0.00683681840797677
4.5	-0.00658741550281868	-0.00505039768904797	0.725264232716644	-0.667257183842138	0.725142965926539	-0.667110537658729	-0.00941679719773288	-0.00357705740007798
4.6	-0.0071435223602275	-0.00632252120677591	0.611701435867126	-0.769156553229301	0.611689327172292	-0.768928783548647	-0.00934674404429526	-0.00421689765657233
4.7	-0.00923204113328749	-0.00642591214246941	0.485473013391163	-0.853713589359165	0.485591309871618	-0.853472033741095	-0.0113295049087646	-0.00386731053310362
4.8	-0.0111517428593846	-0.00541522835638491	0.34709927922805	-0.918159226552386	0.347392081454207	-0.917974871218538	-0.0128957692127882	-0.00251452276745629
4.9	-0.012233131660679	-0.00407154056998362	0.199775870747033	-0.960018172246733	0.200033738060297	-0.959970000899463	-0.0137187299743752	-0.000213578067782838
5	-0.0123207154018688	-0.00310435792017657	0.0490513604069463	-0.976252955710707	0.0492087888220372	-0.976127985001147	-0.012811819565163	0.001792376369378
5.1	-0.0134096076449289	-0.00232005726769252	-0.100142412566987	-0.97228405053895	-0.0998248150155423	-0.972223932918524	-0.0130214057384414	0.00359541210629113
5.2	-0.0136391335292205	-0.000286636812134945	-0.249468637568972	-0.94542615900945	-0.249046860736462	-0.945549030566783	-0.0122673985577755	0.00689113451320436
5.3	-0.0131037143292114	0.00139925005793291	-0.392679040476196	-0.894956970393318	-0.392395298847895	-0.895298755373203	-0.00993946569543553	0.0103037019975233
5.4	-0.0114313224607899	0.00363044052492927	-0.525538247184072	-0.822450668653374	-0.525405341337153	-0.822736880281651	-0.00563420721435389	0.0135176305029153
5.5	-0.00829766599164357	0.00179726308135175	-0.64424186824389	-0.732714219729033	-0.644192963277494	-0.733023823681011	0.000993376810649646	0.0114689054793389
5.6	-0.0114137041110209	0.00118382046410852	-0.751342209772118	-0.62512670699295	-0.751355668667976	-0.625295060314942	0.000356551925097735	0.00876770188066892
5.7	-0.0124692776728615	0.00358793500057849	-0.839069684455547	-0.500672186082996	-0.83904637805876	-0.500845219184186	0.000988182510293538	0.00968304696247906
5.8	-0.0124739511427071	0.00614675994160968	-0.905609665901922	-0.364748730597563	-0.905653999855649	-0.365037204952808	0.00257550233097938	0.0105258502967442
5.9	-0.0117087814454429	0.00931683028744184	-0.950673090948524	-0.221614700700062	-0.950791888715642	-0.221662227146254	0.00481778488721318	0.0123459544494341
6	-0.00680617502170449	0.0106085785753371	-0.975949183116602	-0.0723199948983426	-0.975945984195574	-0.0723879830040361	0.0118800540501261	0.0117905399019732
6.1	-0.00738866843742953	0.00799033270680227	-0.974475508910609	0.0813680765762527	-0.974478569854656	0.0812658449998586	0.0131408203939782	0.00553679882755625
6.2	-0.00846686929669302	0.00943526669546975	-0.949307244514255	0.230573032989582	-0.949354418350899	0.230393339469733	0.0123484776625546	0.00269064405211899
6.3	-0.00836029409620613	0.0111108200664815	-0.902572873753198	0.373973384647076	-0.902596519206922	0.373846106205738	0.0116920057902824	0.00031627730796699
6.4	-0.00738304650039314	0.0129007232694205	-0.834988795343286	0.509461701233692	-0.834979290998596	0.509250347161256	0.0107408676595909	-0.00159684585730591
6.5	-0.00534516966731831	0.0134358684502631	-0.744628104428582	0.634333584619472	-0.74472723293107	0.634162764543583	0.0104052255533004	-0.00397969858746381
6.6	-0.00390113834905787	0.0136474697936384	-0.636786909046515	0.739652576441748	-0.636933055309211	0.73950784028623	0.00877299668343935	-0.00599451082728547
6.7	-0.00199180580379257	0.0135230953683312	-0.515855149878925	0.828948515020866	-0.51597406424332	0.828792522758738	0.00741313667374465	-0.00731035556740532
6.8	-0.000180550508603279	0.0128443533174328	-0.381783427017398	0.899338385600257	-0.381991776573234	0.899262894046854	0.0058718445982319	-0.0085793678583337
6.9	0.00139056130148301	0.0116991291151357	-0.237219140936361	0.948034540700021	-0.237467168281793	0.948029400145883	0.00447933417822328	-0.00945944307077227
7	0.00238249573415679	0.00964832668409147	-0.0877659215028306	0.970879586826592	-0.0880206484238884	0.970848278349835	0.00258556854001248	-0.0113043766729586
7.1	0.00200551543960197	0.0088337772071862	0.0609176729403541	0.973990272542743	0.060713605014488	0.973976381398032	-0.000692784162238327	-0.0112385043495657
7.2	0.00252570985021066	0.00825191134756547	0.211135221066886	0.95411133959091	0.210882187887871	0.954152389808145	-0.00269889573183242	-0.0101174732353091
7.3	0.00262472999120523	0.00731205295195978	0.356583834467022	0.910190966486177	0.356345169442453	0.91027834825433	-0.00435263762450796	-0.00878378490862168
7.4	0.00284220880738608	0.00674897910253038	0.49249388286098	0.843475970924328	0.492276261688626	0.843633735430944	-0.0055284791526723	-0.00693029268780788
7.5	0.00340711008716474	0.00513397025890812	0.615210401164623	0.759720325417731	0.61504950216881	0.759888143724966	-0.00535005695236485	-0.00594650481048929
7.6	0.00197463952610363	0.00375244332341344	0.72808821958412	0.657010440544486	0.727872002898558	0.657167110156284	-0.00696019250311749	-0.00548903345591611
7.7	0.000866598917829022	0.00393609143808755	0.821813085813024	0.535986040295466	0.821660261408087	0.536177623507135	-0.00812062543337716	-0.00311701820987667
7.8	0.000389508507340691	0.00457276294761407	0.895142419098015	0.40248730429526	0.895019027888992	0.402705821890807	-0.0081068057285594	-0.000302433589971016
7.9	0.0002394292573284	0.0061741520202029	0.947108434430163	0.260584375305731	0.94706451497791	0.260808028176773	-0.00671278505313157	0.00367113455602742
8	0.00446978782979704	0.00615285358839013	0.97989647708958	0.110901619546402	0.979962115901265	0.111194520105164	-0.000467627886785442	0.00564551566439211
8.1	0.00321308987188669	0.00251806522278779	0.985170819860395	-0.0446791673064872	0.985291025282399	-0.0444064202987766	0.00135100017340564	0.00165959768604575
8.2	0.00106201881415184	0.0024161039759374	0.966276904847476	-0.196651880039964	0.966338444920204	-0.196355232194676	0.000722946885439568	0.000529114723003885
8.3	-0.000774360751538412	0.00327515316978205	0.925143202356763	-0.344004027320144	0.925276939661986	-0.343745913430419	0.000115944875649813	2.69535388618072E-05
8.4	-0.00243072460694356	0.00564270942868838	0.862465366243656	-0.484571061060046	0.862674616527462	-0.484367533990028	-0.00121133063921259	0.000964010681656117
8.5	0.000238682360370319	0.00955088038907763	0.775404843512444	-0.615439049146767	0.775519516808495	-0.615311360201849	0.00208617100685234	0.00398550136854357
8.6	0.00220178371379178	0.00753507592842375	0.669730484564898	-0.72649554946497	0.66992579440961	-0.726307387285408	0.0048365232904609	-3.34955032045435E-05
8.7	0.00183967753947376	0.00779751142963821	0.550077609867265	-0.82192859924125	0.55035859360128	-0.821815221018738	0.00391082071338036	-0.0022987865253959
8.8	0.00267232207390075	0.00840230811286755	0.416250304604679	-0.898696128322127	0.416456441194609	-0.898638742985107	0.0025087110884503	-0.00354799066528883
8.9	0.00374674956586722	0.00898390656453665	0.270326234843888	-0.953646060197478	0.270567538598512	-0.95350218078142	0.000847311200129792	-0.00335420136485385
9	0.00686672560529526	0.00902487667673386	0.118659655589352	-0.981436476366028	0.11902225656472	-0.981402410660159	0.0015519627008062	-0.00185109954070678
9.1	0.00895317504627767	0.00691228717871362	-0.0327481320240772	-0.98981987495472	-0.032393977329458	-0.989829570015844	0.00233007540151121	-0.00216909143328187
9.2	0.0110577302224517	0.00460236033774652	-0.187082748705321	-0.974287308340251	-0.186723793101811	-0.974353693779106	0.00390626582773368	-0.00184336904141568
9.3	0.0123386170857424	0.00149840711104361	-0.33724858022355	-0.933626702941523	-0.33688823223735	-0.933687145058315	0.00614187600948934	-0.00239408772639474
9.4	0.0130699514925875	-0.00127559930032245	-0.477900949850803	-0.869011566503848	-0.47757397340805	-0.869156500018217	0.008654501746805	-0.0029637736108968
9.5	0.014001155505707	-0.00746846170240287	-0.605208263566556	-0.786880771789947	-0.60499857952495	-0.787016020992879	0.012504871663814	-0.00848077850519663
9.6	0.00772583613391966	-0.0112816606414448	-0.723487082219762	-0.684535440790604	-0.723208941833329	-0.684718590168642	0.00735002740233582	-0.0129882999256164
9.7	0.00377419088463327	-0.010852871719514	-0.822110428458663	-0.562911262824074	-0.821858217530742	-0.563180662939729	0.00396134633015102	-0.0126133865637842
9.8	0.000608205807640024	-0.0103262996904428	-0.899797732761277	-0.428087208700094	-0.899583220871539	-0.428362901567088	0.00146957419248394	-0.0115028341637402
9.9	-0.00217351455763683	-0.00772051447371065	-0.955829861969869	-0.28428010558776	-0.955712094092024	-0.284612070071157	0.00013566836242081	-0.00814208624871782
10	-0.00019005913084453	-0.0074645266093744	-0.992668588488655	-0.131719821748962	-0.992583034599338	-0.132103823038566	0.00509151502444754	-0.00725262960925734
10.1	-0.00480404666070731	-0.00960734567316886	-1.00031748482278	0.0275272013964638	-1.00029406681998	0.0270416823353256	0.00331524074733855	-0.0114653333383954
10.2	-0.0087032057871703	-0.00714926215482735	-0.98333677517634	0.183026927795901	-0.983318850828994	0.182570099020154	0.000628436858443906	-0.0111488222758023
10.3	-0.0112025840296924	-0.00382323539549885	-0.94338782025069	0.334135823559201	-0.943522360912417	0.333585927918745	-0.00116376510358144	-0.0102153963280546
10.4	-0.0126104533937149	4.72229409762771E-05	-0.881058977817665	0.478530854831038	-0.881326738815352	0.477984346198043	-0.00234140805861791	-0.00831708974785557
10.5	-0.0106928419407199	0.00395113701652004	-0.792954141253105	0.613016713433996	-0.793242236260182	0.61262326081076	0.000556424734830243	-0.00659013934684006
10.6	-0.00966549709111737	0.00407835071276276	-0.686069338758299	0.726527174890369	-0.686502272268166	0.726178811967624	0.0023436855274896	-0.00973793998946447
10.7	-0.00998607281388882	0.00554492310922192	-0.56512247556885	0.824236599867499	-0.565540495030562	0.823944714055819	0.00175602396872302	-0.0124250242529433
10.8	-0.00989170567552272	0.00755156709367415	-0.429462194587041	0.902744072084707	-0.429981025081478	0.902512861685283	-1.93409303206287E-05	-0.0143174663438256
10.9	-0.00884204463123698	0.0102299614463802	-0.281605343279622	0.958806946608495	-0.282100791733175	0.958757828224983	-0.00177732948312942	-0.01508079892684
11	-0.00649784970157549	0.0115165603477356	-0.128450929895919	0.986962834251806	-0.129003281791563	0.986961907543573	-0.00304812016648931	-0.0162377817689901
11.1	-0.00471192469982213	0.0133967589257741	0.0244739593260158	0.995876990656989	0.0238375509800628	0.995963665735583	-0.00562598237984316	-0.016554538560355
11.2	-0.00149675385811152	0.0144848445346409	0.179995523817289	0.980474929283762	0.179470854935053	0.980683551308499	-0.00728876000231725	-0.0160706752554741
11.3	0.00203201257033488	0.0148649337955823	0.331087294268145	0.939618495316402	0.330654418590052	0.939887416377195	-0.00851612296958691	-0.0148646397750223
11.4	0.00608334392920173	0.0146985430757234	0.472516466102007	0.874686537240903	0.472049641764658	0.87495286685408	-0.00844582252111404	-0.0126579529842459
11.5	0.0111398251925616	0.0108567364885445	0.600299428950724	0.792664300468831	0.599939847374079	0.793088667132636	-0.00596176419301671	-0.0145863313993078
11.6	0.0105602586300193	0.0070258205387177	0.719077682764589	0.689907444108911	0.718811172880095	0.690396280618296	-0.0100859062714775	-0.016190323235235
11.7	0.0113284789162253	0.00564071832027258	0.817791506742068	0.567950701081342	0.817553690087527	0.568380254490661	-0.0127819161730105	-0.0141856893054304
11.8	0.0118468921733395	0.00346692670318678	0.895157398836474	0.432915219114048	0.894977079336044	0.433475547698005	-0.0147934490171668	-0.0115833759362564
11.9	0.0131167672390835	0.0028579220430657	0.950854496362079	0.289608981196796	0.950821167041504	0.290159399695169	-0.0150089206683476	-0.00642651311970994
12	0.0168296962313675	-0.00118681511433266	0.987525331504415	0.137596945714131	0.98751845623161	0.138083496965539	-0.00908199282778062	-0.00459352307678981
12.1	0.0134905896187197	-0.00797760141279666	0.994738324339472	-0.020760234800124	0.994720484633253	-0.0202811147546615	-0.00970281609865293	-0.00836220842261918
12.2	0.00893191704401898	-0.0106119728830157	0.977522326489817	-0.175067752170495	0.977636907869441	-0.174627613849463	-0.0116678274261414	-0.00836792770394438
12.3	0.00438182141460926	-0.0115854329598657	0.937678402447694	-0.324427141932849	0.93787149973601	-0.324068411839949	-0.0135032567147726	-0.00755506087858275
12.4	-0.000625591432044451	-0.0103872971304382	0.876357678705787	-0.467143319614306	0.876498125622029	-0.466766649887095	-0.0156701382375271	-0.00483409672057365
12.5	-0.00134367362367768	-0.0073497675469862	0.788971230137	-0.599928563166254	0.789441887850848	-0.599542313947671	-0.0131268440632685	-0.000746132941627164
12.6	-0.00334237194621708	-0.00803423332920448	0.684138923398265	-0.71147502133806	0.684493378546501	-0.711171076274243	-0.0116746737460191	-0.00231565169819453
