# GHZ S RI R 50
0.2	-0.000281103177208514	8.1763175982522E-05	0.948530684202156	-0.307980043270161	0.948304519350239	-0.308121823445412	-0.000138814157102863	0.000259386832118431
0.3	-0.00033441041315569	0.000334860945965006	0.888455694023426	-0.451572070887937	0.888318332346903	-0.451625209527193	-0.000166080768765421	0.000146526478811626
0.4	-2.47494600547289E-05	0.000392618705150664	0.806805037526239	-0.583662899700289	0.806845065888264	-0.583802409653749	0.000126059014356329	8.07193643485867E-05
0.5	-0.000214676231793841	0.000269681375055086	0.706123191433975	-0.701522339473604	0.706012696125347	-0.701618085952467	0.000162128823848114	-0.00032565626954462
0.6	-0.000365395599818241	0.000562659360120922	0.588429763181473	-0.802534030027037	0.588240382863569	-0.802536920642364	-0.000107126723731773	-0.000303407421271276
0.7	-0.000265452055526233	0.00100081309754227	0.456385756668264	-0.883745318281375	0.45631180388977	-0.883779653002746	-2.14452990978576E-06	-0.000373202348307976
0.8	5.44552571641335E-05	0.0010660219237337	0.313520273564915	-0.943572185666005	0.313401889250428	-0.943485570658898	-2.91985937614008E-07	-0.000456140054957267
0.9	0.000407410601126657	0.00139651293385553	0.163320031279376	-0.980394654857443	0.163171239051413	-0.980351890388244	0.000122184386643605	-0.000591485599653565
1	0.000863034479684282	0.000712852826865033	0.00922133562522994	-0.9937742507467	0.00910340113876773	-0.993744653440277	0.000289028893497497	-0.00164041544566613
1.1	0.000374984158066245	0.00071956926031876	-0.144721657514178	-0.982926142222379	-0.145368290985797	-0.982891165152419	-0.00107297884683708	-0.00197065917757733
1.2	0.000727449593532414	9.2900986431734E-05	-0.296145660933295	-0.948089964490855	-0.296138688057225	-0.948145554481192	-0.00144374564367344	-0.00172985308291152
1.3	0.000900809142764955	-0.00126152704837094	-0.439444710600626	-0.890433465865584	-0.43953665095421	-0.890457928300307	-0.00110922590327684	-0.00105898670441291
1.4	0.000875777126708519	-0.00300213168558818	-0.572069296675648	-0.811518935927436	-0.572143035649009	-0.811419555522728	-0.000141599417331642	-0.000880463497279221
1.5	0.000373922636988155	-0.00352777977557375	-0.691391247432368	-0.712496051374038	-0.691415831923118	-0.712424114210889	0.000387938808091588	-0.000995209442102777
1.6	0.000948501043493559	-0.00338436427025158	-0.792718783014459	-0.596625358318733	-0.793147665001148	-0.596125904540792	0.00109049054066339	-0.000759462603005107
1.7	0.00123676015484106	-0.00380447969759594	-0.875362453944529	-0.466429763420274	-0.875666542016906	-0.465940978078264	0.0013971271326092	-0.00145591442476937
1.8	0.00100049499495955	-0.00421849918397824	-0.937212003435293	-0.324568876892474	-0.937227433264964	-0.324559440649723	0.00101945658854246	-0.00234463875760553
1.9	0.000754594861127501	-0.00462095974344109	-0.976276115982125	-0.17495834617745	-0.976320519106052	-0.175011034247409	0.000453207483992335	-0.00338815196847986
2	-0.000714531447234431	-0.00495528836288869	-0.990851566142585	-0.0217847883012267	-0.990946494391245	-0.0211366966077775	-0.00184387749749368	-0.00395549367648154
2.1	-0.000986213456027055	-0.00390245259916379	-0.982071688031946	0.132898082978555	-0.982170520998027	0.132414760086055	-0.00259781481434859	-0.00234050021939489
2.2	-0.00132473046793497	-0.00406807315490579	-0.949848669342985	0.282948231828502	-0.949887528969817	0.283081704140889	-0.00255530773602019	-0.00200186441334546
2.3	-0.0019511459259782	-0.00398314642856159	-0.894389593579249	0.42688620093846	-0.894226141824964	0.42697469039208	-0.00276028691625987	-0.00195934885058899
2.4	-0.00270204782759174	-0.00391633171879572	-0.816540805334762	0.560905658758294	-0.816831098001466	0.560444277140402	-0.00289757196398414	-0.00234048518497449
2.5	-0.00404295233357205	-0.00379944646329378	-0.720098700297871	0.68013750279102	-0.720399717458853	0.679757072511407	-0.00413369883751448	-0.00354752848019997
2.6	-0.0051191388447227	-0.00216646600489932	-0.606615392440463	0.78371092000981	-0.606536151451657	0.783651756344055	-0.0056446294483919	-0.0024109395734427
2.7	-0.00483850033486719	-0.000826815242831402	-0.477409730149013	0.868327963137891	-0.477380315490136	0.868342087515534	-0.0059233445822723	-0.00124186884156657
2.8	-0.00420163287833439	-8.32914723363875E-05	-0.337063294003792	0.931717806505905	-0.336945407742285	0.931802407403087	-0.00551520812721455	-0.000185934289490905
2.9	-0.00298764416209681	0.000224073569744891	-0.188684888115947	0.972563289217624	-0.188680556578473	0.972618018234598	-0.00467650980455996	0.000736801610330536
3	-0.00201335395176721	0.000281661653293017	-0.0354775242376394	0.990691157764315	-0.0355419708112818	0.990762409041959	-0.00354065396394837	0.00170732914896315
3.1	-0.000456888575122797	-7.25812146502475E-05	0.118463956012309	0.984143459425933	0.119111576562185	0.98422580786181	-0.00162984184817029	0.00219908972813693
3.2	0.000224847934090706	-0.000970268345214688	0.270229442708396	0.953491840035172	0.270219417473605	0.953531389693114	-0.000421639303832414	0.00175213892521874
3.3	0.000963460528036222	-0.00182188685084193	0.415495990917002	0.899854366907117	0.414873047883687	0.900134478962314	0.000777003390125345	0.00112952351112844
3.4	0.00114326504315608	-0.00286920225282705	0.549739803549197	0.82513913974707	0.549654617385164	0.825254255940011	0.00165354424685709	-6.4642585162774E-05
3.5	0.00106172409477301	-0.00337484472128549	0.671719007019092	0.729631480302746	0.671733202993123	0.729657710322381	0.00145990984872142	-0.000833656436656455
3.6	0.00151131376844549	-0.00390716590080786	0.775903825096871	0.616558265393272	0.776326448988131	0.616164882885439	0.00225927285113518	-0.00119167056836066
3.7	0.00163488809861364	-0.00509011397361212	0.862536938737854	0.488312333286696	0.862543729366633	0.488438884495887	0.00273328563118105	-0.00242947243929535
3.8	0.00110688733390493	-0.00612412349774734	0.928002180663103	0.348488677960446	0.92803028447248	0.348672081487014	0.00251870064331933	-0.0039314570241783
3.9	0.000764863756221084	-0.00721847797639437	0.971153114917677	0.199331113155373	0.971053965283986	0.199919255864559	0.00151776897616846	-0.00592696799694096
4	-0.00093819121639714	-0.00797881093227474	0.989569075879793	0.0466252252306548	0.989651025697161	0.0466682927898774	-0.00123741386535715	-0.00738127276130824
4.1	-0.00159551687137125	-0.00769509833247321	0.985049426019393	-0.106856938796877	0.984987204346937	-0.106793006636046	-0.00329166317671711	-0.00664667547306941
4.2	-0.00261053702378333	-0.00802436446024456	0.956459995563344	-0.259209817167483	0.95665276007096	-0.258640017639481	-0.0047015130459937	-0.00629340219459724
4.3	-0.00359714215773865	-0.00832549581972566	0.904851363318824	-0.404136629179889	0.904852213471783	-0.404118090406113	-0.00611099469056254	-0.00597340317896892
4.4	-0.00472905419489886	-0.00848034765598044	0.830876126178997	-0.539523840052846	0.830796185414615	-0.539507992129987	-0.00733080710248689	-0.0056716744330332
4.5	-0.00637809630150475	-0.00910295089768763	0.73755430617075	-0.661383410384872	0.737430534377765	-0.661237565948849	-0.00959127359545561	-0.00607243859349814
4.6	-0.00841916868965474	-0.00807360470616462	0.626394270913303	-0.768591379185627	0.626379308170621	-0.768361738400982	-0.0124159209306098	-0.00422207352393982
4.7	-0.00970692069539575	-0.00744534923084105	0.499083885418458	-0.856845978826234	0.499200791045062	-0.856600859956234	-0.0142442701830523	-0.00215596238907828
4.8	-0.011070922508683	-0.0062522591946576	0.359599295674616	-0.92378188657343	0.359893162706398	-0.923592818523943	-0.0153352637739643	0.00043562860205754
4.9	-0.0116949277614239	-0.00521279597815614	0.212002434714449	-0.967929863937814	0.212262485160508	-0.967878465763266	-0.0153405657676083	0.00331402665015067
5	-0.012245247189509	-0.00399514986147548	0.059712454850859	-0.989815472248378	0.059870876708383	-0.989687096130179	-0.0145318376135619	0.00640485382280748
5.1	-0.0117346182017329	-0.0031351612738677	-0.0954066604593372	-0.987037464633791	-0.0950848346467628	-0.986974452358871	-0.01189632535249	0.00933464607436088
5.2	-0.0115547075543196	-0.00256494750613375	-0.247582065200317	-0.959991217965917	-0.247153724952031	-0.960113408936766	-0.00893495206488105	0.0110075545223938
5.3	-0.0115263968152895	-0.00229922734604685	-0.393549406003804	-0.910011964731679	-0.393259723580374	-0.910357168545733	-0.00588689612600123	0.0117312596229068
5.4	-0.0118344240274282	-0.00166685319509692	-0.530421043611044	-0.838244487318678	-0.530284680235703	-0.838534774900426	-0.0036680408406503	0.0114639343454482
5.5	-0.0127755055143245	3.01938581800293E-07	-0.655050414697686	-0.745038161743954	-0.65500068153969	-0.745352966359286	-0.00315291628240701	0.0124233142417575
5.6	-0.011422955118363	0.00205814811756096	-0.761951436447739	-0.633601594173174	-0.761965128887879	-0.633772282229173	0.00044751940282001	0.0140508312154286
5.7	-0.0108124090782211	0.00265257503702827	-0.85095971778309	-0.507728913237872	-0.850936087374452	-0.507904395681353	0.00388089553341465	0.0134827989715615
5.8	-0.0104250847081308	0.0037476790614907	-0.91942902093031	-0.369279870143041	-0.919474297484943	-0.369572588744538	0.00680942626863175	0.0120546972570765
5.9	-0.0100314034458422	0.00424873789584616	-0.965721772919094	-0.221702101032617	-0.965842518840063	-0.221749936563493	0.00883900804935192	0.00925835204032241
6	-0.0110556988757974	0.00544405868606477	-0.987385499438954	-0.0687293124778776	-0.98738257141412	-0.0687980890377451	0.00724969395145417	0.00678886280378386
6.1	-0.0103016892365366	0.00821529366512647	-0.98605650852774	0.084460571794154	-0.986059827785233	0.0843571131180078	0.00725860681183162	0.00783644761183708
6.2	-0.00891627534329886	0.00996086022367414	-0.96115550398859	0.236746342475645	-0.961203893346623	0.236564417542309	0.00869319047193219	0.00748225249306204
6.3	-0.00737297216812951	0.0111363339047472	-0.912584552202407	0.383287515594301	-0.912609129767313	0.383158683140101	0.0103782907214741	0.00615105773593152
6.4	-0.00558727384584067	0.0115095418808572	-0.841425113788823	0.520214106770659	-0.841416760716458	0.52000029891327	0.0117093270321088	0.00328137025629642
6.5	-0.0043672243077109	0.0112379261302466	-0.750787225949318	0.643584878977533	-0.750887969831907	0.643412501437808	0.0116679755333983	-0.000138997752841899
6.6	-0.0029027886505385	0.010989846228211	-0.642135910270531	0.753111776578964	-0.642284807550766	0.752965718213218	0.0111129056402448	-0.00329329510183175
6.7	-0.00187969361665995	0.0104160917209999	-0.516844963679367	0.843775574828257	-0.516966592319692	0.843618339505528	0.0091317244192849	-0.00630114030173067
6.8	-0.000744739509950485	0.0101400306785371	-0.379208361158717	0.913389373107197	-0.379419861658844	0.913314636276013	0.00630276813675097	-0.00808158189413384
6.9	0.000398867754540522	0.00948997830412716	-0.233092827999826	0.960698972531621	-0.233343756425653	0.960695568723272	0.00348497934608301	-0.00874130112706304
7	0.00178108355539294	0.00900480419260467	-0.0813437794926173	0.986108473648524	-0.0816025679939622	0.986078726101653	0.00101274436137964	-0.00841092830633089
7.1	0.0031074541436792	0.00767414663346109	0.0737113919964658	0.986326151440175	0.0735044116585539	0.986314582724461	-0.000649807049978392	-0.00797526884376033
7.2	0.00388657756012574	0.00621706938954747	0.225806859235832	0.962271427579509	0.225551469844838	0.962316198504741	-0.00227878644215226	-0.0072054291989967
7.3	0.00398665268990977	0.00461200250486609	0.372151602084373	0.915363559972044	0.371911501826482	0.915454958168667	-0.00375367972483405	-0.00604397030002323
7.4	0.00377625617286273	0.003243670483619	0.509753930079714	0.846668746554079	0.509535903028688	0.846831324413041	-0.00514259279713562	-0.00463604209445385
7.5	0.00289856356345004	0.0022980433382978	0.635870930210562	0.756449422096844	0.635711419294366	0.756622017568161	-0.0063494781238877	-0.00224657645032115
7.6	0.00299561859101323	0.00175494533242382	0.7445275276452	0.647697491146095	0.744312859652056	0.647859066268192	-0.00534103646476149	0.000157325175490294
7.7	0.00262725772236387	0.000872599717226199	0.83543230610686	0.524470557716207	0.835282020853964	0.524665801255344	-0.00393832184835777	0.00137566602522645
7.8	0.0023181093332662	0.000349590177147369	0.906637612688661	0.388396172452739	0.906517540806144	0.388617946106214	-0.00233110488734067	0.00166187829120728
7.9	0.00178474597835844	-0.000149664191590319	0.95576908348002	0.242589256579647	0.955729477582636	0.24281460226072	-0.00135253554797611	0.000803268874917836
8	9.26089608602946E-05	-0.000367214259019578	0.980300306260785	0.0910833872484987	0.980371685867784	0.091374431262122	-0.00343866469859447	-3.03185249447561E-05
8.1	-0.000147513476575435	0.00135431382673	0.982555977311126	-0.0608490041671957	0.982680453869159	-0.0605787603397517	-0.00397414715384792	0.00285459943470878
8.2	0.000139039601470877	0.00199523301361615	0.961473669652524	-0.212540432484	0.961540085704957	-0.212245278809289	-0.00306333153538839	0.00449687724460596
8.3	0.000114320283093976	0.0028493810228932	0.916614878279649	-0.359310417528501	0.916752784328157	-0.359055345601279	-0.00166262105812314	0.00569920388593472
8.4	0.000898024714509849	0.00360386967626248	0.849051317569724	-0.496955912787808	0.849262950560496	-0.49675721729276	0.000620287884800201	0.00584644718076247
8.5	0.000738474151747536	0.00358235577518129	0.762231796125916	-0.621384580858479	0.762347359433805	-0.621259234109841	0.00104301933860495	0.00400020699221785
8.6	0.00149997913775474	0.00521429528083045	0.65693931236147	-0.732927553902618	0.657136464328642	-0.732742862833606	0.00112291031790659	0.00520737338700527
8.7	0.00302770509574095	0.00553729027545172	0.534669374800651	-0.825856705993157	0.534950569652858	-0.825748194647024	0.00303053155919265	0.00548829970403574
8.8	0.00455898760030038	0.00525105289743094	0.399944670294765	-0.898331512647782	0.400150160106301	-0.898277591097365	0.00485219105031747	0.0048769987232644
8.9	0.00611962428014142	0.00459304303569346	0.256171907542497	-0.948991381357908	0.256412973777239	-0.948851718400649	0.00704579404529092	0.00360096173082678
9	0.00777914896290976	0.00291204410289737	0.106120258875893	-0.978088982888147	0.106481504058924	-0.978059502198323	0.00849388388708219	0.000999270140847995
9.1	0.00928050990991661	0.000864539320126918	-0.047783677010673	-0.98209043305931	-0.0474322566405742	-0.98210552252023	0.00943664752430973	-0.00147930875939543
9.2	0.00997475867664487	-0.00215735024199701	-0.199235672576506	-0.962030617982562	-0.198881196103328	-0.962101505908268	0.00936101964489564	-0.00452575065426484
9.3	0.00953185143479193	-0.00461067577119342	-0.345517727244783	-0.919444072361581	-0.34516196848434	-0.919508445835812	0.00806304552176944	-0.00662195100876164
9.4	0.00888277898326818	-0.00701228977459918	-0.483737261616203	-0.855328572025857	-0.483415021771284	-0.855476024566301	0.00632359589944014	-0.00813264096313325
9.5	0.00699806847235452	-0.00791853727789579	-0.611454651243464	-0.769236566361842	-0.611249257543977	-0.769373747425354	0.00314676871518249	-0.00682432149506554
9.6	0.00724448537014486	-0.00932401023794373	-0.722170886770076	-0.664403613466337	-0.721899400528419	-0.664587873556134	0.00421465955697267	-0.00478278084012617
9.7	0.0055666075001941	-0.0114124638825476	-0.815994245861152	-0.544870376237557	-0.815748983167947	-0.54513854895405	0.00502184761476876	-0.00526606764452684
9.8	0.00317114570585408	-0.0126504370347334	-0.890724678618998	-0.411961514273157	-0.890516372305584	-0.412235318917081	0.00523737568460423	-0.0059897834152036
9.9	0.000559371746116741	-0.013167843977703	-0.943988407196716	-0.268419994408032	-0.943876450505716	-0.268748071908154	0.00527837609162969	-0.00769550067638947
10	-0.00354146720805639	-0.0127647634582708	-0.972816367707158	-0.118597817666893	-0.972736629400361	-0.118974498657219	0.00179330142416041	-0.0087053989636457
10.1	-0.00540816761225465	-0.0101361672874088	-0.97964708192551	0.0324239273637625	-0.979626795225965	0.0319482400900889	0.00116726257353808	-0.00593048855620336
10.2	-0.00684987489291636	-0.00877447212273431	-0.963251052758199	0.184083950678048	-0.963235632140826	0.18363596797236	0.00216500383538067	-0.00537737257075321
10.3	-0.00845960187924024	-0.00676136877990588	-0.922849604908603	0.331533515627328	-0.922983845921788	0.330995326679384	0.00295228670411605	-0.00602787175957374
10.4	-0.00925233556310494	-0.00503326542350267	-0.859444081598472	0.470277641100032	-0.859707387984999	0.469744451078889	0.00363769523472897	-0.00819755369076619
10.5	-0.010685244413189	-0.00341958224620406	-0.776907718741964	0.59626091312114	-0.777187867545384	0.595875477719281	0.00185991361463194	-0.0116345865141496
10.6	-0.0114831818800495	-0.00080725289655397	-0.675832321902983	0.710303343649733	-0.676255811165499	0.709959941723352	-0.00117647131136938	-0.0126203123617062
10.7	-0.0116241981839725	0.00227437645242288	-0.557388019116581	0.806656331817921	-0.557797103744355	0.806368467932163	-0.00365406250286839	-0.0123254087001366
10.8	-0.0104239398361551	0.00516186079025534	-0.425545793592903	0.883053213080374	-0.426053384293609	0.882823949282623	-0.00517213737585762	-0.0113926142279876
10.9	-0.00849247083565848	0.00772278623095336	-0.284234411366658	0.938088275227193	-0.2847199604948	0.938035951997582	-0.00630516777437341	-0.0106146329463702
11	-0.00587816182142566	0.00945737129579934	-0.135730337363368	0.972405980527598	-0.136275191239032	0.972400017625421	-0.0072715752940884	-0.00968114738004619
11.1	-0.00252531895463399	0.0104330098503564	0.0180253717144337	0.981396895076383	0.0173977820378086	0.981478405625746	-0.00723341822193444	-0.00894343293149647
11.2	0.000692162287434329	0.0101705553980814	0.16969203659977	0.966321780189251	0.169174087383766	0.96652311101923	-0.00717135872923956	-0.00879933831973863
11.3	0.00376632871229265	0.00946842831617252	0.316995322851614	0.928585844324747	0.316566405514627	0.928846510564224	-0.00696347235403669	-0.00879426730946267
11.4	0.00648789009879044	0.00764820929194479	0.457416703801424	0.869125597164404	0.456952695920047	0.869383696098198	-0.00720902306708154	-0.00933763112926595
11.5	0.00815804655227693	0.00655736716859428	0.588035449108975	0.786854001672881	0.587677544679436	0.787270964429026	-0.00931514775952016	-0.00821242538845664
11.6	0.0112583650555484	0.00442548672780926	0.701697590272158	0.685594750246664	0.701430857032676	0.686073584286849	-0.00828311430001739	-0.00617739711567946
11.7	0.0129773636562002	0.00135224457250951	0.799444312174125	0.569183265492491	0.799204975098281	0.569603879342556	-0.00723153724615292	-0.00619157242082904
11.8	0.0137209741590404	-0.00198483588485285	0.878548510304245	0.438455737538074	0.878363579286304	0.439006783784875	-0.00670281246501246	-0.00696129790818442
11.9	0.0142089354383293	-0.0055019595969397	0.936476243869687	0.296380879984661	0.936437402468911	0.296924416829937	-0.00664964690400128	-0.0091592913425743
12	0.0111031604493376	-0.00880253409290127	0.969783579746235	0.14731672910638	0.96977092389961	0.14779527678051	-0.0115928182181949	-0.0105726616053954
12.1	0.00983406749121286	-0.0102204428177988	0.981433368761454	-0.0036388261445964	0.981407664637787	-0.00316658569099468	-0.0141606221873268	-0.00813133107698442
12.2	0.00737053195953355	-0.0121965563005268	0.969579577338408	-0.156277284321334	0.969685297374819	-0.155840106765078	-0.0159368500972484	-0.00579042950312418
12.3	0.00445850936336104	-0.0127544989938874	0.933387976391465	-0.305132102280552	0.933572971447169	-0.304773843439381	-0.0169518303469843	-0.00285423253310454
12.4	0.00185552103934801	-0.0127004776960152	0.874208666537873	-0.446014802348267	0.874340751195759	-0.445640127693885	-0.0164558857776288	-0.000261534170313222
12.5	-0.00100705679382926	-0.012274663947279	0.795345546082417	-0.574794967921753	0.795802089235074	-0.574401337393159	-0.0171428047418562	0.000884218122503963
