# GHZ S RI R 50
0.2	-0.000349187270051227	0.000202416447640432	0.948321853661919	-0.308055184424716	0.94809570926425	-0.308196908827835	-0.00012602166418996	0.000289188493361717
0.3	-0.000365526389896436	0.000514187581960651	0.88819242067558	-0.451626161141724	0.888055079041268	-0.451679265486292	-9.51306406044673E-05	0.000128705372211071
0.4	-1.80808739660752E-05	0.000606812621197431	0.806507724732218	-0.583675516410526	0.806547717869594	-0.58381500106647	0.000202774674455695	-5.29513178198885E-06
0.5	-0.000168004219518224	0.000514358309339777	0.705785601444679	-0.701521483616505	0.705675109972366	-0.701617180654562	0.000257271412096744	-0.000396953192776582
0.6	-0.000299967558911851	0.000803972125957057	0.588027253271811	-0.802454004325303	0.587837929740847	-0.802456841292564	9.84969968272025E-05	-0.000477432060591717
0.7	-0.000188554953788659	0.00126780003121617	0.45596810770941	-0.883571198034223	0.455894170655406	-0.883605499150052	0.000202052289856696	-0.000726321060125273
0.8	0.000158501384718965	0.00134002700573405	0.313112291182895	-0.943311190571298	0.312993978265664	-0.943224572052298	9.40325184779664E-05	-0.00100622264095295
0.9	0.000498594529465372	0.00161846841760036	0.162913033744887	-0.980073299758619	0.162764314024422	-0.980030499623059	-0.000125768591211503	-0.00132925200311653
1	0.000740081469711887	0.000973218895977678	0.00875937732318368	-0.993288952468421	0.00864151459035494	-0.993259315491365	-0.000650144414689914	-0.00202024635203914
1.1	5.68201908144565E-05	0.00123093806627139	-0.145031292098958	-0.98226122431714	-0.145677512572937	-0.982226006431376	-0.00209644529754646	-0.00149925225322317
1.2	0.000183254415803519	0.00121737579738715	-0.296322351120725	-0.94734990815957	-0.296315404613996	-0.947405464315228	-0.00229191200301777	-0.00030331708126089
1.3	0.00058673454534958	0.000707307241612392	-0.439490872170286	-0.889615394315173	-0.439582756423272	-0.889639801837214	-0.00111786516986373	0.00126042422847364
1.4	0.00106909850126747	-0.000773515744343716	-0.571954577759189	-0.810585560193942	-0.572028210712404	-0.81048622979727	0.000878231283241632	0.00129108825503925
1.5	0.000889592347879261	-0.0015042722209915	-0.690883892198744	-0.711519255110933	-0.690908427657109	-0.711447386532268	0.00217940108247879	0.000322840544127241
1.6	0.00148106655528917	-0.0018394095256166	-0.792011558891051	-0.595897137431689	-0.792439928485378	-0.595398120907612	0.00267338901878052	-0.00103459472450004
1.7	0.00174108877225369	-0.00251127302426501	-0.87453157650743	-0.465813658317132	-0.874835275527279	-0.465325330220643	0.00213054258831067	-0.00243546495111853
1.8	0.00148357477526587	-0.0031991702686226	-0.93619855642687	-0.324082291131125	-0.936213967645689	-0.324072863556915	0.000999340517490736	-0.00350322735941899
1.9	0.00101713590680831	-0.0038197161444579	-0.975022788449896	-0.174726212864832	-0.975067134893016	-0.17477883293524	-0.000278897327720167	-0.00422390826558788
2	-0.00053150921005838	-0.00396556717576698	-0.989642168459704	-0.0220544128570226	-0.989737175135743	-0.0214071363404956	-0.00227922467601751	-0.00392122296594829
2.1	-0.000770826547450862	-0.00308222449783511	-0.981022385013371	0.132532710306546	-0.981121001443893	0.132049896345247	-0.00258740674390092	-0.0028877227925466
2.2	-0.00117935230522014	-0.00321854415849452	-0.948796449909249	0.282357754005128	-0.948835299147234	0.282491057390194	-0.00298123751301975	-0.00280029178306033
2.3	-0.00177743585672481	-0.0031695700070546	-0.893458314961135	0.4259954941349	-0.893295101058049	0.426083940700024	-0.00367378499624244	-0.00262004058760649
2.4	-0.00266660815956725	-0.00322804896875155	-0.815936262389277	0.559742869637175	-0.816225929134235	0.559281846180684	-0.00440059589911483	-0.00242158603182196
2.5	-0.00423131668601211	-0.00276731560205709	-0.719840182945508	0.679138801123156	-0.720140723924197	0.678758539690806	-0.00540382556082941	-0.00200724020035926
2.6	-0.0050593422455718	-0.00100475920804475	-0.606314439496777	0.782579715597313	-0.606235257632161	0.78252065268392	-0.00528899940124935	-0.000580247054120664
2.7	-0.0046887436211047	0.000348180283492894	-0.477425284771709	0.867039898002576	-0.47739591241087	0.867054025239951	-0.00469471895669557	-3.41949270027233E-05
2.8	-0.00406611282173135	0.00111406429953239	-0.337436390499648	0.930478895577947	-0.337318693659104	0.930563499730032	-0.00407442831568452	0.000289423069885155
2.9	-0.00288983234363602	0.00154963795558438	-0.189280774116095	0.971584616995908	-0.189276488864682	0.971639302574546	-0.00335811216006297	0.000772895245796197
3	-0.00178710816750311	0.00177142567793565	-0.0359588434602449	0.989671419981439	-0.0360232620754522	0.989742565600317	-0.0021593853623188	0.00134955418848999
3.1	-0.000167420963469317	0.0014931060518045	0.117466915799085	0.983086091746955	0.118113700905275	0.983168907242612	-0.000695669957134576	0.00136766035443634
3.2	0.000698632487292861	0.000640700767053349	0.269004905590164	0.952789816302132	0.268994851194584	0.952829315697938	0.000145331379970732	0.00089400891675006
3.3	0.00158540242538288	-0.00032872938709117	0.414227732939768	0.899431357931407	0.413605090140464	0.899710598960018	0.0011304460479517	0.000342629434781978
3.4	0.00172539117860013	-0.00148531538847684	0.548470225330476	0.82478870461041	0.54838502459161	0.824903631135175	0.00191076904536119	-0.000593050503233603
3.5	0.00181373128121119	-0.00199133025507199	0.669915837065015	0.729440089282126	0.669929981887581	0.729466300410569	0.00240147539972147	-0.00134902118629944
3.6	0.00215035268918255	-0.0028224523312315	0.774159385844771	0.617160747625997	0.774582205178762	0.616768422405842	0.00299551733206558	-0.00265297025765126
3.7	0.00216239013261396	-0.00403854222803149	0.861050607763668	0.48922898045231	0.861057197284406	0.489355434658235	0.00280751779960795	-0.00405089227287227
3.8	0.00155873488851081	-0.0051899399322994	0.926657628741943	0.349667978159918	0.926685416901825	0.349851270207337	0.00204302110286731	-0.00538299814140829
3.9	0.000933638252654766	-0.00638653610152874	0.969863873534321	0.200922829944672	0.969763739424813	0.201510231432175	0.000540246393003163	-0.00674172716107383
4	-0.000818982018419089	-0.00682646896083546	0.988962204303234	0.0489706678615444	0.989044010014589	0.049013910033	-0.00140829750717981	-0.00704184196172057
4.1	-0.00144221734734949	-0.00679241099795543	0.985218278657175	-0.104820816929696	0.985155928445974	-0.104757016368552	-0.00249103670396706	-0.00712598085230336
4.2	-0.00264059549510523	-0.007148206955401	0.956927191325936	-0.25727416082151	0.95711880054628	-0.256704005949079	-0.0040330001031019	-0.00741490213950175
4.3	-0.00377366161423348	-0.00751942514579891	0.90574797359906	-0.402214107561215	0.905748784101875	-0.402195566317013	-0.00582283441667947	-0.00747368670325747
4.4	-0.00532087813026499	-0.0077584068129448	0.832466235370654	-0.537736741067082	0.832386227695176	-0.537721078199258	-0.00789483199158784	-0.00712739786897581
4.5	-0.00741982554510389	-0.00773104795947533	0.739648318778463	-0.660614264473666	0.739524126244263	-0.660468512321389	-0.0103350890667611	-0.0060094987269408
4.6	-0.00915701237484926	-0.00629360847768879	0.628085264779169	-0.768144754514906	0.628069922198086	-0.767914970527106	-0.0116847242183932	-0.00390987253849716
4.7	-0.0101798831019583	-0.00543088616945804	0.500936581335286	-0.856580897978655	0.501053141170848	-0.856335400750988	-0.0127088494163018	-0.00242738124790577
4.8	-0.011222605043853	-0.00421707954447896	0.361616884761915	-0.923975484845337	0.361910677039815	-0.923785706250401	-0.0134170399686331	-0.000682951626476242
4.9	-0.0116879708381056	-0.00329336164092219	0.213867659802389	-0.968850817112825	0.214127966801363	-0.968798925105045	-0.0135713628662278	0.00134492868665644
5	-0.0121044511460513	-0.00211032311790685	0.0608011818719865	-0.99076200878035	0.0609596318296155	-0.990633337345652	-0.0129352316441448	0.00372263492879615
5.1	-0.0116639583953606	-0.00140107969384755	-0.093981671207396	-0.987972700141896	-0.0936596836215841	-0.987909147905553	-0.0114012359644004	0.00565693110147784
5.2	-0.011595644173651	-0.000783846665479303	-0.246334706647365	-0.961477421999945	-0.245905684596477	-0.961599069746377	-0.0100445386446748	0.00753367305583075
5.3	-0.0116900247294336	-0.000420660486888855	-0.392798328157697	-0.911787713199737	-0.392507771194012	-0.912132973335684	-0.00812523015067581	0.00945287818821805
5.4	-0.012156645196587	0.000503793039981758	-0.530176546195186	-0.839851004768772	-0.530039702317483	-0.840141504885519	-0.0059173588886811	0.0110798126494732
5.5	-0.0124863174520114	0.00244514731917339	-0.654387317792317	-0.74659434678991	-0.654337063885623	-0.746909306877978	-0.00302054658591205	0.0127079168072627
5.6	-0.011375118911622	0.00395532748923766	-0.7618894508605	-0.635969100832593	-0.761902843150061	-0.63614006714975	0.000550312028998246	0.0123786165539345
5.7	-0.01100670342107	0.00470800123109249	-0.851688799531438	-0.509986746299039	-0.851664849325713	-0.510162507236399	0.00284791752389601	0.0117018762295712
5.8	-0.0107631377101754	0.00588643899263235	-0.920622603743375	-0.371201991239086	-0.920667568038562	-0.371495310003793	0.00488283630582931	0.0109905666953172
5.9	-0.0108017115304822	0.00669034121145831	-0.96701639627811	-0.223434367208897	-0.967137275587714	-0.223482453020852	0.00638252402316889	0.0100613935778999
6	-0.0112922866131083	0.00905712282856347	-0.989536927779639	-0.0708017251956111	-0.989533859740897	-0.0708706554315019	0.00758507547324669	0.010227788414774
6.1	-0.00959787508156557	0.0114091502606	-0.988923388659845	0.0835921688556916	-0.988926601238634	0.0834884154619915	0.010718913634244	0.00922085800440928
6.2	-0.00780812879384346	0.012700070303519	-0.963877671452697	0.236586150039606	-0.96392603992243	0.236403706836854	0.0127575232009415	0.00650131599419604
6.3	-0.00616693699123642	0.0132513382339592	-0.915237251603112	0.383549057332593	-0.915261790103815	0.3834198737683	0.0137282027476325	0.0031612760441593
6.4	-0.00472005511686139	0.0132233930489906	-0.844359585278685	0.520877949891052	-0.844350996693294	0.520663535307544	0.0134045956170358	-0.000530140302183888
6.5	-0.00375784467104324	0.0130238721797101	-0.753675402391211	0.645792805589354	-0.753776480670103	0.645619774499243	0.0121518398524474	-0.00367741472456197
6.6	-0.0024699503220658	0.0128596551629962	-0.64375749782573	0.755588923801561	-0.643906892137612	0.755442488080878	0.0104668386039339	-0.00624489072037095
6.7	-0.00139477561350826	0.0124329923592174	-0.518126640218511	0.846292144756583	-0.518248650224348	0.846134489232887	0.00822425258385543	-0.00805727335168114
6.8	-0.00021880614403903	0.012035840368654	-0.380155472768769	0.91629512219313	-0.380367643018403	0.916220206305123	0.00588344200937232	-0.00915540256880961
6.9	0.000707744516667894	0.0113016718239325	-0.233234456625479	0.964254509388017	-0.233486273049562	0.964251271426531	0.00369858316247246	-0.00967544014160863
7	0.00194392642191728	0.0107447842917142	-0.0799058168750742	0.989091008650144	-0.0801654023599657	0.989061614264002	0.00181554934004828	-0.00995795294202024
7.1	0.00282091332508348	0.00954134112120793	0.0750267674183924	0.988673669453338	0.0748192633824045	0.988662310093126	-0.000312833468033953	-0.0100358260447544
7.2	0.00342676631399245	0.00845841519186232	0.227604456217448	0.964639754818493	0.227348419728152	0.96468496116356	-0.00222083652235357	-0.00924731674722734
7.3	0.00353910079017229	0.00720832575116379	0.374700668804234	0.917334038492079	0.374460041506824	0.917426087777058	-0.00381867407333629	-0.00808414641169791
7.4	0.00345125100964697	0.00615793032574791	0.512884521220865	0.847560842210574	0.512666334850888	0.847724301594623	-0.0052585143858802	-0.0066503126653061
7.5	0.00308210326765007	0.00534865219333147	0.638013080206478	0.756478720292801	0.637853626259898	0.756651822034206	-0.00599201499907173	-0.004621024008872
7.6	0.00322427458574848	0.00440337746467967	0.746981522458343	0.64821285395148	0.746766578180472	0.64837505339138	-0.00581404751921789	-0.00345223626800091
7.7	0.00261161635976681	0.00348085814504064	0.838314888238729	0.524312469211269	0.838164573701469	0.524508433247227	-0.00611609397893073	-0.00224814448975647
7.8	0.00206428837289036	0.00295649815361753	0.909407336007207	0.387427585946431	0.909287446047967	0.387650087445979	-0.00589939216467012	-0.000810057175587026
7.9	0.000892706036062749	0.00257391806360295	0.957891779224719	0.24119495373071	0.957852532652838	0.241420766458007	-0.00561107028393875	0.000845236087375176
8	-0.000233702613572879	0.00368143071921686	0.98286937563278	0.0901030543962467	0.982941292949466	0.09039473979757	-0.00485829385175462	0.00325677481272936
8.1	7.63454172647715E-05	0.00484635177244567	0.985234002165351	-0.0634167482405599	0.985359494860185	-0.0631460302165499	-0.00210058204387417	0.00443059397656323
8.2	0.000437249477052419	0.00530358317969258	0.963088701072805	-0.215794042004494	0.963156118628369	-0.215498395908613	-0.000374428223700181	0.00415150331080762
8.3	0.000525710877304544	0.005883360224775	0.917340754098435	-0.362594089343105	0.917479646098617	-0.362338922965278	0.000953074995066894	0.00362539899489029
8.4	0.000915949016337601	0.00615510397751841	0.849557174456214	-0.500065384634746	0.849769729644088	-0.499866806049006	0.00185224782017203	0.00261624289737645
8.5	0.000251816379124287	0.00696854379720824	0.762170441642996	-0.625753814970478	0.762286760369448	-0.625628524909959	0.00184091502839935	0.00235804292640737
8.6	0.00145936480650154	0.00857427333024663	0.655006749291917	-0.736708672103337	0.655204950477386	-0.736524488510104	0.00349596624772771	0.00215247545945699
8.7	0.00297088626429819	0.00916776698142242	0.532236750926747	-0.828788069596051	0.532518672162875	-0.828680471641185	0.00453164625295573	0.000710370261907266
8.8	0.00496377053104283	0.00909161853233026	0.39722708204435	-0.900814201211978	0.397433006349026	-0.900760945714558	0.0046981959345991	-0.000894013552375354
8.9	0.00684261696543495	0.00810120952590198	0.252819500215576	-0.951430889103005	0.253061480008576	-0.951291965311874	0.00445575228694559	-0.00225419290670263
9	0.00832201251299378	0.00641506676979847	0.101391712052011	-0.979033851204757	0.101753258757403	-0.979006121231036	0.00392863511549034	-0.00290865180335308
9.1	0.00963404678107537	0.00458101219434985	-0.0516125653201734	-0.981817879255584	-0.0512612346845464	-0.981834338984457	0.00406249035261253	-0.00327619312740926
9.2	0.0106280799919109	0.00222960205227483	-0.203009252196625	-0.96149354108246	-0.202654963902249	-0.96156581879171	0.00453915293278081	-0.00343970249669712
9.3	0.0110762077517123	-0.000245044823216635	-0.349579843372874	-0.918175245081168	-0.349224275737131	-0.91824117320571	0.00566093477431863	-0.0037590481554859
9.4	0.0106082111140433	-0.00333203898127034	-0.48783508855384	-0.852482115369184	-0.487513745190318	-0.852631127930383	0.00654556111616547	-0.00489990677010322
9.5	0.00913516359907065	-0.00471726238723733	-0.613504980515514	-0.765333735644199	-0.613300521802928	-0.765471511306857	0.00727995228798043	-0.0053985210428612
9.6	0.00828032227689146	-0.00704235011710102	-0.723815015444087	-0.661095795743876	-0.72354448009523	-0.661280843832904	0.00747242491953683	-0.00773357663950516
9.7	0.00600487267409112	-0.00871168067276998	-0.817226612503397	-0.540956400550735	-0.816982713454968	-0.54122524396453	0.00605767704434252	-0.00919706844469995
9.8	0.00348447901538693	-0.00988055532888463	-0.890878017648503	-0.407548124319012	-0.890671210357199	-0.407822314829619	0.00451661010973934	-0.00980304233826078
9.9	0.000201748062172347	-0.0103635969493526	-0.942502594385035	-0.264330043687099	-0.942392107392506	-0.264657672151111	0.00289419931692189	-0.00979315713837818
10	-0.00344726975466454	-0.00887426254255049	-0.971393231990497	-0.116024510296175	-0.971314549634818	-0.116400722492396	0.0017972300293191	-0.00807912458819385
10.1	-0.00514254476139419	-0.00702962141757763	-0.977987088577183	0.0357531765197247	-0.977968475363664	0.0352781708948212	0.00259322950971777	-0.00792424887073143
10.2	-0.00686408027031892	-0.0056196058254537	-0.960419118729639	0.186926651651686	-0.960405251752051	0.186479643491907	0.00224500152366771	-0.00838930142000833
10.3	-0.00857685869495725	-0.00368720210124655	-0.919498931295048	0.333266061492415	-0.91963433747004	0.332729659929991	0.00149120846866169	-0.00883074447052483
10.4	-0.0099820498259274	-0.00196934003993531	-0.856677012535114	0.471004675990648	-0.856940830427324	0.470473145396106	0.000519728172277691	-0.00931534434633571
10.5	-0.0116461817777307	0.000936055083153289	-0.774236758719324	0.598129533332148	-0.774517850593699	0.597745373314803	-0.000311053107610743	-0.00899221410914923
10.6	-0.0113715463919758	0.0041019835601804	-0.671594876357508	0.711171649636695	-0.672018660800811	0.71083063518345	0.000213193824440732	-0.0091480871649705
10.7	-0.0104000965858004	0.00679209263372645	-0.553148237822259	0.806219349071218	-0.553557118061782	0.805933650348147	0.000593280837924499	-0.0102887311552999
10.8	-0.00898068547355526	0.008631511967849	-0.421695156963455	0.881791378751341	-0.422201976524688	0.88156428461627	9.37840999754417E-05	-0.0119514844746849
10.9	-0.00765048685623497	0.0106416286637138	-0.280434618956605	0.936636751003281	-0.280919105705696	0.936586153744716	-0.0014634035633706	-0.0131447391390916
11	-0.00543332798127715	0.0123656969608936	-0.131175814211514	0.969027063066666	-0.131718486029017	0.96902336825159	-0.00277418232452928	-0.0136295550704917
11.1	-0.00260663557781497	0.0135381739692158	0.0204535013936978	0.976744107865338	0.0198290662828102	0.976826842637871	-0.00408529929958984	-0.0142473291843559
11.2	0.00051429529692633	0.0136897257204138	0.170989724630141	0.961789651041205	0.170474436600481	0.961991200491739	-0.00542728039075058	-0.0145085295618574
11.3	0.00358187568222005	0.0131243672199914	0.317675260094731	0.923950014049174	0.317248733361245	0.924210509109148	-0.00654253539481399	-0.014436780087563
11.4	0.00604737502758791	0.0116570875161876	0.45738723717343	0.863653570779405	0.456926186366498	0.863911585285862	-0.00785591053297132	-0.0138569550039895
11.5	0.00853885671051404	0.0109513769942284	0.585141486181132	0.781457048332961	0.584786175461904	0.781871773223134	-0.00826189217184408	-0.0124456392601206
11.6	0.0113067843065955	0.00821250341901303	0.698385370517761	0.682128217359037	0.698120020511636	0.68260475740011	-0.0086635565916816	-0.0127339384907592
11.7	0.012787032654347	0.00526406082239812	0.795896538097378	0.566130342275317	0.795658521686414	0.566549063239443	-0.0101628677443453	-0.0124739522191536
11.8	0.0132430768512332	0.00180017158635803	0.874178965243342	0.43583509656281	0.873995211887432	0.436383366049371	-0.011883312929616	-0.0116736746209702
11.9	0.0122410992071593	-0.00144307604191621	0.930656759702606	0.295152838333719	0.930617828527249	0.295693076916462	-0.0139243713473622	-0.0100102733526077
12	0.0103185843787394	-0.00288022102080984	0.965014381010465	0.148651585056396	0.96500079015258	0.149127904021306	-0.0145530546470835	-0.00633660805097881
12.1	0.00980125364718119	-0.0044588260931081	0.977362015242952	-0.00257996524102557	0.977335915635521	-0.00210971299011918	-0.013049857750656	-0.00479176721469021
12.2	0.00800953898787172	-0.00653557274631952	0.965303718361287	-0.154227375586424	0.96540835085688	-0.153792077753944	-0.0127128603697119	-0.00402918358838146
12.3	0.00571428026104601	-0.00779372791466324	0.929735544213901	-0.301697174442891	0.929918907111941	-0.301340170270171	-0.0125527427386056	-0.0032341976794927
12.4	0.00276505893030587	-0.00880365419393963	0.872421388803927	-0.441597623645854	0.872551796965946	-0.441223902943634	-0.0127513876909122	-0.00254177411908263
12.5	-0.000696045039376912	-0.00799077400929604	0.794646673303982	-0.572096355267353	0.795101504373773	-0.57170275884865	-0.0131760319149784	-0.000662652868341595
12.6	-0.00243811804667308	-0.00643928033528617	0.696095398543349	-0.688967125104769	0.696439545516575	-0.688656926700668	-0.0117373659304754	0.000534906877997646
