# GHZ S RI R 50
0.2	-9.59599152076506E-05	-0.000102717766041912	0.949494536568643	-0.307821310314839	0.949268238713337	-0.307963315592783	8.09930963908324E-05	3.66110895539848E-05
0.3	-0.000305162903697553	0.000101937607951045	0.889653671502609	-0.451564430106384	0.88951619241481	-0.451617701253067	-9.28634853538372E-05	-0.000170491251411077
0.4	-0.000265799891638804	0.000229650331080074	0.808287638234376	-0.583979536091306	0.808327808144881	-0.584119215717916	-8.46678157152883E-05	-0.000210600036151494
0.5	-0.000420641622586722	0.000637687737791279	0.707533653714356	-0.702599518500612	0.707422985163013	-0.702695459780078	-2.22490830621635E-05	-9.31796506763394E-05
0.6	-0.000155186238066224	0.000664179030204609	0.589373858749837	-0.803721364317893	0.589184190140189	-0.803724270618494	0.000163555011852254	-0.000380199948026075
0.7	-0.000245239398246984	0.000890414592336314	0.457248227660283	-0.885127180169973	0.457174158725937	-0.885161580767467	7.34619862609107E-05	-0.000750341871213962
0.8	-0.000126495272694561	0.000871507398309233	0.314131382077067	-0.945311847692536	0.31401277551328	-0.9452250758193	-0.000184845119588198	-0.00100510417127516
0.9	-0.000297199365035565	0.00107516762827715	0.163340803617983	-0.982465362241267	0.163191718847815	-0.98242246186681	-0.000727491865262873	-0.00132585871255203
1	-0.000601432877292046	0.0016016148373826	0.0084889205031488	-0.995379493901313	0.00837081858212954	-0.995349760310948	-0.00152704228406296	-0.00102757840043953
1.1	0.000126796341572024	0.0020934441344594	-0.145255382754297	-0.984407130324287	-0.145903009459364	-0.984371895665069	-0.00163368991631471	-0.000621254314685387
1.2	0.000679584794545224	0.00136581742641558	-0.297111186990215	-0.949702087045236	-0.297104225975331	-0.949757782356226	-0.00162585589378873	-0.0003361462498772
1.3	0.00146896548420632	0.000120753065533397	-0.440935407062664	-0.891781922719947	-0.441027538697134	-0.891806362669789	-0.000418392414648659	0.00046728486078633
1.4	0.00205460257982517	-0.00208748408864753	-0.573823722201616	-0.812222902379214	-0.573897476044923	-0.812123286818511	0.00137476399537474	1.07296922394189E-05
1.5	0.00256701738249146	-0.00348509503583954	-0.692602759831185	-0.713054300219226	-0.692627340294099	-0.712982260973552	0.00311527795109253	-0.00124616199031966
1.6	0.0017361630244771	-0.00511103935880299	-0.794638099013284	-0.597438659508453	-0.79506760139407	-0.596937969517686	0.00231088798080198	-0.00322790927088228
1.7	0.000738016627369342	-0.00498806882490698	-0.877668891971736	-0.466501672393687	-0.877973111222691	-0.466011554252963	0.000993977384465086	-0.00358807621094629
1.8	-7.92126883199534E-05	-0.00474662723243167	-0.939376499173705	-0.323969597618497	-0.939391945626795	-0.323960123967751	-0.000275034191459231	-0.00379061019456706
1.9	-0.000786656760273367	-0.00398760481362101	-0.978036564487735	-0.174142969890128	-0.978081097883803	-0.174195692565889	-0.00151232208294506	-0.0034436801768484
2	-0.000358635022101362	-0.00308970656200421	-0.993223792196188	-0.0209905775788012	-0.993318392642021	-0.0203408653876196	-0.00175107164242609	-0.00248763973505598
2.1	-0.000418676505708647	-0.00399548139841969	-0.984194461276514	0.135145248201213	-0.98429448129933	0.134660946114591	-0.0021172293524717	-0.00300891687908566
2.2	-0.0017203227352836	-0.0041507139589957	-0.951070422773076	0.285554087063488	-0.951109068123872	0.285687901496669	-0.00319185861310486	-0.00277879825835411
2.3	-0.00281955765849126	-0.0037013121336133	-0.895064156001557	0.42953429916103	-0.894900228272643	0.429622598585868	-0.00408758644622604	-0.00229815028721339
2.4	-0.00421192750385344	-0.00284288556663936	-0.817051378508688	0.563744087497675	-0.817343220472478	0.563282362215322	-0.00506410922114961	-0.0015899797367256
2.5	-0.00437614765712997	-0.000579578472855123	-0.7196233762835	0.684105925989851	-0.719926349985397	0.683725557804463	-0.00492993868693692	-0.000112551712079954
2.6	-0.00339600179549972	-0.000179791866461778	-0.604498564062824	0.786747764655633	-0.604419445574271	0.786688252563756	-0.00378970420178756	-0.000134017632878944
2.7	-0.00298501746544407	-0.000108536496054935	-0.475009672661998	0.870607904680358	-0.474980187372959	0.87062194606515	-0.00359904904607287	-0.000505392940898226
2.8	-0.00284793604288538	-0.000217108847568885	-0.334317214449942	0.933634979419184	-0.334198948633811	0.933719269681559	-0.00359456949745068	-0.000628598932960638
2.9	-0.00225203726560457	-7.72888243563651E-05	-0.185139810307698	0.974166698479044	-0.185135265691118	0.974221460615924	-0.00342153672704948	-0.000105565110448119
3	-0.00140831998775646	-0.00030838679781299	-0.0310322143503976	0.990373705275915	-0.0310963114634433	0.990445210391497	-0.00244338017195334	0.00034172870230046
3.1	-0.00093241107058459	-0.000659221391185853	0.121565768019642	0.982883390532906	0.122213081762388	0.9829635554395	-0.00183730861690051	0.000571373304621826
3.2	-0.000548423765702703	-0.000873766662050393	0.273159200900073	0.952025459750396	0.273149310300939	0.95206501754604	-0.0011463293242156	0.000799864556844041
3.3	0.000177772901871834	-0.00123816343772133	0.418352716848106	0.897654912476132	0.417731269746526	0.897937008227224	-0.000114301017274252	0.000744560017409291
3.4	0.000563954389243584	-0.00159443468255054	0.551992365267308	0.82169502535308	0.551907757416384	0.821810278899093	0.000945020914536726	0.000395993843540825
3.5	0.00189809163381078	-0.00240787826769484	0.67177500626352	0.726133138100245	0.671789229697126	0.726159266546079	0.00238275110230559	-0.000677759750901106
3.6	0.00134794836916787	-0.00411681447945293	0.776109616139781	0.6140501573583	0.776530813073085	0.613656438290926	0.00214142174327809	-0.00248925959499733
3.7	0.000715597963927609	-0.00479386601057547	0.86244280145656	0.485349464725896	0.862449904802074	0.485475801756992	0.00162638092924391	-0.00327572551815436
3.8	-0.000156785194214234	-0.00524929427426589	0.926958381146829	0.345463348964039	0.926986883214679	0.345646305025809	0.000864472175488953	-0.00407833132082173
3.9	-0.000756214032451483	-0.00519836587453982	0.969043507068303	0.197162478917934	0.968945616344928	0.197749307033662	-0.000487934411303013	-0.00461247420561076
4	-0.000335438760229264	-0.00470618820051305	0.988471991277493	0.0457193959678298	0.988553884004077	0.0457623434564166	-0.000754189369060678	-0.00445703164675306
4.1	-0.000271204997940794	-0.00637856099157451	0.983792365143768	-0.109021904673843	0.983730354914061	-0.108957894409453	-0.00168668099526012	-0.00592135433748696
4.2	-0.00175642092753471	-0.00724261846117891	0.954178289648728	-0.26097578133455	0.954372038868819	-0.260407430149288	-0.00354366056114471	-0.00636614560380542
4.3	-0.00316309115764678	-0.00796868932054551	0.902293003317665	-0.405076963867727	0.902293887374046	-0.405058463248023	-0.00546892374654185	-0.00659107396058248
4.4	-0.0054474849720719	-0.00801652770278971	0.828863624848053	-0.540001427953148	0.828783823235174	-0.539985482103283	-0.00802649126976451	-0.00613396253291999
4.5	-0.00677342880004884	-0.00657958546770298	0.734904947472871	-0.663121561024694	0.734781728038586	-0.662975453464608	-0.00984542039981234	-0.00410416770908154
4.6	-0.00725074111611512	-0.00632678548572531	0.622139361260423	-0.768533579661341	0.622125195203446	-0.768304522589618	-0.0105918943379894	-0.00309907185336579
4.7	-0.00842613692183224	-0.00638015514615229	0.495386686526546	-0.85537174700332	0.495503828899381	-0.855127692188953	-0.0120799690079449	-0.00207327426816309
4.8	-0.00980641066298256	-0.00581961605225449	0.356533048055271	-0.921712021032922	0.356826415328346	-0.921524157486442	-0.0131735631393507	-0.000484267519295174
4.9	-0.0107931360788787	-0.00522384095439575	0.208904224315113	-0.965680046571036	0.209163656028655	-0.965629464739699	-0.0136677003572187	0.00163685068356706
5	-0.0112979431864053	-0.00445783707208121	0.0563421102789441	-0.985232909361046	0.0565001687277538	-0.985105645088072	-0.0129380529983862	0.00396430253386379
5.1	-0.0121470684578221	-0.00426911915573705	-0.095874325831707	-0.981811890191347	-0.0955541119271675	-0.981749519801852	-0.0121253171839114	0.0058498296739278
5.2	-0.0131786864287224	-0.00289260330894072	-0.246975351943422	-0.955471675378623	-0.246549034675594	-0.955593542104279	-0.0110167035239424	0.00839499538572856
5.3	-0.0136726831513637	-0.00120536151710814	-0.392311857656909	-0.905638983332686	-0.392023700352421	-0.905982793915368	-0.00892427471862406	0.0109964274602913
5.4	-0.013240108887618	0.00145136284759972	-0.528078587179756	-0.83339286849964	-0.527943139487154	-0.833681674299849	-0.00592110266767131	0.0134216952614914
5.5	-0.0105976187248312	0.00236936349823639	-0.649694403037556	-0.741521808490254	-0.64964443994187	-0.741834567613728	-0.00112036773962642	0.0138002894733788
5.6	-0.0111464383365944	0.00169948502853225	-0.757298919088138	-0.632739646599862	-0.757312156258762	-0.632909655477803	0.000664031749992171	0.012138927112642
5.7	-0.0121212699720568	0.00304302695815645	-0.846703271316847	-0.50739743056792	-0.846679396259144	-0.507572190384431	0.00213585213008428	0.012212818482339
5.8	-0.0125220075810475	0.00528711013645051	-0.91493929392231	-0.369658188691026	-0.914983788382715	-0.369949810658703	0.00395056696478859	0.0122183779858059
5.9	-0.012507954445862	0.0082424937125313	-0.960876103049935	-0.223725085274806	-0.960996181035924	-0.223773087176995	0.00554647146387457	0.0125636648338702
6	-0.00900863541560108	0.011844282623095	-0.985079966961412	-0.0727398686154463	-0.985076755857602	-0.0728084924386614	0.00947858482619955	0.0131545179370959
6.1	-0.00615612834390765	0.0107766289856606	-0.9846479931419	0.0821489399397323	-0.984651078818791	0.0820456412808029	0.0125122191186104	0.00963329460930534
6.2	-0.00524006519078086	0.0104233066008065	-0.959414596867366	0.234103869644053	-0.959462477653139	0.233922266460276	0.0135323076375386	0.0063881226217745
6.3	-0.00497480975544647	0.0100250850425192	-0.911406429725222	0.37986989422539	-0.911430596662064	0.379741308502513	0.0136217812930143	0.00293605261226759
6.4	-0.00509432891652894	0.010334052188267	-0.841930055589002	0.516600894024274	-0.841920993255758	0.516387432143114	0.0125207826312134	-0.000152418017853174
6.5	-0.0046149762876553	0.0109196361691043	-0.751320376204169	0.642280102957593	-0.751420841686552	0.642107666572793	0.0113409879893591	-0.00266803837583257
6.6	-0.00389389701188304	0.0115450645599135	-0.641485615617564	0.750256761072012	-0.64163392224972	0.75011088133778	0.0096364929003876	-0.00470177888442459
6.7	-0.002460417071944	0.0121460655152806	-0.517670582876142	0.840237400664389	-0.517791488145689	0.84008026253882	0.00797531821681046	-0.00607764390604458
6.8	-0.00048566280774442	0.0121022529341873	-0.381256176093139	0.910524324582715	-0.38146705273205	0.910449089001623	0.00620797389445412	-0.00730765732502179
6.9	0.00132118679044267	0.0112147855674178	-0.23501480032669	0.959138380007629	-0.235265451163698	0.959134412411541	0.0044031309920652	-0.00812890940908486
7	0.00297666310209052	0.00951838014465524	-0.0824628818762443	0.982894310956798	-0.0827208151509906	0.98286429620392	0.00250442929487713	-0.00922111935555552
7.1	0.00309315328177461	0.00794523756958504	0.0696782071703602	0.983544615800193	0.0694719148502656	0.983532284795837	-0.000325350962393397	-0.00932179005783603
7.2	0.00345901036957353	0.00690194804188532	0.221422688519565	0.961355504619096	0.221167604501951	0.961399141010032	-0.00241470715537805	-0.00832576127597124
7.3	0.00340217015290155	0.00562313132018271	0.368203208663703	0.915365029079808	0.367963131055069	0.915455400936225	-0.00412368233503208	-0.00700500277880747
7.4	0.00324375202692036	0.00466168029317313	0.505795916528498	0.846381093267881	0.505577860803801	0.846542579388157	-0.00550389729671113	-0.00530498209058557
7.5	0.00338917359068175	0.00330236256991998	0.629321363274035	0.757946936908145	0.629161303638318	0.75811803170017	-0.00571670749522372	-0.00360249888497316
7.6	0.00224963220079362	0.00136944640295861	0.740171185377564	0.652419385379121	0.739955506732362	0.652579532860329	-0.00639611908987644	-0.00290850174643006
7.7	0.000196647958390268	0.00104779163276736	0.832893330254855	0.529382476019996	0.832741884111992	0.529576971384062	-0.00730177276748264	-0.00116975886391099
7.8	-0.00132113220197675	0.00189861909466823	0.904979031946906	0.393426909781583	0.90485771789668	0.39364814361149	-0.00741746546260893	0.000994769031027975
7.9	-0.00258705830042255	0.00410564363731	0.954585949137435	0.248677546526386	0.954544914044146	0.248902723714723	-0.00696743273693373	0.00403674082993365
8	0.00020390383310379	0.00723007703811101	0.983067918259089	0.0983666784549089	0.983137478359844	0.0986592435327415	-0.00393128144207943	0.00723847323049078
8.1	0.00231012293864895	0.00577548311683707	0.986749312767141	-0.056982437759112	0.986873157758107	-0.0567105898609424	-0.000781061453897722	0.00640430701855247
8.2	0.00265410009975944	0.00489562182579447	0.965267941376523	-0.209632335420569	0.965333468357141	-0.209336012630777	0.000458570536383491	0.00580940070770904
8.3	0.00239664318294825	0.00435148591625899	0.9208406508625	-0.356630650027771	0.92097792505619	-0.356374246680475	0.00154618869379004	0.00501450257928258
8.4	0.00144308002564291	0.00432972068217092	0.85501657879619	-0.495161173915057	0.855228202816588	-0.494960640321216	0.00167273088145219	0.00411028739077965
8.5	0.00185958253816937	0.00684141975491655	0.7675663258582	-0.623600793372568	0.767682328914485	-0.62347454689268	0.00271526859719129	0.00511670342159212
8.6	0.0042110695286527	0.00569988253317637	0.660011359374868	-0.734253079306509	0.660208856527132	-0.734067537248028	0.00486672600197417	0.00295601917950936
8.7	0.00410989044255937	0.00470293638040824	0.538362667777019	-0.827196510762102	0.538644496130839	-0.827086975986909	0.00479118525825529	0.0010815388744788
8.8	0.00418524317562501	0.00413706864624788	0.403809899778712	-0.900956792764231	0.404016084213352	-0.90090213872847	0.00425312503912635	-0.00033132331621124
8.9	0.00385432957625402	0.0037458449964797	0.258548330948762	-0.953428693810632	0.258790438046843	-0.95328805511045	0.0033759680268962	-0.00123729236020864
9	0.00448860590004804	0.00408828891223707	0.106200938806471	-0.980411044561308	0.106563039913788	-0.980381556986669	0.00303017304234506	-0.00096900396394561
9.1	0.00541718833479622	0.00363388303012755	-0.0455318742267602	-0.984796943748937	-0.0451794903023731	-0.984811222157939	0.00314375593573395	-0.0010470815407143
9.2	0.0070805523009787	0.00339564686674876	-0.198040557455733	-0.96645576322973	-0.19768445582858	-0.966526200242298	0.00415474624622688	-0.000389565822241458
9.3	0.00947813506500882	0.00210759781937156	-0.346281849918079	-0.923989247422081	-0.345924394886349	-0.924053597286028	0.00633327254651081	-0.000556762778804552
9.4	0.0113590751959526	-0.000429063208671559	-0.485676116977591	-0.857971517866799	-0.48535286786105	-0.858119585524973	0.00814903290677206	-0.0017539684092224
9.5	0.0135369809212423	-0.00475566457456162	-0.610923535788858	-0.772258589789463	-0.61071739636433	-0.772395574672466	0.010522567146662	-0.00444124854685637
9.6	0.0101426746049823	-0.0105376929591242	-0.724355959122408	-0.669249894700792	-0.724082727986716	-0.669434494936058	0.00802539835047023	-0.0082320591314148
9.7	0.00584692815132572	-0.0120113588070172	-0.819808584429372	-0.548148105638008	-0.819561907234253	-0.548417490772985	0.00552836479678707	-0.00867782136506163
9.8	0.00202879150787762	-0.0124390784500883	-0.89458391488151	-0.413816536271451	-0.894374681611554	-0.414091522104688	0.00363386239683498	-0.00855473690117082
9.9	-0.00206596850128265	-0.0106957776894103	-0.947079744885031	-0.270461094130744	-0.946967011627394	-0.270790225061155	0.00180338672629481	-0.00729512455545826
10	-0.00195094029349818	-0.00803459083368972	-0.979243913357389	-0.121340552864589	-0.979162881511856	-0.121719655465556	0.00336542634926787	-0.00534549324911411
10.1	-0.00391608132926876	-0.00957427717145306	-0.986163090562753	0.0339682808271658	-0.986143312365365	0.0334893807939997	0.00319704975870008	-0.00753164238351695
10.2	-0.00749883250306579	-0.00854098860304885	-0.968121326013419	0.18657181033655	-0.968106521412826	0.18612140491598	0.00159939806990998	-0.00777236896401382
10.3	-0.0107494248783795	-0.00598209472031776	-0.927353242410856	0.334098197394869	-0.927488671418834	0.333557328161234	0.000138276200118107	-0.00775285222725792
10.4	-0.0134726643915538	-0.00225628890029995	-0.865229291495341	0.473869889899302	-0.865494629219776	0.473333099914561	-0.00151802178412752	-0.00720464823140844
10.5	-0.0133620007795103	0.00372574637082494	-0.780817085883995	0.604705886161235	-0.781101292640689	0.604318442218526	-0.00121061806919118	-0.00533446540193036
10.6	-0.0104132255601536	0.00656244860519775	-0.675622232063242	0.717529264727963	-0.676049717966499	0.717186297344475	0.000474428929024633	-0.00604384601085583
10.7	-0.00791558666935198	0.0079890505999746	-0.556252609884845	0.813014421755463	-0.556664943044385	0.812727109743713	0.00130673587912577	-0.00784834724259374
10.8	-0.00617157157978502	0.0082539553617211	-0.423394271457643	0.889453928564289	-0.423905467410523	0.889225977397021	0.00062085183779996	-0.0101705620573272
10.9	-0.00503891716733733	0.00930883652124939	-0.279526793411007	0.944906226209395	-0.280015244416309	0.944856838798747	-0.0012018138489029	-0.0114828484696789
11	-0.00274829885476781	0.00982913738129869	-0.12808186956499	0.974686888477883	-0.128627438034185	0.974685296876297	-0.00252953792230677	-0.0122975681558089
11.1	-0.00111841398787865	0.0101763108130512	0.0228641026290572	0.982174005184159	0.0222363599240405	0.98225867176875	-0.00452882109099582	-0.0128425048772571
11.2	0.00115403153024002	0.0102580667899889	0.174834069666184	0.967259726113706	0.174316169243709	0.967464017063647	-0.00599694303144941	-0.0127073165818301
11.3	0.00350272526438602	0.00995607215306072	0.323083381452936	0.928261735230531	0.322655296865209	0.928525406851766	-0.00714150467556161	-0.0122578535493222
11.4	0.00580883876545076	0.00955609065782172	0.463268374513031	0.865671316226755	0.462806306781238	0.865932534558209	-0.00813633872543014	-0.0109861023363581
11.5	0.0102306347806767	0.00773615802509069	0.589416183409415	0.783521634241933	0.58906026663177	0.783938944588544	-0.00699808464220761	-0.0107039270863789
11.6	0.0106365338702995	0.00306135201375083	0.704822499331946	0.684071614719465	0.704557045464728	0.684551910147718	-0.00922278697852402	-0.0119479222149056
11.7	0.010011807886482	0.000976520529752669	0.802891699170699	0.565850050782425	0.802654169401394	0.566272189540774	-0.0114851682121446	-0.0108370253983688
11.8	0.00893830766761529	-0.000813253985900509	0.880466051185069	0.433790892533789	0.880284012295796	0.43434268010207	-0.0135520622053613	-0.00928744619422998
11.9	0.00735855906188305	-0.000355019448775154	0.935903597272988	0.292689259074642	0.935866673508072	0.293232009941255	-0.0158822413386824	-0.00586442948273193
12	0.0102258318299496	0.00088490863226445	0.97184682501512	0.145487243279694	0.971835180032605	0.145966679427511	-0.0134503921129557	-0.00157441430488433
12.1	0.0111505974626324	-0.00305765886849711	0.982619396970911	-0.00886430994541829	0.982596173509484	-0.00839135273769051	-0.0124426608790532	-0.00187006608331685
12.2	0.00988598062371084	-0.00572972067336002	0.968466027338158	-0.161090822875455	0.968573905804184	-0.160654324363543	-0.0123322831084352	-0.000844263201208444
12.3	0.00825877852630852	-0.00785419503945426	0.931682052370458	-0.308659400912436	0.931868364973751	-0.308302065233724	-0.0117973121756183	-0.000144424669340191
12.4	0.0050488761661973	-0.00949688072158629	0.873947240255445	-0.449370892721804	0.874080685492338	-0.448996143009442	-0.0121104597946845	0.000398804355381897
12.5	0.0031786628295445	-0.00829346837400869	0.792942910279226	-0.582177879635621	0.793403524199456	-0.581786734183007	-0.0113014911244902	0.00252119022409742
