# GHZ S RI R 50
0.2	-0.00037173494226697	0.000156981514442852	0.948390611649381	-0.308037965436894	0.94816445897312	-0.308179706911023	-0.000145357419671296	0.000240200157766563
0.3	-0.000412623457333319	0.000467439932456712	0.888281146507664	-0.451622187783305	0.888143796550623	-0.451675302278467	-0.00013812969397866	7.41212122116381E-05
0.4	-8.69398458532316E-05	0.000574412971107919	0.806608950764273	-0.583701445850728	0.806648953174833	-0.583840942586119	0.000136712828949645	-4.96805429246056E-05
0.5	-0.000224344887136354	0.000493343674033631	0.705863318455954	-0.701574029536821	0.705752818429594	-0.701669737382911	0.0002028881914112	-0.000430604629765094
0.6	-0.000384263651922373	0.000765713510899863	0.588108540074064	-0.802505336605426	0.587919199612	-0.80250818053132	1.98117996223219E-05	-0.00053229806715264
0.7	-0.000296600380418781	0.00125801108831854	0.456045679455818	-0.883650423921095	0.455971735633701	-0.883684731115728	9.91121055384269E-05	-0.000760948750805662
0.8	5.02272685093277E-05	0.00136310023011944	0.313166339435605	-0.943411389583444	0.31304801143633	-0.943324763637339	-1.47226964610827E-05	-0.00101609393931296
0.9	0.000412564769543684	0.00168717956189129	0.162935806568979	-0.980172573968793	0.162787071345394	-0.980129770370123	-0.000225570254359861	-0.00129885877544462
1	0.000797271552931817	0.00105707922408157	0.00879210155409336	-0.993377844473159	0.00867422727296217	-0.993348208605693	-0.000626026537931996	-0.00196211160324014
1.1	0.000206826829444878	0.00112923564930903	-0.145025572159173	-0.982389530458195	-0.145671875569087	-0.982354323965494	-0.00197515212206113	-0.00160256133953661
1.2	0.000367794418638657	0.000890962346013075	-0.296358825694894	-0.947466596637995	-0.296351878332822	-0.947522159625969	-0.00212202486625887	-0.000614237642711903
1.3	0.00069305803631647	9.01193935276738E-05	-0.439549519552233	-0.889709060168177	-0.439641414260481	-0.889733469361395	-0.00100246066696868	0.000662413761829481
1.4	0.000983020221426902	-0.00148343449159494	-0.572016191659138	-0.810665360420051	-0.572089831655455	-0.81056601961108	0.000822245106028623	0.000584110408345772
1.5	0.000641505540700703	-0.00214445205861896	-0.690994882156324	-0.711611146198244	-0.691019420025861	-0.711539266844893	0.00198085931253143	-0.000346910174824451
1.6	0.00112942861344114	-0.00218630907811684	-0.79215429296632	-0.595898859987996	-0.792582669787001	-0.595399749016065	0.00236546200808729	-0.001451342817556
1.7	0.00146456144487383	-0.00267090558826096	-0.874634899751809	-0.465765560953736	-0.874938574925866	-0.465277171150735	0.00186409322099097	-0.00268318431885936
1.8	0.00127415196820976	-0.0032504218400605	-0.936263966118486	-0.324016441329058	-0.936279377161119	-0.324007012067217	0.000769045782976813	-0.00364149398377044
1.9	0.000914897001186767	-0.00380525686977668	-0.975072510157758	-0.174655193243707	-0.975116862405365	-0.174707811725683	-0.00042124618594306	-0.00427478393796805
2	-0.000606951637320732	-0.00406927910180391	-0.989647868364256	-0.0219193996322476	-0.989742786950873	-0.0212721083933598	-0.00237979619515751	-0.00406333545947218
2.1	-0.000959943689009757	-0.00305791152773741	-0.980926819920841	0.132604137157196	-0.98102546863525	0.132121373044882	-0.0027853590542484	-0.00291787404944042
2.2	-0.00126574319726672	-0.00308788501212508	-0.948710050769259	0.282365835388073	-0.948748892489874	0.282499129202194	-0.00309097864003126	-0.00273498768789728
2.3	-0.00174343886709153	-0.00302028360958022	-0.893389878453248	0.4259879244318	-0.893226673256307	0.426076361455379	-0.00368369048164918	-0.00252915061114503
2.4	-0.00247616840877963	-0.00311647734425242	-0.815847121092649	0.559748400049286	-0.816136792860665	0.559287425481003	-0.004266961562986	-0.00234097396402744
2.5	-0.00392239886166556	-0.00293942822721486	-0.719689632115456	0.679052698558789	-0.719990137534797	0.678672514270681	-0.00513258795464943	-0.00216027251299112
2.6	-0.00498135495733888	-0.00132807722254808	-0.606259638778208	0.782444313517402	-0.606180465797231	0.782385262163612	-0.00519469672624259	-0.000880338783315229
2.7	-0.00473347544050667	7.19862255610697E-05	-0.477385053872886	0.866917721965324	-0.477355685605847	0.866931848103022	-0.00469490912549419	-0.000314198248367827
2.8	-0.00411850420537899	0.000896384035676982	-0.337393092426239	0.930328954479271	-0.337275414999531	0.930413546561412	-0.00407617825405184	3.89119913149671E-05
2.9	-0.00290908022617105	0.00131080240564575	-0.189266763305203	0.971358942144024	-0.189262480656597	0.97141361546784	-0.00332836633093743	0.000481259689834302
3	-0.00186519718893418	0.00147868234323135	-0.0361021730096383	0.989443359029538	-0.0361665880301133	0.989514478797852	-0.00219156675116774	0.000982001314051182
3.1	-0.000262830912361036	0.00122173790376477	0.117340962567262	0.982947488372344	0.117987638916371	0.983030362066845	-0.000763689474107983	0.000999105524658523
3.2	0.000574590545514466	0.000340957749319029	0.268860708163627	0.952619582318181	0.268850652135788	0.952659072676286	2.51616332398227E-05	0.000494655114536014
3.3	0.00140026922007794	-0.000641776581960901	0.414007882081156	0.899258546495424	0.413385359877634	0.899537637218336	0.00093459117636723	-6.26908953783877E-05
3.4	0.00148097112158214	-0.00182092655398843	0.54815518463639	0.82469021532727	0.548069981845412	0.824805094220278	0.00165338862336095	-0.00100654839610232
3.5	0.00134935783287278	-0.00234205264009339	0.669670337299092	0.729464038773055	0.669684474785508	0.729490248788401	0.00194525375188188	-0.00177532513611911
3.6	0.00157818956078738	-0.00290906351448702	0.773891957956676	0.617103373602295	0.774314720993569	0.61671119745283	0.0024271400198306	-0.00284262017857976
3.7	0.00161746381311641	-0.00395347545607428	0.860685397716505	0.489242482353632	0.860691960632448	0.489368898144458	0.00224459605105642	-0.00407411067788457
3.8	0.00106407560372735	-0.00492751379542028	0.926268975717363	0.349808155948299	0.926296705399702	0.349991397390536	0.00151102511570601	-0.00521772034158991
3.9	0.000605877207790195	-0.00596511157619093	0.969550236013362	0.201172376581953	0.969449945182831	0.201759594816719	0.000165747728334263	-0.00638840147608976
4	-0.0010411055030165	-0.00644101026143108	0.988655300247127	0.0491761687940272	0.988737071847093	0.049219416234996	-0.00164444415780065	-0.00669056688160555
4.1	-0.00156356566785014	-0.00618202794648259	0.984879871142304	-0.10442031449763	0.984817521435034	-0.104356561144407	-0.00258968474628388	-0.00657112478907113
4.2	-0.00240767729075544	-0.00651681493644614	0.956749477579033	-0.256780057933032	0.956940780805832	-0.256209992278019	-0.00377535634014682	-0.00686126005869312
4.3	-0.00326013380236068	-0.00706640446705876	0.905691897211319	-0.401737829838776	0.905692699796463	-0.401719292832612	-0.00529137080291628	-0.007111904446094
4.4	-0.00459929405822378	-0.00757511276556867	0.832424994882705	-0.537307171032163	0.83234500347223	-0.53729153971917	-0.00717251286154785	-0.0070291163310087
4.5	-0.00666079021561962	-0.00807983700980746	0.73959414853545	-0.660004654726874	0.739469950396076	-0.659859020612331	-0.00956262087657851	-0.00640751135665131
4.6	-0.0088046736974998	-0.00691715345281296	0.628309125595326	-0.767510157830244	0.628293655259245	-0.767280463685549	-0.0112728285889467	-0.00459175871723349
4.7	-0.0101422018169734	-0.00608668764239457	0.501273171369922	-0.856036519590329	0.501389556091908	-0.855791030170454	-0.0125902399881911	-0.00317515421067267
4.8	-0.011454883670405	-0.00479073531193642	0.362028896990711	-0.923472519676949	0.362322486599219	-0.92328263406061	-0.0135670712057653	-0.00138342470436133
4.9	-0.0120840037810173	-0.00370164042015553	0.214403341546018	-0.9683294589013	0.214663512032072	-0.968277420752964	-0.0138989784586913	0.000779120293537015
5	-0.0126273637795991	-0.00233337580540206	0.0616408621759251	-0.990410617703516	0.0617991529312737	-0.990281847841325	-0.0134046668828633	0.00331465218968786
5.1	-0.0121079141755675	-0.00130906497680769	-0.0931985520103761	-0.987900136203527	-0.0928766614041751	-0.987836342634355	-0.0118332120494041	0.00553158190892589
5.2	-0.0117818200332979	-0.000583214738772769	-0.245554115154652	-0.96149423061759	-0.245125076615931	-0.961615527955122	-0.0102793579734256	0.00752327797366638
5.3	-0.0116486865035606	-0.000312630652830097	-0.391964025515194	-0.911948084167351	-0.391673233517036	-0.912293037909045	-0.00817555248373076	0.00939428931532544
5.4	-0.0120432972126561	0.00034727339196243	-0.529314602754934	-0.840271633895466	-0.529177494401356	-0.840561972101922	-0.00589198747820893	0.0108239416084179
5.5	-0.0128112066520332	0.00214158792575644	-0.65381407471407	-0.747272783925835	-0.653763535466288	-0.747587741533563	-0.00336003418278951	0.0123248376685722
5.6	-0.0117336855445211	0.0041456078467254	-0.761418206691257	-0.636568402817985	-0.761431467988625	-0.636739383249866	0.000186925612427389	0.0124340610690566
5.7	-0.0111085700548018	0.00503688101477375	-0.851253191901405	-0.51072527467042	-0.85122908973645	-0.510901015922483	0.00270227634839793	0.0118850955875797
5.8	-0.0106054606859665	0.00624398548245108	-0.920361236571426	-0.372099547467679	-0.920405930208235	-0.372392935921821	0.00496761471357369	0.0112340136975024
5.9	-0.0102836814343238	0.00687303926560502	-0.96707585838269	-0.224378121400412	-0.967196726702149	-0.224426330693431	0.00683057266188554	0.0101968692994497
6	-0.010876827321815	0.00863829167860011	-0.989729119620953	-0.0714895555491638	-0.989726004125404	-0.0715585004840297	0.00802413768569265	0.00981834108387966
6.1	-0.00951663580782486	0.0110711177941986	-0.989147483220492	0.0828153845385564	-0.989150613464345	0.0827116120553766	0.0109147710639512	0.00883000277848594
6.2	-0.00781502681140037	0.0123496757554666	-0.964318307420294	0.235884614966483	-0.964366544088372	0.235702085533844	0.0128789626372898	0.00601749555717581
6.3	-0.00635391762345875	0.0129298253859372	-0.915780795113712	0.383023733439498	-0.915805250591493	0.382894493902518	0.0136445468498632	0.00265034816215844
6.4	-0.00500071480393637	0.0131030413794344	-0.844839270663502	0.520514967212294	-0.844830559008824	0.520300510478762	0.0131722932333736	-0.000863376347145644
6.5	-0.00401519866025269	0.0130848790582459	-0.754105771002919	0.645228286574032	-0.754206721579101	0.645055190417171	0.0119029242953797	-0.00381662910199419
6.6	-0.002522542463033	0.0130516407921842	-0.644533392734787	0.755126246556603	-0.644682678351528	0.754979654539867	0.010390673838984	-0.00623650721535766
6.7	-0.00130372141644987	0.0125166893589161	-0.518955104494737	0.846059042764219	-0.519077011617949	0.845901248274605	0.00827738730430351	-0.00812029312302276
6.8	-0.000124515243245035	0.0120170894216949	-0.380967833983306	0.916188009984225	-0.381179989863075	0.916112908808167	0.00595606414165909	-0.00929010895187616
6.9	0.000776816382871049	0.0112127689730743	-0.234102731370592	0.964165708492396	-0.234354574856017	0.964162250635563	0.00378455570116765	-0.00987167717943886
7	0.00192739054391153	0.010688525555751	-0.0810558489362736	0.989305255926373	-0.0813154810552983	0.989275557113621	0.00185027598834312	-0.0101505376340379
7.1	0.00291115887442511	0.00950135332061886	0.0741325919285886	0.989259686772443	0.0739249904863261	0.989248125618465	-0.000178975993807542	-0.0102442976472856
7.2	0.00354815019480462	0.00830061031219574	0.226871905548953	0.965312291702978	0.226615703858965	0.965357296155692	-0.00206345780174175	-0.00958825333953982
7.3	0.00361514057180277	0.00693392290872283	0.374052745164639	0.918132076957588	0.373811914206264	0.918223953179132	-0.00371357357076775	-0.00855711682497088
7.4	0.00342545042805908	0.00576539178886589	0.512347502598613	0.848614926600867	0.512129012984296	0.848778267536991	-0.0052673042414015	-0.00725893640885763
7.5	0.00277170999588965	0.00491724377595199	0.638034016152764	0.757719346309693	0.637874270121753	0.75789249000186	-0.00629694081966511	-0.00529616580949111
7.6	0.00279996022585079	0.00424999449893975	0.747220040121217	0.64913332780115	0.747004837201949	0.649295538607375	-0.0062671420800156	-0.00387769121731976
7.7	0.00225717637256585	0.00347776139842131	0.838653698017631	0.525182795203548	0.838503159017734	0.525378822771466	-0.00656721281183064	-0.00251565910827708
7.8	0.00181151311999018	0.0030432387147958	0.909958982198253	0.388236506674163	0.909838873385639	0.388459129736306	-0.00630045592050255	-0.000937553932285892
7.9	0.000886760021812412	0.00259486806985518	0.958726858111448	0.241775947498969	0.95868749154389	0.242001963496753	-0.00579554120215001	0.000762169103384308
8	-0.000688464740296184	0.00338166515365943	0.983583544421023	0.0901331005556013	0.983655524182115	0.0904249943730437	-0.0053681071086945	0.00290342998779378
8.1	-0.000637240594152776	0.00519558212985591	0.985708516627466	-0.0633342644846984	0.985834037909484	-0.0630634037303117	-0.00276783351126873	0.00470221489898067
8.2	0.000114437841765034	0.00613385533398276	0.963571104006935	-0.215752655440276	0.963638509405491	-0.215456861084805	-0.000617197447888177	0.00483630058284423
8.3	0.000756372846764947	0.00681467961609381	0.917771492529889	-0.362654163093804	0.91791041753657	-0.362398872951657	0.00125767463369484	0.00435620632873405
8.4	0.00174362304722186	0.00686452915324895	0.849793516144869	-0.500203263698042	0.850006130114022	-0.500004629767031	0.00271578575233842	0.00310394602932839
8.5	0.00128194248875975	0.00678460861810251	0.762313707243436	-0.625514668969865	0.762429986097505	-0.625389351596372	0.00292017709722023	0.00199105450452124
8.6	0.0019371380150767	0.00815587207808033	0.655530536183855	-0.736560065247917	0.655728693428849	-0.73637573882285	0.00407601645784041	0.00149010226159127
8.7	0.00326687143251703	0.00878097296764376	0.532753639946307	-0.828860688268938	0.533035615390126	-0.828752939872488	0.00489628734237345	-1.32403220269421E-05
8.8	0.00514508093315682	0.00876801247384328	0.397648221603084	-0.900969732411574	0.397854193765138	-0.900916392550343	0.00485812003571919	-0.00160363332254651
8.9	0.00708000013616568	0.00788440911030344	0.253235611518742	-0.951507298881826	0.253477581750445	-0.951368255560159	0.00455796286458589	-0.00284289187585425
9	0.00867232335623789	0.00605397168778438	0.102076845111741	-0.979389910253309	0.102438529668207	-0.979361931460899	0.0040733045216477	-0.00356397467942098
9.1	0.010001594075869	0.00411284489325806	-0.0513238338882052	-0.982425574225093	-0.0509722864515082	-0.982441929426315	0.0042054197269671	-0.00396490104403197
9.2	0.010920869992908	0.00145126054024168	-0.202899807121556	-0.961981305046703	-0.202545339631382	-0.962053541258914	0.00461894243121893	-0.00434839256269779
9.3	0.010972139034234	-0.001185456187008	-0.34948195433268	-0.91860936565849	-0.349126235963312	-0.918675229654696	0.00540613526662884	-0.00476115548745015
9.4	0.0101482316216447	-0.00419290740801335	-0.487724169187389	-0.853075136950728	-0.487402616140761	-0.853224091378226	0.00602617438758395	-0.0057852741048081
9.5	0.00803614315036348	-0.0052340044975478	-0.61392615635098	-0.765994932117116	-0.613721523235238	-0.766132799554474	0.00625297507119857	-0.00599280630696501
9.6	0.00743159717476837	-0.00665469381897265	-0.724271131046024	-0.661279193225676	-0.724000501111681	-0.661464375779934	0.00670324242026769	-0.00755384003639942
9.7	0.00565478816420963	-0.00814640536871881	-0.817576104207874	-0.541035411101777	-0.817332156626517	-0.541304378044627	0.00572176100926187	-0.00889134233273785
9.8	0.00349950215047988	-0.00930411859963361	-0.891232899561755	-0.407564920962979	-0.891026059724479	-0.407839231683154	0.00448205050941428	-0.0094799294512202
9.9	0.000659380993668204	-0.0100246504883654	-0.942964302736762	-0.264144279912098	-0.942853872801943	-0.264472074591501	0.00327451653064216	-0.00964739034057227
10	-0.00328628477409938	-0.00918590566401889	-0.971439340550325	-0.115358631056712	-0.971360917207161	-0.115734884150788	0.00195820063259938	-0.00852623935759311
10.1	-0.00523126472730125	-0.00692930534057388	-0.97760645975092	0.0360519280625135	-0.977588005245158	0.0355770958162845	0.00254781171227305	-0.00803215698129442
10.2	-0.00674003442043261	-0.00546574142143356	-0.960027066987865	0.187005270266389	-0.96001327473937	0.186558428925924	0.00236922528342947	-0.00848279392761154
10.3	-0.00835290893366548	-0.00359642784404437	-0.919101767399507	0.333239918103953	-0.919237181380322	0.332703741584201	0.00165798961139837	-0.00897477812914887
10.4	-0.00957990800414533	-0.00198703360894593	-0.856122055613977	0.470903107200115	-0.856385825996453	0.470371915779508	0.000820852974302683	-0.00949843993406579
10.5	-0.0113218520059257	0.000414613766176256	-0.773679606711629	0.597412144053016	-0.773960356669377	0.597028264069878	-3.88043998198627E-05	-0.00956870682795107
10.6	-0.0115486586173517	0.00356628755331161	-0.671603629691119	0.710459393377278	-0.672027019673507	0.710118342692035	9.46121846093084E-05	-0.00972404875734007
10.7	-0.01086206620688	0.00655449626533377	-0.553268450058845	0.805679209874298	-0.553677054225712	0.805393452156923	0.000267473587389993	-0.0106085825882417
10.8	-0.00937169159886217	0.00877462035695392	-0.421815021775723	0.881275961030302	-0.42232155025757	0.881048791533904	-0.000118219313568777	-0.0119587909158994
10.9	-0.00772116077789858	0.0108926538758151	-0.280686746695579	0.935947392634537	-0.281170919288869	0.935896608139928	-0.00136995799198401	-0.0130902311304413
11	-0.00540336481129587	0.0125470473654278	-0.131905162300627	0.968650467521091	-0.132447678389259	0.968646344607587	-0.00256501287346712	-0.0137099023559416
11.1	-0.00238303005552351	0.0136797799541835	0.0200512099526998	0.976641039755126	0.0194268122120445	0.976723509397282	-0.00372276930420707	-0.0144360098942882
11.2	0.000835985595115566	0.0136325967456701	0.170635483614569	0.961554415066217	0.170120287001445	0.961755741686885	-0.00501868904876669	-0.0149252408474595
11.3	0.00388528637702321	0.0129008839352925	0.317168463217105	0.923685371040438	0.316742012836483	0.923945583785163	-0.00620795456065602	-0.0150691478951469
11.4	0.00631886226261353	0.0111018263855036	0.456709058334169	0.863646564328828	0.456248002829491	0.863904212214791	-0.00758388902082358	-0.0147929026601779
11.5	0.0081521439052943	0.010189593098281	0.584931696199074	0.781587192316634	0.584576288850409	0.782001818523606	-0.00862090205038264	-0.0135594030400151
11.6	0.0108147939852909	0.0079894709024135	0.697986117976949	0.681849268497388	0.697720859817447	0.682325552385691	-0.00916439579410093	-0.0133568443467949
11.7	0.0124218001671907	0.00517532833551802	0.795209119629389	0.565984054989726	0.794971140682249	0.566402431402213	-0.0106206049070942	-0.0129579386851875
11.8	0.0129811768324478	0.00176923757039362	0.873427863450254	0.435944203570804	0.873243984490015	0.436492041657955	-0.0123036085588052	-0.0120262728519015
11.9	0.0123429207320286	-0.00154421640187821	0.930160368072409	0.295277766217049	0.930121305338993	0.295817753100119	-0.0141499739634578	-0.0101593365608973
12	0.00949506905126479	-0.00352260342221027	0.964077530213852	0.148613625702243	0.96406390100761	0.149089488656003	-0.0154311248778243	-0.00700768445905153
12.1	0.0084545799432373	-0.00404430610458198	0.97624301004752	-0.00193915671626732	0.976216633449622	-0.0014694607161133	-0.01434213560268	-0.0045049979926743
12.2	0.00709190931536931	-0.00525096367347822	0.964525183602913	-0.153245879990943	0.964629340339837	-0.15281090285945	-0.013532339674477	-0.00292649091369487
12.3	0.00568701482597174	-0.00604640973162927	0.929264849916852	-0.300660718914219	0.92944776180472	-0.300303837421824	-0.0124678101184036	-0.00171404478883027
12.4	0.00389670509346917	-0.00728046711577777	0.871959062909431	-0.44062140715885	0.872089104164766	-0.440247924297972	-0.0115163468692944	-0.00126553095622345
12.5	0.000901044781067861	-0.00773483108930318	0.794307680386947	-0.570538725371036	0.794761532388694	-0.570145110180421	-0.0114387065786681	-0.000679852147341944
12.6	-0.00124818948640361	-0.00684512900013238	0.696426150220146	-0.687541862645397	0.696769632959646	-0.687231469624483	-0.0103223111142535	-0.000210094151351806
