# GHZ S RI R 50
0.2	-0.000308148229076939	0.000121684535790302	0.948425683334612	-0.308049670289066	0.948199522229575	-0.308191416951184	-9.20341199275186E-05	0.000216430579884543
0.3	-0.00037255046114774	0.00038992336634005	0.888303442599402	-0.451632175933687	0.888166089340151	-0.451685291895592	-0.000110997472274816	2.15300230032481E-05
0.4	-9.2890001095156E-05	0.000458060446588433	0.806628235461735	-0.583691300728216	0.806668240990909	-0.58383079803568	0.000121798320685592	-0.000128084320919132
0.5	-0.000337259886010359	0.000391094334450523	0.705930827213633	-0.701566778059797	0.705820327501197	-0.701662495874168	8.38008603413144E-05	-0.000492842264658506
0.6	-0.000497559660530157	0.000732126486507428	0.588152179288179	-0.802529806177957	0.587962830208821	-0.802532654181035	-0.000111242922767681	-0.000513245150619982
0.7	-0.000426015599407842	0.00123888095836576	0.456094985923796	-0.883660738020617	0.456021041070895	-0.883695049219114	-4.6294657723641E-05	-0.000701543064404966
0.8	-8.25623827915214E-05	0.00138302026266495	0.313239070845433	-0.94342958855456	0.31312073252565	-0.943342966641057	-0.000146099103251153	-0.000891949385467056
0.9	0.000330358739977004	0.00171071436131633	0.163032260908346	-0.980227114264389	0.162883511524211	-0.980184320568123	-0.000264709846441184	-0.0011542690231811
1	0.000705672581453884	0.00103266830246306	0.00884528206764667	-0.993479308339066	0.00872739410446011	-0.993449675620117	-0.000614560182635603	-0.00190591192674972
1.1	0.000311091281700088	0.0010737679241835	-0.144962275057485	-0.982470123369832	-0.145608626991306	-0.982434962778252	-0.00178274870211205	-0.00165369322642006
1.2	0.00068198773112681	0.000452158995020253	-0.296290782118242	-0.947596723374231	-0.296283828229187	-0.947652291440126	-0.00176950683978978	-0.00109277863705197
1.3	0.00109623310495426	-0.000853334384019141	-0.439519353345547	-0.889881782600177	-0.439611258617002	-0.889906204855363	-0.000637314448792209	-0.000328642227213881
1.4	0.00130098545939094	-0.00280165792538598	-0.572050782224317	-0.810851487960682	-0.572124442915475	-0.810752135786906	0.00103451290091724	-0.000732025326257498
1.5	0.000777238267159064	-0.00338934983464247	-0.691045046269268	-0.711760856180687	-0.691069592629226	-0.711688968185199	0.00194853841093982	-0.00150156034385541
1.6	0.00110609849264304	-0.00332753803061468	-0.79224677077256	-0.596111849165995	-0.792675292592733	-0.595612686022864	0.00220384731804653	-0.00236490713008076
1.7	0.00122465866384844	-0.0035262284502593	-0.874825851266876	-0.465957257916841	-0.875129644882811	-0.465468764955465	0.00159080380505125	-0.00325255628968844
1.8	0.000952063088982624	-0.00382231690872272	-0.936517048802346	-0.324147018350739	-0.936532464632854	-0.324137587007551	0.00050874177904439	-0.0039371891816718
1.9	0.000541386917140285	-0.00414426205211814	-0.975340997171025	-0.174716122006475	-0.975385361071656	-0.17476875563294	-0.00067057781714534	-0.00440602680329034
2	-0.000885433128565346	-0.00406758684586256	-0.989946164269929	-0.0219838496483079	-0.990041149403571	-0.0213363679874661	-0.00258106061576519	-0.0039398071327079
2.1	-0.00101009419729249	-0.00310425151356405	-0.981298723910129	0.132666539763762	-0.981397416046554	0.132183593036816	-0.00281026222267213	-0.00279112352111071
2.2	-0.00134420445108389	-0.00315984070590089	-0.949041077678835	0.282530055623148	-0.949079925207987	0.28266340094815	-0.00309818997424077	-0.00259862056098322
2.3	-0.00183146433829713	-0.00305759102434788	-0.893678253139723	0.426214795371896	-0.893514981712632	0.426303251080618	-0.00363569232118699	-0.00237969927967897
2.4	-0.00258049907989016	-0.00312573754788179	-0.816110456313246	0.56001933821802	-0.816400271210781	0.559558212857413	-0.00418179656027277	-0.00225256781839333
2.5	-0.00397774284455742	-0.00275276470787286	-0.719941595144845	0.679459230585458	-0.720242288135836	0.679078905963901	-0.00505768631521512	-0.00203676061412633
2.6	-0.00466581303446797	-0.00123213486110337	-0.606334559274405	0.782904165805168	-0.60625536683643	0.782845072240887	-0.00492253675815767	-0.000865791242644417
2.7	-0.00427081727854787	-0.000178739064621449	-0.47737835215441	0.867362233230563	-0.477348969303069	0.867376358350255	-0.00437310993938439	-0.000564420111549561
2.8	-0.00373346678839752	0.000277673988787603	-0.337312249886973	0.930785189039897	-0.337194504962721	0.930869787902362	-0.00385900468622691	-0.00048437009845064
2.9	-0.0027577795002104	0.0004754793291915	-0.189086437101941	0.971843930927345	-0.189082137655891	0.971898627482977	-0.00333534818163832	-0.000191230288707002
3	-0.00191866793685753	0.000562664747867856	-0.0357214176590913	0.989864539166852	-0.0357858307392453	0.989935713928475	-0.00239620636406363	0.000301021009454608
3.1	-0.000595043364667788	0.000264199582057119	0.117726613045959	0.983233790487609	0.118373534176231	0.983316463827544	-0.00118166526842699	0.000344848788641132
3.2	-7.34111150431009E-06	-0.000469787182600689	0.269293497942905	0.952877356981299	0.269283452020471	0.952916865447361	-0.000573547530711599	-7.49892141857965E-07
3.3	0.000662181030305748	-0.00125244930778917	0.414527981756233	0.899446756417605	0.413905326273693	0.899726204237692	0.000226179678645331	-0.000380391484348893
3.4	0.000653289963072822	-0.00217261236075134	0.548760451976224	0.824737565222101	0.54867527240154	0.824852528674128	0.000864111202710788	-0.00111062328460611
3.5	0.000658213850703377	-0.00243656810735908	0.670192075705315	0.729335408356911	0.670206229350451	0.72936161847217	0.00122961661048248	-0.00162356175850472
3.6	0.00091385816555983	-0.00300308812210309	0.774422850079156	0.616981111200254	0.774845588829916	0.61658861859242	0.00175083287741181	-0.00260986987630925
3.7	0.000912971438824923	-0.00388987315794144	0.86125035439322	0.48897581340969	0.861256984943256	0.489102271701188	0.00159874127438615	-0.00366809502177332
3.8	0.000386535531768094	-0.00468316709476274	0.926776246232295	0.349384359835685	0.926804091553156	0.349567645271726	0.00095305933443162	-0.00466779519077834
3.9	-3.79543581287773E-05	-0.00550557610465072	0.969918883360663	0.200639115701337	0.969818921003032	0.201226544217244	-0.00032985880855652	-0.00571715638923461
4	-0.00141419655062279	-0.00564097470032001	0.988971948321924	0.0486777765854756	0.989053766434838	0.0487209943415503	-0.00197649543520753	-0.00578532357974719
4.1	-0.00157059138777339	-0.0054847989577447	0.985162208391483	-0.105117130326601	0.985099879071122	-0.105053312420065	-0.00267406067984593	-0.00569817033618602
4.2	-0.0022717192479734	-0.00591417226314611	0.956819133536569	-0.257566180929913	0.957010915644013	-0.256996102431026	-0.00372401647579263	-0.00600576804562072
4.3	-0.00299283307894913	-0.00658246052477156	0.905567971763132	-0.402515101800864	0.905568788744962	-0.40249656163392	-0.0050782760111827	-0.00633539387734221
4.4	-0.00431823207205184	-0.00725975531600374	0.832172418644038	-0.538019423980855	0.832092424783571	-0.538003730548439	-0.00689028229031343	-0.00643872785700016
4.5	-0.00639956356666667	-0.00772206641772405	0.739231237605628	-0.660798192022124	0.739107129678842	-0.660652415606445	-0.00933531059863346	-0.00588584011183443
4.6	-0.00837350311116371	-0.006746972940199	0.627628759956447	-0.768175942547669	0.627613507883311	-0.767946214113228	-0.0110236149792345	-0.00423742883946987
4.7	-0.00979787606267215	-0.00612710536815861	0.500485798526948	-0.856489110914285	0.500602407129617	-0.856243729847953	-0.0124974108909815	-0.00292885035814903
4.8	-0.0112365710892408	-0.00493790571455109	0.361189302078983	-0.923760866493122	0.361483050232291	-0.923571250662293	-0.013608523678703	-0.00113241098444936
4.9	-0.0119941970153294	-0.0038914104334097	0.2135041269036	-0.968504714577676	0.213764339335249	-0.968452917900554	-0.0140297807535751	0.00108187662311141
5	-0.0125605026026271	-0.0025197555844197	0.0605701854767408	-0.990318724351789	0.0607285889149084	-0.990190144568054	-0.0135168877493786	0.00370589410365002
5.1	-0.0121457371175221	-0.00160201747659238	-0.0940907969626213	-0.987512564352436	-0.0937689448949863	-0.987449090167059	-0.0119213350627815	0.00592030507345439
5.2	-0.0119720525941899	-0.000814389781462533	-0.246340802976412	-0.960999197588202	-0.245911995789447	-0.961120842592127	-0.0103314870739877	0.0079536288037788
5.3	-0.0119090021093753	-0.00037126618829092	-0.392681290487387	-0.911311574728665	-0.392390903191707	-0.911656690354534	-0.00816893165781086	0.0098572131506752
5.4	-0.0122256705925715	0.000563673303938749	-0.529932705556968	-0.839426525216597	-0.529795935048506	-0.839716885070914	-0.00582497761310187	0.0113557521153583
5.5	-0.0124569524645887	0.00244298368712136	-0.654070117694997	-0.74626636433746	-0.654019879796706	-0.7465811786808	-0.00298553082606613	0.01288741837645
5.6	-0.0113513740456937	0.00395060187313053	-0.761522519451426	-0.63569600737414	-0.761535901229762	-0.635866895306718	0.000559543141313016	0.0126804154132715
5.7	-0.0109381512783363	0.00475225106782945	-0.851244147335889	-0.509804685686416	-0.851220195862994	-0.509980360697547	0.00297663344985041	0.012075725062884
5.8	-0.0105848285537697	0.00597176342125923	-0.920153692735282	-0.371155542881437	-0.920198597529656	-0.371448733886208	0.00518553737953091	0.0113554931368684
5.9	-0.0104554564375304	0.00674448993265999	-0.966604152443148	-0.223508862252644	-0.966724976934533	-0.223556949419535	0.0068647225784635	0.0102640130126482
6	-0.0107915083012368	0.0088900121711314	-0.989203800129985	-0.0708955208881561	-0.989200724984459	-0.0709644279902487	0.00803107770529569	0.0100840343318301
6.1	-0.00919835526714744	0.0109241776921587	-0.988594269021034	0.0834924906208865	-0.988597473065795	0.083388772275039	0.0108771076638346	0.00889718583924546
6.2	-0.00772497151279024	0.0119812721381472	-0.963536498666906	0.236478926892457	-0.963584845586786	0.236296548295241	0.0125779815882613	0.0061059589024125
6.3	-0.00656406195531102	0.0124769094889685	-0.914844028853747	0.383412260091545	-0.914868560455617	0.383283131350782	0.013143508371522	0.00283836246156504
6.4	-0.00554904420697548	0.0127602788684559	-0.843884524113984	0.520643551979807	-0.843875950896314	0.520429251036604	0.0125006620777834	-0.000501645818848601
6.5	-0.00469951357071787	0.0130231276144907	-0.753163113600532	0.645343967573674	-0.753264121174299	0.645171054558922	0.0112185998293385	-0.00320211053871879
6.6	-0.00323694467615563	0.0132400104368461	-0.64338711438863	0.754927116382153	-0.643536374952745	0.754780768321379	0.00979375981877166	-0.0054289538676513
6.7	-0.00184074229912735	0.0129914088481149	-0.517941439479366	0.84551780670526	-0.518063317200437	0.845360241233867	0.00790463976891725	-0.00715286595357521
6.8	-0.000339981980188167	0.012590493528663	-0.380168151468045	0.915451916041429	-0.380380130855588	0.915376987035626	0.00585537853303458	-0.00832641636131876
6.9	0.000869818675010431	0.0117203353862105	-0.233474900826236	0.963377158761714	-0.233726513672672	0.963373811762527	0.0038808323945612	-0.00900477918786819
7	0.00226448299103202	0.0109393399510762	-0.0804349210113705	0.988280252535456	-0.0806942886606489	0.98825072580811	0.00209392231677487	-0.00946792706741101
7.1	0.00320322110782827	0.0094973590773311	0.0743063972634069	0.988059087195687	0.0740990405888584	0.988047594903076	3.05961011801749E-05	-0.00973362749548061
7.2	0.00378125029236486	0.00815941320563961	0.226763032101662	0.964211436043453	0.226507120351662	0.964256428426771	-0.00189643370734811	-0.00917393482639132
7.3	0.00375729420456468	0.00667710617433602	0.373765551403356	0.91711933856185	0.373524985360421	0.917211146038336	-0.00362013805582391	-0.00821620179148691
7.4	0.00344932746401286	0.00547338132862322	0.511915841499087	0.847606346033031	0.511697616369937	0.847769541380447	-0.00527105100766939	-0.00691121216403779
7.5	0.00281428636816717	0.0046281489848559	0.6371547139802	0.756791485390577	0.636995160632546	0.756964393942863	-0.00627001459508056	-0.00488442579417209
7.6	0.00267750020037511	0.00378908728964155	0.746275429736898	0.648632551433923	0.746060413697128	0.648794539059972	-0.00629784447626586	-0.00354603784822169
7.7	0.00189426235080685	0.00307713995032086	0.837721405281825	0.524835662049226	0.837570974779839	0.525031466072799	-0.00665367653247183	-0.00212611649782204
7.8	0.00122968792581772	0.00285117721735641	0.908958238567215	0.38803997229678	0.908838203174653	0.388262345145697	-0.00646373355865881	-0.00048927749655929
7.9	0.000108053362667641	0.00283620986020383	0.957604945209478	0.241825138072621	0.957565547862176	0.242050895330775	-0.00608599896702684	0.00139012016197541
8	-0.000951657428272757	0.0043422791724599	0.982665599895347	0.0906267210346625	0.982737346298152	0.0909183999510317	-0.00553127612971013	0.00395450459154706
8.1	-0.000291323108201734	0.00586647640520122	0.98499621302045	-0.062900881250849	0.985121534364616	-0.0626301738846069	-0.0026080706934788	0.00561346252040657
8.2	0.000629749267047741	0.00651426879879363	0.962846885437462	-0.215199521206934	0.962914120052141	-0.214903948714364	-0.000391860910458072	0.00567472336613833
8.3	0.00133272838692538	0.00690230173110064	0.917139840127543	-0.361883949452891	0.917278517325776	-0.361628816343816	0.00156387803574224	0.00508586510017109
8.4	0.00213762215593878	0.00667143671417218	0.849451555606915	-0.499226770673072	0.849663864656887	-0.49902815183995	0.00296167518095342	0.00363813067808876
8.5	0.00159872423193506	0.00681226146767102	0.762240518123251	-0.624745087326487	0.762356663034872	-0.624619774502479	0.00307406101280871	0.00264961960575772
8.6	0.00253672562285769	0.00777435335467077	0.655425200639189	-0.735659304762755	0.655623111348845	-0.735475012681634	0.00436835130397634	0.00191996729019253
8.7	0.00358927529912606	0.00797517083723552	0.532944660303522	-0.827872628657169	0.533226351444247	-0.827764760987095	0.00502491032126678	0.000251337983410759
8.8	0.00504852012758295	0.00774107618304141	0.398140744837894	-0.900087157532433	0.398346546010884	-0.900033681860709	0.00483531809887876	-0.00141010375057704
8.9	0.00646457426663333	0.00682739366142741	0.25389324335132	-0.950898963706923	0.254134998841333	-0.950759784887597	0.0043623516012019	-0.00271390481777803
9	0.00766449400935039	0.00533539788529855	0.102636565733188	-0.978776254088979	0.102998029793391	-0.978748063142472	0.00370922068762183	-0.00333804341885052
9.1	0.00880459284245905	0.00372281925501827	-0.0503673893809218	-0.981896407651826	-0.05001603319392	-0.981912421784033	0.00373317319736224	-0.00364379529386189
9.2	0.00974076922784813	0.00161866240834532	-0.20183014712181	-0.961826721983381	-0.201475739201026	-0.961898565006172	0.00413391039935379	-0.00375470521555033
9.3	0.0102229556795028	-0.000575130571768482	-0.34848565055201	-0.918754692372752	-0.348129945380441	-0.918820185999066	0.00515827471913975	-0.00395408662833559
9.4	0.00992754480554407	-0.00340883251373335	-0.486881506833143	-0.853331651504979	-0.486559887595557	-0.853480295227477	0.00599774710224126	-0.00494092151020524
9.5	0.00867130841258771	-0.00471073817229712	-0.61286799695862	-0.766407184771221	-0.612663282570445	-0.766544778545752	0.00664387954480567	-0.00524322956604793
9.6	0.00795186901535196	-0.00694673833163419	-0.723483291615183	-0.662169010274538	-0.723212432270788	-0.662353868298151	0.00694673137343348	-0.00718979612230894
9.7	0.00583613313248223	-0.00857880486991469	-0.817114218138807	-0.542006495726863	-0.816869940924657	-0.542275239069803	0.00582796252563323	-0.00849152076540284
9.8	0.00344755799605469	-0.00974753456289139	-0.890978350958155	-0.408544329793773	-0.890771195067018	-0.408818479409135	0.00455822930691057	-0.0090959231847603
9.9	0.000310346366058019	-0.0102749367026542	-0.942798480117897	-0.265198687051417	-0.942687681353808	-0.265526403974514	0.00317450154990992	-0.00928333412255849
10	-0.00322598204787759	-0.00899100935754203	-0.971731373813792	-0.116674772082712	-0.971652425397975	-0.117051094309056	0.00202004386956275	-0.00791470047358501
10.1	-0.00500423930575365	-0.00734749574228384	-0.978246387150613	0.0351147441201352	-0.978227455211776	0.0346396363926884	0.00262318554869256	-0.00779859476356093
10.2	-0.00689929291515721	-0.0061112186429276	-0.960730631589773	0.18621499674906	-0.960716415895097	0.185767921803356	0.0021918474565032	-0.00833923033221139
10.3	-0.00891072513497209	-0.0042391315840245	-0.919957973440015	0.332511727986626	-0.920092929022635	0.331975110921155	0.00126348835039895	-0.0088571451722189
10.4	-0.0105786947751474	-0.00238073817089347	-0.857307059141181	0.470287582543574	-0.857570426045826	0.469755688185825	0.000125978586434301	-0.00933606139054024
10.5	-0.0123408355576021	0.000698289662724829	-0.775045610221879	0.597426558014091	-0.775326349818578	0.597042013498531	-0.000887823180794694	-0.00904966460482532
10.6	-0.0121433607803733	0.00401824235530973	-0.672708738864599	0.71064254025115	-0.673132278945519	0.710300885016225	-0.000644445734424497	-0.00907980617434177
10.7	-0.0111909927496411	0.00692230619320986	-0.554413336887284	0.806024934841184	-0.554822112402551	0.805738591572182	-0.000423897958834872	-0.00992461371645897
10.8	-0.00964607314995553	0.00897967496814732	-0.422961069040046	0.881923649957885	-0.42346798155354	0.881695838647118	-0.000862500610015924	-0.0112472880284217
10.9	-0.00805503681268005	0.0110737991082705	-0.281638443364137	0.937026609991522	-0.282123232334963	0.936975459509753	-0.00217384137292691	-0.0122280532036266
11	-0.00559379853486893	0.0127632279273909	-0.132334986743265	0.969712453052145	-0.13287811775293	0.969708168633177	-0.00324677010764432	-0.012639745694834
11.1	-0.00256868798811992	0.0138222228670973	0.0195490870917879	0.977737704765558	0.018923950835663	0.977819930832509	-0.00429118451656916	-0.0132489006688778
11.2	0.000689347035024676	0.0137864990475398	0.170383158032155	0.962913389098702	0.169867178617506	0.963114726145583	-0.00539143281836342	-0.013635947608124
11.3	0.00379734550004174	0.0130391458672009	0.317328100277466	0.925141399031707	0.316900940177447	0.925401851956868	-0.0063677721926853	-0.0137653623319479
11.4	0.00624584055520548	0.0113564336746604	0.457289185347109	0.864899031672874	0.456827460190235	0.865157008776523	-0.00763763497546998	-0.0134668983225566
11.5	0.00857350084758588	0.0104136068207133	0.585412630884935	0.782690280099382	0.585056679930139	0.783105303340177	-0.00828739248143454	-0.0122656522135464
11.6	0.0111047338248105	0.00766508331084617	0.698912620976139	0.683119004016991	0.698646814119074	0.683595973583385	-0.00883800073136241	-0.0124064196156119
11.7	0.0124030408071682	0.00479163823964498	0.796529961174417	0.566928681438916	0.796291584721098	0.567347752990965	-0.0103221744632619	-0.0120719560174807
11.8	0.0127014565473499	0.00145340573419583	0.874901093925792	0.436488488393927	0.874717016799543	0.437037234842609	-0.0120185290286718	-0.0112700439522215
11.9	0.0117809842377803	-0.00155343557419848	0.931530656499706	0.295557342148519	0.931491620057889	0.296098104443097	-0.0140534047827789	-0.00955867666194586
12	0.00936211056231793	-0.00281571222229195	0.965789497097357	0.148895102821252	0.965775835189391	0.149371811869164	-0.0153224743481074	-0.00610198856820179
12.1	0.00862174444527877	-0.00375478418351633	0.978079926384991	-0.00233999118302886	0.978053691240713	-0.00186940027947649	-0.0143429400186139	-0.00390566231578204
12.2	0.00720047869088569	-0.00496266047874602	0.966147911260322	-0.154033793387409	0.966252485280181	-0.153598103229826	-0.0137630077147387	-0.00213962786751565
12.3	0.00592710223736435	-0.0057288393757087	0.93071422516865	-0.301707564777409	0.930897656573857	-0.301350164622311	-0.0126330191223099	-0.000722114501654203
12.4	0.00417755878347015	-0.00705293759913906	0.873382587438657	-0.441920369508871	0.873513073553068	-0.441546245830775	-0.0116052231369956	-0.000262304870114375
12.5	0.00144539795185005	-0.00726610159191223	0.795449426140792	-0.57260278365188	0.79590467396633	-0.57220877944601	-0.0113596870727387	0.000533791688319346
