# GHZ S RI R 50
0.2	-0.000326502270828221	7.17454037107094E-05	0.948811612144384	-0.307939047136981	0.948585407445595	-0.308080892015861	-9.01055744089387E-05	0.000144015675572092
0.3	-0.000434158647811763	0.000388418592913136	0.888816820371031	-0.451589807973027	0.888679421098007	-0.451642984576735	-0.00014685228493354	-2.9126268998832E-05
0.4	-0.00018298507819888	0.000551083250111522	0.807258127248726	-0.583812079045979	0.807298194155977	-0.583951646860675	4.96335722961486E-05	-0.000110095536425199
0.5	-0.000270291556178599	0.00063250931463507	0.706490950355901	-0.701945806978378	0.706380388991761	-0.702041602681911	0.000163420218312312	-0.000330780914092498
0.6	-0.000308229935375972	0.000820627422488339	0.588624825272893	-0.802951498431061	0.588435358681353	-0.802954373312946	0.000113624474443411	-0.000529126323729725
0.7	-0.000260476760487403	0.00126863194286547	0.456535141930163	-0.884222039502239	0.456461149601596	-0.884256384808889	0.000151706168818999	-0.000827905921602369
0.8	5.48793431850688E-05	0.00136721050077641	0.313552837002848	-0.944148050200668	0.313434399538233	-0.944061368745129	-1.07285473290262E-05	-0.00111519922657851
0.9	0.000322611704104196	0.00170073923179941	0.163112802730546	-0.981039117375359	0.162963933801424	-0.98099628055824	-0.000357232154558379	-0.00140591633488738
1	0.000699641005485544	0.00137865494939933	0.00876202622949526	-0.994168122258507	0.00864405931597288	-0.994138458409773	-0.000825760061745573	-0.00172230475760378
1.1	0.000502873479978069	0.00134341427537261	-0.145088461681813	-0.98324417980607	-0.145735323554735	-0.983208983743897	-0.00176986557787159	-0.00139724048556059
1.2	0.000657342219114092	0.00081159346832913	-0.29664400409943	-0.948388730250818	-0.296637049802856	-0.948444347234439	-0.00187140097110958	-0.000662040644471672
1.3	0.000806334108605614	-0.000212279463882766	-0.440074310693741	-0.890575045053281	-0.440166300957226	-0.890599471008523	-0.000852760456145295	0.00040035496317312
1.4	0.000821906636038702	-0.00177750631173034	-0.572707095576509	-0.811381568962069	-0.572780793389982	-0.811282118423989	0.000762161195674301	0.00028278138956822
1.5	0.000554261590167166	-0.00238889389431784	-0.691741242997843	-0.712311027632557	-0.691765802680337	-0.712239073027099	0.00204610439891253	-0.000677302052951531
1.6	0.00075927669742682	-0.0024525003405737	-0.793243662884936	-0.596507932318314	-0.793672489484297	-0.59600812598911	0.00212441255119059	-0.00194440164122143
1.7	0.00106839747686866	-0.00263927048758629	-0.875900924406596	-0.46606337052177	-0.876204821195947	-0.46557425915962	0.00149366194786694	-0.00293299692327403
1.8	0.000979925124174103	-0.00303540380478353	-0.93758223841136	-0.32402573168246	-0.937597664861347	-0.32401628395898	0.000410836906416151	-0.00369064518754602
1.9	0.000783859286928853	-0.00337893900659073	-0.976409313658668	-0.174445952277014	-0.976453746634095	-0.174498618910631	-0.000676836586168835	-0.00404579179775564
2	-0.000179743145988346	-0.00371338799154549	-0.991164432933975	-0.0213855786283133	-0.991259124824656	-0.0207372492644245	-0.00203008237564235	-0.00382078577137707
2.1	-0.000666935521728295	-0.00319981497439711	-0.982238930135182	0.133684242960043	-0.982338159151492	0.133200863271554	-0.00251883951366796	-0.00322428983006518
2.2	-0.00117383743894358	-0.00322374082454767	-0.949706467632502	0.283712710022629	-0.949745226336326	0.28384622368375	-0.00306997660378285	-0.00307001653962726
2.3	-0.00172901893683016	-0.00311185807353261	-0.894099322613516	0.427532774563028	-0.893935804863588	0.427621148628004	-0.00380303528592926	-0.00279906283165336
2.4	-0.00251899580707253	-0.00308774424334283	-0.816271158531853	0.561510716264868	-0.816561789844463	0.561049469480783	-0.00450250825574067	-0.00240369231105348
2.5	-0.00363385787536891	-0.00280012435265269	-0.719544745381794	0.68105269165662	-0.71984623278053	0.68067249247684	-0.00497995910166663	-0.00195713226472498
2.6	-0.00469687214769047	-0.00167166619162381	-0.60560869135871	0.784196975549679	-0.605529534185082	0.7841377383161	-0.00487506561745641	-0.00114006987679752
2.7	-0.00478788296411514	-0.000385729621060023	-0.47643304087863	0.868507456028898	-0.476403622056075	0.868521547988126	-0.00461928961954459	-0.000766861655118594
2.8	-0.00444363623850373	0.000553209337935926	-0.336091984626061	0.931751151177888	-0.335974054952878	0.931835616519558	-0.00424439036050321	-0.000390737697235864
2.9	-0.00333713019588371	0.00120792957062844	-0.187546574947111	0.972486619902051	-0.187542183732576	0.972541327955163	-0.00360652607882401	0.000223012578002831
3	-0.00224890149675531	0.00149884281968768	-0.0341677072569995	0.989928091947279	-0.0342320090718731	0.989999368362402	-0.00243348956012606	0.000779064864265175
3.1	-0.000678124975088896	0.00141934264557618	0.119158411917042	0.9831159848773	0.119805487701049	0.983197724769008	-0.00110061701388166	0.000890983826328657
3.2	0.000297978532486893	0.000683122624536176	0.270740286448233	0.952464264124946	0.270730300604048	0.952503787693237	-0.000239178857484386	0.000534588464232627
3.3	0.00126024644561733	-0.000222861110368077	0.415861811802762	0.898671093431992	0.415239681629879	0.898951465725409	0.000761659360335599	7.76488552442603E-05
3.4	0.0015483770238972	-0.00132996123467883	0.549783511289258	0.823643798767105	0.549698530445732	0.823758847648721	0.00168038487251113	-0.000748639448788247
3.5	0.00168669798110677	-0.0020902083619382	0.670907183915791	0.728307854715021	0.670921365994696	0.728334040154468	0.0023075464687594	-0.00175862568173268
3.6	0.00174973210648717	-0.00279154188869728	0.77513257074239	0.615759933805783	0.775554667699995	0.615366926202226	0.00260999198717985	-0.0030388897186904
3.7	0.00181995961232519	-0.00379802063308763	0.861661736932615	0.487547010950412	0.861668549742025	0.487673415167975	0.00238997093464858	-0.00424708695655346
3.8	0.00133140602808238	-0.0048163422438472	0.926844968090871	0.34790363760675	0.926873061419179	0.348086798648803	0.0016625914126601	-0.00539909696650535
3.9	0.000942344903015536	-0.00587915808916827	0.969728398759042	0.199252223921417	0.969629266195183	0.199839508354843	0.000359529378218803	-0.00650222581191143
4	-0.000446634485648179	-0.00663358692245406	0.988692335455745	0.0471449622747618	0.988774190487465	0.0471880391846221	-0.0010870730947462	-0.00698010108539845
4.1	-0.00137159893433528	-0.00678202515602443	0.98429567918319	-0.106677427950384	0.984233499514292	-0.106613551491713	-0.00231881344625942	-0.00733641091540444
4.2	-0.00260104267071292	-0.00700187607252517	0.955571021715068	-0.258816152594851	0.955763514517298	-0.258246876956778	-0.00388230064711272	-0.0075880764368961
4.3	-0.00364475317527196	-0.00731102803832401	0.904105357536836	-0.403439457805781	0.904106200642693	-0.403420936805508	-0.00561819800450578	-0.00763670849784552
4.4	-0.00499451489562406	-0.00750103556138648	0.830569792368819	-0.538715613206696	0.830489899676599	-0.538699817668076	-0.00756154216891545	-0.00722019948697187
4.5	-0.00665187058326433	-0.00785207037393438	0.737211216737479	-0.661130647670764	0.737087503955	-0.660984860571664	-0.00951319274471637	-0.00633932075434316
4.6	-0.00879076046603888	-0.00708150741431963	0.625699578249064	-0.767820650115343	0.625684643092739	-0.767591248566919	-0.0110725307458524	-0.00493447407307807
4.7	-0.0104150424844915	-0.00627208976657582	0.498762521481004	-0.855777883698922	0.498879234981628	-0.85553300231772	-0.0126097575895872	-0.00364003013251353
4.8	-0.0119026400487775	-0.00479342702035423	0.359616746431319	-0.92274912415778	0.359910255482113	-0.922560122578189	-0.013750601195833	-0.0017750543538366
4.9	-0.0125426151031277	-0.00344429349970478	0.212043696218218	-0.967097777269542	0.212303524336254	-0.967046363500234	-0.0141297414333183	0.00055591861291079
5	-0.0129341102938118	-0.00196604315427438	0.0596579616981223	-0.98838489156566	0.059816150779195	-0.988256695664636	-0.0135212268526969	0.00311408820519491
5.1	-0.0124018465937339	-0.000829199674902524	-0.0944917876122391	-0.98565496256035	-0.0941704863714709	-0.985591790951589	-0.0120640073866053	0.00533370775302022
5.2	-0.0118960305781932	3.56060724116417E-05	-0.246413978009768	-0.959085579777967	-0.24598603114801	-0.959207235740324	-0.0105151263523139	0.00747747083325235
5.3	-0.0115245529959233	0.000341709531240402	-0.39232432242294	-0.909350551141163	-0.392034659356008	-0.909695122449519	-0.00830083101099247	0.00951041271049979
5.4	-0.0115781981017595	0.00096510663674447	-0.528993650203943	-0.837559185778475	-0.528857225604706	-0.837848965100435	-0.00566938212631855	0.011095031552246
5.5	-0.0120626571457542	0.00216125538526119	-0.65276458436458	-0.744972043949447	-0.65271439845073	-0.745286269995667	-0.00264607526895164	0.0120485125177747
5.6	-0.0114408932733899	0.00399783784135516	-0.760185130517981	-0.634552505881793	-0.760198492094018	-0.634723090453999	0.000466225743973285	0.0118179989864466
5.7	-0.0108312709051051	0.00498525161080938	-0.849605635284001	-0.508891898348213	-0.849581718589789	-0.509067240064053	0.00284466879467985	0.0113339019170845
5.8	-0.0102523664635203	0.0061010742805096	-0.91826657941806	-0.370660897753658	-0.918311323499529	-0.37095352816797	0.00508481479002498	0.0106738857589952
5.9	-0.00988172442548424	0.0065832514603653	-0.964704786459212	-0.223587790815215	-0.964825363176296	-0.223635850690586	0.00697709802109827	0.00969218200464116
6	-0.01039465216178	0.00773305441357576	-0.987556328295618	-0.0711569767180542	-0.987553231754678	-0.0712257698597728	0.00852651546205732	0.00888423998952909
6.1	-0.0101342907207809	0.00983272007523951	-0.986754292940267	0.0828600746596011	-0.986757441091435	0.082756551897392	0.0105782650858062	0.00737338600411014
6.2	-0.00913622587080396	0.0118397342184319	-0.961918250439397	0.235295119015727	-0.96196636651715	0.23511304382956	0.0118644968154644	0.00507027193166038
6.3	-0.00764180286508591	0.0132596235987943	-0.913661060083805	0.381876982290268	-0.913685425205324	0.381748049008603	0.0125701771229508	0.00238615666752544
6.4	-0.00578635173922868	0.013922176222887	-0.843156614218858	0.519082019243923	-0.843147848838509	0.518868037482232	0.0124497838924511	-0.00068281143130191
6.5	-0.00423184974126192	0.0138566456620565	-0.752468076627163	0.643651847809967	-0.752568773186129	0.643479133876842	0.0116357032608884	-0.00365162929506755
6.6	-0.00249409016296303	0.0136208578317831	-0.643273745325107	0.752954023723507	-0.643422592782163	0.752807728415986	0.0102676821380595	-0.00619943658468927
6.7	-0.00114729994773301	0.0128732849997588	-0.51829961521858	0.843694842275589	-0.518421125040308	0.843537339455265	0.00825963972207706	-0.00816800735467082
6.8	3.025945906454E-05	0.0122126529437671	-0.380809320973575	0.91381223121453	-0.381020936843892	0.913737136929481	0.00600337516786661	-0.00940350192110656
6.9	0.000927800903041631	0.0113266296638533	-0.234288358675524	0.961771962459469	-0.234539620247023	0.96176832340327	0.00393096741471573	-0.0100333586877689
7	0.00197167439243405	0.0106763155383149	-0.0818992245305632	0.986651499544489	-0.0821581512263994	0.986621601264215	0.00200001479741565	-0.0105027890804115
7.1	0.00285580731660764	0.00959815365946091	0.0724972569966319	0.987067720535245	0.0722901556483089	0.9870558792853	-0.00011652936004942	-0.0105838682073425
7.2	0.00351869263815364	0.00845716937420505	0.224861123349482	0.963608244272482	0.224605397966958	0.963652747544701	-0.00198348853147114	-0.00992476422889703
7.3	0.00358987230652662	0.00713323088404806	0.371732541896368	0.916869687995682	0.371492052592638	0.916960968483507	-0.00364286648124206	-0.00890728026847343
7.4	0.00344475651929204	0.00605747039085751	0.50965698626987	0.847825776707036	0.509438639736146	0.847988359419244	-0.005187044092466	-0.00755475567888252
7.5	0.00289070917537133	0.00522797367778565	0.635107713793279	0.75792159843223	0.634947832748258	0.758094057726164	-0.00612127633913954	-0.00565324219268571
7.6	0.00291608509286328	0.00471211334192331	0.744749737721619	0.649952990725278	0.744534456485924	0.650114497236609	-0.00619832816315281	-0.00424120921308083
7.7	0.00266304690867037	0.00400317111091447	0.836391576683343	0.526395335775123	0.836240790027793	0.526590772026598	-0.00640125034017652	-0.00276283647488762
7.8	0.00248071657049159	0.00344423717753111	0.907911269171353	0.389959362566979	0.907790769523881	0.390181423990993	-0.00601661498620245	-0.00116731152591666
7.9	0.00177465211882089	0.00280724605480608	0.957138442089996	0.244146241583195	0.957098499604965	0.244371931022182	-0.0052934875459061	0.000549801917887124
8	0.000621307552901386	0.00284080957869504	0.982950804490186	0.0926944073148485	0.983021984522146	0.0929863740773743	-0.00416873553298557	0.00230854325118772
8.1	-0.000126814111219642	0.00395463686887571	0.985472785831521	-0.0608371468374164	0.985597577658094	-0.0605660797438369	-0.00206200476038725	0.00321815168146883
8.2	-0.00013113492729542	0.00491024926590589	0.963926608142423	-0.213153775335473	0.963993215480662	-0.212857868739845	-0.000568844384559456	0.00316476509473765
8.3	-0.00010398027793401	0.00593429736380803	0.918856282453583	-0.360209867273252	0.918994531812212	-0.359954172364077	0.000673693786482648	0.00285095089722858
8.4	0.000539189250551571	0.00670400779518469	0.851533359901858	-0.498310392622878	0.851745583750354	-0.498111108059399	0.00166802481550963	0.00223076968717094
8.5	0.00055982525877043	0.00719929371280897	0.764032975221284	-0.624251713045601	0.764149053658338	-0.62412608484737	0.00235731298656609	0.0017907807250894
8.6	0.00127181623467294	0.00853384066594888	0.65750113367442	-0.735426903898594	0.657698968079821	-0.735242043575612	0.00371980304043923	0.00109117893778642
8.7	0.00264557299014787	0.009463694259956	0.535015873881275	-0.828240918044253	0.535297805420081	-0.828132452391435	0.00448966732634936	-0.000360973539979513
8.8	0.0047508107592646	0.00974595167218257	0.399937045348277	-0.900959006868525	0.400143095099409	-0.900905178634693	0.00441995771236438	-0.00181691650230235
8.9	0.00708072491106854	0.00913025820262848	0.255241878670166	-0.951950385219409	0.255483823239416	-0.951810760121162	0.00416694956876747	-0.00276414936018949
9	0.00938729214919607	0.00722858802820507	0.104099237603025	-0.979862256637708	0.104461115965383	-0.979833537689801	0.00417091658973253	-0.0033122626142616
9.1	0.0111038281945833	0.00472696431942019	-0.0492416060895381	-0.983543519132885	-0.0488896629781065	-0.983559127178611	0.00461073976156413	-0.00404523170993847
9.2	0.0120286815122341	0.00143635966699387	-0.201151338398422	-0.963568836345806	-0.200796291175681	-0.963640425223267	0.00505480960439444	-0.00478576607110623
9.3	0.0117127040526375	-0.00161808825565223	-0.348085961306227	-0.920493943644401	-0.347729652731774	-0.920559177655605	0.00565828747808658	-0.00539256235474019
9.4	0.0106005862596609	-0.00463376652127134	-0.486543369947444	-0.855186087148066	-0.486221094775069	-0.855334552268381	0.00628725123314941	-0.00628830330206954
9.5	0.00828300172834267	-0.00607357034307885	-0.613096509830689	-0.768803809628538	-0.612891190325946	-0.76894141092623	0.00673913648166339	-0.00704859105130441
9.6	0.00702989263818757	-0.00721756341195923	-0.724421252888974	-0.664240546737021	-0.724149647547674	-0.664425551797647	0.00657574372181583	-0.00875772055121661
9.7	0.00520117995312926	-0.00832214639586935	-0.818383746670771	-0.543858715398178	-0.81813872018329	-0.544127819732281	0.00534601978978812	-0.00988042867671252
9.8	0.00309278074047614	-0.00922721795538582	-0.892629167825226	-0.410252257376231	-0.892421302664106	-0.41052684318145	0.00395381564089928	-0.0102114541559563
9.9	0.000473811237599631	-0.00966841616538828	-0.945088316555243	-0.266715298317824	-0.944976940986024	-0.26704379518974	0.00283598192329891	-0.009893099313141
10	-0.00301446355616311	-0.00921023019321083	-0.974584632630066	-0.117185562131205	-0.97450538652239	-0.11756298358324	0.00222557392881903	-0.00893872908808243
10.1	-0.00546552474660146	-0.00708624888325822	-0.980926683056369	0.0352040861637934	-0.980907695905539	0.0347276769133812	0.0024786752320205	-0.00880841662360707
10.2	-0.00702253100445329	-0.00524964562681453	-0.963481458214988	0.186921805516248	-0.963467279206305	0.186473432884312	0.00212843741796903	-0.00902912136114509
10.3	-0.00834713692555772	-0.00313967823542071	-0.92256714869929	0.334026600313275	-0.922702808857917	0.3334884288504	0.00153037994513992	-0.00925980640541493
10.4	-0.0090870832716876	-0.00153722696565502	-0.859341097933933	0.472709918285364	-0.859605882043566	0.472176728666739	0.00104552052634664	-0.00960001868493099
10.5	-0.0102769359925018	0.000209919855141226	-0.775899399839103	0.599961229970551	-0.77618136138823	0.59957623798827	0.000863894461692285	-0.0100281452585103
10.6	-0.0109610166056995	0.00243735426094389	-0.673273975564969	0.713028616563319	-0.67369886323521	0.712686752897005	0.000844462928439348	-0.0110704789033556
10.7	-0.0111832270154444	0.00522901346651137	-0.554513870126626	0.808559282252307	-0.554923938089956	0.808272876573753	0.000317604640482184	-0.0122894172484526
10.8	-0.0103847608362947	0.00787633316626704	-0.422416299896929	0.884471524180265	-0.422924651973672	0.884244058133903	-0.000672416467812816	-0.013407712257721
10.9	-0.00899731503702297	0.0106085669547229	-0.280387326603698	0.939162978321791	-0.28087304568009	0.939112637948568	-0.00215469166167328	-0.0141255234215968
11	-0.00667528543969193	0.0126636517403824	-0.131174961990147	0.971382257005285	-0.131718930171698	0.971378729100351	-0.00334953137686837	-0.0145151589795991
11.1	-0.00359493740785472	0.0142815386148142	0.0211667760966356	0.979482050886447	0.020540637346931	0.9795654378641	-0.0045665851368972	-0.0149606105867542
11.2	-0.000113067643188716	0.0146220507043647	0.172448266693589	0.964187174180497	0.171931808531029	0.964389799440106	-0.00578588820622943	-0.0151607220516993
11.3	0.00332156991974608	0.014156199151115	0.319547147613377	0.925819143673888	0.31911989346739	0.926080779741492	-0.00677516739596214	-0.0149820416305611
11.4	0.00629401441974345	0.0125425078467681	0.459288464999886	0.865175324285445	0.458826615537605	0.865434385399252	-0.00771098443897021	-0.0144080478211569
11.5	0.00855795247545108	0.0112892575802269	0.587731537449458	0.783039791313686	0.587375678359168	0.783456123191119	-0.00823475464333774	-0.0135716860385255
11.6	0.011275987661218	0.00913706220698374	0.701418680848287	0.682623912446399	0.701153508371447	0.683102160512333	-0.00887371441693209	-0.0135090148289916
11.7	0.0133713497023536	0.00631663019739776	0.798743982963269	0.56592308897499	0.798506210357415	0.566343196537538	-0.0101297258088749	-0.013074220933799
11.8	0.0144715614022168	0.00260521129993217	0.876846248429428	0.435198500517488	0.876663087246784	0.435748281446612	-0.0115178869279189	-0.0122188589655553
11.9	0.0146570344323574	-0.00139652705551196	0.933534156105861	0.294088937740356	0.933496170866303	0.29463059109348	-0.0126584823759699	-0.0105669875792262
12	0.0118362493991286	-0.00485752213854372	0.967652716910062	0.146400817978311	0.96764037564621	0.146878278362841	-0.0135019835653347	-0.00852512192991055
12.1	0.00954870105851273	-0.00672131672883233	0.979065053296653	-0.00514231064705407	0.979040138700764	-0.00467116744198608	-0.0132079169939417	-0.00738118857094592
12.2	0.00666895720642445	-0.0080632514228519	0.966569759378876	-0.15703642574436	0.966675719366895	-0.156600649386032	-0.0136954797995774	-0.00610692302114847
12.3	0.00393659334738878	-0.00828926590203589	0.930460502596673	-0.304900340428978	0.930645211377154	-0.304543252874445	-0.0138581825348031	-0.00450890260250297
12.4	0.00133070030869124	-0.00828840076171333	0.872202172441342	-0.445277500087928	0.87233406884162	-0.444903670037818	-0.0137396575602911	-0.00294042625578391
12.5	-0.00137988981352401	-0.00761993086230369	0.792997651955641	-0.575160811957304	0.793454080072416	-0.574768636551495	-0.0132616526003044	-0.00117601518504583
12.6	-0.00341221367276421	-0.00596364861964624	0.694265111220597	-0.691395791611767	0.694610355914713	-0.691086523067177	-0.0119048006759153	-0.000288737295942969
