# GHZ S RI R 50
0.2	-0.000306722864263502	1.15616349906056E-06	0.948892626430485	-0.307886878337847	0.94866641852172	-0.308028748807386	-0.000158428438543678	0.00017219195075925
0.3	-0.000414354795288675	0.000276645812451433	0.888936254399848	-0.451545291766014	0.888798848233386	-0.45159848589917	-0.000238429332200366	7.37789475379116E-05
0.4	-0.000166019356998022	0.000409457881919516	0.807396793424089	-0.583797415189965	0.807436877552947	-0.583936993795891	-9.9819741420475E-06	7.54413214287376E-05
0.5	-0.000223629894612606	0.000440507161756557	0.706626399499327	-0.701916028442714	0.706515841012617	-0.702011844313042	0.000157000324689393	-0.000178194456176695
0.6	-0.000283910013205731	0.000562296395590802	0.588841576022107	-0.802944950559795	0.588652086562971	-0.802947859800634	-1.507455594885E-05	-0.000334610348392699
0.7	-0.000254144146826551	0.00095160586700718	0.456769713643605	-0.884290265074733	0.456695714917398	-0.884324629358179	1.89327456536397E-05	-0.000468704907390269
0.8	2.81011795980459E-06	0.000987891689383132	0.313775332876845	-0.944269203813229	0.313656858302063	-0.944182526821317	-5.24272393114504E-05	-0.000595821040818304
0.9	0.000168073627224337	0.00133567991380264	0.163334902518913	-0.981179104045543	0.163185999014588	-0.981136289068466	-0.00014224536660785	-0.000724157767656077
1	0.000583748317409967	0.00107590731038439	0.00906566138963465	-0.994410996489074	0.00894765634690084	-0.994381361081973	-5.15328156867178E-05	-0.00132629563251832
1.1	0.000349650091339846	0.00103047969695861	-0.144912417697074	-0.98364231294786	-0.145559527412799	-0.983607255022741	-0.00115412953960503	-0.00166605176651519
1.2	0.000576860788042854	0.000502182921611403	-0.296574752284838	-0.948802651003893	-0.296567784752625	-0.948858287614046	-0.00162404190301439	-0.001308118063734
1.3	0.000729756247970309	-0.000633182324863531	-0.440072746169204	-0.891009841326482	-0.440164767695523	-0.891034294818256	-0.00127266206916339	-0.000411863312256354
1.4	0.000770072216203433	-0.00221269025085652	-0.57277636708862	-0.811887127115825	-0.572850122046103	-0.811787648653494	-0.000206063399372574	-9.36902800052235E-05
1.5	0.000604661149600443	-0.00300082453144809	-0.692085136886911	-0.712861404390663	-0.692109722174251	-0.712789407192257	0.000713169407983476	-0.000518854212327606
1.6	0.000825315451670564	-0.00317316406803213	-0.793686845001479	-0.596826953976288	-0.794115901758523	-0.596326867797843	0.00103995516545486	-0.000660835884712488
1.7	0.00104280021085339	-0.00352870086345307	-0.876355215919757	-0.46631875059468	-0.876659278239068	-0.465829386077355	0.001221688589924	-0.00133581018431748
1.8	0.000794172443806421	-0.00391160655577767	-0.938121703953377	-0.324226146497149	-0.938137139480507	-0.324216693492729	0.000776003070446677	-0.00219484704301116
1.9	0.00061202071171529	-0.0041435137811393	-0.977095808774449	-0.174496633601535	-0.977140276185527	-0.17454933340798	0.000237569211296577	-0.00302856392286612
2	-0.000372482715466007	-0.00465895958033299	-0.991757485105339	-0.0210777205357711	-0.991852023338665	-0.0204289771518963	-0.00154712962756611	-0.0037268708198272
2.1	-0.000990088213664904	-0.00399138020799482	-0.982645073338676	0.13393519877201	-0.982744440572542	0.133451625751057	-0.00261601845930868	-0.00252714917823712
2.2	-0.00149686919034131	-0.00401030522423239	-0.950149504834203	0.28402379042199	-0.95018826055306	0.284157379955358	-0.00276719893384173	-0.00206266631296239
2.3	-0.00215592106786354	-0.00382014255680271	-0.894493031482683	0.427999153469853	-0.89432939956201	0.428087535751338	-0.00304183709230866	-0.00190363540669577
2.4	-0.00292309540561077	-0.00355879698167438	-0.816450250989362	0.562118302721706	-0.816741212396437	0.561656944005207	-0.00322641274090987	-0.00203852223927598
2.5	-0.00384564434665864	-0.00334058002426951	-0.719514137304295	0.681416496498336	-0.719815803500403	0.681036296701076	-0.00400974921160219	-0.00305360630285394
2.6	-0.00502954403735195	-0.00210300367036666	-0.605771451851912	0.784620061825322	-0.605692267723489	0.784560788245627	-0.00552720611771935	-0.00230085746965544
2.7	-0.00500499951899429	-0.000637487161353983	-0.476451135395972	0.869063611035224	-0.476421698258413	0.869077702566327	-0.00600726122173567	-0.00105399527046411
2.8	-0.00437464360530964	0.000365600690130093	-0.335937110816395	0.932269702590058	-0.335819101912109	0.932354166745182	-0.00559136788107305	0.000207260331035617
2.9	-0.00297210048226922	0.00079655148374042	-0.187353059997573	0.97283389753257	-0.18734865331845	0.972888621266275	-0.00457417825179264	0.00121804839759258
3	-0.00188090619817182	0.000733287527050141	-0.0342135581989398	0.990446475372754	-0.0342778957650687	0.990517787372461	-0.00332543338410124	0.00202718762269664
3.1	-0.000389207458279285	0.000436779703373112	0.119538740982135	0.983834163732191	0.120186336550368	0.98391577601106	-0.00152004707777963	0.00252825237572814
3.2	0.000434837658888613	-0.000433994005926389	0.271338409018377	0.952969989664132	0.271328434063086	0.953009543585729	-0.000202065492218834	0.00210811377459749
3.3	0.00129170960368461	-0.00133817077555418	0.416504829582502	0.899020383216716	0.415882454285949	0.899301196199572	0.00108720433733092	0.00144730925609776
3.4	0.00161773568899681	-0.0024781920761852	0.550446151668567	0.824015198228134	0.550361152820852	0.824130355339104	0.00210528426708594	0.000186848007005239
3.5	0.00158850053605796	-0.00339058611073367	0.672079051262787	0.728608090349796	0.672093265287388	0.728634293194137	0.00200108415745713	-0.000986905053638287
3.6	0.00164871584627801	-0.00397851824083557	0.776261337435757	0.615395348948817	0.776683322481708	0.615001659406158	0.00240636882000413	-0.00144735473625467
3.7	0.00167698160238797	-0.0050481176112239	0.86255755176904	0.486991392725288	0.862564486126612	0.487117855189527	0.00274567840268196	-0.00258227647353234
3.8	0.00110305634153106	-0.00599123137359752	0.927651129532265	0.347219806436595	0.927679408321425	0.347403036447903	0.0024500436204059	-0.00397350181887879
3.9	0.000835108093710193	-0.00691699200833585	0.970549598590607	0.1982974037362	0.970451057601797	0.198885161558929	0.00150701343555602	-0.00574571525311799
4	-0.000520273655212813	-0.00787067191970738	0.988989612246633	0.0456154314661325	0.989071552914927	0.0456583906128336	-0.000836316881723004	-0.00733109492173848
4.1	-0.00144357275334243	-0.00783497379575965	0.984029547142545	-0.107826748728461	0.983967451883241	-0.107762807786795	-0.00308550816068293	-0.00688767470772235
4.2	-0.00255371743276467	-0.00813908698148259	0.955236921290857	-0.259827423138214	0.955430014303278	-0.259258387684739	-0.00458518611365788	-0.00655690826613051
4.3	-0.00365957273729918	-0.00847314254281713	0.903590331865853	-0.404469054816354	0.903591196444007	-0.40445053574547	-0.00612936020377561	-0.00629563577300709
4.4	-0.00497950853520836	-0.00845414731328791	0.829616041235089	-0.539710152510738	0.829536191036902	-0.539694251884076	-0.00757123002579436	-0.00581337763375283
4.5	-0.00638022280690326	-0.00885495786482056	0.735957295220593	-0.661354386452148	0.735833828178123	-0.66120858939837	-0.00956380743517579	-0.00593048026020127
4.6	-0.00839617200741385	-0.00792592198688031	0.624904126043452	-0.767938148185785	0.624889357098347	-0.767708831507876	-0.0122702966905039	-0.00418388815183967
4.7	-0.0095883272167769	-0.00724923191383432	0.497847632200764	-0.855906074245018	0.497964515843549	-0.855661380120808	-0.0139640508698452	-0.00213434832071949
4.8	-0.0108512921919263	-0.00614944868569519	0.358572022588974	-0.92261283885292	0.358865557898228	-0.922424207728914	-0.0149544894480216	0.000299412181790832
4.9	-0.0114735652700167	-0.00520932319834263	0.211152095266639	-0.966480703268989	0.211411753449084	-0.966429524587612	-0.0149792272302643	0.00302023178647008
5	-0.0120991545798983	-0.00414292664605128	0.0594240960502388	-0.987952690770607	0.0595822408193185	-0.987824585676846	-0.014273681901443	0.00590032443813293
5.1	-0.0118208018919385	-0.00317606511876984	-0.0951466452574148	-0.985428623129516	-0.0948253538785256	-0.985365680444067	-0.0119532412307916	0.00887386147068953
5.2	-0.0116135371551863	-0.00245215727967496	-0.247068481716868	-0.958503971198406	-0.246640803570912	-0.958625914469553	-0.00907931726689689	0.0107101384221821
5.3	-0.0114995829664051	-0.00216205787853831	-0.392713855761089	-0.908621144067969	-0.392424568404397	-0.908965725171311	-0.00602757978813428	0.0115380468260238
5.4	-0.011686896556885	-0.00161842157155434	-0.529156661925783	-0.83705408011456	-0.529020403352144	-0.837343816113493	-0.00368588805316278	0.011303108863118
5.5	-0.0128360510530067	-0.000496257535170525	-0.65354325264591	-0.744497333267953	-0.653493343833595	-0.744811654392828	-0.00325478356200193	0.0117563404200428
5.6	-0.0122230881766473	0.0019143143606373	-0.760640024050858	-0.633279698793546	-0.760653597873134	-0.633450185950391	-0.000373702954563779	0.013637724687904
5.7	-0.0116737934669366	0.00302520121155211	-0.849545556980564	-0.507617822673193	-0.849521845412368	-0.507793065049937	0.00293263595589395	0.0135688986114343
5.8	-0.0111920143147087	0.00458307404794507	-0.91798216958387	-0.36952193335293	-0.918027163175406	-0.369814316963542	0.0059008064714513	0.0126553452399561
5.9	-0.0103385983653877	0.00564342103848628	-0.964447629768231	-0.2223669868196	-0.964568197362662	-0.222414883412964	0.00838513058099555	0.0105359822191832
6	-0.010390273191109	0.00661142564769671	-0.986524037217001	-0.0693920575064978	-0.986521061447822	-0.0694607755788445	0.00793795986421144	0.00794321537353634
6.1	-0.00948924078066628	0.00896995263065876	-0.985019377634778	0.0837121582712058	-0.985022624510938	0.083608811959425	0.00824353436428301	0.00845779387992
6.2	-0.00783422721771404	0.0103116724186135	-0.960275166858768	0.235637972996241	-0.960323342395553	0.235456211470485	0.00995529934183009	0.00757053998038857
6.3	-0.0063764051946575	0.0109953819941415	-0.912022874120208	0.38197663847227	-0.912047297237705	0.381847914836261	0.0115059091176329	0.00565508840663527
6.4	-0.00484118938351867	0.0112105732264191	-0.841200427282458	0.518925363328131	-0.841191870176158	0.518711751481086	0.0124957246011596	0.00260262627382757
6.5	-0.0037858161525229	0.0108612146282361	-0.750511992642017	0.642226015843305	-0.750612476525207	0.642053742016927	0.0122210855093275	-0.000874111621443677
6.6	-0.00247396920108385	0.010649870159548	-0.642387936606363	0.751426606451962	-0.64253647590109	0.751280519834082	0.0114588441486082	-0.00394352928601355
6.7	-0.00155748266111336	0.0100049746717907	-0.517598026037773	0.842286307844712	-0.51771932125267	0.842129037245393	0.00936063168768164	-0.00695031344152585
6.8	-0.000661054136873354	0.00968625763600724	-0.380242903128728	0.912177643951955	-0.380454141792488	0.91210265799184	0.00633297392853909	-0.00872149828159527
6.9	0.000252371205040929	0.00909257232370411	-0.234256469183278	0.959666359622765	-0.234507207781173	0.959662609453811	0.00335370473513635	-0.00931186748830096
7	0.00132998012397009	0.00871675250122674	-0.0830124731098371	0.985148582695534	-0.0832709948976557	0.985118404136944	0.000641443198467578	-0.00891862545941715
7.1	0.00253374211765828	0.0077550609210313	0.0718161062075001	0.986116457587786	0.0716092211075075	0.986104500697888	-0.00114316170663494	-0.00817742038051324
7.2	0.00337894123010375	0.00655091073437004	0.224056041401975	0.962502442969265	0.223800617648586	0.962546751895315	-0.00272123739139904	-0.00719044942691266
7.3	0.00361709440113909	0.00513277952227254	0.370501737387913	0.915900604533367	0.370261507152861	0.91599157074426	-0.00407769398474845	-0.00587226061679182
7.4	0.00363871606326195	0.00382831361024881	0.508084208161853	0.847547036728009	0.507865895272151	0.847709181165658	-0.00523873140733839	-0.0044251460209807
7.5	0.00287231511594923	0.00262196180172265	0.634464374534032	0.758092667871409	0.634304433939933	0.758264980487035	-0.00635078795129209	-0.00234704130841573
7.6	0.00275617102635996	0.00209182036967674	0.743818465716264	0.649450858003413	0.743603370963761	0.649612144959121	-0.00564543035072295	4.53707340427168E-05
7.7	0.00234045803024258	0.00135698966556969	0.835077798030349	0.526273965771392	0.834927072811921	0.526469078253913	-0.00438833335132058	0.00138327690918614
7.8	0.00212880404211465	0.000962776583064267	0.906703684413876	0.390285003995062	0.906583130061312	0.390506750347198	-0.00277194891075544	0.00188555216212671
7.9	0.00182959443805895	0.000481571645726598	0.95639316268947	0.244494102915297	0.956353126831506	0.244719625931411	-0.00155631575485689	0.00121240406985355
8	0.000438216954293806	-0.000319456807790498	0.981555641188664	0.0923996997631834	0.981626767122047	0.0926912358881062	-0.0031782060630542	-4.08240136029095E-05
8.1	-0.000490272813510827	0.00140303124701907	0.98366189259106	-0.0599254901622898	0.983786229700515	-0.059654833801655	-0.00423050681146456	0.00277080290399004
8.2	-0.000273085614524847	0.00244188736533353	0.962705036110139	-0.211722065539842	0.962771202158962	-0.211426532594128	-0.00331432640185725	0.00469115378441701
8.3	-0.000139159010492772	0.00350587548417154	0.918052300921516	-0.358733838533432	0.918190089960227	-0.358478325726797	-0.0017561923515642	0.00599400757905173
8.4	0.000873000408290647	0.00444829704848866	0.850596407294594	-0.49683518879659	0.850808135341611	-0.496636045990866	0.000688604831751778	0.00627263278465231
8.5	0.00128327606961636	0.00414093598176388	0.763399506490191	-0.621456227295172	0.763515094506015	-0.621330679232647	0.00168521210708455	0.00418763258566908
8.6	0.00165031338455848	0.00536948059001604	0.658382028439672	-0.732971192650556	0.658579183671529	-0.732786105431752	0.00144719787734652	0.00489399891171435
8.7	0.00300502405296773	0.00591234284735827	0.536214602687637	-0.826344289924451	0.536496040705393	-0.826235345809063	0.00312272689062752	0.0052520109366838
8.8	0.00460810808825206	0.00581289776700372	0.401328713122311	-0.899228425023414	0.401534442465102	-0.899174239680862	0.00486463982567224	0.00473579980315308
8.9	0.006328086877035	0.00527584515147131	0.257249648363149	-0.950081384510501	0.257490934106126	-0.949941346611242	0.0070170085249351	0.00359601313854155
9	0.00820737297647177	0.00350838808745276	0.107344155228113	-0.979286505965961	0.10770585341879	-0.979256586334533	0.00855213900134981	0.00104457428003104
9.1	0.00969421291488086	0.00144345412921893	-0.0468955038369093	-0.984010099367336	-0.0465433985871976	-0.984024867189587	0.00943052732311967	-0.00131786237904974
9.2	0.0105687562059663	-0.00170233819172236	-0.199030764277201	-0.964127191430838	-0.198675516918928	-0.964197998661339	0.00954807731946072	-0.00432781583940169
9.3	0.0100508474992958	-0.00446444402312861	-0.345839802580555	-0.921441258118629	-0.345483299352209	-0.92150561624911	0.00828132422214903	-0.00659766918195164
9.4	0.00924748688032933	-0.00699434197644389	-0.484327526633567	-0.857187208347507	-0.484004600738431	-0.857334815671508	0.00654837811128855	-0.00815820394679557
9.5	0.00684955027827163	-0.00827045456906917	-0.612633528678996	-0.771326403352605	-0.612427586973941	-0.771463836298472	0.00312147493164953	-0.00730895935134627
9.6	0.00655714384638251	-0.00897820078414873	-0.724081095185468	-0.665864205826139	-0.723808987441955	-0.666048975996494	0.003676551782558	-0.00480641346761761
9.7	0.00512466754115054	-0.0106041119506518	-0.818067531961931	-0.545741561051698	-0.817821833987891	-0.546010443926326	0.00461864079286385	-0.00492717924311149
9.8	0.00301211810224715	-0.0116322732054882	-0.8928800036274	-0.412386248923737	-0.89267138909591	-0.412660759294781	0.00500234870476777	-0.00543659156464184
9.9	0.000871214973992967	-0.0120104235413652	-0.9463167496313	-0.268448685643999	-0.946204740198731	-0.268777583885538	0.00546114597652231	-0.00690329356116424
10	-0.00285929616464673	-0.0123443583654978	-0.975223778460748	-0.117671029632962	-0.975144320273777	-0.118048684599739	0.00248051051440552	-0.00853718933628311
10.1	-0.00528924462430814	-0.00973804182731706	-0.98132749674321	0.0337840542313651	-0.98130780707144	0.0333075030458914	0.0013758151644625	-0.0059201314648741
10.2	-0.00667178302643267	-0.00817714328651932	-0.964619983595946	0.185544673589033	-0.964605075530054	0.185095932881648	0.0023508410488714	-0.00524767684775995
10.3	-0.00820773860005173	-0.00614164056530994	-0.924021752808891	0.333215462223903	-0.924156873916605	0.332676518171132	0.00309991774189107	-0.0058585946812346
10.4	-0.0089261098873797	-0.00431768646585149	-0.860284391446017	0.472391276706533	-0.860548958214411	0.471857523216584	0.00377207440124219	-0.00781317435579144
10.5	-0.0101455041720017	-0.00284835011512856	-0.776887802676596	0.598378451337673	-0.777168981610486	0.597992998704487	0.00227027723890241	-0.0112061607836752
10.6	-0.0110947280645814	-0.0002017278467776	-0.67567685138786	0.712196979866458	-0.67610138356773	0.711853747295566	-0.00073145230801243	-0.0121026812799356
10.7	-0.0112722204880915	0.00312432501619125	-0.556877779700214	0.808665589317826	-0.557287891774119	0.808377976795154	-0.00314618313496399	-0.0118109030194102
10.8	-0.00953683661245845	0.00585022783946102	-0.42448096137959	0.884952174111757	-0.42498961586318	0.884723541953356	-0.0039999169234687	-0.0109841269603181
10.9	-0.0074151334677152	0.00814108512154999	-0.28263642128338	0.939542875780819	-0.283122534713114	0.939491469528776	-0.00495224282838717	-0.0106175656374974
11	-0.00489942377433286	0.00939637691519345	-0.134306658246126	0.973328726567724	-0.134851919485498	0.973323612620985	-0.00600518448872183	-0.0102647545638618
11.1	-0.00178425268580089	0.0102161054788296	0.0197032975532128	0.982418767350478	0.0190751726833351	0.982501426000157	-0.00627788206301391	-0.0098059796479545
11.2	0.00125245071055602	0.00981171513524375	0.171745465611945	0.966917823079324	0.171227412857724	0.967120360560717	-0.0065066618909035	-0.00985654867361511
11.3	0.00411994919166056	0.00898736925718662	0.319133453340918	0.928607201748697	0.318704760937835	0.928868938380327	-0.00659139741710664	-0.00996762543089733
11.4	0.00672509320327479	0.00703893724738155	0.459309672625974	0.868723090909258	0.458845905983194	0.868982207892156	-0.00702068367739186	-0.0105827024126619
11.5	0.00781823684992477	0.00553659595932496	0.590073708434001	0.786470402714025	0.589716261902394	0.786888431512012	-0.00967482167443841	-0.00986360211462323
11.6	0.0101861049703555	0.00393315274738033	0.703863387441186	0.684382080086179	0.70359762556072	0.684861903955804	-0.00944729156686967	-0.00738957417147432
11.7	0.0117064075228507	0.00136831335922529	0.801144183424477	0.567410382828371	0.800905800964318	0.567831742140602	-0.00874663490097325	-0.0068685832250607
11.8	0.0123335511097808	-0.00142530627980388	0.879767507548771	0.436418647299495	0.879583870851811	0.436970240976183	-0.00844940002035178	-0.0069565299499318
11.9	0.0127663829395023	-0.00419701782038758	0.937432637085824	0.294213001240519	0.937395088873622	0.294756773829106	-0.00852870899797417	-0.00809980383704333
12	0.0104262405989033	-0.00761085735646145	0.970292000053427	0.144445972839991	0.970280765220119	0.144924593018158	-0.012446104768759	-0.0094670319380792
12.1	0.00924086922716793	-0.00817953501581632	0.980781729750109	-0.00646866942403041	0.980757405232397	-0.00599666332599039	-0.0146515934485152	-0.006180855038003
12.2	0.00780619674819247	-0.00999436061842945	0.968347156060184	-0.158641813716451	0.968453912073183	-0.158205282717703	-0.0152649102130444	-0.00381305652549443
12.3	0.00567897047666489	-0.0110455362736241	0.931822272497762	-0.307145592291023	0.932007980758311	-0.306788100330889	-0.015450263469163	-0.00150552128100212
12.4	0.00352126891205978	-0.0116447617217232	0.872230555054678	-0.447888897727952	0.872363497721959	-0.447514916279236	-0.0145481209426663	0.000359807730187421
12.5	0.000816918449183984	-0.0123836734978084	0.792558768349603	-0.575934438769663	0.793015596466299	-0.575542635668076	-0.0149628206289349	0.000350173764982043
12.6	-0.00186906767480852	-0.011114928555605	0.694918267153204	-0.692720824194845	0.695264155225282	-0.692411282862011	-0.0155695947331367	0.00334004861184744
