# GHZ S RI R 50
0.2	-0.000163986886940398	-0.000329742606294538	0.950459793925322	-0.30747189058995	0.950233401965137	-0.307614154018031	5.38023188368916E-05	-0.000235709276704107
0.3	-0.000539143134043577	-6.73487563638619E-05	0.89097191536677	-0.45134069823423	0.890834330763711	-0.451394136446331	-0.000274683725958518	-0.000439048335865766
0.4	-0.00067761357631798	0.000254287916746548	0.809964594082684	-0.584126894576245	0.810004943059871	-0.584266741947217	-0.000460061144213782	-0.000337719316559834
0.5	-0.00057423201080332	0.00108147589831653	0.709128179272136	-0.703421811120395	0.709017372795023	-0.703517976959905	-0.000149896653712691	0.000189996496460575
0.6	-5.53222911521562E-05	0.000779120699440017	0.590787070849559	-0.80467105360148	0.590597099132072	-0.804674074572949	0.000335829219418513	-0.000476388385668776
0.7	-0.000281868440406799	0.000920005228078609	0.458661773137799	-0.886463879850836	0.458587589841123	-0.886498391607484	0.000103614463041077	-0.00103694265635442
0.8	-0.000260964944921916	0.000870926631838351	0.315299683374931	-0.9471283555451	0.315180781003338	-0.947041465205186	-0.000322385835393749	-0.00142625387578867
0.9	-0.000779790738697165	0.00110753111883924	0.163958054978619	-0.984651761163092	0.163808621412785	-0.984608800974077	-0.00138063413055847	-0.00178416348730377
1	-0.00112793277079893	0.0025907079389274	0.00863121946287773	-0.997354997012842	0.00851287925659513	-0.997325219249615	-0.00246929007002685	-0.000369410224353487
1.1	0.000428086699372734	0.00284689953116487	-0.145207919190158	-0.986684755774354	-0.145857021329506	-0.986649688481171	-0.0016962885203906	0.000101470759118797
1.2	0.000787747690313993	0.00193441776195388	-0.297700405705049	-0.952156080645502	-0.297693417533898	-0.952211915651465	-0.00167903535924944	0.000367729814348251
1.3	0.00135865877015146	0.000719583716767107	-0.442155163840479	-0.894077712758267	-0.442247537970675	-0.894102209489741	-0.000390815537049517	0.00123399877875605
1.4	0.00165094472230949	-0.00129281003526954	-0.575445460563987	-0.814122558970083	-0.575519375949865	-0.814022677312132	0.00136852090224662	0.000782629279106121
1.5	0.00258014891074626	-0.0029613561617375	-0.694359475220506	-0.715004236812318	-0.694384127636453	-0.714932009937568	0.00377093638106593	-0.00107870299587755
1.6	0.000921093687819083	-0.00491669443191319	-0.797325996666136	-0.599108933746932	-0.797756719664183	-0.598606535217874	0.0020219489605327	-0.00394135731476191
1.7	-0.000111190942048649	-0.00426710355296403	-0.880755785452115	-0.467382781472533	-0.881060634769467	-0.466890910048348	0.000252778325314669	-0.00400700553000811
1.8	-0.000729241527670128	-0.00378186608653851	-0.942571994749719	-0.324162373044765	-0.942587480932447	-0.324152856663353	-0.00118645862694701	-0.00391800245017102
1.9	-0.0011195950246548	-0.00258962664789019	-0.981281360567724	-0.173857056915542	-0.98132608005605	-0.173909908370256	-0.00235473240536532	-0.00286295039118629
2	0.000649558084096328	-0.0020629197470517	-0.996982941025242	-0.0199016595090572	-0.997077133227299	-0.0192493931975975	-0.00105961827072697	-0.00193372938318547
2.1	-6.40505281220415E-05	-0.00410688466174894	-0.987402473395896	0.137526928732825	-0.987503783539822	0.137041112943628	-0.00187121285337407	-0.00380171080482586
2.2	-0.00181390257480289	-0.004055341810433	-0.953604491163789	0.288505270621526	-0.953642981283398	0.288639608112788	-0.00357831042926789	-0.00350528698397841
2.3	-0.00302375641262723	-0.00344942991543075	-0.897020840467291	0.432976531401356	-0.896856174815178	0.433064747532951	-0.00484332263160832	-0.00277952247103085
2.4	-0.00452405794775628	-0.00225596471043052	-0.818415688501454	0.567791916727578	-0.818709725781281	0.567329351573461	-0.00614905995656165	-0.00137886398473251
2.5	-0.00378338654338173	0.000256039956754335	-0.719589256000233	0.688806440140127	-0.719894524481531	0.688425887472134	-0.00487326361252885	0.000986729084484231
2.6	-0.00298354326878838	-0.000480521909826702	-0.603343897861801	0.790846702346245	-0.603264780998183	0.790786765338675	-0.00320955550386099	-9.2302944458677E-05
2.7	-0.003378009943234	-0.000391637835471972	-0.473180419871137	0.874448821418578	-0.473150811596095	0.874462795717216	-0.00342989482046039	-0.000775963971372276
2.8	-0.003667576969406	6.1407286094456E-06	-0.331637184494194	0.937180492151556	-0.331518312273762	0.937264545904704	-0.00374190742351036	-0.00078152594434402
2.9	-0.00299846108002198	0.000712429385686345	-0.181411670317214	0.977106836466899	-0.181406883039957	0.97716170038299	-0.00355277494134359	4.31390463223063E-05
3	-0.00192806630554598	0.000570416127404418	-0.02679739368006	0.991816627252925	-0.0268612667774936	0.991888503608291	-0.00237911694571652	0.000300416871814604
3.1	-0.00152878835601958	0.000583239071312717	0.125619509173546	0.983800177943976	0.126268059376595	0.983877900816665	-0.00209928845939273	0.000572464275990475
3.2	-0.000704819244965746	0.000633402655903385	0.27758941045506	0.952185847536603	0.277579674432301	0.952225502374371	-0.00125632929024698	0.00107174091555815
3.3	0.000396826319545442	0.00027772688330165	0.422868687612381	0.896715008025394	0.422247857067705	0.897000222160375	-2.73770908427529E-05	0.00112133880169268
3.4	0.00124782402982432	-0.000116081423674458	0.556039118027593	0.819560286817118	0.555954998469492	0.819675985643143	0.00146876735539163	0.000918841256469475
3.5	0.00302065680676985	-0.00174916036211622	0.674942988213887	0.723736541781607	0.674957321697063	0.723762623747807	0.00360763812030128	-0.000976645678753869
3.6	0.00180024008860208	-0.00369708701864605	0.779383652412305	0.6110226670228	0.779803389884318	0.610626798720409	0.00264679015462698	-0.00335878862146753
3.7	0.00116764641505614	-0.00421356823035603	0.864993468507098	0.481376279286056	0.865001175541419	0.481502617499591	0.00184861736801094	-0.00404522141109276
3.8	0.000373128066857061	-0.00471471155009557	0.928480100059299	0.340984208743103	0.928509472670779	0.341167002994244	0.000923383077043013	-0.0047460665209264
3.9	-7.38197904642002E-05	-0.00462829981797921	0.969596624256214	0.192690771883711	0.969501433892872	0.193277837255053	-0.000386952665008112	-0.00486662370001215
4	0.00100507552406008	-0.00484066230048257	0.988739130503088	0.0409375116151721	0.988821234884261	0.0409800647540885	0.000435372331519002	-0.00499633197108502
4.1	4.39067203951363E-05	-0.00738648142007667	0.98250304174148	-0.114305570509471	0.982441424128991	-0.114241267586832	-0.00104980027822264	-0.00761332605308021
4.2	-0.00220482495694187	-0.00800226409526099	0.951563430604912	-0.265688890453132	0.951759937650522	-0.26512229951982	-0.00363927597512118	-0.00812083395007949
4.3	-0.00408706409558112	-0.00834566901394914	0.898792635412063	-0.40905978257382	0.898793612853879	-0.409041315704402	-0.00615756911576401	-0.00812627020660551
4.4	-0.00664922563427215	-0.0076771732575124	0.824746048740987	-0.543411082929545	0.824666457572453	-0.543394750917394	-0.00921002250681115	-0.00688533730583603
4.5	-0.00718329506649623	-0.00565304271453682	0.729413010015769	-0.665951939729398	0.729290915347905	-0.665805434570718	-0.0100973512068606	-0.00383221110563066
4.6	-0.00759652222473324	-0.00593106872570016	0.61609236995894	-0.769395807102086	0.616079463268935	-0.76916740106893	-0.0101896208645654	-0.00343306772307089
4.7	-0.00898430939841763	-0.00585711166409941	0.489510969376136	-0.854928366423362	0.489628917830699	-0.854685709641797	-0.0116128175724639	-0.00269009348203231
4.8	-0.0103953909996727	-0.00510484472429442	0.350820053546519	-0.92013696907685	0.351113277776124	-0.91995118960055	-0.0126946798819658	-0.00136086279530881
4.9	-0.0113108656959252	-0.00425087543313184	0.203279465041336	-0.962844673452251	0.203538107552012	-0.962795580511666	-0.0132679959445526	0.000643547104643602
5	-0.0116084716223547	-0.00350670408636732	0.0516689354288274	-0.980445294203254	0.0518267520067415	-0.980319384228493	-0.0124888330164172	0.00260248529997308
5.1	-0.0126652664593363	-0.00304059198258045	-0.0989252454518781	-0.976609159823819	-0.0986063921671735	-0.97654824784561	-0.0123971207148056	0.00432429215410225
5.2	-0.0133364665870748	-0.00132404040269335	-0.249079601687036	-0.949831981005037	-0.248655841539649	-0.949954728274713	-0.0116844214116099	0.00727197118796372
5.3	-0.0133608600606674	0.000354815322840801	-0.393230960903415	-0.899487559085367	-0.392945490505785	-0.899830490768156	-0.00964022171557587	0.0103994148714842
5.4	-0.0123676218425743	0.0027772022401078	-0.527347581315274	-0.826935507239301	-0.527213767113869	-0.827222991570721	-0.00602910932627004	0.0133858303830175
5.5	-0.00961131840414153	0.00222467273390269	-0.647260299438369	-0.736097845655129	-0.647211177495064	-0.736408890074805	-0.000237063052654623	0.0125014231429543
5.6	-0.0116938633561086	0.00175426810642207	-0.754480068432299	-0.627837441949116	-0.75449357107032	-0.62800651047058	0.000109773783947835	0.0103177991818951
5.7	-0.0127301950122764	0.00383535928130466	-0.842798143621498	-0.50288166916283	-0.842774736007587	-0.503055470193815	0.00102590732619333	0.0109833091770133
5.8	-0.0129142837030595	0.00641377246720986	-0.909924074536143	-0.366070657329493	-0.909968726448673	-0.366360442813424	0.0026488453045482	0.0116609465773191
5.9	-0.0124087860758201	0.00972341182285462	-0.955171380916092	-0.221640881194261	-0.955290760944377	-0.221688500275005	0.00466642634540827	0.0131800683329097
6	-0.00783524095577293	0.0122823772529764	-0.979757824357326	-0.0716082953276488	-0.979754681886455	-0.0716765470376486	0.0108029633131521	0.0134862072491132
6.1	-0.00639575776001508	0.0103970689518973	-0.978511985507554	0.0825400722920277	-0.97851514610056	0.0824374122501594	0.0135085864053185	0.00836632822412989
6.2	-0.00611148045038181	0.0107289869993762	-0.953138223839417	0.232811380763841	-0.95318583667457	0.23263096629869	0.0140096055484438	0.00488400883349899
6.3	-0.00576223487375507	0.0110037880682216	-0.905709134505105	0.377083996045806	-0.905733096946027	0.376956225240485	0.0137917760843525	0.00144574760848745
6.4	-0.00535358257022498	0.0117647172678994	-0.837217748169349	0.512923689557611	-0.837208595653656	0.5127115171499	0.0125856299404175	-0.00139146755877917
6.5	-0.00420590096344962	0.0121198262613414	-0.74671853762556	0.637963848530538	-0.746818311877188	0.637792482077333	0.0115990896655104	-0.00401410769372614
6.6	-0.00329970928657824	0.0124309111723935	-0.638032598370588	0.744265014542808	-0.63817969607627	0.744119948682687	0.00964511413163328	-0.00607492104765774
6.7	-0.00182130969754453	0.0125874424266781	-0.515884268835037	0.83372078621988	-0.516004077523778	0.833564448179838	0.00791050071553758	-0.00737331827967728
6.8	-0.000182063598850541	0.0122040958241231	-0.380849377198205	0.903935007183509	-0.381058756477559	0.903859783260965	0.00606252621504336	-0.00854644527433651
6.9	0.0012564703199386	0.0112790554411025	-0.235636766427859	0.952495138736665	-0.235885808313683	0.952490641817066	0.00432173592801263	-0.00926829345078005
7	0.00235923342423152	0.00957950134590539	-0.0848914062161707	0.975655899015038	-0.085147414262434	0.975625306473904	0.00230245098897297	-0.0106285286296134
7.1	0.00212822256560204	0.00865431061744298	0.0652275602330154	0.977599139414225	0.0650226248305417	0.977586045535058	-0.000847998931700623	-0.0104590563429691
7.2	0.00259398594113739	0.00808200599850016	0.216020205004594	0.956613966846414	0.215766443465117	0.956656259072428	-0.00288242703977944	-0.00920800316806607
7.3	0.00272803744423962	0.00717302232614335	0.361927282314974	0.911704822653718	0.361688192665824	0.911793584504539	-0.00446541042277101	-0.00772909334880143
7.4	0.00294734773001278	0.00649965742986542	0.49843429643117	0.843927918391369	0.498216712692954	0.844087321952159	-0.00556685384550991	-0.00590029542823028
7.5	0.00346637045386765	0.00494710329504832	0.621278739147909	0.758077668765953	0.621118408739823	0.758246869852879	-0.00542493174219819	-0.00469274629634931
7.6	0.0022010841272395	0.00320325570353279	0.733095110037623	0.654193332113847	0.732879359888947	0.654351494691304	-0.00666886723377339	-0.00429654299279062
7.7	0.000608798991874592	0.00310791000403235	0.826205536461964	0.532389612405475	0.826053501758307	0.532582373344978	-0.00788395453144861	-0.00227645458717616
7.8	-0.000373993209742719	0.00379910022036982	0.898874650150789	0.39792513754243	0.898752333367645	0.398144712006226	-0.00805935145579685	0.000296942813606085
7.9	-0.00103649041105068	0.00557351405396272	0.949680348209703	0.254887454443184	0.949637791413651	0.255111603917908	-0.00708127983269998	0.00396916782933309
8	0.00244648185040056	0.00699783005119204	0.980477285606478	0.105094556692157	0.980544652601984	0.105387046282525	-0.00223588463426726	0.00663069174344612
8.1	0.00264229778534583	0.00435956159319823	0.985003058615636	-0.0502011920265056	0.985124801858361	-0.0499290954864803	0.000355747602284029	0.00401076532425027
8.2	0.00162138744936375	0.00398065977338168	0.964955466402346	-0.202270173891558	0.965018731094798	-0.201973938561087	0.000635141437358743	0.00305443333974551
8.3	0.000542318144756859	0.00423806379461875	0.922401148642603	-0.349254055873039	0.922536322378981	-0.348996931831835	0.000818862865376946	0.00233618876434134
8.4	-0.000771808959137984	0.00551441026995129	0.858433766711561	-0.48869866024936	0.85864384781357	-0.488496619210824	9.40087796640083E-05	0.00238106762286065
8.5	0.000832978104953081	0.00880895819936959	0.771385411900518	-0.618318966264754	0.771500541242044	-0.618192003220652	0.0023374675042019	0.00456772821148517
8.6	0.00291386007801478	0.00734002600372718	0.665099413400477	-0.729089412988494	0.6652954629006	-0.728902505947768	0.00484591972084974	0.00142511230046345
8.7	0.00278982043694401	0.0072519421735693	0.544787742705152	-0.823377661740827	0.545068829040906	-0.823265960674044	0.00435915156231813	-0.000602166493941137
8.8	0.00353532424990328	0.00742203269805701	0.41087907404484	-0.898817408695023	0.411085049061121	-0.898761172779657	0.00343536249186383	-0.00192662853385082
8.9	0.00418173274254202	0.00746930924846865	0.265504846575345	-0.952766232259315	0.265746262625832	-0.952623737438347	0.002121277218909	-0.0023099723834169
9	0.00616265194030486	0.00753030938434917	0.113707848179066	-0.980385097591533	0.114070013463892	-0.980352845192425	0.00218913793137465	-0.001337351245044
9.1	0.00766197752789729	0.00620997489184835	-0.0377320344719354	-0.987224312390835	-0.0373787981288709	-0.987235795609709	0.00254671659705452	-0.00134135606552157
9.2	0.00965309042214257	0.00491453016752891	-0.19126047164915	-0.970664533105855	-0.190902838472417	-0.970732464826295	0.0039678820902579	-0.000607522173612634
9.3	0.0115415814477831	0.00251092270113654	-0.340628860617383	-0.929373767728826	-0.340269829294115	-0.929435714923925	0.00640647599563262	-0.000956218508415851
9.4	0.0126579835059308	-0.000385390366042867	-0.480817717323453	-0.864243181875619	-0.480492364443227	-0.864389310518888	0.00868169197857279	-0.00195282485233734
9.5	0.0139407620041166	-0.00573118083148353	-0.607251240657718	-0.78058031858762	-0.607043092874567	-0.780716210483222	0.0119169783347338	-0.00630925988441092
9.6	0.00882605590584361	-0.0102952545643822	-0.723433060657409	-0.678025624393354	-0.723157043340522	-0.678209253419184	0.00783005688353933	-0.0106287745024304
9.7	0.00475264049961321	-0.010606562647073	-0.820703713566628	-0.556704928190339	-0.820453853421887	-0.556974161257359	0.0047422231730863	-0.0106086215095236
9.8	0.00137278443692864	-0.0104867758786209	-0.897166993254635	-0.422161418135214	-0.896954708324936	-0.422436658101724	0.00246991941649481	-0.00990551640076224
9.9	-0.00199178646272534	-0.00832789677297636	-0.951676706434071	-0.278607731406396	-0.951561015447254	-0.278938334790015	0.000861040003716899	-0.00740574278536992
10	-0.000868690062931954	-0.00695699111102601	-0.986525232641276	-0.127691383323362	-0.98644146580119	-0.128073118144287	0.00443663522330233	-0.00588334509606571
10.1	-0.00424395548605763	-0.00873480845913167	-0.99397224938927	0.02974435101246	-0.993950138205383	0.0292618237458359	0.00352616477453571	-0.00924437516569621
10.2	-0.00783665397629211	-0.00688165150347267	-0.976684191439301	0.183889083906035	-0.976667324541497	0.18343513298185	0.00140834112194781	-0.00922585816391213
10.3	-0.0105487611748954	-0.00397713243328894	-0.936586567611239	0.333387466498518	-0.936721073029996	0.332841440924008	-0.000217193874903747	-0.00875996171619286
10.4	-0.0125537880820053	-0.000244790010372952	-0.874613229882868	0.475782225510069	-0.874879488401959	0.475239696065758	-0.00169534554641114	-0.00741720022179949
10.5	-0.0114974737676688	0.00472471480906715	-0.788393531780011	0.608879912791548	-0.788679672537379	0.608488730888776	7.68610490622104E-05	-0.00530621390259843
10.6	-0.00937666133017134	0.00627404787135992	-0.682343627619037	0.722346922279414	-0.682774079889778	0.722000440822148	0.00223934433813258	-0.00712665357540266
10.7	-0.00804482411518681	0.00759814678828743	-0.56210799066626	0.819308607982353	-0.562523509275316	0.819018281449008	0.0028935584771973	-0.00958842833814095
10.8	-0.006956119166411	0.00846158480454732	-0.427676558664875	0.897109956300318	-0.428192163758204	0.896879680680488	0.00184929723595973	-0.0121960675483244
10.9	-0.005983089594992	0.0100122005851541	-0.281563396056144	0.953153084772442	-0.282056072810349	0.9531034636089	-3.56147949361333E-05	-0.0137372937852054
11	-0.00391644503420966	0.0106897505925565	-0.128984510555256	0.982278173434709	-0.129534321426512	0.982276621696798	-0.00158353298176901	-0.0151241241075046
11.1	-0.00248362054229405	0.0117868438227053	0.0232342775582354	0.990720753738585	0.0226010846421182	0.990806266706209	-0.00426089651930153	-0.0157634519764191
11.2	7.68306685264582E-05	0.0124178858059107	0.177411190425559	0.975680673816508	0.176888898027238	0.975887329220462	-0.00618126286540815	-0.0155012215289359
11.3	0.00287628951774684	0.0124722710251703	0.327520136589086	0.935741722004689	0.327088804391319	0.936008434095117	-0.00765116728631459	-0.0146358821535989
11.4	0.00590642294512783	0.0122431593245027	0.468733607852468	0.871845024116279	0.468268271904469	0.872109273656829	-0.00836093507572758	-0.0127549755745712
11.5	0.0104282754950225	0.00945691327044661	0.596037429206431	0.789640034826654	0.595678979193818	0.790061705929561	-0.00669411462589223	-0.0135550308345381
11.6	0.0101236990761164	0.00542237250187754	0.713584120266823	0.688237513613293	0.713317705165226	0.688723143530144	-0.0102337052797496	-0.0149526579940664
11.7	0.0101375910504729	0.00389462404044175	0.812237660476868	0.56772136106321	0.811999679130227	0.568148178348618	-0.0130519017718898	-0.0131537790693962
11.8	0.0098182783477892	0.00211577519231288	0.889863508772261	0.433720244969341	0.889682282763261	0.434277536092899	-0.015377461325033	-0.0106568281073868
11.9	0.00935748138033724	0.00236132437742382	0.945442926142044	0.291079936292038	0.945408103750581	0.291627625467289	-0.0169791464097508	-0.00567414289631116
12	0.0131265465406099	0.00121463257686735	0.981799175693079	0.140933393106556	0.981790338197935	0.141417373273769	-0.0119630550447964	-0.00185017222637555
12.1	0.0122616113621624	-0.00393302040536553	0.990496986258188	-0.0159068007125263	0.990476930357394	-0.015429856817632	-0.0110186374373269	-0.00381734329588845
12.2	0.00990994297338741	-0.00672116064133358	0.974522502614782	-0.169460329826144	0.97463441729496	-0.169021362512775	-0.0112312215025269	-0.00361022010382393
12.3	0.00708349076294323	-0.0087605144905119	0.935940258019108	-0.31817793524321	0.936130708282279	-0.317819499066969	-0.0115584501454595	-0.00348896569127736
12.4	0.00285303370963999	-0.00941958652176641	0.8761226526466	-0.460159664870554	0.876260310063254	-0.459783463856669	-0.0129348862182066	-0.00237099584234755
12.5	0.00126921531168894	-0.00756455241617576	0.791448167980461	-0.593189759645641	0.791915150448186	-0.592801072452234	-0.0114536585444688	0.000477722267989933
12.6	-0.000617573507379776	-0.00887973498364513	0.687753007618042	-0.706207120680533	0.688105072143082	-0.705901326776541	-0.0101398936590877	-0.00109203968682673
