# GHZ S RI R 50
0.2	-0.000311773233428748	-8.08514453880465E-05	0.949408264615902	-0.307725578517697	0.949182001230815	-0.307867582533821	-8.13318139382654E-05	-1.52344545667055E-06
0.3	-0.000517091344878453	0.000231628558221652	0.889622413819253	-0.451445857649053	0.889484950857501	-0.451499137060903	-0.000237036402024353	-0.00017114981960475
0.4	-0.000391907197488402	0.000470500096225581	0.808281310226948	-0.583878391503789	0.808321488509927	-0.58401805895822	-0.000163977177736362	-0.00016845769141132
0.5	-0.000370130600087306	0.000792920394335489	0.707488599610942	-0.702409199962945	0.707377959432448	-0.702505136721093	6.07409398719574E-05	-0.000147370725436702
0.6	-0.000255342154909985	0.000784977520968114	0.589521528485178	-0.803502039096134	0.589331877646449	-0.803504992468778	0.000156930222032605	-0.000534612478420294
0.7	-0.000310900115075643	0.00115271643324588	0.457445180917194	-0.885005346044557	0.457371121292379	-0.885039763177791	9.31181108859567E-05	-0.000899261871016887
0.8	-9.23402232028011E-05	0.0012166334798886	0.314333499386252	-0.945228850393507	0.314214875639715	-0.945142105764551	-0.000156222353018832	-0.00120674408806759
0.9	-8.14466244599464E-05	0.00155703159925113	0.163581608745589	-0.982363046827867	0.163432522238787	-0.982320187152671	-0.000735603794774516	-0.00148130774274957
1	0.000177718817133038	0.00183731232205899	0.00893978443985574	-0.995402374653775	0.00882166591091643	-0.995372693713649	-0.00128863983561423	-0.00121962544774788
1.1	0.000510781909469185	0.00176197188371945	-0.144970216926617	-0.984666926537027	-0.14561799511244	-0.984631892529705	-0.00171432950213619	-0.00098146695332361
1.2	0.000653560351617193	0.0011036648017948	-0.296912090232941	-0.949945585791949	-0.296905113273967	-0.950001288943784	-0.00185951830365535	-0.000402059027994908
1.3	0.000836925575957226	3.40845844233724E-05	-0.4407373366341	-0.892059989276361	-0.440829475807977	-0.892084461056529	-0.000858672115723341	0.000615388538329254
1.4	0.000874552860089584	-0.00157188267740143	-0.573636868540962	-0.81264644698837	-0.573710679788146	-0.812546837038086	0.000736467504491591	0.000497203168760635
1.5	0.000989291653767549	-0.00251205945164781	-0.692771538045891	-0.713600501508501	-0.692796149889583	-0.713528431788905	0.00238909320308778	-0.000747348554882035
1.6	0.000592277541414149	-0.00303547239517791	-0.794848970950953	-0.597657333250232	-0.795278627111411	-0.59715651299179	0.00187198432566945	-0.00236957924287194
1.7	0.000614609221326298	-0.00294623298934204	-0.877788746060365	-0.466743926436825	-0.878093110238665	-0.466253748327789	0.00102064740178957	-0.003057280414409
1.8	0.000440280914408884	-0.00309654412615948	-0.939571033832836	-0.324278102480212	-0.939586486877629	-0.32426862968692	-9.38949982896962E-05	-0.00358572911634937
1.9	0.000290974369608234	-0.00300811577666935	-0.978445599564536	-0.174385412218229	-0.978490144047587	-0.174438166017773	-0.00109825265831831	-0.00354877604299457
2	0.000164950629536562	-0.00332332350983752	-0.993514282947575	-0.0208425354451878	-0.99360880992093	-0.0201926206925586	-0.00164094223341694	-0.00335505914867481
2.1	-0.000600558473442301	-0.00351355516418102	-0.984288777842031	0.135017926890418	-0.984388737769409	0.134533573686782	-0.00243926656675033	-0.00343230864754818
2.2	-0.00143950723874127	-0.00342284561704301	-0.951369018637375	0.285407695383703	-0.95140770393884	0.285541533873587	-0.00329462826773444	-0.00314146304066729
2.3	-0.00213660105301756	-0.00314635160244746	-0.895432596742104	0.429546548872529	-0.895268626482897	0.429634902804074	-0.00412996016668946	-0.00271810366897119
2.4	-0.00305483267463717	-0.00277073975340478	-0.81726034087565	0.563913705954866	-0.817552271462133	0.563451862025276	-0.00491720575066753	-0.00202244725751909
2.5	-0.0035336552805215	-0.00205697527357777	-0.719713108025706	0.683885668427106	-0.720015970407756	0.683505265887436	-0.00478779362274598	-0.00124831614478634
2.6	-0.00436930293273155	-0.00155546516434809	-0.605086944233416	0.786708977739885	-0.605007770183928	0.78664948507411	-0.00455100381800276	-0.00107250685998946
2.7	-0.00470258569666525	-0.000408371769195851	-0.475497053274699	0.870884988297845	-0.47546755796527	0.870899045189843	-0.00459478308533456	-0.000798459982023336
2.8	-0.00447688212803508	0.000593733471158683	-0.334641934552692	0.933974317281285	-0.334523633818841	0.934058666795559	-0.00436005726352796	-0.000310218222824291
2.9	-0.00332419173484392	0.00130167077840499	-0.185468110226568	0.974383744765542	-0.185463579911012	0.974438523336464	-0.00368621245686537	0.000418120442016894
3	-0.00220469775223778	0.00140167460187728	-0.0317530974899262	0.990987703994477	-0.0318172863603101	0.991059209651425	-0.0024745253306797	0.000825882040643477
3.1	-0.000935444289739921	0.00138651851448489	0.1215090493446	0.983885626214697	0.122156994144041	0.983965988264143	-0.00140202165385481	0.00101703461738575
3.2	7.88120841899813E-05	0.000846391177017305	0.273382018419639	0.952800661825034	0.273372119784579	0.952840251838796	-0.000464199330098143	0.000887509972657959
3.3	0.00113251664113678	5.5906739972054E-05	0.418623875667708	0.898342237747613	0.418001953070598	0.898624515615103	0.000657728341576805	0.000532509906361022
3.4	0.00164060095241029	-0.000941126446970968	0.552329742665824	0.822567621366739	0.552245032777851	0.822682963499815	0.0018022025750186	-0.000213064740691848
3.5	0.0021151603232842	-0.00210622495435732	0.672957400262368	0.727008245605186	0.672971651704992	0.727034408292593	0.00272575019168208	-0.00163511726815849
3.6	0.00172785214883812	-0.0030223675597354	0.77725925503485	0.61405058786985	0.777680552143854	0.61365620656801	0.00258374084106623	-0.00308265762154841
3.7	0.00165798425171575	-0.00386118407140369	0.863364965163592	0.485219738562976	0.86337214598918	0.485346166009818	0.00226306176853048	-0.00411198748184226
3.8	0.00112377991221318	-0.00473622802411136	0.927919424810839	0.345230129787518	0.927948052967962	0.345413221371534	0.00152473984606417	-0.005141379893775
3.9	0.0008140238399748	-0.00550983744683631	0.970195887503209	0.196553870091402	0.97009838725799	0.197141378093079	0.000317518569940238	-0.00600838512401772
4	8.72504534507545E-05	-0.0063727184111762	0.988979716262015	0.0442749566785254	0.989061709084995	0.0443178019269705	-0.000530349965303964	-0.00665764772809306
4.1	-0.00108334519874353	-0.00711825103327953	0.983668784620796	-0.10988492722431	0.98360683248291	-0.109820864165311	-0.00207796611979515	-0.00756766361982688
4.2	-0.00260530244036471	-0.00737235967837101	0.954140352308745	-0.261717364927527	0.954334549407249	-0.261149064421764	-0.00393652937355493	-0.00780857626348302
4.3	-0.00391730163254332	-0.00765279120436959	0.902127542427848	-0.405941155796923	0.902128442679483	-0.405922652145579	-0.00592289830643309	-0.00780249302644194
4.4	-0.00560182758049943	-0.00748712753795613	0.828191311350772	-0.540908473219137	0.828111533402492	-0.540892437557803	-0.00816645860323937	-0.00703998757617251
4.5	-0.00683051663818701	-0.00722606432678731	0.733959331760828	-0.663025334961503	0.733836290704176	-0.662879270584126	-0.0097053279727081	-0.00561249460320509
4.6	-0.00860423118574898	-0.00667075612856532	0.622012575621558	-0.768537533240805	0.621998434064229	-0.768308492499083	-0.0109863944488234	-0.00441068685689963
4.7	-0.0100381776596293	-0.00595769190509166	0.495106554362121	-0.855658479162135	0.495223804827966	-0.855414443514304	-0.0123731378891875	-0.00315318212259886
4.8	-0.0113789686190016	-0.00471114914142754	0.356024636361562	-0.921879918379623	0.356318097316051	-0.921692218674395	-0.0133709603591143	-0.00145966426588123
4.9	-0.0120269221448874	-0.00357458142091443	0.208503326682781	-0.965409810423379	0.208762683919862	-0.965359334332359	-0.0137320472632764	0.000712475479228746
5	-0.0124472523058667	-0.00239850464192538	0.0566889103328198	-0.985464345705687	0.0568469660175947	-0.985336995741679	-0.0131285651690285	0.00301210949767612
5.1	-0.0123480578825874	-0.00135249648878621	-0.096440741230568	-0.982429626170777	-0.096120278037496	-0.982367376930996	-0.0120301021311209	0.00519717487048492
5.2	-0.0120300631326725	-0.000290157216864974	-0.247755613624075	-0.955579400545286	-0.247329256898716	-0.955701618953971	-0.0105572458656876	0.00752194714444358
5.3	-0.011681180128437	0.000218481380161562	-0.39292091147943	-0.905522702681263	-0.392632925413294	-0.905866737096873	-0.00829241959783983	0.00966490893407511
5.4	-0.0114850675248816	0.00103538611472496	-0.528572391931196	-0.833534109215039	-0.528436991515302	-0.833823074206255	-0.00543437117214357	0.0113129032095234
5.5	-0.0116409515828998	0.00149191253992273	-0.651258465530153	-0.741546938116328	-0.651208817135557	-0.741860089028723	-0.00223332039373125	0.0114952356875178
5.6	-0.0120413817144799	0.00320807984807924	-0.758417602458893	-0.631483411238067	-0.758431129915721	-0.631653406771794	-0.00016771583219924	0.0112553000360483
5.7	-0.011796466051445	0.00474115307695956	-0.847167715238778	-0.506063932878947	-0.847144091851091	-0.506238675430433	0.00189999102723674	0.0113321918112167
5.8	-0.01133224134974	0.00646179475449466	-0.915146713707678	-0.368397246847288	-0.915191563984216	-0.368688729955547	0.00406834399847854	0.0112392173585479
5.9	-0.0106266822998794	0.00787324871955668	-0.96114202107898	-0.22222056817522	-0.961262163243685	-0.222268380479851	0.00629195146551549	0.0110825843935184
6	-0.00960734253276652	0.00910443623567724	-0.984190807307926	-0.0703858243965192	-0.984187758100281	-0.0704543821237204	0.00920568524727661	0.0102562867568131
6.1	-0.00906060930982471	0.0103139238753762	-0.98284911026407	0.083199110227394	-0.982852315611605	0.0830959934138791	0.0113640647959983	0.00798537938013924
6.2	-0.00795942916875527	0.0117890613979351	-0.95784890068912	0.234574703132852	-0.957896865497185	0.234393399148301	0.0127297824830575	0.00532042262331266
6.3	-0.00667951736015313	0.0126731453448614	-0.909875871517023	0.380173242095743	-0.909900119914889	0.380044846294579	0.0132930490934051	0.00223506013469686
6.4	-0.00521947053371227	0.0132038495199757	-0.839939969042844	0.516715990504525	-0.839931167905855	0.516502871675658	0.012895958541269	-0.000917446918311169
6.5	-0.00386643765014089	0.0130928463961249	-0.749336160635513	0.64079728344548	-0.749436403189272	0.640625294727026	0.0119603467414636	-0.00394213111778626
6.6	-0.0024240560372944	0.0129498392839855	-0.640879136892468	0.748941860896961	-0.641027176001792	0.748796127931223	0.0103886280687095	-0.0064152257419727
6.7	-0.0011758018633839	0.0123087054638426	-0.517033253624775	0.839259884582754	-0.517154020724256	0.839102935807008	0.00833152562395421	-0.00835420089826387
6.8	-0.000112097395608858	0.0116996780821232	-0.380519999210507	0.909280025762369	-0.380730585028892	0.909204941662557	0.00594879323025349	-0.0096052490998112
6.9	0.000724173707637434	0.0108831456080364	-0.234766022187698	0.95720887050539	-0.235016181430787	0.957204855384533	0.00375548186356418	-0.0101839632051971
7	0.00156836825800071	0.0101586700347184	-0.0835843339567258	0.981757915298927	-0.0838419587037405	0.981727614995122	0.00158983538661102	-0.0106831456856464
7.1	0.00221381530856728	0.00939455175720796	0.0694629630481461	0.983002965662953	0.069256789136564	0.982990604620574	-0.000742257215389501	-0.0104258791417091
7.2	0.00291974804996277	0.00853751513703516	0.221159734159408	0.960354971215714	0.220904916074177	0.960398553649807	-0.00255604604023424	-0.00947684968624809
7.3	0.00313287393503117	0.00742659572687621	0.367429596877596	0.914352705314374	0.367189786893022	0.914442881992297	-0.00406760080001502	-0.00823363620633558
7.4	0.00326551680868786	0.00646459112662121	0.504634378411951	0.846129339996629	0.504416360124205	0.846290501202053	-0.00530535270643621	-0.00675019847441531
7.5	0.00300019201354316	0.00530393515876835	0.629550118455558	0.757898848332668	0.629390076985074	0.758069995666539	-0.00595301694831459	-0.00517572427414471
7.6	0.00268090802607573	0.00457314903935107	0.739773764404365	0.65112796823655	0.739558452187393	0.651288083049545	-0.0063334491372166	-0.00389423523737959
7.7	0.00222713422437923	0.00405493820748997	0.831720943460797	0.52847148801859	0.831569751725833	0.528665713554058	-0.00663579486090327	-0.00226373443721153
7.8	0.00201979177543964	0.00375183775573644	0.903698301393932	0.39304413117791	0.9035771147245	0.393265047848801	-0.00620039914918832	-0.000498227249585593
7.9	0.00161909029503673	0.00348822475065424	0.953728302895052	0.248307183415249	0.953687338669413	0.248532155747585	-0.00516990236531344	0.00138450398692487
8	0.00134316529249183	0.0031471148829848	0.981010809030484	0.0972127517324892	0.981080496286263	0.0975046102273626	-0.00335917324153148	0.00267067174843341
8.1	0.000150412236456557	0.00353882627073229	0.984081902736131	-0.0562910463221805	0.984205261514664	-0.0560198745969403	-0.00190781992086275	0.00292003385815598
8.2	-0.000222752232560163	0.00455175567041562	0.963399283707951	-0.208182381221538	0.9634643630401	-0.207886630870514	-0.000843373202111592	0.00306689869201753
8.3	-0.000408730710900223	0.00567250813603142	0.919494964151491	-0.355108151066801	0.919631745016219	-0.354852086512843	0.000201904262741138	0.00297185102557008
8.4	1.89382378637502E-05	0.00681768057608761	0.853403346400104	-0.493615436599609	0.85361439810189	-0.493415230230346	0.00105861422403914	0.00278365593729301
8.5	0.000776499519709844	0.00763565537729592	0.766319069354715	-0.620177190689677	0.766434466828557	-0.620051123936501	0.00248325977136007	0.0026245496413062
8.6	0.00143193268691234	0.0082626551241164	0.660765584559212	-0.731360741966232	0.660962283488247	-0.731175010412524	0.00373050121118373	0.00133087892844647
8.7	0.00247745424732714	0.00919430506640207	0.539336605253403	-0.824999280538989	0.539617835837302	-0.824889315845924	0.00424887390510192	1.18212175173941E-05
8.8	0.00441216475124878	0.00956764267346267	0.404894141533793	-0.898814444815255	0.405099907039278	-0.898759484843669	0.00417637730471263	-0.00127678010713681
8.9	0.0065568615894507	0.00914744261781661	0.260377074757615	-0.95086548844563	0.260618346075546	-0.950724536813461	0.00394077294435806	-0.00206354451013525
9	0.00895367914277069	0.00750256719236328	0.109730778515197	-0.979437364930912	0.110092555677192	-0.97940656786823	0.0041634884058876	-0.00250911549224053
9.1	0.0106379217628847	0.00520732005367793	-0.043349527726659	-0.984895613471677	-0.0429971129568516	-0.984909110986725	0.00460238081785013	-0.00318922813598931
9.2	0.0118958730443115	0.00215376002186319	-0.19592738650395	-0.966300694460268	-0.195571347252147	-0.966370354331828	0.005348467811638	-0.00385660402894577
9.3	0.0119020119038506	-0.00100906447330605	-0.34366372488202	-0.924169813795226	-0.343306377414456	-0.924233203656961	0.00615492042095077	-0.00469847459682924
9.4	0.0111041394357461	-0.00405327170855072	-0.482765517178591	-0.859561912649011	-0.482441786158279	-0.859708885435497	0.00690224229885622	-0.00569603517279568
9.5	0.00903956008283822	-0.00645846712695245	-0.610191465595399	-0.774512890053231	-0.609984776340715	-0.774649644973734	0.0073411644229221	-0.00731577489307758
9.6	0.00683742526652687	-0.00764936649192339	-0.723340210718164	-0.670318628940363	-0.723066709583917	-0.670502817317224	0.00620943476792505	-0.00880505129913824
9.7	0.00485220949687763	-0.00835925793737698	-0.818554783568845	-0.549833912016026	-0.818307559870763	-0.55010274372089	0.00494722370289353	-0.0094168482823906
9.8	0.00273167367231871	-0.00898158711225508	-0.893952729260774	-0.416104482433592	-0.893742760702563	-0.416379079296498	0.00366832672033914	-0.00945765296017112
9.9	0.000357673842759516	-0.00893526571801239	-0.947718054805909	-0.27243258090911	-0.947604614369628	-0.272761900786884	0.00288239646808699	-0.00879195285093782
10	-0.00214715038790802	-0.00898588609656712	-0.978913095886114	-0.121869724962238	-0.978831868150368	-0.122248679999844	0.00312076122852375	-0.0084554786874855
10.1	-0.00524141635626686	-0.00750910058739239	-0.985664769496993	0.0317861963234538	-0.985643952741029	0.0313076176917835	0.00265528089243315	-0.00883835926622112
10.2	-0.00714116558117829	-0.00552962080019986	-0.968791733800986	0.184348550543421	-0.968775870432695	0.183898071281707	0.00205385265749909	-0.00884389055348337
10.3	-0.0086974386014157	-0.00326332761770931	-0.928496994119009	0.3325753692415	-0.928631501170643	0.33203394272442	0.00134467512008502	-0.0089529402963608
10.4	-0.00962757418755928	-0.00122028430374596	-0.865656384698151	0.472859737486815	-0.865921098819365	0.472322714130897	0.000756545076036456	-0.00900038613249117
10.5	-0.0103466747686372	0.000913468679783388	-0.781419011618724	0.601670301200992	-0.78170173440078	0.601282602928765	0.000955739878763961	-0.00924975213760069
10.6	-0.0108243245869769	0.00311874569597606	-0.67842841910306	0.715405531591525	-0.678854851199351	0.715060915111824	0.000958189119353273	-0.0103553296718811
10.7	-0.0108079153472847	0.00594735036193645	-0.559190915793335	0.812081825096359	-0.55960276043198	0.811793018094853	0.000595334017904464	-0.0115325628460807
10.8	-0.009568108788273	0.00837598765892092	-0.426159785145959	0.889023781900582	-0.426670775813578	0.888794253715606	-0.000103273065589904	-0.0127218223806199
10.9	-0.00800568055837295	0.0107187256187818	-0.282790775119472	0.944308043655425	-0.283279235425436	0.944257002912151	-0.00140416240341671	-0.013724051785228
11	-0.00572628080149124	0.0122223157798611	-0.132819318498174	0.976383949724958	-0.13336615608145	0.976379870306405	-0.00266581284953422	-0.0145696397465776
11.1	-0.00300344764983313	0.0136394739784747	0.0203809247973239	0.985257340364441	0.019751029227922	0.985340635465067	-0.00420459184611752	-0.0151251385383863
11.2	0.000246222687513139	0.0138982559445001	0.173144026413331	0.970097319855221	0.172624362488722	0.97030098647062	-0.00559597199944524	-0.0153507462083994
11.3	0.00348159877420217	0.0134455306828607	0.321572237137243	0.931327176315676	0.32114245476432	0.93159043089871	-0.00674918955729255	-0.0151228456283017
11.4	0.00645187085253318	0.0119226414174774	0.462191982511392	0.870004407652393	0.461727559444251	0.870265098482902	-0.00763729720650278	-0.0144882722885636
11.5	0.00864401529786976	0.0100337705606542	0.59155932280099	0.787824340966602	0.591201318183231	0.788243345902644	-0.00829451444417402	-0.0143142310174659
11.6	0.0103649360128856	0.00797930009416914	0.706778652555167	0.686254466327146	0.706512308683039	0.68673613645385	-0.00988993502806037	-0.0139965457628362
11.7	0.012005275165467	0.00572054400710651	0.804702171055268	0.56808086241376	0.804463637248105	0.568504000742124	-0.0114455891614312	-0.0129680759133886
11.8	0.0128296709808244	0.00274205334675472	0.883038567242479	0.436033516633608	0.882855424839917	0.436586996393629	-0.0129639492451903	-0.0114558662044755
11.9	0.012985181168172	-1.74880264066227E-05	0.939915179332498	0.293785016699873	0.939878182918622	0.294330073293307	-0.0140949837420176	-0.00886469021255284
12	0.0118905602046549	-0.00336104303766826	0.974303024132035	0.144189186322698	0.97429215632457	0.144669733376407	-0.0134098851323515	-0.00679307391429949
12.1	0.00992680998654213	-0.00527458903653633	0.98445910615557	-0.00901034891759681	0.984435901463709	-0.00853650260276323	-0.0130410708136291	-0.00569168083143627
12.2	0.00781849801270391	-0.00696730189627418	0.970865487579526	-0.161726364024571	0.970973741261932	-0.161288792434965	-0.0128482984498979	-0.00463592830607088
12.3	0.00539048421574089	-0.00799035825362386	0.933772429922299	-0.310324872104125	0.93395955487569	-0.309966798608124	-0.0127203627994318	-0.00370850542318553
12.4	0.00258496423298613	-0.00848545839253741	0.874396244151921	-0.451596662659969	0.874530558368907	-0.451221613469523	-0.0127438691801553	-0.00256154378358768
12.5	7.36463173634405E-05	-0.00830460513063938	0.79305091369216	-0.581891021365531	0.793511371525845	-0.58149977060464	-0.0120997613109549	-0.00133362122489966
12.6	-0.00268439260413399	-0.00740132744979474	0.693072506809184	-0.69744630136221	0.693420576974709	-0.697137759102032	-0.0115586806024632	-0.00100746416696728
