# GHZ S RI R 50
0.2	-0.000189083493540192	0.000149883353632616	0.94860878101927	-0.308003046742474	0.948382598029368	-0.308144838995176	-2.03763759618065E-05	0.000297961159120745
0.3	-0.000225088758586392	0.00039891606155105	0.888532482420615	-0.45160559201399	0.888395109478106	-0.451658735788693	-2.34193777306392E-05	0.000146289845744368
0.4	6.52032154230209E-05	0.00044651187214851	0.806908217938711	-0.583711208487804	0.806948253789693	-0.583850733260706	0.000238879135174883	3.66838431851741E-05
0.5	-0.000135250083730115	0.000417189249277078	0.706226224958109	-0.701688584029507	0.706115704171706	-0.701784343776219	0.000257397177526012	-0.000281255719357703
0.6	-0.000170825654387292	0.000665607156455003	0.588406193427219	-0.802693932573968	0.588216790895799	-0.802696801908496	0.000133135595978771	-0.000335935743790372
0.7	-0.000101701425497702	0.00102869944428769	0.456348131115937	-0.883875352598575	0.45627416782445	-0.883909683785593	0.000203178656134996	-0.000547655940915275
0.8	0.000164287280617361	0.00104880428825705	0.313465193391377	-0.943719664605429	0.313346803096306	-0.943633027154534	0.000106441752553881	-0.000742349134976674
0.9	0.000371513161046738	0.00129795193171927	0.163186439147195	-0.980588049343819	0.163037628698606	-0.980545253123744	-2.44010537326307E-05	-0.00100350685618859
1	0.000441134838236539	0.000862418895527009	0.00890991317735623	-0.993833755373799	0.00879198127707685	-0.993804119364687	-0.000400011964813169	-0.00169966414072884
1.1	5.39104037085419E-05	0.00125179562130912	-0.144908604035798	-0.982858237270873	-0.14555520463766	-0.982823134797	-0.0016272295986661	-0.00145238149936871
1.2	0.000357636604520445	0.00102595071029124	-0.29632920682446	-0.948038520697854	-0.296322244565302	-0.948094112343787	-0.00191487266311989	-0.00069681519319652
1.3	0.000878696935646588	0.000275787038875563	-0.439668220905025	-0.890324143505063	-0.439760167464138	-0.890348582925814	-0.00103465598356687	0.000593385034574557
1.4	0.00146793902777479	-0.00141852179668472	-0.572287760843423	-0.811250697669764	-0.572361459531489	-0.81115130187214	0.000714240300773625	0.000685063460360452
1.5	0.00151244400009105	-0.00236484319585945	-0.691314349463949	-0.712159754694	-0.691338913664492	-0.712087834469938	0.00193958632259541	-6.06963350699054E-05
1.6	0.00183480201074667	-0.00314276739371384	-0.792672361307056	-0.596505286040122	-0.79310116178286	-0.596005857888745	0.00231245865389523	-0.00109819801970259
1.7	0.00164676020280502	-0.00374342098158788	-0.875365598805356	-0.466233234802443	-0.875669573172225	-0.465744440027683	0.00188071839555007	-0.00212815325775006
1.8	0.00110377491729918	-0.00417951219152705	-0.937116842036013	-0.324296026382033	-0.937132266900816	-0.324286588345511	0.000957624590531116	-0.00301411119904382
1.9	0.000499707985390365	-0.00439874184247693	-0.975976192245556	-0.174756461502427	-0.976020588293351	-0.174809125508105	-0.000126876699753803	-0.00369867830533934
2	-0.000668917132278709	-0.00418932808294705	-0.990679429588765	-0.0218844533568684	-0.9907744092136	-0.0212364826987206	-0.0020004939878439	-0.00349973197190355
2.1	-0.000757675152473779	-0.00363211587085325	-0.981986477148758	0.133027825963288	-0.982085371714819	0.132544549719402	-0.00243675072201391	-0.00251568683622584
2.2	-0.00138070712199624	-0.00381348417147341	-0.949604578676266	0.283040286761474	-0.949643408902727	0.283173737293484	-0.00279823734438746	-0.00228379975191995
2.3	-0.0021515369061166	-0.0036280646846264	-0.89412398002824	0.426836236333607	-0.893960565174829	0.426924691025999	-0.00331569343375741	-0.00208349107456921
2.4	-0.00316108728435748	-0.00337021399069394	-0.816439483531012	0.560755378081374	-0.816729695819879	0.560294055498183	-0.00385814681243616	-0.00204524725355242
2.5	-0.00436827062304584	-0.00240318925482641	-0.720040835837287	0.680334340413534	-0.720341951538172	0.679953929932128	-0.00481272196784283	-0.00198625176072264
2.6	-0.00461396695170576	-0.00084375044028252	-0.606189163315182	0.783706590638297	-0.606109963433017	0.783647416048739	-0.0050413188952484	-0.000868972323600494
2.7	-0.0040519300164033	0.000150544929392698	-0.477092413630081	0.868103622890692	-0.477063006907644	0.868117737271297	-0.00478136462815168	-0.000253639643959523
2.8	-0.00341889321998564	0.000571933054933576	-0.33687388567654	0.931469887808269	-0.336756026788769	0.931554452159901	-0.00430468824635033	0.000232049246628235
2.9	-0.00233848350703445	0.000753652235337572	-0.188464999533974	0.972432358793966	-0.188460658172864	0.972487077569743	-0.00363247729026756	0.000846105674130244
3	-0.00133467477739318	0.000702362894175523	-0.0349721801240016	0.990210081179107	-0.0350365591926025	0.99028132831775	-0.00248897013043905	0.00152694290576754
3.1	-7.34826546414053E-05	0.000236623552719526	0.11844432188411	0.983446866114953	0.119091494355263	0.983529115246998	-0.00104107242954025	0.00172318950394699
3.2	0.000518587816845324	-0.000532915025786629	0.270073505679735	0.952975003122338	0.27006348554485	0.95301453114833	-9.87745322014579E-05	0.00138401609210401
3.3	0.00123975803691411	-0.00134414129139723	0.415342731116135	0.899361528549696	0.414720128749326	0.899641538392669	0.000963404685509861	0.000864593677278016
3.4	0.00136474781486099	-0.0022788348980204	0.549522844496574	0.824436340591753	0.549437743197465	0.824551392879066	0.00176748463241572	-9.5828615283693E-05
3.5	0.00167917960753767	-0.002810436168148	0.670796388298338	0.728947877918338	0.670810562422623	0.728974081197949	0.00213777100653138	-0.000885968202916419
3.6	0.00179598718352388	-0.00384691910084011	0.775040709106499	0.616514269112216	0.775463232629165	0.616121379995499	0.00257440312937488	-0.00195912959276455
3.7	0.00152748012900183	-0.00491035307333873	0.86178141635008	0.488333069563737	0.861788152716392	0.488459540806172	0.00247874661777828	-0.00311907195363436
3.8	0.000756526886116164	-0.00573994967380681	0.927143942808554	0.348618885021453	0.927171946761456	0.348802160374187	0.00186757383449643	-0.00432396586613736
3.9	0.000157357593261042	-0.00640977428499005	0.970106668559313	0.199839332193228	0.970007191064785	0.200426856568594	0.000538879749873588	-0.00565514020509906
4	-0.000949988178970636	-0.00641158209720053	0.989099589474541	0.0478359570395621	0.989181451675678	0.0478791085578657	-0.00134077937051529	-0.00607951214661353
4.1	-0.00106711415400186	-0.00666245807210563	0.985046191506195	-0.106094999320944	0.984983926340866	-0.106031120217829	-0.00254883277567377	-0.00606771122764377
4.2	-0.00206128286661474	-0.00726475844144648	0.956433092075129	-0.258482706853501	0.95662541505077	-0.257912896469963	-0.00392253875567771	-0.00618911353073956
4.3	-0.00310520710323866	-0.00789660832918876	0.904994124224314	-0.403307565243681	0.904994958947714	-0.403289029654447	-0.00546172116049978	-0.00629203618451558
4.4	-0.00475084722475323	-0.00826442093024776	0.8314777264411	-0.538707627365622	0.831397764637519	-0.538691860154396	-0.00733631566439904	-0.00616621605461642
4.5	-0.00665901428777282	-0.00808978251564514	0.738297304966425	-0.661425153055272	0.738173392127092	-0.661279281165054	-0.00976859912712972	-0.00548926783816224
4.6	-0.008083198652188	-0.00704603362665184	0.626506928481324	-0.768477520708205	0.626491929109749	-0.768247886278348	-0.0115942944776165	-0.00367674975894751
4.7	-0.00916385735921909	-0.00659384647113562	0.499345463512708	-0.856515328526067	0.499462253963118	-0.856270201465239	-0.0130439289746456	-0.0020580290600262
4.8	-0.0103956253302417	-0.00568924005851781	0.360057688792049	-0.923546567201097	0.360351442358038	-0.923357357319386	-0.0139902107407828	-3.28560242851082E-05
4.9	-0.0111244269576589	-0.00494716334912333	0.212375030340118	-0.968038092918602	0.212635111779905	-0.967986595680505	-0.014201036745498	0.00231192484270704
5	-0.0117186201073722	-0.00392758413492492	0.0595664660702783	-0.989457161474614	0.0597248454513218	-0.989328852629417	-0.01353140954092	0.00497984098133671
5.1	-0.0117367941337575	-0.00339074295260569	-0.0947635156749973	-0.986485308956087	-0.0944419256084093	-0.986422145018862	-0.0117684648379241	0.00730843574822114
5.2	-0.0121483427150985	-0.00255298170662491	-0.246792717913148	-0.959879380028754	-0.246364418856038	-0.960001215190946	-0.00988503367740926	0.00930306797645894
5.3	-0.0124843510105822	-0.00171003740986652	-0.392893583170735	-0.910091355709487	-0.392603734958992	-0.910436309180674	-0.00752746497568578	0.0109603563118589
5.4	-0.0127393567350724	-0.000179886897620201	-0.529828110118345	-0.838131730128596	-0.5296916744363	-0.838421836461491	-0.00520943674708655	0.0121091053662939
5.5	-0.0123011849346729	0.00167865427311298	-0.65358651488934	-0.745123817662411	-0.653536460133626	-0.745438278023647	-0.00275309647478124	0.0133857958341368
5.6	-0.0113833245920593	0.00266154990378118	-0.760923602744858	-0.634715909057716	-0.760937033299022	-0.634886604642448	0.000481453439226457	0.0134947713855872
5.7	-0.0113743144529732	0.00349915482452748	-0.85045439403734	-0.508914876251161	-0.850430533195044	-0.509090359044049	0.0030308336757666	0.0130868982731366
5.8	-0.0113131419378328	0.00505974529804358	-0.919148094217376	-0.370435162232185	-0.91919303077719	-0.370727984908308	0.00539390650299842	0.0123327696052551
5.9	-0.0111751714715138	0.00656896352617117	-0.965434679589552	-0.223074268647758	-0.965555361070118	-0.223122276495873	0.00713600050463165	0.0110512930158226
6	-0.0104379477642506	0.00927023992236135	-0.988092529936225	-0.0707124854681626	-0.988089465404463	-0.0707813150960651	0.00805327903250895	0.0105712319961041
6.1	-0.00804713667122217	0.010643047316454	-0.987376481720785	0.0835465070262053	-0.987379698179017	0.0834429154726779	0.0104095878427677	0.00966745386001227
6.2	-0.00636623844051051	0.0110710472963904	-0.96227133421242	0.236213889430971	-0.962319626279987	0.236031750388467	0.0121851484135182	0.00737478176849108
6.3	-0.00528646836944273	0.0110292430650275	-0.913681315546195	0.382835261752669	-0.913705804330915	0.382706299541088	0.013150922322801	0.00439221855565032
6.4	-0.00457496300146987	0.0110105887146777	-0.842933906133034	0.519865846096108	-0.842925308260315	0.519651809610744	0.0129885989814366	0.00100563009729755
6.5	-0.00400613131212828	0.0111143128580113	-0.752273678522683	0.644481547191931	-0.752374546903013	0.644308841944496	0.0119920977994523	-0.00198879909632974
6.6	-0.00300074548766745	0.0113210393090565	-0.642651611516213	0.753743526169922	-0.642800634074416	0.753597350082015	0.0106626347394671	-0.00452046966379569
6.7	-0.00188921087047438	0.011345364063009	-0.517526977659878	0.844174635519527	-0.517648632675414	0.844017243632189	0.00867759494130093	-0.00658544924255241
6.8	-0.00043056893769926	0.0112147243118595	-0.380053043355252	0.914065968304491	-0.380264707453167	0.913991048431773	0.0063244324294356	-0.00796708820670422
6.9	0.000900381077478527	0.0104932864995713	-0.233586707261108	0.961987560479244	-0.233837982533967	0.961984107279094	0.00396243573168907	-0.00863648526399212
7	0.00239800454344377	0.00960197240241257	-0.0808602018655451	0.98676578226685	-0.0811191674139514	0.986736156444869	0.0018310390712618	-0.00888223387693805
7.1	0.0032083474384806	0.008140704405072	0.0734331528991128	0.986713829759852	0.0732260995946812	0.986702192664721	-0.000341535632997592	-0.00878474668059791
7.2	0.00376168393205257	0.00688784466859613	0.225632572708677	0.963108863155066	0.225376966606587	0.963153575932908	-0.00223316537864092	-0.00793330058096708
7.3	0.00378291105302851	0.00545523316843057	0.372422045778943	0.9162446276537	0.372181714936663	0.91633609100913	-0.00383882012038813	-0.00671296769674299
7.4	0.00356921570585282	0.00426000055416525	0.51032427540056	0.846974178249543	0.510106180197833	0.847136920581887	-0.00527023380878261	-0.00522039980683963
7.5	0.00311328760157705	0.00319376321068634	0.635317703355795	0.756670061279826	0.635158123859769	0.756842532778786	-0.00606956973020706	-0.00312749514560067
7.6	0.00272858544582065	0.00196807219754641	0.74457233372185	0.648978437281714	0.744357322063387	0.649139951766443	-0.00585568575849202	-0.00164365632934441
7.7	0.00147506196582845	0.00124987460801181	0.836135365360688	0.525504626110329	0.835984806267517	0.52570001985834	-0.0058097449401669	-0.00029893366982023
7.8	0.000471969077792527	0.0013414514679455	0.907514765718427	0.389051535204036	0.907394506483922	0.389273516887969	-0.00528434087859502	0.000979998875213999
7.9	-0.000637606311971467	0.00200853883551553	0.956405791502202	0.243226092342614	0.956366049262404	0.243451596357231	-0.00480211945943386	0.002184809740185
8	-0.000710170899832324	0.00392975915120486	0.981982241745561	0.0922460622898129	0.982053454336031	0.0925377058313699	-0.00466673352921766	0.0040140913888629
8.1	0.000548254998940285	0.00475108762835848	0.984616419454057	-0.0612765451948797	0.98474124156665	-0.0610057674244371	-0.00272034457692045	0.00561436797390975
8.2	0.0013989251446926	0.00479313254373238	0.962803959067548	-0.213494455600604	0.962870669775288	-0.213198894319273	-0.00102494240836369	0.00609492216871782
8.3	0.0017593281466671	0.004826364100312	0.917508421015857	-0.360197412591716	0.917646618402602	-0.359942111259558	0.000699114530090158	0.00600754874407581
8.4	0.00204691822463599	0.00468149169167183	0.850235296535757	-0.497739394309102	0.850447250247654	-0.497540429306724	0.00216003997531709	0.00503825256866773
8.5	0.001697499348038	0.00541993639968546	0.763154749478405	-0.623576608400548	0.763270701832492	-0.62345112505443	0.00241997068602137	0.00420165013954164
8.6	0.00310675521171735	0.00598739921288284	0.656516141216926	-0.734552193872603	0.656713741545443	-0.734367609115119	0.00351622833973765	0.00388811982974888
8.7	0.00396476726664865	0.00570665797780255	0.534296370600966	-0.826994433243174	0.534577883216085	-0.826886105135038	0.00447687422614553	0.00292595066151632
8.8	0.00492360762362142	0.00522804048802497	0.399653542905489	-0.899530238338217	0.399859278137237	-0.899476420689861	0.00503411882543652	0.00172533621543116
8.9	0.00565887595318382	0.00446226350125803	0.255420986592314	-0.950661059962504	0.255662565020601	-0.950521480282577	0.00549917902353647	0.000422406433729743
9	0.00651763359579946	0.00356740335012421	0.10423594719637	-0.978679611918296	0.10459739136293	-0.978650831013117	0.00556082548007937	-0.000748909580541214
9.1	0.00755682358614956	0.00243046110053228	-0.048634380280341	-0.98223901313427	-0.0482829050695148	-0.982254406617918	0.00584210819502022	-0.00169397988666295
9.2	0.00862876401300728	0.000919720915179424	-0.20024014449777	-0.962587735254537	-0.199885460564323	-0.962658991328428	0.00623750276796982	-0.00251936991772194
9.3	0.0095952591800949	-0.000860866272813601	-0.347112736242167	-0.919810359732457	-0.346756739505914	-0.919875286488559	0.00684022322084709	-0.00336285461265373
9.4	0.0100504878300598	-0.00344897859386013	-0.485684459475163	-0.85459028242506	-0.485362424898524	-0.854738457254008	0.00697548539709584	-0.00472329120231689
9.5	0.00985450880173043	-0.00547260511045011	-0.611837313582778	-0.768071008209662	-0.61163220385748	-0.768208309235732	0.00665494784996681	-0.00495867359108724
9.6	0.00882632977078508	-0.00887018835992771	-0.722977321694426	-0.664072000833626	-0.722705881649726	-0.664256548627379	0.00651687210352829	-0.00603626793244981
9.7	0.00602825229143289	-0.0107998566257344	-0.81703380769443	-0.543940518483124	-0.816788826947392	-0.544209123827913	0.00567385521479421	-0.00681781667910019
9.8	0.0030507480070692	-0.0118072611303466	-0.891282857085934	-0.410479976565762	-0.891075015540269	-0.410754084142737	0.00477216459153234	-0.00729413889244778
9.9	-0.00037516490852602	-0.0115962682344346	-0.943532789322536	-0.267147391597843	-0.943421289655837	-0.267475331842148	0.00367993699892652	-0.00772520033096442
10	-0.00301595913287704	-0.00980243594195824	-0.973102163775311	-0.118395216260624	-0.973022494997423	-0.118772016059045	0.00227933484197872	-0.00680479476918307
10.1	-0.00450338862043602	-0.00883456011543953	-0.979906469570208	0.033873393776657	-0.979886875346616	0.0333975275871885	0.00244889813487894	-0.00628712022136653
10.2	-0.00672421612390248	-0.00779163492067647	-0.962601988988216	0.185356936820716	-0.962587201423565	0.184909114560105	0.002317040057508	-0.00640055209338635
10.3	-0.00906067328133971	-0.00573226830361244	-0.922004858629785	0.332094426806817	-0.922139463218344	0.33155668138767	0.00190660663523134	-0.00689914900785462
10.4	-0.0109111786452203	-0.00328471052614933	-0.859445163615174	0.47042888368903	-0.859708561741892	0.469895689017181	0.00121029890270548	-0.00777795128738897
10.5	-0.0120521679889301	0.000564369517718996	-0.776894495791031	0.598156129041296	-0.777175566839033	0.597770675973687	0.000149158697956232	-0.00820637244544247
10.6	-0.0109260671950535	0.00380845371581115	-0.674285628702855	0.711587282851739	-0.674709761933645	0.711244795028126	-0.000175629542822116	-0.00851370869936756
10.7	-0.0093288810991276	0.0062122082174562	-0.555779923672832	0.807250204256768	-0.556189318345616	0.80696315849758	-0.000377474058405154	-0.00923722030303069
10.8	-0.00752196761793493	0.007558671842027	-0.424022402028894	0.883419001548262	-0.424530178935304	0.883190608471158	-0.00104360410853767	-0.010333818144355
10.9	-0.00598473567544069	0.0090144969770839	-0.282258116987086	0.93868492931224	-0.282743775186489	0.938633628962115	-0.00249119686571297	-0.0111073912577173
11	-0.00366607186676234	0.0100671931763	-0.132649270094825	0.971246933805718	-0.133193267987422	0.971242584896368	-0.00375384416443589	-0.0113021589838091
11.1	-0.00118241317228411	0.0105957318888294	0.0194193040097365	0.979392211593036	0.0187930982984465	0.97947447244493	-0.00483473765050235	-0.0115172298139352
11.2	0.00145374707397322	0.0103837826310236	0.170629937919249	0.964607140797584	0.170113045039484	0.964808802599424	-0.00578393857420569	-0.0116000976242425
11.3	0.00401058832495123	0.00974864001689426	0.317944881883682	0.926715250611368	0.317517003576493	0.926976185053346	-0.00654996771267263	-0.0115532250337225
11.4	0.00618966805204378	0.00847606606938833	0.458137198556519	0.866248006528225	0.457674754936307	0.866506458841755	-0.00760314481077605	-0.0112746972377476
11.5	0.00884283784700878	0.00746493278575304	0.586412679744867	0.784046371722173	0.586056110335535	0.78446210626532	-0.00839621189402192	-0.0101188284524526
11.6	0.0108483478126657	0.00422392849111762	0.700370834162803	0.68428243151883	0.700104613889997	0.684760357843853	-0.00884245111655713	-0.00976419168589895
11.7	0.0113681364154749	0.00154557216887343	0.798244090228618	0.567700110878528	0.798005420872009	0.568120061881229	-0.0097477059584178	-0.00931364742962946
11.8	0.0110601103496985	-0.00109560227211223	0.876736038530335	0.43686749762655	0.876551889829645	0.437417350938203	-0.0108877227712492	-0.00881493387099621
11.9	0.0099995362405921	-0.00271100892300744	0.933468496385473	0.29561187040952	0.933429681024643	0.296153685214672	-0.0126491523972974	-0.00782306251877187
12	0.00915414478263625	-0.00304054574515552	0.96790739696559	0.148410729773132	0.967894097791991	0.148888435133292	-0.014233969378556	-0.00540083466940789
12.1	0.00956159946302159	-0.00458981345035556	0.979911601808149	-0.00345908684131859	0.979885853792318	-0.00298758347367211	-0.014077058172716	-0.00327137207442658
12.2	0.00854210962949495	-0.00661138710137131	0.967598682823597	-0.155510465516079	0.967703982521587	-0.155074165267125	-0.0139060442283996	-0.00146311644988838
12.3	0.00712236360988251	-0.00810004777291063	0.931798302832681	-0.303435124668536	0.931982505654297	-0.30307739863871	-0.0132401496983506	3.58177447298304E-05
12.4	0.00482683279527355	-0.00960694444102203	0.874110250789835	-0.443907591752758	0.874241495236302	-0.44353306957644	-0.0125985174555046	0.000778571799465981
12.5	0.00218715024976897	-0.00946331506913773	0.795516663751408	-0.574788838727057	0.795973227565367	-0.574395105027297	-0.0127188276159101	0.00180001612065141
12.6	0.000609861475873563	-0.00953579428354821	0.696365166348275	-0.691625822110326	0.69671057627743	-0.69131556792997	-0.0118957748661794	0.00285658927985479
