# GHZ S RI R 50
0.2	5.9833219484416E-05	-0.000716887640889887	0.952090855508393	-0.307050179362322	0.951864269898249	-0.307192850018965	0.000275461489870258	-0.000619964033030819
0.3	-0.000582625847031021	-0.000519172452336236	0.893063657001461	-0.451131768849305	0.89292588890133	-0.451185457729361	-0.00032010928760407	-0.0008855439317454
0.4	-0.00109044857400173	-6.56182720031939E-05	0.812549603739569	-0.584430948047708	0.812590221833937	-0.584571062798173	-0.000873555745828946	-0.000650276893475465
0.5	-0.000896074182054245	0.00141395764655249	0.71170669879897	-0.704773372685982	0.711595666126553	-0.704869901406777	-0.000471068879432051	0.000529388365723278
0.6	9.08802116973452E-05	0.000756829617701384	0.592929952198269	-0.806316425891777	0.592739489058165	-0.806319598139042	0.00048016463936037	-0.000489822701121768
0.7	-0.00038649823701452	0.000679370760279372	0.460761261802905	-0.88860096019493	0.46068689627451	-0.888635636577896	-1.48437351620654E-06	-0.00126533761404011
0.8	-0.000594737238418871	0.000588631947956871	0.317053123585694	-0.949957882271801	0.316933768470595	-0.949870801803001	-0.000654002252212002	-0.00169258316904144
0.9	-0.00164533304762784	0.000820364794237688	0.16490668318121	-0.988073480694077	0.164756704939176	-0.988030424536203	-0.00223700229738286	-0.00205370503207565
1	-0.00232631660445456	0.00374819278788799	0.00872242073837903	-1.00046953522891	0.00860370907075603	-1.00043967213481	-0.00365117670076102	0.000796831001939882
1.1	0.00103265288274784	0.00385285106923019	-0.145163765579794	-0.990113976372808	-0.145815090774605	-0.990079143607106	-0.00108784540832582	0.00109536364331335
1.2	0.0016450576617545	0.00184013284284551	-0.298570796584736	-0.955925204039505	-0.298563765051468	-0.955981252956997	-0.000822965104362871	0.000252469380280675
1.3	0.00221038252048905	-0.000376059709923576	-0.444025225551229	-0.897653195382849	-0.444117975623403	-0.897677782728491	0.000439176278462852	0.000126598298622569
1.4	0.00213346786500137	-0.00295413848502227	-0.578005607865551	-0.817063074658138	-0.578079771470028	-0.816962775153695	0.00181114115384304	-0.000867261379946679
1.5	0.0036457616341555	-0.00513675002100802	-0.697016018818106	-0.717902101314452	-0.697040776658893	-0.717829592404442	0.00479294798081374	-0.00323001518509989
1.6	0.000306055626093389	-0.00796606061018064	-0.801404695485994	-0.601794301616232	-0.801837370620692	-0.601289316813823	0.00137144895597246	-0.00691157541500315
1.7	-0.00169779821181113	-0.00606430509113761	-0.885596967856155	-0.468816879390085	-0.885902835583953	-0.468322260217487	-0.00134407652857003	-0.00572490697298539
1.8	-0.0025349329266951	-0.00451906436616777	-0.947595044418068	-0.324428744609957	-0.94761059253684	-0.324419160564986	-0.00298323985004117	-0.00458413222078975
1.9	-0.00280484841559086	-0.00188754255929036	-0.986265198873412	-0.173324854032346	-0.986310208317019	-0.1733778982802	-0.00401831016918058	-0.00210460366197254
2	0.00136285676435964	-0.000771669950519289	-1.00273600941348	-0.0183506506907376	-1.00282965259562	-0.0176944849131532	-0.000332488826659665	-0.000603938113225436
2.1	0.000403000091834846	-0.00482311014538405	-0.992483624438766	0.141222788866892	-0.992586940057764	0.140734573005059	-0.00140197326680829	-0.00446975659642859
2.2	-0.00224234329431085	-0.00459400963597323	-0.95752912437563	0.293140011788841	-0.95756736654241	0.293275164254394	-0.00399279597383427	-0.00398758019664783
2.3	-0.00378814766731479	-0.00356252658383808	-0.900006530775376	0.43831856296406	-0.899840725570452	0.438406642120434	-0.00557777957115603	-0.00284056250012804
2.4	-0.00559146281465785	-0.00154929445756904	-0.820541344387977	0.574002795558872	-0.820838749413959	0.573538923992603	-0.00717168725187605	-0.000641926324409813
2.5	-0.00317152550519971	0.00227069229200127	-0.719665036099016	0.696262013127421	-0.719973938811341	0.695881104464003	-0.0042257342490321	0.00298710582838994
2.6	-0.00118410874540238	-0.000399317583203406	-0.601319536390234	0.797348824543609	-0.601240440643829	0.7972882083363	-0.00140162916584032	-2.75201651120025E-05
2.7	-0.00217144031629891	-0.00137885029799605	-0.470112662716661	0.880346832958766	-0.470082866093652	0.88036069571192	-0.00223482944509997	-0.00176786929287806
2.8	-0.00321333362136321	-0.00139095773396315	-0.327313981906191	0.942556225520686	-0.327194179967277	0.942639884063903	-0.00330839344510487	-0.00216964083309793
2.9	-0.00304004725294294	-0.000564147349080515	-0.175472535712417	0.981581559674589	-0.175467365019419	0.981636574570606	-0.00362560367977221	-0.00118879811094418
3	-0.00212376917945643	-0.000974428419058862	-0.0198070515759649	0.99375308263741	-0.0198705271444037	0.993825538770936	-0.00260220161653301	-0.00117867099483305
3.1	-0.0026968044638963	-0.000745033972488485	0.13193222512217	0.984610374201141	0.132582306382992	0.984684195054886	-0.00328443447824642	-0.000744524080052478
3.2	-0.00204913910407286	1.47872265654217E-05	0.284249834249385	0.951950218662691	0.284240340433	0.951990002401235	-0.00259561634968237	0.000525133967736107
3.3	-0.000903570358243838	0.000174394493280426	0.429589532044601	0.894855936884322	0.428969936244216	0.895145795088785	-0.00131120337047796	0.00108525087166616
3.4	0.000359023999141637	0.000427716318001857	0.561992483048412	0.815805427129471	0.561909165312692	0.815921750932999	0.00059898100008504	0.00151682708898178
3.5	0.0032020381189382	-0.00188247918338996	0.679090519080417	0.719556014987071	0.679105004333973	0.719582005689383	0.00379651214412721	-0.00106069271264971
3.6	0.000814207412472314	-0.00444011565663229	0.783650636419902	0.606389771901678	0.784068075952715	0.605991042836825	0.00166473307064848	-0.00404223907529501
3.7	-0.000286129070573745	-0.00423096179731361	0.868270727374818	0.475401660442992	0.868279303764568	0.475527940266703	0.000410561858067573	-0.00399815076405874
3.8	-0.00116380629100792	-0.0040193499838676	0.930153501634242	0.334335247946135	0.930184112869009	0.334517706416629	-0.000587911199125408	-0.003993522355909
3.9	-0.00133282033491882	-0.00277576242165951	0.969698317318895	0.186296411598064	0.969606973666404	0.186883401842923	-0.00161651570773425	-0.00297151052778794
4	0.00195807541957276	-0.0026361658414592	0.988741593633408	0.0346095198718059	0.988823948395264	0.0346515372852764	0.00139281282163459	-0.00277020138058402
4.1	0.00109764311331107	-0.00683554429651582	0.980625633798868	-0.121676548777874	0.980564569370791	-0.121611842099518	-1.81788405559527E-05	-0.00701812407214718
4.2	-0.00147031749468563	-0.0076614670208959	0.947686120571953	-0.272336779437519	0.947886510499606	-0.271772785878632	-0.00292302478568653	-0.00771744947643689
4.3	-0.00350497945816115	-0.00821606328787015	0.893618072303446	-0.414616927324031	0.893619182033614	-0.414598512607561	-0.00558072193621377	-0.00792317244153645
4.4	-0.00650062674432624	-0.00733520718315893	0.818812093616464	-0.548091013655466	0.818732812863481	-0.548074142988344	-0.00905126994907763	-0.0064747503440048
4.5	-0.00596728871510145	-0.00450808425371029	0.721544004558671	-0.67024672176518	0.721423527750287	-0.670099601118367	-0.00886977590939602	-0.0026407569847336
4.6	-0.00583621344062654	-0.0064692211496218	0.606861388721816	-0.770606908220897	0.606850390356194	-0.770379515864655	-0.00843960523847793	-0.00391989421432393
4.7	-0.00801610978280235	-0.0070896386495386	0.480632479624929	-0.85390915655106	0.480751567087797	-0.853668666111579	-0.0106654061607136	-0.00385622718286096
4.8	-0.0101309464489915	-0.00650769307040646	0.34235748356866	-0.917383564587415	0.342650350728816	-0.917200901700852	-0.0124500578615103	-0.00268438247022594
4.9	-0.0115999418547872	-0.00540348866146925	0.195003383664098	-0.958354851058985	0.195260779937405	-0.958307947074587	-0.0135610408446241	-0.000415603231958115
5	-0.0118326359457489	-0.00467099239813443	0.0444909302882969	-0.972745729130746	0.0446483175147614	-0.97262194071799	-0.0127070874495648	0.0015266158752884
5.1	-0.0139074988823371	-0.00412472553783649	-0.103019756021816	-0.968022262504964	-0.102703237299296	-0.967963459395497	-0.0136181427764071	0.00332931213865211
5.2	-0.0149085833097649	-0.00145381747151316	-0.25148869086339	-0.940923413140482	-0.251068959537672	-0.941047140436278	-0.0132024323030393	0.00721235646688628
5.3	-0.0146635974160011	0.00119078547576028	-0.393834366723679	-0.890027798195904	-0.393552863408891	-0.890369049109197	-0.0108744671475527	0.0112514653477118
5.4	-0.0124985597651371	0.0046269267713848	-0.525462388774579	-0.817019208123453	-0.525330950575887	-0.817304455170651	-0.00613016500303541	0.015188158777215
5.5	-0.00750983878939822	0.00230174464830405	-0.64221156933432	-0.727906642217757	-0.642163436043299	-0.7282147577475	0.00179712250491858	0.0125244734286162
5.6	-0.0117184162808637	0.000493195367639919	-0.749061198397176	-0.621286540272216	-0.749074856466809	-0.621454147885741	-3.70525117234539E-06	0.00906036356555353
5.7	-0.0135774667357176	0.00345560061824056	-0.836146566065493	-0.497133965231142	-0.836123635426132	-0.497306269467028	8.68561559536756E-05	0.0106053102730895
5.8	-0.0138420154629358	0.00689884987498257	-0.901858891308921	-0.361841852119035	-0.901903400409913	-0.362128918890236	0.00161734372150544	0.0121578401127781
5.9	-0.0127903630849608	0.0116493594430683	-0.946236157644615	-0.219895928797149	-0.946354414415275	-0.219943144915002	0.00415911595401076	0.0151171793131765
6	-0.0048746758043485	0.0139186266881435	-0.97221641707216	-0.0717839481439961	-0.97221324829033	-0.071851675759087	0.0135960802658671	0.0151316656982862
6.1	-0.00398386946950949	0.00891245130196809	-0.970506380153607	0.08210592172159	-0.970509540004917	0.0820041004145594	0.0156807209008427	0.00694158469608974
6.2	-0.00517419584100839	0.00861333047267426	-0.944814852799977	0.230428000149417	-0.944861983147005	0.230249160036152	0.0146869431772974	0.00291993521694216
6.3	-0.0060647925750259	0.00896499680245149	-0.898091977855892	0.372704281939587	-0.898115582031829	0.372577618994906	0.013281095923222	-0.000336176946232353
6.4	-0.00650714973153043	0.0106537705802496	-0.831110847993766	0.507287592594283	-0.831101422350396	0.507077196740181	0.0112972830272543	-0.00220564494498821
6.5	-0.00514413059773967	0.0117489490478272	-0.740740441083373	0.632076588478802	-0.740839261629126	0.631906622168444	0.0105599764826856	-0.00409689751027463
6.6	-0.0042334142401021	0.0126184561801539	-0.632964736812829	0.735667770294636	-0.633110101506175	0.735523896189052	0.0086676652182158	-0.00555783474091596
6.7	-0.00218175524782197	0.0132200230402932	-0.513396870842274	0.82395668768101	-0.513515022941927	0.823801513050414	0.00757597610730089	-0.00642565601775999
6.8	2.48652364671419E-05	0.0127755852919643	-0.380647055536209	0.894064323665182	-0.380854196736346	0.893989025122218	0.0063341138490175	-0.00769525843728637
6.9	0.00199386230056313	0.0115955987912798	-0.236954747624096	0.942855357461045	-0.237201478281771	0.942849989714792	0.00510243388873977	-0.00868138218415268
7	0.00316644445899044	0.00890837479700282	-0.0883450840015814	0.964759704006179	-0.0885981957305753	0.964728294923731	0.00317751633320924	-0.0109944621863853
7.1	0.00218429338772788	0.00793292617999029	0.0580112862575786	0.968368782671288	0.0578084657981084	0.96835444086473	-0.000657456835854418	-0.0109150141280496
7.2	0.00250091131530863	0.00747294878777331	0.207208535469303	0.949624359362784	0.206956736105908	0.949664448184971	-0.00282450547456296	-0.00959497417124331
7.3	0.00248998104201296	0.00657956285714618	0.351964955123453	0.906587478344805	0.351727253683522	0.906673680495237	-0.0045525225919462	-0.00813362680215596
7.4	0.00265300552122169	0.00607898425648304	0.48703522891104	0.840489270919509	0.486818277502373	0.840645459530088	-0.00570724161757757	-0.00613479186668915
7.5	0.00350360476070074	0.00404975090945176	0.608255732602717	0.758637521518523	0.608094881650063	0.758803666655468	-0.00525099652577913	-0.00547653825885095
7.6	0.00109931896514247	0.00192571664263339	0.721929902796406	0.658075531204744	0.721713751366265	0.658230500483889	-0.0076355851232342	-0.00549024254378019
7.7	-0.00124272937565416	0.00257142734266399	0.816228601600461	0.538021956735613	0.816075403866514	0.538212102967882	-0.00960549351515442	-0.00271503334265726
7.8	-0.00258116313297192	0.00428277107670708	0.890010830203062	0.405552960619013	0.889886778296773	0.405770100007814	-0.0101367776136516	0.000843696500803517
7.9	-0.00277959772533857	0.00777377458515023	0.942542530873298	0.265023054016885	0.942497505429593	0.265245727154407	-0.00859749912288182	0.00621962920500578
8	0.0035024145464949	0.00977650416162397	0.977456125355175	0.116295546934442	0.977519969726364	0.116588282453662	-0.00123032247436704	0.00939265053522145
8.1	0.0042120322049412	0.00474312533181845	0.983627547258168	-0.0398758485615468	0.983746230503137	-0.0396030117629962	0.00188354179158608	0.00439428663787161
8.2	0.00259232525321038	0.00400080770864163	0.965211726731981	-0.191479482147729	0.965271676422728	-0.191183155569114	0.00153311297631773	0.00315062054768665
8.3	0.00120857868931806	0.00395778567516612	0.925115634621824	-0.338318937043959	0.925247708999839	-0.338060627361261	0.00142249332910715	0.00219298958569452
8.4	-0.000918406950383875	0.0055508456212657	0.864140221920421	-0.478878800920426	0.864348001532811	-0.47867432385436	-7.88551664046772E-05	0.00258261508186565
8.5	0.00237774370055961	0.01010023959735	0.777806691594759	-0.611113786022588	0.777920641779401	-0.610985635920101	0.00385419474455786	0.0060154805442927
8.6	0.00498088599644714	0.005927963364319	0.672581116414275	-0.721691479598782	0.67277509080899	-0.721502564237613	0.00689830683237374	0.000237561290844769
8.7	0.00327979421074234	0.00501540212560028	0.554522356378474	-0.817636658556004	0.554802331956196	-0.817521678198918	0.00490259605616844	-0.0025937324840997
8.8	0.00275350124861552	0.00530718139768648	0.421834811381981	-0.895731325572085	0.422040510758629	-0.895672646083283	0.00276594129937524	-0.00379939046640169
8.9	0.00228371212101641	0.0062392737318375	0.276121087636078	-0.952386709126943	0.27636162193606	-0.952241335397185	0.000388448883327721	-0.00333179909438817
9	0.00467377164463035	0.00768811946657638	0.124275698864091	-0.980292567047108	0.124637933724006	-0.980256422185245	0.000888355477371615	-0.00100734048062734
9.1	0.00631882412319039	0.00665145960699892	-0.0257494666069494	-0.990447691222705	-0.0253951015787803	-0.990454881300775	0.00141534785151671	-0.000806569477945865
9.2	0.00884767758228332	0.00600567261202921	-0.180658180263349	-0.977046974475551	-0.180298225329849	-0.977110989121119	0.00334062701036396	0.000511241526640377
9.3	0.0114976463730168	0.00375125286718749	-0.331987592086958	-0.937718759253164	-0.331626109989198	-0.937777026211245	0.00648648699963605	0.000280390158437714
9.4	0.0135435278022405	0.00127600053854498	-0.473653390353854	-0.873536737838013	-0.473324919182517	-0.873680005765021	0.0096110609970956	-0.000305921391379901
9.5	0.0169299571360966	-0.00667330209397406	-0.600881291225602	-0.792905941338988	-0.600670188512282	-0.793039980369603	0.0148339439496055	-0.00722666329015472
9.6	0.00884783262425977	-0.0126274473543917	-0.721681056243854	-0.691935662071868	-0.721400644112354	-0.692117657325234	0.00776526306313989	-0.0128289361711082
9.7	0.00366086012171406	-0.0118579339117605	-0.822168663047574	-0.570045325869451	-0.821913836390231	-0.570314347356281	0.00361280212260981	-0.0116643970569763
9.8	-0.000180508031950696	-0.0107829805060397	-0.901148078912394	-0.43484865278465	-0.900931150272129	-0.435124297616252	0.000933288917977634	-0.00998452011721886
9.9	-0.00352627261587387	-0.00676340823947119	-0.958240658010216	-0.291083892577066	-0.958120446070077	-0.291416582976724	-0.000599351182601185	-0.00568836678072614
10	0.0010505910121141	-0.00555022067793903	-0.997807430441368	-0.138134925816301	-0.997719189796299	-0.138520718633946	0.00640428098330897	-0.00434375232294055
10.1	-0.00350318794648707	-0.00996075989530579	-1.00620034861312	0.0234668075112932	-1.00617474747082	0.0229785883867491	0.004331446745154	-0.0103005858489934
10.2	-0.0084558871301055	-0.00786591184203661	-0.989471212471123	0.179886100028586	-0.989451267337208	0.179426854466647	0.000904415718687632	-0.0100364794574485
10.3	-0.0119405652020574	-0.00428257908455344	-0.950335324219685	0.331859422674556	-0.95046818985719	0.331305745987559	-0.00143112587394533	-0.00893081760736406
10.4	-0.0143457502914464	0.000900474068740906	-0.889304481914527	0.47790001634123	-0.889571650254381	0.47734852360101	-0.00326030819851665	-0.00623335039118778
10.5	-0.0113294245333325	0.00712752518394612	-0.800645969351144	0.615638641126823	-0.800935242021306	0.615241414033181	0.000423110582805396	-0.00294859196925285
10.6	-0.00796788026454753	0.00733487062410874	-0.69241030137446	0.729875747284666	-0.692845370123676	0.729524016546229	0.00373786871472651	-0.0062079276133029
10.7	-0.00674273943258517	0.00775045054816367	-0.571048620736003	0.828813863057372	-0.571468949464431	0.828518934087898	0.00414344068477568	-0.00963796178413846
10.8	-0.00614260977860429	0.00820454554230343	-0.43439158277475	0.9088606300376	-0.434913957145036	0.90862670590807	0.00260858539803521	-0.0126275524792042
10.9	-0.00516959201453069	0.00969020485986262	-0.284501122971664	0.966305055502352	-0.285000510179013	0.966255213460418	0.000740795254231888	-0.0141811036155754
11	-0.00312626763317384	0.00971577335773317	-0.129208266612816	0.993438657574153	-0.129764236641736	0.993437771577075	-0.000895301657890394	-0.0161523122862846
11.1	-0.0025242217530187	0.0108687876080945	0.0238546370118156	1.00289106156732	0.0232136898405569	1.00297784003461	-0.00440697496910923	-0.0167496733971882
11.2	-0.000188347691625586	0.0117672731769833	0.181239928477119	0.987999851064462	0.180711217751091	0.988209998107545	-0.00660627659613708	-0.0162181998355293
11.3	0.00248627609008173	0.0122096921377197	0.334340809486308	0.946611358403289	0.333904799153233	0.946882675190491	-0.00832896764993673	-0.0148649255163895
11.4	0.00599515012091013	0.0127666927201321	0.477137618651203	0.880080226827423	0.476667937264359	0.880349121765899	-0.00856035372873622	-0.0121320851787201
11.5	0.0120094785976064	0.00832956786301889	0.604642226880086	0.797871875527752	0.604280331559232	0.798299248036083	-0.00533248271636854	-0.014682557295816
11.6	0.0093991655575103	0.00330373032894206	0.725847782539206	0.694562154338698	0.725579755873121	0.695055323322801	-0.0112754782278594	-0.016926301380192
11.7	0.00840658755431059	0.00280934811782081	0.825604117880648	0.570403252031706	0.825365487950674	0.570836760705216	-0.015041332166172	-0.0139985436185594
11.8	0.00757539114156283	0.00212019483365251	0.902979589015878	0.433376188442721	0.902799641379543	0.433941140740068	-0.0177781966841683	-0.0103413306014711
11.9	0.0074636135186032	0.0046407196724076	0.958123727390213	0.288923338818751	0.958091707718493	0.289477590388025	-0.0191227400120142	-0.00326263612407884
12	0.0152619436143425	0.00351123575079206	0.995966214438235	0.135492129485184	0.995960869239209	0.135982640995699	-0.0100613701264061	0.000723951337739698
12.1	0.0127618972522156	-0.00382414252161446	1.00197198533512	-0.0255282864397134	1.00195623704445	-0.0250455531135707	-0.0108804195689914	-0.00347075348125306
12.2	0.00995414408553995	-0.00605735470668168	0.98324977330775	-0.180841849724524	0.983367194164148	-0.180399300864132	-0.0114893705372017	-0.00259195540193057
12.3	0.0075360486279937	-0.00777009442296247	0.942455857695086	-0.330977442792897	0.942651923700995	-0.330617206746249	-0.0113577659742069	-0.00209170562323094
12.4	0.00362716287898762	-0.00818970755312331	0.880535724099355	-0.475015416307043	0.880679105600909	-0.474636648127706	-0.0123152971183162	-0.000673561255820724
12.5	0.00380827057688396	-0.00632429031094229	0.790386702169982	-0.610202545255458	0.79086370102147	-0.60981691024777	-0.00901488751293412	0.00207804961258236
12.6	0.00173818446853444	-0.0101783025981989	0.68256461922379	-0.72067690674162	0.682923377856723	-0.720373953144487	-0.00793796326323526	-0.00201305442735741
