# GHZ S RI R 50
0.2	-0.000424032850696668	0.000109643820512104	0.948351428506212	-0.308005693023968	0.948125289184464	-0.30814743200031	-0.000188935777114524	0.000183070180355394
0.3	-0.000494142892633121	0.000421871998606158	0.888247303262414	-0.451571720912206	0.888109962193942	-0.451624836667871	-0.000208563139887788	7.22626750239457E-06
0.4	-0.00017422675465848	0.000535564716465176	0.806570557861554	-0.583623725769865	0.806610562855012	-0.583763210140247	5.70256239706482E-05	-0.000121078050329134
0.5	-0.000360543481664813	0.000399419698514584	0.705870712737849	-0.701414946542589	0.705760235924768	-0.701510657216191	7.20529190732987E-05	-0.000558710470001169
0.6	-0.000623698279200891	0.000763018468509028	0.588212271091078	-0.802376172924491	0.588022939233182	-0.802379047182197	-0.000204204478142948	-0.000579976896207757
0.7	-0.000521818576711881	0.00136084027383016	0.456180112860402	-0.88354991349378	0.456106176791724	-0.883584232047031	-0.000111858048372878	-0.000725322867667039
0.8	-0.000111270474123815	0.00156231070418484	0.313340044627053	-0.943324538808302	0.313221703153967	-0.943237938159138	-0.000176684946161075	-0.000906384822497912
0.9	0.000446641384268754	0.00197159178093194	0.163186351147547	-0.98010189635621	0.163037609039541	-0.980059132720255	-0.000227441371061416	-0.00111926902488615
1	0.00118163273237493	0.00107559771060227	0.00914109276292312	-0.993459778283716	0.00902319797858653	-0.993430181189087	-0.000329156842102522	-0.00201510963738387
1.1	0.000591333365024981	0.000753810497011818	-0.144769206873662	-0.982580307335073	-0.145415618740979	-0.982545278660975	-0.00166603620941348	-0.00198446463900733
1.2	0.000813987826035009	-1.51131220213543E-05	-0.296121948415177	-0.947702595386746	-0.296114983383851	-0.947758164938882	-0.00171111309519729	-0.00149188485006697
1.3	0.000841810374482241	-0.00148934878622475	-0.439333783424691	-0.890034380338746	-0.439425687998746	-0.890058825603692	-0.000822064887566017	-0.000881127531916213
1.4	0.000590415349923963	-0.00321425102296121	-0.571876273496777	-0.811127289728524	-0.571949973643838	-0.811027947452703	0.000521410971426615	-0.00115556458883081
1.5	-0.00029918135549857	-0.00342952243880271	-0.69110801596488	-0.712108353277128	-0.69113258384868	-0.712036448912613	0.00117731093620593	-0.0017108832718847
1.6	0.000324642119958217	-0.00257705972238909	-0.792312955087309	-0.596286185255085	-0.792741595175872	-0.595786985729902	0.00167482084238658	-0.00204810555675583
1.7	0.00102765409773752	-0.00270074916083599	-0.874864349115139	-0.4661876554622	-0.8751682776515	-0.46569914915592	0.00145063306235055	-0.00296474933672798
1.8	0.00114943362013773	-0.00313627042592066	-0.936648873738454	-0.324434878742214	-0.936664295160122	-0.324425448874171	0.000587822767849032	-0.00376377967556777
1.9	0.00109784912901253	-0.00381006047151343	-0.975653593671592	-0.174945535380477	-0.975697964100451	-0.174998195128541	-0.000347867780133867	-0.00445691683269419
2	-0.000670422203000534	-0.0043948236977639	-0.990191825512065	-0.0219549270356633	-0.990286811656688	-0.0213072818892791	-0.00251228489804388	-0.00449254167934114
2.1	-0.00111019913599363	-0.00298368941640679	-0.981478124057328	0.132542858097809	-0.981576760755473	0.132059818136196	-0.00295951129058277	-0.00299146632204752
2.2	-0.00116862857607687	-0.00296016695743231	-0.949355934633195	0.28245596702746	-0.949394814826803	0.282589343835204	-0.00305721813649884	-0.00278588611231119
2.3	-0.00145581594669899	-0.00297752082843431	-0.894016618936155	0.426280023974746	-0.893853300264086	0.426368523788427	-0.00351549977414515	-0.00264691348765115
2.4	-0.00194359654045216	-0.00333308799208244	-0.816321914094462	0.560196842837925	-0.816611821895515	0.559735597283068	-0.00390376630691981	-0.0026393959158965
2.5	-0.00357240328770583	-0.00387218371076701	-0.72009696594044	0.679399894447648	-0.720397623303408	0.679019496571132	-0.00490011195265779	-0.00303564352794705
2.6	-0.00527168988098181	-0.00226108916493058	-0.606769066748006	0.783018150835342	-0.606689829475606	0.782959057873388	-0.00545447302187431	-0.0017426079518083
2.7	-0.0052744502382978	-0.000668309951635619	-0.477709110479167	0.867679456058802	-0.477679716603613	0.867693591448263	-0.00512497105724921	-0.00105392602229711
2.8	-0.00472081031994181	0.000327666193494726	-0.337514471258796	0.93114510369145	-0.337396683676531	0.931229745361259	-0.00454538585556338	-0.000606494212782153
2.9	-0.00351890467969313	0.000807503751092104	-0.189273968539155	0.972134091454746	-0.189269674820851	0.972188806271477	-0.00380843975635511	-0.000162284140990163
3	-0.00259640651105406	0.00110560647710136	-0.0360950777720242	0.990432979238097	-0.0361595540361441	0.990504172831178	-0.00279928842684159	0.000408369921283271
3.1	-0.000856720771897547	0.00101182204195743	0.117812427934826	0.983990919341301	0.118459846439184	0.984073659432085	-0.00128460178590345	0.000527167421521389
3.2	1.74858925766188E-05	0.000155360370954719	0.269554602075853	0.953477667814371	0.269544553082172	0.95351720305549	-0.000523375104704298	4.07448076901428E-05
3.3	0.00085425149429895	-0.000772624086479118	0.414841666764216	0.89999037561109	0.414218634517637	0.900270035841581	0.000356602462350903	-0.000440429254800869
3.4	0.000945092776220641	-0.00195737782516512	0.549160662168938	0.825391372888921	0.549075413362865	0.825506422747022	0.00108016652940075	-0.00134940997636899
3.5	0.000531359488135749	-0.00231240066591741	0.671164270519304	0.729928115879035	0.671178448131079	0.729954350450878	0.00114759853686333	-0.00195445974700532
3.6	0.00104595986572885	-0.00241832159077333	0.775369885265127	0.6170067150764	0.775792721083712	0.61661367913549	0.00190314045815268	-0.00262561212076999
3.7	0.00145936490949668	-0.00345292914525374	0.862103089277674	0.488885120856224	0.862109788321403	0.489011664770084	0.00203542898865529	-0.00386045729650523
3.8	0.0011917559924896	-0.00456007812613002	0.927687640235518	0.349150264387884	0.927715607240195	0.349333677160273	0.00153671331334752	-0.00510572754798917
3.9	0.000956818350417433	-0.00596551921018773	0.97094417922834	0.20006087434547	0.970844586381385	0.200648906986303	0.000391092118085619	-0.006562817155999
4	-0.00116349982943335	-0.00696866965728984	0.989513797782261	0.0475006067684256	0.989595708313498	0.047543746265944	-0.00179754886707321	-0.00730207230338251
4.1	-0.00209427490454233	-0.00630582779458449	0.985272842879711	-0.105979897822583	0.985210555383665	-0.105916013700914	-0.00304921899727564	-0.00684190802356777
4.2	-0.00295450356264909	-0.00637211216954697	0.95689209545308	-0.258411886759799	0.957084392663735	-0.257841795640132	-0.0042455038687447	-0.00693125959314524
4.3	-0.00371322421186473	-0.0066583636031334	0.905459129834434	-0.403445424297676	0.905459963777511	-0.403426879659998	-0.0056957744570324	-0.00695127887838592
4.4	-0.00465865832898439	-0.00706425613569811	0.831659745206903	-0.538945769162004	0.831579762229409	-0.538929989317361	-0.00722768115913476	-0.00675038920464923
4.5	-0.0066245767045673	-0.00813943272313583	0.738539838001771	-0.661061238220072	0.738415869233547	-0.660915429597234	-0.00948799894275913	-0.00660569377816517
4.6	-0.00924384553866927	-0.00693877882440401	0.627366497378713	-0.768536020566726	0.627351343366266	-0.768306259363699	-0.0115497804114048	-0.0047716317111989
4.7	-0.010744950248122	-0.00590151854023675	0.500043273060283	-0.856985786242201	0.500160062323401	-0.856740428701223	-0.0129726118834227	-0.0032362316320543
4.8	-0.0121105045674702	-0.00433456564614114	0.360537922515834	-0.924130778962877	0.360831844177032	-0.92394136218104	-0.0139900309429528	-0.00126710533712401
4.9	-0.0126129275519834	-0.00299753468405111	0.212874850145368	-0.968543454361105	0.213135069486956	-0.968491826207026	-0.0142278618148755	0.00106241781914478
5	-0.0130583576812871	-0.00143072496592091	0.0603212122844362	-0.990638356465996	0.0604796989687202	-0.990509780100326	-0.0136689560304498	0.00372117167552268
5.1	-0.0120388265246156	-0.000145066536682652	-0.0949641423905171	-0.987916238242973	-0.0946420798836552	-0.987853002702392	-0.0117045214556438	0.00610862041862146
5.2	-0.011125288647833	0.00035073441325626	-0.247330603593844	-0.960975027968978	-0.246901818594802	-0.96109711725928	-0.00972119716838183	0.0078828654204286
5.3	-0.0106220136318299	7.00141889587622E-05	-0.393545339274657	-0.911051041186861	-0.393255233769853	-0.911396454898003	-0.00735488353104434	0.00931429853479684
5.4	-0.0110908816860353	-6.81886452385344E-05	-0.530701949107933	-0.839230512591789	-0.5305653657213	-0.839521048111597	-0.00512981464429645	0.0101138031408999
5.5	-0.0128934609490519	0.00157622201663478	-0.655450276778434	-0.745856409616059	-0.655400423434372	-0.746171480979392	-0.00343790635260179	0.0114985191236189
5.6	-0.0115820362706725	0.00431327524743172	-0.762497492962319	-0.634422628294949	-0.762511149869931	-0.634593482981701	0.000353992572702824	0.0121797355808855
5.7	-0.0105375033143719	0.0050577727885083	-0.851720550250645	-0.508430388492154	-0.85169685806217	-0.508606045222018	0.0031862933888345	0.0114557922047427
5.8	-0.00979754427437711	0.0058679904095063	-0.920350907964995	-0.369777139875689	-0.920396197282008	-0.370070171352104	0.0055996616558179	0.0104713886170549
5.9	-0.0094336126109473	0.00565667011850898	-0.966684715702557	-0.221957505103845	-0.9668055813681	-0.22200539279564	0.00748926544581431	0.00876151455874175
6	-0.0115062958538878	0.00645510257051095	-0.988383185025631	-0.0688959520838238	-0.98838024733468	-0.068964798331833	0.00742953210419106	0.00756179842819107
6.1	-0.0114274050520604	0.0100088152453551	-0.987160150850308	0.0845725422631332	-0.987163475686766	0.0844689676959832	0.00925365611224588	0.00753128204699651
6.2	-0.00995956121985896	0.0123992481824476	-0.962186040866489	0.237128250499021	-0.962234506496114	0.236946130969481	0.0110008556078323	0.00563871722187588
6.3	-0.00811254550076744	0.0139338153771112	-0.913480495832251	0.383865743129674	-0.91350512371913	0.383736778654235	0.0120537878540884	0.00308377885563353
6.4	-0.00595612081823233	0.0143928314006896	-0.842214208965453	0.520899626411918	-0.842205883527805	0.520685594171279	0.0122346454631563	-0.000173594739430368
6.5	-0.00447833166939	0.0141474606134083	-0.75153360153602	0.644536242352134	-0.751634507468048	0.644363682213659	0.0113603223193241	-0.00329972059778358
6.6	-0.00258232945384154	0.0138101392279538	-0.642558368832016	0.754233891283591	-0.642707495813201	0.754087727631911	0.0101653367416079	-0.0059624263846052
6.7	-0.00133229909564249	0.0128240981878441	-0.517033554344531	0.844935988841201	-0.517155387492424	0.844778635366842	0.00805499494160557	-0.00817666336134656
6.8	-0.000338297173994455	0.0121428682530633	-0.379188592023894	0.914589446953675	-0.379400364085508	0.914514729254949	0.00560819847412201	-0.009428789065853
6.9	0.00038866150168933	0.011349955577896	-0.232832666356484	0.961980240185502	-0.233083897172405	0.961976973158253	0.00336746238208414	-0.00997463431635296
7	0.00142827737607749	0.0111247860608363	-0.0806346986194496	0.987314771170671	-0.0808938105388594	0.987285199991923	0.00142341487229433	-0.0100240717437842
7.1	0.00273682698342583	0.0100646860246822	0.074607546482113	0.987280432291956	0.0744003433964651	0.987269023789903	-0.000284373964160014	-0.0100639211877179
7.2	0.00352553326013496	0.00877783848954891	0.22689626517758	0.963059964272501	0.226640652997771	0.963105008735773	-0.00201767517890163	-0.00953076206298778
7.3	0.00365953170139789	0.00735806318902292	0.373451214904538	0.915920125973845	0.373210962400665	0.916011858734082	-0.00360156920429289	-0.00859912672759742
7.4	0.0035132453034757	0.00615149293637317	0.511247000747467	0.846859230127128	0.511028962059161	0.847022222036644	-0.00515020918443713	-0.00737757052183748
7.5	0.00267430372950708	0.00548415573428319	0.637225594866785	0.756160042065708	0.637066192640278	0.756332948508152	-0.00636793558818257	-0.00529179169869366
7.6	0.00316118204220963	0.00531253959756288	0.745766696666539	0.647272268161912	0.745552071698337	0.647434197373226	-0.00594805072861308	-0.00352096163625985
7.7	0.00340582124270275	0.00439805815429518	0.836611450658327	0.523796014423613	0.836461305063692	0.523991567201024	-0.00562847224171897	-0.00224553950762957
7.8	0.00355725496076708	0.00337103355473953	0.907671366694944	0.387436681413329	0.907551514966722	0.387658740692057	-0.00488506740706249	-0.00113433836470111
7.9	0.00292911434056247	0.00185649274638624	0.956499313963216	0.241383897083046	0.956459999591363	0.241609390883826	-0.00417562667483548	-0.00040240239706874
8	1.54900918986085E-06	0.00110130596381112	0.980785021229017	0.0899177077215528	0.980856784378896	0.0902087751258196	-0.00466707331756527	0.000581608852340614
8.1	-0.00120728215810864	0.00356622008989857	0.982869667039547	-0.0622478083152489	0.982994572050497	-0.0619776288854432	-0.00317371131107532	0.00285593812942213
8.2	-0.000995790418561	0.00507683529929184	0.961377920054666	-0.214020927735917	0.961444790855931	-0.213725805195673	-0.00147552651230353	0.00338518042726072
8.3	-0.000639909057012696	0.00648617453965245	0.91612344246027	-0.360670922377363	0.9162617286051	-0.360416042895655	9.39886663306935E-05	0.00347948008368275
8.4	0.000721177657961539	0.00719613604146546	0.848337446020116	-0.498036884190275	0.848549325191983	-0.497838481103782	0.00181971374762673	0.00282182266483272
8.5	0.000290510201561671	0.00667797310593946	0.761454193112713	-0.622436038386695	0.761569930168752	-0.622310837283458	0.00207434466738205	0.00136423125313573
8.6	0.000490349566414982	0.0089280227136046	0.655820452567313	-0.733777553166189	0.656017844531385	-0.733593163985384	0.00289699783728606	0.00158536549402142
8.7	0.00237171765555398	0.0101793312680729	0.533438979008741	-0.826390206353981	0.533720256637209	-0.826282097440618	0.00417539752489047	0.000498042600190103
8.8	0.00491893504882389	0.0104089491293987	0.398708969615462	-0.898602926661362	0.398914474164057	-0.898549278046878	0.00458669224676077	-0.000980006376940375
8.9	0.0077221975702575	0.00946276214345016	0.25495359817477	-0.94913536646461	0.255194793088784	-0.948996026514601	0.00486783325431265	-0.00225433397581496
9	0.00995705221317591	0.00685514346502538	0.104695424400401	-0.977974274280383	0.105056613352163	-0.977945317231132	0.00483920931021995	-0.00356059441909272
9.1	0.0115857890206126	0.00412858586286619	-0.0490475931283003	-0.981622904008833	-0.0486963374623477	-0.98163844657411	0.005186592204677	-0.00454858744116588
9.2	0.0122322978173166	0.000371500301013355	-0.200401685833989	-0.96140134124848	-0.200047438006416	-0.961472659757012	0.00535804591247125	-0.00579222670793597
9.3	0.0113394249947875	-0.00282991549366705	-0.346640407971561	-0.918610747799829	-0.3462848767968	-0.918675582797719	0.00536231943696694	-0.00658352447179623
9.4	0.00961632348824308	-0.00587060896962219	-0.484810256214127	-0.854148525959527	-0.484488407272559	-0.854296400362283	0.00534527927738986	-0.0075361156372236
9.5	0.00614589726384388	-0.00606168653077236	-0.612064741675748	-0.767667896172734	-0.611859728195974	-0.767805262648371	0.00457899366430627	-0.00702978278720381
9.6	0.00629380798318757	-0.00594044756905778	-0.722431851620938	-0.662877253739474	-0.722160842221833	-0.663061715494323	0.00580664944322545	-0.00741359054244515
9.7	0.00540921689141711	-0.00735952659532173	-0.815972167769201	-0.543266311946361	-0.815727493536914	-0.54353456658701	0.00553887903258952	-0.00882718613872393
9.8	0.00384703467893296	-0.00872251444779203	-0.890323813522445	-0.410305824778914	-0.890116104226544	-0.410579617288919	0.00471121332114975	-0.00961208321266384
9.9	0.00155506851028873	-0.0102181386807777	-0.943063394480637	-0.266851700847444	-0.942952007864014	-0.267179480838047	0.00394826802485854	-0.0103614821125639
10	-0.00358527613437398	-0.0103920921435028	-0.971579266567195	-0.117517146860826	-0.971499993649177	-0.117893380742552	0.00165219502586286	-0.0100747437861555
10.1	-0.00596308333329317	-0.00699006272132318	-0.978266235864709	0.0333181360616068	-0.978246433021862	0.0328430847349569	0.00195005809080596	-0.00862875677802323
10.2	-0.00696351845182165	-0.00522457272807192	-0.961620692911231	0.184604461083384	-0.961605669282843	0.184157152394014	0.00217242163557694	-0.0088938545960775
10.3	-0.008036075483927	-0.00346374278773461	-0.921154283521489	0.33155248502684	-0.921288631377257	0.331015249100525	0.00184976681707533	-0.00946693565242684
10.4	-0.00864693727207273	-0.00257055107632804	-0.857978700502549	0.469791001463816	-0.858241749129287	0.469258712462639	0.00151183219686976	-0.0105250043541289
10.5	-0.0109423204709767	-0.0017340063892424	-0.775801947790028	0.595772053892247	-0.776081873001166	0.595387162496672	0.000236512847568401	-0.0118794744514731
10.6	-0.012891071240332	0.00119654109323949	-0.674664493303007	0.709654762125569	-0.675087571784388	0.709311979181329	-0.0010057664358566	-0.0123018026922095
10.7	-0.0133217297813487	0.00483488368950474	-0.556373449828181	0.805733602432171	-0.556782068147536	0.805446260383268	-0.00181919116230314	-0.0125842262219677
10.8	-0.012367285275254	0.00845322014401111	-0.4247916678015	0.881952101145894	-0.425298622299597	0.881723250316725	-0.00263902106984412	-0.0128637439081285
10.9	-0.0104453057415026	0.0114069402739211	-0.283751532390961	0.936993747220153	-0.284236500855238	0.936941559132811	-0.00358083579414765	-0.0132180174782694
11	-0.00786727929814328	0.0138246647491393	-0.135215357096374	0.971150154108978	-0.135759483196124	0.97114438580178	-0.00450520257195823	-0.0132725316166832
11.1	-0.00408443421155718	0.0155464305844493	0.0180920979928164	0.979949210666461	0.0174654407336624	0.98003066074264	-0.00502692995252774	-0.0136002224178621
11.2	-0.000167531642317626	0.0156477868335552	0.169431421284301	0.964983854257643	0.168914186344338	0.965184892069635	-0.00578761559864202	-0.0140327297957846
11.3	0.00356208473744172	0.0148688017598458	0.316535758330613	0.927376451166268	0.316107394466169	0.92763675458215	-0.00644376746620702	-0.0142075039192328
11.4	0.00652928949250941	0.0126009876758594	0.456859370832671	0.867919509316946	0.45639600782598	0.868177291932927	-0.00738242500149999	-0.014336241050918
11.5	0.00783526049122422	0.0116578796027347	0.586980836503925	0.785625279723017	0.586623474338887	0.786041516919518	-0.00895051224106989	-0.0131647841589919
11.6	0.0114036137001269	0.0102118796372639	0.700426221213324	0.68480946367478	0.700159724919695	0.685287497140716	-0.00872513253142409	-0.0123478952450088
11.7	0.0141057700758982	0.0070541073766225	0.798094142258419	0.568634582306285	0.797855006973213	0.569054506387163	-0.00935178283095734	-0.0122607674944437
11.8	0.0156126061081857	0.00287886590340381	0.877066066678255	0.438118968751765	0.876881211403402	0.438669118266225	-0.0103325119092457	-0.0118887541758922
11.9	0.0159361215030095	-0.00226638792591297	0.934719045164106	0.296368127994329	0.934679983489245	0.296910715191839	-0.0113210283007161	-0.0114141213453834
12	0.0112746549966178	-0.00634825892772288	0.96811782872657	0.148053636779632	0.968104715200255	0.148531422386725	-0.0140588850027754	-0.0100543385271567
12.1	0.00878756562529951	-0.00690845451146095	0.980089801721822	-0.00269013094805799	0.980063678776803	-0.00221856337199955	-0.0139917131775252	-0.00760429137235933
12.2	0.00623019092838973	-0.00802376711743787	0.968426743935958	-0.155000349153944	0.968531840047254	-0.154563652721247	-0.0141948188367879	-0.00606376745787961
12.3	0.00367256823909102	-0.00811992612200017	0.932587632880095	-0.30352618655794	0.932771924464475	-0.303168146582613	-0.0141965256897789	-0.00430576444395026
12.4	0.00153747238017773	-0.00829049338913209	0.873986830160959	-0.444163383427553	0.874118183857994	-0.443788897047148	-0.0136023597335123	-0.00288208667631264
12.5	-0.00185922410915205	-0.00841443128142241	0.795717414194808	-0.573304556038808	0.796173119455827	-0.572910491432863	-0.0138170593993614	-0.00189773916444696
12.6	-0.00424470566167573	-0.00577810104827582	0.697951820285876	-0.691045377996107	0.698296998830339	-0.690734358776557	-0.0128464260804381	4.4716264863505E-05
