# GHZ S RI R 50
0.2	-0.000358541905540241	5.01677843694504E-05	0.948575895994122	-0.307976954304445	0.948349724009301	-0.308118744289995	-0.000189019846508375	0.000197244959242269
0.3	-0.000439375713862889	0.000317983883270141	0.88853025830463	-0.451586816874435	0.888392887646676	-0.451639962258255	-0.000236640571469533	6.32581601256427E-05
0.4	-0.000181430289980225	0.000415576945420182	0.8069215534626	-0.583735700644206	0.806961588639751	-0.5838752294266	-7.006256312797E-06	2.53504795268359E-06
0.5	-0.000308054051747215	0.000407479936917406	0.706161065029942	-0.701729675797742	0.706050538937729	-0.701825425551293	8.51140064598469E-05	-0.000294377483904891
0.6	-0.000413558271747273	0.000598689016786152	0.588377395376136	-0.802687253259338	0.588187997052621	-0.802690118863359	-0.000108072437988872	-0.000407379971855126
0.7	-0.000372660166073935	0.00102397508515437	0.456315529061993	-0.883908665243923	0.456241563150887	-0.883942993648896	-6.64356087855123E-05	-0.000559160269567666
0.8	-9.58049174930289E-05	0.00107720601569607	0.313390394710975	-0.943762448230254	0.313272009743278	-0.943675799241998	-0.000153870582295169	-0.000722856977581039
0.9	0.000105944474085413	0.00137885916110291	0.163059887562279	-0.980596163193079	0.162911084449635	-0.980553348637244	-0.000293789900537653	-0.000932737880818339
1	0.000359863033224432	0.00102135122422663	0.0088282483453148	-0.993778165367687	0.00871032554125912	-0.993748521403948	-0.000490016418630465	-0.00154764325552197
1.1	2.21224270523191E-05	0.00119441573742845	-0.145022659149123	-0.98285398114879	-0.145669263832949	-0.982818804391771	-0.00166538675245936	-0.00150993630703668
1.2	0.000365450831373129	0.000882185492274122	-0.296487222034016	-0.947964243380826	-0.296480269625736	-0.948019834907729	-0.00191004448268914	-0.000842272606841537
1.3	0.000902113930662614	-0.000126383762788499	-0.439806321138664	-0.89017611853502	-0.439898265732632	-0.890200538657494	-0.00101010591279444	0.000190659658363471
1.4	0.0012862169547863	-0.00196843809688065	-0.572361139322279	-0.811059645752132	-0.572434812534263	-0.810960248722266	0.000537760478017026	0.000133703750394416
1.5	0.00109039019380088	-0.00289899433263431	-0.691391430353856	-0.712004157827919	-0.691415981261536	-0.711932237750259	0.00153673310420956	-0.00060304289871429
1.6	0.00126012666433461	-0.00329313424088252	-0.792732627788659	-0.596218004430609	-0.793161240612426	-0.595718524113723	0.00175211895879993	-0.00126691063463536
1.7	0.00124003955797908	-0.00370662348785695	-0.875293527877183	-0.465922690796977	-0.875597319621001	-0.465433925691774	0.00147892881215715	-0.00211685507312169
1.8	0.000806107251529411	-0.00408668480801462	-0.936950158316585	-0.324026205850116	-0.936965577451633	-0.324016767027833	0.000655825585840614	-0.00294681894910113
1.9	0.000336953187163615	-0.00428070494537361	-0.975770563694219	-0.174546055543234	-0.975814958093374	-0.174598699169737	-0.000299559886662722	-0.00359984058632561
2	-0.000798859975921157	-0.00430817047883672	-0.990416742267009	-0.0216277669249679	-0.990511532154755	-0.020979947660674	-0.00213671232717181	-0.00363037317358318
2.1	-0.00110741425622694	-0.00359416452770947	-0.981568275363444	0.133135687777816	-0.981667209520875	0.13265262284688	-0.0027885775046053	-0.00249302836631814
2.2	-0.00159967567071582	-0.00364882016007279	-0.949217839988632	0.283008911016319	-0.949256644511296	0.283142313577488	-0.00302311764898072	-0.00213713854269167
2.3	-0.0022523664070203	-0.00346767413241679	-0.893775768201036	0.426735680872022	-0.893612407030385	0.42682409386737	-0.00342786179611048	-0.00193919488371644
2.4	-0.00312585504285673	-0.00324441227015649	-0.816093965266498	0.560616597399288	-0.816384108911492	0.560155467864867	-0.0038389118941741	-0.00192626394863361
2.5	-0.0042058763614493	-0.00259155090862654	-0.71965639481179	0.680021172052011	-0.719957374166597	0.679640962539972	-0.00465971202198875	-0.00216683392702611
2.6	-0.00478190995943566	-0.00116279536336081	-0.606021479744426	0.783305277678801	-0.605942306688904	0.783246137192175	-0.00520320671957725	-0.00117925176577137
2.7	-0.00436450294634215	-3.84937209278759E-05	-0.477002037052024	0.867736887232439	-0.476972642551789	0.867750999296462	-0.00507993044007775	-0.000442664693418494
2.8	-0.00371442788255794	0.000520765522945207	-0.336832645856818	0.931085137133247	-0.336714839553987	0.93116968034553	-0.0045842198650458	0.000172331832109013
2.9	-0.00253696689009408	0.000713824737412216	-0.188508783708259	0.971989804138975	-0.18850445124598	0.972044499926567	-0.00381544988599462	0.000792251053050127
3	-0.00157008702044531	0.000603553352194024	-0.0352546518771556	0.989823810997796	-0.0353190277942923	0.989895011864632	-0.00270929098204884	0.00140700043155089
3.1	-0.000287209417131594	0.000195650147264733	0.118210741060161	0.983245875133433	0.118857747646454	0.983328241187399	-0.00124508601708954	0.00165541499826701
3.2	0.000324034762744052	-0.000613833109817299	0.269848446190551	0.952752201398203	0.269838422626969	0.952791716844133	-0.000290237015447901	0.00127365684787128
3.3	0.00102289475945279	-0.00145151177475577	0.415043513286508	0.899153840593627	0.414421056096827	0.899433645679703	0.000745044118076832	0.00072943478554576
3.4	0.00113072932178887	-0.00242877025735647	0.549132481007564	0.824334039501212	0.549047374486095	0.824449033735899	0.00153029913393021	-0.00026994391705118
3.5	0.00123567215319792	-0.00301085904717192	0.670533649858047	0.729002277383149	0.670547815920654	0.729028480308879	0.00169594045959087	-0.00110972655766113
3.6	0.00130816909195001	-0.00375933861173127	0.774768589423953	0.616431803608665	0.775191041787481	0.616039064083832	0.00208744744665768	-0.00190178745811088
3.7	0.00116857046219524	-0.00473291427880854	0.861394588046904	0.488334082565286	0.861401297665303	0.488460512203131	0.00211404107035061	-0.00297312647320286
3.8	0.000494738366701013	-0.00552746046519525	0.926752674027201	0.348756865453221	0.926780619621562	0.34894008957213	0.00159419143579123	-0.00413954231364337
3.9	4.48228220945635E-05	-0.00621666306837245	0.96981513183937	0.200068685893231	0.969715510235291	0.200656039873272	0.000412254678351765	-0.00548188560624449
4	-0.00110307964468593	-0.00646655476458999	0.988784842803764	0.047963975246709	0.988866673291962	0.0480071251639449	-0.00149920601168317	-0.00614517532561027
4.1	-0.00138171909782162	-0.00652959552754027	0.984641943092123	-0.105711137432652	0.984579683954324	-0.105647308159463	-0.00285899993102014	-0.00595119418886534
4.2	-0.00224403499800953	-0.00705793592092082	0.956220263481523	-0.25795781855936	0.956412260500606	-0.257388117517618	-0.00410053514527151	-0.00600488215446328
4.3	-0.00321443999766943	-0.0077133015142738	0.904944201677354	-0.402780880198242	0.904945027561982	-0.402762349084659	-0.00556770599028221	-0.00613749023996635
4.4	-0.00476290402951487	-0.0080859584132261	0.831486403106232	-0.538230568837738	0.8314064552039	-0.538214838333313	-0.00735099064220445	-0.00601480104931335
4.5	-0.00658701180942224	-0.00816702085980088	0.738340069852374	-0.660751917359452	0.738216131197065	-0.66060617314095	-0.00969706395295084	-0.00558492141653872
4.6	-0.00825874073694887	-0.00712473720707348	0.626936445067027	-0.767858877741584	0.626921281206019	-0.767629302455395	-0.0117560931092864	-0.0037729799592376
4.7	-0.00933807989978078	-0.00659485710378024	0.499885557214458	-0.85610217997295	0.500002170855506	-0.855856994428103	-0.0131993879502953	-0.00208562844811814
4.8	-0.0105699872571743	-0.00568535418840452	0.360639780792142	-0.923256146421921	0.360933393172324	-0.923066755850115	-0.0141459230825091	-6.41353074704632E-05
4.9	-0.0113050472360631	-0.00493371231359213	0.213039476356179	-0.967795419638468	0.213299496529351	-0.967743743352162	-0.0143670671458364	0.00228143478544903
5	-0.0119795095009734	-0.00389522463625072	0.0604996783412744	-0.989487559175843	0.0606579511914581	-0.989359090598418	-0.0137843598741165	0.00496191369616168
5.1	-0.0119080475333438	-0.00316087796876735	-0.094061036357689	-0.986876925694615	-0.0937393885455476	-0.986813502130928	-0.0119415205263383	0.00748229527836563
5.2	-0.0120814237385812	-0.00234986778699145	-0.246236261722979	-0.960329283201319	-0.245807754224155	-0.960450873584854	-0.00983604967592741	0.00945300196710683
5.3	-0.0122551577596556	-0.00172192412512159	-0.392396806222055	-0.910642126186638	-0.392106633048115	-0.910986989913653	-0.00732825180034443	0.0109098570928693
5.4	-0.0125445425405351	-0.000568415698999282	-0.529418962357987	-0.838891317189267	-0.529282248476906	-0.839181443975424	-0.00504243517790692	0.0117037108131116
5.5	-0.0127526918054204	0.00109089855424141	-0.65362858524635	-0.746035893749792	-0.653578313677317	-0.746350551683397	-0.00320650339324651	0.0127907794485118
5.6	-0.011963057679628	0.00267415771157136	-0.761112766574669	-0.635332211495166	-0.761126143800985	-0.635503004895568	-9.29327816126056E-05	0.0134816491937416
5.7	-0.0117476369337205	0.00367287830558263	-0.850667648884261	-0.509517589693211	-0.850643704025268	-0.509693149883346	0.00265407931547828	0.0132318987994751
5.8	-0.0115350459212183	0.0053041983286616	-0.91950948399672	-0.371042043099766	-0.919554319674533	-0.371335051252518	0.00516375323477198	0.0125544332807806
5.9	-0.0111236095966503	0.00675502126942683	-0.966042345034104	-0.223559548538271	-0.966163095691555	-0.223607631266037	0.00718302787877445	0.0112283840889821
6	-0.0105424568565227	0.00900056776572799	-0.988642868339803	-0.0707942780596386	-0.988639799170387	-0.0708631460814228	0.00796563800092744	0.0102991261735291
6.1	-0.00838684371686785	0.0107069515702137	-0.987774268137443	0.0833189112707148	-0.987777458631243	0.0832152794646612	0.0101058844685113	0.00971564247744754
6.2	-0.00654227330958896	0.0111836867450825	-0.96283649286395	0.236010829648464	-0.962884748320214	0.23582858246215	0.0120509519363368	0.00745134819220369
6.3	-0.00544342381205104	0.011105027554828	-0.914327528134349	0.382804539014193	-0.914351995166907	0.382675493910245	0.0130287099499558	0.00441110728319295
6.4	-0.00469671888033311	0.0110875003411412	-0.843480243354319	0.520029844359684	-0.843471608887291	0.519815690076849	0.0128857657933628	0.00101574145565781
6.5	-0.00413563500784341	0.0111541702203695	-0.752733605686463	0.64444222409242	-0.752834449628554	0.644269428931992	0.0118693800883881	-0.00200905790772009
6.6	-0.00303773932243035	0.0113598914478561	-0.643454500490218	0.753913648722794	-0.643603546995265	0.753767301359159	0.0106278068426625	-0.0045402248666651
6.7	-0.00193448142953828	0.0112144152038182	-0.518237295816708	0.844679484767263	-0.518358994977805	0.844521923479794	0.00862687625670891	-0.00677082693300623
6.8	-0.000630697919783702	0.0110078524515772	-0.380565321463285	0.914720773375014	-0.380777140090274	0.914645745468797	0.00611789564882855	-0.00822094221580097
6.9	0.000549125515389694	0.0103075522606914	-0.233987357791055	0.962624444257948	-0.234238813293293	0.962620927880274	0.00361522223483706	-0.00886268706741414
7	0.00189115852187173	0.0096058646212105	-0.0813968298644965	0.987691683058226	-0.0816560344927712	0.987661908178502	0.00134077024351224	-0.00892901404361667
7.1	0.00283592024913687	0.00832104399541179	0.0734179898319389	0.987917468738999	0.0732106868125148	0.987905795670069	-0.000707191455253723	-0.00866650552797274
7.2	0.00348611602309736	0.00708570179019794	0.22595025621237	0.964171421978633	0.225694367084322	0.964216202084826	-0.00250934125625493	-0.00779843377685518
7.3	0.00358390696078657	0.00565700314863259	0.37291136424415	0.917189478574223	0.372670784952526	0.917281063606789	-0.00404381426276389	-0.00657465955016996
7.4	0.00344288166546109	0.00439816759769789	0.510956143381284	0.84794043146677	0.51073780071478	0.84810337306329	-0.00540009198966217	-0.00514746822159679
7.5	0.00285406035364633	0.0032519750623997	0.636540112949082	0.757552269923851	0.636380361768028	0.757725056157637	-0.00633758865234381	-0.00313388935660582
7.6	0.0025027848586044	0.00224422772297444	0.745869258275508	0.649229592755517	0.745654106252736	0.649391438389491	-0.00610790183008368	-0.00142748210000343
7.7	0.00145039125610702	0.00156735981720555	0.83734139089877	0.525529978840197	0.83719079680392	0.525725671854323	-0.00586214975005236	-4.43329725858533E-05
7.8	0.000660047688642354	0.00156475170873641	0.908753451634189	0.388876426972639	0.908633208050017	0.389098728139645	-0.00513438352923432	0.00115110900297675
7.9	-0.000209661920844315	0.0019080288506412	0.957738261857697	0.242699650671125	0.957698664468149	0.242925453898086	-0.00443680026245978	0.00204069524798682
8	-0.000824794102807427	0.00314068059768219	0.982916833429619	0.0910895683102676	0.982988471707926	0.0913813655643235	-0.00478626220009599	0.00321374412174738
8.1	-0.000163197076290863	0.00445451473128747	0.985092191244585	-0.0622798795244305	0.985217348073658	-0.0620090772767565	-0.00343072582135527	0.00531295789319025
8.2	0.00072651598704295	0.00493579734180518	0.963188501752383	-0.21450611615712	0.963255523725625	-0.214210437903869	-0.00167475342383601	0.00621259668176614
8.3	0.00128426886754751	0.00523262555221208	0.917708783548895	-0.361331667828594	0.9178473196993	-0.361076348596101	0.000249552056391619	0.00636784170396195
8.4	0.00197014978790285	0.00519372653656546	0.850036696342306	-0.49895192592579	0.850248976556248	-0.498753118528814	0.00209936724891182	0.00549210130658842
8.5	0.00178984351663415	0.00534550454794838	0.762674612015026	-0.624289510924497	0.762790682669399	-0.624164118179936	0.00252575595644656	0.0040751227410749
8.6	0.00272326711991031	0.00604718231823777	0.656295391385444	-0.735307207103037	0.656493200224834	-0.735122678362125	0.00315907271073743	0.00388413100195143
8.7	0.0036765638918903	0.00602195570561576	0.533857347679614	-0.827863619638423	0.534139093388407	-0.82775547771566	0.00420587467755341	0.00315251451836753
8.8	0.00481945168208829	0.00562451452253041	0.398953473441956	-0.900278595431794	0.399159343798863	-0.900224953160822	0.00492621840810978	0.00201763727463753
8.9	0.00580197549234298	0.00483988182120397	0.254647183589016	-0.951093999641705	0.25488893724507	-0.950954600110952	0.00560998646290479	0.000695605047431785
9	0.00678973234982351	0.00365499739801861	0.103728808028084	-0.979254379259554	0.104090458888596	-0.979225790761667	0.00578085056027737	-0.000750618156262207
9.1	0.00785286433688594	0.00241230492246996	-0.049674339490353	-0.982888629749686	-0.0493226297699483	-0.982904393931865	0.00607590223541056	-0.00178301837346068
9.2	0.00894782186580546	0.000566824044367768	-0.201493728630467	-0.962831857677867	-0.201138951719024	-0.96290357438805	0.00649172923857567	-0.00291534256393033
9.3	0.00958961114991872	-0.00150519137213289	-0.34832180848507	-0.919727366239541	-0.347965761924615	-0.919792736283996	0.00678522487841767	-0.00402729716774926
9.4	0.00966550527437817	-0.00416689853619979	-0.486773672344811	-0.854434687753397	-0.486451660090331	-0.854583258746392	0.00656455085103916	-0.00544427054429159
9.5	0.00866954785569086	-0.00588236763434211	-0.6133751455099	-0.767730042865968	-0.613170089217461	-0.767867736213983	0.00548383142723706	-0.005380174632435
9.6	0.00793492558650787	-0.008288886936302	-0.724270687346271	-0.662977910180872	-0.723999504537763	-0.663162962668888	0.00565332483716438	-0.0054989505915785
9.7	0.00570753865190163	-0.0101017512573943	-0.817911359916869	-0.542644592156815	-0.817666804423771	-0.542913591506067	0.00536948200633343	-0.00618219888638035
9.8	0.00311145351193338	-0.011195969272793	-0.891901340295663	-0.409090555159879	-0.891693927723228	-0.409364979393955	0.00483532327521586	-0.00674994830880035
9.9	0.000104460195558293	-0.0113150096491048	-0.94402082865061	-0.265538369407574	-0.94390988763371	-0.265866511171263	0.0041468579871424	-0.00751024846061783
10	-0.00300227385734986	-0.0102491153617182	-0.972865542781188	-0.116317284786768	-0.972786695340032	-0.116694063184262	0.00229461958820762	-0.00730352165462873
10.1	-0.00480822050130872	-0.00873547457005366	-0.979032631497127	0.035407009855379	-0.979013812210252	0.0349315105586243	0.00215207018705567	-0.00625936975406483
10.2	-0.00675663012516992	-0.00759532843854397	-0.961592801031669	0.186589959164931	-0.961578665205933	0.186142461974419	0.00227789143050321	-0.00628805903277557
10.3	-0.00893472331909067	-0.00564387672944471	-0.920800832020122	0.333166899893098	-0.920936108500886	0.332629771292484	0.00200339332535757	-0.00689416759797743
10.4	-0.0106254772217174	-0.00341118041852594	-0.857833364719699	0.47129108584538	-0.858097326761037	0.470758846714932	0.00144192578215303	-0.00797163067494493
10.5	-0.0121102285069045	-4.61125070216493E-05	-0.775118630387568	0.598109190393335	-0.775399701105208	0.597724601615103	7.30984816127078E-05	-0.00896958110263582
10.6	-0.0114775471846745	0.00323472269416689	-0.6730196063322	0.711359305881085	-0.673443557495991	0.711017509814968	-0.000751348866218413	-0.00907711964228887
10.7	-0.0101270399279709	0.00603859384219122	-0.554520869366483	0.806952420338401	-0.554930117625872	0.806666018164137	-0.00116522342083527	-0.0094039576014009
10.8	-0.00820492806664289	0.00779105738931227	-0.422751125381266	0.882840861406616	-0.423258555974569	0.882613182280029	-0.00169482158681652	-0.0101140693030639
10.9	-0.0063796962685626	0.00939108825155812	-0.281230885372082	0.937649055107938	-0.281715941387304	0.937598161764067	-0.00286898118529719	-0.0107791438804165
11	-0.00397856173479109	0.0104228226896895	-0.132267885438009	0.970404575235595	-0.132811392701652	0.970400376708808	-0.00403702619068618	-0.0110101431729461
11.1	-0.00126024300272124	0.0109727270643357	0.0200990794717318	0.978670315807214	0.0194733848071208	0.978752960798919	-0.00490001297634864	-0.0112164949458668
11.2	0.00152218735101189	0.0105916683134893	0.171217126030561	0.963555887871305	0.17070088214362	0.963757759348826	-0.00571188854098815	-0.0114661130040386
11.3	0.00413258687193427	0.00975258691082034	0.31818855587496	0.925516831523351	0.317761303052959	0.925777755632178	-0.00640626619820604	-0.0116237634432835
11.4	0.00630670396470058	0.0081404424167059	0.458044327261527	0.86526586108241	0.457582413298337	0.865524250908009	-0.00747212031673341	-0.0116870121765576
11.5	0.00826385601945157	0.0069835143022328	0.586715482283351	0.783105895421705	0.586359463244552	0.783521680628888	-0.00898028514330376	-0.0106665731749332
11.6	0.0102519392926108	0.00435156841970596	0.700238364305222	0.682806809619423	0.699972920157793	0.683284448154642	-0.00943442981371871	-0.00970683084409797
11.7	0.0109852470721101	0.00178046296191946	0.797601365911586	0.566382060022131	0.797363311109965	0.566801629917795	-0.0101405225838316	-0.00915783122313065
11.8	0.0108331666891074	-0.00081858980031673	0.875877849318952	0.435835150867541	0.875694235405706	0.436384416311547	-0.0111372947748711	-0.00860665888095708
11.9	0.00998875722681142	-0.00257981295076957	0.932678508080403	0.2946461771932	0.932640111603223	0.295187440943387	-0.0126932038403948	-0.00770238028143783
12	0.00866016216540056	-0.00346382330215645	0.966438932696318	0.14718238011796	0.966426139493716	0.147659299990863	-0.0147116363895162	-0.0058148847359911
12.1	0.00880863747825603	-0.00414780387255541	0.978013852338804	-0.00383653900818002	0.977988338981343	-0.00336593804204462	-0.0147765287326236	-0.00284155571938829
12.2	0.00826169138771983	-0.00590382267170394	0.965851923991181	-0.155384461138664	0.96595710424271	-0.154948954010688	-0.014118260296118	-0.000798438155985755
12.3	0.00722760843541361	-0.00743855206183158	0.930163560800265	-0.303029766586137	0.930347491921559	-0.302672676495421	-0.0130666088070958	0.000632068311264236
12.4	0.00536983958810705	-0.00917509591250926	0.872335077768723	-0.443226735854212	0.872466144209449	-0.442852962441396	-0.0119873269755003	0.00113058849535119
12.5	0.00282918776758211	-0.00997298618602271	0.793941129705298	-0.573062046085164	0.794396437622512	-0.572669008563978	-0.0120438435226348	0.00124719318548131
12.6	0.000608661366689301	-0.0100176391576155	0.695719031961036	-0.689844530670446	0.696063583189258	-0.689534533658907	-0.011827638805858	0.00232712260862647
