# GHZ S RI R 50
0.2	-0.00028181948532815	-1.93289617623965E-05	0.948957754545676	-0.307925858184799	0.948731527447066	-0.30806773532595	-5.11996523392205E-05	5.9470428488976E-05
0.3	-0.000444561017232011	0.000251681379369175	0.888982722961722	-0.451597539836913	0.888845306460779	-0.451650733924458	-0.000164500588667295	-0.000151861777476754
0.4	-0.000271505481668834	0.000394840245253886	0.807444573149237	-0.583849356600369	0.807484658082566	-0.583988945463484	-4.39175236041099E-05	-0.00024506637907458
0.5	-0.000444043389973724	0.000519660623386417	0.706691613337786	-0.702045343721229	0.706581035188824	-0.7021411677309	-1.37389438213713E-05	-0.000421206529219342
0.6	-0.000498803507731561	0.000740591879161137	0.588786380926892	-0.803086703012336	0.588596875542748	-0.803089588074119	-8.68658386953742E-05	-0.000579654762278677
0.7	-0.000501948038902323	0.00122001675025198	0.456688669015298	-0.884382393910064	0.456614663010447	-0.88441675124606	-9.86111678267788E-05	-0.000832566011351765
0.8	-0.000207355247665332	0.00138039408162226	0.313686939881865	-0.944349783391797	0.313568469024686	-0.944263089162979	-0.000272137649046841	-0.00104368662817374
0.9	9.0040602257824E-05	0.00175790897308992	0.163207368151341	-0.981280724399155	0.163058458887968	-0.981237884687308	-0.000565795504433945	-0.00128110166560913
1	0.000547108525103344	0.00145875362157871	0.00879788571383696	-0.994418050851419	0.00867988807623955	-0.994388383530832	-0.000921109223457043	-0.00159739935609738
1.1	0.000608988650141839	0.00124801054119332	-0.145068096258837	-0.983507104587485	-0.145715127578324	-0.98347193750778	-0.00161585043881844	-0.00149081308901787
1.2	0.00092527522659806	0.000219174984265887	-0.296683231202683	-0.94867906834433	-0.296676272145394	-0.948734701142983	-0.00158972779653007	-0.00128168391466688
1.3	0.00108123764188611	-0.00140452670833991	-0.440183436133183	-0.890857070877415	-0.440275453634216	-0.890881506743142	-0.000612621985337444	-0.000821684226154855
1.4	0.000971945579501729	-0.00332121781317356	-0.572868662872018	-0.811630471281808	-0.572942383860955	-0.811530991899051	0.000838163837531466	-0.00125840890645425
1.5	0.00057118044271022	-0.0038931341028606	-0.691927923058188	-0.712545568830792	-0.691952492278878	-0.712473593321018	0.00196962653029648	-0.00213127237805809
1.6	0.000520042932423329	-0.00377272437937534	-0.793517954194191	-0.596739707880387	-0.793946945995791	-0.596239729792972	0.00179918931482394	-0.0031227786740166
1.7	0.000651259052405876	-0.00356821521635392	-0.876250924688751	-0.466225284906106	-0.87655492885848	-0.465735977130206	0.00105507761770676	-0.00369221084342449
1.8	0.000534388088843743	-0.00361337057264596	-0.937977230143376	-0.32410332585236	-0.937992662290069	-0.324093873436305	-1.49015522509185E-06	-0.00411267157604579
1.9	0.000385941973546637	-0.00368039123437351	-0.976827751954414	-0.174436076740849	-0.976872207750941	-0.174488761391446	-0.00100582020803363	-0.00422930092196644
2	-0.000413796911609427	-0.0038448179571838	-0.991612594323137	-0.0212721860999045	-0.99170724832893	-0.0206235535439766	-0.00222083279765276	-0.00388278005236385
2.1	-0.000856626084720313	-0.00335681416596986	-0.982635683739802	0.133945820465644	-0.982735055939007	0.133462252485624	-0.00269412849827945	-0.00328342872845665
2.2	-0.00138592312457933	-0.00331495228034918	-0.950014364676511	0.284052428359526	-0.950053106746089	0.284186004152787	-0.00324156436652489	-0.00304387831583227
2.3	-0.00192021817647518	-0.00313290065013315	-0.894323831064473	0.427930707622195	-0.894160228197341	0.428019071809193	-0.00391715571405241	-0.00271519633653171
2.4	-0.00266776647356232	-0.00305389400752895	-0.816402796494944	0.561961744572332	-0.816693672874227	0.561500415413877	-0.00453804327207289	-0.00231368426179586
2.5	-0.00364099245851965	-0.00274371047015908	-0.719533029928862	0.681543620563741	-0.719834757355895	0.681163406090552	-0.00490470861064853	-0.00193619630605558
2.6	-0.00458525866695638	-0.00179368408796816	-0.60546733808839	0.784618741788101	-0.605388183264565	0.784559460228091	-0.00477725823429312	-0.00131099764188287
2.7	-0.00464404266899422	-0.000691239052879546	-0.47622370027196	0.868869286717323	-0.476194269954379	0.868883371137492	-0.00454534538673024	-0.00107952002312936
2.8	-0.00429190448041169	2.21470931597722E-05	-0.335819491030235	0.932051967176241	-0.33570150814055	0.932136406095059	-0.00418161322725238	-0.000878882294256246
2.9	-0.00327763883701647	0.000408079700606938	-0.187219611010317	0.972714835967596	-0.187215198980506	0.972769551367882	-0.00364103194004165	-0.000484684373908013
3	-0.00243691680665659	0.000489224900223918	-0.0338272123978468	0.990051987411236	-0.0338914967130938	0.990123294262938	-0.00271022456605571	-9.69930042463988E-05
3.1	-0.00122575777987988	0.00042465677781838	0.119480122772557	0.983219738622772	0.120127316469641	0.983301289690147	-0.00170283805004916	6.299326516274E-05
3.2	-0.000500705571424013	-0.000102739839174048	0.271113536188306	0.95251553396171	0.271103562583247	0.952555067052085	-0.00105195262233669	-6.95541368423273E-05
3.3	0.000353372610316666	-0.000743290167956411	0.416260277224599	0.898627627977277	0.415638174255463	0.898908275148181	-0.000130573472489502	-0.000272936598509645
3.4	0.000647197010411836	-0.00159582479094535	0.550157165007999	0.82349554932712	0.55007222261158	0.823610641716115	0.000800582717232331	-0.000871055805255164
3.5	0.000867588557897714	-0.00219349104202049	0.6712259694089	0.728114087009219	0.671240162211734	0.728140269152267	0.00147385651161934	-0.00171970569640085
3.6	0.000941393439692403	-0.00275203996690417	0.77545680578286	0.61549275980164	0.775878777012363	0.615099542192294	0.00179553762942916	-0.00281246192626983
3.7	0.00108529329207526	-0.00357176991847282	0.861916247582473	0.487176337170824	0.86192311785211	0.487302743281191	0.00168959286425565	-0.00382473587137375
3.8	0.000715253074042256	-0.00443632472052667	0.926994920934028	0.34747623052241	0.927023097765326	0.347659376898775	0.00111577633965292	-0.00484380218172441
3.9	0.000478124285648824	-0.0053648932055166	0.969778326164516	0.198812535997914	0.969679459021864	0.199399841079828	-1.79066979992297E-05	-0.0058658957250987
4	-0.000677465605194785	-0.00607562543356151	0.988681106558467	0.0466788276978251	0.988762979066357	0.0467218646929343	-0.00129030036377094	-0.006361030353057
4.1	-0.00149915367509193	-0.00630703452119694	0.984129382617108	-0.107169346971196	0.984067242710981	-0.10710544591984	-0.00248459742749788	-0.00676221979843544
4.2	-0.00267967391153466	-0.00656672209988795	0.95527850379427	-0.259235062470668	0.955471239472677	-0.258665979702316	-0.00400292778618471	-0.00701279387758717
4.3	-0.00372585246673806	-0.00691603510533421	0.903737887437848	-0.40377863924098	0.903738738972643	-0.403760122324312	-0.00572543000309308	-0.00707970046906711
4.4	-0.00515495708800819	-0.00705240131218426	0.830140798483655	-0.538997409883649	0.830060929961152	-0.538981579721384	-0.00771864654313942	-0.00661957988701313
4.5	-0.00675299504107362	-0.00719586820296209	0.736656825312275	-0.66134322639295	0.736533224158093	-0.661197413146932	-0.00962991886089241	-0.0055927300915159
4.6	-0.00865853329958959	-0.00632184403220559	0.625080924757437	-0.767845234160399	0.625066109880931	-0.767615911244856	-0.0110401612286373	-0.0040727723931792
4.7	-0.00997156658797154	-0.00558295306691286	0.49814704288457	-0.855642408517626	0.498263820676445	-0.855397687310843	-0.0123052340998943	-0.00279061184155885
4.8	-0.011244062598505	-0.00437432636529246	0.359034596949989	-0.922451546635674	0.359328044071612	-0.922262767042136	-0.0132382274897796	-0.00113496958411691
4.9	-0.0118382476363926	-0.00333751912533542	0.211533457940228	-0.966633445557621	0.211793159066268	-0.96658216571465	-0.0135494625699265	0.000936320788176689
5	-0.0122854625198273	-0.00213956863311027	0.0593188908356912	-0.987749878463345	0.0594770142515443	-0.987621815227577	-0.0129747612733724	0.00326133699728495
5.1	-0.0119018663928265	-0.00118707157685742	-0.0946245358363702	-0.985009684415355	-0.0943034265585474	-0.984946615837439	-0.0115939521243864	0.00535554485399627
5.2	-0.0115058655211961	-0.00041649624853066	-0.246412117458606	-0.958443393340534	-0.245984459013373	-0.958565041113309	-0.0100493327929395	0.00739311799857486
5.3	-0.011226698689236	-0.000188437855493697	-0.392177466965285	-0.908719619672263	-0.391888030402252	-0.909064002844376	-0.0078570908274824	0.00926860376348835
5.4	-0.0113668254205833	0.000373382357591388	-0.528687500316432	-0.836980211222962	-0.528551180382632	-0.837269806454711	-0.00532463630139217	0.0106769502671543
5.5	-0.0119747963715296	0.00141878022986249	-0.65234158614897	-0.744541649329767	-0.652291419850584	-0.744855682485679	-0.00255389868315893	0.0114514612383419
5.6	-0.011713190258524	0.00325722164853863	-0.759754957548942	-0.634202113548368	-0.759768310545588	-0.634372602613833	0.000181378946839425	0.0113253567418493
5.7	-0.0113856381028747	0.00446305666686595	-0.84910837477934	-0.508597332172825	-0.849084471631086	-0.508772571455159	0.00233996323200666	0.0110782432695776
5.8	-0.0110114993317042	0.0059493397737391	-0.917712749537159	-0.370462580744874	-0.917757460265968	-0.3707550384499	0.00442656189864346	0.0107453325431398
5.9	-0.0106094382541249	0.00699356849163617	-0.964127330420279	-0.223495976504743	-0.964247834287026	-0.223544012951629	0.00635486745925673	0.0102186126251337
6	-0.0106018797781719	0.00856969552157918	-0.986977866716729	-0.0711098411760188	-0.986974772515841	-0.0711785938446851	0.00826644810850509	0.00973488228695737
6.1	-0.00974755417493903	0.0106076191925667	-0.986047129095058	0.0828069344158076	-0.9860502757471	0.082703485979691	0.010752697774483	0.00827922000787898
6.2	-0.00835834735303823	0.0121456659062464	-0.961185909783923	0.235021275077686	-0.961233971283901	0.234839338345283	0.0124141340583006	0.00565299134024615
6.3	-0.00698222428782907	0.0129700339377585	-0.913005832393925	0.381408140235276	-0.913030154781349	0.381279304911773	0.0130633006284324	0.00247783593050639
6.4	-0.00555763721349186	0.0133299016518629	-0.842612795520435	0.518480808285774	-0.842603987990081	0.518266996839156	0.0126128709800128	-0.000858157184631487
6.5	-0.00441235173877546	0.0132613993939308	-0.751990119199832	0.642914624826522	-0.752090686522164	0.642742032556599	0.0114635504700308	-0.00384578624833392
6.6	-0.00293823199070701	0.0132033312512733	-0.64300448575978	0.752032579234295	-0.643153143388507	0.751886354147365	0.00990428208614206	-0.00625329506317589
6.7	-0.00166594468340441	0.0126559580475783	-0.518277256799407	0.842733169591605	-0.518398587519615	0.842575739598872	0.00784873554822123	-0.00809913806897084
6.8	-0.000465514204649989	0.0121412990456633	-0.380998394265344	0.912864807428316	-0.381209797793733	0.912789658796873	0.00558692716059414	-0.00925143258401233
6.9	0.000505669254593622	0.0113227174026545	-0.234669632306611	0.960850809822498	-0.234920687388792	0.960847024381546	0.00353218846583496	-0.0098305310334706
7	0.00157602227780799	0.0106927022450896	-0.0825436260169484	0.98577918897418	-0.0828023176835174	0.985749128512394	0.00157468822016415	-0.0102445538438762
7.1	0.00246300618726146	0.00968494962746006	0.0716489643410633	0.986425242532379	0.0714420196521134	0.986413242501216	-0.000538207939704763	-0.0102151225423679
7.2	0.00316961820950086	0.00862621703409094	0.223926845909595	0.963158850385699	0.223671252176938	0.963203115670796	-0.00235876408769329	-0.00945289572106045
7.3	0.00333839191812779	0.00738355026996468	0.37071599373822	0.916589990779592	0.370475583057678	0.916681008657994	-0.00391811200810561	-0.00832922431997875
7.4	0.00335807264430632	0.00632455718769067	0.508537161480776	0.847750003080168	0.508318805298323	0.847912277063472	-0.00526773656484895	-0.0069372061263241
7.5	0.00296354910328798	0.00533907711777332	0.633958876100937	0.758174209272172	0.633798901175668	0.75834640503979	-0.00604490592533971	-0.0051600763945858
7.6	0.00293655114861967	0.00464737386576311	0.743722368659369	0.650449646516613	0.743507013366813	0.650610851296878	-0.00613713155746933	-0.00382510541710337
7.7	0.00259412694453787	0.00395958388697239	0.83548604025755	0.527109699003791	0.835335097527036	0.527304893107553	-0.0063126206403304	-0.00236923391263434
7.8	0.00239383847728776	0.00346369924315876	0.907201557544623	0.390870621583328	0.907080842453781	0.39109248102291	-0.00586523769468213	-0.000789093581343296
7.9	0.00176243892766395	0.00289997263229248	0.956684277279868	0.245187832089865	0.956644085935732	0.245413434459284	-0.00508908019166344	0.000814358721965938
8	0.000665984233237815	0.0028502377246275	0.982769333221024	0.0936981272632548	0.982840206478047	0.0939901417436624	-0.00402565572272451	0.0023743650500415
8.1	-0.000177266375724408	0.00392864865311092	0.985391809367318	-0.0598560041580187	0.985516315857038	-0.0595848527056017	-0.00223026409452111	0.00331869633519235
8.2	-0.000229263444407207	0.00496796577382067	0.964012234895721	-0.212140289315878	0.964078530952395	-0.211844355233724	-0.000838137058787554	0.00347519757901804
8.3	-0.000175863013453431	0.00604938143672	0.919137437760262	-0.359221726999771	0.919275408334673	-0.358965914464607	0.000444027003194856	0.00332442178449312
8.4	0.000522658697097972	0.00685575282532428	0.851982978162562	-0.49741181419045	0.852194985342235	-0.497212327245155	0.00156303708332764	0.0027915408890945
8.5	0.000709972612559547	0.00728155690536929	0.764559549269055	-0.623400142804787	0.764675485899834	-0.623274414506669	0.00241646534676691	0.00223325015378973
8.6	0.00139235665823987	0.00836482077730851	0.658256689809836	-0.734589289341434	0.658454289807705	-0.734404226746891	0.00367338148975026	0.00138004902443832
8.7	0.00265279307994414	0.00913432783263637	0.535982375524774	-0.82756666406681	0.536264165517333	-0.827457866284275	0.00438391242790028	-9.41444666513682E-05
8.8	0.00458720744448045	0.00924281143544259	0.401052239598528	-0.90047841042264	0.401258225798663	-0.900424327644865	0.0042940068731449	-0.00163332965832491
8.9	0.00662302616256889	0.00849350115832534	0.256483760972924	-0.951669418762028	0.256725537632661	-0.951529474218147	0.00394434064075794	-0.00272950537636198
9	0.00854745227118769	0.0066438770162952	0.105532906787314	-0.979853861464388	0.10589479613057	-0.979824614451237	0.0036951618853708	-0.00336490617995122
9.1	0.00997835051918366	0.00452845411994493	-0.0478175283884775	-0.984019321735322	-0.0474654179759201	-0.984034419374208	0.0038887413892612	-0.00385130574212981
9.2	0.0110603640040349	0.00171394929006253	-0.199954273293315	-0.964389632563568	-0.199598927079572	-0.96446077891748	0.00447342111828361	-0.0042704955199586
9.3	0.0111449396993112	-0.00111931545641487	-0.347142603412346	-0.92152601592997	-0.346785983456101	-0.921590840152461	0.00537309306833232	-0.00478263161597601
9.4	0.0104678378114219	-0.00412096730824734	-0.485820083527452	-0.856371913270265	-0.485497404581105	-0.856520081908014	0.00626547938376461	-0.00574068814739131
9.5	0.0084181107478851	-0.00583401637708111	-0.612701532922293	-0.770190503248031	-0.612495874267275	-0.770327976730732	0.00673619791219039	-0.00668689214558252
9.6	0.00716962664204602	-0.00712556940119141	-0.72440716857137	-0.665585471495622	-0.724135126526493	-0.665770369059673	0.00655633494990331	-0.0082995098068559
9.7	0.00539007575090377	-0.008316336000803	-0.818617398094784	-0.545120704712776	-0.818371896466811	-0.545389823723513	0.00548852084646936	-0.00940668921062876
9.8	0.00330524355172509	-0.00931524924471289	-0.893098062119919	-0.411433428727724	-0.89288975719859	-0.411708085778987	0.00423339054517583	-0.00983146229563111
9.9	0.000713754254899067	-0.00983698738163216	-0.945814310507636	-0.267773073030811	-0.945702548550753	-0.268101806587432	0.00321819515912099	-0.00971577665841512
10	-0.00272107888610696	-0.00965280967516933	-0.975523565726879	-0.117957011578145	-0.975443985528884	-0.118334774040035	0.00252328261012352	-0.00914957212290976
10.1	-0.00544401148615081	-0.00778074933432619	-0.981869731214802	0.0346336816629565	-0.981850433142901	0.0341568366289149	0.00241535169913121	-0.00913934286788865
10.2	-0.00730694088165814	-0.00606985792025323	-0.964510603560103	0.186486895979061	-0.964496126555184	0.186038108655022	0.00183418476322097	-0.00940609947527345
10.3	-0.00905413549113265	-0.00401922504951048	-0.923700691500258	0.333792732350794	-0.923836155734466	0.333253936210691	0.000917503553584789	-0.00971193400578665
10.4	-0.0103275618459297	-0.00222798667217244	-0.860516625061104	0.472765758018975	-0.860781413085203	0.472231854097032	-2.24030704429133E-05	-0.00997998958965633
10.5	-0.0118934940327166	4.89345272995885E-05	-0.776951283031782	0.600254514006919	-0.777233373874421	0.599869006716587	-0.000655864723192546	-0.0100551714234311
10.6	-0.0125669969608108	0.003022151127794	-0.674278462688496	0.713508724666681	-0.67470366069534	0.713166325318079	-0.000838485648530452	-0.0103775482183319
10.7	-0.0122438552567134	0.00635330971123921	-0.555358405475285	0.809266370019446	-0.555768830475236	0.80897953048794	-0.000944513751122571	-0.010986190574027
10.8	-0.010842420587317	0.00912240909572427	-0.423041427419893	0.885299514572337	-0.423550258607795	0.885071705207178	-0.00136195844363331	-0.0119848457337672
10.9	-0.00892062339330894	0.0115049817191494	-0.280812145912712	0.940009870625563	-0.281298318850154	0.939959400760769	-0.00233059790267321	-0.0128422996587782
11	-0.00635773805253785	0.0132072290495127	-0.131549672253826	0.972244008302339	-0.132094141211621	0.972240335120369	-0.00329094246538987	-0.0134947555756202
11.1	-0.00319798765542582	0.0145239869251905	0.0209688646529417	0.980509081302241	0.0203420537256746	0.98059241470062	-0.00437478219773618	-0.0141388817774096
11.2	0.000299037960608583	0.0145857028494272	0.172506764370391	0.965231215319754	0.171989732802431	0.965433988762972	-0.00549361975251906	-0.0145650084733253
11.3	0.0036792305325763	0.0138888014844208	0.319816183768143	0.926817813897387	0.319388460424706	0.927079694393033	-0.00645894036567449	-0.0146116791138454
11.4	0.00654756815110817	0.012055577402294	0.459721318096304	0.866125205687328	0.459258960678125	0.866384512630305	-0.00744651499051796	-0.0143135195964249
11.5	0.00855875950336812	0.0105206298411367	0.588439424616022	0.783980626843246	0.588083138167952	0.784397459880322	-0.0082851200955767	-0.0137624240548411
11.6	0.0108434844591514	0.00836928054557809	0.702408050300545	0.683291473099485	0.702142662996041	0.683770352439492	-0.00929385673064189	-0.0135729115735987
11.7	0.0125630509412744	0.00576303370608821	0.799842189858623	0.566311008757152	0.799604281757482	0.566731674449104	-0.0107684024813948	-0.0129255734865962
11.8	0.0133577206136143	0.00249424723163905	0.878020420327445	0.435319598413775	0.877837284538283	0.435870077639453	-0.0123271114032626	-0.0117378013332374
11.9	0.01322410646278	-0.000689529713058134	0.934790847251117	0.293886045397422	0.934753133923988	0.294428350491328	-0.01371367823545	-0.00954171538667216
12	0.0112299030548892	-0.00362068244550455	0.968767364581601	0.145715959493035	0.968755422424226	0.146193918209114	-0.0139336330459729	-0.00712327675863266
12.1	0.00970767921899446	-0.00498582856687181	0.979762889005292	-0.0060710407562514	0.979738401670733	-0.00559953586652892	-0.0131253115362963	-0.00546798529995988
12.2	0.00783520782346556	-0.00670101456384228	0.966951989229319	-0.15798071135356	0.967058393929138	-0.157544793931264	-0.0127202702236611	-0.00446488781208468
12.3	0.00557934750060281	-0.00776289992040732	0.930622672723244	-0.305826364882223	0.930807767480038	-0.305469272435461	-0.0124465435840682	-0.00359495830389544
12.4	0.00296404819198574	-0.00854102772197885	0.872143162555815	-0.446212276629781	0.87227543718391	-0.445838420133151	-0.0123113268683039	-0.00274136590039242
12.5	1.47873395892632E-05	-0.00854780275574744	0.792647250422855	-0.575952380643592	0.793104101808257	-0.575560527133496	-0.0121294867053656	-0.001696217296735
