# GHZ S RI R 50
0.2	-0.000191306203583301	-1.92709290998084E-05	0.949351266329137	-0.307824603771473	0.949124992410687	-0.307966579076757	2.21851856098727E-05	7.89984977350442E-05
0.3	-0.00036337671336743	0.00025988983282735	0.889495413417347	-0.451550982141205	0.889357951429831	-0.45160423720921	-0.000104862784429146	-0.000101642541889016
0.4	-0.000230915533484916	0.000441916711887433	0.808092241139682	-0.583943801551339	0.808132391855148	-0.584083459501183	-1.7928172720794E-05	-0.000134085618858355
0.5	-0.00028532668461654	0.000749895173089313	0.707306849010146	-0.7024416719445	0.707196206065506	-0.70253758172526	0.000135099364076137	-0.000124027111770596
0.6	-0.000126526459612351	0.000777827465397314	0.589263747254962	-0.803525522401193	0.58907412117369	-0.803528433182436	0.000255895605635134	-0.000454530177451962
0.7	-0.000180357371419938	0.00109094649403856	0.457154871513061	-0.884940190971387	0.457080818222647	-0.884974584552996	0.000196245903543324	-0.000830604992932855
0.8	6.6372804320718E-06	0.0011221690258253	0.314053736854491	-0.945085356440692	0.31393515900796	-0.94499860513664	-5.59138490352433E-05	-0.00112771318497414
0.9	-2.25170103144178E-05	0.0014070513527555	0.163335078770878	-0.982170513125535	0.163186035859931	-0.982127631697217	-0.000606243060951316	-0.0014288954579369
1	3.35567921102142E-06	0.00168018353917842	0.00865747671197853	-0.99516398939988	0.00853939511993727	-0.99513428240342	-0.00129200787429238	-0.00124039257849048
1.1	0.000321548697993512	0.00187160660056001	-0.145180646037096	-0.984289365481521	-0.145828191798567	-0.984254172254363	-0.00175616141679443	-0.000861247534001331
1.2	0.000517350750824081	0.00135833905269211	-0.297026302430329	-0.949533626140727	-0.297019340972111	-0.949589310817996	-0.00193117612510832	-0.000209495993707009
1.3	0.000907395289384015	0.000506025206762416	-0.440780455281739	-0.891623146704046	-0.440872565669907	-0.89164758782129	-0.000850433388445318	0.00101223909817881
1.4	0.00132132402638099	-0.00114802825137322	-0.57361947239019	-0.812168599303448	-0.573693227754285	-0.812069010052904	0.00100991617095293	0.000929469620413969
1.5	0.0016979454581984	-0.00229043792751425	-0.692583851081287	-0.713048712032767	-0.692608431798413	-0.712976674293496	0.00283001404001805	-0.000375318392452303
1.6	0.00128546692627519	-0.00334384037501637	-0.794524701247	-0.597234161907652	-0.794954063362788	-0.596733538313214	0.00234217392401091	-0.00228983091048669
1.7	0.000956045275604087	-0.00341297556668775	-0.877419458505733	-0.466373496190512	-0.877723593837503	-0.465883517543662	0.00131496066685014	-0.00304383232618909
1.8	0.000532664473539261	-0.00354254658905547	-0.939119037352725	-0.323943730771798	-0.939134480452863	-0.323934260473083	0.000107054711234338	-0.0035747285173683
1.9	0.000129511804415517	-0.00334253556886841	-0.977859379860771	-0.17412318135834	-0.977903904662273	-0.174175895127837	-0.0010482440923581	-0.00354054802884401
2	1.24077180634892E-05	-0.00324405818211807	-0.992864462989875	-0.0208193370004235	-0.992958921871273	-0.0201698465581895	-0.00166122233971941	-0.00307601764710948
2.1	-0.000500418832996673	-0.00358206313660649	-0.9837064816969	0.134979587430956	-0.983806403125771	0.134495522154698	-0.00229343344072082	-0.00321512315744001
2.2	-0.00148201982092313	-0.00357068405182904	-0.950735493158156	0.285261180070508	-0.950774147572232	0.285394932746707	-0.00321460675515362	-0.00294512842385644
2.3	-0.00230692776411408	-0.00323629106959117	-0.894805244246799	0.429228520014487	-0.894641391462143	0.429316813931069	-0.00406969887131654	-0.00250038922361725
2.4	-0.00338751863167131	-0.00273367669403371	-0.816736820548162	0.563405585626979	-0.817028483370812	0.562944040802215	-0.00492750176170642	-0.00182689958950219
2.5	-0.00389605211624783	-0.0015001056575067	-0.719377724062208	0.683376085993768	-0.719680352182832	0.682995868886892	-0.00492659576277491	-0.000801135171013256
2.6	-0.0041451207423221	-0.000857075469206556	-0.604713964764989	0.786108421908897	-0.604634842615507	0.786048977033646	-0.00439316624081277	-0.000513878477917198
2.7	-0.00414490685049122	4.16278236974938E-05	-0.475285371336409	0.870130431578365	-0.47525590123104	0.870144482884734	-0.00426442841415072	-0.000351084009259537
2.8	-0.00383391462479819	0.000713209914191862	-0.334644782295363	0.933174343049829	-0.334526594423548	0.933258661124727	-0.00398814431050604	-3.60126012487591E-05
2.9	-0.0027773230159625	0.00120448668161118	-0.185663341197087	0.973658822474684	-0.185658832047243	0.973713565238404	-0.00339482596450415	0.00059165266475049
3	-0.00170152236248897	0.00116240512434983	-0.031951198440436	0.990269045068402	-0.0320153571593616	0.990340485077329	-0.00221357349666036	0.000974464620081424
3.1	-0.000656478019807883	0.000983711333146763	0.121009110497262	0.983118988187362	0.121656485353102	0.983199546472412	-0.00126534579357763	0.00112441868369793
3.2	0.000166175491968032	0.000505152127630628	0.272695444805667	0.952230241991529	0.272685533462238	0.952269797525227	-0.000394616992259914	0.00106429225725173
3.3	0.00112712560004728	-0.000205225685000352	0.417862472876737	0.897951813546397	0.417240824564078	0.898233569430672	0.000710781067752801	0.00074929786254773
3.4	0.00156271368109755	-0.00107124746427486	0.551549708945565	0.82227855693935	0.551465000123778	0.822393778925325	0.00179450674241791	5.71984647493173E-05
3.5	0.00225849082757056	-0.00211614267486915	0.671928794792915	0.726800079628961	0.671943017785945	0.726826228653745	0.00282849215379567	-0.00124469968204204
3.6	0.00182313565771681	-0.00332311860077057	0.776216672971504	0.614271458205592	0.776638006694091	0.61387769670206	0.00266047440066575	-0.0028483435440333
3.7	0.00152348404604666	-0.0041425611346347	0.862451353881982	0.485637496237729	0.862458426785789	0.485763854026978	0.00222624755329827	-0.00383271221654085
3.8	0.000832591437822862	-0.00489419189631853	0.927083370471461	0.345808367508652	0.927111827667477	0.345991375573148	0.00143083090336267	-0.0047996060780828
3.9	0.000365541218248208	-0.00541795440929491	0.969395666083276	0.197341646619319	0.969297675144425	0.197928690283792	0.000112565035109467	-0.00557282383295006
4	-9.06674061340146E-05	-0.00575996567836284	0.988464914007241	0.0454698918255756	0.988546815999416	0.0455128179032391	-0.000644168475777408	-0.00587612180098283
4.1	-0.000801412070211395	-0.00672781062350002	0.983570935025815	-0.108774431173609	0.983508925962168	-0.108710450787076	-0.00192812339992106	-0.00689017874394249
4.2	-0.00227029169953048	-0.00718999608273438	0.954214652077346	-0.26063114310883	0.954408193853325	-0.26006275702267	-0.00374405144437882	-0.00721100501775225
4.3	-0.00360677621604437	-0.00764875744285594	0.902429004514402	-0.404838239740611	0.90242988347826	-0.404819738384898	-0.00570580910566884	-0.00731745592865849
4.4	-0.00553902125408526	-0.00759513988343193	0.828832906477209	-0.539827080179642	0.828753112532538	-0.539811146711343	-0.00810739904716299	-0.00669640702036385
4.5	-0.00693751919332607	-0.00687418471664447	0.73493178937826	-0.662366913512365	0.734808545040778	-0.662220949618384	-0.00987564847978494	-0.00499203900146537
4.6	-0.00822844573785581	-0.00621948465506891	0.622847025881835	-0.768050876880832	0.622832661043949	-0.76782181581303	-0.0109160171546935	-0.00365405032331082
4.7	-0.00940432163474412	-0.0056976983649377	0.496076860506506	-0.855248683098521	0.496193868556379	-0.855004491093154	-0.0121585596489445	-0.00241831137446143
4.8	-0.0106080515142023	-0.00473936849285679	0.357147867153731	-0.921688654266315	0.357441183190122	-0.921500579977556	-0.0130380883021942	-0.000829470817312596
4.9	-0.0113073948317191	-0.00390907743131376	0.209662698389902	-0.965589999364445	0.209922110177462	-0.965539214168892	-0.0133861083376398	0.00119156457235129
5	-0.0117858941804178	-0.00295664125744873	0.0575476556347714	-0.985778032613505	0.0577056610768098	-0.985650501491359	-0.0127755966917755	0.00340839371021046
5.1	-0.0120321549175477	-0.00226022510153065	-0.0953935001879263	-0.982803514417689	-0.0950730174380219	-0.982740897962556	-0.0118128937926172	0.00542184225594408
5.2	-0.0122279784190212	-0.00114133315498388	-0.246762175673051	-0.956321366453532	-0.246335474323664	-0.956443147161971	-0.0105436292708075	0.00777535481380039
5.3	-0.0122445467578551	-0.000270358403908204	-0.392168582701509	-0.906524146450446	-0.391880036504789	-0.906868079030833	-0.00843267522722898	0.0100573983860157
5.4	-0.0121049415388204	0.00115370670087064	-0.528124492550707	-0.834590518774185	-0.527988726281817	-0.834879545235542	-0.00565716187709841	0.011980753028235
5.5	-0.011439706035709	0.00192081174555774	-0.650730884127269	-0.742627520751569	-0.650680860380731	-0.742940763006186	-0.0020093423164951	0.0123932211272312
5.6	-0.0118563225389168	0.00290528380968141	-0.758244122043133	-0.632999139273152	-0.758257441207037	-0.633169296384473	3.12277879042295E-06	0.0117257062473581
5.7	-0.0120478415471686	0.00443176871294795	-0.847474343826814	-0.507565383948991	-0.847450495289807	-0.507740282378075	0.00183472334768673	0.0118561087067224
5.8	-0.0119000618886209	0.00641631370531525	-0.915798690622777	-0.369748143705594	-0.915843292996978	-0.37004000051301	0.00385352462651549	0.0118915137740669
5.9	-0.0114345559740416	0.00846630831130124	-0.961971747040562	-0.223427931449192	-0.96209197286516	-0.223475916671316	0.00586112078665765	0.012040320946815
6	-0.00951045730558448	0.0107710522658977	-0.98548457025472	-0.071690617661985	-0.98548143283383	-0.0717592677986939	0.00921970996302153	0.0119842713835905
6.1	-0.00774752512930001	0.0113116208222983	-0.984584209534376	0.0825398286306403	-0.984587336398176	0.082436534291232	0.0121472841617709	0.00936598556276125
6.2	-0.00636794417468015	0.0119078013167216	-0.959556937124232	0.234374122026504	-0.959604869825464	0.234192492600169	0.0137430002443081	0.00620967508377322
6.3	-0.00536797854653764	0.011984935299854	-0.911545924438749	0.380286738481534	-0.911570141612652	0.380158123118157	0.0141967809570825	0.00259892041669146
6.4	-0.00459781012916322	0.0121746973082613	-0.841684239986692	0.517092664054785	-0.841675295638277	0.516879186806869	0.0133842149772807	-0.000810729885723855
6.5	-0.00376325503680713	0.0122367558992294	-0.751063289834375	0.641914210503882	-0.751163691924707	0.641741838374973	0.0121257881008455	-0.00372763577365886
6.6	-0.00271528219349026	0.012381587713877	-0.641998682534872	0.750268086194917	-0.642146984025082	0.750122098397769	0.0103391435358434	-0.00602089194817849
6.7	-0.00150925446795251	0.0122197850611246	-0.517969163235298	0.840660227973685	-0.518090126635282	0.840503003586349	0.00830057191410348	-0.00769721293504531
6.8	-0.000207322205317716	0.0118577120345872	-0.381276413540573	0.91091637022852	-0.381487379218224	0.910841134809536	0.00605636396253023	-0.00887428043391767
6.9	0.000879233656927368	0.0110675016548572	-0.235143542365268	0.9592141290072	-0.235394219217775	0.959210133788475	0.00392969705077896	-0.00948056354027299
7	0.00196291825197955	0.0101128125287359	-0.0831568683411612	0.983642087768988	-0.0834149924939484	0.983611884037369	0.00182498437964692	-0.010090447044784
7.1	0.00242269836579404	0.0091423053227373	0.0699495977501317	0.984643351034739	0.0697430696967049	0.984631046426581	-0.000688978477408233	-0.00989382708973136
7.2	0.00302137932104099	0.00830165901871113	0.221985726805227	0.962056032621485	0.221730450895326	0.962099805986863	-0.00259468159608882	-0.00885122524755244
7.3	0.00319353967911169	0.00720266843855318	0.36873807324775	0.915902421578422	0.368497852823757	0.915992929329733	-0.00412834812516205	-0.00751261491669667
7.4	0.00329264139656915	0.00626002702176532	0.506386080605001	0.847197037795345	0.50616781746311	0.847358707681741	-0.00534955663654619	-0.00594284236166659
7.5	0.00322892134033233	0.00500875040184683	0.631051483240838	0.758491038822693	0.630891346832662	0.758662558062196	-0.00578717719940195	-0.00434402301216589
7.6	0.00266741570480057	0.00376296025111868	0.741552133881832	0.651819193990288	0.741336536830367	0.651979743230446	-0.00624509572405716	-0.00335323150079672
7.7	0.00160452966664708	0.00328492755944419	0.833823167697078	0.528696889352861	0.833671869893314	0.528891632227553	-0.00683876559039198	-0.00173574564172901
7.8	0.000896726805767592	0.00336041770535837	0.90584435195393	0.392699503845019	0.905723202900304	0.392920974992526	-0.00666088295168235	0.000169033241688841
7.9	0.00013146385948795	0.00388661527291887	0.955605465995593	0.247514607422511	0.955564717617276	0.247740000402491	-0.0058869413450979	0.00246134132931023
8	0.000734864745075698	0.00492459786079786	0.982992694025466	0.0963705178125116	0.983062820821911	0.0966628625520711	-0.00381802212028325	0.00458873745921809
8.1	0.000744987352825682	0.00482339295539179	0.986019645744471	-0.0580278044781375	0.986143705622347	-0.0577562763961467	-0.00163770919805517	0.00461121011738017
8.2	0.000754098953408809	0.00528101854860367	0.964696107933287	-0.21040108342267	0.964761870438953	-0.210104937213949	-0.000358262573743012	0.00455903186252184
8.3	0.00071572184934811	0.00582342900615128	0.920182499057992	-0.357457970374445	0.920319991505036	-0.357201789092191	0.000870616729359157	0.00418511054888636
8.4	0.000796782833868803	0.00642095798475026	0.853750813749744	-0.495915647531838	0.853962545405944	-0.495715535212978	0.00158593023959403	0.00358700480663998
8.5	0.00133787422427468	0.00769792452057156	0.766262934897676	-0.623005021692301	0.766378821116677	-0.62287899447014	0.00277495541914043	0.00371131860821154
8.6	0.0025476515145511	0.00775796284483061	0.659687107480562	-0.73391160598154	0.659884512886086	-0.733726154967351	0.0043211129673069	0.00213733693882658
8.7	0.0032313268232457	0.00805080397665746	0.537872538554714	-0.827104517430443	0.538154308566484	-0.826995123855096	0.00464901830659871	0.000615430772041565
8.8	0.00460860080013417	0.00807795229189909	0.403156988904558	-0.900623551475058	0.403363079504757	-0.90056902501534	0.00445613079465707	-0.000758836964616395
8.9	0.00594607382891077	0.00753508408324872	0.258261744095974	-0.95254412532943	0.258503629991218	-0.952403629898109	0.00399244785324029	-0.00171403260155374
9	0.00758159883205481	0.0064627888153221	0.106865822972172	-0.980363753453426	0.107227913178624	-0.980334020565763	0.00383058155637277	-0.00198575969476579
9.1	0.00885630125621662	0.00489061651420223	-0.0458935593442955	-0.985113287406655	-0.0455410615146147	-0.985127694553498	0.00400038958072873	-0.00232950387552253
9.2	0.0102400430717306	0.00295879093912432	-0.198510706659741	-0.966253178792615	-0.198154678392005	-0.966323789307338	0.00482612845055608	-0.00234323120578757
9.3	0.0111500052849057	0.000500746284906708	-0.346421561080819	-0.923636293945589	-0.346064224631314	-0.923700717688622	0.00621861432400058	-0.00285722277582841
9.4	0.0113000387769099	-0.0024329150066944	-0.485588828537517	-0.858161312074862	-0.485265513830022	-0.858309342473213	0.00740711623303383	-0.00396559991867969
9.5	0.0105958737683874	-0.00539515884921478	-0.612107355829184	-0.772388231158356	-0.611901159071226	-0.77252551002711	0.00848450985401313	-0.00587646346177425
9.6	0.00805107085049551	-0.00811774404113653	-0.724999644991093	-0.668241873629189	-0.724726692892636	-0.66842676078732	0.00695537629967259	-0.00817764519409508
9.7	0.00532236209438256	-0.009073241811269	-0.819912684195149	-0.547268580057561	-0.819666323385852	-0.547538052725359	0.00529026697807258	-0.0087426768458581
9.8	0.00268944041761388	-0.00965809748110333	-0.894660213076028	-0.413119829320269	-0.894451212679024	-0.413394893802882	0.00384290407258808	-0.00875814439567159
9.9	-0.000272400878453503	-0.00912757295398194	-0.947457997774358	-0.269404449535719	-0.947345630213009	-0.269733733155936	0.00267494115957828	-0.00795830825834602
10	-0.00199536511586028	-0.00818426389407745	-0.978352768600463	-0.119437167835439	-0.978272512145705	-0.119815986886349	0.0032842195419062	-0.00697859317991945
10.1	-0.00459461799377144	-0.007691343262614	-0.984694393829492	0.0345556330345777	-0.984674954067097	0.0340774226706769	0.00304219841614824	-0.00796527931964801
10.2	-0.00699808131908372	-0.00609908689532259	-0.966986164365552	0.186815004593468	-0.966971583077135	0.186365080511082	0.00214721754000993	-0.00813059464194948
10.3	-0.00913485961332607	-0.00384135128199838	-0.926183556049303	0.334379562016317	-0.926319209764874	0.333839335127778	0.00115073823835238	-0.00829673100700347
10.4	-0.0108018868664728	-0.00130956606029475	-0.863374765015775	0.473961791452677	-0.863640205687526	0.473426123720247	5.06079787161706E-05	-0.00819684834511251
10.5	-0.0114421149312826	0.00228153072525227	-0.779104902897296	0.602997394696556	-0.77938830054443	0.602610805201618	8.87921133560717E-05	-0.00752805729784482
10.6	-0.0106739359289154	0.00500049148418154	-0.67534164746501	0.716044049543467	-0.675768297730477	0.715701172397684	0.000784214228449125	-0.00817850056534682
10.7	-0.00942635429256349	0.00745116245164077	-0.556097965969259	0.811873493165921	-0.556509717783658	0.811586265020222	0.00120327847482862	-0.00944722567665161
10.8	-0.00782116169359729	0.00896920542204297	-0.423289319894984	0.888183901024679	-0.423799792988291	0.887955991546509	0.000762646885394623	-0.01124675134423
10.9	-0.0063786376811757	0.0106193828811476	-0.280075130688764	0.943155849061353	-0.280562775566312	0.943106031187543	-0.000685948475378337	-0.0126393525487927
11	-0.00417887489828341	0.0116308308392426	-0.129875900439487	0.974228095156616	-0.130421343214087	0.974225483579512	-0.00204941875545429	-0.0136437569429381
11.1	-0.00192189431981042	0.0125799917632403	0.0222133466970998	0.98235361563449	0.0215854424951552	0.982437877975096	-0.00384636003554121	-0.0143135380962936
11.2	0.000897321779945863	0.0127198376404118	0.174285036424069	0.967121574071043	0.173767151863843	0.967325544738385	-0.0053734397376077	-0.0144816062921281
11.3	0.00372486450186065	0.0122305564434997	0.322223193386687	0.928233476210763	0.321795028113528	0.928496715054065	-0.00661190324347644	-0.0142530063090227
11.4	0.00630010747557449	0.0110456396832052	0.462338509279847	0.866520313538865	0.461875971082946	0.866781039947924	-0.00771412342316624	-0.0134439583454838
11.5	0.00908705121183861	0.00929137014621507	0.590216896358261	0.784331146644931	0.589860635231859	0.784748992835067	-0.00791667216089518	-0.0131193547570541
11.6	0.010264051117324	0.0064033082553689	0.705045029242473	0.683661909298057	0.704779828890771	0.684142264628305	-0.0098214636487573	-0.0133122370801724
11.7	0.0110041875293878	0.0042768558481201	0.802661349778672	0.56573080047651	0.802423867037913	0.566152820288119	-0.0117767412842899	-0.0121908766905437
11.8	0.0110342116871324	0.00182061679908865	0.880450180337866	0.433976226182851	0.880268031557818	0.434528019619889	-0.0136515736626292	-0.0105344387321879
11.9	0.010357567336225	0.000421328271287226	0.936552763027701	0.292407893419414	0.936516074918903	0.292950958011848	-0.0154275677502302	-0.0073416473463289
12	0.010599122667634	-0.000883065355512984	0.971140164239009	0.144141450878382	0.971129128159695	0.144620463394641	-0.0141091764207409	-0.0039751205481159
12.1	0.0100707356339709	-0.00303777741802186	0.981449288208466	-0.00889460701363414	0.981426112039504	-0.00842221185937318	-0.0130260927294924	-0.00294823585907267
12.2	0.00883939505818762	-0.00502964555614862	0.967706281290865	-0.160869753875188	0.967814031881321	-0.160433594435531	-0.0122596450427975	-0.00191216875063006
12.3	0.00715309872015205	-0.00672856799906692	0.930913588383622	-0.308560552698413	0.931099810428427	-0.308203521989804	-0.0115287427896629	-0.00138723947074687
12.4	0.00440449210810215	-0.00810590641465019	0.87243684726112	-0.449105208402513	0.872570266872153	-0.448731078967999	-0.011461901164784	-0.000957377424393188
12.5	0.00193763173256269	-0.00793644157482779	0.79177792731283	-0.579908154182386	0.792237019225157	-0.57951738238509	-0.0109541587434481	0.000198504483305634
12.6	-0.000460118477753569	-0.0081543181739697	0.691677864433582	-0.69494940890365	0.69202471778094	-0.694641458045269	-0.0103079828088962	-0.000128919072457903
