# GHZ S RI R 50
0.2	-0.000129320184059512	-0.000412029765220392	0.950604814887497	-0.307433000290343	0.950378405996094	-0.307575300165464	1.63091885955277E-05	-0.000237172178392997
0.3	-0.000517623098692242	-0.000181277903123624	0.891151418774028	-0.451329609402619	0.891013817672419	-0.45138306845089	-0.000344700103647862	-0.000377164341771033
0.4	-0.000653576550808322	0.000123970020242737	0.81014621224685	-0.584161865750568	0.810186578908552	-0.584301733468743	-0.000499385641166353	-0.000199735236128895
0.5	-0.000527980640215121	0.000887178842647694	0.709298147563846	-0.703436244256919	0.709187337113621	-0.703532434836245	-0.000147333720682036	0.000278860090629159
0.6	-5.11379393838351E-05	0.000553431557328689	0.591030652907265	-0.804728666121005	0.590840645413848	-0.804731718550927	0.000214177339323845	-0.000330612880212513
0.7	-0.000280974972507828	0.000672332265739985	0.458898966753131	-0.886598709463523	0.458824771599444	-0.886633240191582	-1.03203691908784E-05	-0.00072951841276101
0.8	-0.000282091392127596	0.000604338767788994	0.315504110160111	-0.947305931201068	0.315385168027647	-0.947219037011306	-0.000335748841662024	-0.000954577003942948
0.9	-0.000795136221111447	0.000906573892237455	0.164157853997221	-0.984820647692392	0.164008383285616	-0.984777704286879	-0.0010929942291956	-0.00112450428067523
1	-0.000872158654217627	0.00232949099274404	0.00894480652839178	-0.997642438470565	0.00882642260522992	-0.997612688969133	-0.00148032965992199	-5.60760508367873E-05
1.1	0.000700156382851615	0.00230933469494285	-0.145061441682747	-0.987136362795603	-0.145710828154377	-0.987101417675994	-0.000792324518957291	-0.000400795496044947
1.2	0.00113028128858441	0.00102442514564154	-0.297664128411074	-0.952604611085434	-0.297657127902594	-0.952660468275801	-0.00106698237612602	-0.000813206048647211
1.3	0.00139979219031458	-0.000711538078805944	-0.442179423787453	-0.894544511129214	-0.442271833127002	-0.894569035556599	-0.000626363326250139	-0.000509696754900764
1.4	0.00125312068892591	-0.00273355832712072	-0.575537976188778	-0.814688865331885	-0.575611955015585	-0.81458895063011	0.000228920409973718	-0.000604909008537541
1.5	0.00195462744192404	-0.00422639998859635	-0.694821834843549	-0.715619708370005	-0.694846513200925	-0.715547428551379	0.00200694898089993	-0.00171149240598239
1.6	0.000396379100913937	-0.00569409221067547	-0.797881023657293	-0.599399081848414	-0.798311962479342	-0.598896328161197	0.000563401452437842	-0.00306728354267871
1.7	-0.000429536506811779	-0.00499185303497769	-0.881290468848217	-0.467589132091237	-0.881595458427819	-0.467096959033593	-0.000253123973980898	-0.00268657700800816
1.8	-0.000972216611737519	-0.00442707821226885	-0.94318006719452	-0.324310360145351	-0.943195562506054	-0.324300836892297	-0.000968595892240332	-0.00261247360272604
1.9	-0.00109848978284606	-0.00319727748548404	-0.982059773617216	-0.173830900726703	-0.982104535856071	-0.173883785322494	-0.00143294008100875	-0.00200766518784107
2	0.000586972371508612	-0.00312371455946256	-0.997600918180745	-0.0194182666700987	-0.997694843632256	-0.0187655556969381	-0.000562912847871698	-0.00214198946330206
2.1	-0.000341300262829374	-0.00483569868737372	-0.987759513243954	0.137883795396522	-0.987861012559946	0.137397814208359	-0.0019571604738723	-0.0033064455586573
2.2	-0.00193793608789617	-0.00474677508760853	-0.954004133536443	0.288911515051561	-0.954042606151658	0.2890459305349	-0.00317877019702812	-0.00272322716602739
2.3	-0.00310717422046268	-0.00412105164629649	-0.897350393474923	0.433552959114026	-0.897185604048453	0.43364116158589	-0.00393998141840866	-0.0021392725247238
2.4	-0.00438240596632075	-0.0028576615642748	-0.818454277888802	0.568524048468552	-0.818748716853045	0.568061445877862	-0.00462361011050215	-0.00130291372347845
2.5	-0.00346548295577737	-0.000949380647292091	-0.71934882081459	0.689149131140825	-0.719654266774681	0.688768681114003	-0.00358340980993197	-0.000689619017982399
2.6	-0.00327132662964552	-0.00173106620038791	-0.603396295517131	0.791243230710875	-0.603317163028515	0.791183256978093	-0.00377101418296249	-0.00195601396218516
2.7	-0.0038612720982487	-0.00136010592403187	-0.473047286534174	0.874986073685246	-0.473017660828534	0.875000042626656	-0.00489523074600388	-0.00177687469765095
2.8	-0.0040301935797931	-0.000694349616919732	-0.331289226074925	0.937623448206236	-0.331170277576117	0.93770747054228	-0.00528631516746829	-0.000822128505859677
2.9	-0.00309815329751957	-2.51361879847369E-05	-0.181031008847526	0.977243591969633	-0.181026199234459	0.977298457538108	-0.0047389579698257	0.000463124452072877
3	-0.002042372327066	-0.000322816637189932	-0.0268391103390626	0.992113070931098	-0.0269030050383996	0.992184966667055	-0.0035154087818708	0.00106093273831604
3.1	-0.00150740211496025	-0.000382348921762626	0.126067684980216	0.984305983113407	0.126716630206443	0.984383500935654	-0.00265605840609689	0.00177770970666875
3.2	-0.000727912899023039	-0.000519186542712586	0.278162150729557	0.952392808968316	0.27815243084664	0.952432482988007	-0.00133597930297102	0.00212023713541104
3.3	0.000292838736329225	-0.000913406224262585	0.423344461272074	0.89677075776116	0.422723589029762	0.897056299361734	0.000130546549545125	0.00195645853147001
3.4	0.00119172948054644	-0.00140884463766253	0.556404963086427	0.81976577441748	0.556320833528099	0.819881533018841	0.00172180063002025	0.0013166640595568
3.5	0.00255940482407815	-0.00319621986431203	0.675956848700588	0.723997593997994	0.675971209814376	0.724023691060099	0.00298395554574026	-0.000738658916668036
3.6	0.00140365263966758	-0.00472477675477746	0.780280206913848	0.610520424342399	0.780699732989914	0.610123995905451	0.00217388760362593	-0.00211193864361954
3.7	0.00090114816307477	-0.00524961448916964	0.865584466524612	0.480789291738839	0.865592277497654	0.480915653196999	0.00200270612705211	-0.0026996698348749
3.8	0.000165528202006614	-0.005672073725792	0.929005659303888	0.340376027319113	0.929035179325121	0.340558851658069	0.00155796579512058	-0.00358384521133339
3.9	2.69958589368183E-05	-0.00555872243866996	0.97024664489256	0.191844081607238	0.970151977436793	0.192431519758491	0.000745912248233173	-0.00433886459894786
4	0.000962958238112451	-0.00627897583142591	0.988778349107117	0.0393821250171796	0.988860518300773	0.0394245479987321	0.000660611588129391	-0.00571299318547686
4.1	-0.000171817948993302	-0.00834361404911817	0.981908265388339	-0.115264185244258	0.981846744048348	-0.115199849928628	-0.0018315588792561	-0.00734377388880828
4.2	-0.00212224052404366	-0.00887550864030374	0.951006472519869	-0.266444115175953	0.951203416325512	-0.265877889886186	-0.00416788303045203	-0.00721838357505079
4.3	-0.00379943389810074	-0.00918843181374476	0.8980989480143	-0.409834701936052	0.898099943712819	-0.40981624185503	-0.00627572763079844	-0.00692083739208087
4.4	-0.00589271133083212	-0.00849654737369237	0.823554494848809	-0.544146623497121	0.823474972247249	-0.544130198923177	-0.00847724788775369	-0.00576892337355399
4.5	-0.00603265618901837	-0.00736397466325793	0.727900356516855	-0.665601208326295	0.727778542038764	-0.66545480988949	-0.00920321939356863	-0.00437345473561559
4.6	-0.00704134467275145	-0.0079398577059614	0.615408206922798	-0.768927671142695	0.615395366563081	-0.768699445725035	-0.0109152050603559	-0.00412283250501898
4.7	-0.00868960356340994	-0.00793645120331497	0.488812860151029	-0.854576531190802	0.48893083667807	-0.854334086660122	-0.0130728080426366	-0.00272641852882777
4.8	-0.0103740025162091	-0.00712707324279397	0.350047955308718	-0.919568850896954	0.350341037485476	-0.919383378009895	-0.0144895709009994	-0.000566081675194396
4.9	-0.0114084534061976	-0.0061217863412728	0.202759568331554	-0.961750929452145	0.203017915456786	-0.961701969568049	-0.0148986623448536	0.00222897841887414
5	-0.0119042403962184	-0.00530883974391154	0.0521312083092874	-0.979731140759774	0.0522888501409502	-0.979605238878077	-0.0140549905265675	0.00483045537873614
5.1	-0.0127850274225001	-0.00451765676090317	-0.0990507645602957	-0.976338137945996	-0.098731985309667	-0.976277291350403	-0.0128856658756791	0.007640787335471
5.2	-0.0131681034255862	-0.002879916442595	-0.249194102389982	-0.949211338881599	-0.248770622312237	-0.949334130465741	-0.0105573567217889	0.0103689643707533
5.3	-0.0129859834143039	-0.00146769334643509	-0.393002116892891	-0.898820161362976	-0.392716871110815	-0.89916286415749	-0.00742043339589623	0.0122536724153637
5.4	-0.0119308887132138	0.000384547109728933	-0.526841682850159	-0.82674004856105	-0.526707834007613	-0.827027360988485	-0.00387655480098477	0.0132478379201565
5.5	-0.0103922436542634	-0.000463919754573387	-0.647722406504031	-0.736116648868885	-0.64767337472331	-0.736427811360985	-0.000891599162412473	0.0117183292236768
5.6	-0.0122147422588353	0.000195804726926322	-0.754584865103831	-0.626894470410989	-0.754598496939599	-0.627063438027116	-0.000468052695153956	0.0119371671296788
5.7	-0.0127777719608691	0.00224362093580113	-0.842362262760566	-0.502088256384269	-0.842338954905111	-0.502261930034366	0.00175093720166482	0.0128178387898307
5.8	-0.012631032276255	0.00479696379116318	-0.909381699197554	-0.365585595408538	-0.909426393128366	-0.365875167375957	0.0043793852200701	0.0128974230995084
5.9	-0.0114221585351941	0.00771424930906585	-0.954950130535834	-0.22114335694918	-0.955069491695791	-0.221190907074539	0.00719550540243605	0.0126200230962408
6	-0.00753648929174638	0.00877901966559274	-0.978794086917909	-0.0703194147084816	-0.978791032172739	-0.0703875969392468	0.0106385409961344	0.0101058286521658
6.1	-0.00705584880463266	0.00764428922803436	-0.976909418933522	0.0826864166435019	-0.976912603724355	0.0825839231646603	0.0104183489598425	0.00717043771124001
6.2	-0.00686313179162799	0.00838804871400019	-0.951923190922807	0.232521686130861	-0.951970744427714	0.232341501688726	0.0106316867380893	0.00580134886578312
6.3	-0.00647240657188156	0.00912466731543809	-0.904650501923442	0.376769787321364	-0.904674452821267	0.376642162423297	0.0111827993013373	0.00403906478953402
6.4	-0.00566009634543658	0.0101547341315467	-0.83577419554184	0.51258821137634	-0.835765157288104	0.512376338623971	0.0115210291216138	0.001847814381197
6.5	-0.00429690258865806	0.0103262904071111	-0.745210869387325	0.636177489839055	-0.745310343138831	0.636006487421616	0.0115843787085261	-0.00112548012858122
6.6	-0.00318934783945764	0.0104810802627885	-0.637908359753734	0.742599718589425	-0.63805510913281	0.742454703362141	0.0106692307047138	-0.00377590314948813
6.7	-0.00185322380142898	0.0103000338196763	-0.515846751577955	0.832433946923495	-0.515966321166919	0.832277707716823	0.00906659480357449	-0.00632572620643359
6.8	-0.000481295346884054	0.0099544102668778	-0.38080167853201	0.902497412355614	-0.381010731561169	0.902422181692535	0.00655693587306748	-0.00816096403759685
6.9	0.000908101863237995	0.00914711472453032	-0.236093845074815	0.950486488663879	-0.236342415628888	0.95048176511923	0.00405164550834452	-0.00898847459689087
7	0.00194170098950667	0.00774176369861829	-0.0868237189193113	0.974499523221157	-0.0870794062874583	0.974468431989912	0.00129623823427342	-0.00960322424002422
7.1	0.00224602362865031	0.00689308719253875	0.0641031149299965	0.977273989368223	0.0638982777315555	0.977260670642283	-0.00132196297647672	-0.00876626308435185
7.2	0.0029401162870029	0.00601294559849916	0.214880097470016	0.956088498052919	0.214626490546198	0.956130499545668	-0.0030310725510608	-0.00749503675096666
7.3	0.00312388060962945	0.00480187528646937	0.360374376303854	0.911389536008718	0.360135377658971	0.911477896085379	-0.00444288656721883	-0.0060019980982169
7.4	0.00330365001310485	0.00379938944787445	0.496603501553405	0.844589383257193	0.49638568701307	0.844748303391233	-0.00543386788244723	-0.00425786436153221
7.5	0.00321118767552144	0.00203769692988141	0.621051578789615	0.759240475996035	0.620890967250595	0.759409658174682	-0.00591319813614442	-0.00281407430998576
7.6	0.00192692487327939	0.000906120227270035	0.732672038861763	0.654231537633515	0.732456302509005	0.654389585378999	-0.00640327313142991	-0.00101859509280843
7.7	0.000718829066675349	0.000853663557493113	0.825393121274329	0.532734097291838	0.82524102024988	0.532926648033185	-0.00592856054162813	0.00101214139019927
7.8	0.0001298016747828	0.00147318092993576	0.898250321108989	0.398677175462272	0.898127827428748	0.398896573392487	-0.00466829890115678	0.00251408115838113
7.9	0.000200802849936023	0.00273564438282344	0.94977811315126	0.255486447957311	0.949735419448025	0.255710630410352	-0.00290800985078697	0.00355099831460772
8	0.00270255347307671	0.00250994073413186	0.979674066435327	0.10455002594856	0.979741510109339	0.104842230295128	-0.000895339335959182	0.00281113469740288
8.1	0.00178457524564723	0.000918742359403484	0.983622470284047	-0.0493085836940053	0.983743811175112	-0.0490367787102622	-0.00206244523489264	0.00226675497013465
8.2	0.000894873049216509	0.00118739357357202	0.964319208730335	-0.200907070520718	0.964382053885699	-0.200611029089874	-0.00229551725558294	0.00352712023032849
8.3	3.52762808062456E-05	0.00191043438125035	0.92222608675962	-0.348076428796048	0.922360909957826	-0.347819313702355	-0.00171748771935275	0.00457803285775645
8.4	-0.000442482218903638	0.00364702490630162	0.857890748833335	-0.487802397269323	0.858100530905093	-0.487600434931762	-0.000704077483117599	0.00570546670263953
8.5	0.00180852743667168	0.00548676322613507	0.770882039317855	-0.615764077429138	0.770996721261318	-0.615637174553692	0.00217799494646652	0.0057200133709118
8.6	0.00296820219773994	0.00417707421672143	0.666426791848711	-0.727094437096593	0.666622285902354	-0.726907177854073	0.0026603942530996	0.00390960402219857
8.7	0.00296356446469221	0.00408565457475969	0.546175025462651	-0.822196845849895	0.546455844760819	-0.822084654701068	0.00301041070212847	0.00374485487758607
8.8	0.00346668083501987	0.00416124538343098	0.412125859613336	-0.89780711950981	0.412331662723605	-0.89775058251599	0.00373909114988667	0.00346518977876892
8.9	0.00409647898054333	0.00453871575854778	0.26715070537411	-0.951308920018913	0.267391601865307	-0.951166081284159	0.00493531761399645	0.00324392678201336
9	0.00644169322312772	0.00431082218652461	0.116895738580333	-0.980344099025276	0.117257919996941	-0.980310672205076	0.00702082856614006	0.00213998503568509
9.1	0.00822744601102197	0.00259593280504265	-0.0360403634784125	-0.988180958274827	-0.0356867883700892	-0.988191834362862	0.00821627727694877	2.96321763157951E-05
9.2	0.00988166593016043	0.000198257216803751	-0.189790294110652	-0.971238535448271	-0.189432453418281	-0.971305924742965	0.00910543070628995	-0.00233907335643884
9.3	0.010449196981968	-0.00249591655652461	-0.338746480574307	-0.930123868339259	-0.33838730189692	-0.930185084305331	0.00885650127619426	-0.00461149450890082
9.4	0.0109236600396306	-0.00477528022753442	-0.478664057571206	-0.86628290640381	-0.478338037941634	-0.866428198357391	0.00835412238104537	-0.0059620149023198
9.5	0.0108874343851462	-0.00929605585590047	-0.60741245742096	-0.783300452273254	-0.60720362456586	-0.783436328547241	0.0070363944680727	-0.00837020980826279
9.6	0.00716173235444735	-0.011968838617494	-0.72354183866698	-0.679343534746878	-0.723265384521713	-0.679527098756438	0.00409412896301778	-0.00763821112709333
9.7	0.00415567299600843	-0.0125637800269433	-0.820651762936409	-0.558337089949811	-0.820401308563693	-0.558606212357165	0.00352411630076194	-0.00661604952663437
9.8	0.00122774208751677	-0.0125345490887778	-0.897715868349486	-0.424117152745954	-0.897502872654942	-0.424392432602559	0.00316700990392236	-0.0060202721134018
9.9	-0.00110608680654917	-0.0106787399859543	-0.953469851991387	-0.280008754858255	-0.953353633934892	-0.280339964977487	0.00360636811884048	-0.00527477770892891
10	-0.000897253694821153	-0.0109242317750436	-0.98728094627093	-0.127252012513327	-0.987197325493385	-0.127634058040502	0.00453787363886838	-0.00692278934996941
10.1	-0.00459368185564956	-0.0113083519253869	-0.994205629001306	0.028837963422262	-0.994183070397954	0.028355356424677	0.0021320707828625	-0.0072624988032467
10.2	-0.00752439256322518	-0.0093821980984039	-0.977722333007005	0.183053645376374	-0.977704988692445	0.182599316531288	0.00161208037118767	-0.00619511795156148
10.3	-0.00985536302021119	-0.00649209028613078	-0.937779805855489	0.333286285361734	-0.937914186393976	0.332739594160226	0.00165463077511953	-0.00598714305292551
10.4	-0.0109664933935355	-0.00297840119864384	-0.874756817746063	0.476237468887436	-0.875023348393223	0.475694840538728	0.00202283922517665	-0.00637287573595784
10.5	-0.00978844122864071	7.7786787909404E-05	-0.788222732877951	0.607138077153775	-0.788508028641464	0.60674700032281	0.00287389578145416	-0.00844515364636307
10.6	-0.00936305361986381	0.0011010348316409	-0.68420558521933	0.721213238484792	-0.684635490852397	0.720865674855902	0.00117811034918305	-0.0111040366604923
10.7	-0.00913534886587366	0.00326987148023124	-0.563963863499061	0.819177336095409	-0.564379307017132	0.81888606316108	-0.00106977760955221	-0.0116545219924121
10.8	-0.00804976697090451	0.00532545533104968	-0.429167006333539	0.897270674096735	-0.429682723817736	0.897039553958343	-0.00270071962218712	-0.0116107120543836
10.9	-0.00632367870910275	0.00728396912183377	-0.283351043068019	0.952796445211047	-0.283843710753454	0.952745915822406	-0.00405731603482277	-0.0115617303599808
11	-0.00393448455858463	0.00786181987597264	-0.132359537903628	0.983801400634465	-0.132910425815778	0.983798098718628	-0.00528364104270937	-0.0117690774262887
11.1	-0.00187377680692376	0.00868263608743358	0.0220595549400384	0.99338657469374	0.0214245698658481	0.993471524888978	-0.00659004811410239	-0.0112651909960545
11.2	0.000739187601580617	0.00871086505390598	0.176930171381177	0.977793839852571	0.176406651861504	0.978000462312644	-0.00726987516280366	-0.0108354783859832
11.3	0.00341445018611959	0.00846801263850174	0.327012898254055	0.937774673869029	0.326580494729653	0.938041356631712	-0.00756278603445423	-0.0102463146612795
11.4	0.00657486802070359	0.0076152055691743	0.46826677260556	0.874945110959417	0.467799755315846	0.875209146853033	-0.00738430125663096	-0.00974156142057809
11.5	0.00952155738744912	0.00442250129559843	0.598539782212208	0.792764164767345	0.598179931607432	0.793187582912751	-0.0082416471144957	-0.0107985460911788
11.6	0.00953342427179206	0.00165435891132637	0.715689241515967	0.689150128455655	0.715422643074667	0.689637027116211	-0.0104136955235822	-0.00929910395660359
11.7	0.00993676680238175	0.000114696319337303	0.813892401105382	0.568650596051827	0.813654046494923	0.569078271498584	-0.0107174053097667	-0.00764762411907849
11.8	0.00998854063135892	-0.00147182363875027	0.891962333534263	0.434762788755015	0.891780668621786	0.435321395811263	-0.0108586066132266	-0.00648887124165086
11.9	0.0108678862666926	-0.00167362912404699	0.948767875030869	0.291169416079693	0.948733434079813	0.291718910544933	-0.0104018562001535	-0.00530295014731999
12	0.0131224824148768	-0.00508136075341121	0.983462758195553	0.138688784804621	0.983455108343831	0.139173434762325	-0.00992925949052943	-0.00678455818509658
12.1	0.0112840109455861	-0.00875455639234455	0.991300786557586	-0.0167999262647775	0.991281137855253	-0.0163225707231768	-0.0128316440948149	-0.00640757070841224
12.2	0.00894532967142031	-0.0110880405112942	0.975781517168835	-0.170575291496023	0.975893985579619	-0.170135788861017	-0.0143205826213131	-0.00449671698580893
12.3	0.00611375202031215	-0.012455163026751	0.936882955352234	-0.32010752104235	0.93707424961417	-0.319748829575245	-0.0151996610285181	-0.00246455730324536
12.4	0.00283605583454895	-0.0124112981471908	0.8754047580584	-0.462568268124741	0.875543420376728	-0.462192226035357	-0.0154088044253566	0.000103395103018146
12.5	0.00184991278140537	-0.0118966150588544	0.790144421537558	-0.592855905024907	0.790611019200142	-0.592467949534598	-0.0139561216911379	0.00142241868341882
