# GHZ S RI R 50
0.2	-0.00044932890520621	8.91720010337316E-05	0.948552448149109	-0.307969458984753	0.948326281731079	-0.308111245445322	-0.000197933070451766	0.000144416836420364
0.3	-0.000538567540408834	0.000445699020442767	0.888502551552002	-0.451586517032946	0.888365183662198	-0.451639659399533	-0.000232397407409832	-8.60173185416133E-06
0.4	-0.000198922772663086	0.000626033187448695	0.80684659557121	-0.583734790465836	0.806886622234064	-0.583874312402155	4.64342558333E-05	-9.1031718000747E-05
0.5	-0.000271898163454499	0.000488810450536624	0.706073690050664	-0.701589165261723	0.705963185497717	-0.70168490375787	0.00017044147996683	-0.000532866734595491
0.6	-0.000570861125081472	0.000781183469815	0.588431452133447	-0.802566894069849	0.588242066531159	-0.802569781326521	-0.0001229885873446	-0.00064536247065224
0.7	-0.000485304162340269	0.0014163228726636	0.456368119699117	-0.883831409712435	0.456294159932532	-0.883865742692759	-4.94305674577074E-05	-0.000794891939677158
0.8	-6.23974429879929E-05	0.00165597229489483	0.313441292827075	-0.943663480971795	0.313322910201867	-0.943576848235059	-0.000129645208697347	-0.00097908317773628
0.9	0.000538843567019453	0.00216955596299557	0.163191886884995	-0.980424785923958	0.163043099014681	-0.980382001416441	-0.000203877916026608	-0.00111556217628752
1	0.00162388289849181	0.00126045304836804	0.00918895691102495	-0.993778324870487	0.00907102294938254	-0.993748723604344	-5.26993187097104E-05	-0.00196149365889138
1.1	0.000966623061630939	0.000525725401357054	-0.144851276751809	-0.983026577350637	-0.14549798318059	-0.982991522180326	-0.00143536333546515	-0.00222335594942819
1.2	0.000916149470829144	-0.000385779254641471	-0.29635375673259	-0.948100170404948	-0.296346794297569	-0.948155765788144	-0.00168436011939867	-0.001811572999912
1.3	0.000440431144020269	-0.00185622467493845	-0.43964266524244	-0.890358136724147	-0.439734612646352	-0.890382580132152	-0.00118420371863349	-0.00118045327169957
1.4	-0.000191511706486022	-0.00314028638485113	-0.572212325660145	-0.811425485211626	-0.572286047989205	-0.811326091525829	-0.000114003301574709	-0.0010888818831402
1.5	-0.00113707232881763	-0.00313728553783606	-0.691664441893283	-0.712432799912205	-0.691689012568993	-0.71236084631219	0.000591519773997822	-0.00156257768169985
1.6	-0.000366597606107915	-0.00174181188878648	-0.79296801785788	-0.596288642159659	-0.793396687512982	-0.595789008989402	0.00118808916688123	-0.00157199758401203
1.7	0.000853379594729178	-0.00181285226678793	-0.875432936540167	-0.466040584673443	-0.875736801982676	-0.465551743409803	0.00131771082678774	-0.00252791591430699
1.8	0.00132983629416978	-0.0023730987263069	-0.937183392108353	-0.324204068432678	-0.937198816464833	-0.324194628369222	0.000662747291275773	-0.00343570253542456
1.9	0.00168199954914849	-0.00330435964060613	-0.976240494645147	-0.174588416791502	-0.976284912281271	-0.174641083510783	3.35194785531041E-05	-0.00427726203229043
2	-0.000210686793632406	-0.00469986984802849	-0.990632375673512	-0.0212039676744818	-0.990726905122395	-0.0205559724772791	-0.00217889574022986	-0.0049877111580976
2.1	-0.00120236726124668	-0.00298654890136414	-0.981552874522435	0.133217580924502	-0.981651848828993	0.132734526377329	-0.00309444916251103	-0.00326706012904249
2.2	-0.00106604607460195	-0.00275702633482303	-0.94936198432949	0.283089676080222	-0.949400790284568	0.283223101771479	-0.00307025098890144	-0.00291229846179967
2.3	-0.0011399397650722	-0.00279726369037555	-0.893907381224239	0.426969742687224	-0.893743970033498	0.42705814980091	-0.00341858563524457	-0.0027627184720188
2.4	-0.00129999687493597	-0.00332411954186661	-0.815939958153389	0.560950142405917	-0.816230288602456	0.560489090157427	-0.00356339501696281	-0.00278020823895402
2.5	-0.00290920223153916	-0.00483907766605014	-0.71937565675761	0.679765743509938	-0.71967652347445	0.679385681935351	-0.00444149645606715	-0.00389608869315831
2.6	-0.00580070090180016	-0.00334060586363083	-0.606276828881634	0.783221595764257	-0.606197633457025	0.783162470088474	-0.00591110503407496	-0.0026950134254778
2.7	-0.00636115168392218	-0.0010206726809471	-0.477129794337789	0.867879042194209	-0.477100394928766	0.867893158137912	-0.00599374752485783	-0.00141659507432134
2.8	-0.00568913473012344	0.000734306635211884	-0.336821113298658	0.931170598166719	-0.336703294515823	0.931255143108889	-0.0052646076207503	-0.00035757702368681
2.9	-0.00404639919182678	0.00151313941608108	-0.188619248467634	0.971817959585889	-0.188614924473592	0.971872647812268	-0.0041027212668309	0.000286729045139194
3	-0.0029611785712409	0.00186455739997406	-0.0359117173220567	0.990116093424985	-0.0359761602127585	0.990187274955577	-0.00294188108313498	0.000800294880610469
3.1	-0.000840850789322099	0.00195587028199929	0.118221710017407	0.98388518623845	0.118869126703268	0.983967647929316	-0.00114936909924368	0.0009940264634939
3.2	0.000374230037943945	0.00093434622953612	0.270003708920402	0.953133328938526	0.269993683030266	0.953172861165335	-0.000154761851941867	0.000332844233764092
3.3	0.00142402504952431	-0.00020879678797476	0.415114917510122	0.899502159881319	0.414492219804518	0.899782011770268	0.000867661253087608	-0.000324768138966699
3.4	0.00167014682981733	-0.0017821002436314	0.54919638212196	0.825023127193541	0.549111185101213	0.825138163866073	0.00173855549894616	-0.00154930165269594
3.5	0.00072052668998349	-0.00251482810206507	0.671570039771735	0.729744642135932	0.671584230566229	0.729770874355782	0.00137405298402174	-0.00253516976143569
3.6	0.00117864313223704	-0.00211069245203808	0.775676015413469	0.616268992103538	0.776098452861416	0.615875715685483	0.00205477190859687	-0.00282196050382903
3.7	0.00188370092006329	-0.00315501843865628	0.862055324760492	0.488141904834824	0.862062100583907	0.488268392421736	0.00237030591107438	-0.00409223673230956
3.8	0.00180942215138896	-0.00439442872680874	0.927499595424024	0.34852774540846	0.927527646826641	0.348711070471061	0.00197075500609854	-0.00541339765677283
3.9	0.00187146053009202	-0.00614312441045344	0.970838915759352	0.199435170433249	0.970739696866824	0.200023126451601	0.00107841751228059	-0.00706623059876049
4	-0.000737792086089829	-0.0080760958092987	0.989008407932024	0.0463954300142043	0.989090319359973	0.0464384559454346	-0.00142554580456728	-0.00856764740507441
4.1	-0.00245731948569198	-0.00688171617507812	0.98420571480051	-0.106492242099811	0.984143530744392	-0.106428383647845	-0.00327667794364382	-0.00769358978354519
4.2	-0.00327252479522742	-0.00659052254478899	0.955932823436939	-0.258573255861922	0.956125182589181	-0.258003751949175	-0.00441766350693848	-0.007550007620639
4.3	-0.00395673483087984	-0.0066735596126213	0.904539955854084	-0.403508109548748	0.904540797180687	-0.40348958050201	-0.00584188328394283	-0.00742831206768165
4.4	-0.00453446226070832	-0.00689744968573132	0.830497923490003	-0.53894859374268	0.830418029174213	-0.538932778212554	-0.00709098203913845	-0.00702024810606412
4.5	-0.0062726415168975	-0.00875557811884242	0.737184174747572	-0.660161876018147	0.737060441760179	-0.660016274957311	-0.00906249170763646	-0.00748440654144605
4.6	-0.00970754775815552	-0.0074681485049103	0.626838580692089	-0.767454950621332	0.626823380954232	-0.767225464882178	-0.0117117902537749	-0.0056009363776758
4.7	-0.0113261647531284	-0.0060138528665831	0.499688498965995	-0.85602609213413	0.499805125785094	-0.855780962922866	-0.0131473935212736	-0.00381265768696802
4.8	-0.0126593358221614	-0.00414218752215079	0.360270627771533	-0.923055190988008	0.360564196643413	-0.922865942045784	-0.0141214631902274	-0.00171297767459654
4.9	-0.0129860898598374	-0.00257129714397518	0.212939006367475	-0.967106045658071	0.213198841596102	-0.967054392465168	-0.0142485657170137	0.000702075442406313
5	-0.013474629098535	-0.000874677026657703	0.0613742051982152	-0.989586787723632	0.061532390060326	-0.989458160988048	-0.0137983999605305	0.00335288184911758
5.1	-0.0120258282346829	0.000965400875960323	-0.0942483762337365	-0.987476769946281	-0.0939265206222666	-0.987413349084595	-0.0116088536522276	0.00612866499035118
5.2	-0.0103204547995763	0.00131772851384201	-0.246605448641033	-0.960461671810507	-0.24617688590859	-0.960583429522998	-0.00913055475426029	0.00778688154625236
5.3	-0.00928540306540345	0.000318645648536418	-0.392552063969049	-0.9106770344305	-0.392261908214593	-0.911021968348528	-0.00643961895144455	0.00871257161662424
5.4	-0.00984901928818957	-0.00104140565401841	-0.529494121344804	-0.839429021851195	-0.529357273916531	-0.839719262568063	-0.00428887215089359	0.00861346701316998
5.5	-0.0136341444996873	5.74780985050227E-05	-0.655124365768008	-0.746529245310367	-0.655074279186207	-0.74684437421092	-0.00421913586525738	0.00953327198165515
5.6	-0.0125550640057492	0.00453689668590895	-0.76216238776768	-0.634415514676355	-0.762176005069046	-0.634586327140016	-0.000624071361707587	0.0116745696437733
5.7	-0.0108194131189872	0.00566632233956304	-0.851109998334395	-0.508596605253336	-0.851086235926166	-0.508772173393303	0.0027120325228591	0.011292100621169
5.8	-0.00950056857834522	0.00647946354228658	-0.919837530109023	-0.370239405597411	-0.91988262225409	-0.370532375613648	0.00555412912462134	0.010444885569482
5.9	-0.00834257637966315	0.00567036146429693	-0.966645943587367	-0.222419891471215	-0.966766795041438	-0.222467838329726	0.00822838504276288	0.00845656009595723
6	-0.0114533781038333	0.00477476534814575	-0.987966543146068	-0.068580874423599	-0.987963626480448	-0.0686496911896193	0.00757630669746649	0.00584074267766761
6.1	-0.0126492925077273	0.00963207127772276	-0.986252719963311	0.0840352179989335	-0.986255993732763	0.0839317411254489	0.00854834793727795	0.00680383007664195
6.2	-0.0108534743061251	0.01284207559456	-0.961741741244555	0.236247306989791	-0.961790037813662	0.236065268798889	0.0106731996578062	0.00536260101352791
6.3	-0.00849614450697572	0.0148183057963975	-0.91334799132177	0.383061185919987	-0.913372518578247	0.382932260728945	0.0120869618089942	0.00297482496728753
6.4	-0.00556279011255661	0.0152984740524797	-0.841920472683725	0.520287290323502	-0.841912072899927	0.520073384762789	0.012780860734848	-0.00034861059300612
6.5	-0.00373405070497287	0.0145623173413362	-0.751194441092315	0.642902735948979	-0.751295034769955	0.64273030217521	0.0120748652606773	-0.00389396753363705
6.6	-0.00151168778070054	0.0138171358597383	-0.643484893795686	0.752873247873996	-0.643633721093925	0.752726909427501	0.0110459771996223	-0.00687819026602048
6.7	-0.000485358767313675	0.0120597581627775	-0.518058180295879	0.844186658447489	-0.51817979959339	0.844029165962595	0.0086456015527819	-0.00967017641206317
6.8	-0.000185416672827076	0.0110998361965576	-0.380104070023883	0.91399729603782	-0.380315719059604	0.913922363735472	0.00559225667068761	-0.0110417342799604
6.9	-8.92030551956388E-05	0.0104343172080881	-0.233994454510747	0.961116599035267	-0.234245537148373	0.961112995608225	0.00291069230920164	-0.0114114057309967
7	0.000380267016080902	0.0108912901825523	-0.0828684588179485	0.987308348619714	-0.0831275501649298	0.987278189570948	0.000563849950414753	-0.0109176847192075
7.1	0.00205152247144153	0.0104485950611257	0.0732383675743955	0.988194315755628	0.0730310118512514	0.988182597781197	-0.00081077509182478	-0.0104883233772555
7.2	0.00310956124274918	0.0093138923447326	0.225863039563286	0.963912473067505	0.225607219523069	0.963957234196029	-0.0023057648924371	-0.00987032011004939
7.3	0.00347657677551151	0.00801068696035231	0.372397015706859	0.916918100379837	0.372156509939234	0.917009553305095	-0.00368465781650733	-0.008894187004689
7.4	0.00358572369867671	0.00674886421504144	0.510210770969416	0.84855576403967	0.509992239553577	0.848718518219086	-0.00501810975539568	-0.00780364283075184
7.5	0.00244141545893226	0.00604285361395921	0.637734680139525	0.758340781516373	0.637574778564819	0.758513873186647	-0.00657624318825717	-0.00587369659900076
7.6	0.00333873050857536	0.00663247455456543	0.746468768312833	0.648281524054286	0.746253834807209	0.648443583034929	-0.00592781247900452	-0.00349174086964184
7.7	0.00451382460246578	0.00568235645419024	0.837164872556151	0.524801118875939	0.837014463882005	0.524996785329078	-0.00497585731806444	-0.00222402834735285
7.8	0.00553762958278842	0.00403750658438456	0.908558399062214	0.388515494308633	0.908438251925167	0.388737754230646	-0.00359709287356415	-0.0014767444857589
7.9	0.00553967203492054	0.00113345039286305	0.958097047975901	0.242034718906731	0.958057610636809	0.242260593644634	-0.00237398954443457	-0.00186594988523138
8	0.000704246474971595	-0.00244446284121091	0.981759509589071	0.0891570987006528	0.981831588518185	0.0894483706916349	-0.00404343764507139	-0.00305589102963325
8.1	-0.00277243419892062	0.00165248237983334	0.983141677157453	-0.0621840149169264	0.983266593900595	-0.0619137518657734	-0.00444394883339695	0.000534407291567738
8.2	-0.0028744530596558	0.00453379357367687	0.962107285232756	-0.213842860542387	0.96217410217015	-0.213547513706	-0.00290545378480242	0.00209913717394634
8.3	-0.00228440975398978	0.00707772190742657	0.917025488859955	-0.360918200320251	0.917163879640162	-0.360663066005542	-0.0011382891861804	0.00304131613633854
8.4	0.000245999066743507	0.00857439738010873	0.848633295486706	-0.498768198016549	0.848845406355225	-0.498569772381975	0.00155571186862775	0.00305108160546078
8.5	0.00036707737700091	0.00649211400449332	0.761408315622036	-0.621884349991923	0.76152395672075	-0.621759150988369	0.00241472308126276	0.000213607249651098
8.6	-0.000748489980083169	0.00957431596001129	0.656977561835011	-0.733698443837233	0.657174925105297	-0.733513737619706	0.00215540988616696	0.000954767129736708
8.7	0.00169569393554437	0.0119014128526063	0.534349690385512	-0.826991521803497	0.534631205472057	-0.826883177524982	0.00380015435045407	0.000533224924453616
8.8	0.00519671393237599	0.0126809815078065	0.399177125974851	-0.899281198594787	0.399382791479696	-0.899227473835091	0.00472995846156517	-0.00063194476655362
8.9	0.00940947373268966	0.0118142204676084	0.255467606216537	-0.949304486056513	0.255708809755425	-0.949164993009435	0.00586611482452796	-0.00175286888663745
9	0.0127518570160671	0.00796223497213243	0.106225302511974	-0.979111239083643	0.106586925322354	-0.97908172969561	0.00660277761089893	-0.00392447762078167
9.1	0.0147334277454216	0.00411860518193607	-0.0489149006629848	-0.983488064957203	-0.048562978001886	-0.983503556302095	0.00716848474030848	-0.00564374973953215
9.2	0.0150533493276507	-0.00140342584280011	-0.200782820451057	-0.962751069465783	-0.200428075022916	-0.962822524905724	0.0070903261140189	-0.00820695975749748
9.3	0.0125304924407933	-0.00572247570344588	-0.346952642071715	-0.919753562681515	-0.346596676510871	-0.919818435335953	0.00577572564477833	-0.00977824099247087
9.4	0.00918282392009863	-0.00889885119738815	-0.485029092242763	-0.855877891935367	-0.48470661527102	-0.856025791748685	0.00461840472449741	-0.0106767805850515
9.5	0.00290974253802661	-0.00797343428767983	-0.614170664308779	-0.769538065367353	-0.61396513870899	-0.769675920492719	0.00173693154482284	-0.00932366651797897
9.6	0.00383738471213771	-0.00463263644258978	-0.724472246046084	-0.663084118030972	-0.724201013340914	-0.663269228119203	0.00378363092639187	-0.00716563665371847
9.7	0.00459195154821892	-0.00549147896930774	-0.817612094521414	-0.543264984609534	-0.817367328817196	-0.543533839726243	0.00482362904721659	-0.00829639396142998
9.8	0.00422326000328921	-0.00688548087444218	-0.892106619036523	-0.41022891395518	-0.891898801467495	-0.410503322589523	0.00485591398661328	-0.00909637880570706
9.9	0.00337588960123048	-0.00936076568706226	-0.945481625263094	-0.266081221306798	-0.945370466327003	-0.266409868309429	0.00533330851008982	-0.0104741723689591
10	-0.00329128105858405	-0.0117849758445891	-0.972786546428857	-0.114961251794549	-0.972708232245882	-0.115338045902766	0.00191501283566129	-0.012123520973473
10.1	-0.00665601396290399	-0.00640833967074984	-0.978393832004435	0.0348517904103477	-0.97837476733112	0.0343766209329375	0.00146612827911382	-0.00907332626448674
10.2	-0.00658053668005065	-0.00403959059305007	-0.961924541665311	0.186050546562036	-0.961910131863576	0.185602956108473	0.00254606027175587	-0.00894537424107558
10.3	-0.00665474436581939	-0.00245528602887595	-0.921197598863919	0.333417477770856	-0.921332993889374	0.332880111680136	0.0029253813595183	-0.00963186898462147
10.4	-0.00613180457707183	-0.00251627914143007	-0.856807516563011	0.471929506086506	-0.857071891956247	0.471397872869322	0.0034970937494812	-0.0112919974455244
10.5	-0.00899551251334323	-0.00414859586880124	-0.774006733866978	0.595836393560356	-0.774286713124126	0.595452374858104	0.00191177992539371	-0.014591424392417
10.6	-0.0129327749719452	-0.00138400928397608	-0.674193926597062	0.709848723232544	-0.674617091321905	0.709506209687168	-0.000887766106398368	-0.0150759189850141
10.7	-0.0152931689051774	0.00338757037198938	-0.555687388755224	0.806305927427201	-0.556096301771013	0.806018931974303	-0.00306652510821052	-0.0146358896040032
10.8	-0.0138279911008058	0.00808241630571846	-0.423667552933566	0.882215795181701	-0.424174641568907	0.881987586153499	-0.0033507988321442	-0.0137795699298537
10.9	-0.0113765334348852	0.0119566406112754	-0.282883423218229	0.936312938691741	-0.283367978261983	0.936261112300557	-0.00371610622066058	-0.0137507620027264
11	-0.00869703940895726	0.0145239310815733	-0.135795141864885	0.971465557338109	-0.13633948311396	0.971459492275864	-0.00449435394799858	-0.0139815297647106
11.1	-0.00431255528648773	0.0165604914947936	0.0189697327695044	0.980856118806522	0.0183425569190466	0.980938196007497	-0.0046266348751857	-0.0143237723609928
11.2	2.92273602010963E-05	0.0164568708464131	0.170632867507513	0.965105931617801	0.170115697885396	0.96530765033079	-0.00523469194620455	-0.0150992647319265
11.3	0.00404687986414785	0.0153716138235321	0.317347329039076	0.927108024591473	0.31691918868647	0.927368703826233	-0.00580100778332603	-0.0155688490721758
11.4	0.00723711653746179	0.0122166811566652	0.457285688832225	0.868316013907651	0.456822116860236	0.868574031903899	-0.00664196801884225	-0.0164605722880939
11.5	0.00664094452744187	0.0110132691235142	0.589320806581631	0.78598351254396	0.588963534092774	0.786401070937039	-0.0100808642652543	-0.0156029420096248
11.6	0.0106234524834846	0.0115001441023621	0.70212688603859	0.683285958073809	0.701861460481556	0.683764685028897	-0.00968803110612621	-0.0131313657475599
11.7	0.0144566054791	0.0085263019100454	0.798903300685052	0.567112526089352	0.798664952506847	0.567532771170339	-0.00963070281392834	-0.0128147638141395
11.8	0.0169747463716247	0.00409204578431658	0.877746523354322	0.436862142336749	0.877562460768613	0.437412587602498	-0.0100075120690725	-0.0123503859728896
11.9	0.0184611270506145	-0.00255310711892075	0.936083919567364	0.294647833525327	0.936045962389931	0.295190934679627	-0.00999788321880377	-0.0126135046979315
12	0.0116962001762478	-0.00931897900884043	0.967798007572878	0.144514785313195	0.967786588595283	0.144992201994005	-0.0141031248377431	-0.0132831530295878
12.1	0.00758017230505485	-0.00800862187376186	0.978409422947437	-0.0047025805160358	0.978384315217238	-0.00423176516379512	-0.014977304132103	-0.00915785373171679
12.2	0.00522595091590821	-0.00838859756155334	0.966859554258272	-0.156523498252677	0.966965290251367	-0.156087571450965	-0.0147043707022195	-0.00715175091252713
12.3	0.00278027869959797	-0.0079761561868273	0.930737057229467	-0.305076494710622	0.930921855559289	-0.304719306630783	-0.0144640299864488	-0.00517614583217337
12.4	0.00154188925557009	-0.00784171215735843	0.870828087734115	-0.445567892429961	0.870960174325083	-0.445194598137186	-0.0130332411992801	-0.00359401987018399
12.5	-0.00216015577124976	-0.00978580738869611	0.792230287013456	-0.571803674382009	0.792684599786415	-0.571411480746168	-0.0133653844512604	-0.0043953044757846
12.6	-0.00610176152730174	-0.00595032937142535	0.696379588472397	-0.689516314704116	0.696724002407993	-0.68920599666373	-0.0137249941389238	-0.00172928407257184
