# GHZ S RI R 50
0.2	-0.000137507971445611	-2.21641750406117E-05	0.949086724458176	-0.307943555371072	0.94886047157098	-0.308085455943432	2.87452313411671E-05	0.000128939311367456
0.3	-0.000283795436488676	0.000195363898269915	0.88911077136566	-0.451640140957939	0.888973337539922	-0.451693344923153	-8.51437690740553E-05	-5.11589081440396E-05
0.4	-0.000122057816768345	0.000282141714246043	0.80756959810264	-0.583913041196337	0.807609691645892	-0.58405264860914	4.95384393035175E-05	-0.000118512843536333
0.5	-0.000328917184429949	0.000404918046356585	0.706826558395257	-0.702146711319249	0.706715963919205	-0.702242553984959	6.25479808963099E-05	-0.000284009962639481
0.6	-0.000321090793524285	0.000590140212686308	0.588879860271324	-0.803222136213586	0.58869032356908	-0.803225020859615	-2.12389617386898E-05	-0.000399026605727171
0.7	-0.000345513420109052	0.00096735740609423	0.456764681249217	-0.884528568602372	0.456690663010059	-0.884562931660421	-4.42419268467954E-05	-0.000590751419033439
0.8	-0.000126043688924689	0.00105601573682175	0.313742063258565	-0.944517860439296	0.31362357140025	-0.944431150720104	-0.000183623940677163	-0.000710777527411557
0.9	4.48315914468842E-05	0.00139554182587894	0.16323508260272	-0.981468766293177	0.163086145042193	-0.981425917871517	-0.000341098161282819	-0.000877701549855771
1	0.000315916721878124	0.00121518441100391	0.00878286983491674	-0.994623677399957	0.00866484831693073	-0.994594001951836	-0.000501453490033815	-0.00132934106692364
1.1	0.000453595064499023	0.00120833444225821	-0.145113111161019	-0.983718574767657	-0.145760282432456	-0.983683391154853	-0.00121004302005891	-0.00149826883027765
1.2	0.000860634683610911	0.000232294030510815	-0.296782532214795	-0.948905852960828	-0.296775572950901	-0.948961499722069	-0.00141219524419814	-0.00151472098861079
1.3	0.00115444059783291	-0.00132149110393646	-0.440346786585372	-0.891072356988239	-0.440438829917045	-0.891096794649354	-0.00078446297258343	-0.00102620607538391
1.4	0.00132054916875019	-0.00328327736944041	-0.573090776587955	-0.811818649966263	-0.573164511185748	-0.811719136948518	0.000522867124595326	-0.00118189947990578
1.5	0.00123283311020215	-0.00413560045679546	-0.692208920602303	-0.712692426017823	-0.692233490076941	-0.712620426228689	0.00161950405871694	-0.00180705061678236
1.6	0.00109601922014293	-0.00456337055282029	-0.793859941696623	-0.596826031267921	-0.794289005246211	-0.596325830409265	0.00153291771458445	-0.00244649614006185
1.7	0.000843098761454418	-0.00453087162932372	-0.876629500072508	-0.466215742702047	-0.876933513413489	-0.465726215331714	0.00106874806288815	-0.00283551746914862
1.8	0.000417497370585705	-0.00450183731201006	-0.938359918423987	-0.323992504937274	-0.938375353439858	-0.323983045849144	0.000288131184778335	-0.00326494987641393
1.9	8.60531945984909E-05	-0.00433202369519268	-0.977191677882474	-0.174222144505934	-0.977236162619317	-0.174274833883417	-0.000508519773572488	-0.0035776546899785
2	-0.000567260345150941	-0.00424561193502753	-0.991919803824609	-0.0209507356351868	-0.992014272003931	-0.0203018754358998	-0.00187863512167781	-0.00352322504043044
2.1	-0.000897390354275791	-0.00391244938948917	-0.982842878584639	0.134341196954642	-0.982942454083058	0.133857539278104	-0.0025689050125707	-0.00275020685259404
2.2	-0.0015900555066128	-0.00392175475408081	-0.950126411223071	0.284479486489102	-0.950165111476495	0.284613107952888	-0.00298736063242727	-0.00233796654546283
2.3	-0.00229829336330134	-0.00362254095341701	-0.894346067347912	0.428384188760034	-0.894182393273148	0.428472506260762	-0.00342560139717053	-0.00203075046050903
2.4	-0.00316158819778059	-0.0032573266254929	-0.81631073898005	0.56243413316099	-0.81660187713263	0.561972844146246	-0.0038066802826506	-0.00190474292478667
2.5	-0.00392363010618016	-0.00251675437010618	-0.719307372704077	0.681974176900265	-0.719609319855622	0.681594054104083	-0.00432879435750418	-0.00211498672804173
2.6	-0.0044125811560292	-0.0015334362319679	-0.605160467330796	0.784971313149221	-0.605081332606658	0.784911989507581	-0.00484387930991889	-0.0015795332511919
2.7	-0.00419918012783679	-0.000594209702134966	-0.475851236792248	0.869150184440556	-0.47582179791718	0.869164256115349	-0.00495934409691111	-0.00100026657459495
2.8	-0.00368133255047559	-0.000114768066141623	-0.335388878754862	0.932241051903824	-0.335270852073811	0.932325437677864	-0.00460587615287577	-0.000432204464317229
2.9	-0.00260495400634009	9.28218880196021E-06	-0.186766710853362	0.972785256550906	-0.186762273594613	0.97283996901402	-0.00393656410287222	0.000146868731403316
3	-0.00178765875650069	-0.000221411520869454	-0.0334196103398244	0.990034973818303	-0.0334838633649515	0.990106304848654	-0.00297637979608356	0.000665868228768754
3.1	-0.000823346034559161	-0.000536345261010256	0.11988573661446	0.983170382598313	0.120532963914619	0.983251666667255	-0.00181255048836937	0.00102181728490698
3.2	-0.000334765159545004	-0.00108030543674217	0.271532267231925	0.952389042165483	0.271522311157788	0.952428579380562	-0.000949795286160759	0.000915404080261343
3.3	0.000380803652204096	-0.00165726529790819	0.416652912669026	0.89840832028518	0.416030958116822	0.898689239528065	0.000118044586832625	0.000623282400539926
3.4	0.000648140451015482	-0.00241282488190179	0.550491124106773	0.823212674672457	0.550406236505336	0.823327798581115	0.00106547957497189	-0.000171649072703263
3.5	0.000978349340513471	-0.00306739247945582	0.671544535298462	0.72779365933693	0.671558739754048	0.727819834490447	0.00143402546321073	-0.00108536090250209
3.6	0.000899549171163348	-0.0038233019682926	0.77572993802106	0.615054906994063	0.776151680757854	0.614661493982445	0.00167882827512117	-0.00185763788861343
3.7	0.000769292371815896	-0.00459973267880446	0.86206893167658	0.486666344258838	0.862075867403958	0.486792731698107	0.00173837299009841	-0.00272722195250795
3.8	0.000193981932113122	-0.00523279283952715	0.927025519256393	0.346951627908403	0.927053784526352	0.347134731233877	0.00133633530067401	-0.00374508670626952
3.9	-7.14424419414516E-05	-0.00574824287651	0.96971998126283	0.198296366355632	0.969621423217958	0.198883625358255	0.000347626578240425	-0.00494373862223614
4	-0.000811268906244011	-0.00609300562450225	0.988510016017067	0.0461321077830104	0.988591895650288	0.0461750917204448	-0.0011912088346506	-0.00573608604012802
4.1	-0.00118894254396947	-0.00645974438282305	0.983807753374436	-0.107641581218988	0.983745662880546	-0.107577665852613	-0.0026882136787685	-0.00582187806340514
4.2	-0.00217707235671853	-0.00695819238873157	0.954890834374216	-0.259619116931092	0.955083788257607	-0.259050283378354	-0.00405701064262568	-0.00582156597893977
4.3	-0.00319871968186186	-0.00754211614254011	0.903291480687275	-0.404106156053738	0.903292340986718	-0.404087644675848	-0.00556525197445616	-0.00587058240227684
4.4	-0.00476822067141781	-0.00774535177426903	0.82959287180798	-0.53926781661885	0.82951303688505	-0.539251949072258	-0.00735152715598872	-0.00558480009070768
4.5	-0.00627902617059934	-0.00767821706383863	0.735994070319879	-0.661436062596227	0.735870598383032	-0.661290248949236	-0.00939377783502259	-0.00504338812706596
4.6	-0.00783070638217647	-0.00688870402597579	0.62445481526835	-0.767763174279691	0.624440107720041	-0.767533951163507	-0.0113738521551641	-0.00347454429662701
4.7	-0.00892584669411231	-0.00645660469384388	0.497547939569692	-0.855434925688334	0.497664762828611	-0.855190372057636	-0.0128543535232043	-0.00185387505441541
4.8	-0.0101619365834049	-0.00563898171391023	0.358481576409851	-0.922094520480172	0.358774939020928	-0.921905956981829	-0.0138096272771634	0.00011088653575015
4.9	-0.0109050321908235	-0.00494909511888499	0.211093820318267	-0.966105776278717	0.211353377900459	-0.966054611129647	-0.0140228542309444	0.00242046767001023
5	-0.0115590777793897	-0.00405340107991542	0.0591206950556979	-0.987155592436174	0.0592787427737136	-0.987027633430443	-0.0134101789264725	0.00497577747777182
5.1	-0.011632816419279	-0.00336350807494571	-0.0947045402286983	-0.984471383131539	-0.0943835939898704	-0.984408390763503	-0.0116767614153355	0.00748202117924425
5.2	-0.0117851509678231	-0.00249676638946585	-0.246385744400116	-0.957906399584176	-0.245958326839367	-0.958028029364116	-0.00949337729398953	0.00949775378841385
5.3	-0.0118658226528866	-0.001883454227555	-0.392013914004819	-0.908218677911275	-0.391724647711877	-0.908562892630546	-0.00685845705736111	0.0108900404674105
5.4	-0.0119838941065077	-0.000802982647009581	-0.528400547339761	-0.836598149718291	-0.528264281701295	-0.836887600320418	-0.00441745117169788	0.0115431906674674
5.5	-0.0121493362810928	0.000329266891870626	-0.652091819912821	-0.744304456632985	-0.6520416609813	-0.744618379379778	-0.00262358215283389	0.0120918036421867
5.6	-0.011970988502081	0.00186632948685194	-0.759500346541262	-0.6339447145603	-0.759513700597098	-0.634115141078704	-0.000132564235847488	0.0128022440133287
5.7	-0.0119902477669321	0.0031775278610716	-0.848786031963155	-0.508407967029847	-0.848762137263636	-0.508583140057365	0.00241127420471171	0.0128771837105041
5.8	-0.0118342607823464	0.0051246658263402	-0.917391543314606	-0.370378286340262	-0.917436226710187	-0.370670648619869	0.00488971835321494	0.0124960442884539
5.9	-0.0112299850306408	0.00697408892513042	-0.96389132569458	-0.223467584066183	-0.964011799525922	-0.223515612190329	0.0071032224778598	0.0115153012525796
6	-0.0100660272311939	0.00907150654378579	-0.986747905638899	-0.0709844919840519	-0.986744819713559	-0.0710532284609866	0.0083810939876942	0.0103814259740995
6.1	-0.0080953210228325	0.0104456367395993	-0.985715010005274	0.0828703372106391	-0.985718165133995	0.0827669230831359	0.0102392322045553	0.00953632699725966
6.2	-0.00636381745401078	0.0109148308105885	-0.960851310236796	0.235017029824718	-0.960899369762596	0.234835156682192	0.0120601237065875	0.00735749710120891
6.3	-0.00538420166108654	0.0107979512710825	-0.912654246045907	0.38136817689686	-0.912678572933924	0.381239388237892	0.0129629511670497	0.00434231661292819
6.4	-0.00473206840017227	0.0108335216917413	-0.842187534176003	0.518383356123527	-0.842178760563082	0.518169632740333	0.0127868419193875	0.00102572090178355
6.5	-0.00418939545408066	0.0108765514820422	-0.751515893539173	0.642568480456698	-0.751616409234397	0.642395994897726	0.0117936563291714	-0.00202658922188632
6.6	-0.0031756213755784	0.0111223642637305	-0.642749410888193	0.751532860291564	-0.642897967215411	0.751386696188173	0.0105192151632287	-0.00452549878691686
6.7	-0.00207279219528621	0.0110160824637317	-0.518175712668223	0.842216894746041	-0.518296953663667	0.842059520660714	0.00854655990900995	-0.00675959213753569
6.8	-0.000764369185617273	0.010846543885727	-0.381022141709356	0.912330744006593	-0.381233424565553	0.912255583503202	0.00603629585647874	-0.00821158729312303
6.9	0.000485926132113698	0.0101541110263147	-0.234860890033182	0.96028395474664	-0.235111815627351	0.960280089968502	0.00357769819922521	-0.00885515859413399
7	0.00176655952677247	0.00938188592983358	-0.0830176606099941	0.985351567958674	-0.083276235732082	0.985321386399201	0.00122216401919213	-0.00897514940929425
7.1	0.00265199566299793	0.00822101445094886	0.0711629525509171	0.986245881503412	0.0709560583951194	0.986233785372393	-0.000875831116814857	-0.00857760147626799
7.2	0.00334789271776177	0.00707257321249589	0.223451691330739	0.963093178145508	0.223196121900977	0.963137319972456	-0.00262924316178424	-0.00762157221120203
7.3	0.00351157481326741	0.0057186653188756	0.370221601700472	0.916646282585303	0.369981179273747	0.916737171627753	-0.00409816597642036	-0.00631917320612603
7.4	0.00351167439148769	0.00450715221046377	0.508039508082651	0.84801087465853	0.507821066953425	0.848173019438539	-0.00530377091375345	-0.00483594884069288
7.5	0.0030595945937781	0.00322194581856083	0.633702791785288	0.758645340074404	0.633542698060673	0.758817489475242	-0.00611640867239736	-0.00295986447486083
7.6	0.00261593808873934	0.00219290319296686	0.743629499359323	0.650857536375539	0.743414040706446	0.651018693314352	-0.00596880201820617	-0.0012345426312274
7.7	0.00162764239415893	0.00161854423634721	0.835496840487399	0.527535941557124	0.835345791519012	0.527731128203451	-0.00559558837871093	0.000245134122887502
7.8	0.000974918810375512	0.00165717654318227	0.907382389566988	0.391291099099396	0.907261563192001	0.391512994761224	-0.00468690778275541	0.00144076687411898
7.9	0.000354841127620105	0.00196421087279845	0.957059535863864	0.245475661079065	0.957019284410879	0.245701355257294	-0.00371213495209905	0.00215618536194752
8	3.47934668185168E-05	0.00268147079867249	0.983125359154249	0.0936516433822179	0.983196281224455	0.0939437556473003	-0.00388161965419696	0.00279358024554805
8.1	9.71505448210955E-05	0.00363386073254606	0.985583014905631	-0.0599362499444273	0.985707564899758	-0.0596650533738981	-0.00326470758217868	0.00456384303183469
8.2	0.000598536540091546	0.00432187123287041	0.964156134945171	-0.212226291879605	0.964222457594718	-0.211930313687472	-0.00191796712709119	0.0057532919267773
8.3	0.000974492945876816	0.00490174982705497	0.919227016910955	-0.359329823459985	0.919365022298198	-0.359073988616279	-0.000161013353828465	0.00625603082246434
8.4	0.00167993485342843	0.00528031006790581	0.85195765359119	-0.497519396645429	0.852169689094651	-0.49731992586471	0.00175576593276592	0.00582680081849241
8.5	0.00207519179205941	0.00548307613517972	0.764474273249468	-0.623263494833984	0.764590185335357	-0.623137779850686	0.00275915999919794	0.00442471275714188
8.6	0.00291461087018524	0.00576291757929014	0.658427598829772	-0.734411400443538	0.658625148984423	-0.734226292024344	0.0032469316963698	0.00386958228204924
8.7	0.00367415839788684	0.00571138170816769	0.536243880376706	-0.827504448501381	0.536525668124118	-0.827395568399341	0.00413772009907873	0.00320000513388286
8.8	0.00469469522515424	0.00536375052361904	0.401331480132773	-0.900491147311031	0.401537478795596	-0.90043700544457	0.00482664433143381	0.00216673139511004
8.9	0.00564014985551138	0.00471289196896345	0.256824421565469	-0.951692855487902	0.257066179682332	-0.951552815957447	0.00559310618742988	0.000968674810379878
9	0.00680497631367853	0.00352136561869874	0.106076064449301	-0.980105582722149	0.106438051824253	-0.980076138146802	0.00601761062229435	-0.000571636579125464
9.1	0.00786297296895525	0.00217986416778129	-0.0474722110614211	-0.98458338304424	-0.0471198995718251	-0.984598355999545	0.00632987160240042	-0.00178858735244098
9.2	0.00900423928301994	0.000265763086222604	-0.199830397643283	-0.965023395953242	-0.1994748185497	-0.96509449513093	0.00677858452464257	-0.00308515189628686
9.3	0.0096005482198873	-0.00185331290231221	-0.347171323599384	-0.922182650958544	-0.346814463976773	-0.922247442201187	0.00696092638738845	-0.00432000280981064
9.4	0.00981492554770858	-0.00439987295020802	-0.485987308295133	-0.857115859109406	-0.485664356895196	-0.85726406490034	0.00677849805546234	-0.00566051740318283
9.5	0.00885560158544062	-0.00655710120440169	-0.613299912246467	-0.770964736681533	-0.613094047235639	-0.771102343951264	0.00557049164414967	-0.00599550184304326
9.6	0.00772441010152303	-0.00877250949095106	-0.725218890349412	-0.666003898818256	-0.724946650070223	-0.666189028554451	0.00533101083651013	-0.00576477105029671
9.7	0.00554504689323964	-0.0103464657508044	-0.819469814783527	-0.54531119448358	-0.819224195616518	-0.5455806148012	0.00516666230990332	-0.00614204851708943
9.8	0.00304754930698317	-0.0112746728575152	-0.894001145776445	-0.411421069541738	-0.893792776872316	-0.411696036578438	0.00480204415039804	-0.00654012348642334
9.9	0.000342200555896558	-0.0112285705974539	-0.946778867321499	-0.267474524888246	-0.946667192997378	-0.267803604059003	0.00448236446096714	-0.00720890828832434
10	-0.00237525089016273	-0.0107707111630916	-0.976238671228603	-0.117213340753212	-0.976159357546505	-0.117591408538837	0.00294265719268822	-0.00768564515646956
10.1	-0.00475479413698489	-0.00951187477653349	-0.982208988340315	0.0353520223627651	-0.982190025722582	0.0348749866343216	0.00217273627767476	-0.00682637226390818
10.2	-0.00695018134702211	-0.00823098352950851	-0.964708598817723	0.187144366583997	-0.964694394822074	0.186695424493753	0.00209520597286566	-0.00667319947142462
10.3	-0.00927045249336728	-0.00615826245257265	-0.923801053276103	0.334438335704669	-0.923936875145859	0.3338994464728	0.00173802721826994	-0.00717692479716987
10.4	-0.0110121136009782	-0.00374726413898934	-0.860447878167119	0.47342749799282	-0.860713069225082	0.472893618903756	0.00116538559224977	-0.00815883029873829
10.5	-0.0122672502747433	-0.000552857456047616	-0.776753322030129	0.600658368655435	-0.777035611792942	0.60027295248583	-8.63182324375449E-05	-0.00930926311423946
10.6	-0.0121076190316693	0.00279463424438489	-0.674263388058722	0.713926295606941	-0.674688816910065	0.713583922952773	-0.00145609129229879	-0.00947809940411428
10.7	-0.0109027325209196	0.00597718625114032	-0.555263999427984	0.809810418934719	-0.555674702423903	0.809523625189584	-0.00208349796901191	-0.00937644196206876
10.8	-0.00877541839201069	0.00807844488969237	-0.422780007429028	0.885837455632654	-0.423289140524559	0.885609802360838	-0.00243936490393937	-0.00967785523204524
10.9	-0.00660216895976279	0.00975905086435288	-0.280480170425426	0.940400088300224	-0.280966503699737	0.940349817091055	-0.00327551653630106	-0.0102317603102512
11	-0.003998892991593	0.0105935112609392	-0.131362438445571	0.972724984441145	-0.131907158939683	0.97272144835281	-0.0042492485393922	-0.0105925614719829
11.1	-0.00122380684194194	0.0110885974594559	0.0214463527987754	0.981109870445536	0.0208191909229606	0.981193552666483	-0.0050303801703897	-0.0107911591886832
11.2	0.00165071904404227	0.0106356244643682	0.173182001907468	0.965670627953317	0.172664801089344	0.96587382516283	-0.00571045907708334	-0.0110717390472878
11.3	0.00436579958029465	0.00973940543509194	0.320547964329692	0.927099441074703	0.320120180946033	0.927361718142339	-0.00624211041432963	-0.011245416111268
11.4	0.00674752481283908	0.00801756810631034	0.460470092110814	0.866375431227507	0.460007608828203	0.866635145990193	-0.00706564025942465	-0.0114522864820527
11.5	0.00857754435086147	0.0063306975833946	0.589526542162709	0.784141413508037	0.589170300457531	0.784558859664569	-0.00876878341453303	-0.0109726761707557
11.6	0.0101045050868032	0.00384695194861952	0.70351989901911	0.682974856829687	0.703254845445035	0.683454289171145	-0.00964435622385258	-0.00976441154521133
11.7	0.01075843174115	0.00155030408616243	0.800796578810055	0.565750114666088	0.800558993520772	0.566171220577052	-0.0103257721764917	-0.00892911365407178
11.8	0.0106518211203298	-0.000740050546629555	0.878870373275745	0.434596835561954	0.878687730984308	0.435147753742121	-0.0111894809839077	-0.00812652507736182
11.9	0.0101642965795118	-0.00216781439621875	0.935621175098395	0.292902623383418	0.935584099662702	0.293445249303496	-0.0123246417732777	-0.00703987663228944
12	0.00942991009685716	-0.00356674602834679	0.969123324552926	0.144282817024589	0.96911209796888	0.144760861381258	-0.0139039945674372	-0.00578966306808376
12.1	0.00932497620343778	-0.00442443374051239	0.979608037438581	-0.00732534205537959	0.979584157849899	-0.00685387659110743	-0.0143351615087922	-0.00292504541405129
12.2	0.00881767562819542	-0.00627646993123401	0.966608614510327	-0.159040760845034	0.966715491065934	-0.158605037794076	-0.0136702521656701	-0.000921787090139358
12.3	0.00768783985489247	-0.0079854322194331	0.930156226397317	-0.306798818628445	0.930341684645845	-0.306441979133482	-0.0127249459591714	0.000384591970917402
12.4	0.0057403968739735	-0.00966646768851988	0.871420284670881	-0.447146830287204	0.87155297302889	-0.446773213731647	-0.0117109397934515	0.000968433346768338
12.5	0.00323608595488021	-0.0106771988035626	0.791707964727577	-0.576468643600644	0.792164991155884	-0.576077424805092	-0.0117002322362254	0.000781880661364813
