# GHZ S RI R 50
0.2	-0.000471458668285057	4.82772445004977E-05	0.94843137187921	-0.307946471158854	0.948205230980842	-0.308088236717154	-0.000330326500542259	0.00022698107267302
0.3	-0.000528359993620212	0.000355108445874207	0.888383746126959	-0.451534855012052	0.888246395648957	-0.451587989411849	-0.000361501258939338	0.000169426051979309
0.4	-0.000182306584461545	0.00048017861868715	0.806732813362295	-0.583657081339147	0.806772833971353	-0.583796584128935	-3.24427902559741E-05	0.000172401814167473
0.5	-0.000222987163594553	0.000311026323426265	0.705960381890363	-0.701464895835678	0.70584989678968	-0.701560619098098	0.000153144238302855	-0.00027999888324547
0.6	-0.000475403611309943	0.000516689756766817	0.588374930103976	-0.802412622305022	0.588185574680431	-0.802415517790561	-0.000218981733170383	-0.000343758955949323
0.7	-0.00037864049067647	0.00101461241989562	0.456339813856984	-0.883674519773272	0.45626586705076	-0.883708850978309	-0.000117058208535108	-0.000351029111534576
0.8	-3.7458951635222E-05	0.00108949291007583	0.313442707303302	-0.943494915506246	0.31332433894088	-0.943408303158008	-9.21306784161249E-05	-0.000421527700850191
0.9	0.000315035768828013	0.00148753164918471	0.163231207479367	-0.980249308609778	0.163082441665392	-0.980206541401199	3.423048378593E-05	-0.000487325798467127
1	0.00102631246921646	0.00079531214306176	0.0092787951032308	-0.993614111552461	0.00916087783285617	-0.993584526010872	0.000463224635683946	-0.00154966367734629
1.1	0.00028708213106266	0.000567427636965995	-0.144748145578543	-0.982884510836517	-0.14539475360895	-0.982849514100216	-0.00114966651872422	-0.00212147362143615
1.2	0.000432603472642066	0.000198151471665192	-0.296217718848875	-0.94795849072795	-0.296210752741401	-0.948014075669511	-0.00173841687566057	-0.00163470216531285
1.3	0.000449013144174125	-0.000915100531645711	-0.439461343298947	-0.890239577329184	-0.43955327071459	-0.890264026346466	-0.00157630184979893	-0.000722407064849359
1.4	0.000309647332599112	-0.00235651694551246	-0.571995603650928	-0.811348405990328	-0.572069325310873	-0.811249040971692	-0.000733164386905165	-0.000231638457371472
1.5	-0.000256291419101883	-0.00287571901177151	-0.691431225526795	-0.712401011230519	-0.691455802136933	-0.71232907465622	-0.000247293010424361	-0.000336158112818451
1.6	0.000459351397105063	-0.00236222849079092	-0.792697661966866	-0.596294512214924	-0.793126323972643	-0.595795058322888	0.000591483633447651	0.000297681167155248
1.7	0.00119021229745358	-0.00293412933872687	-0.875144520649186	-0.466127092172274	-0.875448424982489	-0.46563842129083	0.00135266469662976	-0.000551426840156145
1.8	0.00117174824710364	-0.00360367869657836	-0.936913922024965	-0.324369306971871	-0.936929345581833	-0.324359872627472	0.00119802374426021	-0.00170491160442844
1.9	0.00114473736815878	-0.00430532644033124	-0.976008298670709	-0.174816695641344	-0.976052693760637	-0.174869364262094	0.000856688646219258	-0.00305378840203934
2	-0.000587701839106133	-0.00531235248764767	-0.990436344210272	-0.0214894268603213	-0.990531044929634	-0.0208415834766944	-0.00170889840357005	-0.00430266735110306
2.1	-0.00133312322550619	-0.00386253333006657	-0.981430560781485	0.132863327137583	-0.981529355054042	0.132380321496521	-0.00294177594430551	-0.0022836661509214
2.2	-0.0014493344558621	-0.00385845857197286	-0.949329073792653	0.282714766743125	-0.949367921436059	0.28284816005319	-0.00267175147184042	-0.00177196072009293
2.3	-0.00191492624869008	-0.00381646046011966	-0.893949607281247	0.426587656645911	-0.893786249359851	0.426676112339102	-0.00270910810733889	-0.00177543594543671
2.4	-0.0024524255364197	-0.00386654907871927	-0.816064252540976	0.560558031084374	-0.816354364642374	0.560096919192839	-0.00262021848428282	-0.00228230851073909
2.5	-0.00384638029515647	-0.00445283372576133	-0.719616081719521	0.679383551404385	-0.719916751668445	0.679003388891436	-0.00391412768715851	-0.00420928621719393
2.6	-0.00582496877687482	-0.00270238714815153	-0.606619504895078	0.782919239563799	-0.606540284582731	0.782860152095389	-0.0063474089029623	-0.00295929574366671
2.7	-0.00581883116081697	-0.000710779476503632	-0.477532036269966	0.8676616436802	-0.477502643278848	0.867675773240137	-0.00691402585961017	-0.00113126291592309
2.8	-0.00495078164128287	0.000628699262735434	-0.33727510969068	0.931042736454081	-0.337157327000868	0.931127340290466	-0.00627813309024477	0.000532258018809102
2.9	-0.00328255932888977	0.00109809035406883	-0.1891125363504	0.971807588220255	-0.189108238844172	0.97186228320372	-0.00498642391810944	0.00162646590908029
3	-0.00214263992489145	0.00111952909860225	-0.036384274968467	0.990251170710876	-0.036448761323253	0.990322332774597	-0.00368439746707267	0.00256627554865743
3.1	-0.000251591875058132	0.000829928112352531	0.117816027118757	0.984105731718535	0.118463519541505	0.984188487942192	-0.00143209984756529	0.00313208958914691
3.2	0.000688025322785674	-0.000292281669051144	0.269653565248103	0.953430204336943	0.269643520763235	0.953469739926097	4.09407667698254E-05	0.00245743340181581
3.3	0.00156284204513432	-0.00138506008252274	0.4148384273154	0.899872259924045	0.41421547648467	0.900151918736364	0.00137819546787025	0.00159193576201368
3.4	0.00180770856643199	-0.0027939478495602	0.549023714973001	0.825442487642514	0.548938452512825	0.825557521397219	0.00231827808018828	3.24195058466854E-05
3.5	0.00124189381340178	-0.00357797157626648	0.671492530370964	0.730155899097644	0.671506715871047	0.730182142738569	0.00163426004402243	-0.0010114096434513
3.6	0.00170559833475521	-0.00371169800403371	0.775655579834866	0.616684521841136	0.776078254881257	0.616291293313312	0.00245084341561512	-0.00096285455481385
3.7	0.00206259306212592	-0.00499528080486787	0.862124926746286	0.488564167433833	0.862131661871142	0.488690691597952	0.00316418529604787	-0.00229970258143447
3.8	0.00163955675720406	-0.0062165264884891	0.927664688487854	0.348914601567437	0.927692691860166	0.349097989009973	0.00305995276376703	-0.00399203715619542
3.9	0.00144268813576121	-0.00765256279364472	0.971063079022308	0.199750528244426	0.970963675301413	0.200338625758543	0.00220698301860106	-0.00633807908140674
4	-0.000788281212907821	-0.00912536812758552	0.989246441028305	0.0466759932063075	0.989328361518554	0.0467190523063203	-0.00108669574889704	-0.00851488476224943
4.1	-0.00206225796755725	-0.00835735736970956	0.984502773417506	-0.106244215697332	0.984440554520071	-0.106180357412582	-0.0037681592474927	-0.00728739699197759
4.2	-0.00307143939839335	-0.0084532981726813	0.95626581243458	-0.258383617566008	0.956458069128106	-0.257813904827747	-0.00516891872715871	-0.00669374386274343
4.3	-0.00411558662362162	-0.00859999130801271	0.904897967745939	-0.403362408444062	0.904898804080989	-0.403343874155662	-0.00663171744583637	-0.00622232902290977
4.4	-0.00510867687583072	-0.00852420574313299	0.830900776453861	-0.538839521865156	0.830820854693167	-0.538823726967835	-0.00770661495798004	-0.00569315479487884
4.5	-0.00669470194047264	-0.00950097549592168	0.737672705852436	-0.660149251903152	0.737548879074927	-0.660003640464277	-0.00991049835022136	-0.00646567770301971
4.6	-0.00916835021788353	-0.00804834828834416	0.627313981361658	-0.767597352104289	0.627298710910033	-0.767367775446439	-0.0131852729028156	-0.00417995448958545
4.7	-0.0101522398664498	-0.00703954595575673	0.500109679580587	-0.856274946368023	0.50022629774041	-0.856029683461118	-0.0147172598726578	-0.00172457348301191
4.8	-0.0112016733529168	-0.00579148632871588	0.360632573065169	-0.923392616178175	0.360926233090701	-0.923203218520939	-0.0154973743030951	0.000932033744588625
4.9	-0.0115878981796575	-0.00483508399867112	0.213226327536024	-0.967543777317538	0.213486281423038	-0.96749204967459	-0.0152633238722324	0.00373469783859079
5	-0.0122147595266252	-0.0037227582547046	0.0614988616537963	-0.990107432113381	0.061657118703458	-0.989978722266251	-0.0145356676256583	0.00673326936483266
5.1	-0.0114563094205995	-0.00260369886361961	-0.0942672810704552	-0.987966559575711	-0.0939452684481262	-0.98790309843973	-0.0116346222661663	0.00993918240967416
5.2	-0.0108465657254925	-0.00226356227919606	-0.246730510537666	-0.96091902853943	-0.246301743814147	-0.961040847664513	-0.00822718975911466	0.0113810492730142
5.3	-0.0106114958822511	-0.00257074695557979	-0.392785704103551	-0.911088770701692	-0.392495428588129	-0.911433883405131	-0.00496384301844211	0.0115247459804862
5.4	-0.011193588744667	-0.00282887654999686	-0.529847533089307	-0.839754034976153	-0.529710658454063	-0.84004442855049	-0.00302104129972578	0.0103581850482174
5.5	-0.0137926366899898	-0.00137393276115082	-0.655527783467608	-0.746686777004732	-0.655477740715521	-0.74700203798996	-0.00416699409520086	0.0111143945700407
5.6	-0.0125413018737251	0.00209257710260346	-0.762544911617868	-0.634473305480335	-0.762558567969498	-0.634644172248725	-0.000659221705727965	0.0141549882236447
5.7	-0.0114714152630909	0.00297478030127693	-0.851487186709785	-0.508553318649106	-0.851463457911726	-0.508728945756552	0.00324200037700173	0.0138786420829556
5.8	-0.0107823189111611	0.00419139112229689	-0.920173024437361	-0.370076181912129	-0.920218209706063	-0.370369213331284	0.00648924873751242	0.0125624624048781
5.9	-0.00985538615817716	0.0045012085194345	-0.966864193047492	-0.22215334212681	-0.966985078032089	-0.222201258804144	0.0090626506187421	0.00954692577914961
6	-0.0115292216335522	0.00485307987716134	-0.988044217697846	-0.0683414583529435	-0.988041317808535	-0.068410280124839	0.00678450258534378	0.00619773078236355
6.1	-0.0110741792692132	0.00878733017892529	-0.986286628620616	0.0842511110812996	-0.986289924738057	0.0841476294310065	0.00646257666734957	0.00844442451543275
6.2	-0.00893275259607704	0.0107525979487057	-0.961715337316856	0.236434903991833	-0.961763669447542	0.236252871451815	0.00866304877538942	0.00833179432414641
6.3	-0.00691367037378062	0.0117581574461412	-0.91328434798514	0.38319881738897	-0.913308894827189	0.383069896639954	0.0108259022419567	0.00683607126599749
6.4	-0.00473883666379307	0.0117612491794217	-0.841862750829936	0.520362255664562	-0.841854371461942	0.520148351389719	0.012557909234473	0.00359273939902505
6.5	-0.00356481314473726	0.0109891879209919	-0.751199313543855	0.643000127800981	-0.751299926369963	0.642827689519896	0.0124789013173618	-0.00031245446362296
6.6	-0.00209282406154088	0.0104418773054345	-0.643425643059293	0.753010577966339	-0.643574500095291	0.752864249932214	0.011958777300644	-0.00377664335514354
6.7	-0.00142729874308169	0.00937134107149753	-0.517954024665195	0.844293384519712	-0.518075671431226	0.844135903959315	0.00961710624587903	-0.00730878872701171
6.8	-0.00093533583506891	0.00899751721914129	-0.379987165347436	0.914075472076392	-0.380198830668726	0.914000567177866	0.00612906746659052	-0.00919752069197877
6.9	-0.000357651138784883	0.0085611893718105	-0.233864433654063	0.961209849732529	-0.234115532035676	0.961206283731586	0.0027407711041471	-0.0096388347820242
7	0.000589876549966009	0.00873822388990035	-0.0826093857783127	0.987389350688279	-0.082868500647229	0.987359259130664	-0.000160785621749689	-0.0086483249684862
7.1	0.00222002434089284	0.00795438510189297	0.0735344234269195	0.988122111484851	0.0733270746502862	0.988110457005722	-0.00153729202745632	-0.00766773496420766
7.2	0.00323675435620334	0.00670720844695062	0.22612547417475	0.963735056356629	0.225869696692144	0.963779888861565	-0.00293803939539474	-0.00667845075655874
7.3	0.00360809053715093	0.0052677068371213	0.372615012710765	0.916654165914273	0.372374574281987	0.916745677039361	-0.0041455958740874	-0.00534174276053455
7.4	0.00371658619523438	0.00386158309126346	0.510375316770263	0.84819037047108	0.510156889883609	0.848353159797835	-0.00520815439846405	-0.00396818114664186
7.5	0.0026896512254256	0.00279214042197955	0.637737982555687	0.757861848347413	0.63757819410243	0.758034926515746	-0.00656626097199571	-0.00168483598552671
7.6	0.00313327238224678	0.00266846910604227	0.746278134918957	0.64784513070267	0.74606332842446	0.648007163643498	-0.00520419916901198	0.00119099499323206
7.7	0.0033404559043202	0.00166141058598944	0.836870462040357	0.524415689344478	0.836720156206458	0.524611291774096	-0.003185979056223	0.00225625238508668
7.8	0.00358451823906636	0.000669687308453063	0.908143501371507	0.388182910656455	0.908023448612856	0.388405072716671	-0.00100177893597248	0.00205131866719637
7.9	0.0034674584548207	-0.000804942460913422	0.957537348629512	0.241808309512402	0.957497954006996	0.242034050838182	0.000254345786496675	9.08286329062976E-05
8	0.000225554758851452	-0.00306302719526212	0.981111487830891	0.0891811921102345	0.981183495335959	0.0894722801080583	-0.00324437082276993	-0.00272672356154319
8.1	-0.00146579804352073	-1.80412657522218E-05	0.982578229494376	-0.0619628019459929	0.982703022358376	-0.0616926735128641	-0.00536704447548441	0.00154933008163994
8.2	-0.00134325629685043	0.00152271638112173	0.961633058345018	-0.213501912963838	0.96169976998508	-0.213206711434802	-0.00458557148434464	0.0041117407161953
8.3	-0.00121719600686655	0.00312497880106123	0.916647439870974	-0.360483802445114	0.916785690106987	-0.360228763075967	-0.0030151805814372	0.00606671915016744
8.4	0.000362031221880819	0.00438492070581038	0.84837877149309	-0.498241313965316	0.848590711970388	-0.498042916301956	8.27953284236852E-05	0.0067111806421195
8.5	0.000417871902516194	0.00326149932602797	0.761325832622411	-0.621393384901024	0.761441387899033	-0.621268194973789	0.000703467589667165	0.00374406157034203
8.6	0.000274226327804592	0.00571180883225561	0.656903380329751	-0.733224282500654	0.657100613936368	-0.73303959950061	-0.000131993753759976	0.00580804349206069
8.7	0.00236228826000593	0.0068195859222805	0.534342747560767	-0.826461394131675	0.534624103244842	-0.8263530186714	0.00236266157030043	0.00687756718616645
8.8	0.00466599779642751	0.00681473164472984	0.399295000799344	-0.898722393328134	0.399500551278567	-0.898668623931738	0.00498804860907384	0.00655213067483331
8.9	0.0071624798966072	0.00604020124285753	0.255724857354132	-0.948807331171412	0.255965905953677	-0.948667804107437	0.00814668026752297	0.00514508876129658
9	0.00931836797185264	0.00345263404833974	0.106481065913021	-0.978664027077417	0.106842526478085	-0.978634419159636	0.0101057591860505	0.00160468697655244
9.1	0.0109014713812624	0.000922031844275003	-0.0485339212238494	-0.983015027120627	-0.0481821685771712	-0.983030383119953	0.0111375886666277	-0.00138708560002764
9.2	0.0114865786784204	-0.0030787713122329	-0.200282171979278	-0.962358512786051	-0.199927572251929	-0.962429784976243	0.0109294423629293	-0.00543384022979463
9.3	0.0101253119664497	-0.00626722068529672	-0.346379248871487	-0.919461235973754	-0.346023427035416	-0.919525920293869	0.00868710918513824	-0.00827661683072226
9.4	0.00844219578917753	-0.00889835662411987	-0.48443194671557	-0.855660416548127	-0.484109566294043	-0.855808108476957	0.00584734665581104	-0.0100174248805733
9.5	0.00454245136426971	-0.00891656037056237	-0.613422410412802	-0.769359433615392	-0.613216945089709	-0.769497104987612	0.000645478451846497	-0.00777552572896646
9.6	0.005585093851486	-0.00809677086674078	-0.723628147083179	-0.663140488419401	-0.723356960565108	-0.663325319424344	0.00253639314420111	-0.0034582588440937
9.7	0.00512765689815774	-0.00997836854578329	-0.816781934751166	-0.543521127478833	-0.816537121855009	-0.543789664281415	0.00459748276274115	-0.00372672783910308
9.8	0.00355739786467548	-0.0113890096510772	-0.891319338034977	-0.410661900486241	-0.891111431748711	-0.410936006873511	0.00566545559744375	-0.0046352729401157
9.9	0.0018729855840365	-0.0127153027504688	-0.944726796021208	-0.266703321997909	-0.944615431499633	-0.267031691241669	0.00663404031802834	-0.00719935625876462
10	-0.00352082125517324	-0.0138197713554631	-0.972196569844366	-0.115891995806053	-0.972117911526318	-0.116268527059684	0.00182090978662546	-0.00973930492706628
10.1	-0.00591816980460895	-0.00967247536189919	-0.978135230522847	0.033845721573873	-0.978115688025451	0.0333707143231854	0.000638632333482506	-0.00541745763588091
10.2	-0.00652012377301674	-0.00801630310801795	-0.961893067842636	0.185069097641963	-0.961878223755272	0.184621620546984	0.00248992329043291	-0.00456116837812849
10.3	-0.00749849866751798	-0.00625548787130197	-0.921337074884859	0.332475586414428	-0.921471931898909	0.33193819529261	0.00391702027808728	-0.00548164736682807
10.4	-0.00768811507470804	-0.00522735169468999	-0.857130080703997	0.470994902014126	-0.857393881054361	0.470463097093163	0.00518518840549409	-0.00838752258840225
10.5	-0.00974285404144326	-0.00510643932472105	-0.774561520279926	0.595062967827357	-0.774841115919212	0.594678689045122	0.00271248985433442	-0.0132892655871062
10.6	-0.0118788455593703	-0.00218513041145707	-0.674781285698076	0.709194758340347	-0.675204113679775	0.708851889921831	-0.00165018048982505	-0.0138934094088178
10.7	-0.0124705871711675	0.00169099469605796	-0.556354496540994	0.805692229580204	-0.556763093948597	0.805404896361116	-0.0045446982242133	-0.0127848559052989
10.8	-0.0110167924588883	0.00528252663128129	-0.42452112515182	0.881722193135675	-0.425027945869192	0.88149349229579	-0.00578127525893993	-0.0111568748857149
10.9	-0.00857356254117708	0.00806391937402872	-0.283856119061469	0.936057890194878	-0.284340639627083	0.936005564164149	-0.00644210717774981	-0.0101615453653952
11	-0.00595160994177817	0.00968691996879138	-0.136689310221926	0.971399592891974	-0.137233678412526	0.9713930314978	-0.00737495684612878	-0.00933968920473757
11.1	-0.00226134017949473	0.0106883820708144	0.0180173740119695	0.980890857370675	0.0173901081631221	0.980972326812953	-0.00700861929062475	-0.00856433652120921
11.2	0.00109869230185818	0.0101350824472049	0.169664472451555	0.965351866234504	0.169147058954313	0.965553074276843	-0.0067833503631758	-0.00869354068880374
11.3	0.00418449055406126	0.00912931633060557	0.316456697544819	0.92757763652281	0.316028224475921	0.927837922611917	-0.00652506599275338	-0.00901687524562771
11.4	0.00683434545596222	0.00663427804515458	0.456554132650414	0.868914387354909	0.456090228122783	0.869172017452968	-0.006848058536947	-0.0102603135364415
11.5	0.00690605378908439	0.00548620124713046	0.588592277734856	0.786663381675665	0.588234545258787	0.787080625201131	-0.0105921605423655	-0.00913492113336798
11.6	0.0102363376723982	0.00477595155789555	0.701555073992377	0.684217870667979	0.701289062173753	0.684696425983027	-0.00928124066999816	-0.00564421566511499
11.7	0.012542926970001	0.00188210788869042	0.798596163158483	0.568144518234338	0.798357293355721	0.568564664138886	-0.00759329250553806	-0.0055020291192305
11.8	0.0137562839693768	-0.00141450964591298	0.8776881195741	0.43787873284173	0.877503456203067	0.438429227315752	-0.00656256308899119	-0.00627767806629116
11.9	0.0144484046866789	-0.00560279196483621	0.935934626167799	0.295579501263232	0.935896147076359	0.296122642329718	-0.00629669787995721	-0.00916264209366968
12	0.0105162304369858	-0.0101146857450324	0.968094347926063	0.145472053322331	0.968082483287643	0.145949671393821	-0.012125165607615	-0.0118296650432095
12.1	0.00887845094261875	-0.00971290028476488	0.978911460319135	-0.00390132235038235	0.978885953082109	-0.00343028784382922	-0.0150667379242523	-0.00758280862843211
12.2	0.00737362438489477	-0.0115897915515457	0.967409430269274	-0.155883927171227	0.967514893775158	-0.155447726616153	-0.0159146566281756	-0.00514096848548057
12.3	0.00480889415789164	-0.0124958860946352	0.931299758553881	-0.304502590321343	0.931484361267096	-0.3041451364911	-0.0165955635853065	-0.00254203710698987
12.4	0.00266211899791548	-0.0128167678178376	0.871512343032976	-0.444973942271965	0.871644154631067	-0.444600405267565	-0.0156206252248179	-0.000314729486999065
12.5	-0.000915586109292635	-0.0138859900755519	0.793128821565185	-0.571434221585389	0.793583041339609	-0.571041438470643	-0.0170640728275113	-0.000755495474518908
12.6	-0.00390251445758747	-0.0110271188301642	0.69726180964241	-0.689308955839051	0.697606149428809	-0.68899821565167	-0.0180994027446426	0.00409088559799176
