# GHZ S RI R 50
0.2	-0.000305175340656596	-0.000116279421111724	0.949416988574912	-0.307745758087581	0.949190719549179	-0.307887760427804	-7.7300608188638E-05	-3.41084038392693E-05
0.3	-0.000529177163984571	0.000175458132972062	0.889620620826903	-0.451472214800244	0.889483155143371	-0.451525491414023	-0.000252381921793445	-0.000221148870120718
0.4	-0.000435248981073833	0.000400738306575254	0.808270859845094	-0.583905225452827	0.808311034515724	-0.584044895046843	-0.000209641322018436	-0.000228802841459777
0.5	-0.000454456319420609	0.000737855488577067	0.707474265777672	-0.702445583035717	0.707363620425911	-0.702541517300324	-2.52340672568246E-05	-0.000192434811210191
0.6	-0.000347174556785348	0.000748328089484608	0.589480113159744	-0.803537890145659	0.589290461317242	-0.803540833148482	6.05612953618212E-05	-0.000558060421961056
0.7	-0.000419517605562111	0.00112816880942805	0.457392374344061	-0.885026615159285	0.457318313152157	-0.885061027904665	-1.96009076924478E-05	-0.000904105965687505
0.8	-0.000205973152522536	0.00121332600056855	0.314274137744433	-0.945239300067199	0.314155520227977	-0.945152549117901	-0.000269634841702097	-0.0011838706468485
0.9	-0.000181926788637859	0.00156061851869278	0.163513626184633	-0.982365760977367	0.163364543836676	-0.982322891573095	-0.000825557155083537	-0.00144722829771074
1	8.77112579372261E-05	0.00185116086065702	0.00885020903014745	-0.995379915490296	0.00873209590657408	-0.995350224650232	-0.00135324660379269	-0.00118508818923934
1.1	0.000549868581216777	0.00174075806797613	-0.145040752670744	-0.984610860214832	-0.145688498721659	-0.98457577706955	-0.00165359262180553	-0.00100075178046937
1.2	0.000823809772513357	0.000875420677147114	-0.296970863554922	-0.949878188416136	-0.296963891209239	-0.949933889481079	-0.00167942326351898	-0.000639982444652893
1.3	0.00108710059082034	-0.000503732013602909	-0.440789352382533	-0.891976509445755	-0.440881488830601	-0.892000972202809	-0.000617622201520944	6.5818858967745E-05
1.4	0.00106244195849067	-0.00235324341704599	-0.57367744821746	-0.81253625543833	-0.573751244849319	-0.812436644973239	0.000897483409483439	-0.000283872267694678
1.5	0.00105225880684089	-0.00328233404797224	-0.692764769005701	-0.713468111860892	-0.692789372061732	-0.713396047189598	0.0024074899236559	-0.00149411351824194
1.6	0.000512769124790548	-0.00371963670274194	-0.794823402981851	-0.597546783481525	-0.79525298485653	-0.597045975416967	0.00175762146363219	-0.00299853336561024
1.7	0.000414023895171334	-0.00345098234850464	-0.877747994462385	-0.466622944271371	-0.878052287003625	-0.466132785043407	0.000811057995022005	-0.00349176609325221
1.8	0.000182156306313834	-0.00343419344886239	-0.939491647943511	-0.324152166191545	-0.939507098294932	-0.324142693041665	-0.000336787763524435	-0.00385452321241543
1.9	1.10506150561439E-06	-0.00318556138538019	-0.978312290677952	-0.174281498395125	-0.978356832650011	-0.174334240714984	-0.00135719904806683	-0.00367450693180781
2	-4.44034521049587E-05	-0.00331555543641023	-0.993367117368181	-0.0208061472229585	-0.993461608501647	-0.0201563260238733	-0.00183077847254957	-0.00331697688322419
2.1	-0.000709743846739561	-0.00351453820076979	-0.984147011148161	0.135042338439271	-0.984246978464107	0.134558056467766	-0.00254169716524199	-0.0033904269152858
2.2	-0.00153887533911391	-0.00340704868316442	-0.951212506895653	0.285394135377508	-0.951251181899705	0.285527954390973	-0.00337577282519111	-0.00307430115219477
2.3	-0.00221148839449102	-0.00310351276048032	-0.895286409149824	0.429487993573651	-0.895122463908663	0.429576331805042	-0.00417068828164773	-0.00262939112895328
2.4	-0.00310744072681488	-0.00270638203858355	-0.817149484425386	0.563821532172037	-0.817441366794232	0.563359751236891	-0.00492411603095159	-0.00193512558016616
2.5	-0.00349734997436227	-0.00190771416028999	-0.71963039655279	0.683818357749716	-0.719933229639255	0.683437998443645	-0.00472151972990502	-0.00111596801771958
2.6	-0.00413010208585129	-0.00150826773798535	-0.604974723230654	0.786610878609085	-0.604895562597846	0.786551392379914	-0.00432576725641502	-0.00104601685435639
2.7	-0.00439058604556746	-0.000572093020715716	-0.475414204477648	0.870748809730742	-0.475384713807483	0.87076286414694	-0.00432132480584778	-0.000961745937067219
2.8	-0.00421474234055289	0.000215773991384206	-0.334593024640331	0.933826332119134	-0.33447474282745	0.933910668851646	-0.00414300826027617	-0.000663684855413747
2.9	-0.0031940045643118	0.000794181106744924	-0.185437636001189	0.974240967123166	-0.185433106184789	0.97429573762251	-0.00359744284475646	-5.06656036992147E-05
3	-0.00219742073284808	0.000829322347395247	-0.0317090636200821	0.990798366366662	-0.0317732374199373	0.990869860733372	-0.00250789476970742	0.000311419103206277
3.1	-0.00109648098376146	0.000786813699683388	0.121459222590916	0.983661430993373	0.122107016184319	0.983741788872753	-0.00159043773830473	0.000486515709477454
3.2	-0.000234396552279545	0.000301119057831229	0.273273698303452	0.952604888643935	0.273263799840791	0.952644469447933	-0.000783907080767899	0.0004206949864344
3.3	0.000701739194221396	-0.000396251895549076	0.418480114811147	0.898170605157271	0.417858311473626	0.898452785142872	0.000232151021303046	0.00015355819614542
3.4	0.00112490545015206	-0.00125641563500427	0.552151284117064	0.822401885014898	0.552066588006353	0.822517194780379	0.00129407360345572	-0.000466019566476158
3.5	0.00162054843620161	-0.0022922982164061	0.672674999604846	0.72687606385021	0.672689243791183	0.726902220598737	0.0022251532813785	-0.00175538331671444
3.6	0.0011822001534786	-0.00315847805885908	0.776964738888011	0.614038721775598	0.777386003562088	0.613644509102996	0.00203498778149109	-0.0031361370376053
3.7	0.00105779815018377	-0.00384885220219162	0.863080210973096	0.48526477806964	0.863087367336656	0.485391177939324	0.00167815564014733	-0.00401386357177166
3.8	0.000521719139812305	-0.00454127258209309	0.92763109977166	0.345340460263406	0.92765968351102	0.34552351488522	0.000953315558482029	-0.0048703630170956
3.9	0.000262949140451093	-0.00508807916789776	0.96991079440161	0.196761926200362	0.969813162988321	0.197349267227112	-0.000195862297333605	-0.00553458716679434
4	-0.000215589763987781	-0.00569494445366319	0.988806411877358	0.0446159297374639	0.98888837654568	0.0446587970073692	-0.000822686444443323	-0.00595390662219443
4.1	-0.0010677289360138	-0.00645310675395837	0.983622356801513	-0.109571507171624	0.983560389902255	-0.109507468524976	-0.0020810584705434	-0.00685841571000453
4.2	-0.00235086541476536	-0.00679932224767018	0.954156070107852	-0.26141715702489	0.954350085909559	-0.260848835785359	-0.00370231835153909	-0.00717154217752721
4.3	-0.00348308890746671	-0.00726748024504591	0.902209109199885	-0.405654984149445	0.902210003905444	-0.405636481035653	-0.00549929231553367	-0.00734528254263798
4.4	-0.00512506286629757	-0.00734291343325339	0.828354122435313	-0.540649338677719	0.828274339961995	-0.54063332778134	-0.00768732478691599	-0.00682856972300123
4.5	-0.00638262453068085	-0.00722161723175367	0.734168297991093	-0.662886857658999	0.734045213331865	-0.662740814297143	-0.00926451928636198	-0.00556805585100632
4.6	-0.00818691265799141	-0.00689751782129166	0.622169390924701	-0.768405562635374	0.622155201953658	-0.768176525730907	-0.0106129302220553	-0.00459257869692262
4.7	-0.00980448545492538	-0.00634254811419535	0.495305793615495	-0.85552869986011	0.495422983978685	-0.85528463914273	-0.0122004816465726	-0.00346829535983954
4.8	-0.0113430711519325	-0.00513943071956226	0.35626603678274	-0.921797446913965	0.356559452302797	-0.921609669606194	-0.0133992255154767	-0.00179046222421305
4.9	-0.0121574535911087	-0.0039655484467731	0.208747974550481	-0.965408081137719	0.209007332665768	-0.965357539601165	-0.0139175933629253	0.000441943076882226
5	-0.0126494122494671	-0.00270818554363353	0.0568719449051961	-0.985454267790281	0.057029977010513	-0.985326888415768	-0.0133759467238692	0.00284361738971059
5.1	-0.0126260056070072	-0.00161875492776058	-0.0961686778184792	-0.982433379194397	-0.0958482391413985	-0.982371043376807	-0.0123226734782126	0.00509753794368358
5.2	-0.0123611912143305	-0.000443827692246735	-0.247475461429174	-0.955680095701754	-0.24704905627368	-0.955802189432931	-0.0108581286741598	0.00753044651806779
5.3	-0.0120057726477938	0.000205790857935512	-0.392677502384441	-0.905691051196711	-0.39238939835699	-0.906035020967958	-0.00855635519148847	0.00978166701785829
5.4	-0.0117243590939501	0.0011898102526992	-0.528369150820593	-0.83372249606604	-0.528233663737693	-0.834011438372061	-0.00561738550258363	0.011548416391536
5.5	-0.0115934049678976	0.00168346813153018	-0.650993893811928	-0.741791118756887	-0.650944130791114	-0.742104254359216	-0.00218514977451181	0.0117571370823129
5.6	-0.0119783778675868	0.00320608684887577	-0.758251049053114	-0.6318836225096	-0.758264506959031	-0.632053645740453	-0.000108820225727018	0.0113691650190034
5.7	-0.0117824885141563	0.00472335162601781	-0.847125269120205	-0.506499719282488	-0.847101571171858	-0.50667448541836	0.00193943108168059	0.0114345640332462
5.8	-0.0113248588412608	0.00648019439149466	-0.915209217947223	-0.368843603774939	-0.915253963001	-0.369135170964664	0.00412375064551532	0.0113609997052429
5.9	-0.0106104189208847	0.00796996628736809	-0.961299174908081	-0.222684198083699	-0.961419328273069	-0.222732073517887	0.00636034869171019	0.0112376626734913
6	-0.0093429301218148	0.00929634844471265	-0.984569090370111	-0.0708778393887539	-0.984566007693395	-0.0709464242818072	0.00945877805193914	0.0104657461344213
6.1	-0.00865645470885891	0.0101712276188635	-0.983393672132627	0.0829369760770577	-0.983396847093275	0.0828338039170487	0.0116969137510359	0.00790633686083497
6.2	-0.00772427126127689	0.0113946434278445	-0.958395546632219	0.234496762408523	-0.958443498558853	0.234315354283076	0.0128888297093617	0.0050424368721489
6.3	-0.00673993121027303	0.0121746220461632	-0.910389337345568	0.380225065489436	-0.910413578333856	0.380096601772553	0.0131813550349099	0.00189651196678475
6.4	-0.0055922995562763	0.0128456694209775	-0.84043631474274	0.516861969263056	-0.840427479799365	0.516648743800481	0.0125117625696456	-0.00110483730649554
6.5	-0.00433906937652314	0.013017462348161	-0.749768762094898	0.641138100561105	-0.749869056722764	0.640966013637665	0.0115038937115513	-0.00385920710796394
6.6	-0.002849473910697	0.0131041039728205	-0.641133073548175	0.749288093761681	-0.641281181704777	0.749142302362254	0.0100045917579788	-0.00611831335432663
6.7	-0.00142402732381648	0.0126286193840403	-0.517250897775691	0.839597689786641	-0.517371712793475	0.839440676083123	0.00813427648751301	-0.00792403805695624
6.8	-0.000136618932657469	0.0120402248527225	-0.380705773366865	0.909666131214534	-0.380916448891716	0.909591009787581	0.00596057384217139	-0.00918197664673171
6.9	0.000887997829520654	0.0111372243172839	-0.234859343696773	0.957679606811297	-0.235109624704099	0.957675595225598	0.00392597793238313	-0.00985595747855297
7	0.00185963581464444	0.0102269712738218	-0.0835020112769719	0.982166544443129	-0.083759744237917	0.98213626237412	0.00185948074713093	-0.0105231411067776
7.1	0.00247709754500326	0.00928306402830149	0.0695130035929702	0.983373375060701	0.0693067513513544	0.983361014340955	-0.00050018338016548	-0.0104246718055518
7.2	0.00313019667198967	0.00829400039772648	0.221279733863644	0.960773404719805	0.221024804405432	0.960817012344303	-0.00236544709163353	-0.00959695269999504
7.3	0.00324662957266369	0.00706392660622047	0.367667825546557	0.914765086140549	0.367427906985446	0.914855322341435	-0.00397181025225921	-0.00846110544078551
7.4	0.00323745719454682	0.00603396914000067	0.504985471175903	0.846448387170323	0.50476737504544	0.846609653183852	-0.0053442945495633	-0.00703378579570172
7.5	0.00287073557681847	0.00485201390356469	0.629854195423401	0.758155901998123	0.629694102373264	0.758327128745627	-0.00609170638425008	-0.00546382325223962
7.6	0.00235706505204125	0.0040874544518875	0.74021279179205	0.651424953568342	0.739997375612064	0.65158516847055	-0.00664861646026282	-0.00419217999040167
7.7	0.0016841154048057	0.00367718598815547	0.832286496474605	0.528633364303465	0.83213525103208	0.528827726607612	-0.00711752271409974	-0.00245397688229859
7.8	0.00130461019286675	0.00360881814192038	0.904302039422721	0.393041477779805	0.904180839324532	0.393262548235996	-0.00682076999703081	-0.000492056159622134
7.9	0.000836589739356265	0.00373163080044373	0.954283065775774	0.248171711555317	0.954242142486964	0.248396809910172	-0.00583405693441091	0.00176586520854294
8	0.000844659888992802	0.00392822835591528	0.981624629879025	0.0970072840506956	0.981694437334254	0.097299298655776	-0.00385775023630674	0.00345346154532712
8.1	0.000121354875743586	0.00433546650879583	0.984654324378923	-0.0567911003700946	0.9847778866022	-0.0565198219557184	-0.00197958103224446	0.00378162790657607
8.2	0.000100177584052986	0.00527521604310753	0.963747419346949	-0.208818533284409	0.963812694530963	-0.208522676711471	-0.000589759427604355	0.00390463247417557
8.3	0.000218704106900124	0.00614777180705515	0.919645147810335	-0.355749256875214	0.919782121475525	-0.355493171406447	0.000763690679502605	0.00360430587839466
8.4	0.000723614356672766	0.00692617853816994	0.8534655207959	-0.494211981353429	0.853676746502877	-0.494011807281292	0.00172625083505103	0.00306975984419193
8.5	0.00147887644676404	0.00757687864701162	0.766267532183919	-0.620893121645119	0.766383053002286	-0.620767071358937	0.00314370862830841	0.00271721339924319
8.6	0.00215012275950348	0.00777865100679424	0.660479065221776	-0.731968784909696	0.660675932729844	-0.731783128308117	0.00436855133014629	0.00104199988808114
8.7	0.00289274976474211	0.00838692804482422	0.538989873433465	-0.825504038987416	0.539271233621651	-0.825394209938345	0.00460906921333217	-0.000538385232091
8.8	0.00445107371380273	0.00862549225997426	0.404488558329782	-0.899277146816	0.404694408333901	-0.899222289465113	0.00421821497394527	-0.00192074325920184
8.9	0.00620357407238868	0.008244388507175	0.25984520394557	-0.951318757135345	0.260086638333771	-0.95117791792291	0.00367092708855763	-0.00266906819141983
9	0.00834271305021386	0.00685406757909819	0.108991522827909	-0.979666763916703	0.109353377215062	-0.979636241353169	0.0036913027459361	-0.00290770973278242
9.1	0.0099016943503703	0.00481281468153772	-0.0439913715857993	-0.984941718657662	-0.0436389390130149	-0.984955445684832	0.00403830699269866	-0.0033958357826546
9.2	0.0111803270211007	0.00208999268051565	-0.196574825393462	-0.966277086684585	-0.196218793200476	-0.966346984836251	0.00480066862879344	-0.0038018150235343
9.3	0.0114025224465795	-0.000818270028150704	-0.344349831430521	-0.924022134169724	-0.343992492115143	-0.924085782220758	0.00577885013144185	-0.00444674597523529
9.4	0.0108708153595951	-0.00374406314150385	-0.483454503023595	-0.859193563821811	-0.483130883120297	-0.859340795501736	0.00672155337321761	-0.00535871946874176
9.5	0.00922792739334718	-0.00625743006891985	-0.610640674212332	-0.773996741565883	-0.610434104896708	-0.774133619695148	0.00747671431060832	-0.00705232206451135
9.6	0.00696883463745784	-0.0077925071192953	-0.723766240160367	-0.669819986438363	-0.723492868706437	-0.670004351593348	0.00627842123969461	-0.00878497651939019
9.7	0.00484882604239232	-0.00854168045263411	-0.818920298078891	-0.549187160374876	-0.818673290607774	-0.549456162181218	0.00492898764360512	-0.00939520193715317
9.8	0.00263667650852216	-0.00915041621112066	-0.894146736103026	-0.415326201677823	-0.893937019289813	-0.41560092375962	0.00360772085602856	-0.00942511395401877
9.9	0.000155026596763531	-0.00897212439892084	-0.947649204727075	-0.27163581728844	-0.947536046614196	-0.271965127482328	0.00273609246681748	-0.00867789329596801
10	-0.00209691816562357	-0.00883073523834244	-0.97876277644574	-0.121201396033045	-0.978681815465579	-0.12158031512894	0.00316499258754429	-0.00819959989969892
10.1	-0.00510224755674294	-0.00767578463759287	-0.985342759023698	0.0325442454935104	-0.985322321282024	0.0320657950013367	0.00274552699218627	-0.00884662992977794
10.2	-0.00719799997347001	-0.00584274658565482	-0.9682146824094	0.184966855200992	-0.96819915304209	0.184516570608788	0.00197631024213252	-0.00896064756427095
10.3	-0.00900526105192419	-0.00357381229066373	-0.927807884429664	0.332947963856923	-0.927942640265941	0.33240690406134	0.00105846285734728	-0.00906850067451334
10.4	-0.0101808848008421	-0.00132766865869077	-0.865040440749353	0.473018908416855	-0.865305267083248	0.472482254566594	0.000260210167312083	-0.00895769318532551
10.5	-0.0108417922770065	0.00121448173405288	-0.780827350291947	0.601893014077693	-0.781110188892607	0.601505600774851	0.000484668663647514	-0.00887664629749246
10.6	-0.0110221471919114	0.00350752029563979	-0.677696586752505	0.715443251506371	-0.678123007545483	0.715099042413265	0.000704816800029855	-0.00989826549848903
10.7	-0.0107836676864893	0.00627308266481885	-0.558511856729537	0.811948168121908	-0.55892363610934	0.811659708170608	0.000509171411037017	-0.0111051081393641
10.8	-0.00948352027173609	0.00856539561566364	-0.42554564765433	0.888798579708834	-0.426056501699024	0.888569397233451	-0.00014737716749609	-0.0123775430608513
10.9	-0.00788156889640867	0.0108345659351466	-0.282174265786139	0.944046485919034	-0.282662540940473	0.943995722815661	-0.00141007203610902	-0.0134099924604096
11	-0.00551673932753371	0.0122474559310092	-0.132123174747207	0.975849130449797	-0.13266966867925	0.975845396449509	-0.00258953260307625	-0.0142951283733656
11.1	-0.00281316497420784	0.0135294849186558	0.0208003707609025	0.984551486055895	0.0201709574518366	0.984634999624369	-0.00411131190764925	-0.0149345879875808
11.2	0.000405123078878777	0.0136968717184113	0.173414921011547	0.969371473048174	0.172895690309027	0.969575209691463	-0.00548882791246866	-0.0152301559847428
11.3	0.0035682374005385	0.0131651200686262	0.321735077140124	0.930548110274479	0.321305701873475	0.930811360340706	-0.00666515890359251	-0.0150805701069016
11.4	0.00644828673179744	0.0116567348800221	0.462207736256645	0.869091818117069	0.461743806607037	0.869352506032666	-0.0076187523165163	-0.014458485352296
11.5	0.0087683209184132	0.00971031759183256	0.59116148109193	0.786930691229499	0.590803915868384	0.787349370019642	-0.00816223415491439	-0.0143316498936666
11.6	0.0102842730937139	0.00743068456461486	0.70628564547623	0.685587185941598	0.706019589062384	0.686068492427082	-0.00992385996498408	-0.0141963350336159
11.7	0.0116652594074248	0.00521093984745607	0.804099929573306	0.567472094291321	0.803861664362617	0.567894906773951	-0.0116596447328551	-0.0131360999308264
11.8	0.0122664524627787	0.00235354187060507	0.882252423645175	0.435531858839543	0.882069510807212	0.436084836537611	-0.0133192967190218	-0.0115595622934207
11.9	0.0121159512554727	-4.27000569311187E-05	0.938888948395331	0.293531150493736	0.938851956281493	0.294075620625314	-0.0147582600888158	-0.0087475006617456
12	0.0112835882425207	-0.00294800540996664	0.973391690706287	0.144351613772999	0.973380689092024	0.144831729328599	-0.0138751259102838	-0.00629892474490129
12.1	0.00937428385473608	-0.00464530484528193	0.983654443265903	-0.00874306733924435	0.983631132502151	-0.00826961560097934	-0.0136149857878115	-0.00500584650446637
12.2	0.00750770492599324	-0.00597120749564452	0.970137472333345	-0.161239816836125	0.970245478051663	-0.160802560420124	-0.0132276436975295	-0.00353753344213544
12.3	0.0056618914225831	-0.00682927244538567	0.933252470751097	-0.309650469925687	0.933439288200803	-0.309292562861447	-0.0125413826426553	-0.00239954329213605
12.4	0.00340646675047081	-0.00758473838250189	0.874199771923884	-0.450866636256624	0.874333803761843	-0.450491705032441	-0.012008525295989	-0.00148324979351558
12.5	0.00140465293131115	-0.00784895779492281	0.792994158398578	-0.581424453726362	0.793454329333987	-0.58103317057057	-0.0108323604341188	-0.000688553849362763
