# GHZ S RI R 50
0.2	-0.000365141665883344	2.98358861850532E-05	0.948559770878009	-0.307976462673791	0.948333601764042	-0.308118249434183	-0.000183368664802624	0.000163186221501152
0.3	-0.000464261097648994	0.000278664567345069	0.888516215045583	-0.451574459112219	0.888378847132306	-0.451627604171664	-0.000246033990824328	-5.92118782260743E-06
0.4	-0.000261324817113581	0.000364367774758263	0.806940111829808	-0.583713684763623	0.806980151114361	-0.583853212690978	-7.62660965890817E-05	-9.41868377220436E-05
0.5	-0.00043516517476082	0.000454119680553553	0.706199899782619	-0.7017900156451	0.70608936442422	-0.7018857704264	-3.46088786966283E-05	-0.000295655572478148
0.6	-0.00045610996187385	0.000647321426931207	0.588329249688027	-0.802738695206201	0.58813984868357	-0.802741547671104	-0.000129367410320008	-0.000421691215119249
0.7	-0.000427052984824949	0.00103475292123929	0.456271684351582	-0.883926506602349	0.456197717126516	-0.883960831355889	-0.000101450019001058	-0.000642373814561031
0.8	-0.000170116873987824	0.00105925056720888	0.313358349049367	-0.943790896158617	0.313239965496123	-0.943704241011154	-0.000229512834514364	-0.000865739646523965
0.9	-6.17535177770016E-05	0.00127335145995469	0.162987263156948	-0.980676627821082	0.162838453593812	-0.980633797661216	-0.000512652585811218	-0.00118364620354657
1	-0.000128715093856028	0.00112104720451663	0.00860411993553297	-0.993754119969208	0.00848620689020685	-0.993724450213324	-0.00110210438481092	-0.00154410232287976
1.1	-0.00021724258554155	0.0016147096820503	-0.145110502798001	-0.982706229918839	-0.145757016859757	-0.982670987282819	-0.00201210405294973	-0.00109566577547551
1.2	0.000344994819133993	0.00138253147057892	-0.29652837125806	-0.947853025716846	-0.296521423566562	-0.947908612494422	-0.00196778935316642	-0.000289122577772823
1.3	0.00130821315940544	0.000350021642452918	-0.439860369375238	-0.89005891449056	-0.439952308927087	-0.890083323319213	-0.000543398932391332	0.000724429365942227
1.4	0.00192885616790903	-0.00188133078815332	-0.572415873452296	-0.81084044329722	-0.572489518583279	-0.810741048335411	0.00131879105619892	0.000211280270996747
1.5	0.00182627154840543	-0.0030164294350937	-0.691167649068715	-0.711742602382623	-0.691192189909239	-0.71167070665641	0.00245781444851632	-0.000825391902190998
1.6	0.00166586795406658	-0.00391008264725252	-0.792533244212948	-0.5962243964704	-0.792961852760896	-0.595725048441264	0.00231785974098324	-0.00216842439855673
1.7	0.0011899225693793	-0.00421974603779068	-0.875182079369942	-0.4659189086163	-0.875485864592712	-0.465430207895474	0.00146157797176621	-0.00297937684916819
1.8	0.000497944841166041	-0.00443261740350966	-0.93680229620138	-0.323993471430478	-0.936817713159388	-0.32398403431023	0.000270884150760758	-0.00362096144295826
1.9	-0.000277334213388118	-0.00430846528644103	-0.975490765999112	-0.174609141805213	-0.975535142649603	-0.174661776387686	-0.0010651186344821	-0.00387420382140508
2	-0.00101378022175364	-0.00363241973934133	-0.990344364654736	-0.0220171731027751	-0.990439404061298	-0.021369432993277	-0.00244550697988241	-0.00309751844112422
2.1	-0.000928820863862263	-0.00343509481729692	-0.981716043928648	0.13300647430457	-0.981814918849236	0.13252333166901	-0.00264144213664862	-0.00254027247731682
2.2	-0.0016661276924786	-0.00362283740055047	-0.949279189238671	0.282934249288179	-0.949318007225209	0.283067653407487	-0.00317672723733914	-0.00235957483640534
2.3	-0.00249226480319031	-0.00340374383733147	-0.893850588007327	0.426599205694271	-0.893687239268828	0.426687645099456	-0.00383297701424768	-0.00209644067701044
2.4	-0.00365904697923602	-0.00300731007390496	-0.816369516362142	0.560448873200065	-0.816659561676983	0.559987595875703	-0.004613577023062	-0.00180547888457314
2.5	-0.00458092578409616	-0.00143568229789293	-0.720033295117797	0.680319570250319	-0.72033440395168	0.679939164073284	-0.00520968358064743	-0.000933222023373357
2.6	-0.00409577424964602	-0.000182995004062987	-0.605981306523879	0.783560862248592	-0.605902130524534	0.783501696131936	-0.00448072663427762	-9.2297889470001E-05
2.7	-0.00336429102207202	0.000244277923020249	-0.476996969293424	0.867871748081008	-0.476967570371478	0.867885859751813	-0.00391953502394466	-0.000146681515481592
2.8	-0.00295745533359507	0.000194864725709755	-0.336865155825297	0.931294126381512	-0.336747321361071	0.93137868251091	-0.00362943080407765	-0.000257197537506746
2.9	-0.00223742446290051	0.000255136876664592	-0.188380268005435	0.972396291639143	-0.18837592265425	0.972451007235855	-0.00333041253058046	0.000138820117258846
3	-0.0013823852946992	0.000184946618259298	-0.0346340160243798	0.989894903642705	-0.0346983503535211	0.989966148509067	-0.00234718896362258	0.000710546315317954
3.1	-0.000438284664655799	-0.000284795611289224	0.118417012390524	0.982982893664205	0.119063884122336	0.983065085743643	-0.00129771788243905	0.000811306339357543
3.2	-3.5681743169217E-05	-0.000895298084180807	0.269954719072684	0.95262548724698	0.269944701908284	0.952665000368079	-0.000636293072403957	0.000620759101500177
3.3	0.000536620409237746	-0.0015530473473404	0.415228375073504	0.899023281847382	0.414606006576386	0.899303215219297	0.000218805816844589	0.000285062414555026
3.4	0.00055222805883008	-0.0021842969611414	0.549356202136157	0.823929431453852	0.549271161550383	0.824044436266288	0.000904189372100274	-0.000312412714843006
3.5	0.00122109329974914	-0.00254714796364094	0.670085820263435	0.728491694901766	0.670099977039786	0.72851787963576	0.00171167205487266	-0.000931648155070163
3.6	0.00117063973905721	-0.00380348663065733	0.774408323744292	0.616540918034569	0.774830807650301	0.616148395532442	0.00196536701114758	-0.00233161366040078
3.7	0.000741631890552659	-0.00467846306722575	0.861246574768733	0.488419635269255	0.861253264977377	0.488546054852675	0.00161959992955093	-0.00332386695903777
3.8	-9.2586675215881E-05	-0.00531043214469823	0.926563494333241	0.348787742557621	0.926591417561167	0.348970938622714	0.000867792294238757	-0.0042846416824095
3.9	-0.000785904688585455	-0.00562270692857007	0.969413158391232	0.200290252084459	0.969313395006764	0.200877369103916	-0.00059100928093872	-0.00513868681532888
4	-0.00129824476514223	-0.00506071156794036	0.98889686523541	0.0487778101619762	0.988978673033924	0.0488210334190262	-0.00173795819953687	-0.00486363411917354
4.1	-0.000959154146231815	-0.0057695248016868	0.985186586461266	-0.105533197420565	0.985124279320763	-0.105469349243537	-0.00233911131271373	-0.00540107161745556
4.2	-0.00190406452234794	-0.00658374035574873	0.956558308181513	-0.25797701894988	0.956750329458126	-0.257407113817255	-0.00365596914850731	-0.00583198675995536
4.3	-0.00292150681889181	-0.0074522931346942	0.905241744237112	-0.402747704340041	0.905242567506683	-0.402729168267029	-0.00520651000812503	-0.00622202920003193
4.4	-0.00481739166701274	-0.00801411396017719	0.832086602998264	-0.538180570187312	0.832006610773757	-0.53816486182508	-0.00740403630882482	-0.0062688512795001
4.5	-0.00675671467390087	-0.00743040875927816	0.739008080143216	-0.661587181737783	0.738884035574436	-0.66144126023107	-0.00982536531335604	-0.00503852143397707
4.6	-0.00780550989774351	-0.00672865547663907	0.626761519389274	-0.768564961991116	0.626746483654274	-0.768335276752164	-0.0110811145323335	-0.00359654315348034
4.7	-0.00906263913806675	-0.00657391530464137	0.49970369118247	-0.856527410860649	0.499820429107411	-0.856282200868058	-0.0126199152530873	-0.00240725192438473
4.8	-0.0105170359767491	-0.0057916710727579	0.360505274349532	-0.923728638342577	0.360799059395222	-0.923539261064763	-0.0137783158240495	-0.000645251165755109
4.9	-0.0114878360385837	-0.00503679372138066	0.212633553968616	-0.968559816987328	0.21289377637118	-0.968508253470419	-0.0142807978363316	0.00159529225738952
5	-0.0120798973269271	-0.00393885933099004	0.0592841105365513	-0.98962178222884	0.0594425512181941	-0.989493500921676	-0.0136550052232457	0.00423144332904755
5.1	-0.012388119127605	-0.00352382733257795	-0.0945844624998102	-0.986463977761325	-0.0942628961117419	-0.986400759092955	-0.0123517251409175	0.00629970307588084
5.2	-0.0131268820749573	-0.00241430580365132	-0.2466188784021	-0.960102249408071	-0.246190477258748	-0.960224009041187	-0.0110365215731161	0.0085932905503888
5.3	-0.0135958528089578	-0.00106961708479498	-0.3929080382349	-0.91033958344648	-0.392618092099231	-0.910684593325624	-0.00897123160030796	0.01093026442669
5.4	-0.0135975149980264	0.00119267297233609	-0.529928653457951	-0.838077835824918	-0.529792249954317	-0.838367960197888	-0.00637479679649759	0.0130667089344736
5.5	-0.0118104747924311	0.00309341382894583	-0.652994003892418	-0.745096531988231	-0.652943834317481	-0.745410840279248	-0.00229148438416064	0.0144470386173476
5.6	-0.0110591870711699	0.00302778276526115	-0.760630521296606	-0.635351292724355	-0.760643837956699	-0.635522028773046	0.000811705843270606	0.0132850135413265
5.7	-0.0114161769926953	0.00379220803367238	-0.850488135340062	-0.509500982042522	-0.850464180598655	-0.509676511508173	0.00285313597160222	0.012759212939124
5.8	-0.0115912993533415	0.00537806649044623	-0.919251464293892	-0.370922582636563	-0.919296291308553	-0.37121550617932	0.0048575395741268	0.0121328883626648
5.9	-0.0118197589776571	0.00725958507167919	-0.965413547825347	-0.223719254130873	-0.965534213834882	-0.223767345104547	0.00621289115880997	0.0114801526196666
6	-0.0101576859971974	0.0107291876043859	-0.988789003020047	-0.0718555645638449	-0.98878586035904	-0.0719244446766532	0.00843129287601205	0.0120155654807893
6.1	-0.00733166033177444	0.0109554760283245	-0.988519671650943	0.0832274280549755	-0.988522848403357	0.0831237189440329	0.0115837825215394	0.00968921748152095
6.2	-0.00614380355804894	0.0109152890204993	-0.963229173545579	0.236221395121411	-0.963277470394758	0.236039074022688	0.012895223348105	0.00661466418140079
6.3	-0.00561304694044743	0.0107394617951354	-0.914585547732395	0.382930615953565	-0.914610023986816	0.382801533939231	0.013182866359752	0.00327739797365729
6.4	-0.00546416686919748	0.0109989198079104	-0.84412125046417	0.520083174024557	-0.844112548082061	0.519868898274587	0.0122496730303594	9.93038264453539E-05
6.5	-0.00497331481738887	0.0116401932248406	-0.753356366033412	0.645723455461962	-0.753457442052673	0.645550490308265	0.0110179832068474	-0.00234478467575505
6.6	-0.00394939364351801	0.0122371376918723	-0.642871483561958	0.754821542123934	-0.643020729536082	0.75467530399257	0.00954108800112387	-0.00440166960350468
6.7	-0.00245607437576323	0.0126728870570926	-0.517727468042873	0.845069784218992	-0.517849276906015	0.844912290873209	0.00788928285178252	-0.00588202160058883
6.8	-0.000481153349644152	0.0125511253171768	-0.38023562906424	0.915131732425145	-0.380447536782145	0.91505678423246	0.00612530903310628	-0.00712859989919435
6.9	0.0012336199192797	0.0116379327072755	-0.233343367447727	0.963446994961573	-0.23359499016552	0.963443684471648	0.00427139392806453	-0.00795579163880767
7	0.00300945093359942	0.0102130682321058	-0.0797209834871337	0.987582506269036	-0.0799801735826765	0.987553173323161	0.00252461026561423	-0.0088094653324127
7.1	0.00349774496957868	0.00840020186514436	0.0740470669358213	0.987124898775029	0.0738399114713199	0.987113378070232	4.0105535815828E-05	-0.00916277570210769
7.2	0.00386655264554962	0.00705674934193626	0.226329042985909	0.963682351858817	0.226073276293046	0.963727238488935	-0.00205227971117343	-0.00846248011478097
7.3	0.00370322764524296	0.00554091274552637	0.373439103333919	0.916686865709485	0.373198651619607	0.916778590853434	-0.00386584845576556	-0.00738212407891498
7.4	0.00327598949906139	0.00439148518417366	0.511533382988698	0.846785901920642	0.511315372163623	0.846948970244817	-0.00553711176747119	-0.0058835967459723
7.5	0.00297393718159648	0.00333993801643343	0.635537838917189	0.756278110885581	0.63537835846523	0.756450622644153	-0.00617879748170057	-0.00385979664809692
7.6	0.00219012916771054	0.00173384091211455	0.745141623033386	0.649229892114937	0.744926512157833	0.64939154395756	-0.00651187961064945	-0.00290801640569777
7.7	0.000367716566492915	0.00119412804343762	0.837019214291971	0.525433856496706	0.836868651763781	0.525629471690809	-0.00727377288978147	-0.00136802051709686
7.8	-0.00111572366001913	0.00175659851953151	0.908277207647676	0.388634237525377	0.908157036854328	0.388856423089165	-0.00741984528751289	0.00056641225106603
7.9	-0.00272725583879281	0.00346455043249126	0.956726400501553	0.242866652872759	0.956686746973857	0.243092224857128	-0.00734688176862688	0.00329252890602561
8	-0.00132907262868122	0.00692572728501962	0.982975659716148	0.0924518156209114	0.983046912007156	0.0927437653944426	-0.00553755519942078	0.00687357956222612
8.1	0.0012312194034202	0.00686705127064055	0.985829172471034	-0.062132215216321	0.985954368190354	-0.0618611891532002	-0.00173012348370919	0.00741078422862345
8.2	0.00236831044694456	0.00615239679297849	0.963458646737672	-0.214653911794673	0.963525714431527	-0.214358150715153	0.000346347335373089	0.00685096600276956
8.3	0.00272313980769575	0.00545927957465115	0.917843084330705	-0.361247877694596	0.917981600801182	-0.360992516197474	0.00202696545365552	0.00580398473904617
8.4	0.00233525686287414	0.00474583447583148	0.850813183766082	-0.498705786520643	0.851025459268166	-0.498506738813638	0.0026477323276012	0.00415951525923877
8.5	0.00178129132797549	0.00634463038815262	0.763488254208822	-0.625668647098036	0.763604572092014	-0.625543128100368	0.00271066819351498	0.0043035882181998
8.6	0.00382348433385112	0.00616512668474442	0.655693851886926	-0.73621181862522	0.6558919125847	-0.736027449488288	0.00462324412886114	0.0030216622893689
8.7	0.00418315277957668	0.00532954417919994	0.533395068931068	-0.828215401376308	0.533676891121425	-0.828107420147014	0.00494913438512566	0.00118486726225988
8.8	0.0045726659228794	0.00465064446072275	0.398711080739162	-0.900717944684352	0.398917036311018	-0.90066436942599	0.00459179111101799	-0.000414549307990059
8.9	0.00452903860370867	0.0039162957262414	0.253986092598344	-0.952104384600837	0.25422817132821	-0.951965092056204	0.00382782514768192	-0.00164915639116946
9	0.00488319038648799	0.00381732523183947	0.101762962279784	-0.979034968066216	0.102124513039954	-0.979007101378759	0.00308959707880771	-0.00169892535957341
9.1	0.00575969007463361	0.00329907392287021	-0.0502496805655402	-0.981897447280698	-0.0498983242467136	-0.981913419303587	0.00311460756574869	-0.00171005763051691
9.2	0.0071109602736384	0.00281144512557708	-0.20177298621543	-0.962316449328484	-0.201418398245023	-0.962388270088634	0.00383269377955766	-0.00115636388924075
9.3	0.00911223764393617	0.00155829815749401	-0.348875356608422	-0.919264841527944	-0.348519440972558	-0.919330442585875	0.00571515496215134	-0.00117953048331961
9.4	0.0104201944376699	-0.00107249397440691	-0.487514574490071	-0.853105485014718	-0.487193017081206	-0.853254363187108	0.00711573358536771	-0.00240842501793431
9.5	0.0118001058621076	-0.00395052522624539	-0.612165542633039	-0.766219918993967	-0.611960889887864	-0.766357340596321	0.00893073607183929	-0.00371728177482683
9.6	0.00987564355478831	-0.00910368767626839	-0.723406106174217	-0.662970520270795	-0.723134991740874	-0.663155291638097	0.00792912128359169	-0.00711741088697083
9.7	0.00615035381104636	-0.0110581737427641	-0.817486749215273	-0.542509073688022	-0.817242266874254	-0.542777925137173	0.0058956279636108	-0.00815022116596948
9.8	0.00259035834798584	-0.0119645863471744	-0.891243801985584	-0.408769299975751	-0.891036548802042	-0.409043523577646	0.0041505285148661	-0.00851717019865672
9.9	-0.00161696384452822	-0.0111138165343876	-0.942629757277124	-0.26579110720611	-0.942518752703652	-0.266118753971218	0.00210753785120248	-0.00804658968958788
10	-0.00306988436266059	-0.00811171118829994	-0.972847945161106	-0.118072269799478	-0.972768411551686	-0.118448981119111	0.00220489375883654	-0.00564603507449613
10.1	-0.00425105801232935	-0.0085229000875407	-0.979743291820032	0.0351061945686456	-0.97972430070109	0.0346303621310249	0.00288877918918238	-0.0068024829013419
10.2	-0.00718328839970351	-0.0077351960494871	-0.961789448908038	0.186474072867293	-0.961775241525045	0.186026499710957	0.00187190176294562	-0.0073447701033378
10.3	-0.0101149771765529	-0.00555796255002165	-0.921015654284906	0.33268122928808	-0.921150645295102	0.332144007288619	0.000632290055791546	-0.00767366452361374
10.4	-0.0126856880838785	-0.0025173411446903	-0.859059491011156	0.470667407792443	-0.859323043730863	0.470134441022654	-0.000943322436253596	-0.00767926877364511
10.5	-0.0134313598481686	0.00290426750189693	-0.776455777991372	0.599682092370986	-0.776737596650659	0.599296833454774	-0.00140442798322263	-0.00616190961724536
10.6	-0.0108836283313633	0.00616757840208287	-0.672620864967871	0.712523292908243	-0.673045443754555	0.712181769117244	7.62096409477161E-05	-0.00641928451030486
10.7	-0.00853017398761683	0.00777437290640276	-0.554151748903403	0.807522290984257	-0.554561289423892	0.807236074645425	0.00089794243273538	-0.00811364677593304
10.8	-0.00690256196096133	0.00821938140534161	-0.422580797075344	0.883494243365764	-0.423088596353872	0.883266670215371	0.000164013861324069	-0.0103537712634256
10.9	-0.00592267029488264	0.00947958834833894	-0.28050457981646	0.939004272576443	-0.280990232016164	0.938953860235634	-0.00180751135284629	-0.0115315211657472
11	-0.00364914825841364	0.0105639379691689	-0.129968667955454	0.970189054448701	-0.130511894008439	0.970186106268538	-0.00312628005371912	-0.0118989664987274
11.1	-0.00153735402005475	0.0110553036517126	0.0207390357958004	0.9775806202996	0.0201140850261238	0.977663597690544	-0.00468793623852597	-0.0123895314458261
11.2	0.00096820143475288	0.0110627138617939	0.171532308572591	0.962995238664749	0.171016411031338	0.963197223090939	-0.00597294467420538	-0.0123884226030437
11.3	0.00344687918531783	0.0105794429325736	0.318815985329189	0.924971916166059	0.318389073844317	0.925233093643562	-0.00703509353318453	-0.0121911743456176
11.4	0.00552966046683732	0.00983434507251719	0.458785655288837	0.863675899670199	0.458324609920317	0.863934670239427	-0.00831465426848401	-0.0112442677882501
11.5	0.00944748613574759	0.00888767498814217	0.585068382568333	0.781495770426086	0.584713041810787	0.781910460115434	-0.00763677153849655	-0.0100426797864912
11.6	0.0110261442700051	0.00449854891639332	0.69916845070076	0.683017997207992	0.698902735811576	0.683495089888014	-0.00870909985564004	-0.0111549130678646
11.7	0.0109288296155314	0.0018124762033243	0.797111589693909	0.566393671047514	0.796873504724061	0.566813001235792	-0.010603949127466	-0.0106800704109061
11.8	0.0100844193063905	-0.000726673301697135	0.875097664408047	0.435568721520308	0.874914142553815	0.436117507756062	-0.0125873650614915	-0.00980700777641551
11.9	0.00823414163343391	-0.00162726585560385	0.930885027764417	0.29514022887735	0.930846132918877	0.295680589136989	-0.0152543529232667	-0.00751972559252918
12	0.00876612378627137	-0.000234351533579196	0.966441904272441	0.149524127313443	0.966427977345974	0.150001190350119	-0.0149476309004286	-0.00287353902656481
12.1	0.00969875146245381	-0.00295174611259115	0.978937833877162	-0.00306779974601494	0.978911924879326	-0.00259677578378072	-0.0137447283422711	-0.00205244864192532
12.2	0.00849474611049735	-0.00503727173624185	0.966419036636013	-0.154846854604948	0.966523991519707	-0.154411069469352	-0.0135352471064999	-0.000539651002111158
12.3	0.00726791946350436	-0.00655728342278728	0.930925772327115	-0.302223897340375	0.931109426906913	-0.301866445371141	-0.0125888289727883	0.000692578144929714
12.4	0.00478804674751246	-0.0082840596149169	0.874368308750906	-0.442492605250703	0.874498971604958	-0.442118055385936	-0.0122082566494711	0.00109546442057093
12.5	0.00276858566681287	-0.00740698903292876	0.79593472192729	-0.575114267023011	0.796391539650678	-0.57472032974178	-0.0115968255227753	0.00298242827158587
12.6	0.00193879122161946	-0.0085371802319039	0.695667062216346	-0.691431002989781	0.696012361327408	-0.691121073269599	-0.00977876149004245	0.00261880098264927
