# GHZ S RI R 50
0.2	-8.33879006784542E-06	-0.000566280652539975	0.951333062909777	-0.307290866667959	0.951106558083259	-0.307433340436377	0.000223847418392657	-0.000488138151153252
0.3	-0.000553474192258466	-0.000354805045944275	0.89205103465294	-0.451281645259491	0.891913350025505	-0.451335207980888	-0.000270329207072716	-0.000761544774276187
0.4	-0.000905382220527832	2.07216504212137E-05	0.811255425348785	-0.584313939604559	0.811295905541571	-0.584453924532289	-0.000674473793028958	-0.00062522143978822
0.5	-0.000855627199018923	0.00115820241909988	0.710443763590752	-0.704096943834829	0.71033284381909	-0.704193294974755	-0.000421466803806035	0.000209327690014327
0.6	-0.000148584837252763	0.000790990539617397	0.591871915445078	-0.805534611932968	0.591681690201094	-0.805537706113493	0.000268680318554776	-0.000539907448535579
0.7	-0.000491914132439014	0.000897048135955846	0.459700075157126	-0.887550549602038	0.459625799308809	-0.887585142668382	-8.19396039698953E-05	-0.00117299904355954
0.8	-0.000536458372633691	0.000920518121394436	0.316167884213827	-0.948532682863981	0.316048757402703	-0.948445697985634	-0.000598489111124739	-0.00152728770863561
0.9	-0.0011342639423954	0.00122193260441375	0.16445880454654	-0.98632707489447	0.164309101881523	-0.986284072824926	-0.00179581431328977	-0.00184611923055758
1	-0.001374733893025	0.00319943365739413	0.00873266841509269	-0.998924995338215	0.00861413926194074	-0.998895181112863	-0.00286593322319973	0.00011970021035256
1.1	0.00122995744984016	0.00304295828691323	-0.145146136358884	-0.98839355123172	-0.145796343803552	-0.988358626629248	-0.00102920205436881	0.00028495312334748
1.2	0.00182714683705113	0.000874984810370141	-0.298067000664819	-0.954043522892175	-0.298059987188402	-0.954099463445295	-0.000700203818995456	-0.000633745677240338
1.3	0.00208368569601952	-0.00165281736922902	-0.443000324769178	-0.895901494112622	-0.443092883805744	-0.895926044957384	0.000384159130517454	-0.00106439100347511
1.4	0.00161844943273059	-0.0041790667465806	-0.576641695314455	-0.815690799133809	-0.576715749725312	-0.815590714680278	0.0014808363131649	-0.0021011070671918
1.5	0.0023736104728068	-0.00562272866917883	-0.695684378301408	-0.716545053730409	-0.695709089865292	-0.716472682883723	0.00378245643484832	-0.00386722836090326
1.6	-9.11503815001258E-05	-0.007217904262733	-0.799337235599587	-0.600536837385767	-0.799768989972021	-0.600033167950245	0.00120066123069828	-0.00656358214983548
1.7	-0.00138077999622609	-0.0054956642913254	-0.883176990864551	-0.468217456050478	-0.883482417582119	-0.467724214922059	-0.000979821390264054	-0.00563759959966711
1.8	-0.00185517243026433	-0.00422209053213463	-0.945136663563038	-0.324424899192061	-0.94515218318595	-0.324415349681173	-0.00240841505966885	-0.00474137772342094
1.9	-0.00191624971150927	-0.00228995833081257	-0.9838954685321	-0.173676359220253	-0.983940335745111	-0.173729317030734	-0.00333498435646797	-0.00284833202504734
2	0.000980856311342645	-0.0015717716830711	-0.999938431922036	-0.019136184138958	-1.00003236263683	-0.0184819171230366	-0.000841954598135329	-0.0016057939848776
2.1	0.00020408465478485	-0.00442619044098552	-0.990038764056293	0.139342453729854	-0.990141064073094	0.138855389308073	-0.00164298623586368	-0.00435940106578175
2.2	-0.00184621641489188	-0.0042878831453474	-0.955666770587408	0.290844458833207	-0.955705141761357	0.290979217278959	-0.00371575330988014	-0.00402669270387608
2.3	-0.00309016694354728	-0.00353381479009018	-0.898575487091961	0.435709430134353	-0.898410235451398	0.435797580328061	-0.0051064270277505	-0.00312132389720635
2.4	-0.0045680826719292	-0.0021316382498922	-0.819461888921609	0.570964228332215	-0.819757647206833	0.570501017628098	-0.00646133103407758	-0.00138949493185467
2.5	-0.0030935343074871	0.000540223891107163	-0.719603374916774	0.692491170987331	-0.719910440525216	0.692110453765567	-0.00436863508581693	0.00135769705094048
2.6	-0.00206278631611942	-0.0012987056240998	-0.602356894962882	0.794101171871154	-0.602277786147152	0.794040895607636	-0.00222411191135471	-0.000797727836441576
2.7	-0.00299398896428817	-0.0017857054518695	-0.471631957346259	0.877398331005794	-0.47160225490512	0.877412249045869	-0.0028451290809662	-0.00217593984229776
2.8	-0.0038497859725257	-0.0015814657389957	-0.329442918693288	0.939830752596446	-0.329323585614122	0.939914602626104	-0.00368890841364836	-0.00251176901223115
2.9	-0.00360789384409326	-0.000792610658647072	-0.178441125167295	0.979232774632459	-0.178436147796851	0.979287708053508	-0.00394501279840676	-0.00169212948277198
3	-0.00279531549145287	-0.000892708703263068	-0.0233952399515097	0.992732251105896	-0.0234589179138145	0.992804407639504	-0.00304288962814496	-0.00148927895094855
3.1	-0.00285856584232386	-0.000548930127474583	0.128737964946047	0.984129725860442	0.129387226327524	0.984205509795839	-0.00331933692135923	-0.00102670585423705
3.2	-0.00214899437550396	-6.9181698255279E-05	0.280801893507256	0.951962746241375	0.280792276558178	0.952002459348288	-0.00269290380013577	-6.97223449024962E-05
3.3	-0.00104095444441952	-2.11704848137827E-06	0.426031579397259	0.895730100160035	0.425411405740824	0.896017500594548	-0.00152126993647361	0.000440573757938594
3.4	4.58267550324092E-05	5.94077042645263E-05	0.55878445163961	0.817756697008003	0.558700711626427	0.817872680505444	0.000201934972826947	0.000761683544504029
3.5	0.00225878713142103	-0.00169462856146142	0.676943010928725	0.721772831303544	0.676957417221443	0.721798870777212	0.00288116837985465	-0.00125740767601188
3.6	0.000710759882817022	-0.00362235860026561	0.781405347187717	0.608785832460253	0.781823971807736	0.60838860510786	0.0015719209626676	-0.00373805881589128
3.7	0.000139848683554555	-0.00371086727204885	0.866545464914286	0.478529950490297	0.866553585477897	0.478656259896579	0.000735223914756759	-0.0040163657937477
3.8	-0.000433901163447245	-0.00390596633878326	0.929306097084669	0.337815518220816	0.929336062602028	0.337998157096723	-5.33959588620801E-05	-0.00435812626778067
3.9	-0.000535398951564457	-0.00346493232002204	0.969728406583569	0.189576076906004	0.969635091693662	0.190163155138796	-0.00105516667541014	-0.00398986023321864
4	0.00142977844730932	-0.00381628273527344	0.988703504281359	0.0377128864789163	0.98878573312586	0.037755165155516	0.000806172601249065	-0.0041122883281879
4.1	0.000302481075799151	-0.00699997628709388	0.981465488153879	-0.117942171082441	0.981404151186391	-0.117877675348625	-0.000679134827342545	-0.00746558465366223
4.2	-0.00212057378805332	-0.0075326107036127	0.949530479358936	-0.268948385817459	0.94972888527555	-0.26838314828991	-0.00343217558643507	-0.00799924934818694
4.3	-0.00394578292471765	-0.00778085469321956	0.896083009041296	-0.411754705288487	0.896084052011378	-0.411736267194922	-0.00593148673117062	-0.00796554772332967
4.4	-0.00636511887830169	-0.00700322880588582	0.821584549113513	-0.545615136499227	0.821505132169669	-0.54559853959985	-0.00891535117520938	-0.00659273630973795
4.5	-0.00623907821081174	-0.00508750744926078	0.725322410939434	-0.667711604835886	0.725201144916153	-0.667564870190152	-0.00909292819543984	-0.00349461115251837
4.6	-0.00677483122691557	-0.0064299918815464	0.611551087329662	-0.769645948891523	0.611539072939783	-0.769418106906527	-0.0091014996466441	-0.00419240932279848
4.7	-0.00894158303221809	-0.00663914882658279	0.485202827372478	-0.854111726457891	0.485321255631381	-0.85387017055049	-0.011207832053171	-0.00387926713085729
4.8	-0.0109523020125183	-0.00566965262684646	0.346762360311211	-0.918470859442825	0.347055293844037	-0.918286598613549	-0.0128710635948903	-0.00249229714066113
4.9	-0.0121276210805555	-0.00434392917346328	0.199403491552561	-0.960276352752265	0.199661425880088	-0.960228282420272	-0.0137597944952696	-0.000147208749267586
5	-0.0122644141919485	-0.00334156407055103	0.0485300682558383	-0.976442545072726	0.0486875907328496	-0.976317638882193	-0.0128748124233421	0.00194828890056871
5.1	-0.0134153061119908	-0.00260391494870545	-0.100645022539581	-0.972262324816964	-0.100327384390617	-0.97220236853754	-0.0130599203410372	0.00377876861267955
5.2	-0.0137687934923108	-0.000520204398704744	-0.249925662858116	-0.945325881626435	-0.249503936297564	-0.945448957306246	-0.0122998969576987	0.00711190343777814
5.3	-0.0133106018915279	0.00129649221023772	-0.393119475338371	-0.894778745434577	-0.392835895807942	-0.895120673111462	-0.00996030510639062	0.0105600093273504
5.4	-0.0116474304813599	0.00372181183747762	-0.525976449629708	-0.822163035370318	-0.525843698358212	-0.822449316485647	-0.00567388467304283	0.0138266095852797
5.5	-0.00824134166409749	0.00210578632567298	-0.644535850317143	-0.732248009107207	-0.644487120918248	-0.732557590053759	0.00106723437091717	0.0119557709946967
5.6	-0.0111987515156283	0.00125188110059556	-0.751504046872751	-0.6247124075929	-0.751517576528245	-0.62488073089388	0.000567820915125751	0.00913996777057608
5.7	-0.0123327805494597	0.00358655933345689	-0.839184545600933	-0.500237576884341	-0.839161318691132	-0.500410598315576	0.00120254568766024	0.010008911367837
5.8	-0.0123738603077011	0.00616059798522323	-0.905645763663736	-0.364276991112329	-0.905690224419674	-0.364565402794545	0.00281837011749742	0.0108110629966231
5.9	-0.0116680031214737	0.00938832096838418	-0.950579742024739	-0.221116633433967	-0.95069853755167	-0.221164093495855	0.00500949697220081	0.0125513760540934
6	-0.00663096790337516	0.0109570883618329	-0.975761269226518	-0.0719547645335282	-0.9757580953395	-0.0720227389009606	0.0120119319321197	0.0121453925933283
6.1	-0.00685286936666703	0.00813432505580148	-0.974320689523022	0.0817914547626284	-0.974323795558925	0.0816892369483547	0.0134428720549013	0.00582073822813259
6.2	-0.00793336564612562	0.00927624351196536	-0.949002415241028	0.231038057293532	-0.949049676479774	0.230858423325479	0.0126230444044127	0.00283248611689334
6.3	-0.00800966322441669	0.0107285445463318	-0.902093659654391	0.374372733679926	-0.902117370123693	0.374245506373717	0.0118499461350533	0.000357831534509626
6.4	-0.00731941141886257	0.0124939411871227	-0.834391446695962	0.509687181121117	-0.834382055003619	0.509475907009145	0.010718172048946	-0.00153876469114625
6.5	-0.00546279130995206	0.0132081302115794	-0.744047059470469	0.634472377683802	-0.744146236523551	0.634301668033357	0.0102808471531545	-0.00375978606318936
6.6	-0.00407316306203687	0.0135925478046021	-0.636050748300101	0.739639858132008	-0.636196902715768	0.739495276940192	0.00866921847236797	-0.00563798723146175
6.7	-0.00209555775320883	0.0136562747297242	-0.515145466121106	0.828680694298831	-0.515264380797215	0.828524854442315	0.00740692511217061	-0.00684530087182947
6.8	-0.000115310904918815	0.0130531636709655	-0.381198080925292	0.898885995161574	-0.381406320889017	0.898810630676863	0.00600184422494945	-0.00810212952998796
6.9	0.00160441616958188	0.0118766991622076	-0.236791708209344	0.947504861700947	-0.237039580325507	0.947499797013906	0.0046897452900273	-0.00903800890850161
7	0.00273926323357812	0.00970330117776128	-0.0873451288994643	0.970271018713302	-0.0875996992679138	0.970239826110057	0.00287148492897716	-0.0109585227083067
7.1	0.00233777172412675	0.00870962259553293	0.0611052959808903	0.973203352195804	0.0609013864487375	0.973189521522857	-0.000423576595134234	-0.0110093946402205
7.2	0.00279738380263915	0.00802944820175185	0.211106446706265	0.953349512735172	0.210853613480657	0.953390566814833	-0.00247496802272215	-0.0099565152082946
7.3	0.00281777282321683	0.00700596070972002	0.356407605787693	0.909486443254452	0.356169124927491	0.909573783328754	-0.00419220395494254	-0.00867847356755492
7.4	0.00292181821593222	0.00639936100204797	0.492233412416042	0.842802978105918	0.49201596847497	0.842960653012003	-0.00546887675841619	-0.00684655678785217
7.5	0.00343274067573547	0.00479513987828691	0.614707801429215	0.759028404463464	0.614547050695442	0.759196083547593	-0.00534234144002908	-0.00581390691631678
7.6	0.00188358409438551	0.00330429094283473	0.727435381606688	0.656565309378545	0.727219320448143	0.656721830355251	-0.00699014091733831	-0.00538950527039938
7.7	0.000540181413721722	0.0035301798541219	0.821145086957188	0.535671266848891	0.820992356713374	0.535862691458115	-0.0082674385772226	-0.00298368475936908
7.8	-0.000149753817290792	0.0043462888963575	0.894433261806092	0.4022704579244	0.89430994237555	0.402488800020977	-0.00836748878652612	-8.67365853383898E-05
7.9	-0.000440902363928146	0.00626352112659245	0.946296846177235	0.260476152041912	0.946252937732894	0.260699615252381	-0.00707684324887612	0.00405055158599619
8	0.00392477084924091	0.00691372207522426	0.979068953579119	0.111074873055861	0.979134460183425	0.111367552828264	-0.000940914337309385	0.00643943640310498
8.1	0.00329787476368311	0.00334798366608606	0.984469067066493	-0.0444376471540586	0.984589127770861	-0.0441650715226031	0.00129653620584304	0.00264753556241215
8.2	0.00150776835839508	0.00311926443897426	0.965531706170516	-0.196306423453273	0.965593139241052	-0.196010004160019	0.000954104251749098	0.00154370074558019
8.3	-3.58097329768409E-05	0.00371857854365997	0.924395013289631	-0.343445164535837	0.92452856039233	-0.34318724932636	0.000650837613891102	0.000914302617635355
8.4	-0.00162291714902257	0.00568328314477602	0.861857585710107	-0.483730423178864	0.862066547287217	-0.483526997788437	-0.000519058295975185	0.00151771993788212
8.5	0.000909991385554675	0.00947232669585053	0.775108455197906	-0.614548681269016	0.775222971302562	-0.614421034281627	0.00264686619942464	0.0043504815868754
8.6	0.00299833160724835	0.00716203949103185	0.669509885004644	-0.725523044874116	0.669704929306939	-0.725334949061999	0.00541461839559193	0.000152579880261868
8.7	0.00240348568404272	0.007080470137246	0.550123994233034	-0.820842661059562	0.550404655247704	-0.820729200783969	0.00433470607163168	-0.00227420818493294
8.8	0.00290874746226849	0.00752496967451499	0.416605335080563	-0.897634261942068	0.4168112576622	-0.897576763852922	0.00279215464020187	-0.00357364422237487
8.9	0.00361814593777916	0.00808039134399234	0.27095589508681	-0.952766931425591	0.27119691200984	-0.952622944014509	0.00101627911831794	-0.00342669274682993
9	0.00642401054983206	0.00833361619884041	0.119296606778155	-0.980695223440374	0.119658941018451	-0.98066091588485	0.0015664252351885	-0.00188965457715826
9.1	0.00834041869569578	0.00645424338279603	-0.0318118676378711	-0.989129385238159	-0.0314579618581143	-0.989138746783422	0.00223298669425563	-0.00213788903006197
9.2	0.0103831504243093	0.00453676955798866	-0.185969487543854	-0.973900907593106	-0.185610676916757	-0.973966884392657	0.00372672133309432	-0.00162164553987374
9.3	0.0118947131265949	0.00177828293446107	-0.336113945783144	-0.933549821117049	-0.335753700614005	-0.933609857468777	0.00605538772320864	-0.00198757328290524
9.4	0.0129089015001814	-0.000854796234874744	-0.476874214185738	-0.869146992754824	-0.476547220767788	-0.869291553166169	0.00864002240263735	-0.00251483404071907
9.5	0.0143455864395049	-0.00703740792084923	-0.604092810413072	-0.787114788456762	-0.603883091014543	-0.787249753256469	0.0126720200881748	-0.00791330580647763
9.6	0.00812642940874603	-0.0113521506599385	-0.722462896771857	-0.685161603203819	-0.722184630757652	-0.685344371235493	0.0075415077518221	-0.012609704041843
9.7	0.00397566010497123	-0.0110344975238871	-0.821314656513287	-0.563709534083707	-0.821062197887339	-0.563978598081914	0.00409348607976946	-0.0122127417313179
9.8	0.000682200156348989	-0.0105119708558297	-0.89918556922784	-0.428969152453213	-0.898970801629369	-0.429244569177842	0.00161938952387091	-0.0111006006618468
9.9	-0.00230112300728214	-0.00783051510211309	-0.955303221716248	-0.285233568459141	-0.955185127149191	-0.28556532973018	0.00019609586731672	-0.00780747035368269
10	-0.000153492686542939	-0.0071915658088273	-0.992362976666227	-0.13295379467114	-0.992276950283853	-0.133337634081552	0.00514789707900396	-0.00668892990861105
10.1	-0.00449677940710593	-0.00962844059178324	-1.00033411944692	0.0263704862431316	-1.00031014059403	0.0258850016196585	0.00352939257940715	-0.0110357648855985
10.2	-0.00854967105761516	-0.00736945053127648	-0.983496218682814	0.181866327459072	-0.983477760887395	0.181409545070232	0.00078128148916608	-0.0108216099318002
10.3	-0.0112753290962691	-0.00407814614674275	-0.94377143204223	0.332915616329803	-0.943905264202067	0.332365574016103	-0.00110639713939085	-0.00994422335770512
10.4	-0.0129465560175315	-6.46129171851917E-05	-0.881814267942598	0.477282600566069	-0.882081252685497	0.476735665687288	-0.00244449273734391	-0.00804871989523702
10.5	-0.0110713184484413	0.00432289637427803	-0.79414983330753	0.612135689616509	-0.794437484635615	0.611741666614493	0.000324248759557783	-0.00607568209423556
10.6	-0.00963383975182336	0.00463390856199388	-0.68728385882088	0.725939575149121	-0.687716520022555	0.725590513104067	0.0022893519529004	-0.0090753763480237
10.7	-0.00959761272444638	0.00595659961538154	-0.566472182001938	0.823884133757569	-0.566890015783153	0.823591560925666	0.00198028283342828	-0.0117127607492344
10.8	-0.00940751833613775	0.0077305535871092	-0.430922035300793	0.902706720754388	-0.431440865196596	0.902474680616114	0.000152222386509652	-0.0138072444069789
10.9	-0.00835410461247053	0.0102510445863182	-0.283058674707045	0.959210368920542	-0.283554455186795	0.959160576397195	-0.00162292992872176	-0.0145949568616752
11	-0.00599139433424636	0.011410854751731	-0.129561010772218	0.987623773310189	-0.130113804989751	0.987622282197397	-0.00288664982844079	-0.0157566258383784
11.1	-0.00430148204901891	0.0131210860265131	0.0233715660538976	0.996666577942737	0.0227345730127261	0.996752603002606	-0.00548256450731304	-0.0161041813717756
11.2	-0.00119167170505996	0.0141381895159688	0.179069766364066	0.981573227250742	0.178544384853687	0.981781456855248	-0.00713552323089398	-0.0156227093258796
11.3	0.00220976462493009	0.0144865120129239	0.330479980808827	0.940931310186656	0.330046382481979	0.941200072545884	-0.00837908849353297	-0.0144578978466182
11.4	0.00610955178056952	0.014375935995762	0.472313631681492	0.876027554801736	0.471846080009962	0.876293791553026	-0.00839117892446625	-0.0122675501701999
11.5	0.0113528302524706	0.0106311245282416	0.600178116853843	0.793904900544604	0.599817843174362	0.794329352212721	-0.00579226928553986	-0.0140729784945105
11.6	0.0106722679907312	0.00647620906166704	0.719285052955766	0.691329669075	0.719017806717565	0.69181882592516	-0.00993367039785057	-0.015849972739635
11.7	0.0111388215308057	0.00508195092199617	0.818374445848608	0.569239733782593	0.81813602589731	0.569669637512595	-0.0127277725360608	-0.0138583891472189
11.8	0.0113930873082224	0.00301511122941298	0.895981381760984	0.433972750097666	0.895800509904252	0.434533648554942	-0.0148255673264835	-0.0112877136354896
11.9	0.0123215880386108	0.00274857454280499	0.951740344062208	0.290456493896465	0.951706672029674	0.291007499869627	-0.0153067037736235	-0.00613253933147894
12	0.0161386859060493	-0.000557866574344097	0.98863212804704	0.138467807505843	0.988624898022477	0.138954947439004	-0.00958921991295428	-0.0038314323842955
12.1	0.0131192399818707	-0.00719661781671722	0.996105473764458	-0.0202398017670329	0.996087345449422	-0.0197600385845308	-0.0101790964783729	-0.0074044027100729
12.2	0.00888046060247112	-0.00956603241955116	0.978943350534525	-0.174838919436616	0.979057877791025	-0.174398124157017	-0.0119570346014024	-0.00700614419676936
12.3	0.00490780290451107	-0.0104749354860861	0.939154600686367	-0.3244682332456	0.939347811615878	-0.324108907543351	-0.0132726167752414	-0.0059960369138522
12.4	0.000376045048484349	-0.00962881194717113	0.877920163042447	-0.467473328727302	0.878060658600729	-0.467096014388714	-0.0149403845537895	-0.00353378663361121
12.5	-0.000122134050591612	-0.00688130903284018	0.790511300648852	-0.600889636952436	0.79098275159747	-0.600502603945382	-0.0122328894187742	0.000237644280770295
12.6	-0.00194270866160074	-0.00821019395840156	0.685199677303051	-0.7127305515884	0.685554754009288	-0.712426139367292	-0.0106916773979595	-0.00177348340954121
