# GHZ S RI R 50
0.2	-0.000152373213212868	-0.000415133789461175	0.950314348036583	-0.307529040232661	0.950087969332767	-0.307671263989533	-1.12877412607755E-05	-0.000235325781095372
0.3	-0.000536533780675121	-0.000208098337766246	0.890752190762753	-0.451386378587195	0.890614622824465	-0.451439788124265	-0.000369447601486095	-0.000392976701150436
0.4	-0.000648519168897506	4.56085125572909E-05	0.80962427624968	-0.584094468043037	0.809664589115658	-0.58423428108155	-0.000498385704203086	-0.000261279885941492
0.5	-0.000667052764730575	0.000657564722495477	0.70882727874547	-0.703110677228281	0.708716521147857	-0.703206802397603	-0.000289394245355407	6.71108339001745E-05
0.6	-0.000353082284600111	0.000518843401766185	0.590664946464371	-0.80439265386928	0.590475031422166	-0.804395686568553	-9.58293192186676E-05	-0.000341705118366226
0.7	-0.000535969683172914	0.000768293968237943	0.458538506653763	-0.886158429953908	0.458464348816277	-0.886192932679481	-0.000272833913160611	-0.00059829327034812
0.8	-0.000447012048820219	0.000813384450782092	0.315233722953259	-0.946718884667587	0.31511486354812	-0.946632037932864	-0.000500482737712373	-0.000698662202301278
0.9	-0.000662431337236692	0.00118916155644253	0.164101743866633	-0.984117474082064	0.163952375799895	-0.984074569942211	-0.000941509996374308	-0.000787294184394691
1	-0.000386509213389687	0.00209770626439151	0.00910120152807463	-0.997096627292247	0.00898287742266166	-0.997066913167527	-0.000948123869634859	-0.000251155226519631
1.1	0.00104590928894302	0.00174858146017095	-0.14493636340624	-0.986560644201306	-0.145585368676608	-0.986525745772683	-0.000403911693786946	-0.00095668839732625
1.2	0.00165524896610306	-0.000145417586351082	-0.297357742370116	-0.951999265552938	-0.297350740286951	-0.952055084555729	-0.000522992099205402	-0.00199342323119325
1.3	0.00171141386940546	-0.00273374633191807	-0.441688231653089	-0.894040964726768	-0.441780573714863	-0.894065492861051	-0.000326169523771376	-0.0025452413165371
1.4	0.00104311498648947	-0.00508514904980273	-0.57496848592764	-0.814397195335593	-0.575042452489677	-0.81429735943799	-1.68020684880225E-05	-0.00295197466619941
1.5	0.00103500793226009	-0.00603321082144092	-0.694385277060618	-0.715326821723833	-0.694409950652807	-0.715254581876796	0.0010126350722106	-0.00348035990650909
1.6	-0.000244684165773463	-0.00646479562800916	-0.797183857787954	-0.599105708688969	-0.797614572673218	-0.598603404108998	-0.00012822650361611	-0.0037522101940687
1.7	-0.000750483489883313	-0.00544426501215243	-0.880507675601865	-0.467552186635305	-0.880812613451325	-0.467060465407979	-0.000585867660906356	-0.00302079007378145
1.8	-0.00105322771134868	-0.00471445274697601	-0.942456612825607	-0.324480473191518	-0.9424721021983	-0.324470962059817	-0.00102026135307051	-0.00278073640676711
1.9	-0.00096912399477413	-0.00363449145684993	-0.981446533427516	-0.174057340393558	-0.981491252872242	-0.174110209836789	-0.00124722963175796	-0.00235566857253066
2	0.000185420583028298	-0.00366051297508807	-0.996785912760925	-0.019708811268142	-0.996879962469796	-0.0190566584601663	-0.000929651918503135	-0.00262789554095431
2.1	-0.000571312253088074	-0.00472948765808399	-0.987095801241702	0.137175321383044	-0.987196926522059	0.13668964618616	-0.00217553235755292	-0.00312605552872162
2.2	-0.00182122412614014	-0.00466248476311661	-0.953587303664129	0.288122738264854	-0.953625837572096	0.288257044672926	-0.00303076575911519	-0.00254971848051733
2.3	-0.00278110324131466	-0.00415979557167011	-0.897074031378254	0.432733067779317	-0.896909396769999	0.432821318862419	-0.00355481696690976	-0.00209852203755009
2.4	-0.00380465112987281	-0.00322871615689406	-0.81823317037474	0.567598078019011	-0.818527105123045	0.567135617529337	-0.00396086320622583	-0.00163357116927358
2.5	-0.00327572168027583	-0.00201203403587887	-0.719499396365356	0.687905398954474	-0.719804229078814	0.68752492868004	-0.003335641552814	-0.00178111144728698
2.6	-0.00353122291191874	-0.00255590169328668	-0.603976323845653	0.790303361696358	-0.603897160667217	0.790243493796834	-0.0040531106163122	-0.00281906237011055
2.7	-0.00413315916558722	-0.00213741733371546	-0.473721519141792	0.874223719531214	-0.473691917294514	0.874237711995119	-0.00523329279920431	-0.00255402150590406
2.8	-0.00431611033309818	-0.00155333235834049	-0.332104234483408	0.936959310831069	-0.331985412065065	0.937043421559856	-0.00564832349168131	-0.00163672681883567
2.9	-0.00352467804323144	-0.00101583756402263	-0.182117865525012	0.976699099842741	-0.1821131220493	0.976753952430145	-0.00523121644548304	-0.00045631431437935
3	-0.00270657070057431	-0.00119008756876862	-0.0281258451256274	0.992156047724114	-0.0281898379416984	0.992227866359247	-0.00424227674524132	0.000294901152560522
3.1	-0.00207723669161618	-0.00114574569142164	0.125110707105018	0.984538687780717	0.125759647303885	0.984616854212734	-0.00325552777973118	0.00115826994196338
3.2	-0.00144114994669786	-0.00131483459072413	0.277181320569034	0.952734146887709	0.277171558693749	0.952773812851216	-0.00205520614327035	0.00146458052541467
3.3	-0.000552060162988947	-0.00159179953929542	0.422374799194426	0.897390679551193	0.421753506453312	0.897675548695184	-0.00069894041194777	0.00140631733696632
3.4	0.000215120768388697	-0.00199171932765439	0.555651012617958	0.8207847921474	0.555566707667707	0.820900498223294	0.000763371541584978	0.000840993567303722
3.5	0.00125346430396522	-0.00332495335290446	0.675808047815412	0.724990275050122	0.675822397260776	0.725016399950436	0.00166741734860705	-0.000761015401405247
3.6	0.00057266906909944	-0.00435188133861601	0.780075618324234	0.611354932714922	0.780495607350031	0.610958694677853	0.00133786699227964	-0.0015971112848327
3.7	0.00042713390368859	-0.00486504673707489	0.865556734767805	0.481782274042949	0.865564436856271	0.481908700895874	0.0015530956748839	-0.00216638341590132
3.8	-3.76459295821581E-05	-0.0053583176955649	0.929306095431559	0.341361471446503	0.929335482105311	0.341544435078632	0.00140483640763094	-0.00313705970785701
3.9	7.93974836747642E-06	-0.00555003027106337	0.970850123825619	0.192544951356985	0.970755047837734	0.193132767278324	0.000788006831655101	-0.00423829067013156
4	0.000413045257408077	-0.00649092456864667	0.989101450710434	0.0397987784235231	0.989183630790454	0.0398412494578631	0.00012321890840528	-0.005878637563019
4.1	-0.000741510776916624	-0.00799709043923934	0.982378607817143	-0.114563634448551	0.982317013644973	-0.114499320751294	-0.0024410215119735	-0.0069170789210793
4.2	-0.00247807627782539	-0.00835972805722862	0.951730556506903	-0.26591270001747	0.951927205399135	-0.265346016182754	-0.00456491460693848	-0.00658654531827913
4.3	-0.00388834562321071	-0.00853810306279016	0.89887148152275	-0.409527243191819	0.898872466585562	-0.40950877174786	-0.00639684949633629	-0.00614481318445459
4.4	-0.00550067189306762	-0.00800166274233021	0.824193291454979	-0.54392242669105	0.824113726912901	-0.543906038746776	-0.00809400838989969	-0.00515197523416156
4.5	-0.0057398822906832	-0.00760329564466557	0.728823360309084	-0.665082698668684	0.728701355686213	-0.664936375249024	-0.00893610618560169	-0.00453602132461288
4.6	-0.00720754954028041	-0.00813834955577856	0.616709841889223	-0.768974400171912	0.616696761730427	-0.768745990696416	-0.0111771197056747	-0.0042390976528832
4.7	-0.00908169866006756	-0.00804973353671275	0.489969873797205	-0.85500476280575	0.490087768745266	-0.854761990394325	-0.0135883826079786	-0.00270480245133732
4.8	-0.0109254860545774	-0.0070082568312815	0.351057773626259	-0.920199483148623	0.351351002758853	-0.920013617160835	-0.0151575228151414	-0.00026793225204675
4.9	-0.0119198848736442	-0.00577247974378427	0.203785517729133	-0.962519007194174	0.204044075912065	-0.962469777112529	-0.0155117081351064	0.00279811973476174
5	-0.0123680757917161	-0.00471166245159768	0.0530951159920581	-0.981202473756297	0.0532528886411469	-0.981076234664163	-0.0146053092534463	0.00569431469567277
5.1	-0.012725164294214	-0.00373635910131232	-0.0988837087342507	-0.977911029498972	-0.0985644467876631	-0.977849981371906	-0.0128469016111785	0.00873882435202179
5.2	-0.0126561939761189	-0.00236151493956627	-0.249327946721807	-0.950642535142646	-0.248903825372012	-0.950765403232319	-0.00998254156532765	0.0111943140738899
5.3	-0.0122293938218408	-0.00140141377176418	-0.39337906361368	-0.900243755704614	-0.39309331608174	-0.900586901525404	-0.00654382239754948	0.0125689763144151
5.4	-0.0113178213859881	-0.000150069312576514	-0.527624415044669	-0.828263626178074	-0.527490286877429	-0.828551416776334	-0.0031463005815829	0.0128767144233511
5.5	-0.0105665832484046	-0.00074978585747929	-0.649293680350359	-0.737156068789724	-0.649244714144107	-0.737467832958107	-0.00103174443761982	0.0115736543297029
5.6	-0.011724785162572	0.000363279494725958	-0.755967128272773	-0.627301613636127	-0.755980876806473	-0.627470801252852	4.49649317227044E-05	0.0123112986268352
5.7	-0.0118849087655524	0.00202377620611072	-0.843726163727574	-0.502309247803417	-0.843702915551687	-0.50248316099539	0.00270858510714389	0.0128118744643672
5.8	-0.0115860911630792	0.0040263737699745	-0.910838540496685	-0.365539106650625	-0.91088346874691	-0.365829045983453	0.00552704304325545	0.0123022897228697
5.9	-0.0105555834341702	0.00597379155928474	-0.956460518384959	-0.220585188661598	-0.956580086466851	-0.220632696216475	0.00816914384623267	0.0109702427582638
6	-0.00838487817022152	0.00639862009588589	-0.979611437288103	-0.0693205964435058	-0.979608453751496	-0.0693888335395961	0.00976372169669197	0.00773543819672061
6.1	-0.0089025698073677	0.00639131805109285	-0.977618138620028	0.0833270499762955	-0.977621386643434	0.083224479095499	0.0084333431561443	0.00603475381868247
6.2	-0.00900399841040786	0.00810511770528428	-0.952692916767092	0.233363163559346	-0.952740633148727	0.233182835952468	0.00836088634461961	0.00573767787505104
6.3	-0.00837506849785456	0.00974185279802371	-0.905229414570518	0.37787321163986	-0.905253492642535	0.377745481553081	0.00918969526934605	0.00493091281108506
6.4	-0.00694957402186841	0.0110984739984902	-0.835887454601618	0.513760536499469	-0.835878612951984	0.513548501909026	0.0102065017492269	0.00307788129429094
6.5	-0.00520893470279965	0.0112400541606261	-0.745353935938285	0.636885117243577	-0.745453545094669	0.636714060923418	0.0106972805312433	6.87895868404748E-05
6.6	-0.00368645749916809	0.0112483130512658	-0.638165769733227	0.743802995553666	-0.638312768316283	0.74365790861749	0.0102466815172421	-0.00276877625994762
6.7	-0.00221432910259536	0.0108182971250231	-0.515617037098731	0.833777244578097	-0.515736875368665	0.833620952825674	0.00878276540099378	-0.00562989552291755
6.8	-0.000786130909235339	0.0103843920309185	-0.38019805212419	0.903646956781865	-0.380407358128919	0.903571876934961	0.00629324155020292	-0.00759155703097553
6.9	0.000651790218800106	0.00952493650373596	-0.235469153255702	0.951323154495471	-0.235717895555344	0.951318632866412	0.00379020820457645	-0.00847572901844992
7	0.00180709260240645	0.00828041618272619	-0.0862108022467066	0.975764811317949	-0.086466827740465	0.975733870666525	0.00111686169660783	-0.0089021085116394
7.1	0.00250047136667174	0.00727768878098086	0.06550419652208	0.978259732759167	0.0652991162536611	0.978246678347039	-0.00112231472488763	-0.00817474258481448
7.2	0.00329153197906709	0.00611869689441079	0.216384300253146	0.95656205744081	0.216130546832216	0.956604445836488	-0.00272474218446072	-0.00715254130570401
7.3	0.00343930266618954	0.00469418538468897	0.36183355471129	0.911592883950497	0.361594494705052	0.911681622142139	-0.00415543010742418	-0.00585014663227051
7.4	0.00347562382546366	0.00355566365571322	0.498189571882985	0.844772360812795	0.497971750285142	0.844931720263173	-0.00530358556568892	-0.0042350053976898
7.5	0.00308045379280341	0.00204083536104501	0.623261774587338	0.758733766500365	0.623101348535901	0.758903455045043	-0.00607780034856122	-0.00249417590203709
7.6	0.00222585400801685	0.00132275105605646	0.734265973629104	0.652867796841802	0.734050510139382	0.653026346327643	-0.00604393818385595	-0.000268843309317692
7.7	0.00159828052137607	0.00111846270769923	0.826529959594883	0.531191621214591	0.82637821504398	0.531384491326298	-0.00492722228438872	0.00164329629806426
7.8	0.00139739413592018	0.00128082430566342	0.89907828332287	0.396969522383322	0.898956205099599	0.397189171017952	-0.00320836867485427	0.002621101001604
7.9	0.00150736901711323	0.00176167418857489	0.950316996207547	0.253414918209983	0.950274791141645	0.253639189536742	-0.00145588343016785	0.00267279590900387
8	0.00282080391873296	0.000702072187616727	0.979089276577267	0.102303968525789	0.979157308106013	0.102595781089433	-0.000690072880326703	0.00105060710157516
8.1	0.00132207688806556	-8.62856863493348E-05	0.982702654968435	-0.05074155855625	0.982824299205097	-0.0504701693134135	-0.00262287533915076	0.0013845888619443
8.2	0.000293255403157338	0.000474441005874397	0.963415362190021	-0.202158873443999	0.963478590896218	-0.201863111162063	-0.00302588075748357	0.00302592546386102
8.3	-0.00065723867423533	0.00158328968852802	0.921105601437023	-0.349292710314469	0.921240740014083	-0.349035966389251	-0.00252997453503122	0.00453815571344235
8.4	-0.000794624095322165	0.00355679509601473	0.856238961833168	-0.488760444056347	0.856448876854537	-0.488559029253049	-0.0011224633501014	0.00593762521442131
8.5	0.00115941324720579	0.0049045374564715	0.769370110474174	-0.615776558542094	0.769484778622043	-0.615649917399571	0.00145221006646251	0.00541947174352668
8.6	0.00205101200986903	0.00440896884888846	0.66523157794797	-0.72734135887409	0.665427146989394	-0.727154426098028	0.00160720505113195	0.00450516527255913
8.7	0.00250165871798802	0.00457627473290208	0.54468518891134	-0.822295648266681	0.54496594436148	-0.822183910069338	0.00245672624952166	0.00470279796361454
8.8	0.00335561079706396	0.00465205479501171	0.410521181099099	-0.897446555594745	0.410726851331496	-0.897390348150957	0.00365618877614384	0.00449244481435083
8.9	0.00444575383360048	0.00487927610910891	0.265881157075852	-0.95039625601635	0.266121896687516	-0.950253831754795	0.00546864876218934	0.00410496804669041
9	0.00702022362919233	0.00408043109958913	0.116006688966327	-0.979826831997914	0.116368671055119	-0.979793727538543	0.00788344351882002	0.0023156041594739
9.1	0.00894948524099215	0.00185143518746267	-0.0374024312116462	-0.987204150170783	-0.03704920273659	-0.987215515345773	0.00925254369129846	-0.000417018740711842
9.2	0.0102378601232111	-0.00125253733297635	-0.190712903233029	-0.9696889609362	-0.190355630197817	-0.969756693565669	0.0097535685634851	-0.00360649783235344
9.3	0.0100939810245863	-0.00409690039540761	-0.339049528659521	-0.928483691861027	-0.338690923764327	-0.928545126057108	0.00871096250148339	-0.00612597496291249
9.4	0.0100344896292435	-0.0062363098604131	-0.478627187333639	-0.865049352525734	-0.478301612061856	-0.865194669409049	0.00756083507777293	-0.00739321712798507
9.5	0.00915828952257304	-0.00976516994404694	-0.607780825916658	-0.781766450919483	-0.60757236982789	-0.781902451507676	0.0051983833848056	-0.00872594955971748
9.6	0.00653186111303874	-0.0115287630657014	-0.723024409200888	-0.677467759250138	-0.722748605339141	-0.67765129825111	0.00335147648127169	-0.00690276803199037
9.7	0.00418390108514155	-0.0123770743966394	-0.819652448218639	-0.5568866456648	-0.819402581029769	-0.557155483557363	0.00352904430270483	-0.00606397969266967
9.8	0.00161407875416806	-0.0126630705877353	-0.896605679751275	-0.423029483382479	-0.896393140328703	-0.423304465318367	0.00361856602727319	-0.00579391035891411
9.9	-0.000464093342584197	-0.0115521836974005	-0.952388447160171	-0.278889570004615	-0.952272643726129	-0.279220419141581	0.00435373445740112	-0.00588411676310453
10	-0.0014996287284723	-0.0122617725285726	-0.985271644513061	-0.126196482397582	-0.985188505709545	-0.126577777754812	0.00392998799395418	-0.00808465636900042
10.1	-0.00518279094287754	-0.0116907666795413	-0.992258933919581	0.0288405884927171	-0.992236448257256	0.0283589242886736	0.0014624413870218	-0.00736233929746199
10.2	-0.00774081385685969	-0.00973225203641956	-0.976075621885987	0.182845344796181	-0.976058351435206	0.182391771069816	0.0013764488575192	-0.00620143194931989
10.3	-0.00977070550522744	-0.00700810620563371	-0.936065901134439	0.332988316471233	-0.936200211243444	0.332442606816238	0.00179782292049486	-0.00617910360253308
10.4	-0.0105342138756093	-0.00412399701895093	-0.872614939797701	0.475469619872313	-0.872881059361294	0.474928310088735	0.00255794254725586	-0.00729235475214661
10.5	-0.0100512317711992	-0.00221980290787851	-0.786631425033747	0.605046464798238	-0.786915723703992	0.604656188562317	0.00262803805595385	-0.0106200448176967
10.6	-0.0107945713444282	-0.00114696877549322	-0.683536133338214	0.719286486175942	-0.683964941389116	0.718939209081762	-0.000507711989084102	-0.0131369940834115
10.7	-0.0116492334469271	0.00154254984273561	-0.563599280850123	0.817222811582507	-0.564013728642967	0.816931733262073	-0.00375828203191363	-0.013187016250975
10.8	-0.0111092061907992	0.0046352257710837	-0.429244518766031	0.895167044590037	-0.429759042253505	0.894935850702757	-0.00600803678041307	-0.0121514559820313
10.9	-0.00908521362265899	0.0075391103724698	-0.284249139236793	0.950581584164691	-0.284740805665067	0.9505304100984	-0.00704119245607343	-0.0109448135631552
11	-0.00634897102141195	0.00893625517424071	-0.133958437230521	0.98273329423348	-0.1345088502165	0.982729036703316	-0.00790788885637771	-0.0102712454624261
11.1	-0.00347982518975936	0.0102008867342116	0.0209635889723205	0.992529126271596	0.0203290752784388	0.992613313117324	-0.00836126261238931	-0.00923070371642454
11.2	-0.000205164164317329	0.0103128953658435	0.175567526336076	0.976960474915359	0.175044318795147	0.977166248147217	-0.0082873077442601	-0.0086720649935487
11.3	0.00307296073423059	0.010001595618592	0.325318261136169	0.937351140929102	0.324885882460837	0.93761693048825	-0.00787789001623823	-0.0081676657527018
11.4	0.00665924706805983	0.00873521990154606	0.466628673612844	0.875352724401291	0.466161415492225	0.875615880058285	-0.0072324391018147	-0.00814858340888397
11.5	0.00933992275492289	0.00574285106257075	0.597807293198192	0.793040629129048	0.597447202362571	0.793463681069723	-0.00843032141972633	-0.00896913302986296
11.6	0.010452123775187	0.00332790015635165	0.71439322882443	0.689255465304902	0.71412638355875	0.68974168069331	-0.00940862498755373	-0.00704635257933635
11.7	0.0117435084558298	0.00123526055587956	0.812556422020642	0.569333162270802	0.812317665863668	0.569760216356697	-0.0087061620329769	-0.00598952431037733
11.8	0.0125008800193405	-0.00120742213133207	0.89101609656408	0.435846592021068	0.89083371859205	0.436404733302357	-0.00807019283944944	-0.00580500510697779
11.9	0.0142995720645457	-0.00319848776519434	0.948396153806341	0.292080673160087	0.948361173186269	0.292630084878167	-0.00665389022270241	-0.00672006918783861
12	0.0141799559731422	-0.00797823491453389	0.982509126639502	0.139468288714337	0.982501041598707	0.139952524041085	-0.00873823260218953	-0.00954592310432681
12.1	0.011452202201759	-0.0117689196909483	0.990781977038937	-0.0152296280709337	0.990761587425276	-0.0147525660417429	-0.0127110033223815	-0.00935525488541589
12.2	0.00786204489419459	-0.0139160304276595	0.975852578311263	-0.169163783808229	0.975964404727532	-0.168724198686052	-0.0155815381919844	-0.00716020440439035
12.3	0.00404908840342553	-0.0143995169732176	0.937071156288402	-0.318979763233873	0.937262005837369	-0.318620921377767	-0.0174782638090206	-0.00412161000137255
12.4	0.000631207040211669	-0.013317226033478	0.875294332023173	-0.461335202959694	0.875432505518758	-0.460959271289285	-0.0177793929638728	-0.000452010217265237
12.5	-0.000537681862930017	-0.012253746270502	0.790789376679835	-0.5906938441629	0.791254773901708	-0.590305195969427	-0.0166415396316351	0.0013438030701773
12.6	-0.00280712886605561	-0.0118090932578831	0.689804048080425	-0.70516272349444	0.690155674608861	-0.704855932778	-0.0168684436139771	0.00366627445557571
