# GHZ S RI R 50
0.2	-0.000332208440066057	1.27860103383458E-05	0.948867087648652	-0.307864106298869	0.94864088880159	-0.308005975438259	-0.000176240215159609	0.000175191266579727
0.3	-0.000433721450353253	0.000292385022711373	0.88892588392097	-0.451507547440386	0.888788482930142	-0.451560744157706	-0.000248108928292499	7.08169429810751E-05
0.4	-0.000195558998132391	0.000429757487539941	0.807419909053464	-0.583757917709148	0.807459999388176	-0.58389749386243	-3.28567255982346E-05	6.7273323683527E-05
0.5	-0.000230395465405511	0.000510132122312709	0.706652067434221	-0.70192563243704	0.706541507263771	-0.702021451958339	0.000154830522714056	-0.000138507932521946
0.6	-0.000238316460598377	0.000590371648831525	0.588840545432873	-0.802935758506142	0.58865105752149	-0.802938668594862	4.38623868139154E-05	-0.000345857362797973
0.7	-0.000215019081680669	0.000939937734737976	0.456784301076465	-0.884277103511802	0.456710303390417	-0.884311469029574	7.02577170814717E-05	-0.000539135973907668
0.8	1.89511381079044E-05	0.000931493555186773	0.313798168126919	-0.944273982330829	0.313679690416761	-0.944187306712474	-3.70117762845125E-05	-0.000730414167592129
0.9	7.87264078444682E-05	0.00121828450151063	0.163329094594491	-0.981218542499026	0.163180185957923	-0.981175724060976	-0.000263576385480047	-0.00093265912816529
1	0.000262380508399813	0.0011276811878115	0.00898782183908372	-0.994385017807605	0.00886982229938638	-0.994355373993763	-0.000450419663487011	-0.00133488104534845
1.1	6.36132651440498E-05	0.00133958172398253	-0.144915456960986	-0.983573502989508	-0.145562522180505	-0.98353843897499	-0.00150772625029202	-0.0013610724453401
1.2	0.000312852901500958	0.00112547043694287	-0.29656428043124	-0.948754192046186	-0.296557313482163	-0.948809825934098	-0.0019143853687669	-0.000652338124233946
1.3	0.000742553690291889	0.000321583557109484	-0.440069081815667	-0.890952645831072	-0.440161098976684	-0.890977095986981	-0.00122808880953345	0.000578456293403038
1.4	0.0010943861359075	-0.00130166139286659	-0.572760603160621	-0.811771124118031	-0.572834344991525	-0.811671652054256	0.000197361057471375	0.000812867026021022
1.5	0.0011609953507204	-0.00234428238984324	-0.691907864719961	-0.712746464507905	-0.691932448313232	-0.712674483409371	0.00138702670205249	7.05503523249131E-05
1.6	0.0012372582511412	-0.00300957152749038	-0.793529835460441	-0.596854180452603	-0.793958903532821	-0.596354199416349	0.00154803975016595	-0.000668220410415546
1.7	0.00121052194373622	-0.0034996955694656	-0.876231811037584	-0.466347905335573	-0.87653588543511	-0.465858613430899	0.00140909430522975	-0.00152126495570528
1.8	0.000781149199139449	-0.00393193742193698	-0.937970475138348	-0.324257444129913	-0.937985909345595	-0.324247993641331	0.00071290896628956	-0.00242123793286273
1.9	0.000380713207390924	-0.00406305303721361	-0.976873700402999	-0.174607527423401	-0.97691815102118	-0.174660223321152	-9.00233704796699E-05	-0.00310276147578488
2	-0.000413705103124371	-0.00426805938985778	-0.991667204242924	-0.0213790337538597	-0.991761932760939	-0.0207303741194936	-0.00164847819925312	-0.00342562734166887
2.1	-0.000901393903939453	-0.00389555303756922	-0.982672389844806	0.133750328135187	-0.98277166617693	0.133266735362016	-0.00254824551823599	-0.00256057497520352
2.2	-0.00156331763097225	-0.00396951674058926	-0.950161200145875	0.283840029672079	-0.950199978416598	0.283973606610272	-0.00288949791868015	-0.00217711426378705
2.3	-0.0023389934055377	-0.00374937802638852	-0.894550554229036	0.427772327987437	-0.894386950351337	0.427860744026722	-0.00332953267908088	-0.00197066415887453
2.4	-0.00329738646535721	-0.00335487538660067	-0.816654793096162	0.561881883112127	-0.816945619979767	0.561420417173423	-0.00374948473022959	-0.00190655163406213
2.5	-0.00412848843940523	-0.00258599842777297	-0.719788787636956	0.681441221798305	-0.720090454151202	0.681060886935773	-0.00439807581506777	-0.00224905497736046
2.6	-0.00476505286569434	-0.00137675324113242	-0.605864769074028	0.784622529933306	-0.605785575916812	0.784563258620231	-0.00523487271177579	-0.00150832147030138
2.7	-0.00454745532044467	-0.000172341805577639	-0.476593429506203	0.869030865015816	-0.476563993182417	0.869044961303497	-0.00544586412552619	-0.00058422295657885
2.8	-0.00396722848676439	0.000603780626084286	-0.336120319022566	0.932304843990614	-0.336002312445808	0.932389335379094	-0.00506002921313821	0.000376547981590497
2.9	-0.00269091690480828	0.000997329918717215	-0.187462181446965	0.973008154280772	-0.187457777998244	0.973062888942745	-0.00418005576066836	0.00129672192918143
3	-0.00156883958796355	0.000917281458344623	-0.0340815652821893	0.990467800997137	-0.0341458943813455	0.990539122818128	-0.00290695202321333	0.00203709466591704
3.1	-0.000201047819042445	0.000549671608234859	0.119454104634053	0.983740777525581	0.120101626970759	0.983822428872811	-0.00127116114306866	0.00241568389160795
3.2	0.000575891235868835	-0.000271292890975745	0.271231292445998	0.952978883859037	0.271221313492931	0.953018435891976	-5.48571488260865E-05	0.00203850006581246
3.3	0.0014101208283924	-0.00116453558286621	0.416460294308942	0.899042394320663	0.415837904152731	0.899323176465383	0.00117771564505652	0.00140751245629448
3.4	0.00170446273391785	-0.00222020646833467	0.550431140257533	0.823899796418625	0.550346156354552	0.824014945839298	0.00216016454326488	0.000267157976731182
3.5	0.00195256019559078	-0.0031350701870213	0.671714950964439	0.728468262804082	0.671729155407394	0.728494458886271	0.00238227757570976	-0.000908977116007447
3.6	0.00187847402633112	-0.0040593268628066	0.775966494512335	0.615589033666095	0.776388565506557	0.61519553081074	0.0026444491515439	-0.0017669690582655
3.7	0.00169404609664645	-0.0051273641449439	0.862376662248338	0.487189970330567	0.862383562756775	0.487316426983141	0.00272001007566527	-0.00291231862772317
3.8	0.000967200133548495	-0.00601345553121617	0.927459414386387	0.347419870089646	0.927487642960613	0.347603087128741	0.00222743179899804	-0.00421973334745429
3.9	0.000516036684595388	-0.00673778291143132	0.970272173293802	0.19863762949895	0.970173421837856	0.199225227773178	0.00108104743519742	-0.00572124981127252
4	-0.000518933157596288	-0.00727206304482036	0.989041003671839	0.0462886766056771	0.989122922080463	0.0463316947917381	-0.000860363797188757	-0.00680890063049707
4.1	-0.00115286472017536	-0.00759181494845507	0.984349245220572	-0.107479290261964	0.984287107843451	-0.107415355090531	-0.00273143203791071	-0.00677612757731052
4.2	-0.00233035381243927	-0.00807338717693595	0.955512038542956	-0.259580787204857	0.955704992403831	-0.259011575859035	-0.00429428508343511	-0.00668161339182556
4.3	-0.00353075258317159	-0.00854789009003458	0.903909361847228	-0.404218265684156	0.903910219870478	-0.404199742768787	-0.00595471489997979	-0.00658302846881395
4.4	-0.00514748111121276	-0.00858979958751134	0.830151713960371	-0.539500866272019	0.830071829232137	-0.539484997985054	-0.00773339316998782	-0.0061511783777177
4.5	-0.00665337672790751	-0.00849586913582574	0.736538503626919	-0.661682306470223	0.736414933987107	-0.661536431458368	-0.00980447459882824	-0.00569145367465857
4.6	-0.0082735725079235	-0.0076022970338496	0.625051385249947	-0.768231904643212	0.625036628008937	-0.768002512600196	-0.012006669711806	-0.004001064002458
4.7	-0.0093920706700183	-0.00706914572748535	0.497989997821595	-0.856097952440577	0.498106902923634	-0.855853196499551	-0.0135779078774229	-0.00217326429021959
4.8	-0.0106358035404657	-0.00610899865325861	0.358733824672342	-0.922865007592634	0.359027435734197	-0.922676302873741	-0.0145464867722721	4.12180631196782E-05
4.9	-0.01133774782083	-0.00528344418677355	0.211157480208816	-0.966920603595227	0.211417256082561	-0.966869425886261	-0.014680126808692	0.00258143511606362
5	-0.0119560995037032	-0.00428854869121678	0.0590012462836421	-0.988070705627276	0.0591594613653596	-0.987942657150834	-0.0139912154377394	0.00532519935121075
5.1	-0.0119635916826464	-0.00353540813683528	-0.095208197901256	-0.985310148876797	-0.0948869382520192	-0.985247236891517	-0.0120568294126506	0.008003061887512
5.2	-0.0121421839579079	-0.00265816252511839	-0.247080741244696	-0.958511578525289	-0.246653059819259	-0.958633527393184	-0.00970794399104242	0.010008874079045
5.3	-0.0122674843888496	-0.00196918557111895	-0.392814451996223	-0.908612170847831	-0.392525188763987	-0.90895679101011	-0.00698752449167069	0.0113370770326309
5.4	-0.0123752161265893	-0.000802555786995057	-0.529274587480848	-0.836794656943389	-0.529138420122532	-0.837084380017363	-0.00455208114997148	0.0118716200044859
5.5	-0.0125441753458161	0.000468827643276622	-0.653080293726851	-0.744211508324402	-0.653030360545654	-0.744525656374193	-0.00298352149663774	0.0125054165503554
5.6	-0.0120404551633534	0.00210680608515033	-0.760302953402553	-0.633508800323347	-0.760316458165835	-0.633679273500134	-0.000194934050434707	0.0134892816789632
5.7	-0.0118296413978258	0.0032045654460549	-0.849400945796676	-0.507840881068105	-0.849377187357121	-0.508016115411708	0.00269170022945285	0.0133838796890961
5.8	-0.0115720027916732	0.00489168687099449	-0.917837365141695	-0.369695250366108	-0.917882292018066	-0.369987623279084	0.00536538263554637	0.0126606166173827
5.9	-0.0109737029214974	0.00640857453562452	-0.96414892974397	-0.222682864001903	-0.96426945234034	-0.222730795765415	0.00758277170669029	0.0111462534762823
6	-0.010156155607889	0.00819657570136153	-0.986679342584628	-0.0701514161070417	-0.986676314344491	-0.0702201465367124	0.00822531908472812	0.00951992700497056
6.1	-0.00850790507867908	0.00972795727086598	-0.985486197784322	0.0834877219279442	-0.985489418632301	0.0833843280169367	0.00948675776314125	0.00904092336534458
6.2	-0.00689354169279468	0.0104958794575462	-0.960571070734577	0.235571888939521	-0.960619234763351	0.235390070843172	0.0111673295750183	0.00739964183500764
6.3	-0.00569369379372332	0.0107527797264051	-0.912267624795233	0.381871844198185	-0.912292027608284	0.381743091666828	0.0123867348413571	0.00493513435924134
6.4	-0.00461995363620822	0.0108848401967531	-0.841675580502896	0.518792507539759	-0.841666942156717	0.51857882645492	0.0127960542399979	0.0017663563514872
6.5	-0.00377745896947029	0.0107554722834208	-0.750990352740856	0.642764477012062	-0.751090926353626	0.642592088665499	0.0122220473090387	-0.0014831760950403
6.6	-0.00266229003606315	0.0107430441153044	-0.642259692515561	0.7517684936534	-0.642408305609716	0.751622428939455	0.011165844890362	-0.00430472687281813
6.7	-0.00166446185440979	0.0104262029569629	-0.517539566217907	0.842388186700177	-0.517660884786542	0.842230919789971	0.00912386601957529	-0.00687986951547852
6.8	-0.000529110862483829	0.010184343836495	-0.380296295655597	0.912331250916123	-0.380507569813692	0.912256254734823	0.00638156917593229	-0.00850178292448924
6.9	0.000560843320372228	0.00953115175236097	-0.234141935930262	0.960082185920194	-0.234392771011489	0.960078487607857	0.00365344427510056	-0.00913710417398416
7	0.00177747307066934	0.00885444173615649	-0.082354611966135	0.985085713703514	-0.0826131227846636	0.985055708824858	0.00113862417018875	-0.00909076304726093
7.1	0.00269684429029527	0.00772429976860009	0.0719286634345398	0.985746446988146	0.0717218521730532	0.985734523584632	-0.00092452532139574	-0.00857440752303515
7.2	0.00339532320744515	0.00656681276043926	0.224062003334098	0.962310672440612	0.223806629725088	0.962354985791307	-0.00265808520200388	-0.00757633393641021
7.3	0.00354546753220145	0.0051879096317505	0.370599379831029	0.915706485649597	0.370359199489687	0.915797478369533	-0.00411656762210976	-0.0062511497326718
7.4	0.00349693772813319	0.00396184112942554	0.508195171158764	0.847013611179393	0.50797700736534	0.847175771523548	-0.00535394159572736	-0.00474716791835756
7.5	0.00294198217670731	0.00273409516123215	0.633738750014947	0.757521540901325	0.633578922525017	0.757693665260468	-0.00625839638825064	-0.00274929194491647
7.6	0.00255659684054808	0.00181261345571972	0.743233774294778	0.649605777801526	0.743018671411482	0.649766900275685	-0.00591613880825432	-0.000823579896780753
7.7	0.00163073454717696	0.00115361057420716	0.834725753305321	0.52643293188765	0.83457499693898	0.526627953055431	-0.00531184488875231	0.000578013535402041
7.8	0.000983639017981925	0.00111331913678701	0.906316816297318	0.390403861072328	0.906196240720057	0.390625506144499	-0.00424701285964491	0.00154646346851972
7.9	0.000391935971047699	0.00136904174357748	0.955775215818184	0.244851462497527	0.955735086588899	0.245076848708135	-0.00326199282895599	0.00191421959334212
8	2.26442820541129E-05	0.00191194524441066	0.981549440131965	0.0933772559818213	0.981620284261163	0.093668887628362	-0.00373098582604075	0.00212054077569163
8.1	0.000141275653900629	0.00285615962374218	0.984034435778048	-0.0596180248980734	0.984158726937034	-0.0593472299669419	-0.00342034983620073	0.00402609004503708
8.2	0.000573552590098417	0.00332179486797146	0.962829313493084	-0.211559890099712	0.962895429860598	-0.211264318782533	-0.0022392689387301	0.00520982478671476
8.3	0.000708054705748011	0.00382958719502298	0.918119002198168	-0.358416260217184	0.918256700790873	-0.358160716522157	-0.000703735368703706	0.00582481907198083
8.4	0.00120182999798422	0.00433439779823172	0.851052352612631	-0.496394526596638	0.851263994097415	-0.496195217913133	0.00112542690047587	0.00560819312121423
8.5	0.00142504446801604	0.00473657902781375	0.763921181287561	-0.621874320635278	0.764036847156121	-0.621748686712924	0.0019481930742265	0.00430975596741929
8.6	0.00233227878414994	0.00545604090119434	0.658232615449608	-0.733113123902481	0.658429810529945	-0.732928076826189	0.00235816503082998	0.00436778107585144
8.7	0.00335642221852237	0.00559647065193005	0.536218753134559	-0.826219009635399	0.536500153845186	-0.826110056414629	0.00361788661814153	0.00414182077930899
8.8	0.00458166008285494	0.00534863133510448	0.401523031925566	-0.899188147302382	0.401728759462167	-0.899133919123708	0.00477734608558067	0.00336496686528542
8.9	0.005735921076664	0.00480534426732577	0.257285841636783	-0.950406004418629	0.257527213611296	-0.950265932827398	0.00610076153954113	0.00224844494045032
9	0.00717303926057955	0.00363354578681767	0.106776073161647	-0.979029695143755	0.107137671187864	-0.978999982215389	0.00702792449575786	0.000486047064558197
9.1	0.00851090578173178	0.00209647142834178	-0.0467221599109115	-0.983508536237506	-0.0463702344549923	-0.983523243071962	0.00770237939192154	-0.00116618312675608
9.2	0.00962310657648019	-0.000204006205264244	-0.198764183778326	-0.963972259999894	-0.198408994121642	-0.964042969516553	0.00809271955930495	-0.00312895720598625
9.3	0.00993811758836047	-0.00256215505995961	-0.345782714424303	-0.921352547969462	-0.345426247102714	-0.921416891246216	0.00780366736763144	-0.00483080206473111
9.4	0.00982132863971328	-0.00515254589970266	-0.484393051642989	-0.856655133473567	-0.484070314902466	-0.85680278067521	0.00698731418909421	-0.00635946556805408
9.5	0.00862147152409821	-0.00711970610426413	-0.611688887927058	-0.770762418611506	-0.611483107073915	-0.770899626602787	0.00509648847303413	-0.00633562530838898
9.6	0.00763552738528224	-0.0092524832450606	-0.723365756404946	-0.666112511523226	-0.723093622491551	-0.6662970298279	0.00496522678518939	-0.00559305462353706
9.7	0.0054054001734925	-0.0109376234076104	-0.817606329398065	-0.545942323342616	-0.817360583728379	-0.546211026064226	0.00494716626268881	-0.00590497155458518
9.8	0.00278093204315472	-0.0118567089042759	-0.892314946102493	-0.412514637133375	-0.892106330186627	-0.412788944353924	0.00465666364109669	-0.00629701655511826
9.9	7.92289453095772E-06	-0.0117161885773785	-0.945382661680504	-0.268923032599756	-0.945270501873806	-0.269251592761138	0.00439037129507123	-0.00706163507105449
10	-0.00281548493264776	-0.0110256696430144	-0.975046225987109	-0.118975837286556	-0.974966263264066	-0.11935337807828	0.00250675200482301	-0.00750987496766221
10.1	-0.00489247837551974	-0.00942967430247159	-0.981562135902809	0.0331824332383905	-0.981542146176437	0.0327057904835978	0.00188345285500537	-0.0060781866254558
10.2	-0.00676176557656627	-0.00807033394276372	-0.964660068057586	0.184960857118369	-0.964644895681843	0.18451215758688	0.00227193782557686	-0.00570593165519995
10.3	-0.00871675141516072	-0.00593540167211815	-0.924201755061955	0.332380840771909	-0.924336396210008	0.331841842704236	0.00247258711447315	-0.00618036354087916
10.4	-0.00996303714806633	-0.00362030274943717	-0.861169910963677	0.471496839455682	-0.861433912746171	0.470962571625042	0.00254066282751107	-0.00747212617014833
10.5	-0.0108152884633339	-0.000861625755178762	-0.777939283300719	0.598750311264701	-0.778220629971367	0.598364342370288	0.00155760015743663	-0.00937726478833713
10.6	-0.010546612704321	0.00187921934462829	-0.675898565603776	0.712430142861919	-0.676323237058418	0.712086797795933	-1.31379317221886E-05	-0.0102040266771575
10.7	-0.00968354535439978	0.00451117084075652	-0.557143019029559	0.808688223971395	-0.557553141480226	0.808400476426572	-0.00120775522944436	-0.0105292507238271
10.8	-0.00812068671238278	0.00652560384551143	-0.424868956939247	0.88513162177168	-0.425377718733826	0.884902771919686	-0.00228666247636047	-0.0107901976744395
10.9	-0.00628778065063529	0.00819478664176647	-0.28272607512736	0.940142889015759	-0.28321249049803	0.940091494488079	-0.00342796006891536	-0.0110904309076049
11	-0.0039544427103896	0.00920479866148557	-0.133603476841662	0.973128336738867	-0.134148577905139	0.973123595634931	-0.00467361793170024	-0.0111089400190016
11.1	-0.00132451997390818	0.0098376844213112	0.0195245415663216	0.981873901537451	0.0188967530806539	0.981956406763627	-0.00549620865092489	-0.0109856815688017
11.2	0.00138157777381997	0.00953841007542806	0.171414724821315	0.966727708171972	0.170896741007767	0.966930040875137	-0.00618331526473133	-0.0110193954727007
11.3	0.00397255107147213	0.00887024262508255	0.31899255391279	0.928492760276816	0.318563903147718	0.928754413920272	-0.0067021285020391	-0.0109826174118574
11.4	0.00634848653422255	0.00738053399999796	0.459245628858352	0.868107256734758	0.458782194252008	0.868366331396383	-0.00743084136393195	-0.0110449832987945
11.5	0.0082838064655148	0.00597953315692325	0.588792267369359	0.785959863739406	0.588434943355788	0.786377130694582	-0.00912143660058746	-0.0102628713717194
11.6	0.010206770330234	0.00355212264059943	0.702957309028036	0.684865370001405	0.702691153734674	0.685344776246301	-0.00946982307968908	-0.00878778462178521
11.7	0.0110951263717069	0.00107060188474149	0.800597954328703	0.567833379001385	0.800359337084205	0.568254491452434	-0.00963207519554938	-0.00815681971325864
11.8	0.0111643325971007	-0.00145233387377347	0.87913298095463	0.436730411825868	0.878949109393552	0.437281659101767	-0.0100803654196133	-0.00780066999134816
11.9	0.0108915866111297	-0.00328731735296331	0.93632938653342	0.294924158475616	0.936291312031039	0.29546742778991	-0.0109242643301331	-0.00762484998274486
12	0.00981792552137869	-0.00513944267973409	0.970153027467442	0.146170051528662	0.970140949262676	0.146648708739324	-0.0132586816368578	-0.00719447839515428
12.1	0.00948840372029105	-0.0063905407425813	0.981192690834494	-0.00553929154781166	0.981167907700407	-0.00506711371367857	-0.0143292903968544	-0.00463378491845504
12.2	0.0083316241218051	-0.00842769978306914	0.968647957056493	-0.157765693966706	0.968754323691566	-0.157328994552101	-0.0145129868837937	-0.00262002280986629
12.3	0.00653098946836359	-0.00985482930572559	0.932364861199944	-0.306090404143421	0.932550177439859	-0.30573262294387	-0.0143142906071365	-0.000834600273652542
12.4	0.00416397077471283	-0.0109193269592926	0.87361254971504	-0.446901187725813	0.8737450219828	-0.446526704739341	-0.0136753269644024	0.000481610597112175
12.5	0.00160642548190637	-0.011163557402805	0.794017258126277	-0.576537359530303	0.794474653813631	-0.576144770435881	-0.013844720906062	0.0010396584429429
12.6	-0.000627110444322574	-0.0107292623855784	0.695373295543244	-0.69314717005022	0.69571939725981	-0.692837425319457	-0.0138741022717813	0.00295563611566913
