# GHZ S RI R 50
0.2	-0.000285697667118073	-1.79983027374172E-05	0.948726827879116	-0.307993549786249	0.948500626558261	-0.308135367900125	-0.000142683075370799	0.000158907913616492
0.3	-0.000400179092264493	0.000222155908739656	0.888678300694889	-0.451644710957043	0.88854090905515	-0.451697866908207	-0.000230949333993311	3.20667560947804E-05
0.4	-0.000157400961776006	0.000306097965287052	0.807035403777829	-0.583824934792654	0.807075443982341	-0.583964484050358	-6.06653102764047E-06	-8.47398283248677E-06
0.5	-0.000341303508577808	0.000250571399522232	0.70627568286571	-0.701792806435037	0.706165146265705	-0.701888572286671	3.59026213235476E-05	-0.000347577266533128
0.6	-0.000499160641858172	0.000507177054914314	0.588502369592685	-0.802807902176473	0.588312938769371	-0.802810773882826	-0.000239726269032538	-0.000362604627685427
0.7	-0.000453959405026225	0.000973351565837879	0.456402924173184	-0.884053833499929	0.456328946062904	-0.884088168564865	-0.000189623661588501	-0.000406327650604905
0.8	-0.000154820757479053	0.00108766819754263	0.313444382211456	-0.943905442835987	0.313325978513645	-0.943818781278096	-0.000209931562617797	-0.00044192672629667
0.9	0.000190804220805295	0.00148227288390976	0.163124155583952	-0.980704566561407	0.162975332907381	-0.980661753776521	-9.80200685138811E-05	-0.000514361794887677
1	0.000801208418781078	0.000910663523981059	0.00896794804052447	-0.993982542621455	0.00884999671074762	-0.993952908882792	0.000218825951406588	-0.00144875862793938
1.1	0.000543024237507386	0.00065755923029588	-0.145006042682754	-0.983125686613442	-0.145652822725878	-0.9830905369329	-0.00091369331784081	-0.00203354490786429
1.2	0.000927076716595825	-0.000347119356640497	-0.296518531386804	-0.948220942979654	-0.296511574589341	-0.94827654841196	-0.00125528381367195	-0.00217379061683845
1.3	0.000975792003472932	-0.00211990370473743	-0.439861664712871	-0.890445989006637	-0.439953632268984	-0.890470422155604	-0.00104607037994343	-0.00191831800509661
1.4	0.00073527682675994	-0.00398925364724665	-0.572459226678784	-0.811409234398763	-0.572532937456058	-0.811309812116615	-0.000291802217982417	-0.00186630245351524
1.5	0.000151972053955187	-0.00447295180111386	-0.691756476757994	-0.712359920026795	-0.691781039274401	-0.712287962671325	0.00017855633563731	-0.00194498223599953
1.6	0.000491961880223421	-0.00406766515440793	-0.793122681296351	-0.596355700204539	-0.793551401967527	-0.595855967472139	0.000640737552323484	-0.00144136014058942
1.7	0.000797476922972922	-0.00415891279899689	-0.875681527416233	-0.466028279953173	-0.875985395404757	-0.465539294249483	0.000962649551112132	-0.00182102509066177
1.8	0.000647745560646162	-0.00434275536384152	-0.937422023474642	-0.324093736716664	-0.937437449063432	-0.324084292004712	0.000663685807807354	-0.00248696366570139
1.9	0.000571500006636819	-0.00457747164806508	-0.976399282627351	-0.174449033035324	-0.976443714962177	-0.174501699347111	0.000262694620195861	-0.00335804609854748
2	-0.000695241671595424	-0.00505911556659011	-0.990898266774995	-0.0211479387760545	-0.990992781146765	-0.020499764600919	-0.00182833763092887	-0.00406679058102769
2.1	-0.00116184332532806	-0.00402835676640558	-0.981850802620358	0.13355844630737	-0.981949956185994	0.133075255205407	-0.00277286325799817	-0.00247772372356135
2.2	-0.00149175151246771	-0.00406307593191985	-0.94946392222885	0.283515534288676	-0.949502685736672	0.28364900438445	-0.00272430981443135	-0.00201175181671505
2.3	-0.00204969472198275	-0.00391968574012597	-0.893880558644299	0.427365904129426	-0.893717090345114	0.427454263452616	-0.00286540101191707	-0.00191078686279624
2.4	-0.00268447686904246	-0.0038209632313773	-0.815895169679675	0.561309593022125	-0.816185698751425	0.560848557429644	-0.00288671702907376	-0.002253276606422
2.5	-0.0038180344522377	-0.00393814179643698	-0.719230670188007	0.680333890182919	-0.719531820314723	0.679953875005785	-0.0039114396147977	-0.00368505957956625
2.6	-0.00515841011586642	-0.00256707019748322	-0.605782621385	0.783609225838163	-0.60570346318086	0.783550049722279	-0.00567606292886182	-0.00280975979082211
2.7	-0.00507435939985057	-0.00115166503240039	-0.476624184809238	0.868051558120097	-0.476594780674328	0.868065657165772	-0.00614711400891869	-0.00157069327596842
2.8	-0.0044263873770969	-0.000310468006961805	-0.336330529889719	0.93124775123102	-0.336212680714327	0.931332230146647	-0.00572702039750931	-0.000422321651271213
2.9	-0.00313785770638522	-7.19851559077543E-05	-0.188058386383668	0.97186048645175	-0.188054031815081	0.971915168665966	-0.00481728890097821	0.000429998424278793
3	-0.00227366552403344	-0.00015575600745451	-0.0351752296096318	0.989814064407059	-0.0352395990466373	0.989885269510802	-0.00379315205601759	0.00125407124049707
3.1	-0.000871045129472916	-0.000420914304753326	0.118591111108788	0.983353860173461	0.119238247732426	0.983436000616569	-0.00204625036134378	0.00182969429053172
3.2	-0.000243098207131205	-0.00121397242844816	0.270235280371589	0.95265029956706	0.270225272691431	0.952689819356891	-0.000888590163816738	0.00148612904187567
3.3	0.000500214988500917	-0.00194260341399553	0.415295238653759	0.898979729264892	0.414672899706824	0.899259709011901	0.000310300640905728	0.000988924514331116
3.4	0.000759645313368718	-0.00292475319258621	0.549270379160527	0.824336541271805	0.549185279054273	0.824451554365559	0.0012650731826205	-0.000136564963135416
3.5	0.000610352360948423	-0.00349852003481835	0.671158808548913	0.729073807558829	0.671172992308528	0.729100017184758	0.00100881030202441	-0.000971797793391694
3.6	0.000981094116137103	-0.0037943999099076	0.775287814271421	0.615986474032308	0.775710055225891	0.615593396688593	0.00173021420110157	-0.00109865287134563
3.7	0.00123335950118562	-0.0048272604052636	0.861720028371956	0.487862404965865	0.861726811217029	0.487988837182711	0.00232835587418197	-0.00218812433725415
3.8	0.000844631978733561	-0.00578209329006474	0.927065521956653	0.348266342854134	0.927093576276334	0.348449573117659	0.00224847980536055	-0.00360862161619298
3.9	0.000710789044192725	-0.00685579115211821	0.970236460941867	0.199355409871052	0.970137277165069	0.199943001969303	0.00145474939953934	-0.00557616437851441
4	-0.000889346761393387	-0.0079013649025859	0.98867202002293	0.0466789357895128	0.988753891757722	0.0467219724378549	-0.00118766348626611	-0.00730782354177626
4.1	-0.00176877476482321	-0.00759683919453632	0.983996362068991	-0.106509063229641	0.983934193510493	-0.106445215627747	-0.00345299993739508	-0.00655938102229531
4.2	-0.00277896468796509	-0.00784425954942863	0.955542886794426	-0.258542416937294	0.95573521270247	-0.257973148123354	-0.00485600903222656	-0.00613326531946852
4.3	-0.00378189184556183	-0.00810356915557947	0.904143946167925	-0.403282433410119	0.904144786275974	-0.403263912814441	-0.00628377139652772	-0.00577654846137329
4.4	-0.00489664407601114	-0.00811956019041655	0.830331007406556	-0.538599271436737	0.830251136511441	-0.538583477498151	-0.0074905896166325	-0.0053373941259417
4.5	-0.00636540608159162	-0.00877220233577951	0.737062512242148	-0.660194701559275	0.736938803396326	-0.660049097408803	-0.00956897337380916	-0.00576548365967846
4.6	-0.00846741133199631	-0.00769803583908456	0.626365771115558	-0.767232691032482	0.626350630855685	-0.767003310968118	-0.0124414827210596	-0.00386789603904276
4.7	-0.00957914398812062	-0.00700134519952094	0.49937572310809	-0.85555821827651	0.499492292305838	-0.855313232021624	-0.0140924014022279	-0.00174509577461819
4.8	-0.0107877982005924	-0.00591693086391256	0.360145271824721	-0.922560092740237	0.360438678472842	-0.922370921857412	-0.0150343813530581	0.000731583634990735
4.9	-0.011338242539707	-0.00502486297011134	0.212824040119549	-0.966725673796872	0.213083772986038	-0.966674049270559	-0.0149712023033967	0.00345379101807223
5	-0.0119431229762458	-0.00397984208508651	0.0610769731324991	-0.98881848440057	0.061235065020858	-0.988689999283975	-0.0142279452329023	0.00636334367901239
5.1	-0.0114508532590634	-0.00306434072377282	-0.0939178521863872	-0.986573347926219	-0.0935963141144924	-0.986509907663007	-0.0116265962558661	0.00934495363170274
5.2	-0.0111069625938023	-0.00256529880072179	-0.246056957046176	-0.959833947077365	-0.245628669974969	-0.959955451252674	-0.00852047832271933	0.0109521445362843
5.3	-0.0109629625501424	-0.00254876310845984	-0.391960440725468	-0.910193060963895	-0.391670361203546	-0.910537655928873	-0.00537144612662772	0.011443537442983
5.4	-0.0113139582750725	-0.00231766153249814	-0.528810290023557	-0.838891159491799	-0.528673470420477	-0.839181120292353	-0.00319638830661803	0.0107986346852274
5.5	-0.012910982658679	-0.00104040670384353	-0.653842366615896	-0.746230440709766	-0.653792090857096	-0.746545191388932	-0.00331667102160623	0.0113836047147962
5.6	-0.0120203908038174	0.00155564522696935	-0.761101399886677	-0.634808326693743	-0.761114840542062	-0.634979055394016	-0.000168728509732531	0.0135393442207454
5.7	-0.0114195045368594	0.00249609688415427	-0.850308764237507	-0.509099193375895	-0.850284862984254	-0.509274665142873	0.00324871703781778	0.0133190457739058
5.8	-0.0109981538282802	0.00390839856464769	-0.919106441312943	-0.370828631199083	-0.919151270498167	-0.371121503067719	0.00621243941838266	0.0122185105781165
5.9	-0.0102940633911773	0.00470783112666156	-0.965885985054895	-0.223296127590092	-0.966006720778983	-0.223344172922745	0.00856219708971581	0.00973622687241358
6	-0.0110975920010795	0.00564350268160623	-0.987846382600603	-0.0699428983344041	-0.987843371154892	-0.0700117091721041	0.00722064596803253	0.00700944706985757
6.1	-0.0103585205628559	0.0086534010927131	-0.986516818054259	0.0831878361520026	-0.986520001874907	0.0830843365385974	0.00723091400133277	0.00828201439271714
6.2	-0.00862619095092221	0.0103054570425199	-0.961968161915453	0.235469960044775	-0.962016311484199	0.235287876151887	0.00901884928898567	0.00782038835717245
6.3	-0.00704750729160349	0.0111901260603049	-0.913741459069193	0.382223330625852	-0.913765866895462	0.382094377523328	0.0107336334951188	0.0061788638580841
6.4	-0.00534040477311526	0.0113873406334654	-0.842740987460137	0.519519205471635	-0.842732350743272	0.519305245549745	0.0119791605452277	0.00312804949467286
6.5	-0.00427710116606889	0.0109707574930464	-0.752080690540352	0.642917136854954	-0.75218125511208	0.642744526537419	0.0117747091555947	-0.00043199436927455
6.6	-0.00289673279343037	0.010728040737474	-0.643898410702849	0.75272376335282	-0.644047200513114	0.752577340217291	0.0111401633382848	-0.00357802670233099
6.7	-0.00198261751361365	0.010051794759526	-0.518680193804543	0.843940543125182	-0.518801722543616	0.843782951415349	0.00905085360919459	-0.00669267257165728
6.8	-0.00105162654994833	0.00977861647209171	-0.38090451662424	0.913979135800205	-0.381116171335074	0.913904022058315	0.00601812787813034	-0.00847429850493311
6.9	-6.07881598145643E-05	0.00920046732415668	-0.23463386607702	0.961508753965987	-0.23488508190624	0.961505014546369	0.00305457804781541	-0.00906568332995231
7	0.00113091162759155	0.00892400160272811	-0.0830365125815057	0.987353268622165	-0.083295614254638	0.987323065082888	0.000399580251748621	-0.0085395010427902
7.1	0.00254237990085119	0.00787401864957047	0.0725356595881406	0.988191699468172	0.0723283236172824	0.98817983554239	-0.00118964905669794	-0.00783904158987883
7.2	0.00344338051777364	0.00655199824666695	0.22516394110388	0.964288284500541	0.224908033096663	0.964332856922093	-0.00271149028577595	-0.00693838276096762
7.3	0.00369830107096972	0.00505868562413908	0.371919578440235	0.91744277913899	0.371678939079677	0.917534104902456	-0.0040454068681451	-0.0056637994885043
7.4	0.00370758570852879	0.00370070721214784	0.50986711825933	0.848893273130149	0.509648485089385	0.84905594236149	-0.00520886107560027	-0.00424890096144744
7.5	0.00287780184328441	0.00258035010583445	0.636798396585929	0.758832821386743	0.636638350984394	0.759005706773664	-0.00638100505977216	-0.00202868362848881
7.6	0.00301638101305928	0.00216039058359205	0.746003193374551	0.649520598290252	0.745787956264963	0.649682463101708	-0.00535501743000703	0.000538722485052417
7.7	0.0028544882649107	0.00130100033178962	0.837190983134689	0.525969260326446	0.837040283393898	0.52616490549089	-0.00374095696690503	0.00174996370424803
7.8	0.00281268547802951	0.000666024358720752	0.908760717368781	0.38955727859823	0.908640300258253	0.389779565712601	-0.0018706378957009	0.00193591973929139
7.9	0.00253244671292122	-0.000187081263910061	0.958320662971384	0.243216857035034	0.958280955979548	0.24344280396573	-0.000673514305920682	0.00069187085505305
8	0.000467951210787552	-0.00138884164630301	0.98283433412447	0.0906859121682415	0.982906080302525	0.0909776455131602	-0.00306167621402329	-0.00105804528846757
8.1	-0.000640976334185572	0.000696673736851149	0.984669825351641	-0.0615604602420004	0.984794733307411	-0.0612896984343177	-0.0044860332794127	0.00220543749302104
8.2	-0.000549803487477057	0.00182972548207095	0.963503561809169	-0.213612381862359	0.96357030955897	-0.213316605773799	-0.00373913004664763	0.00432584216374048
8.3	-0.000525272854056533	0.00309545959330056	0.918433367132473	-0.36088878019368	0.918571799792219	-0.360633233258477	-0.0022782343925558	0.00591922681713899
8.4	0.000619445775655868	0.00418555272228802	0.850330745279242	-0.499052137446139	0.850543078447167	-0.498853255212022	0.000362213197995999	0.00638520365284551
8.5	0.000857495168645204	0.00369969677823179	0.762825522947623	-0.623306331672371	0.762941425062582	-0.62318090245037	0.00117514117706539	0.004071203055919
8.6	0.0011848338820581	0.00532901721092171	0.6575036224697	-0.73496575981843	0.657701330321009	-0.734780901595987	0.000827120756140153	0.00527256084668538
8.7	0.00277758380903287	0.00589186031678911	0.534756980847579	-0.828141840770647	0.535038866432308	-0.828033446535333	0.00279838493130086	0.00577026648166971
8.8	0.00448722053512857	0.00567813978704125	0.399443121950648	-0.900582011879747	0.399649074084565	-0.900528275805085	0.00478177236749359	0.0052166095596291
8.9	0.00628481417353594	0.00498235972147204	0.255235206905117	-0.950888218849886	0.255476861104951	-0.950748673411282	0.00718641508815282	0.00389997272760729
9	0.00806833484678732	0.0029766593967539	0.105247146617764	-0.979969033872641	0.105609075604081	-0.979939893141189	0.00873818111904295	0.000987293281227661
9.1	0.0094851681373592	0.000851517604859838	-0.0493840767482499	-0.984075437450689	-0.0490319430138076	-0.9840910953633	0.00958970607107479	-0.00155289589776764
9.2	0.0102370029716991	-0.00239987362762722	-0.20139746011939	-0.963518182790093	-0.201042430854065	-0.963589862378384	0.00956603860115596	-0.00480813291692404
9.3	0.009582001013903	-0.00509731267275981	-0.347923711724147	-0.920360672209345	-0.347567462099329	-0.920425856340178	0.00806507924174083	-0.00712798702916508
9.4	0.00876316060920236	-0.00757792948904745	-0.486167171840001	-0.855863275519673	-0.485844664958603	-0.856011584684186	0.00614659565272635	-0.00871213926803469
9.5	0.00615351180821102	-0.00843112388427202	-0.614463550206855	-0.769418513164516	-0.614258048410332	-0.769556444157381	0.00230203625979345	-0.00733766895522644
9.6	0.0064913920606072	-0.00891983228186857	-0.725165858589115	-0.66346575249848	-0.7248944486026	-0.6636510591614	0.00348406123498545	-0.00439935226110621
9.7	0.00533117104772826	-0.0108208076576575	-0.818573654716943	-0.543290231791138	-0.81832882582326	-0.543559437502866	0.00480771848027679	-0.00471246086951819
9.8	0.00332036815387784	-0.0120853955957715	-0.892933253372511	-0.409922481768374	-0.892725478288707	-0.410197196494263	0.00540170627928571	-0.00546994961138689
9.9	0.00120874697448761	-0.0128614046642996	-0.945943948960081	-0.265866648189681	-0.945832857259214	-0.266195462201629	0.00593060458475383	-0.00745823068758881
10	-0.00318985448657189	-0.0133970762257455	-0.973942968490002	-0.11514352048132	-0.973864543491888	-0.11552076068651	0.00214965774215749	-0.0093962523402465
10.1	-0.00562500255441761	-0.0103982908136947	-0.97968036229293	0.0357079031490102	-0.979661664979452	0.0352320791063461	0.000955256026348209	-0.00626676299389676
10.2	-0.00696468381003796	-0.0089005421651655	-0.962706388339404	0.187210812090642	-0.962692416595565	0.186762755745204	0.00203683837364624	-0.00559004040525333
10.3	-0.00855014870387866	-0.00695753181179379	-0.921693316488277	0.334580478550111	-0.921829337943319	0.334042767526191	0.00281886595726011	-0.0063122816138707
10.4	-0.00934198554483909	-0.00534801256521782	-0.857428752648147	0.473180291375854	-0.857693870720216	0.472648249604218	0.0034689905737737	-0.00858625442763566
10.5	-0.0110890898223681	-0.00413221739879578	-0.774089254075606	0.598141475219415	-0.77437035333001	0.597757386888699	0.00134851335673308	-0.0123646732280219
10.6	-0.0125344215037617	-0.00113730859171587	-0.673108523559252	0.711608693243137	-0.673532616552609	0.71126685872663	-0.00229781885755113	-0.0129082735134501
10.7	-0.0127008307338976	0.00259628876248477	-0.554361833335301	0.807521710529862	-0.554771372594083	0.807235386667919	-0.00474903477596349	-0.0119546181570976
10.8	-0.011206620752754	0.00609066047922517	-0.422246641802261	0.883220007750789	-0.422754280762506	0.882992620317226	-0.00607379102084176	-0.0105410605912358
10.9	-0.00865111557957089	0.00850203243924823	-0.281015033374504	0.937215548256091	-0.28149985723736	0.937164720353007	-0.00647346430079974	-0.00984620534292946
11	-0.00586084175306485	0.00999018012579658	-0.13329928630496	0.971107031749384	-0.133843253276589	0.971102315157842	-0.00724733822721859	-0.00916955105897724
11.1	-0.0023151948248921	0.0108562204017173	0.0205202937898857	0.979875099353829	0.0198938571362327	0.979958100150367	-0.00702945396083707	-0.00854914294611063
11.2	0.00102125143104808	0.0103464936631383	0.171907304135207	0.964112369101607	0.171390827622294	0.964314685605413	-0.00685252696692517	-0.00864617710876137
11.3	0.0041308731764954	0.00938618103911893	0.31856914002508	0.925871194846782	0.318141752128275	0.926132348112112	-0.0065867377683555	-0.00889828908527101
11.4	0.00686008862022498	0.00716973233172935	0.458207821139734	0.866376159042245	0.457745309144032	0.866634651130763	-0.00683271132261878	-0.00984243320961201
11.5	0.00775025226152777	0.0057261069735274	0.58882403932736	0.784162488725582	0.58846770047969	0.78457955391837	-0.00972940578991031	-0.00904561280821558
11.6	0.0105512704242948	0.00421738035240258	0.701811973485158	0.682263690986726	0.701547052886505	0.682742098258533	-0.0089727168784998	-0.00639226080493185
11.7	0.0123181608213079	0.00142486870825013	0.798641985077476	0.56593171259581	0.79840420315634	0.566351770534111	-0.00786840756290834	-0.00613739869462383
11.8	0.0131358823976657	-0.00160710186830881	0.87710857310423	0.435561169644091	0.876925220847847	0.436111134115352	-0.00725876222066917	-0.00660985464001164
11.9	0.0135052982144168	-0.00503270991616451	0.934613552389781	0.293756103575886	0.934575886256577	0.294298296224557	-0.00729299939413063	-0.00866237931488822
12	0.0108192860854185	-0.00868525920406666	0.967195968749603	0.144427618219317	0.967184555467324	0.144904737991584	-0.0118387965210486	-0.0104244940620185
12.1	0.0095435309023229	-0.00920804055135253	0.977833081074142	-0.00552311598761375	0.977808384159479	-0.00505255484548507	-0.0143496605645239	-0.00709923594376393
12.2	0.00788303984200999	-0.0112320335867006	0.96571908071326	-0.157187241727178	0.965825079414294	-0.15675185915908	-0.0153026448387223	-0.00484923235068461
12.3	0.00534534363331712	-0.0122651086172939	0.929431222187933	-0.305227160042548	0.929615995808448	-0.304870511135728	-0.0159435796910163	-0.00242797460208832
12.4	0.00297784559556428	-0.0126553906972526	0.870021473582549	-0.445358309047178	0.870153519330535	-0.444985349631422	-0.0152245018222208	-0.000301757395118625
12.5	-8.16118754038139E-05	-0.0132493518177868	0.791209188475319	-0.572494894108551	0.791663769206158	-0.572103408712371	-0.0160945568413804	-0.000225902932362708
