# GHZ S RI R 50
0.2	-0.000163579246380796	-0.000168793670388904	0.949728501421121	-0.30770247428129	0.949502187763769	-0.307844547996491	6.85838531082786E-05	-9.12989556102093E-05
0.3	-0.000436117664151711	8.30138931339108E-05	0.889983232474336	-0.45146819149658	0.889845731440605	-0.451521508388003	-0.000153769457793098	-0.000324012140736483
0.4	-0.000415802629512898	0.000292615669921823	0.808693357801545	-0.583960760798088	0.808733575931328	-0.584100474766204	-0.000186246574711912	-0.000352948279504539
0.5	-0.000523552482640297	0.000720765181937064	0.707951548986937	-0.702652444345575	0.707840868105096	-0.70274844625897	-9.13091587017955E-05	-0.000226594109671014
0.6	-0.000339438930461531	0.000763213896562199	0.589863190083609	-0.803842097455167	0.589673448821658	-0.803845066393372	7.6137609658585E-05	-0.000565664449352154
0.7	-0.000446227692858614	0.00112024693367391	0.45775966238901	-0.885388190260154	0.457685570316675	-0.885422631849237	-3.8883060148055E-05	-0.000945805345443391
0.8	-0.000260239673411642	0.00123643150134224	0.314606202364454	-0.945705707092318	0.31448750503949	-0.945618928484918	-0.000323901568083098	-0.00120586113655936
0.9	-0.000236275189427478	0.00159331711877559	0.163752871967496	-0.982947121795998	0.163603691836387	-0.982904247065815	-0.000897761833299744	-0.00146766471765297
1	2.19595468834748E-06	0.00197101696898131	0.00892487635418468	-0.995980821372172	0.00880668978185472	-0.995951120828917	-0.00148329555350316	-0.00110184116632653
1.1	0.000799768152501044	0.00178470022107871	-0.144981098212529	-0.985228326288732	-0.145629241451632	-0.98519331890964	-0.00144496909852753	-0.000962230404512037
1.2	0.00115589644207547	0.000436433149038372	-0.297038503240216	-0.950593185376021	-0.297031517656438	-0.9506489247326	-0.00136908546806664	-0.00106958322513632
1.3	0.0012974259084765	-0.00137031603085527	-0.441037442968549	-0.892710055808379	-0.441129647986303	-0.892734546939744	-0.000398405782414258	-0.00078713597740906
1.4	0.00113046889538407	-0.00338332285555129	-0.574089712772474	-0.813209583126079	-0.574163573039101	-0.813109897586821	0.00100224413318544	-0.00131988973107339
1.5	0.0011620883509311	-0.00422425599825087	-0.693235795242132	-0.714104263621269	-0.693260425357731	-0.714032144694719	0.00258132898788948	-0.00247276333419982
1.6	0.000426179803251975	-0.00469600587442731	-0.795538150731208	-0.598218873250096	-0.795968208161448	-0.597717620564883	0.00171910909991535	-0.00406616622519207
1.7	0.000129523408295658	-0.00408461552289219	-0.878701368789645	-0.467117022150647	-0.879005984489673	-0.466626330016169	0.00053330456398019	-0.00424254575853612
1.8	-9.51314816495572E-05	-0.00375798908603037	-0.94058886130321	-0.324418588124284	-0.94060432814799	-0.324409102585982	-0.000643021475434965	-0.00429080046198338
1.9	-0.00021160522998562	-0.00325174244236225	-0.979489196418784	-0.174322672516192	-0.979533799474422	-0.174375469256803	-0.00162486863637648	-0.00382421066777714
2	8.37603737414827E-05	-0.00318674728289731	-0.994698132773297	-0.0206119099970598	-0.994792604857245	-0.0199612000023776	-0.00173680175968156	-0.00323538649409062
2.1	-0.00048576126595256	-0.00371630993383214	-0.985452404195718	0.135726321729383	-0.985552754866211	0.13524141429842	-0.00232970309713083	-0.00366212778195092
2.2	-0.00149540597375997	-0.00364576989285277	-0.952281593720825	0.286394465243308	-0.952320232086647	0.286528486338679	-0.00336349052348374	-0.00339829145331755
2.3	-0.00226016344273578	-0.00328492580914118	-0.896113365879639	0.430708278710316	-0.895949144326787	0.43079660763471	-0.00427780271801936	-0.00288704888719988
2.4	-0.00323526043945258	-0.002799336932463	-0.817739340493189	0.565236377301864	-0.818031987687718	0.564774240686241	-0.00513395911162782	-0.00206555775362251
2.5	-0.00348848746884391	-0.00179200175726102	-0.719843896996041	0.68549731239974	-0.720147540093646	0.685116777085588	-0.00476973840027033	-0.00097154583487421
2.6	-0.00389698404498378	-0.0016551438093695	-0.60468811819929	0.78820744340911	-0.604608942521804	0.788147796023217	-0.00407412964068331	-0.00115560807541253
2.7	-0.00423481842027031	-0.000961164835650628	-0.474838932626454	0.872217329421497	-0.474809394724223	0.872231362262714	-0.00410448116276408	-0.00134837999392645
2.8	-0.00420677729660819	-0.000343116033030547	-0.333727799674706	0.935183642065796	-0.333609292137969	0.935267910904126	-0.00406161038548008	-0.00126227455209555
2.9	-0.00336899109564211	0.000168018658144225	-0.184236214483131	0.975434930086063	-0.184231602839458	0.975489746542152	-0.00370986497734441	-0.00074090824454724
3	-0.00252035570005326	0.000176150832180986	-0.0301990519753547	0.991572350989867	-0.0302631621057187	0.991643996970518	-0.00277059378937667	-0.000434742230021367
3.1	-0.00169214053891628	0.000240928608526383	0.122931161365928	0.984125961161385	0.123579487995693	0.984205453457238	-0.00215231091663231	-0.000193348817084381
3.2	-0.000940795902356415	2.53572335486322E-05	0.274850671726493	0.952846874444771	0.274840824470166	0.952886496380048	-0.00148805381718192	1.88401317127497E-05
3.3	2.70765117489815E-05	-0.000401143935421728	0.420145083244494	0.898080519920697	0.419523330508294	0.898363847838299	-0.000457870645445232	3.38822785803807E-05
3.4	0.000600446772374961	-0.00100519582130772	0.553778207439585	0.821899564097987	0.553693659278215	0.82201507031497	0.000752719136903352	-0.000310185358105666
3.5	0.00142857527161726	-0.00198933024593308	0.674030954430609	0.726120687738731	0.67404524372365	0.726146832476343	0.0020433856339256	-0.00155189693084811
3.6	0.0010254304810813	-0.00297831407889727	0.778326437958305	0.613143153848813	0.778747305083725	0.612748078897949	0.00188433465790054	-0.00308878076526194
3.7	0.000963740186108618	-0.00361271556142824	0.864328433749245	0.484003349599009	0.864335811968602	0.484129797076413	0.00156021642952953	-0.00391631735651833
3.8	0.000533755174818046	-0.00431581182857723	0.92859724065018	0.343771237444308	0.928626169033566	0.343954306061683	0.000916598611006	-0.0047676591188807
3.9	0.000331594640559915	-0.00488434712625439	0.970511812350301	0.195027553814913	0.970415236516568	0.195615219236441	-0.000186495345087898	-0.00541309435202404
4	6.55647791331152E-05	-0.0055583127532364	0.98921831892626	0.0427875442682281	0.989300390752869	0.0428302730010512	-0.000554029324326665	-0.00585679045731946
4.1	-0.000938263830399609	-0.00669404085413735	0.983585927364335	-0.111717630185621	0.98352408612698	-0.111653444709398	-0.00191416149799918	-0.00716937608355001
4.2	-0.00257224563819985	-0.00701715941913282	0.953526635584066	-0.263515989797431	0.953721899476375	-0.26294812828924	-0.00388269742656858	-0.00749458155785564
4.3	-0.00392644406543498	-0.00728401580047022	0.901128350516426	-0.407534912934442	0.901129285390638	-0.407516415789823	-0.00591586331631417	-0.00748184430013775
4.4	-0.00570356001200008	-0.00704689582737821	0.826968379219569	-0.542293505573019	0.826888652410138	-0.542277326775418	-0.00826113999698395	-0.00664673941402285
4.5	-0.00676697508692596	-0.0064614586900037	0.732346747063457	-0.664422776004237	0.732224051109184	-0.664276486530645	-0.00962960620783402	-0.0048775138320355
4.6	-0.00820394278812913	-0.00613053843120484	0.619879006607947	-0.769359683663334	0.619865379123854	-0.769130774699106	-0.0105487564373477	-0.00390142678068026
4.7	-0.00963001727504933	-0.00562312791139604	0.492907263840265	-0.855912714021663	0.493024911113811	-0.85566913683357	-0.0119154221826938	-0.00286719372451976
4.8	-0.0109905658522455	-0.00452586039250006	0.353839026368333	-0.921686248110338	0.354132573849298	-0.921499316996743	-0.0129302664236039	-0.00134372809907402
4.9	-0.0116853367363412	-0.00349044584184663	0.206296049944335	-0.964809250673849	0.206555234451324	-0.96475936166353	-0.0133427303863336	0.000711689184447262
5	-0.012039095854376	-0.0024452075369597	0.0545175305252259	-0.984099495779801	0.0546756176222321	-0.983972672262356	-0.0126766843382269	0.0028629828194445
5.1	-0.0121216790416421	-0.00161087987472415	-0.0979427311634737	-0.980618422282006	-0.0976227000859328	-0.980556820163748	-0.011782903373146	0.0048112906868159
5.2	-0.011967027195152	-0.000503544245425847	-0.248847067100677	-0.953621931222477	-0.248421602065686	-0.953744617438675	-0.0105074494144211	0.00717928053538991
5.3	-0.0116684701343338	0.000147225995270791	-0.393635820176507	-0.903367113856304	-0.393348855659726	-0.903710999920501	-0.00831702388645663	0.00948162974876812
5.4	-0.011315201989185	0.00121022079255527	-0.528781088241819	-0.831141109021445	-0.528646376559328	-0.83142971503529	-0.00530564748009683	0.0114043295681128
5.5	-0.0108496669669588	0.00141577007790994	-0.65063264380523	-0.739301485415276	-0.650583422067173	-0.739614020813268	-0.00145572850760891	0.0113432876363432
5.6	-0.0116417221530523	0.00252379422097827	-0.757586444702614	-0.629665770949998	-0.75760009654888	-0.629835444199501	0.000217738581595469	0.0104667903416081
5.7	-0.0117954257838823	0.00413073217851456	-0.846074045371677	-0.504348084165126	-0.846050627163101	-0.504522526360912	0.00186012035058935	0.0106092148556792
5.8	-0.0115809345758241	0.00603386259149898	-0.913670637448964	-0.366897183052483	-0.913715648415196	-0.367188057699706	0.00375382249710771	0.0107147544560915
5.9	-0.0110598892904303	0.00785545983252639	-0.959297302334518	-0.221173932872453	-0.959417226299248	-0.221221572869998	0.00578105705776229	0.0110103439229535
6	-0.00945820738526713	0.00949643227841791	-0.982496368836418	-0.069897043683839	-0.982493350570788	-0.0699654824816345	0.00932610926175368	0.010635535896205
6.1	-0.00880164978349417	0.0101531846398984	-0.981073519946174	0.0836828151137771	-0.981076785820436	0.0835798812911239	0.0116379752825723	0.00778034367335444
6.2	-0.00797183458566428	0.0115190499549897	-0.955852745590281	0.234648112071155	-0.955900717390414	0.234467188115567	0.0127322807104404	0.00497733665839404
6.3	-0.0069313470644242	0.012393048447602	-0.907924366987687	0.379741416563656	-0.907948613088837	0.379613285761081	0.0130406848746725	0.00186783975065548
6.4	-0.00572055172269037	0.0130279730237592	-0.838279631717235	0.515909939309899	-0.838270886571254	0.515697215852184	0.0123762744908	-0.00117744897983083
6.5	-0.00442926828060828	0.0130742081407688	-0.747731994769289	0.640023703405538	-0.747832141533957	0.639852061362927	0.0113635671946222	-0.00404243988832619
6.6	-0.00307979403989149	0.0130897014184387	-0.639201256367744	0.747556156264912	-0.639349028759465	0.747410796482386	0.00968329881577524	-0.00633553341860317
6.7	-0.00169945986983847	0.012700902334054	-0.515817497188991	0.837428039260292	-0.515938006865114	0.83727144951079	0.00776544326912596	-0.00799534922550087
6.8	-0.000365687741131812	0.0121791178902256	-0.379789334814779	0.907281721950682	-0.379999459082536	0.907206779004513	0.00567414798277199	-0.00914512985660622
6.9	0.000749335890073757	0.0113012350323529	-0.234355397862122	0.955188284711392	-0.234605033809778	0.955184257090417	0.0037756571567643	-0.00977635594562046
7	0.00176142650236437	0.0102873931765691	-0.0834730146074191	0.979308765935427	-0.0837299958225788	0.979278515691044	0.00180209975823151	-0.0105698004046589
7.1	0.00226048695275302	0.00938689069413205	0.0686286111386735	0.980604295178296	0.068422958473984	0.980591826151389	-0.000659318351464462	-0.0104720201044488
7.2	0.00291386003370112	0.0085244371279207	0.219828859898663	0.958359740670945	0.219574584241399	0.958403004339431	-0.00252366629550619	-0.0095485634323792
7.3	0.00309265481419509	0.00742506063298768	0.365764468906283	0.912689159238609	0.365525101027443	0.912778912792297	-0.00407313206626425	-0.00831056641191845
7.4	0.00323759102859826	0.00653564230278515	0.50259264402978	0.844699885767146	0.50237496177859	0.844860449045624	-0.00529905102182727	-0.00676085324579137
7.5	0.00318447810415203	0.00533480890695315	0.626829951289697	0.757154338154295	0.626670004336982	0.757324821473034	-0.00573043065186588	-0.0052491015298021
7.6	0.00274074789973962	0.00438181852583468	0.737248375637128	0.651313263845711	0.737033157155523	0.651472695636176	-0.00626474770702602	-0.00422072972744892
7.7	0.00214353815549806	0.00393093436359718	0.829411033018003	0.529101294683995	0.829259739652434	0.529294930892323	-0.00674275151829433	-0.00252747875576357
7.8	0.00184283509962976	0.00377518788795165	0.90153174919194	0.394140562370982	0.901410333960884	0.394360901786252	-0.00643231345989079	-0.00059476899388107
7.9	0.00135790846747235	0.00384112825044125	0.951781490570372	0.250034865471758	0.951740092920702	0.250259417214274	-0.00543215467686241	0.00166865963284172
8	0.00186284798924641	0.00382831567904619	0.979967696434878	0.0995052172178452	0.980036620441579	0.0997970038625485	-0.00289263311613657	0.00334508614497503
8.1	0.000843448387711984	0.00349777735982623	0.983576099246916	-0.0542507493943885	0.983698827802019	-0.0539794973336549	-0.00116340123489756	0.0028328708168839
8.2	0.000173211949324548	0.0042208216336615	0.963214140594736	-0.206080364021151	0.963278573892446	-0.205784668110534	-0.000381920556105317	0.00265456605633696
8.3	-0.000320587717919616	0.00525449590771162	0.919806554396417	-0.352952911987117	0.919942716387779	-0.352696679060365	0.000352054729214731	0.00244110491969212
8.4	-0.000292090367440209	0.00653728399654705	0.854385014368054	-0.491647489237222	0.854595591296403	-0.491446840497409	0.000786455281607511	0.00237119386596394
8.5	0.000668278853524829	0.00796236825078149	0.767499067192398	-0.618938981591863	0.767614262842576	-0.618812697587706	0.00240297624313673	0.00283546421396742
8.6	0.00170778869584219	0.00810810913898206	0.661884450456259	-0.730062102443127	0.662080786282093	-0.729876071704455	0.00406639745584993	0.00104498634955439
8.7	0.00248039976020815	0.00871828864183222	0.54087072539051	-0.823858435649792	0.541151710132023	-0.823747939339564	0.00430713487407768	-0.00064127055858127
8.8	0.00408060047567177	0.00896251070569872	0.406723468873016	-0.898108692700561	0.406929147748008	-0.898053318068179	0.00385529632881144	-0.00209599632010431
8.9	0.00580947579436498	0.00858219437943011	0.262173779078615	-0.950700156249344	0.262414873502971	-0.950558724792771	0.00313438122886023	-0.00284794765970211
9	0.00801984540593214	0.00727742636452398	0.111382957912167	-0.97920533505532	0.111744665840477	-0.979173927262188	0.00312029253730188	-0.00290312841530794
9.1	0.00959582888555639	0.00521557732105206	-0.0411856422657908	-0.985119884222771	-0.0408331516839574	-0.985132607194614	0.00343950522444011	-0.00330614619080759
9.2	0.0109933227652347	0.00264710863820505	-0.193885203338056	-0.967234664603635	-0.193528825578256	-0.967303570713678	0.00432336495484426	-0.00344065961373442
9.3	0.0115074992826503	-0.000210897681600852	-0.341987164507489	-0.925554237124047	-0.341629426510401	-0.925616928432485	0.0056694076541947	-0.00393275627004313
9.4	0.0113330348669823	-0.00316133526269067	-0.481399262031922	-0.861080824713404	-0.481075027383718	-0.86122725973348	0.00709289994845232	-0.00480609421922802
9.5	0.0101930018309224	-0.00624108231733977	-0.608709339957458	-0.776560808857284	-0.608502168511981	-0.776697149861289	0.0085405968053056	-0.00712638628674732
9.6	0.00746965340831404	-0.00832262751232789	-0.722722467393075	-0.672999697194417	-0.72244814074631	-0.67318347943127	0.00689624550529647	-0.00959064554033764
9.7	0.00503005012669102	-0.00905301806618449	-0.818682221566332	-0.552485480476573	-0.818434019934541	-0.552754210071385	0.00514456808127916	-0.0102560042075281
9.8	0.00262249210595012	-0.00960089269379533	-0.894617935568544	-0.418653663727352	-0.89440704413557	-0.418928295769898	0.00354133675013556	-0.0102222553066958
9.9	-1.14171635170793E-05	-0.00921465355724603	-0.948866217823542	-0.275012713303963	-0.948751846319589	-0.275342390976179	0.00246267517692112	-0.00918250725080239
10	-0.00185218175617055	-0.00904623605276109	-0.981212356836984	-0.124323661757341	-0.981130090016966	-0.124703432585061	0.00341004971155156	-0.00857426456209887
10.1	-0.00516145757900555	-0.00838574358839126	-0.988462332547268	0.0304055408944849	-0.988440744312047	0.0299256580590562	0.00277193582272396	-0.00981250265449565
10.2	-0.00766252087864151	-0.00646963914574396	-0.971692050634131	0.183616130059126	-0.971675567309131	0.183164432192116	0.00155188619013492	-0.00991013422519691
10.3	-0.00969090102900286	-0.00405093020937644	-0.931553812413916	0.332434479485118	-0.931688066767843	0.331891340608899	0.000342446606505693	-0.00986619579005057
10.4	-0.0110898075466278	-0.00160943757098189	-0.868943955288289	0.473498766498059	-0.86920897318453	0.472959733147828	-0.000734984175061873	-0.00948649687633079
10.5	-0.0117065404599068	0.00125578706822428	-0.7842400118221	0.603594956895944	-0.784523634892475	0.603205862169751	-0.000414992576130087	-0.00896331573851229
10.6	-0.0118513165233419	0.00359272468049328	-0.680415906548428	0.717542321657583	-0.680843610581724	0.717196697458424	-2.62661247968303E-05	-0.00993082349636418
10.7	-0.011510951779732	0.00648615261441957	-0.560812126793445	0.814491154874023	-0.561225193432601	0.814201510395305	-9.51256533004779E-05	-0.0110323193967233
10.8	-0.0102412105745893	0.00890652415559517	-0.427289206342039	0.891821549130674	-0.42780180205214	0.891591418946196	-0.000692028174091725	-0.0123222893570965
10.9	-0.00857312338521002	0.0112734433465037	-0.28308640497887	0.947430653735864	-0.28357642125214	0.947379757343868	-0.0018498695624122	-0.0133359866547853
11	-0.00606095178028141	0.0127231845448012	-0.132273568778728	0.978941546181739	-0.132821775529273	0.978937948077874	-0.00289730624973849	-0.0142667403929598
11.1	-0.00334402670730401	0.0140964183514541	0.0209164309592158	0.987754412143838	0.0202849735529328	0.987838228423618	-0.00446334017060199	-0.0149123417857075
11.2	1.03367422623863E-05	0.0144009150873989	0.174239051261548	0.972682789308042	0.173718072603531	0.972887350623525	-0.00579867809493571	-0.0151235842355854
11.3	0.0033988609546912	0.0139657783178443	0.323333211846814	0.933651509169194	0.322902462472745	0.933915899490292	-0.0068706692863962	-0.0148196088376653
11.4	0.00655351481841884	0.0125860657846698	0.464373240065878	0.871681307843688	0.46390793798822	0.871943198557434	-0.00760214830393161	-0.0140114573776606
11.5	0.00935644562306817	0.0103762972337049	0.593531866179191	0.789354726694204	0.593173266495481	0.789774995110718	-0.00761664788277837	-0.0142077033181871
11.6	0.0107150946940381	0.00775763315549246	0.709541715134009	0.687694548618996	0.709275000019973	0.688177919543233	-0.00962139281075476	-0.0144935855369394
11.7	0.012056396062854	0.00556634298402019	0.807911794019751	0.568737707861608	0.807673098159683	0.569162453597094	-0.0115403784262047	-0.0133760043106056
11.8	0.0127035097485695	0.00275022128769845	0.886290100213676	0.435912314250844	0.886107295766199	0.436467690295053	-0.0132837862493432	-0.0116411106746722
11.9	0.0127894878713338	0.000497899735122018	0.943000280066446	0.293190795915795	0.942964003032813	0.293737440100723	-0.0145156082719857	-0.00846715829415458
12	0.0127291916024815	-0.00254785096538805	0.97788129950823	0.14307270733277	0.977871188910591	0.143554919668638	-0.0127059873066269	-0.00597845495549565
12.1	0.0109355374011199	-0.00537757345510679	0.987662929684752	-0.0114645192953753	0.98764081600351	-0.0109890630522247	-0.0120955997844692	-0.00579291169062562
12.2	0.00855366568255976	-0.00747603192309065	0.973272413564919	-0.164823440578471	0.973382166702099	-0.164384879724666	-0.0121207746946975	-0.00516182741547545
12.3	0.00575244099485932	-0.00875255587199378	0.935492202513549	-0.313785792050458	0.935680843187662	-0.313427248897657	-0.0123324618351664	-0.00451578466722168
12.4	0.00241056372834262	-0.00916300416694374	0.875624608288489	-0.455453591038036	0.875760404180852	-0.455077842188415	-0.0128799114239662	-0.00330571457369717
12.5	3.47572432357866E-05	-0.00844965352392134	0.793107954429851	-0.586544909085794	0.793571201652821	-0.586154285621438	-0.0120727348740427	-0.00154969601044599
