# GHZ S RI R 50
0.2	-0.000226893581187022	4.84697777033875E-05	0.948594122061285	-0.308045982865783	0.948367932776214	-0.308187764733758	-6.9592708864737E-05	0.000209335856200822
0.3	-0.000312287930046525	0.000271299286495328	0.888489244240733	-0.451666460800844	0.888351868870181	-0.451719593812718	-0.000125026526203285	4.63803287059922E-05
0.4	-6.13292277422511E-05	0.000310923007194337	0.806812935582948	-0.583772347653647	0.806852955003533	-0.583911870869395	0.000102344527651293	-5.67198750003164E-05
0.5	-0.000329361380418292	0.000240345014228263	0.706104555635337	-0.701683354672749	0.705994036942401	-0.701779096656966	5.62882693980439E-05	-0.00041361429492219
0.6	-0.000470557610131812	0.000564284830821193	0.588306346411826	-0.802687632353629	0.588116955851544	-0.802690486891426	-0.000186477328131888	-0.00037875340460732
0.7	-0.000413115467680212	0.00102220400191479	0.456219847262822	-0.883853011804651	0.45614588623065	-0.883887332567233	-0.000126396032197951	-0.000466792565906509
0.8	-0.000109668770336572	0.00113787594352432	0.313321518516823	-0.943647142553893	0.313203151678592	-0.943560501539458	-0.000166508179264989	-0.000537080684154956
0.9	0.000260066773401708	0.00148199673926906	0.163077115144459	-0.980441949676316	0.162928332545264	-0.980399147884413	-8.86426028045728E-05	-0.000684049938237236
1	0.000688549204218854	0.000843380939245688	0.00889530571156302	-0.993722442976672	0.00877738741706536	-0.993692808671311	-3.81288085450102E-05	-0.00162842811007615
1.1	0.000426289604581469	0.000806304542744729	-0.144984992820238	-0.982757950542994	-0.145631532927594	-0.982722792469509	-0.00115521603753737	-0.00189098392663057
1.2	0.000908251529737991	-0.000117774215184669	-0.296380738261482	-0.947879160546262	-0.296373782385112	-0.947934745213257	-0.00132452551249242	-0.00188258092769515
1.3	0.00119927907391567	-0.00180915704332837	-0.439660167006254	-0.890148995152716	-0.439752100433203	-0.890173424104469	-0.000760387627018824	-0.00153876713635531
1.4	0.00121464303864966	-0.00385177865609765	-0.572231982577309	-0.811125737713371	-0.572305668664875	-0.811026353391312	0.000343006679596136	-0.00173811646674688
1.5	0.000672066939224057	-0.00441616007719714	-0.691371278266452	-0.712035395889529	-0.69139583202947	-0.711963476092931	0.000918019327525351	-0.00201309901899041
1.6	0.000974420012546353	-0.00429175656161525	-0.792637281455703	-0.596241271199462	-0.793065905648095	-0.595741854994284	0.00130837620619831	-0.00199433474819469
1.7	0.00101445743596865	-0.00441794713411103	-0.875225723352228	-0.466010527157339	-0.87552956335915	-0.465521804704064	0.00121765980224832	-0.00248519806617626
1.8	0.000687275841884518	-0.00455779106193663	-0.936949655968995	-0.324133324370418	-0.936965076637285	-0.324123886766933	0.000612806703653883	-0.00308712718959676
1.9	0.000368945258440841	-0.00470785220681394	-0.975842961714044	-0.174586939270836	-0.97588735818985	-0.174639588259713	-0.000116923407464451	-0.00377821458214425
2	-0.000932051544196307	-0.00471080167267176	-0.990380684789767	-0.02160026525879	-0.99047545370637	-0.0209524673738416	-0.0021756170605607	-0.00388775111181723
2.1	-0.00107736459994743	-0.00376262823884701	-0.981565904639872	0.133082620971008	-0.981664812359803	0.132599555459898	-0.00272630526778777	-0.00245481235434324
2.2	-0.00145967396874603	-0.00386279558171615	-0.949233716018224	0.283001440864843	-0.949272522627214	0.283134844738648	-0.00279576087598576	-0.00210311569051539
2.3	-0.00204636177231945	-0.00370969184555833	-0.893754121848156	0.426759543318682	-0.893590759448485	0.426847950402049	-0.00305710382795337	-0.0019602243173846
2.4	-0.00278827241429551	-0.0036112043784189	-0.815981556776979	0.56061546806827	-0.81627170229478	0.560154400364884	-0.00326657447093189	-0.00217989888693573
2.5	-0.00400655819048784	-0.0032876412613937	-0.719596022906451	0.6798564233221	-0.719896924464718	0.679476250310439	-0.0042965233274171	-0.00294376685347546
2.6	-0.00474129304424887	-0.00183468175775028	-0.606037679834226	0.783223754799408	-0.605958507414249	0.783164622576082	-0.00521055765527776	-0.00195720256782298
2.7	-0.00435827122331329	-0.000790295937786702	-0.47698488501725	0.867645535763699	-0.476955493576361	0.867659647430424	-0.00524239021566716	-0.00120183130903564
2.8	-0.0037662007442943	-0.00035536803771325	-0.336823787350595	0.930942665234063	-0.336706000799081	0.931027201531831	-0.0048389742093891	-0.000594548490444157
2.9	-0.0027286882198938	-0.000274593864863325	-0.188595822318985	0.971779915927515	-0.188591497633738	0.971834601804803	-0.0041943684432856	-2.17309879132834E-06
3	-0.00195151911298481	-0.000354299447303933	-0.0354585942885854	0.989762747035548	-0.0355229815333515	0.989833930654705	-0.00326940532889644	0.00072831082996617
3.1	-0.000727052392505267	-0.000721329101601463	0.118100861968693	0.983179210187266	0.118747808325269	0.98326163572451	-0.00178928952064014	0.00110555690914017
3.2	-0.000270363595521636	-0.00145134880033366	0.269657826480588	0.952675647515235	0.269647797699658	0.952715156304681	-0.000903812221518032	0.000812987624845584
3.3	0.000339296236152013	-0.00212095797454317	0.414783563643785	0.899157388331326	0.414161105800308	0.899437014264441	9.80091667544806E-05	0.000409021231196129
3.4	0.000424988209407369	-0.00294943861789993	0.548882456250311	0.824505862151841	0.548797314134763	0.824620830830955	0.000870692514393134	-0.00049656916541408
3.5	0.000445724189134159	-0.00327475982284157	0.670506333431163	0.729180666720194	0.670520497380255	0.729206874644365	0.000876571123519511	-0.00108160707670073
3.6	0.000764612434470912	-0.00378191389168257	0.774673802341511	0.616540932650466	0.775096309331875	0.61614825721535	0.00152900642306518	-0.00153430753305343
3.7	0.000799979308605675	-0.00470494628968818	0.861335663914198	0.488514588641541	0.861342350028463	0.488641024361696	0.00181456399311878	-0.00253625898211598
3.8	0.000288069669952365	-0.00547000224769062	0.926791880681351	0.348945091909159	0.926819799140374	0.349128339666748	0.00152914546377633	-0.00371681803688743
3.9	9.52148439339544E-07	-0.00624326706204649	0.96996099406041	0.200144131627778	0.969861330203452	0.200731574913504	0.000544275978750552	-0.00525530214803927
4	-0.00129759075333629	-0.0066033084666216	0.988744786163241	0.0478904495081387	0.988826616165503	0.0479335916167309	-0.00164582840482026	-0.00615577738422187
4.1	-0.0015419100524817	-0.0064463504682427	0.984585233468185	-0.105619738530638	0.984522973021556	-0.105555918851765	-0.00311225960432033	-0.00565757979454136
4.2	-0.00230092424088773	-0.00689763123974982	0.956208522142654	-0.257882744707926	0.956400473239828	-0.257313047975438	-0.0042591651176088	-0.00554269074847221
4.3	-0.00310620659803675	-0.00745971926678489	0.904903796114115	-0.402731608295789	0.904904621417637	-0.402713078223483	-0.00552697149808618	-0.00553555327895695
4.4	-0.00433417837361349	-0.00789799432426105	0.831332586174922	-0.538139582076976	0.831252652802047	-0.53812385382638	-0.00692356733985659	-0.00549731046494362
4.5	-0.00609592922746378	-0.0084254367947328	0.738278177842832	-0.660375239581387	0.73815424116348	-0.660229569042784	-0.00924763030994282	-0.00564563478331201
4.6	-0.00799550825498862	-0.00752913174007565	0.627099094424437	-0.767600970661957	0.627083865094433	-0.767371422240593	-0.0117163279743296	-0.0039599321584977
4.7	-0.0092995492181143	-0.00705160685199141	0.500055986976479	-0.855911176443881	0.500172531104969	-0.85566598179664	-0.0134667998215006	-0.00219950199442329
4.8	-0.0107170219900591	-0.00602523242223531	0.360825974459	-0.923065647362305	0.361119507961742	-0.922876205845133	-0.014605882441007	7.05555690885566E-05
4.9	-0.0114760999895808	-0.00511447734753249	0.213345096796859	-0.967562141721421	0.213605056247673	-0.9675103824138	-0.0148062507812723	0.00268611260212408
5	-0.0121127999845389	-0.00394490636906399	0.0609747285590879	-0.98953156530423	0.0611329519470986	-0.989403012001592	-0.0141418130740434	0.00560258751098638
5.1	-0.0117961004728755	-0.00313604629489835	-0.0937979961830449	-0.986997380180252	-0.0934763350497461	-0.986933861871465	-0.0118981665535399	0.00832640020276055
5.2	-0.0117492787836127	-0.00244157700008328	-0.245962057427757	-0.960433997855319	-0.245533499760929	-0.960555466276599	-0.00934871755027772	0.0101577348692993
5.3	-0.0117730717249196	-0.00201784762735828	-0.39208993544246	-0.9108284212322	-0.391799624091517	-0.911173198176918	-0.00654008862103305	0.0112470279453234
5.4	-0.0120529866355441	-0.00115376675052334	-0.529163887946759	-0.839272227259044	-0.529027025900413	-0.839562350686197	-0.00426562967269269	0.0115119667830447
5.5	-0.0125811000276193	0.000522498886528092	-0.653722834140367	-0.746387569804661	-0.65367249502027	-0.746702323177685	-0.00301276919757617	0.0125571876654421
5.6	-0.0114952421292933	0.00225232480423807	-0.761109144224996	-0.635502347803173	-0.761122500034612	-0.635673161254152	0.00036377503203468	0.0136063718914017
5.7	-0.011135863142423	0.00303959763589705	-0.850651539763208	-0.509746023928427	-0.850627556318534	-0.509921597447997	0.0033892219035152	0.0131871140379456
5.8	-0.0108579771182315	0.00440771255814317	-0.919572054525294	-0.371308778526887	-0.919616831259932	-0.371601843331723	0.00607831598760355	0.0121515404039547
5.9	-0.0104930158826941	0.0053657704153369	-0.966247377795611	-0.2237395075148	-0.966368151552478	-0.223787617450991	0.00806897947128264	0.0100999514623147
6	-0.0107718999648386	0.00713173809449635	-0.988641238398347	-0.0708007944990883	-0.988638168795189	-0.0708696622363168	0.00765125124758275	0.00846830931611494
6.1	-0.00933516243043705	0.00933411471379409	-0.987802939160041	0.0830572933603341	-0.987806102173624	0.0829536601347899	0.00874622730000212	0.00863272407076834
6.2	-0.00784153286179579	0.0104239662882674	-0.963027041508045	0.235788615124601	-0.963075255389013	0.235606331001753	0.0103174341520511	0.00727010303743119
6.3	-0.00668232075145762	0.0109863186817229	-0.914575910098777	0.382701164297847	-0.914600356912123	0.382572089886695	0.011478524601808	0.00507370122415165
6.4	-0.00556894909295243	0.011264302332867	-0.843605507311026	0.52001411234734	-0.843596854908359	0.519799937531971	0.0119014998889139	0.0020345627776934
6.5	-0.00473690916139394	0.0113329369891051	-0.752922545537959	0.644170733798909	-0.753023328739892	0.643997910967455	0.0113032003805685	-0.00101737541150118
6.6	-0.00340009703662286	0.0114639492601419	-0.64385234736499	0.75389522693103	-0.644001384147865	0.753748796252459	0.0104462300829045	-0.00370614930562148
6.7	-0.00220046272289529	0.0112124470647581	-0.518510761714915	0.844791154580775	-0.51863246233743	0.844633534018983	0.00858600097833139	-0.00620578064145567
6.8	-0.000802253964741434	0.010995344886015	-0.380743053689444	0.914803680544538	-0.380954893245997	0.914728613435258	0.00610033588290256	-0.00778994306263038
6.9	0.000521917865481928	0.0102554809129056	-0.234245176289164	0.962588803029568	-0.234496637522558	0.962585220862081	0.00361304962008663	-0.00850867002957383
7	0.00199724771508298	0.00955544397150933	-0.0818453191850752	0.987964891725208	-0.0821045919012982	0.987934996533637	0.00135816545946923	-0.00849553962466541
7.1	0.00316587350387783	0.00811286113344673	0.0732791157311107	0.988254793858763	0.0730717463929178	0.98824308274464	-0.000470514341758413	-0.00829208890062952
7.2	0.00386413359878001	0.00665741560123753	0.225825946394961	0.964435045884168	0.225569990073494	0.964479789505442	-0.00221005029731606	-0.00758670513103773
7.3	0.00390875431665277	0.00505553621071961	0.372750681356242	0.917508874341113	0.3725100199745	0.917600415751374	-0.0037758920646053	-0.00648099109210176
7.4	0.00365307026396645	0.00370790358956987	0.510863336998381	0.848481755892342	0.510644843564689	0.848644686772064	-0.00523542449059448	-0.00510304931799719
7.5	0.00287366424402092	0.00268168037890182	0.636948785320808	0.75802840640843	0.636788933995101	0.75820130327312	-0.00635938476717376	-0.00288204038376706
7.6	0.00271245781082264	0.00192312687692354	0.746176818595924	0.649360274999125	0.745961614345866	0.649522195133634	-0.00578230363841339	-0.000812634223709313
7.7	0.00197901760190701	0.00118600323942041	0.837588331976422	0.525654563152393	0.837437701028657	0.525850314603249	-0.00500975321827602	0.000526379428276409
7.8	0.00141182872357432	0.000982568024462071	0.90903856520437	0.388994887915686	0.908918284799062	0.389217258912606	-0.00387847420630097	0.00134787994046969
7.9	0.000656882810221299	0.000949911843834546	0.958152238787406	0.242677208912321	0.958112653750218	0.242903107541468	-0.00308637302234606	0.00145308676428872
8	-0.000462810681297595	0.00164928444911118	0.983003166816943	0.090821612456673	0.983074890766961	0.0911134078732417	-0.004231909309448	0.00184822753137884
8.1	-0.000171816687615289	0.00325632385055492	0.985150159803858	-0.0622091059774594	0.985275303021262	-0.0619382796626163	-0.0036938848271164	0.00441205099150102
8.2	0.000542296715421669	0.00387590560763284	0.963436173037974	-0.214478474971184	0.963503186806127	-0.214182720591927	-0.00221769785984361	0.0057102698543702
8.3	0.000971554905770686	0.00442382091334621	0.917991114719054	-0.36149507975099	0.918129708763164	-0.361239683843819	-0.000392380288161791	0.00633272235107118
8.4	0.00183058423371776	0.00463593277967581	0.850077749546145	-0.499258037183127	0.850290119812595	-0.49905924376927	0.00178058314837105	0.00580664207674791
8.5	0.00166705587433505	0.004538911024806	0.762700649141973	-0.624246299697514	0.762816712593223	-0.624120901990878	0.00221002689571235	0.00402378696023687
8.6	0.00249905603804023	0.00549962370128537	0.656504938194298	-0.735529489999946	0.656702806763305	-0.735344902417746	0.00256675104562137	0.00430178607445935
8.7	0.00359523133629565	0.0054713744616075	0.533855165652957	-0.82819100248799	0.534137009394085	-0.828082881765368	0.00388404356119186	0.00386884478406788
8.8	0.00474070399724996	0.00503290896214358	0.398768786399832	-0.90051534036943	0.398974700781867	-0.900461745744152	0.00492564533636994	0.00287896691888263
8.9	0.00583348466934083	0.00428453618621615	0.2544825431225	-0.951087524471266	0.254724307044887	-0.95094817049263	0.0061362937048745	0.001557827856903
9	0.00700629366616519	0.0028904324022268	0.103754315351669	-0.9794771307598	0.104116048503013	-0.979448535030884	0.00676162165259275	-0.000390550883770029
9.1	0.00817741155464751	0.00132103912957774	-0.0500091100581759	-0.982997371191464	-0.0496573607415534	-0.983013254896748	0.00725883281828576	-0.00203360765475983
9.2	0.00902864034779395	-0.000962416458386824	-0.201721746383621	-0.962674013383593	-0.201367026951891	-0.962745814383427	0.00739338948329683	-0.00393490883230805
9.3	0.00920143389622543	-0.0030518755816904	-0.348316492736664	-0.919538585972582	-0.347960514850836	-0.919603966573483	0.00699170222229094	-0.00533658688296147
9.4	0.00908688279486776	-0.0054929711777193	-0.486638654386681	-0.854524329936895	-0.486316614043036	-0.854672849697255	0.00621688563665274	-0.00670189457863017
9.5	0.00781699799271885	-0.00677043018314534	-0.613674863638629	-0.767805018992532	-0.613469782332893	-0.767942785918314	0.00433191772699498	-0.00599322311232699
9.6	0.00765233000631271	-0.00878055699371582	-0.724337805064286	-0.662782899714446	-0.724066680623961	-0.662967989032311	0.00503938859390031	-0.0051977042355723
9.7	0.00571203339843026	-0.0107661841237975	-0.817882455482581	-0.542588139032861	-0.817637922357112	-0.542857131039387	0.0052872555394289	-0.00584527895404904
9.8	0.00323620393489206	-0.0119658976845535	-0.891970715610626	-0.409134950255398	-0.891763282740881	-0.409409394925448	0.00511907506135661	-0.00652890542988043
9.9	0.000414714490022592	-0.0123436978218877	-0.944319762364411	-0.265431198275855	-0.944208853841617	-0.265759447387631	0.00476089269231854	-0.00779937221178676
10	-0.00320615182806128	-0.0116343095942267	-0.972798187137769	-0.115880047898431	-0.972719513174986	-0.116256814844183	0.00210195176148278	-0.00819640465808887
10.1	-0.00508860032316929	-0.00969559982702045	-0.978930895868562	0.035511898496105	-0.978912131150443	0.0350364446605994	0.00169188777197639	-0.00645054619199225
10.2	-0.00694363822535312	-0.00852457277271445	-0.961604164530455	0.186807129323978	-0.96159012437706	0.186359605124707	0.00206969974936912	-0.00628737748145993
10.3	-0.00902616433329732	-0.0065611098435636	-0.920668758533482	0.333576715898798	-0.920804273168438	0.333039638424295	0.00210374916864767	-0.00692458079295146
10.4	-0.0104694070318314	-0.0045338007529703	-0.857237686626892	0.471696301771479	-0.857501909576625	0.471164413637203	0.0019405088282048	-0.00846192459458692
10.5	-0.0121482088181485	-0.00189887256564212	-0.774451331019266	0.597795813871576	-0.77473225766057	0.597411553667829	0.000208172349631733	-0.0105660710481056
10.6	-0.0122632693329055	0.00123885985630397	-0.672715718962199	0.711065845751768	-0.673139493985731	0.710724205190332	-0.00175017219500841	-0.0108255040960528
10.7	-0.0116456971577105	0.00440246004464465	-0.554231148286214	0.806638758584615	-0.554640237751413	0.80635250551824	-0.00314893511927854	-0.0106324812162131
10.8	-0.00996416534226963	0.00689815470582206	-0.422491644259933	0.882399552241639	-0.422998820499372	0.882172014250112	-0.00403449047180089	-0.0103671128994477
10.9	-0.00790940745799257	0.00906087727432262	-0.281223180658789	0.936965499705833	-0.28170790129958	0.936914546848219	-0.00500313044569718	-0.0102463496957856
11	-0.00522218946952651	0.0104806371609634	-0.132671947244511	0.970149163457256	-0.133215342479438	0.97014472444495	-0.00588533685337753	-0.00988440642799271
11.1	-0.0020257605241721	0.0112126641960175	0.0200403104281831	0.978469938166056	0.0194147399781744	0.978552531211385	-0.00614630804774843	-0.00967296645509201
11.2	0.0011114334758263	0.0108240608297392	0.171060950547207	0.963196809735558	0.170544888809149	0.963398554675397	-0.00639917686076752	-0.00980615757247736
11.3	0.0040542703585919	0.0099634449613594	0.317810198252444	0.925207518108486	0.317383058247507	0.925468219136914	-0.00655953629193781	-0.00998143042993388
11.4	0.00654642921899139	0.00813751186570576	0.457545815934058	0.865314056639536	0.45708386968192	0.865572177639298	-0.00718030690745132	-0.0103834394243898
11.5	0.00838405123986126	0.00691877070121771	0.586732307392355	0.783148484574274	0.586376267156075	0.783564284156478	-0.00894113222661269	-0.00940780865146734
11.6	0.0108918164678472	0.00443979961323217	0.699947544979634	0.682576356224177	0.699682182432328	0.683053804176097	-0.00869912767867198	-0.00804171040129477
11.7	0.0120603991307399	0.00160109824716513	0.797171941801332	0.566382099632913	0.796933865547993	0.566801458852843	-0.00861838671804305	-0.00779562319460124
11.8	0.0123140665847833	-0.00137142371283242	0.875557397567502	0.436045049547073	0.875373634301997	0.436594144348444	-0.00892309272885281	-0.00788829379660081
11.9	0.0120708467822069	-0.00399686361087551	0.932652875637005	0.294792840635224	0.932614396737745	0.295334109506861	-0.00978118436326786	-0.00844423442769596
12	0.00973974974453101	-0.00602293525196265	0.966080443838474	0.147015383256355	0.966067709822072	0.147492119402209	-0.0132973717069874	-0.00811707034513005
12.1	0.00916494659709981	-0.00692635146797897	0.977683049371842	-0.0035680288484881	0.977657416097662	-0.00309759453748604	-0.0145644088289899	-0.00527361267539756
12.2	0.00772172707626888	-0.0085909062792714	0.965719578714089	-0.155206550133575	0.965824673041207	-0.15477109712689	-0.0150330079384754	-0.0029162480657089
12.3	0.00598546546768138	-0.00951910197984794	0.929948623570301	-0.303017925632057	0.930132535772656	-0.302660921872379	-0.0147711706147535	-0.000653406840164971
12.4	0.00403990212650549	-0.0104552902784336	0.871716427651769	-0.443172229373099	0.871847505394366	-0.442798707096165	-0.0137184846621479	0.000772295051884838
12.5	0.00145277051485435	-0.0108279188742242	0.793424744223566	-0.572222559314329	0.793879477063917	-0.571829711086676	-0.0139357276757398	0.00119075759838465
