# GHZ S RI R 50
0.2	-0.000168161980389467	9.08835268910048E-05	0.948869415140836	-0.307970598516729	0.948643194035549	-0.308112449839588	1.19027882376441E-05	0.000226381344888506
0.3	-0.000250744036232454	0.000334678521643946	0.888858614083537	-0.451623651810531	0.888721206962133	-0.451676829670037	-3.46863045679844E-05	5.44803699817221E-05
0.4	-4.04208250132048E-05	0.000415282955015643	0.807313082487287	-0.583836042679855	0.807353153539923	-0.583975618185732	0.000143176392092089	-3.66017189557017E-05
0.5	-0.000201181502681654	0.00055812656155384	0.706576583945324	-0.702050944473161	0.706466006239849	-0.702146751566919	0.000198481383913042	-0.000184759375391211
0.6	-0.000104102880800217	0.000701062339758714	0.58860004812494	-0.803065225158615	0.588410566611972	-0.80306808366144	0.000219598271194402	-0.000358928833142364
0.7	-9.16929439100144E-05	0.000994171209033341	0.456504690799018	-0.884294365713411	0.456430692650052	-0.884328708272981	0.000231165242468441	-0.000669583300319893
0.8	0.000112173876813835	0.000974528953001328	0.313529320614636	-0.944228719703275	0.313410879077664	-0.944142026534724	5.29448469895863E-05	-0.000932672513665833
0.9	0.000131246447305542	0.0011742286691401	0.163052768597116	-0.981170564045488	0.16290388521304	-0.981127709972203	-0.000312427357500903	-0.00126223149120179
1	-6.00904457170103E-05	0.00115783024578802	0.00854417189634526	-0.994221527185003	0.00842620538592134	-0.994191835894077	-0.00101651842603734	-0.00149403770447917
1.1	-8.24891614563796E-05	0.00173719833294368	-0.145194716246183	-0.983176408661844	-0.145841540504765	-0.983141139566576	-0.00186524755295852	-0.000974014998671755
1.2	0.000284870861351962	0.00158530527311774	-0.296729190403012	-0.948359047365227	-0.296722241170121	-0.948414664814144	-0.00202836001656194	-9.81329694002548E-05
1.3	0.00105330127559536	0.000952921084005177	-0.440197042494431	-0.89052710313972	-0.440289037037703	-0.890551517215176	-0.000815214011795118	0.00131630016886848
1.4	0.00185737949663555	-0.000882819522971741	-0.572850974255506	-0.811221260176198	-0.572924647472496	-0.811121798856008	0.0012187343354189	0.00121097582174401
1.5	0.00222211910148733	-0.00214412024340119	-0.69164309332088	-0.712076987067689	-0.691667640433892	-0.712005047288986	0.00282479706210914	6.39678436128899E-05
1.6	0.00208977020371062	-0.00351703003699797	-0.793169886527015	-0.596498042141024	-0.793598703411402	-0.595998284244768	0.00271186408925149	-0.00172337409764083
1.7	0.00150565304854194	-0.00399312441483881	-0.87591245934325	-0.46600399300604	-0.876216322181644	-0.465514872673182	0.00177058279627149	-0.00269380127655741
1.8	0.00076534287095464	-0.00426934580650589	-0.937546735690971	-0.323891529742593	-0.937562159832491	-0.323882080986859	0.000549611830834006	-0.00340578473922656
1.9	-8.34371376850485E-06	-0.00413509404060998	-0.976215139989305	-0.17434855315159	-0.976259566920421	-0.174401205987828	-0.000773413394531542	-0.00366169328004647
2	-0.000561900061256517	-0.00353807451195988	-0.991083506473779	-0.021562724431432	-0.991178307983636	-0.02091446256918	-0.00197907592172433	-0.00297962230928433
2.1	-0.000592875730174727	-0.00361810359624028	-0.982289274853144	0.133729486230792	-0.982388528034319	0.133246083048938	-0.00229999882654124	-0.00269098515495281
2.2	-0.00151728355522637	-0.00379836921715131	-0.949627725611768	0.283765856400628	-0.949666472073893	0.283899364820113	-0.00301364848424064	-0.00249689049321824
2.3	-0.00243902169721106	-0.00350506078046534	-0.894002329447136	0.427490820848025	-0.893838828771883	0.427579184838425	-0.00375370680653868	-0.00216422371020492
2.4	-0.00366299386963296	-0.00298906169289747	-0.816318872997526	0.561397412445165	-0.81660944096149	0.560936141936512	-0.00457820426024037	-0.00176946565210735
2.5	-0.00447588416819859	-0.00130511529607363	-0.719664093909991	0.681287734311478	-0.719965690898674	0.680907466843812	-0.00507524964120788	-0.000816063108013103
2.6	-0.00403943553612519	-0.00014113309864073	-0.605357828318524	0.784313822745799	-0.605278692165801	0.784254567600256	-0.00442637096725833	-6.84066124727828E-05
2.7	-0.00342988701302614	0.000442323213699277	-0.476250701215021	0.868442526529948	-0.476221284870859	0.868456612636243	-0.00400635845426879	4.73696874381602E-05
2.8	-0.00296954560232163	0.000600572388867888	-0.336003802160816	0.931684643178338	-0.335885878356658	0.931769093473433	-0.00366919102097626	0.00016163349010267
2.9	-0.00208783143156003	0.000767798985152763	-0.18741587727533	0.972556016964807	-0.187411478052406	0.972610726812574	-0.0032094224999631	0.000681976784593226
3	-0.00108928910260173	0.000650546089999883	-0.0337064180585228	0.989727245907247	-0.0337706731321983	0.989798536226563	-0.00208072209882119	0.00121935734845596
3.1	-0.000128002925276425	0.000174599333937377	0.119193624358419	0.982689501293602	0.11984043339119	0.982771150226473	-0.00100725262768704	0.00132048575135927
3.2	0.000397384953415279	-0.000419961445511719	0.270687175918557	0.952203323581555	0.270677193561465	0.952242836760229	-0.000204485628843052	0.00115205092786585
3.3	0.00111109020005221	-0.00112665820138859	0.415865868617097	0.898425063390399	0.415243907952962	0.898705440177129	0.000800273908182255	0.000763132222636068
3.4	0.00127888009222217	-0.00187297448020392	0.549800883761351	0.823179792683325	0.549715966816271	0.823294821197158	0.00163903034960143	4.16161887242206E-05
3.5	0.0020337680745424	-0.00252713637314396	0.670318254698992	0.727771180729104	0.670332423571199	0.727797346174496	0.00252051696544987	-0.000869073009102355
3.6	0.00179542566660991	-0.00396517174832693	0.774598962117985	0.615775544203795	0.775021021685266	0.615382845353234	0.00258856453798864	-0.00243625619890564
3.7	0.00124953081807913	-0.00487331399388906	0.861257306697443	0.487566036441571	0.861264089606187	0.487692398400019	0.00213859959593634	-0.00345869151220227
3.8	0.000333364129733798	-0.00551002784082805	0.926354245150396	0.347946804278609	0.926382286491393	0.34812988916955	0.00131548311326674	-0.0044306609943087
3.9	-0.000376517214271451	-0.00578131605009841	0.969037643540594	0.199556041856356	0.968938313593857	0.200142917452975	-0.000154577753461985	-0.00525980683266526
4	-0.00078217430895186	-0.00533205459297757	0.988467443201823	0.048064723994196	0.98854924282621	0.0481078698863311	-0.00121361036969737	-0.00511651069162317
4.1	-0.000623990459144838	-0.0062037129205719	0.984496144060087	-0.106216389985424	0.984433924025062	-0.106152534016929	-0.00201651015941696	-0.00580431105712309
4.2	-0.00172359750918887	-0.00699299374777647	0.955691690658536	-0.258451301004964	0.955883966917892	-0.25788193863306	-0.00348884723848835	-0.00619757710112985
4.3	-0.00286902614976604	-0.00780554365206346	0.904301602413663	-0.40301603582775	0.904302436796124	-0.402997514305274	-0.00516040333177044	-0.0065229656293959
4.4	-0.00487145186776675	-0.0082005906163907	0.831102253006266	-0.538300107117496	0.831022332325602	-0.538284359573248	-0.00745389103332863	-0.00640716827606438
4.5	-0.00668494870295662	-0.00742801557401455	0.737847599414196	-0.661502852235849	0.737723774639419	-0.661356977260604	-0.00975378430391998	-0.00500930953503608
4.6	-0.00765941035902593	-0.00671495316654365	0.625640668358229	-0.768071787019924	0.625625778147159	-0.767842345915213	-0.0109596602384727	-0.00355119411009863
4.7	-0.00880934344811989	-0.00650577807627881	0.498749353730657	-0.855773280824222	0.498866068220921	-0.855528403126545	-0.0124035532653948	-0.002292073754646
4.8	-0.0101422243738043	-0.00576539461464125	0.35972472485739	-0.922759767291967	0.360018230007789	-0.922570727659709	-0.0134458381199809	-0.000552275258908407
4.9	-0.0110439411447761	-0.00509309595369468	0.21204698395167	-0.967359526263865	0.212306882101362	-0.967308113051717	-0.013871710191643	0.00162002810277952
5	-0.0116386657020896	-0.0041391580338144	0.0591123730629808	-0.988173803328751	0.0592705920890423	-0.988045723933792	-0.0132444282449718	0.0041222233203691
5.1	-0.0120927028478336	-0.00375894303490689	-0.0943262084042872	-0.985126233174923	-0.0940050903688334	-0.985063059040127	-0.0120687113608122	0.00617306791443658
5.2	-0.0128896674759093	-0.00260384860290928	-0.246087608430062	-0.958879222287827	-0.24565975051371	-0.959000729304744	-0.0107815996553131	0.00850831177773021
5.3	-0.0133752558600468	-0.00123959546325212	-0.392095986538868	-0.909247305844777	-0.391806318941225	-0.909591763347686	-0.00871504205419452	0.0108396858639044
5.4	-0.0133459562398232	0.00100695403339232	-0.528805815762684	-0.837206044836609	-0.528669454801704	-0.837495711581032	-0.00609632890797627	0.0129262758323183
5.5	-0.011652987689298	0.00265592444658621	-0.651710119923578	-0.744679032393739	-0.651659790047373	-0.744992937674926	-0.00215160173951794	0.0140508283338835
5.6	-0.0112805344303337	0.00272169285948497	-0.759427498222983	-0.635177228441322	-0.759440691068974	-0.635347794796714	0.000568754923451303	0.0130572977908716
5.7	-0.0117311477772006	0.00376004122130054	-0.849253374614552	-0.509552186558664	-0.849229324605231	-0.509727516825685	0.00253530795670863	0.0128140050807233
5.8	-0.0118806831327955	0.00562789046005887	-0.918037252158998	-0.371265770859904	-0.91808180565204	-0.371558434697721	0.00458296250558595	0.0124615091255624
5.9	-0.0118611263479954	0.00784550504965879	-0.964362391899811	-0.224373195330387	-0.964482908732559	-0.224421350433647	0.00619103510626597	0.0121137842299613
6	-0.00967965310741661	0.0112538337077927	-0.988017157435698	-0.0725706599114708	-0.988013963624279	-0.0726394878463345	0.00888303952079263	0.0125558712465102
6.1	-0.00668981700820037	0.01130618048838	-0.987748996124036	0.0824187452131394	-0.987752092725588	0.0823151209840691	0.0121477108616185	0.0100920748436428
6.2	-0.00526951148307936	0.011075312218016	-0.96261678472289	0.235193625301864	-0.962664884020362	0.235011416945441	0.0136858338950411	0.0068754189035832
6.3	-0.0046641901919982	0.0106044582913817	-0.914228664002639	0.38177653300737	-0.914253000498091	0.381647528933506	0.01407406575765	0.00327789846091765
6.4	-0.00456187721171304	0.0106629976149377	-0.844013640361516	0.518946438844074	-0.844004747089454	0.518732319700665	0.0131295166925907	-8.99824559830713E-05
6.5	-0.00417211293768031	0.0111166351045414	-0.753302962894396	0.644534232399423	-0.753403804635366	0.644361320766395	0.0118207254383444	-0.00272521323134108
6.6	-0.00333821019584841	0.0116321338076235	-0.64317001079122	0.753476744001285	-0.643318969680394	0.753330462842543	0.0101829592733063	-0.00487124897266582
6.7	-0.00203360902292588	0.0120293651871068	-0.518377560480786	0.8438384571333	-0.518499091737929	0.843680929464881	0.00835690834831379	-0.00641721428679405
6.8	-0.000261780982884429	0.0119433057510962	-0.381124531087801	0.914078108814979	-0.381336211031781	0.914002946425022	0.00638430626403771	-0.00765227238438089
6.9	0.00131073720774894	0.0111098729326035	-0.234403587614147	0.962526078657542	-0.234655042330065	0.962522453737063	0.00437367413740905	-0.00840608600867675
7	0.00291317364694452	0.00978050912248267	-0.0811558423691014	0.986799454249626	-0.0814148142764291	0.986769750367344	0.00244131496129418	-0.00915733363056684
7.1	0.00332164188075588	0.00819287144172462	0.0724146436828905	0.986851792996564	0.0722075894787469	0.986839940493017	-0.000122200444368343	-0.00928157136351319
7.2	0.00372301571760199	0.00702976367149306	0.224723475216882	0.9637922493829	0.224467703719898	0.963836713869553	-0.0021848980099692	-0.00840016457447951
7.3	0.00365431691059738	0.00565792117546785	0.371875293745349	0.917115892369429	0.371634739631057	0.917207208524823	-0.00390828581130574	-0.00717136054246224
7.4	0.00338959194289541	0.00456463677015418	0.509980149121693	0.847575425307843	0.509761879921588	0.847738089702772	-0.00540632739010787	-0.00561090469914372
7.5	0.00320219365720159	0.0033827392013388	0.634249695806121	0.757631779473764	0.634089857539296	0.757804027681746	-0.00594496961441701	-0.00371588524696667
7.6	0.00237021446683215	0.001733471304351	0.744332651315099	0.650765468268394	0.744117177341032	0.650926817676312	-0.00632870081694355	-0.0027669703587271
7.7	0.000523325462929751	0.00122403281981627	0.836542411934965	0.527081957745989	0.836391450965075	0.527277415168679	-0.00707390705459534	-0.00121311706375708
7.8	-0.000913983368421621	0.00181234432378072	0.908189171384901	0.390385430163751	0.908068556762369	0.390607552403418	-0.00714891066749862	0.000726446303078509
7.9	-0.00229106537748353	0.00348548016748812	0.957134732136944	0.244639295807657	0.957094675506484	0.244864992923242	-0.00684812940888681	0.00334528816889514
8	-0.000886850676276292	0.0065975866547387	0.983869411908475	0.0938328598341999	0.983940355915909	0.0941252041585096	-0.00506617254827885	0.00656457451173223
8.1	0.00131907972844684	0.00641674296256731	0.986803764432095	-0.0610152046482567	0.986928751832267	-0.0607437819229889	-0.00169900166809114	0.00700201557457575
8.2	0.00229974669728824	0.00591479608630879	0.964629782745192	-0.21371523591243	0.96469656340579	-0.213419113928975	0.000213101297385617	0.00669864070699421
8.3	0.00265145106425164	0.00540948022691958	0.919214349206637	-0.360595257810433	0.919352724068307	-0.360339472049503	0.00190074045625116	0.00587302968529711
8.4	0.00237638303593292	0.00491593988732885	0.852252031294897	-0.498470848386349	0.852464360649938	-0.498271373881061	0.00266004454251111	0.00446243026218522
8.5	0.00218757065689862	0.0064423127783596	0.764702177258887	-0.625643153201995	0.764818503530698	-0.625517423874478	0.00308927014336997	0.00451523860110468
8.6	0.0041051040037659	0.00606109634163684	0.657026485541204	-0.736281218638803	0.657224557239303	-0.736096483402897	0.0048516173866565	0.0030618111899879
8.7	0.00438618851549787	0.00531224625568819	0.534740744215036	-0.828612809077343	0.535022770009597	-0.828504449261425	0.00512051908963789	0.00135485481624492
8.8	0.00482201759781429	0.00475569292311585	0.399911153255854	-0.901409131681754	0.400117298074368	-0.901355324678858	0.00485589420779436	-9.57583807608179E-05
8.9	0.00491378599601108	0.00412202867140632	0.25496779627279	-0.952932933060232	0.255210029941078	-0.952793311026796	0.00428863726157057	-0.00123415425771581
9	0.00546690698685118	0.00394194058160847	0.102809483944894	-0.979974469883894	0.103171390966818	-0.979946227006327	0.00378888599283431	-0.00141010006877747
9.1	0.00635823367016081	0.00330755801024617	-0.0494311024373825	-0.983296011428458	-0.0490792474793749	-0.983311687768322	0.00384188067510803	-0.00158342771540721
9.2	0.00772298823825764	0.00267493653759234	-0.201382605638425	-0.963873176496163	-0.201027445859279	-0.963944849700861	0.00456618525281731	-0.00122449292693759
9.3	0.00958030492646967	0.0012743880601356	-0.348839018455901	-0.920817171894801	-0.348482543111599	-0.92088265724755	0.00627095800883081	-0.00143413057357366
9.4	0.0108094873839877	-0.00134038188420536	-0.487690216724997	-0.854655947503462	-0.487368096806336	-0.854804841020198	0.00753047524674709	-0.00266935368852266
9.5	0.0119601576826859	-0.00445338993217648	-0.612808505136693	-0.767954912681904	-0.612603404451336	-0.768092459289058	0.00903745017042789	-0.00418577564259464
9.6	0.00972134446105253	-0.00930471844662898	-0.724582007052669	-0.664349793072165	-0.724310353768247	-0.664534841699341	0.00771706016883262	-0.00719865821206336
9.7	0.00603619373895951	-0.011014134173458	-0.818886187161511	-0.543531721354202	-0.818641251899448	-0.54380102772051	0.0057634348634279	-0.00795151749553887
9.8	0.00257350254414578	-0.0117316639369127	-0.892818052856042	-0.409488640623379	-0.892610434460891	-0.409763348746511	0.00415472049376316	-0.00812809930137913
9.9	-0.00135625765758332	-0.0107170539895673	-0.944445228024382	-0.26618789941522	-0.944334050170753	-0.266516179305067	0.00242275776125057	-0.00753596297555925
10	-0.00256332494215948	-0.00809115562056732	-0.974771889692762	-0.117753408146586	-0.974692414939699	-0.118130883398065	0.00272530406556333	-0.00555361265974196
10.1	-0.00400393179981628	-0.00849330021283442	-0.981295358660103	0.0358179511380891	-0.981276655197911	0.0353413407788949	0.00312049956268134	-0.00666554142360435
10.2	-0.00688201291081037	-0.00756204673440106	-0.963145009558522	0.187423762559127	-0.963131088285935	0.186975489021041	0.00217969898314732	-0.00704392300334293
10.3	-0.00970471893341741	-0.00532009807536919	-0.92217516980905	0.333920468794792	-0.92231079251388	0.333382523858816	0.00107933866751139	-0.00731978887861505
10.4	-0.0121161052997559	-0.00222241525170297	-0.859871373941332	0.472271436200257	-0.860135878818077	0.471737936174399	-0.000318980536079197	-0.00731329066418518
10.5	-0.012655574187766	0.00302651650343761	-0.776623742653359	0.601287526994136	-0.77690634007856	0.600902166075325	-0.000612582471262605	-0.00602553616236754
10.6	-0.0102205552271715	0.00620950648667628	-0.67260038076646	0.713986394703325	-0.673025769714245	0.713644946664825	0.000693651553625826	-0.00636203456203419
10.7	-0.00781042145829179	0.00790912984686854	-0.553831738573133	0.809014266561464	-0.554242041614539	0.808728206981576	0.00153170573806173	-0.00793339128610398
10.8	-0.00596120098896707	0.00832313606919136	-0.421858119987868	0.884884491262256	-0.422366698764302	0.884657348212758	0.00100183460397302	-0.0101693409930587
10.9	-0.00481103182472253	0.00932411641812718	-0.279417036414427	0.940028882852185	-0.27990308956369	0.939979097753468	-0.0008059258392028	-0.0115837955869206
11	-0.0026433832312242	0.010037470272634	-0.129000220852159	0.97085274067834	-0.129543743760677	0.970850372498819	-0.00223052283006702	-0.0122835515711751
11.1	-0.000754078677962914	0.0103860023538385	0.0218719894257296	0.978250061584316	0.021246690447701	0.978333812684126	-0.00400250337678243	-0.0128833457623217
11.2	0.00154787519500276	0.010320283179506	0.172864805741901	0.963363002766318	0.172348851567661	0.963565768082668	-0.00546862184762859	-0.0129296550284398
11.3	0.00384929138609702	0.00983506622712938	0.320157824879885	0.924968421772947	0.319731062990479	0.925230269136278	-0.00667483589522163	-0.0127154557006621
11.4	0.00587446297413868	0.00907922029616358	0.459933266535509	0.863437426542788	0.459472364407755	0.863696814392848	-0.00798682772945861	-0.0117925308312923
11.5	0.00948578575149148	0.00789569579490718	0.586332206728783	0.781299183156734	0.585977127375268	0.781714538869033	-0.0076453416932696	-0.0108355568211006
11.6	0.0106503133457843	0.00379283639564211	0.700504433455846	0.682315416819163	0.700239293245674	0.682793126747923	-0.00910662723464383	-0.0116045711840615
11.7	0.0104245768437101	0.00140944954474506	0.798183225211324	0.565362792440313	0.797945699483368	0.565782596929612	-0.0110699465425728	-0.0108232285467617
11.8	0.00953283734965966	-0.000783715334099262	0.875910526083149	0.434378319749176	0.87572776888011	0.434927484819127	-0.0130423660624004	-0.00963763562861361
11.9	0.00778885327645546	-0.00124444075352932	0.931598991211477	0.293805004738721	0.931560909013633	0.29434557749971	-0.0155782576030047	-0.00697621308442862
12	0.00881802897012301	8.39721901762659E-06	0.966849641839607	0.147652983978528	0.966836645667051	0.148130131248953	-0.0148376407466758	-0.00255395895486556
12.1	0.0097486099715651	-0.00245282352770088	0.978608151918014	-0.0049270545276474	0.978583146569688	-0.00445613714806589	-0.0137124830926416	-0.00145221057722763
12.2	0.00896275283071225	-0.00452105527900775	0.965663449414804	-0.156479756515994	0.965769123111658	-0.156044374258386	-0.013101238556484	0.000104235006177141
12.3	0.00800939537351291	-0.00627929498930031	0.92986582933955	-0.303655584976269	0.930049994550287	-0.303298656672015	-0.0118901524578859	0.00111792492060828
12.4	0.00568320312322916	-0.00822536675700983	0.872929387604187	-0.443804850254718	0.873060654121989	-0.44343080738431	-0.0113452818087603	0.00131409766656048
12.5	0.00345747826715403	-0.00780007311241576	0.793945863094145	-0.575868984584369	0.794402849204369	-0.575476343144446	-0.010893940242542	0.00265257231910549
12.6	0.00222983922776845	-0.00911646852357577	0.693772010714412	-0.69157217451514	0.694117325444702	-0.691263143614432	-0.00955456617859963	0.00213261726303749
