# GHZ S RI R 50
0.2	0.000163487494322735	0.00263127256532558	6.31977158779281E-06	-9.97508415527041E-07	1.06694866701073E-05	1.05365246644688E-05	1.00126630851296	-0.00607664262447684
0.3	0.000890101051399117	0.00263922479205515	5.82263948169982E-06	5.05785530394748E-06	8.1106966259942E-06	2.97276648218049E-06	1.00148953939943	-0.008975783036872
0.4	0.00142144582754178	0.0030049884136759	-2.72558699625911E-06	7.89185434475512E-06	-4.77980428750236E-07	-4.44537939855827E-06	1.00229478941495	-0.0116236237279623
0.5	0.00279651392294582	0.00278171389965107	2.31526840444436E-06	1.48249864200948E-06	7.53257825363703E-06	-1.05865643928267E-06	1.00261053109177	-0.0162894964137496
0.6	0.00241441780918517	0.00177301530327438	3.21045940057652E-07	3.54748470260407E-06	2.77919950833525E-07	-7.67713309725027E-06	1.00115277799184	-0.0191093342641761
0.7	0.00195370907764128	0.00207968651380377	4.17829156759471E-06	5.09721258274702E-07	-3.90674127707229E-06	-7.34640253432051E-09	1.00096506011421	-0.021191981723598
0.8	0.00185921191076006	0.00245666810954285	-2.90135427585987E-06	2.97248658227187E-06	-6.84811866417657E-06	1.31843734472939E-06	1.00117955118664	-0.0229761879757672
0.9	0.00156832521722238	0.00315553224069146	6.06336606892975E-06	9.08110016683561E-07	-7.37334635759259E-06	-1.84673437945736E-06	1.00154001274556	-0.0248215346325926
1	0.00274472293874273	0.00454841821287415	2.37327118886646E-06	2.95940228052147E-06	-9.09162449943453E-06	-2.5981074512243E-07	1.00316890512499	-0.0263726434004264
1.1	0.00377457603775316	0.00322023340344548	6.4694059255325E-07	3.52965902612542E-08	-5.32458758991227E-06	1.41331910692445E-06	1.00292134378106	-0.0304681969349975
1.2	0.00323737294498027	0.00235601654906695	-5.32005374436944E-06	-3.29939072526292E-06	-1.12446553244422E-05	-1.27029342154144E-05	1.00142954446604	-0.03214884021046
1.3	0.00248969056994562	0.00133011415537867	3.0664451047545E-06	3.11132074309903E-06	6.97940493179243E-06	-4.1108482049836E-06	1.00049801126196	-0.0338430237932251
1.4	0.00155407633881132	0.000691940874785672	-2.81023580583431E-06	-1.11178735231476E-06	5.73137548089771E-06	5.16363361705671E-08	0.998991904581598	-0.036029601722781
1.5	0.00207367545301799	0.000255773995706403	1.23993884594946E-06	-2.54369925294415E-06	8.08762213240129E-07	2.51855420764494E-06	0.999958237233375	-0.0392572815379133
1.6	0.0012475733019358	-7.0184756511594E-05	-9.48283413749552E-07	-6.43808607423885E-06	3.18982506910494E-06	-4.26543809499762E-06	0.999147195613717	-0.0427601067180973
1.7	0.001340067232167	0.00085123677538535	3.4211852720768E-06	6.28980761708167E-07	2.25219469056925E-06	3.86418665591148E-06	0.999890274372464	-0.044610630710709
1.8	0.00176336753524196	0.0015649840920482	-2.38187375531047E-06	2.91548837337293E-06	-1.0271507768959E-06	-4.01300532391971E-06	1.00026120780107	-0.0469404241300507
1.9	0.00237803618360876	0.00233009783102956	-3.7519047586732E-06	-1.76314809658669E-06	5.65966726518552E-06	3.03370170983449E-06	1.00090157019474	-0.0479469805973027
2	0.00424811328795627	0.00224828933350407	-6.22877971357077E-06	-5.78557872146908E-06	-2.08343401036908E-06	9.22395196465265E-06	1.00453907798527	-0.051014286429558
2.1	0.00398395853608538	0.000673532469606755	1.19914721369944E-06	4.63519717611486E-06	4.53173587278825E-06	4.00262716372174E-06	1.00353415294939	-0.0573822380628117
2.2	0.00328466188031301	0.000600319774076669	6.64667677341754E-07	9.09689846956547E-07	-3.70262335671242E-06	-1.09926954568077E-05	1.00188972498287	-0.0601122232985891
2.3	0.00275476250639748	0.00072411738029485	-2.28209484469272E-06	3.59332768917645E-06	-5.52029868188153E-07	-2.81089942247854E-06	1.00090713236793	-0.0618753657328587
2.4	0.00215855065206347	0.00141015115462265	-1.57429138169189E-06	-1.4562804268532E-06	1.28674339950535E-06	-1.01193404484867E-06	1.00054597147967	-0.064837560566293
2.5	0.00312347820968112	0.00244648578021412	7.85613029476261E-06	4.03138426684713E-06	-2.40671011765428E-06	-7.25210881366083E-06	1.00047081464561	-0.0672991946986802
2.6	0.00360197286696376	0.00144379663234381	5.0149801557687E-07	2.12439080864096E-06	-1.44651055290859E-06	4.71647949990017E-06	1.00006697884499	-0.0706945888352663
2.7	0.00333113594325308	0.00118134057863532	-7.87575254613439E-06	5.31393140382372E-06	2.60361196586135E-06	9.75549819848429E-06	0.999719634779401	-0.0740749011341841
2.8	0.00314370183910142	0.00121620897762483	-7.73392175694613E-06	8.0483855007977E-06	6.17719783422398E-06	1.99852950593436E-05	0.999545679938557	-0.0767293026715975
2.9	0.00324386838081171	0.00168408575237996	-1.18970767984584E-06	8.7327519326709E-07	-8.18354052133599E-06	-2.91735187290037E-06	0.998773042896572	-0.0791767644873706
3	0.00460366401142678	0.0016152884296771	-6.4740256721987E-07	-4.48599035578642E-06	-2.14349874552846E-06	6.48240935920536E-06	0.998317530871576	-0.0820382506444836
3.1	0.00439510896292672	0.000473631378695548	-2.59879170147909E-06	1.09045074186736E-07	1.10363540950483E-05	-3.62491416288693E-06	0.997256126220811	-0.0845984174795367
3.2	0.00406356340679319	0.00043887034858315	-9.81673213047979E-06	2.63912920848371E-06	1.22461432849223E-05	4.17900608955042E-06	0.996251191894729	-0.0866082744459176
3.3	0.00388005141303153	0.000406401944883035	-3.47075671955489E-06	9.68150643696415E-07	-5.02766615840855E-06	-9.79895220899113E-08	0.995092831073969	-0.0901344568334739
3.4	0.00371187588040901	0.000821487938818964	5.36109819018228E-06	4.34804932830489E-07	1.35559528095199E-06	4.34233844885013E-07	0.99355130312774	-0.0920361522644659
3.5	0.00484568036846673	0.000784366182604019	2.78212751070561E-06	1.53453306822139E-06	1.31932207155727E-06	7.81199718843452E-07	0.992973566578076	-0.0931831581466145
3.6	0.00429962708891753	-0.000526079969788522	-7.15611432018837E-06	-7.44151480122885E-08	1.83778795027364E-06	-3.51607935508497E-06	0.993239245666298	-0.0963054556060898
3.7	0.00337163176324016	-0.000394441371888161	5.7670272336552E-06	-1.56528756175251E-06	-3.40859343665051E-07	-1.73074064400308E-06	0.992183310460455	-0.0992835346335775
3.8	0.00291449028432242	0.000197690700267702	-1.99394028989543E-06	8.95005365148507E-07	-5.19000069295637E-06	3.46019232539059E-07	0.991015074298649	-0.10084895370503
3.9	0.0030474976792022	0.00127485256898398	-8.34592149949429E-06	1.84895899227418E-06	-4.12752363807558E-06	-1.46443891158769E-06	0.990931247560353	-0.102378698040034
4	0.00496729428597909	0.00153905885376364	-5.83002955567585E-06	4.1681492580526E-07	-9.58143446313429E-06	-8.38267080110638E-06	0.994116071199374	-0.104271625834514
4.1	0.0051144349380183	-5.10677801541891E-05	-3.9444978097667E-06	4.1087446446831E-06	-1.82161427553845E-06	5.60227058658584E-06	0.992235194163455	-0.109805140610003
4.2	0.00463833843839848	-0.000434034414929091	4.56761259689536E-06	-4.42801424864718E-06	6.75273452760986E-06	6.82244871514706E-07	0.989535208086506	-0.112307394032163
4.3	0.00429879556032447	-0.000462740733611452	-3.77640344773383E-06	1.1640668233938E-06	3.52904939117942E-06	-1.24057968524505E-06	0.988362139984561	-0.113846474160223
4.4	0.00406490891832176	4.3393703824695E-05	-3.19380307316167E-06	-4.88922306170306E-06	9.16611262075061E-07	-1.04370775144695E-06	0.987450407736981	-0.115780692068288
4.5	0.00544734877599094	0.000268785450975436	-1.3606056930192E-06	2.03777588048425E-06	2.03194747143522E-06	-8.46107724917399E-06	0.986732996415052	-0.118864632185359
4.6	0.00521643126689362	-0.0014049281287136	5.45557588052921E-06	9.47636083301021E-06	-1.40065987317662E-05	9.89068598461763E-06	0.984183644618747	-0.121177593125105
4.7	0.00438262201370152	-0.00173578798570451	-7.6230413320293E-06	-9.42948327207848E-06	-1.1383797949609E-06	-1.23959900115399E-07	0.983267099416638	-0.122124275705593
4.8	0.0037356163174731	-0.00168187055271878	-8.7035429736212E-06	-2.59778680605519E-06	-4.31161786394635E-06	4.54678514827973E-06	0.982345944832065	-0.123942573997242
4.9	0.00335782066536904	-0.00106974638995153	5.79707488463073E-06	8.2072793310111E-06	-7.17520973156337E-06	3.31440664082554E-06	0.981403857377316	-0.125150935548524
5	0.00463187206707551	-0.00107054905323589	4.17660969979388E-06	-8.49762082216741E-06	-4.29994959181646E-06	-6.09201823152664E-06	0.980829771773795	-0.126214810003522
5.1	0.00402939789443449	-0.00235252484689451	1.50275526819581E-05	-1.02447025105037E-05	3.40786615074439E-06	-8.66902373124384E-06	0.980179933903291	-0.12699797909761
5.2	0.00342191976740746	-0.00214645099847102	-4.22315827702037E-06	-4.65255730487027E-06	-3.13402309586674E-06	5.37100717554416E-07	0.979560202233996	-0.128469753974696
5.3	0.00335223959159569	-0.00179963986684932	4.75353817930367E-06	3.31739317991379E-06	-9.23986136834469E-06	-4.65160158568342E-06	0.979044508292244	-0.130316191243114
5.4	0.00364851882924894	-0.00115298493294327	5.13366265599381E-06	1.1573567671854E-06	-4.08787344703039E-07	1.035082674976E-05	0.978084164493024	-0.132587657957832
5.5	0.00556688835282129	-0.00174957271250329	-1.79681256419108E-06	-1.94984429735417E-06	8.77332123558952E-06	4.71094140662649E-07	0.977872182267252	-0.133487335052165
5.6	0.00434004964660207	-0.00381939809135458	4.21206086407075E-06	7.14063909999545E-06	-4.76182295247539E-07	-8.51640685657961E-06	0.977996295218074	-0.136198800379561
5.7	0.00278557318199799	-0.00362670597570513	2.03185059123917E-06	-7.17501801806125E-07	5.41584504159672E-06	2.41841575492504E-06	0.976933396573393	-0.138025659650269
5.8	0.00171319242339582	-0.00293927782398642	3.87051921400842E-06	1.93582691217374E-06	2.70852357645701E-06	7.74494118704029E-06	0.976362382322746	-0.138714913878268
5.9	0.00087558527540867	-0.00129273520199013	-3.74042278980043E-06	-3.02986061874759E-06	-4.64875129229276E-06	-1.76664356904873E-06	0.976947014943053	-0.138111818048041
6	0.0028171586376927	0.000441990044490075	-2.06361114784739E-06	1.69166775455273E-06	1.0362455800691E-05	-2.63755276958175E-06	0.982090989354138	-0.140369581929926
6.1	0.00349738864716266	-0.00124744918781383	-7.26888433445568E-06	-1.08074057309377E-06	-7.24171026935929E-07	-2.46154819798418E-06	0.980269751620777	-0.145988588143377
6.2	0.00280293690503962	-0.00181060345886868	-1.04885474061771E-06	1.97106116003961E-06	-3.45611794244465E-06	-5.30615453433952E-06	0.977816792858004	-0.146914311510168
6.3	0.00211677850217177	-0.00201068226909973	1.56249411205659E-06	2.80181866128699E-06	1.13717050989615E-06	5.91238866874492E-06	0.976690335487497	-0.147706643964392
6.4	0.00168895329303618	-0.00145023631528448	2.04958583603785E-06	4.99039779945231E-06	-3.30241322456678E-07	2.25141371180996E-07	0.976930332578719	-0.148652950436164
6.5	0.00307023489307341	-0.00225382154109656	4.61601213331439E-06	-1.86790772694296E-06	-4.64419805918754E-06	-1.52339675703147E-06	0.976710906409288	-0.153712745853721
6.6	0.0013299706527525	-0.00358331988235357	3.22120053261098E-07	-1.05470580256768E-06	9.17230426293519E-06	3.2986034428297E-06	0.972776223148748	-0.154275645441259
6.7	0.000295004191785808	-0.00291145676414395	5.06009023972914E-07	5.54144139810296E-06	-1.78129764280918E-06	4.9042960688578E-06	0.972817221650188	-0.153725893141826
6.8	-0.000331621769189964	-0.00217079273931597	1.80563644168386E-07	-1.5662628351414E-06	-3.4119463240698E-06	-5.07214674459012E-06	0.973168445259284	-0.154321028356867
6.9	-0.000581416365221931	-0.000555272105153456	-6.60286301101863E-06	6.60461413469981E-06	2.25358440145002E-06	1.35052567398104E-06	0.973869851701611	-0.154583438896445
7	0.00196948813745502	-0.000217386811494851	7.97011736766711E-06	3.17840819276665E-06	4.48140736015108E-06	5.82526989757096E-06	0.976232282023444	-0.156347178531309
7.1	0.000874393832698798	-0.00231532946538378	1.37563407840282E-06	7.84641454605735E-07	-2.2180525875677E-06	-4.44347868409506E-06	0.974941005806361	-0.159518529834564
7.2	-0.000715265309280941	-0.0018901813197502	-1.65982865060977E-07	4.35009762000893E-06	-4.95332076046721E-06	-6.87335202861354E-07	0.9734013130263	-0.160464302674607
7.3	-0.00201573182524154	-0.000968914517648915	1.37537496175037E-06	-5.19618433175805E-06	-2.30208748284622E-06	-2.77584288606801E-06	0.971627745695027	-0.161263285172493
7.4	-0.00337428499752214	0.0011599223705968	1.7789211275858E-06	4.37812645785243E-06	-7.10253677559734E-07	-1.06101466666071E-06	0.968669605322602	-0.160893841426831
7.5	-0.0014049630630566	0.00373524528111821	-5.64392779778899E-06	-1.54225967188781E-06	-1.44574061015189E-06	-8.7979671591042E-06	0.970958289609838	-0.15693769980047
7.6	-0.00088088276655241	0.00264370627209181	5.61342453656428E-06	-3.27667130503381E-06	9.69178406022458E-07	3.17216471692273E-06	0.974875519486911	-0.161576076231073
7.7	-0.00124830496492882	0.00309979583603769	-6.40587425203067E-06	-2.92344748529158E-06	4.26090843832558E-06	5.67749988359401E-06	0.975038387695145	-0.165225977544064
7.8	-0.0010149152403875	0.00365686512600599	-9.97750594919683E-07	-5.32589910384265E-06	-2.27797712175298E-07	1.13069877689734E-06	0.975477030432061	-0.16765762549384
7.9	-6.48989506268311E-07	0.00454035080180273	-3.44239361662936E-06	7.10154483925725E-06	5.8213216443904E-07	-6.82191578228058E-06	0.977377538205685	-0.168499702548285
8	0.00286210012224468	0.00304809235896468	-3.63343708325023E-07	7.3689778963627E-06	1.84795201889908E-06	-4.41913016691896E-06	0.984251224895642	-0.173358511032405
8.1	0.00157518171525075	0.000910231402151024	-6.46696395710921E-07	-6.4774775371642E-06	-1.73326397521576E-06	-1.08824264785061E-06	0.982079296665231	-0.18144933367494
8.2	0.000568391383010567	0.00112414712923271	-3.84954550511052E-06	1.6000162931629E-06	-1.09342095170285E-05	-2.7644278575185E-06	0.980190279157407	-0.183739104526371
8.3	-5.5076774410714E-05	0.00170756494387975	-5.41917275849078E-06	-9.94294455360833E-06	-7.83417209446167E-06	2.91756690823897E-06	0.979607389698021	-0.185885589552591
8.4	-0.000287760465652566	0.00341969634052089	6.86099994622381E-07	-6.03010416663149E-07	-1.42471793013708E-06	4.23915904156038E-07	0.979749410773689	-0.188175201441586
8.5	0.00252493934746576	0.0040950203026214	-1.75066779725256E-06	-2.75877119464073E-07	-2.70741721245252E-08	1.80451690782345E-06	0.979796439165676	-0.192053970762489
8.6	0.00209005656104774	0.00206003790384716	2.47987666174081E-06	-3.94061814998409E-06	-4.48619065366714E-06	-5.98303717639878E-06	0.978678115146514	-0.194316437185024
8.7	0.00101706181114336	0.002432947326796	-1.47217139916474E-06	-2.11963782119261E-06	-3.61628520136743E-06	3.59484042731215E-06	0.979086269184388	-0.196230016810213
8.8	0.000442658719213907	0.00339550674508066	-5.48885558536582E-06	-2.20633865244081E-06	-7.24398463195379E-06	-1.37590439109812E-06	0.979728451507808	-0.198395675460363
8.9	0.00038499837623246	0.00531780302645409	8.55239313518256E-06	4.230645630351E-06	-1.4669976443257E-06	3.19987898360059E-06	0.980643964193449	-0.200454200764293
9	0.00344996288781483	0.00664844705327045	-5.52158471931401E-07	4.1770683418277E-06	-7.87393206599575E-06	1.14294499291985E-06	0.9816173639863	-0.20252194014057
9.1	0.00450340549620395	0.00512967416919002	-2.6570282168501E-06	6.64629244341882E-06	4.17057928445063E-06	-3.04967080650839E-06	0.982828084658762	-0.205143504276817
9.2	0.00526532194825518	0.00484091802047273	-1.22545693511088E-06	3.43695729382948E-06	-2.23905628585352E-06	-2.09972993970331E-06	0.983411059237789	-0.208624099804965
9.3	0.00617523911744044	0.00426629068369581	2.38534940724512E-06	-4.04776919641121E-06	-7.80593210992507E-07	-1.80285378999467E-06	0.98320145974365	-0.212267141192304
9.4	0.00702843763926073	0.00419347110701905	-1.84834132883237E-06	3.90401668888058E-06	-2.04723421366416E-06	-3.62265738227996E-06	0.981735947614579	-0.21516833995659
9.5	0.0094468551260218	0.00249907387975045	3.43599969144643E-06	6.37017762683934E-06	3.94860748793757E-07	-2.15649279678465E-06	0.982653885638457	-0.216219289420994
9.6	0.00800145539651613	-7.19223329067844E-05	4.56695748186712E-06	7.19461953443E-06	-8.46259737180175E-06	1.27998101726303E-05	0.983742707257642	-0.22132494095067
9.7	0.00671996974698262	-0.000168917743464208	-2.8899484227529E-06	-1.5828871893696E-06	-1.35116397267304E-06	-4.02441036657141E-06	0.983027306171999	-0.224846550737136
9.8	0.00590130470668021	0.000206379197705777	1.74992158852488E-07	-3.630158136211E-06	3.04646183669061E-06	2.46096366438099E-06	0.98270980373853	-0.226836714634316
9.9	0.0055328654561239	0.00167277903509686	5.875488593835E-06	-5.42398485181812E-07	-2.6898033178541E-06	6.77071943709164E-06	0.983721933604632	-0.226717461408064
10	0.00821816294127846	0.00211593269753748	-1.15432567377518E-06	-6.01668405410024E-07	1.40085033027174E-06	-1.19117181236434E-06	0.989862679161314	-0.231281277076872
10.1	0.0079329517768439	3.53609292526543E-06	7.84375295444803E-07	-8.54636303887035E-06	6.22711860504796E-06	3.70796978329672E-06	0.986743807985051	-0.238310138660747
10.2	0.00713141721863492	-3.08806179847423E-05	7.55219505500951E-06	8.49291560432984E-06	5.27969261753227E-06	3.6175259812483E-06	0.984591997122065	-0.240000524016686
10.3	0.00674034074062516	0.000480196633719056	1.82574867681238E-06	-7.05148958444521E-06	1.4301369179465E-06	2.92007489965635E-06	0.983710894862464	-0.241971737782931
10.4	0.00713881889376021	0.00198664773473629	-4.0753317761091E-06	-3.71721976507543E-06	2.01169083511635E-06	-5.67822636423596E-06	0.983631306363617	-0.244621635133183
10.5	0.0104705946181541	0.00196134847539663	3.89033396869746E-07	-7.16909210312867E-06	-5.81879126358567E-06	4.12443642853228E-06	0.982697671166284	-0.250011569876672
10.6	0.0110992353824331	-0.000181759669578767	5.54437169367832E-06	6.8376329876868E-06	2.46283640720918E-06	1.21573876284264E-06	0.980288617271095	-0.252236535107511
10.7	0.0114547571613656	-0.00124294918168611	-7.17334353452966E-06	-1.7309495787231E-06	-7.87902006761567E-07	1.57982938292378E-06	0.980345231755956	-0.255306703539601
10.8	0.0114708070036513	-0.00238190563868103	1.50397153421684E-06	4.51125737047787E-06	9.56082737214232E-06	-4.52569793087879E-06	0.979959405713766	-0.258782958181436
10.9	0.0114162428828808	-0.00233046563264692	3.35442702355007E-07	7.53566696639948E-06	-5.24312399218541E-06	2.14588348175163E-07	0.979370831510333	-0.261553372070662
11	0.0140212778345454	-0.0035075252906182	-2.26545498476242E-06	-3.87627407154412E-06	1.2208802699863E-05	-3.63203484798101E-06	0.979289463255746	-0.264064666084641
11.1	0.0131300175135962	-0.0066724060716198	-6.22045528752117E-06	-4.99365392675563E-06	9.774350882595E-07	5.65924239749608E-06	0.978335191262554	-0.26729188471663
11.2	0.011921911984855	-0.0077644969790269	3.38174767058378E-06	4.35799758841605E-06	1.04980442909283E-06	-8.00216956820189E-06	0.976970211428192	-0.270299092023276
11.3	0.0108571520249082	-0.00836112410566946	7.0827846297816E-07	-2.70031142303567E-06	-4.85998833942122E-06	9.27440341358365E-06	0.974816325728009	-0.273347711814015
11.4	0.0100949867639836	-0.00799200604997313	1.47981014497496E-06	-2.2395411576917E-06	-3.0981178229657E-06	-7.50741798947429E-06	0.971262734730376	-0.275794515022271
11.5	0.0120906926277947	-0.00908773340410551	9.54747997513012E-07	-1.02481501294473E-06	-9.15366099774667E-07	-8.77808774022324E-07	0.972166836350176	-0.275883938862293
11.6	0.0104561533616483	-0.0121112143429964	1.13674464934505E-05	-3.37676157484144E-06	-5.53224374166229E-06	-6.90118031965382E-06	0.972130738045577	-0.282759868031296
11.7	0.00849984205899651	-0.0126879146848416	5.38028812283197E-06	-2.97394421833355E-06	-4.45959109960984E-06	1.70530107579121E-06	0.969293121180277	-0.287733252843527
11.8	0.00715665043369064	-0.0124555811326839	-4.75890364590965E-07	-2.5770088077987E-06	1.17676387372112E-06	1.34245724209844E-05	0.9666929078059	-0.291100520294488
11.9	0.00726489368014957	-0.0110967268850172	3.38064081408888E-06	1.99565399671588E-06	6.20032306692479E-08	1.29032720118858E-05	0.966779441282335	-0.291055261106968
12	0.0102576307328236	-0.0124802502122519	2.04329688113772E-06	4.76493243110619E-07	-3.77265427735857E-06	-9.57751017194495E-07	0.972033880192384	-0.296710430074107
