# GHZ S RI R 50
0.2	0.000675041410939444	0.00391091843059819	6.30164425051896E-06	-1.01011781246048E-06	1.06680712550249E-05	1.04847907034213E-05	0.998989310445183	-0.00740365914160237
0.3	0.00126597396200858	0.00343512758408367	5.81561384995527E-06	5.0316818140657E-06	8.09290915532161E-06	2.94817207855482E-06	0.998650781799694	-0.010330560042843
0.4	0.00173972276337882	0.00311551610993232	-2.70385444089556E-06	7.86464192363084E-06	-4.82309102656121E-07	-4.42723975186836E-06	0.998449626598597	-0.0130008672193562
0.5	0.00159030687225841	0.00299419274166349	2.3059946549466E-06	1.47835920828657E-06	7.5056474669543E-06	-1.05063924315714E-06	0.997928285917704	-0.0155964963123627
0.6	0.00203961958948375	0.00361308541039402	3.22091484578801E-07	3.53876681483531E-06	2.73312045529034E-07	-7.65876558810054E-06	0.998774624420874	-0.018378005214357
0.7	0.00262211898173223	0.00368330988624534	4.16508539499068E-06	5.02758804674023E-07	-3.89380120193882E-06	-2.39181979083237E-09	0.998548122310032	-0.0218519330588298
0.8	0.00316416294414895	0.00369325547840427	-2.88499272196787E-06	2.96391996014331E-06	-6.81735288253372E-06	1.32230241714728E-06	0.998164122832096	-0.0243575647849807
0.9	0.00378172731389109	0.00350467630894994	6.03210057887121E-06	8.94659461955096E-07	-7.33637604448362E-06	-1.82639228878468E-06	0.997766907171281	-0.0270996588738003
1	0.00381011297936183	0.00257131946466691	2.35750101433144E-06	2.9389663815922E-06	-9.02980308858454E-06	-2.56887203973235E-07	0.996505829901815	-0.0289568084289026
1.1	0.00316649579989805	0.00281117625201043	6.42920000944321E-07	3.57168776443304E-08	-5.29317608262169E-06	1.39936271726281E-06	0.995808369232133	-0.0298757614563203
1.2	0.00315430400351496	0.00260392492332582	-5.28352749492618E-06	-3.28650785864965E-06	-1.11598533943098E-05	-1.26410815997652E-05	0.995424702224326	-0.0304789355376361
1.3	0.00256007506570247	0.00205585192371425	3.04192089238656E-06	3.10098216557797E-06	6.94974427055719E-06	-4.07140773806609E-06	0.995610918836552	-0.0308572912974257
1.4	0.00208881730684075	0.00165687125816133	-2.79401905975263E-06	-1.11597623171503E-06	5.70553189663794E-06	7.01056894860797E-08	0.996042663886601	-0.0323705448722816
1.5	0.00161719574211786	0.00165738891657029	1.24307744591864E-06	-2.5303227424785E-06	7.97991349656125E-07	2.5115581473037E-06	0.9970828907057	-0.03577037719718
1.6	0.00236824450474956	0.00236500386208053	-9.25970489463877E-07	-6.41465952205795E-06	3.18910235779988E-06	-4.23896850510228E-06	0.997488503008605	-0.0393410255713297
1.7	0.00314476814354643	0.002193231070378	3.40416933225746E-06	6.36216119725067E-07	2.23088328703504E-06	3.85364853339728E-06	0.997976685011455	-0.0424939472308084
1.8	0.00358884260641871	0.00204379915918746	-2.37963694571343E-06	2.89562166237538E-06	-1.01101552902373E-06	-3.99805392338431E-06	0.997940351126827	-0.0456312624910763
1.9	0.00390037058749736	0.00153153213256977	-3.73227452143565E-06	-1.76155365592223E-06	5.62943238835883E-06	3.02963238397597E-06	0.998011038317156	-0.0487708029071953
2	0.00312426205546437	0.00113619156239321	-6.17374720725462E-06	-5.74233540090116E-06	-2.07259888670691E-06	9.14685659799656E-06	0.995552746901875	-0.0524515429274822
2.1	0.00307208648458586	0.00204440121897433	1.1663289507548E-06	4.59997938198196E-06	4.4724963272368E-06	3.98897576287717E-06	0.99493047683492	-0.0524963387011902
2.2	0.00354610787904539	0.00221706294938725	6.54538154659341E-07	9.06843837067077E-07	-3.61201155920971E-06	-1.0933327700406E-05	0.995980483243642	-0.0545779169587473
2.3	0.00390312570400268	0.00209723761647079	-2.28838437442982E-06	3.55536937085887E-06	-5.31368036357515E-07	-2.79529473746975E-06	0.996158649800603	-0.0566243520403542
2.4	0.00428884401839908	0.00160396066195675	-1.55427570751704E-06	-1.45702328902498E-06	1.28490084402863E-06	-9.96756617867966E-07	0.996428377266718	-0.0599960111600549
2.5	0.0035580719708032	0.000431112229205265	7.78195268531093E-06	4.07244929573724E-06	-2.3360124354792E-06	-7.23249318271887E-06	0.996068271051586	-0.0625835483343295
2.6	0.00242574596665579	0.000969662429627466	4.85232345754391E-07	2.11933630598284E-06	-1.47247091126457E-06	4.68805394358457E-06	0.996060029671983	-0.0656370355213431
2.7	0.00214865033608449	0.00163805563687668	-7.87156016104842E-06	5.24031825782936E-06	2.53112635440694E-06	9.72573313093014E-06	0.995353945089143	-0.0687785181757696
2.8	0.00241118703553834	0.00237144903408858	-7.74670700113914E-06	7.95282340675621E-06	6.00890804705479E-06	1.99195278773491E-05	0.99518349838871	-0.0703661239147892
2.9	0.00312003353281547	0.00247370792792171	-1.19018794922098E-06	8.5902255593754E-07	-8.11564753414451E-06	-2.96673281733851E-06	0.995026912840107	-0.0720256889125545
3	0.00298459519781101	0.00233798091228684	-6.06201785800721E-07	-4.47386568628156E-06	-2.19088532650748E-06	6.43836354691726E-06	0.995019393700478	-0.07426528224422
3.1	0.00356981852313934	0.00309432797882586	-2.58858444750997E-06	8.75946625214201E-08	1.10185383775436E-05	-3.52033015875432E-06	0.994855820270754	-0.0759264330693056
3.2	0.00437479871004395	0.00301905555192909	-9.7985379231066E-06	2.537829799256E-06	1.21550183991898E-05	4.27313140710531E-06	0.994901919162246	-0.0774698842177217
3.3	0.00496555679268335	0.00264819337465449	-3.46833277356113E-06	9.28387914377932E-07	-5.00847735191624E-06	-1.50167927703273E-07	0.995034554771412	-0.0803964473634762
3.4	0.00540961674295341	0.00197006855774184	5.34677162826102E-06	4.97963185244153E-07	1.34810742876004E-06	4.49650780556512E-07	0.995789714439568	-0.0820560515345374
3.5	0.00470428227434606	0.00112549595918919	2.7706330954872E-06	1.56469700526257E-06	1.31333300637336E-06	7.95579696906544E-07	0.996510555713079	-0.0858956085811036
3.6	0.00454427127238976	0.0018657635240112	-7.15376213093715E-06	-1.37129220005985E-07	1.86817397070881E-06	-3.49913378042203E-06	0.995610423456333	-0.088671788129106
3.7	0.0051298469609779	0.00178706664498482	5.78130899508753E-06	-1.5084308146323E-06	-3.2382003037578E-07	-1.73376243540433E-06	0.995652676084593	-0.0912552603914228
3.8	0.00562123800172623	0.0012931423219459	-2.00469609945918E-06	8.7559999560934E-07	-5.19793212347909E-06	2.93815644604237E-07	0.995706788910987	-0.0935856815010774
3.9	0.00586818183403905	0.000230001876162711	-8.37779425803261E-06	1.77931785638974E-06	-4.12244674260835E-06	-1.5033482364448E-06	0.995919640938424	-0.0979146154971008
4	0.0044648707940497	-0.000833256669061184	-5.82555869708035E-06	3.70982126449621E-07	-9.50365823720366E-06	-8.44600631799851E-06	0.992845493711046	-0.10039622864434
4.1	0.0037327229748892	0.000295447147928229	-3.98971964383531E-06	4.06029025074595E-06	-1.88554471530735E-06	5.5775287508696E-06	0.992296687987523	-0.0993648400271276
4.2	0.00410416876014301	0.0007126923839703	4.6268296433091E-06	-4.38121204817635E-06	6.75526231312723E-06	7.62732527512965E-07	0.992958283687551	-0.101557779534716
4.3	0.0045203839026604	0.000686000454619794	-3.79889364371907E-06	1.12397377348733E-06	3.55180365188849E-06	-1.2034869977263E-06	0.993340307492502	-0.103728658856927
4.4	0.0048797762831812	8.42869387381346E-05	-3.14375393707598E-06	-4.93916207559182E-06	9.31246944477843E-07	-1.03542476805868E-06	0.993023313866916	-0.10615960962341
4.5	0.00369439210533591	-0.0008628309155263	-1.39727850965804E-06	2.02774971814639E-06	2.16646299618674E-06	-8.4726944334403E-06	0.992960601821866	-0.107500731945708
4.6	0.00285865196082847	0.000278900061029405	5.38714995205706E-06	9.62990371479618E-06	-1.42562524036458E-05	9.80607812084751E-06	0.994358840728668	-0.110247267185805
4.7	0.00303525700635402	0.000834178044938059	-7.59900887507434E-06	-9.59861504832574E-06	-1.14803151441416E-06	-1.36887339968846E-07	0.994861882217933	-0.113146616403672
4.8	0.00330617889533768	0.00121086681908645	-8.76410420934285E-06	-2.70364475484128E-06	-4.39564351238812E-06	4.55106163943775E-06	0.994602553965259	-0.116248420252934
4.9	0.00391551986086307	0.00111212033466196	5.7787575160945E-06	8.34227084232917E-06	-7.2770224742802E-06	3.28099358364635E-06	0.994322074800764	-0.11838838269325
5	0.00341956237166362	0.000651137924573118	4.30436457870634E-06	-8.56669701813448E-06	-4.29952995218704E-06	-6.20639208696821E-06	0.994461789869649	-0.120158599312996
5.1	0.00412050999175507	0.0016319223839751	1.52757615629564E-05	-1.02817101817497E-05	3.50226676076365E-06	-8.75624616406556E-06	0.99495157370646	-0.12194900808653
5.2	0.00537769188457622	0.000992397236203487	-4.24633900994365E-06	-4.72983240792749E-06	-3.17330562385275E-06	5.25979335446541E-07	0.99476583708524	-0.124916810826646
5.3	0.00584147766187225	-0.000229077831034085	4.78798153023293E-06	3.38355998527528E-06	-9.31752026720216E-06	-4.75972394289411E-06	0.994146539576256	-0.12756233631321
5.4	0.00557450756645992	-0.00164013846869393	5.19126866905059E-06	1.21013050983409E-06	-4.90394808543371E-07	1.04811714213116E-05	0.994201060441883	-0.130050920994681
5.5	0.0033002158268147	-0.00225027119721139	-1.81857759884805E-06	-1.99155589436214E-06	8.92143928569846E-06	5.1973331824668E-07	0.99438038765428	-0.133787365148561
5.6	0.00304503743222275	-0.000237505553959787	4.26587482381851E-06	7.25277909004853E-06	-4.72387182656827E-07	-8.64432527854533E-06	0.993437501015917	-0.136191744286605
5.7	0.00392749950904988	0.000118970405051588	2.06161780284207E-06	-7.25668568294431E-07	5.49074487013078E-06	2.45852712679991E-06	0.993668728304177	-0.138638530341874
5.8	0.00458098896354581	-0.000119180462605474	3.92702836728793E-06	1.96303514767024E-06	2.74946051697608E-06	7.85658186395615E-06	0.994045250822445	-0.1415267084804
5.9	0.00529964463385866	-0.00116136792620568	-3.80138371234085E-06	-3.05709189424994E-06	-4.71736869423658E-06	-1.77369798126501E-06	0.993786910018226	-0.145856932925821
6	0.00355855028783021	-0.00355283239862721	-2.07083793041316E-06	1.70859524481198E-06	1.0417423781016E-05	-2.68673055325759E-06	0.988672638768004	-0.148905381957997
6.1	0.00123058658235534	-0.00238159758372894	-7.32065806719241E-06	-1.1083076608947E-06	-7.23033924831313E-07	-2.4819964166187E-06	0.987884162286736	-0.145734322646381
6.2	0.000513827431461619	-0.00142028921969858	-1.06427347476913E-06	1.98822277921921E-06	-3.47759186974191E-06	-5.367962934443E-06	0.988913861316552	-0.146185637142871
6.3	0.000345284830771685	-0.000562503114411928	1.57589017628763E-06	2.83377820286223E-06	1.14225207530266E-06	5.97722639141907E-06	0.989303649274233	-0.148053814383362
6.4	0.000688694009568884	-0.000684474705855709	2.06664298496152E-06	5.03794380043963E-06	-3.3342560831048E-07	2.2710736279907E-07	0.98885171144713	-0.15085404856626
6.5	-0.000859791379757581	-0.000690260922762846	4.67399228908616E-06	-1.86331140662941E-06	-4.68475915782813E-06	-1.56356939665321E-06	0.987848062914614	-0.151299165297091
6.6	-0.000119820138093069	0.00104075931892566	3.30004603343651E-07	-1.07164115087472E-06	9.31841372871902E-06	3.3755137067553E-06	0.991576872551039	-0.154105786380082
6.7	0.000597677391370245	0.000932331092755583	5.24116415739767E-07	5.6364012495683E-06	-1.80381495879077E-06	4.99210208892234E-06	0.991994127382218	-0.158975606906546
6.8	0.000844300380421101	0.00100583588768002	1.76935286162462E-07	-1.59328417648945E-06	-3.49068974902743E-06	-5.14267018581651E-06	0.991177473654574	-0.162598863147098
6.9	0.00126470426093031	0.000470161598573867	-6.66694666619195E-06	6.74960860033367E-06	2.29753178339128E-06	1.3581049399712E-06	0.990475821635796	-0.165920573166172
7	-0.00101333430881679	-2.25078345703057E-05	8.11069026731985E-06	3.16887722305733E-06	4.58912012388867E-06	5.87969918102723E-06	0.987630555224209	-0.168136007135934
7.1	-0.00113900514682019	0.00300604171067834	1.40097391018329E-06	7.85114924159953E-07	-2.283281350459E-06	-4.48888755534901E-06	0.987437574459476	-0.16775492163626
7.2	0.00029400790766095	0.00400302478870621	-1.34982407232695E-07	4.41110707530991E-06	-5.02660278455748E-06	-6.58879560158791E-07	0.987919045492941	-0.169306288096588
7.3	0.00154067480836912	0.00434456207517308	1.35868105395126E-06	-5.28046164592115E-06	-2.35462176564359E-06	-2.79956325517923E-06	0.987999718058215	-0.170872094746476
7.4	0.00314895395237917	0.00363480858789764	1.8395943799007E-06	4.44664055087592E-06	-7.30055935529474E-07	-1.0758218478972E-06	0.989922923203946	-0.173441662174204
7.5	0.00209648308947158	0.000949902591430086	-5.79228273656444E-06	-1.49417741156171E-06	-1.60651876544482E-06	-8.97297750217838E-06	0.990189531789391	-0.181656658088941
7.6	0.000557533938773108	0.00206872511561808	5.64640780663775E-06	-3.4296441605898E-06	1.04128618591588E-06	3.20648313856021E-06	0.98553430169187	-0.184906040191107
7.7	0.000481614991167396	0.00221201878187798	-6.55384964869621E-06	-2.85339373740786E-06	4.42569125953896E-06	5.68685126398234E-06	0.984788011834232	-0.187825996759997
7.8	0.000279967952367326	0.00196095231657433	-1.11634833933567E-06	-5.38363445504282E-06	-2.08995098099735E-07	1.15155120067703E-06	0.984389703921047	-0.191861711952265
7.9	-0.000204907761598965	0.00128557305904451	-3.31619811035544E-06	7.2777092683645E-06	4.25179985897476E-07	-6.92540737476299E-06	0.983333513097854	-0.197592545046155
8	-0.00331411361194584	0.00180563127642515	-1.55999169160948E-07	7.39791706695861E-06	1.72773873695653E-06	-4.48255415706704E-06	0.975673716072644	-0.202301337249248
8.1	-0.00233861410802014	0.0051362994592554	-7.82970201458034E-07	-6.45203356440429E-06	-1.75321856728656E-06	-1.0494956000361E-06	0.973938686590536	-0.19859943717993
8.2	-0.000777413485466239	0.00595612435123912	-3.81168514923825E-06	1.67139662390925E-06	-1.096771309033E-05	-2.54841704537123E-06	0.975007510533863	-0.199560558264262
8.3	0.000451893354067343	0.00627033091685125	-5.58897086339858E-06	-9.81105981984832E-06	-7.75559970036262E-06	3.05547800793086E-06	0.974820641091031	-0.2018692381619
8.4	0.0016918358391259	0.00567100740616968	6.72177773139522E-07	-6.11288222594391E-07	-1.40977968350582E-06	4.45632280605156E-07	0.973868512845273	-0.204410561022631
8.5	-0.000196257434264858	0.00480673077855055	-1.74923398328827E-06	-2.53151114624053E-07	-4.36831928003396E-09	1.79981237224178E-06	0.972511474701404	-0.205853816617267
8.6	-7.49836582660127E-06	0.00802785446427578	2.41194209156761E-06	-3.979552226191E-06	-4.58360907236403E-06	-5.90350420456514E-06	0.973316498446661	-0.207850514273618
8.7	0.00213781698164583	0.00914798797887957	-1.50691062421991E-06	-2.08445174861604E-06	-3.53585440174408E-06	3.65029638811179E-06	0.973228065136424	-0.210850364520153
8.8	0.00434235338082723	0.00934165076094678	-5.49457643825119E-06	-2.08656626919761E-06	-7.22212718747738E-06	-1.228053346424E-06	0.972770003899669	-0.213379805991972
8.9	0.00684535115365095	0.00802954125726495	8.54011256112735E-06	4.03822036122543E-06	-1.396171761858E-06	3.19325532372275E-06	0.972759553044658	-0.215576350411846
9	0.00649208049167918	0.00537609100741091	-4.84763041445754E-07	4.14673203767733E-06	-7.78417802808461E-06	1.24982278834349E-06	0.972527703815182	-0.218580183039598
9.1	0.00662359577806522	0.00548625438952782	-2.51962035881158E-06	6.61714856733691E-06	4.07533860751278E-06	-3.08444718329936E-06	0.971340249893149	-0.221102624352875
9.2	0.00702517904108569	0.00420766283232173	-1.16095469431315E-06	3.41004174980022E-06	-2.23996655988139E-06	-2.04094101554824E-06	0.970027421173796	-0.223283593075141
9.3	0.00653929089468775	0.00329327751175106	2.30959523337135E-06	-4.02399742650242E-06	-7.91213048403953E-07	-1.77139887380826E-06	0.969286492340285	-0.22472951281542
9.4	0.00603576218375317	0.00251132075480825	-1.79618492558773E-06	3.88303167482315E-06	-2.05967139178119E-06	-3.5699460207333E-06	0.969836033921903	-0.226710435635444
9.5	0.00363101615646599	0.00282629767608	3.50480972475786E-06	6.29289158777268E-06	3.63955683018032E-07	-2.15126427694641E-06	0.969466816710691	-0.231733241721692
9.6	0.00447106843461928	0.00568556895031461	4.64102251038585E-06	7.05295498509642E-06	-8.17528420824723E-06	1.2817274643773E-05	0.967071524983921	-0.233945415470875
9.7	0.00633381387554821	0.00610546302380477	-2.88168926002154E-06	-1.52126837970585E-06	-1.39721563360238E-06	-3.9588763397311E-06	0.966851854140379	-0.235640390527173
9.8	0.00790215371152955	0.00581225261797883	1.17738893454508E-07	-3.59079944305167E-06	3.04863750142739E-06	2.38612920338292E-06	0.967563747399147	-0.237801545084426
9.9	0.00947288243773388	0.00432465425057545	5.78819489052323E-06	-6.42818177434909E-07	-2.53043553021055E-06	6.73080937673854E-06	0.967992591360961	-0.242283501281364
10	0.00766638514652346	0.00229861986476081	-1.13791220133865E-06	-5.6858947924475E-07	1.3488330615343E-06	-1.18726495205452E-06	0.961486479634137	-0.245394455635366
10.1	0.00749950023898356	0.00421541724166904	6.96186589270778E-07	-8.3675129566858E-06	6.12292396864696E-06	3.57567906295899E-06	0.961375516676136	-0.24151136456737
10.2	0.008977943991971	0.00434466290619665	7.46838829612945E-06	8.27467878106601E-06	5.20428595494888E-06	3.50961377305622E-06	0.963165269192756	-0.242530620929026
10.3	0.0104415034825359	0.00369707184084682	1.7400244564787E-06	-6.9299187011717E-06	1.42386399028803E-06	2.85396962339854E-06	0.963560073253013	-0.244833390789387
10.4	0.0119382102045973	0.00149531993719235	-4.01112505650599E-06	-3.61446051025549E-06	1.93552252019356E-06	-5.57001559110741E-06	0.962863708472696	-0.247905492085796
10.5	0.00980854216904792	-0.00106423917745994	3.83259933192512E-07	-7.03156101982854E-06	-5.70820765825632E-06	4.0439988614439E-06	0.96152087543779	-0.249354818917495
10.6	0.00899118263199597	-0.000375763386598447	5.47612847978195E-06	6.72172896597934E-06	2.42838552458907E-06	1.19177642875039E-06	0.962209864900944	-0.252988695728424
10.7	0.00819294862269573	-0.00042619311805559	-7.05822275602884E-06	-1.67551929566839E-06	-7.68810150622208E-07	1.55595702696661E-06	0.959459412963257	-0.257079839727547
10.8	0.00856251882125944	0.000468776113476815	1.48523302512943E-06	4.42455802960742E-06	9.37436915207609E-06	-4.46116983398976E-06	0.957783069431492	-0.257381323759774
10.9	0.00979017146795253	0.000175197691903074	3.24632428616519E-07	7.3853466359993E-06	-5.13852469852459E-06	2.0744239261289E-07	0.957533082752703	-0.258197746059574
11	0.00826105519278409	-0.00078587605029977	-2.21126217213706E-06	-3.81444895042737E-06	1.20019105910339E-05	-3.5243346181548E-06	0.956755365440226	-0.259764613721663
11.1	0.00921854985316608	0.00141020558566225	-6.09232491174102E-06	-4.9267556208314E-06	9.4016451661738E-07	5.56208017274912E-06	0.955990814757441	-0.260112985739558
11.2	0.0114259169875325	0.00110277020862637	3.29617818311576E-06	4.29763460073355E-06	1.0751311332918E-06	-7.85106470938465E-06	0.955520658599797	-0.26071367606243
11.3	0.013361847682237	-0.000336686211722902	7.19202192075906E-07	-2.64812466435938E-06	-4.85602455881619E-06	9.07446436061696E-06	0.955980288260481	-0.261010924115562
11.4	0.0149198430094422	-0.00304036935959712	1.48693706808777E-06	-2.19285808481548E-06	-2.96909149512913E-06	-7.44604165587353E-06	0.958017038342137	-0.262378437433751
11.5	0.0129172683361526	-0.00583991855804361	9.52432874143177E-07	-1.00937395578246E-06	-9.01416326172858E-07	-8.755108349193E-07	0.957585750900791	-0.268853317636121
11.6	0.0130540006751854	-0.00533246485465473	1.12258599816703E-05	-3.25800720849797E-06	-5.41036229839273E-06	-6.83681225578599E-06	0.954140928351389	-0.270860902488804
11.7	0.0143560672600696	-0.00722215725137856	5.32998994822143E-06	-2.88117360758675E-06	-4.41087317777402E-06	1.63939231201059E-06	0.954379876491403	-0.272798178029831
11.8	0.0149899242385346	-0.0102991925850333	-4.43241425000943E-07	-2.54921835630121E-06	1.0232112535135E-06	1.32663544719098E-05	0.955974608211967	-0.276648164137363
11.9	0.0142869551652957	-0.0151898063310479	3.32658515892485E-06	1.99563292590199E-06	-2.89927478029151E-08	1.2750667913797E-05	0.957708117648563	-0.283816531508213
12	0.00808513643553354	-0.0185382630982158	1.99731972416142E-06	4.80940569564202E-07	-3.68721504414514E-06	-9.64335853064685E-07	0.949785179092938	-0.289661588487021
