# GHZ S RI R 50
0.2	0.000500086626138599	0.00396049065247312	6.30278046266281E-06	-1.01019957085327E-06	1.06698053833908E-05	1.04868207158541E-05	0.999261448370863	-0.00710719778125048
0.3	0.0010944024750362	0.00349473192157488	5.81663166111603E-06	5.03299759124166E-06	8.09449900004217E-06	2.94914352457654E-06	0.998963587478244	-0.0100158205909247
0.4	0.00160419352555356	0.00324663456923313	-2.70468753280725E-06	7.86686749754665E-06	-4.82412665947647E-07	-4.42850807879347E-06	0.99880498722088	-0.0127212545737613
0.5	0.00170851009595259	0.00313902264887067	2.30683866703354E-06	1.47820612416427E-06	7.507143862787E-06	-1.0524813801757E-06	0.998107260209612	-0.0155314222859823
0.6	0.00222667278809927	0.00346941519151021	3.22650693922563E-07	3.53863113795988E-06	2.72078721472422E-07	-7.65862739435309E-06	0.998525327313297	-0.0180445268767313
0.7	0.00270924726290511	0.00338714986565671	4.1647985373485E-06	5.02546973004653E-07	-3.89351341874187E-06	-2.22835836341003E-09	0.998308390709223	-0.0211253896484337
0.8	0.0031075365341544	0.00330479517045708	-2.88492737561927E-06	2.96354732656796E-06	-6.81690576613528E-06	1.32185126692807E-06	0.998092240359006	-0.0233660945361085
0.9	0.00345622986016887	0.00316059312916829	6.03206728730003E-06	8.95828453924948E-07	-7.33619496630066E-06	-1.82783082006974E-06	0.998036144634983	-0.025914469638148
1	0.00342906095306248	0.00273721505124182	2.35797377944639E-06	2.94050509005693E-06	-9.0333481881449E-06	-2.58412867796295E-07	0.9974281401926	-0.0279672782752192
1.1	0.00321500267005736	0.00311595549581431	6.43292352050764E-07	3.56492733789331E-08	-5.29600982252409E-06	1.40088718040744E-06	0.996817742666156	-0.029535688848631
1.2	0.00347331925530418	0.00300356831967876	-5.2886486734499E-06	-3.28732858543052E-06	-1.11725095887899E-05	-1.26471952699118E-05	0.996436063180562	-0.0303030722029876
1.3	0.00332388879383888	0.00240579563673353	3.04666222302455E-06	3.10195161661695E-06	6.95362742290175E-06	-4.07949737623619E-06	0.99671400245211	-0.0308843441875191
1.4	0.00300518898212695	0.00163372805732507	-2.79688840459794E-06	-1.11424980110281E-06	5.70943286278533E-06	6.50941156164896E-08	0.996754590138929	-0.0325951311600699
1.5	0.00259212788428686	0.00127481740349123	1.24097305492925E-06	-2.53188427480563E-06	8.00421494127097E-07	2.5112505721617E-06	0.997006989520155	-0.0359573603069234
1.6	0.00291260882080101	0.00139584224957751	-9.30874969718898E-07	-6.41171858312606E-06	3.18456521785555E-06	-4.24011830882019E-06	0.996544572651522	-0.03912347107972
1.7	0.00317507236027362	0.00119686882287784	3.40222769241965E-06	6.33504252567074E-07	2.23190226197391E-06	3.84948289311497E-06	0.996716623526225	-0.0418239518222219
1.8	0.00329821411573832	0.00119052555737824	-2.37573664547616E-06	2.89401274772233E-06	-1.0121369156654E-06	-3.99354909282217E-06	0.996475885916597	-0.0447511136450397
1.9	0.0034156885913975	0.00101139161669887	-3.72768249866648E-06	-1.75844750205681E-06	5.62258284949264E-06	3.02445264884636E-06	0.996252796976557	-0.0475574105754463
2	0.00307665031573089	0.000993989833427067	-6.16512185325635E-06	-5.73944743060574E-06	-2.07464162339128E-06	9.13694702586375E-06	0.994245703989347	-0.050692384646393
2.1	0.00326424763711335	0.00140133637480573	1.16565068300042E-06	4.59728001375339E-06	4.46987821432421E-06	3.98663059037974E-06	0.993685711044963	-0.0513551699502012
2.2	0.00347899262604024	0.00134030035729345	6.54169729662425E-07	9.05969562207554E-07	-3.61110728290329E-06	-1.09236018125063E-05	0.994278246796867	-0.0533523771608062
2.3	0.0035025660050261	0.00119243695213047	-2.28541459801127E-06	3.55205040917218E-06	-5.31278690196544E-07	-2.79229896939815E-06	0.994267396385429	-0.0551221095776036
2.4	0.00344459682063584	0.000996121336168738	-1.55253124072138E-06	-1.45510189329526E-06	1.28324305972795E-06	-9.95672231004473E-07	0.994447498230324	-0.0582822260207588
2.5	0.00286010765368206	0.000721973437977748	7.77035203735126E-06	4.06548469829411E-06	-2.33307196495887E-06	-7.22115977052977E-06	0.993889820123053	-0.0607071862351957
2.6	0.00248487608386192	0.00131038499139817	4.8344928862186E-07	2.11558194367969E-06	-1.47166389426718E-06	4.67869508840531E-06	0.993664052049315	-0.0633349464026018
2.7	0.00258674342487515	0.00171455923070844	-7.86283280796344E-06	5.22526757740955E-06	2.51903825906215E-06	9.71174223241806E-06	0.993184333806152	-0.0661414685882778
2.8	0.00293741089385767	0.00208392706082142	-7.74345833685411E-06	7.93538272938942E-06	5.98326026943218E-06	1.98983724776755E-05	0.993257208895807	-0.0677655275620585
2.9	0.00350693179583002	0.00209255220090863	-1.18961829256966E-06	8.57173488951166E-07	-8.10475368172157E-06	-2.97005858749826E-06	0.993275113406246	-0.069560288309943
3	0.00375670957698208	0.00202860611620956	-6.02578619734828E-07	-4.46989044093094E-06	-2.19309656585396E-06	6.43056883972033E-06	0.993361897190943	-0.0720265223633573
3.1	0.00445391292884027	0.00209885345931169	-2.58684165849016E-06	8.55176750820667E-08	1.10135709507104E-05	-3.50928727458932E-06	0.993169270959004	-0.0737629059049562
3.2	0.00495116648387486	0.00166821603304248	-9.79619685682401E-06	2.53072868320262E-06	1.21475044922482E-05	4.27897324754163E-06	0.993323935937504	-0.0753154503055658
3.3	0.00519805976183712	0.00112723883901488	-3.4679232881902E-06	9.26822421395907E-07	-5.00730207958447E-06	-1.52096270904766E-07	0.993599867051949	-0.0783730846152138
3.4	0.00523312511076535	0.00055271259811807	5.34542380399455E-06	4.97797011254631E-07	1.3477700379177E-06	4.49526955855922E-07	0.994246827546423	-0.0803853277539053
3.5	0.00473940890072013	7.79358809037329E-05	2.76791075844339E-06	1.56330685177562E-06	1.31204039510543E-06	7.94869019786747E-07	0.994267712734671	-0.0840019312366407
3.6	0.00462763207965017	0.000258051525482314	-7.14808215957327E-06	-1.41747277305713E-07	1.86902557059467E-06	-3.49516586335305E-06	0.993476660986352	-0.0861552975192357
3.7	0.00463625105607734	5.38224408279246E-05	5.77914681409503E-06	-1.50364213671375E-06	-3.2245496998067E-07	-1.73302607318589E-06	0.993758860879729	-0.0884472518935719
3.8	0.00459199462918777	-0.00011365857332735	-2.00415052762534E-06	8.73766547141467E-07	-5.19519675954248E-06	2.9017651268001E-07	0.994056821930502	-0.0905908253212682
3.9	0.00456645026392871	-0.000371732873156312	-8.37292328445467E-06	1.76992006968265E-06	-4.11777761885044E-06	-1.50610686833018E-06	0.994512035898879	-0.0945816562801767
4	0.00407735899046712	-0.000521326537256245	-5.82531244176801E-06	3.60994468585279E-07	-9.48782554363612E-06	-8.46093463156862E-06	0.992749858379771	-0.0968231669208894
4.1	0.00418966152610015	-6.5949851202873E-05	-3.99576963340934E-06	4.05724624421946E-06	-1.89254871481823E-06	5.5774199987608E-06	0.992435824868808	-0.0972061435160716
4.2	0.00449910876580091	-0.000178138426183635	4.63269279165002E-06	-4.37731987013535E-06	6.75611775248777E-06	7.70191751506445E-07	0.992615839292557	-0.0996244729087245
4.3	0.00465542295333971	-0.000408803442716464	-3.80144444482856E-06	1.11973685137172E-06	3.55437293758552E-06	-1.19957357698155E-06	0.992861654582367	-0.101718606154843
4.4	0.00467615294965716	-0.000792648878556971	-3.1396647419723E-06	-4.94567940161216E-06	9.33001184844803E-07	-1.03490347524156E-06	0.992561802443981	-0.104128022527006
4.5	0.00406851381199477	-0.0010881724717037	-1.39893325523457E-06	2.02783413664533E-06	2.17187347314698E-06	-8.47500746557802E-06	0.992414324029638	-0.105872402706268
4.6	0.00388723264629656	-0.00067424404828752	5.37591050572999E-06	9.6300181327279E-06	-1.42580585936473E-05	9.78854517205349E-06	0.992884388451777	-0.108442371324663
4.7	0.00394257614011536	-0.000677532433022155	-7.58010373043412E-06	-9.60450082261628E-06	-1.14715726735062E-06	-1.38540284540218E-07	0.993129246220862	-0.110609175199456
4.8	0.00392184015040283	-0.000668598339630169	-8.75484836585855E-06	-2.71917963685131E-06	-4.40231929537823E-06	4.54052310979358E-06	0.992979392364968	-0.113149716032298
4.9	0.00404879194857863	-0.000778431184444868	5.76016380057283E-06	8.35306095178718E-06	-7.28271866870647E-06	3.26507207559356E-06	0.993054096414953	-0.115000686991983
5	0.00384460593393955	-0.000930459566594008	4.32096124631022E-06	-8.55602660788198E-06	-4.28589419520028E-06	-6.21384261191987E-06	0.993406200207088	-0.116948805898022
5.1	0.00435671270983766	-0.000732213338470455	1.53020058660339E-05	-1.02425458338769E-05	3.52466704468534E-06	-8.74723347807339E-06	0.99372553604051	-0.118582538223531
5.2	0.00480883844243992	-0.00127772347249024	-4.23630542286188E-06	-4.74392516220208E-06	-3.17659145791619E-06	5.17864902879975E-07	0.993893366271299	-0.121174755665537
5.3	0.00490198222944873	-0.00189466302735083	4.78564918589765E-06	3.39916803483928E-06	-9.31736763332457E-06	-4.78788684383876E-06	0.993994449048244	-0.123896383195082
5.4	0.00472924587158702	-0.00252425705950024	5.19734987934725E-06	1.2200295775727E-06	-5.07387968963021E-07	1.04964755219876E-05	0.994405018854094	-0.127177757160478
5.5	0.00381733729242529	-0.002693443564413	-1.81712063287854E-06	-1.99450429599702E-06	8.92480117037087E-06	5.30099316153285E-07	0.993995750714065	-0.131156121843412
5.6	0.00391027570291389	-0.00218398608070159	4.25350737971319E-06	7.26488692648982E-06	-4.55363222224302E-07	-8.64954868523605E-06	0.993082597508846	-0.133434388424879
5.7	0.0039384945094408	-0.00240131120639151	2.06490545714733E-06	-7.22025391368467E-07	5.49040333304595E-06	2.47203045425968E-06	0.993291800508061	-0.135843454003981
5.8	0.00368929388212849	-0.00256313288847367	3.92680054156893E-06	1.97361189102181E-06	2.73518235867129E-06	7.87066857960292E-06	0.993749336220862	-0.138558085942231
5.9	0.00343371403243446	-0.00273546949367447	-3.7979841921702E-06	-3.07187882366399E-06	-4.71880388518956E-06	-1.78930760408606E-06	0.993819223067066	-0.142334534607163
6	0.00234318080016171	-0.00304479384136583	-2.08356476046871E-06	1.70841216694565E-06	1.04633105055249E-05	-2.66446155956649E-06	0.991147641213406	-0.145334182352501
6.1	0.0017472109738446	-0.00209299658034693	-7.35166183014572E-06	-1.11926291514447E-06	-7.24112260781886E-07	-2.49342668973565E-06	0.99068996687345	-0.145083250828922
6.2	0.00166922061644454	-0.0017518506571898	-1.06831715765107E-06	1.99616598395522E-06	-3.49177073518606E-06	-5.38889163378284E-06	0.990759888174862	-0.146517969604609
6.3	0.00166208161868213	-0.00160507224442984	1.58289714682781E-06	2.84353174586384E-06	1.14900477945682E-06	5.99873016620867E-06	0.990489029381046	-0.148665065417036
6.4	0.001637350698392	-0.0019028626617576	2.07709897856516E-06	5.05636255883633E-06	-3.34600101853305E-07	2.28147881107144E-07	0.989845331265508	-0.151146138442617
6.5	0.000953096337765952	-0.00193680597563177	4.68867288290934E-06	-1.88069477448077E-06	-4.70677757488592E-06	-1.55983477444884E-06	0.989222618132406	-0.15259636240871
6.6	0.00124400339530921	-0.00166338178366203	3.27981091974066E-07	-1.07444516320402E-06	9.34404092537484E-06	3.35885885314805E-06	0.990861788685374	-0.155365782715323
6.7	0.00110833305189229	-0.00189993405152857	5.34363783795366E-07	5.64103862400613E-06	-1.79696913849359E-06	5.00012540141134E-06	0.990933689564209	-0.158899312225786
6.8	0.000811678293389569	-0.00177719186861876	1.7524305388796E-07	-1.59448766886965E-06	-3.49870926311375E-06	-5.14195667357991E-06	0.990443539585391	-0.161910630625982
6.9	0.000614266686176281	-0.00174321482398106	-6.66772944519157E-06	6.75771356055765E-06	2.2997970654447E-06	1.35776467340566E-06	0.990109318586033	-0.164894493912683
7	-0.000370582139356775	-0.00136990809782944	8.12254837866708E-06	3.16973153306417E-06	4.5974813926008E-06	5.88551210583796E-06	0.988422222067455	-0.167363424982005
7.1	-0.000154219922117633	-0.000145477428946846	1.40402746524815E-06	7.84931772715766E-07	-2.29156043736327E-06	-4.49373335906341E-06	0.987854069929877	-0.168355502189655
7.2	0.000128285307257503	0.000116974958004231	-1.27587769186563E-07	4.41777729930972E-06	-5.03507295332801E-06	-6.51190252781293E-07	0.987602982638679	-0.170116603506573
7.3	5.98255024823831E-05	0.000388451839852139	1.34645908984985E-06	-5.28939559372973E-06	-2.36426340865602E-06	-2.79636905180121E-06	0.987153927756696	-0.171864114991502
7.4	-3.86396176100493E-05	0.000508890163953405	1.85595521647599E-06	4.43812064968103E-06	-7.33918441920893E-07	-1.07267232940754E-06	0.987726645621101	-0.174620106760999
7.5	-0.00106431188694606	0.000502605764105856	-5.77769518946428E-06	-1.47346944947453E-06	-1.62594823153462E-06	-8.93962406599197E-06	0.986953109133058	-0.180203024522841
7.6	-0.00135920957575899	0.00195517518153731	5.62605000516326E-06	-3.42625838359484E-06	1.04199168730209E-06	3.19597526039169E-06	0.984192624217	-0.182978177826995
7.7	-0.00117440862676565	0.00247984640656578	-6.53762498061861E-06	-2.8385198745645E-06	4.41850174362936E-06	5.6658590401539E-06	0.983674384488462	-0.186197324448362
7.8	-0.000808597551370761	0.00272465660927823	-1.11558435227179E-06	-5.3660974538619E-06	-2.07747384342778E-07	1.1480291299961E-06	0.983265506351239	-0.190083822678629
7.9	-0.000389636385125252	0.00260061399255586	-3.31088674465356E-06	7.25143738414185E-06	4.29039749305239E-07	-6.90247633041568E-06	0.982380124720647	-0.194873484271765
8	-0.000721690123548014	0.0028543959234036	-1.80988327953305E-07	7.39189404269081E-06	1.74166738239801E-06	-4.47336232481319E-06	0.978153708674303	-0.198299834233984
8.1	0.000382591859843829	0.00342945985099014	-7.73591615425943E-07	-6.46579189782643E-06	-1.75482707387735E-06	-1.0544771975467E-06	0.977506773445333	-0.198115170282662
8.2	0.00101844193997889	0.0031676946271313	-3.82203859510013E-06	1.67345249041141E-06	-1.09934823427677E-05	-2.56072325207916E-06	0.977869947909975	-0.200252291886728
8.3	0.00136225330075893	0.00303973214209264	-5.60548978184362E-06	-9.83855551665021E-06	-7.77742465376661E-06	3.06466637179484E-06	0.977310264681483	-0.203030232503257
8.4	0.0016462823039471	0.00286520046625219	6.73977912475156E-07	-6.13892934659806E-07	-1.41421422241671E-06	4.48255826032294E-07	0.976256299031295	-0.205736398627813
8.5	0.000998916612429592	0.00297779241955805	-1.75446678745158E-06	-2.49562126780682E-07	3.67630192340952E-13	1.80457320224436E-06	0.975152720832613	-0.207839449302812
8.6	0.00156937677557791	0.00413398520029724	2.40925915567941E-06	-3.98838251614142E-06	-4.59839479939287E-06	-5.90455201269565E-06	0.975172185897702	-0.210282578341201
8.7	0.00236381176869814	0.00433286280496817	-1.51078912516081E-06	-2.08691977318909E-06	-3.53931894017654E-06	3.65869288183811E-06	0.974722173231587	-0.213111007110778
8.8	0.00301401867214679	0.00447089686603616	-5.50792420517404E-06	-2.08993706359333E-06	-7.23926256803843E-06	-1.22896005302167E-06	0.974102093213762	-0.215557321073322
8.9	0.00383230136832121	0.00428792149149497	8.57111437951501E-06	4.04918280476313E-06	-1.39987678985276E-06	3.20480704333569E-06	0.97382973059412	-0.217709539103454
9	0.00395446850978194	0.00392889947567616	-4.80207125099176E-07	4.16320638250738E-06	-7.81177288784762E-06	1.26656634650356E-06	0.973302548088818	-0.22022768384227
9.1	0.00487903860173847	0.00411308396684407	-2.51806197545143E-06	6.64689821403104E-06	4.08577539729766E-06	-3.10324816709951E-06	0.972466619573382	-0.222369078721514
9.2	0.00565513590321128	0.00341710657411007	-1.15676953805765E-06	3.4269617528015E-06	-2.2544219656893E-06	-2.04339730388973E-06	0.971539614119622	-0.224647185542819
9.3	0.00602288438214575	0.0027890317589619	2.30229179170487E-06	-4.04694696247938E-06	-8.00767313828383E-07	-1.77458170810137E-06	0.97088903807311	-0.226641901385058
9.4	0.00631891320005503	0.00208428312750076	-1.78017715148828E-06	3.9004445893719E-06	-2.08226742276005E-06	-3.56701165335639E-06	0.970673130231868	-0.229205969188478
9.5	0.00588740163538955	0.00203501083076861	3.52975289324156E-06	6.27194571376117E-06	3.54092266993636E-07	-2.15103981628505E-06	0.969548139230197	-0.232884052224808
9.6	0.00666145184025783	0.00231704556922983	4.65461196716242E-06	7.03352786473315E-06	-8.13335755265297E-06	1.28253106345084E-05	0.968028616156831	-0.235077205607278
9.7	0.00715948987522935	0.00181837610504329	-2.88221058686977E-06	-1.51336652080181E-06	-1.40461688845902E-06	-3.95185406003658E-06	0.96762265599323	-0.237165986796207
9.8	0.00739021146757203	0.00142361775761841	1.10773032099724E-07	-3.58612867814584E-06	3.04900477377467E-06	2.37709927042866E-06	0.967628162971819	-0.239419380057365
9.9	0.00760366023038126	0.00102251256184581	5.77784051211507E-06	-6.4576005053955E-07	-2.52140494718898E-06	6.72105778523989E-06	0.966851532848951	-0.242566972130817
10	0.00696783343217412	0.000773546525338479	-1.13858700522695E-06	-5.69397274732909E-07	1.3502489149655E-06	-1.1877189673208E-06	0.962973245617043	-0.243567311190509
10.1	0.00749194424078668	0.00144650360551075	6.79219495662647E-07	-8.37768167998225E-06	6.13684761300597E-06	3.56645032444357E-06	0.963533004655652	-0.242144473905482
10.2	0.00820968479913523	0.00124602211152306	7.48778071439487E-06	8.25444444658627E-06	5.21214053632026E-06	3.49592413886024E-06	0.964296131185562	-0.243566752917338
10.3	0.00882660101018795	0.000924397159601088	1.72366848173352E-06	-6.92700258217815E-06	1.42855937941182E-06	2.84822911001981E-06	0.963913155456947	-0.245743613821308
10.4	0.00946844998978238	0.000122517036583325	-4.01262498040364E-06	-3.60399369475602E-06	1.92435310707763E-06	-5.56708423258125E-06	0.96242226456291	-0.248407227781921
10.5	0.00936758235814314	-0.000418800203990594	3.63407138359351E-07	-7.02207300411297E-06	-5.68856488602717E-06	4.05358791852365E-06	0.960841292105276	-0.24953453428823
10.6	0.0101193741058085	-0.000607113535326162	5.46952313509945E-06	6.69032493406733E-06	2.42242026136109E-06	1.18373492667151E-06	0.960600694746419	-0.251776287439965
10.7	0.0105524579790136	-0.00134058700589116	-7.03746917243383E-06	-1.66787140092795E-06	-7.65915079290381E-07	1.55152777540605E-06	0.959245618550907	-0.254201580821923
10.8	0.0108882904770288	-0.00188723581197773	1.48293378891391E-06	4.41090851469862E-06	9.3448403278398E-06	-4.45244817412564E-06	0.957914367690036	-0.255298525747196
10.9	0.0114940067081764	-0.00283691614471038	3.27075922010949E-07	7.36860116799272E-06	-5.12688157415789E-06	2.09183945501712E-07	0.957909312150529	-0.256279885308334
11	0.0111728634629356	-0.00370036242697572	-2.2111090986104E-06	-3.80280735280444E-06	1.19697243712505E-05	-3.53175538289662E-06	0.957392907148195	-0.256915626227616
11.1	0.0119065383947069	-0.00402234651325075	-6.08348203343864E-06	-4.90462731909256E-06	9.45937026569128E-07	5.54592397786839E-06	0.957901833323985	-0.257443370792581
11.2	0.0124354106951954	-0.00533991501056872	3.29521075117143E-06	4.27978685530884E-06	1.05757071806403E-06	-7.83168622071129E-06	0.958282782329235	-0.258931738453216
11.3	0.0126293764107266	-0.00682285827249836	7.10363977791122E-07	-2.64209118481746E-06	-4.81864487748802E-06	9.05984436985953E-06	0.958935991780747	-0.260906455088742
11.4	0.0124894744699612	-0.00846320164034326	1.47272088324877E-06	-2.1896121647759E-06	-2.98508803217243E-06	-7.40492442448735E-06	0.959426300356036	-0.264153375754206
11.5	0.0112479017427374	-0.00977294183005541	9.43885591780284E-07	-1.0054160039107E-06	-8.97944615310427E-07	-8.6772054270685E-07	0.957388565615739	-0.268864221410774
11.6	0.011064719637942	-0.0103915837922351	1.11625319617009E-05	-3.25370140507343E-06	-5.38956184096583E-06	-6.79428243016648E-06	0.95522628869048	-0.270997297865536
11.7	0.0107038638511822	-0.0118114361030865	5.29914736739964E-06	-2.87426759491938E-06	-4.38640548237245E-06	1.63741689407227E-06	0.954865567207189	-0.274091902810942
11.8	0.0100365021564004	-0.0131624198994728	-4.44381207597488E-07	-2.5345035627688E-06	1.03623699419924E-06	1.31915847460166E-05	0.95445464521868	-0.278298430680816
11.9	0.00907056600420921	-0.0147669499619877	3.30380847185874E-06	1.98310427965785E-06	-3.19982319830386E-08	1.26652779793925E-05	0.952734634899098	-0.282673786180722
12	0.00704848133692284	-0.0156856238682768	1.98879398472755E-06	4.83688877562667E-07	-3.67130206221304E-06	-9.69124832860533E-07	0.94785806516313	-0.284003614023763
