# GHZ S RI R 50
0.2	0.000807396052390565	0.0039002826362707	6.29970928572365E-06	-1.01068102279334E-06	1.06664433458608E-05	1.04803568687196E-05	0.998881159438911	-0.00750606250959659
0.3	0.00136218936687855	0.00338367290295826	5.81458967344819E-06	5.0294837929665E-06	8.09096094643939E-06	2.94627974752849E-06	0.998504842229595	-0.0104698033540824
0.4	0.0017729810502129	0.00303660155370526	-2.70242701094971E-06	7.86266142089532E-06	-4.82549394993459E-07	-4.42595471708666E-06	0.998236889973586	-0.0131348764607884
0.5	0.00161430361461634	0.00301903032356462	2.30583977759683E-06	1.47781759248119E-06	7.50434640696937E-06	-1.05149745119185E-06	0.997768747417173	-0.0156807822748229
0.6	0.00217165969847164	0.00354476403524178	3.22915133484632E-07	3.53769701790811E-06	2.71258905753609E-07	-7.65670076938925E-06	0.998554196522898	-0.0185892080687539
0.7	0.0026906268146407	0.00352096554438526	4.16365359217523E-06	5.01795704592672E-07	-3.89237520591746E-06	-1.66275601214309E-09	0.998204892028692	-0.0220106650232372
0.8	0.00315350389806927	0.00348397953879423	-2.88353893051598E-06	2.96305086144721E-06	-6.81451581840302E-06	1.32249705425874E-06	0.997767414203895	-0.024435282768508
0.9	0.00362606776089772	0.00325031044171346	6.02967109832875E-06	8.94401141347448E-07	-7.33340903904665E-06	-1.82578257374534E-06	0.997311243039374	-0.0270976535136078
1	0.00344471393070897	0.00255012579387031	2.35660148425228E-06	2.93855112965378E-06	-9.02764768230597E-06	-2.57885695739132E-07	0.996066707148242	-0.0287387410600253
1.1	0.00303789569899305	0.00293108328493479	6.42801334575753E-07	3.56959395520338E-08	-5.29216142989585E-06	1.39922044685531E-06	0.995564879968087	-0.0297396121050353
1.2	0.00314106832433227	0.00266072663511946	-5.28282920907275E-06	-3.28525292503627E-06	-1.11590166944682E-05	-1.2637280702874E-05	0.995209905514616	-0.0305002398784791
1.3	0.00271917976946407	0.00196094329581147	3.0423299927313E-06	3.09923492129862E-06	6.94678652573117E-06	-4.07293197277958E-06	0.995463298986053	-0.0312450286316607
1.4	0.00221971497662451	0.00127167291405396	-2.79363457954992E-06	-1.11380336762687E-06	5.70337006865193E-06	6.65224100464101E-08	0.995640829349166	-0.0332485343872216
1.5	0.00167556252097137	0.00130597584348058	1.24075733042239E-06	-2.52953128706878E-06	7.99044968240935E-07	2.50952324962815E-06	0.99630764788133	-0.0365237262649712
1.6	0.00232752073108069	0.00186981101889706	-9.27947119781002E-07	-6.40989889690552E-06	3.1851984446992E-06	-4.23736880131344E-06	0.996566068920307	-0.0398843003123097
1.7	0.00291048932233242	0.00181196804409089	3.40207800616613E-06	6.35044166237137E-07	2.23027471207298E-06	3.85062678537177E-06	0.996985104317309	-0.0426816789669334
1.8	0.0032705623983201	0.00180103534554051	-2.37776114108631E-06	2.89390744445788E-06	-1.01072192638327E-06	-3.99527340286622E-06	0.996922396087734	-0.0455636691340367
1.9	0.00348171699297107	0.00147078435359669	-3.72891097895984E-06	-1.76044913787809E-06	5.6243196779172E-06	3.02764919841029E-06	0.996759565839919	-0.0483672035520065
2	0.00292281076316358	0.00144727276781084	-6.16494241147902E-06	-5.74317950337231E-06	-2.07833130674705E-06	9.13886012381403E-06	0.994647780419407	-0.0510860351358166
2.1	0.0031639491536154	0.00210103119873575	1.16332316886765E-06	4.59996983829396E-06	4.46934425795858E-06	3.9910907569307E-06	0.994752797233887	-0.051524930346162
2.2	0.00354215108026394	0.00211785704718666	6.53964818008686E-07	9.06946936816423E-07	-3.60606320601084E-06	-1.09325609727922E-05	0.995641698709304	-0.0538167870549713
2.3	0.00376272472648902	0.00194420097936156	-2.28955125002809E-06	3.55309232795755E-06	-5.29743340326075E-07	-2.79472460356887E-06	0.995670202724494	-0.0558127202542001
2.4	0.00389100144506776	0.00151763566015793	-1.55287699752798E-06	-1.4576019031525E-06	1.28516912482421E-06	-9.95632786468023E-07	0.995792595058176	-0.0590271437711137
2.5	0.00311944631442182	0.000911069531200989	7.77755646819575E-06	4.0760602428614E-06	-2.33110877252044E-06	-7.23205749822642E-06	0.995423540229549	-0.0612335270246365
2.6	0.00254781131193787	0.00153271977519077	4.83253981582003E-07	2.1187540503493E-06	-1.47566553528983E-06	4.68466002070434E-06	0.995664736646221	-0.0639814390876514
2.7	0.00258758765153484	0.00195302100318515	-7.87572594647848E-06	5.22974878972491E-06	2.51906371192731E-06	9.72624839012086E-06	0.995446032393143	-0.066998388930166
2.8	0.00289583453886266	0.00230029453545072	-7.75739420757396E-06	7.94377308758752E-06	5.98436941193739E-06	1.992883702139E-05	0.995643665512462	-0.0688638174544817
2.9	0.00334283700429494	0.0022250996776483	-1.19160010216869E-06	8.579677018441E-07	-8.11516608543429E-06	-2.97709817949111E-06	0.995507970221605	-0.0708283240922978
3	0.00323820416281458	0.00225976703753303	-6.02458397078885E-07	-4.47579673934725E-06	-2.19722978239079E-06	6.43844970638494E-06	0.99540289808061	-0.0731951469688051
3.1	0.00385749293391641	0.00269259682029465	-2.58937604790733E-06	8.49840384617166E-08	1.10251110708692E-05	-3.51007192686917E-06	0.9951715190303	-0.0749474401442147
3.2	0.00442060991132657	0.00252494473743776	-9.80535494859916E-06	2.52940314338913E-06	1.21562406534101E-05	4.28687407741222E-06	0.99516363535881	-0.0765534815082793
3.3	0.00481394494460325	0.00215376075648416	-3.47110757314047E-06	9.26135197071366E-07	-5.01128285363582E-06	-1.54292088889861E-07	0.995282219458938	-0.0796144241564427
3.4	0.00499294610258205	0.00158594955200145	5.34989805656911E-06	5.00498346276075E-07	1.34876085974479E-06	4.50492051904719E-07	0.995839741396587	-0.0815647876105757
3.5	0.00439309504105348	0.00115428488175162	2.77024379014969E-06	1.56548486031629E-06	1.31313360921193E-06	7.9595397553721E-07	0.996015484676905	-0.0851174360901533
3.6	0.00441853261337041	0.00159767305407026	-7.15497521563491E-06	-1.42722713496834E-07	1.87124221785093E-06	-3.49832523704901E-06	0.995485920212548	-0.0876123596223001
3.7	0.00470579440128963	0.00142900661599699	5.78502506830903E-06	-1.50533032002419E-06	-3.22829701681734E-07	-1.7347921240274E-06	0.995603539933282	-0.0903623909286037
3.8	0.00489452211412627	0.00110771230289424	-2.00608869116702E-06	8.75112527413691E-07	-5.20063570876807E-06	2.91574945562433E-07	0.995493945539226	-0.0927442438537766
3.9	0.00492447789329786	0.000519735148771683	-8.3803704228775E-06	1.77560496737579E-06	-4.12255695573435E-06	-1.50566091728633E-06	0.99532431397327	-0.0966759290855108
4	0.00407755977895043	0.000197031499535346	-5.82911535038917E-06	3.64272001811142E-07	-9.49872651565878E-06	-8.46179547610169E-06	0.993147934463172	-0.0979881939306245
4.1	0.00405820738867671	0.000880865317496402	-3.99651995965785E-06	4.06203183883528E-06	-1.89109153473895E-06	5.58221356687234E-06	0.993591349107538	-0.0980122484414419
4.2	0.00443045927024586	0.00088016331241339	4.63284954301956E-06	-4.38283094861623E-06	6.76072168458552E-06	7.66530838973981E-07	0.99399660096238	-0.10071739999
4.3	0.00468591192412567	0.000644926854460989	-3.80267850060374E-06	1.12284572227761E-06	3.55542537030984E-06	-1.202559804923E-06	0.994210556098131	-0.102993356799494
4.4	0.00473589418826094	6.83369635459234E-05	-3.1443289112759E-06	-4.94655287891706E-06	9.32903823712076E-07	-1.03602795603709E-06	0.993885967938055	-0.105406358631469
4.5	0.00374687168248736	-0.000356269044388249	-1.39899101528034E-06	2.03080880089231E-06	2.16841360668058E-06	-8.484990891519E-06	0.994164522409865	-0.107048261751144
4.6	0.00333603421590317	0.000359590162250591	5.39409027419626E-06	9.63500452930323E-06	-1.42632119291181E-05	9.81765351824695E-06	0.995145157337683	-0.11025824853456
4.7	0.00338056360213956	0.000623235384745863	-7.60428234677872E-06	-9.60376656349764E-06	-1.14872769739196E-06	-1.36881231396095E-07	0.995412542157658	-0.11307898740109
4.8	0.00346976772756823	0.000833873971381039	-8.76996771079889E-06	-2.70585967673076E-06	-4.39883427747542E-06	4.55397988916006E-06	0.995107934525929	-0.116148029783025
4.9	0.00373854592343272	0.000741475803228468	5.78419297536922E-06	8.34984629951752E-06	-7.28365738262973E-06	3.28411832744938E-06	0.994804116067398	-0.118345136444207
5	0.00341148518051792	0.000666363959844927	4.30371451751984E-06	-8.57442523108159E-06	-4.30511810192304E-06	-6.20885697267592E-06	0.994829305069101	-0.120181552053199
5.1	0.00413392513555441	0.00116374076067563	1.52830853280319E-05	-1.02866940537614E-05	3.50393018237021E-06	-8.76046727733916E-06	0.995139910184107	-0.12193345439857
5.2	0.00493316152623586	0.000604123812304095	-4.24917287292253E-06	-4.73409756975101E-06	-3.17589651212801E-06	5.26028874285705E-07	0.99491624663364	-0.124697330494001
5.3	0.0052507850559305	-0.000230044160818197	4.79385790884917E-06	3.38708667271711E-06	-9.32879671284234E-06	-4.76445984078229E-06	0.994578025322062	-0.127260361184287
5.4	0.00505811507237269	-0.00121430193799185	5.19926662391037E-06	1.20749378779829E-06	-4.82436950091389E-07	1.04957133240469E-05	0.994808387983524	-0.1301903159232
5.5	0.00367959826103682	-0.00140750394986721	-1.82154565243909E-06	-1.98984337456411E-06	8.92452145344365E-06	5.08805076913337E-07	0.994624438865523	-0.133858423602882
5.6	0.00378566851669603	-0.000472396218900268	4.27042012904774E-06	7.25286361821431E-06	-4.76501584870083E-07	-8.64654995217085E-06	0.994070531039284	-0.136442106850144
5.7	0.00413505766119107	-0.000546265200476674	2.06230796683866E-06	-7.27130911552796E-07	5.49489400025238E-06	2.45691592897428E-06	0.994069063953847	-0.139322677545295
5.8	0.00427647357115581	-0.00085150034330098	3.92973794654843E-06	1.96159247055506E-06	2.75505165205027E-06	7.85819780675952E-06	0.993946757434912	-0.142304153300243
5.9	0.00429170362531752	-0.00162565659341371	-3.80198693185234E-06	-3.05731360222553E-06	-4.71803226744925E-06	-1.77372092121265E-06	0.992930153027667	-0.145955704248127
6	0.0026412489126233	-0.00270035979016344	-2.07547972144643E-06	1.70951679654188E-06	1.04358375405918E-05	-2.68219604981788E-06	0.989358134500469	-0.147362623286571
6.1	0.00127486423445498	-0.00174912224701471	-7.33742301359499E-06	-1.10537254073813E-06	-7.26423799220951E-07	-2.48687730594419E-06	0.989616595222713	-0.146107144772369
6.2	0.000642801983184943	-0.00112201855450423	-1.06354103527762E-06	1.99279277187392E-06	-3.48994266222275E-06	-5.37240901809341E-06	0.989941715192575	-0.147240874907455
6.3	0.000391140487328731	-0.000513463298266672	1.5815080582937E-06	2.83541658791299E-06	1.15130115466802E-06	5.98344999632224E-06	0.989811131521535	-0.149213393164825
6.4	0.000345529317798568	-0.000509943552235523	2.07496890435608E-06	5.04307179460654E-06	-3.33669496392022E-07	2.27789516177886E-07	0.989166087849869	-0.151608886454442
6.5	-0.000541281256873987	-3.18928954447951E-05	4.67912538658488E-06	-1.87840745325036E-06	-4.69817016365977E-06	-1.55550209453067E-06	0.989155913623377	-0.152890703897468
6.6	0.000202511346286005	0.000909005635719878	3.26861646106831E-07	-1.07298114654416E-06	9.331598965821E-06	3.34834473255824E-06	0.991151290163022	-0.156589623781172
6.7	0.00067845381877	0.000852748961947855	5.37677508885558E-07	5.63277389747612E-06	-1.79086001737898E-06	4.99443398259048E-06	0.990892676114975	-0.160607163444175
6.8	0.000883577999579454	0.000858572724420638	1.73707940701461E-07	-1.59257012047532E-06	-3.49840598445763E-06	-5.13243780543216E-06	0.990050023467061	-0.163777995645371
6.9	0.000902786497712779	0.000493821904918279	-6.65207946395956E-06	6.75566221164615E-06	2.29816776825374E-06	1.35363408745196E-06	0.989171736987691	-0.166677764115346
7	-0.00051420254580501	0.000791801674123641	8.11148222028487E-06	3.15500311941932E-06	4.59576838434367E-06	5.86982566931111E-06	0.987201258602326	-0.168276445369939
7.1	-0.000181798158288044	0.00253934376098568	1.40143693118898E-06	7.82530970556507E-07	-2.28899290173611E-06	-4.48295905970344E-06	0.987268934681278	-0.16900088112907
7.2	0.000630632947456972	0.00301863307509069	-1.27504965347664E-07	4.40895762069928E-06	-5.02500123647818E-06	-6.50086715023101E-07	0.987217140674968	-0.170998603223233
7.3	0.00126474582630993	0.00316194550127894	1.34686436700178E-06	-5.28009298610113E-06	-2.35902470337275E-06	-2.79296570647902E-06	0.986779206786606	-0.173033104183457
7.4	0.00186490298829756	0.00259011915461605	1.85070584132335E-06	4.43516879237896E-06	-7.32368026940769E-07	-1.07217859267431E-06	0.987147223039869	-0.17630255444143
7.5	0.000653410102608497	0.00144910324396757	-5.77471644320826E-06	-1.47564080026418E-06	-1.62104935997258E-06	-8.93687555985061E-06	0.985375373770515	-0.182036431629261
7.6	-9.54669181891252E-05	0.0023611145281494	5.62768465160427E-06	-3.42387925842533E-06	1.04061840228634E-06	3.19650815450839E-06	0.982533504561742	-0.184329994459778
7.7	-0.000390721603278285	0.00256477287942713	-6.5383823823715E-06	-2.84064756406459E-06	4.41814607638099E-06	5.6681078843143E-06	0.981743309431447	-0.187414548135055
7.8	-0.000602142901197125	0.00268250456615521	-1.1155020243615E-06	-5.366662382866E-06	-2.07808683305927E-07	1.14813406050854E-06	0.980960598994288	-0.190874000682673
7.9	-0.000882242041224936	0.00258262139414897	-3.30824371419325E-06	7.24950076146234E-06	4.27500492117917E-07	-6.90008648235803E-06	0.97966690098761	-0.19495651416152
8	-0.00212507950819996	0.00357907442120871	-1.79753255182071E-07	7.38223879714078E-06	1.73878266699228E-06	-4.46773962169165E-06	0.975446695995501	-0.197024142719323
8.1	-0.000987425227763241	0.00514209921091397	-7.71041436816439E-07	-6.45405409716801E-06	-1.75142050279893E-06	-1.05284747984356E-06	0.975535596757311	-0.196629034594341
8.2	1.13917930099515E-05	0.00541339099627882	-3.8139304755349E-06	1.66778917645092E-06	-1.09667393107445E-05	-2.55987127173775E-06	0.975909409573144	-0.198793383516217
8.3	0.000728699568856665	0.00549504097412172	-5.58214477231688E-06	-9.81704261036322E-06	-7.75925595671309E-06	3.04986242141698E-06	0.975227342325617	-0.201448451488345
8.4	0.00121476711386798	0.00517687379278585	6.7302689203824E-07	-6.11289219284482E-07	-1.4110353074658E-06	4.45055426882164E-07	0.974083424516814	-0.20394212317976
8.5	0.000128063970692831	0.00539215713309486	-1.7505267477331E-06	-2.51647357249403E-07	-2.66690114930123E-09	1.80090004063038E-06	0.973114788233261	-0.205859640887477
8.6	0.000819580198118041	0.00728623705500458	2.4080723321564E-06	-3.97765677548687E-06	-4.58298878783049E-06	-5.89661117399027E-06	0.973158132992327	-0.208374314287239
8.7	0.00223220524890707	0.00786049485350052	-1.50537047083042E-06	-2.08332611757412E-06	-3.53419540845436E-06	3.64691195360275E-06	0.972658079060532	-0.211157676063194
8.8	0.00365156698795933	0.00792432216497855	-5.49171568877304E-06	-2.08954823221409E-06	-7.2193470663862E-06	-1.23238923476128E-06	0.972039610036996	-0.213522605733975
8.9	0.00506355501003195	0.00705397379157014	8.54248754577365E-06	4.04606399215711E-06	-1.39903835614358E-06	3.19421653055508E-06	0.971821974817384	-0.215603923711685
9	0.00488078775324401	0.00592337794024315	-4.83309183463219E-07	4.14893177484077E-06	-7.78742817868907E-06	1.25359489814947E-06	0.971286079521855	-0.218167213165224
9.1	0.00546113959734301	0.00595970974160796	-2.52004559170038E-06	6.61822638894498E-06	4.07601148522943E-06	-3.08494390983321E-06	0.970255987437665	-0.220213301924012
9.2	0.0059704496794326	0.00520388674397851	-1.16041024549755E-06	3.41207389987501E-06	-2.24171674459451E-06	-2.04120378803092E-06	0.969286608589351	-0.222213189282514
9.3	0.00611547207632461	0.00460978186803471	2.30561945461589E-06	-4.02763902300757E-06	-7.93422728427751E-07	-1.77095194620797E-06	0.968789080218611	-0.224028937657852
9.4	0.00611522593669023	0.00387834577454342	-1.78684665457387E-06	3.88419183924448E-06	-2.06576942548748E-06	-3.56323857003402E-06	0.968734502414954	-0.226643690697224
9.5	0.00510687907222999	0.00418121080142925	3.50251514857906E-06	6.26859738913936E-06	3.59895133613391E-07	-2.14508795680517E-06	0.967578924682771	-0.230329705617789
9.6	0.00602619077982351	0.00526874584763206	4.6250560114167E-06	7.03596664951191E-06	-8.15911588083092E-06	1.27785338231536E-05	0.96618978853095	-0.232487370272911
9.7	0.00708650092171024	0.00512582113967714	-2.8739801531192E-06	-1.51983600694266E-06	-1.39117221359761E-06	-3.95078141021035E-06	0.96581666653526	-0.234586757944114
9.8	0.00795659809446913	0.00466000388033015	1.20689119517551E-07	-3.5818070788665E-06	3.03893902574296E-06	2.38297645545452E-06	0.965865478776085	-0.236764625689623
9.9	0.00860712613781322	0.00359683315024916	5.77213664095588E-06	-6.29175701696313E-07	-2.53646891652979E-06	6.70550186701523E-06	0.965186100799044	-0.239788922979518
10	0.00752034708500698	0.0028303195248707	-1.13504182794433E-06	-5.72335296811386E-07	1.35221070259219E-06	-1.18151768566236E-06	0.961810154687099	-0.240674323267012
10.1	0.00785969143053927	0.00365125606034249	7.08921287946269E-07	-8.36752467887946E-06	6.11829839894305E-06	3.58538753493166E-06	0.962522208851462	-0.239926131584608
10.2	0.00869651582914454	0.00340194145447494	7.45384909800051E-06	8.27748687959603E-06	5.19672029081135E-06	3.51312063651959E-06	0.962976104788494	-0.241483875459398
10.3	0.00943935766253127	0.00277643567835693	1.74880052795235E-06	-6.91998980787989E-06	1.41800508605633E-06	2.85315486765006E-06	0.96252849336055	-0.243438970174704
10.4	0.00996863229671111	0.00139944352523527	-4.00135586466291E-06	-3.62129913878347E-06	1.94654920560619E-06	-5.56308602623846E-06	0.961548209001134	-0.245485927307026
10.5	0.0087780588794736	0.000489805690283915	3.88833740445864E-07	-7.03228610583913E-06	-5.71221389178342E-06	4.04010942756162E-06	0.961138263272736	-0.24688034442587
10.6	0.00872616462875644	0.000808804723892331	5.46229833079486E-06	6.71947994224296E-06	2.42417187093129E-06	1.19294132235539E-06	0.961255239113435	-0.250185128091603
10.7	0.00893086533511793	0.000802782613750666	-7.05116232565134E-06	-1.68994005245358E-06	-7.71794290998084E-07	1.55353820922457E-06	0.960263356002289	-0.253049677191912
10.8	0.00934156742254628	0.00088073709466524	1.4771860862528E-06	4.42713287260255E-06	9.38220365791346E-06	-4.44408695107935E-06	0.959140104850059	-0.254702340369242
10.9	0.0100777456745949	0.00021135667624716	3.13363334987701E-07	7.39260492768078E-06	-5.14354596358716E-06	1.99584820709155E-07	0.959230290889107	-0.256109509508063
11	0.00942738334914995	-0.000124985282552426	-2.21087189784106E-06	-3.81802562984552E-06	1.20115046468481E-05	-3.52084955882326E-06	0.958692657946889	-0.257707836395146
11.1	0.0105473548223028	0.000561192115458722	-6.09005781341685E-06	-4.93242504868263E-06	9.36239333134902E-07	5.56405952036647E-06	0.95809775417348	-0.258797493932932
11.2	0.0119796803524236	-0.000229281053204227	3.29496020579761E-06	4.30198519511094E-06	1.08090824400222E-06	-7.85427692419854E-06	0.957547595964256	-0.259954464360803
11.3	0.0131821624067365	-0.00172678553513372	7.19948463849038E-07	-2.64978573792159E-06	-4.86014936383758E-06	9.07990821594643E-06	0.957638382365368	-0.261104098773925
11.4	0.0138136281159596	-0.00398991210335773	1.48447356551418E-06	-2.19471254526573E-06	-2.97791742459694E-06	-7.4430183975319E-06	0.958101385582805	-0.263429685248878
11.5	0.0125675285845876	-0.00580486755301576	9.50469819791714E-07	-1.0074462576078E-06	-8.9969668895642E-07	-8.73708320734866E-07	0.956744525616235	-0.267561546438985
11.6	0.0127428690089624	-0.00645829448056535	1.12232216908898E-05	-3.24261614103821E-06	-5.39898873443286E-06	-6.83932240632862E-06	0.955053640373156	-0.269909457987326
11.7	0.0129693728245401	-0.00839263941267555	5.3316749794842E-06	-2.87794759411798E-06	-4.41182019414194E-06	1.63672896220691E-06	0.954742864358874	-0.272847661818034
11.8	0.0126139320752789	-0.0107221484138822	-4.42702876926542E-07	-2.54820630825212E-06	1.02094894730654E-06	1.32609104942693E-05	0.954797206037153	-0.276674028171022
11.9	0.0114698241801169	-0.0136765061672846	3.31929573723996E-06	1.99586873701949E-06	-4.19371648658179E-08	1.2730491209233E-05	0.95478193829693	-0.281163169591886
12	0.00780528905424409	-0.0151171918342167	1.99676795497861E-06	4.87526547410402E-07	-3.68595325785816E-06	-9.76531531371754E-07	0.951155147188128	-0.283428881026576
