# GHZ S RI R 50
0.2	0.000521056760068326	0.00371174538302231	6.30594968277427E-06	-1.00725541799539E-06	1.06686573610648E-05	1.04968938652759E-05	0.999465433713862	-0.00703465136242612
0.3	0.00120910907297128	0.00339398340761907	5.81725285814508E-06	5.03730075839505E-06	8.09686462539164E-06	2.95339990455174E-06	0.999267328893631	-0.00994446926543128
0.4	0.00172239695351244	0.00320668301547614	-2.70858459507061E-06	7.87004186404659E-06	-4.81247769066085E-07	-4.43093450605784E-06	0.999256724077138	-0.0125806446986596
0.5	0.0018904005793104	0.00314690412922503	2.30797419084333E-06	1.47940377798278E-06	7.51168605220787E-06	-1.05201253529373E-06	0.999020235090613	-0.0155123272550808
0.6	0.0022849048499781	0.00341119432786437	3.22043284201754E-07	3.54047292835186E-06	2.73879174957225E-07	-7.66240269749781E-06	0.999451539534414	-0.0184630528014992
0.7	0.00266722910739036	0.003492586262304	4.16744351135129E-06	5.04068103798059E-07	-3.89611911490795E-06	-3.33740414091891E-09	0.999164654718077	-0.0216989601837618
0.8	0.00309766111815868	0.00356374094160151	-2.88802610011877E-06	2.96533538533359E-06	-6.82289119813665E-06	1.32134760429516E-06	0.998865210486853	-0.0240761723407763
0.9	0.00353768474247436	0.00351498263295477	6.03765808430072E-06	8.97440351684767E-07	-7.34290088494918E-06	-1.83048942331607E-06	0.998558372598703	-0.0266549223270301
1	0.0037059657850051	0.00309025089654781	2.36027339214023E-06	2.94306160546902E-06	-9.04158942244337E-06	-2.58181631557822E-07	0.997803110507053	-0.0282980402224265
1.1	0.00346838318850387	0.00313053832882264	6.43731381874771E-07	3.56758800877924E-08	-5.29963018661024E-06	1.40182483373514E-06	0.997391253249401	-0.0297080322898691
1.2	0.0033941178517445	0.0028932771236665	-5.291229267811E-06	-3.29012832066432E-06	-1.11770312500028E-05	-1.26564704487171E-05	0.997002117426859	-0.0303811267712648
1.3	0.00292854566444454	0.00241596440292102	3.04749985447857E-06	3.10457191633593E-06	6.95871794298204E-06	-4.07982136175952E-06	0.997387379171432	-0.0308543972202332
1.4	0.00256094971803219	0.00193306058829399	-2.79844910920807E-06	-1.11587592782717E-06	5.7133035534444E-06	6.69078946982526E-08	0.997748155245664	-0.0326354654057079
1.5	0.0023337546917078	0.00171134982401076	1.24293908355293E-06	-2.53378692288565E-06	8.00325615821841E-07	2.513806241891E-06	0.998720447793232	-0.0362147881777072
1.6	0.00270321241364191	0.00198237494912428	-9.30277981295962E-07	-6.4203811166112E-06	3.18993791035476E-06	-4.24477037094284E-06	0.998640328984111	-0.0400681377400698
1.7	0.00318465533779819	0.00192644273821529	3.40767883834133E-06	6.34904576127634E-07	2.23510241929933E-06	3.85597339490893E-06	0.998849975432332	-0.0431004929591504
1.8	0.00349867998450482	0.00191734127210538	-2.37992767179695E-06	2.89942607457723E-06	-1.01419522249257E-06	-4.00079518532851E-06	0.998633582706921	-0.0461297503275667
1.9	0.00374772454700757	0.0016708617860264	-3.73553931899619E-06	-1.76137587165718E-06	5.63449706497345E-06	3.02962397425463E-06	0.998539166497786	-0.0488303899851751
2	0.00345750955468945	0.00146904021279617	-6.18245656979175E-06	-5.75006673046635E-06	-2.07516740786357E-06	9.15955369315611E-06	0.997222726055296	-0.0520652285119744
2.1	0.00342186692629162	0.00186142055457018	1.17254455509529E-06	4.60632899922935E-06	4.48348943822846E-06	3.99122594367342E-06	0.996742656111633	-0.0535041135833652
2.2	0.00363412357956067	0.00197647718085885	6.56445336272683E-07	9.07183887947349E-07	-3.62967938589859E-06	-1.09425833098318E-05	0.997148706302715	-0.0558339280673209
2.3	0.00379549095649501	0.00190566899622106	-2.286375178457E-06	3.56201705683882E-06	-5.35429434614328E-07	-2.79760689633109E-06	0.996987108624654	-0.0578384096740109
2.4	0.00392693700707518	0.00164477649641257	-1.55780991036273E-06	-1.45643774559707E-06	1.28488366938217E-06	-9.99491062873075E-07	0.997010424971175	-0.0610864745806527
2.5	0.00346705901523185	0.00104310872947533	7.79468060400006E-06	4.06271156670859E-06	-2.34977501132996E-06	-7.23419709137257E-06	0.996644617462889	-0.0634918669017396
2.6	0.00274204148519227	0.00134560357613752	4.88365687495697E-07	2.11944891076078E-06	-1.46648720141591E-06	4.69185001031193E-06	0.996584817417292	-0.0665134686351971
2.7	0.002520030387678	0.00185320929180298	-7.86913501273955E-06	5.2524369893778E-06	2.54414091642415E-06	9.72750407090172E-06	0.996021754820073	-0.0696170877765363
2.8	0.00273312179178169	0.00243764223169652	-7.74142076173087E-06	7.96823342592714E-06	6.0389724095828E-06	1.99248462375503E-05	0.995939184638916	-0.0714354735518988
2.9	0.00331411529273118	0.0026134289027385	-1.18969126749485E-06	8.61518333119699E-07	-8.12617456990828E-06	-2.95607449311594E-06	0.995699221933388	-0.0732847519421056
3	0.00353053564187747	0.0025608525650124	-6.14425962511963E-07	-4.47458949568316E-06	-2.18028578344461E-06	6.44486884688111E-06	0.995665694441022	-0.0756433850806288
3.1	0.00403499398417436	0.00286809308324208	-2.58962780574329E-06	9.18362105352265E-08	1.10178709781617E-05	-3.53982617555036E-06	0.995432669809865	-0.0775545764198676
3.2	0.00462691187293961	0.00274349305445426	-9.79913136751175E-06	2.5571282793546E-06	1.2169343045943E-05	4.25316067257445E-06	0.995338413405395	-0.0792844937510797
3.3	0.00506038647247871	0.0023839752299322	-3.46793472615438E-06	9.36134276276443E-07	-5.01105233001347E-06	-1.39653748145148E-07	0.995239724795076	-0.0824407708489077
3.4	0.00532941169989974	0.00187178987556874	5.34850853866272E-06	4.84823803669366E-07	1.34934468601472E-06	4.46368724659046E-07	0.995475725700561	-0.0842623817046815
3.5	0.00497036523963888	0.00124801228431335	2.77204270586406E-06	1.55781560338023E-06	1.31411439499388E-06	7.92281262596264E-07	0.995780639569398	-0.0874824592235535
3.6	0.0047526042619419	0.0014963923913809	-7.15191977010634E-06	-1.25265559912884E-07	1.86185016071301E-06	-3.50120954623113E-06	0.995222317933918	-0.0902770449798981
3.7	0.00494962746034252	0.00144240856460118	5.77717883383218E-06	-1.51878518441704E-06	-3.26954951150559E-07	-1.73276182123883E-06	0.994974577975829	-0.0929921518575977
3.8	0.00518209494373052	0.00120465003109098	-2.00212923295148E-06	8.79049762923123E-07	-5.19506118773085E-06	3.03638211793877E-07	0.994636040368627	-0.0951227629923757
3.9	0.00534554131929343	0.000658497231710412	-8.36892061079209E-06	1.79137362754966E-06	-4.12186786441566E-06	-1.4957007026401E-06	0.994592309698697	-0.0986722073302228
4	0.00469896713197469	4.33681407997916E-05	-5.82531307951283E-06	3.77679526143237E-07	-9.51364552100885E-06	-8.4353602693449E-06	0.993024632868288	-0.100485239039398
4.1	0.0043017162619098	0.000542153494414874	-3.9818328231024E-06	4.068893610555E-06	-1.87432624010556E-06	5.58198603544538E-06	0.992680219104715	-0.100991160927776
4.2	0.0045103729447246	0.000713954628379467	4.61612471383496E-06	-4.38959865799351E-06	6.75474495519339E-06	7.48233311587649E-07	0.992720164954184	-0.103412209259921
4.3	0.00474924190758977	0.000618904710149561	-3.79500351730173E-06	1.13109635853882E-06	3.54786091658763E-06	-1.21008045373434E-06	0.99282105477848	-0.105515267093856
4.4	0.00489620208598714	0.000208639691042805	-3.15307990534942E-06	-4.9311622709872E-06	9.28818966222378E-07	-1.03705147107268E-06	0.992424495712451	-0.107857720878855
4.5	0.00421464751541012	-0.000378955963331376	-1.39060859208753E-06	2.03038993730966E-06	2.14099505082396E-06	-8.47330303273064E-06	0.992382124254164	-0.109603733994761
4.6	0.00356800786691471	0.000136546437514696	5.40153758434117E-06	9.60092364588396E-06	-1.42089188802547E-05	9.82434680670942E-06	0.992928866334764	-0.112407352624147
4.7	0.00350765069588222	0.000485542054098116	-7.60341264876424E-06	-9.56689845512121E-06	-1.14621467287655E-06	-1.34469963515026E-07	0.99308220010243	-0.114892707418764
4.8	0.00356977961972811	0.000778424284356566	-8.7525207600152E-06	-2.68474229553879E-06	-4.38039971670641E-06	4.54982451042439E-06	0.992664149046258	-0.117716652635821
4.9	0.00391196942981015	0.000816144342185031	5.78146827906592E-06	8.31840115592838E-06	-7.25894428370362E-06	3.28649322225011E-06	0.992209038337965	-0.119667818201195
5	0.00377846541167356	0.000541190886862455	4.28089536270772E-06	-8.55335922252932E-06	-4.29915893448354E-06	-6.18513661469734E-06	0.992143519263448	-0.121233069579268
5.1	0.00421294211173589	0.000993530156414143	1.52308451085535E-05	-1.02700452844733E-05	3.48661601500975E-06	-8.7383592206993E-06	0.992391931388168	-0.122768303218096
5.2	0.00499871865645155	0.000577107496089623	-4.24058154493598E-06	-4.71707246505825E-06	-3.16629436630128E-06	5.26992164998687E-07	0.99209286046127	-0.125345168706987
5.3	0.00534085244984836	-0.000220666976934375	4.78126795134816E-06	3.37341573653603E-06	-9.3030829528008E-06	-4.74351157751122E-06	0.991562396689344	-0.127705260064817
5.4	0.00521885738711204	-0.00112826632521178	5.18160971091024E-06	1.20160048895139E-06	-4.77328404563096E-07	1.04594298818966E-05	0.991524074401283	-0.130129908485735
5.5	0.00396734050495641	-0.00163671519679845	-1.81414826698048E-06	-1.98409665848962E-06	8.89367698010628E-06	5.12277486792873E-07	0.991679156825107	-0.133179698894914
5.6	0.00359537072120832	-0.000671666735714476	4.25301956692578E-06	7.23484643279555E-06	-4.69109914274083E-07	-8.62186168495823E-06	0.991220043459324	-0.1357295560282
5.7	0.00386076063145102	-0.000422082908901116	2.05698137612861E-06	-7.23476440421499E-07	5.47733499983603E-06	2.45411627681906E-06	0.991156294556447	-0.138249527920013
5.8	0.00405337913918229	-0.000462998872124231	3.91700198358004E-06	1.96016021813976E-06	2.73961837256942E-06	7.83942967416983E-06	0.991186009086413	-0.140738948813408
5.9	0.00429798347303763	-0.000870127976972101	-3.78967950369351E-06	-3.05496161961705E-06	-4.7051941826133E-06	-1.77538409859008E-06	0.990849203774091	-0.143831639984212
6	0.00332806331843164	-0.00203626945878858	-2.07245192571005E-06	1.70549453783265E-06	1.04180188661815E-05	-2.6727353641179E-06	0.988321845619242	-0.14603388712269
6.1	0.00194208625545446	-0.00139283492788496	-7.3189880132069E-06	-1.10480975641261E-06	-7.23897100359305E-07	-2.48095404636512E-06	0.988006796913783	-0.145108765804266
6.2	0.00144894398664705	-0.000803678473800796	-1.06198515996405E-06	1.98715517692007E-06	-3.47807801088006E-06	-5.36081782870439E-06	0.988514831321193	-0.146027359425795
6.3	0.00131608906092788	-0.000360326227450908	1.57560024832145E-06	2.82976449361861E-06	1.1440955965288E-06	5.96990242690692E-06	0.98867780269475	-0.148042914783548
6.4	0.00140397286372099	-0.000505274930976737	2.06641243594596E-06	5.03312958461579E-06	-3.33080218748806E-07	2.2701676672119E-07	0.988295109780777	-0.150617598945443
6.5	0.000468826826028387	-0.00064990891872583	4.66704562958441E-06	-1.86881038789613E-06	-4.68303389108414E-06	-1.5550461272851E-06	0.987637418059009	-0.152339304693746
6.6	0.000588807815194864	0.000285963728972724	3.28035335359229E-07	-1.06925971417692E-06	9.29823903126453E-06	3.35710149592296E-06	0.989216718651319	-0.155048279374125
6.7	0.000845503125655295	0.000378236377971312	5.23164186735987E-07	5.62059739784941E-06	-1.79831825161865E-06	4.97831116650777E-06	0.989213035373822	-0.158647299220772
6.8	0.000881601938506231	0.000566266878371203	1.77260423812774E-07	-1.58885408564275E-06	-3.47857509614465E-06	-5.13042878425774E-06	0.988478709501066	-0.161575294269566
6.9	0.00102422428421392	0.000462145156021289	-6.65624173134728E-06	6.72666998025839E-06	2.29054043112165E-06	1.35675123084368E-06	0.987869215887165	-0.164199079745485
7	-0.000196858822746455	0.000303270350173115	8.08863528874264E-06	3.16957917427907E-06	4.57256751257581E-06	5.8705751607505E-06	0.986187203992044	-0.166130185439177
7.1	-0.000507474619682113	0.00209172386927231	1.39697554880218E-06	7.84904959733288E-07	-2.27322472161238E-06	-4.48136993278532E-06	0.985833031832045	-0.166769373289417
7.2	0.000160614613840651	0.00295186438627362	-1.39249156820891E-07	4.40154175241128E-06	-5.0151812222627E-06	-6.62662413084185E-07	0.985715977384037	-0.168413652346562
7.3	0.000783024684485871	0.00342705199792717	1.35952829413829E-06	-5.2676799470511E-06	-2.34731068233185E-06	-2.79504569296399E-06	0.985181583607762	-0.170050863573726
7.4	0.00158356364134862	0.00331107096632328	1.83270820478144E-06	4.43325264661787E-06	-7.27501357668066E-07	-1.0726565158242E-06	0.985532973141467	-0.172332238037932
7.5	0.00102896291379849	0.00207088159279451	-5.76289592232169E-06	-1.4982939390441E-06	-1.58216305514787E-06	-8.93487815439191E-06	0.985322957737345	-0.177358477936268
7.6	7.70468835555572E-05	0.00280947106133521	5.63797117489626E-06	-3.40238549754648E-06	1.02873718562225E-06	3.19909676924196E-06	0.982801991728262	-0.18044440455878
7.7	-4.84991018924617E-05	0.00313466978757496	-6.52642455189214E-06	-2.86318380807606E-06	4.39669128484967E-06	5.68229115485744E-06	0.982257045640818	-0.183400725058769
7.8	-7.60428435395188E-05	0.00316145562351412	-1.0962110054308E-06	-5.37110865351828E-06	-2.11970576680929E-07	1.14747321645275E-06	0.982052725688188	-0.186919144166576
7.9	-0.000189088268641301	0.0028578795419232	-3.33655683525248E-06	7.24324731542508E-06	4.52377676103482E-07	-6.9038173042558E-06	0.981686921785474	-0.191371959054202
8	-0.00161075950711277	0.00315010179448969	-1.97788478508828E-07	7.39394874163006E-06	1.75237853114596E-06	-4.47090960181397E-06	0.978035211753404	-0.195384087485181
8.1	-0.00111055505173496	0.00504017565184359	-7.59818024157461E-07	-6.46123035321877E-06	-1.75103877342325E-06	-1.05701820548758E-06	0.976735145240177	-0.195168731541934
8.2	-6.92682116477154E-05	0.0056657307616266	-3.82043033074428E-06	1.66127902631749E-06	-1.09702876241675E-05	-2.58450511110826E-06	0.977119553552922	-0.196821770103078
8.3	0.000816797835961754	0.00593535159043539	-5.56718442476617E-06	-9.83878643220496E-06	-7.77357688628286E-06	3.03664998995531E-06	0.976813055786424	-0.199331540615228
8.4	0.00167714117068413	0.00572751316230706	6.74927302739406E-07	-6.10714875026797E-07	-1.41345281640502E-06	4.42912230086552E-07	0.976071475112849	-0.201979757458434
8.5	0.000890804286185166	0.00527857371911776	-1.75123626790046E-06	-2.5553591608841E-07	-6.48544535802388E-09	1.80217298949647E-06	0.97505425629828	-0.204220376609116
8.6	0.000977028165858475	0.00710919596927277	2.42122194098253E-06	-3.97657114498357E-06	-4.57380749678613E-06	-5.91571090684586E-06	0.975139223732003	-0.206538663177875
8.7	0.00230196993901023	0.00798368526461733	-1.50296608460096E-06	-2.09033910421685E-06	-3.54866815689058E-06	3.64465178219789E-06	0.974873058669136	-0.209322208958624
8.8	0.00381642100259612	0.00830676527599509	-5.49755526714096E-06	-2.10487784104662E-06	-7.23018140574684E-06	-1.2497294488318E-06	0.974436385639185	-0.211737552389532
8.9	0.00561439229352957	0.00768045708180124	8.55082822457827E-06	4.06827379304166E-06	-1.40713773106817E-06	3.19753408411049E-06	0.974453468762414	-0.213847606410981
9	0.00593377901471934	0.00607229086044507	-4.92429209082836E-07	4.15471577739488E-06	-7.8026244796643E-06	1.23999471402486E-06	0.974367573285046	-0.216557920913134
9.1	0.00629961822612632	0.00584454157794554	-2.53884537264271E-06	6.62774677432682E-06	4.09116050908545E-06	-3.08357163323332E-06	0.973707501478502	-0.219047961995407
9.2	0.00678497571521834	0.00486205047976997	-1.1692111357841E-06	3.41824433488609E-06	-2.2435191064287E-06	-2.05006430517628E-06	0.972858105936997	-0.221578345918234
9.3	0.00667216042205097	0.00404671181718318	2.31841600819875E-06	-4.03390980498494E-06	-7.92390957759544E-07	-1.77682069472672E-06	0.972217048935188	-0.223703619136028
9.4	0.00648866634389619	0.00335421730593139	-1.79894187230983E-06	3.8910717736324E-06	-2.06447030374802E-06	-3.57658036983771E-06	0.972114828141832	-0.226150053596004
9.5	0.00519812857420346	0.00329718673787584	3.50073844006513E-06	6.29902965625874E-06	3.66080806515073E-07	-2.15194356509679E-06	0.971666051577607	-0.230077735028158
9.6	0.00549231295094245	0.00478602235188737	4.6347378679954E-06	7.07246204649776E-06	-8.21196655974439E-06	1.2821302034115E-05	0.97004895359248	-0.232884093396788
9.7	0.00651670671791722	0.00509511511315417	-2.88488252075157E-06	-1.52904820537397E-06	-1.39343641057964E-06	-3.9690304637869E-06	0.969493057146224	-0.235020573994248
9.8	0.00745991023418698	0.00498437389225383	1.23783673916567E-07	-3.59764326628428E-06	3.05074629872301E-06	2.39573996099773E-06	0.96965495122555	-0.237078035807394
9.9	0.00844767759457634	0.00425289817029174	5.80156790608635E-06	-6.30041696682844E-07	-2.55197997614116E-06	6.73838202968985E-06	0.969800226935826	-0.240162660374081
10	0.00767715512691423	0.00310142160825394	-1.14155491182937E-06	-5.74038312158938E-07	1.35790041622353E-06	-1.1891375916391E-06	0.96655066998132	-0.242903806900221
10.1	0.0076444195706887	0.00413199879787244	7.01289111043154E-07	-8.40367046264607E-06	6.1486200800264E-06	3.5927260281817E-06	0.96591152707668	-0.241934287378748
10.2	0.0087037063542092	0.00426772387340836	7.49472639973252E-06	8.30327437353715E-06	5.22255996745643E-06	3.52167054138158E-06	0.966508825052541	-0.243014096979622
10.3	0.00985148253121084	0.00383010902374486	1.74671029155602E-06	-6.95207486173967E-06	1.42803588291259E-06	2.86342046063392E-06	0.966467969702869	-0.244959671333452
10.4	0.0110308294236647	0.00241451842592772	-4.02530348263718E-06	-3.62865945590945E-06	1.94379579779684E-06	-5.59030793047125E-06	0.965907258351388	-0.247489317577848
10.5	0.0101998196236573	0.00060759789833662	3.75307084736245E-07	-7.05611743097973E-06	-5.7224048035834E-06	4.06535170027326E-06	0.96503036149048	-0.249633504569937
10.6	0.00980868668691485	0.000630488373464413	5.4920755324508E-06	6.73270155441322E-06	2.43433619058893E-06	1.19280858877665E-06	0.964994263259283	-0.252878492869207
10.7	0.00966072382435489	0.000432064305499502	-7.07634832616423E-06	-1.68109572255218E-06	-7.71081437428597E-07	1.55988450125278E-06	0.96337155637937	-0.256259025923868
10.8	0.00974084076789566	0.00058203504135741	1.49131610823824E-06	4.43613537721026E-06	9.39831172294455E-06	-4.47769426381522E-06	0.96159945350682	-0.258092809948541
10.9	0.0106698225209377	8.14787256917501E-05	3.3208132919018E-07	7.4095389289261E-06	-5.15537294581393E-06	2.12564073252272E-07	0.961444228742331	-0.259416159438438
11	0.0100170215587828	-0.000880077532618776	-2.22362115670454E-06	-3.82085607067923E-06	1.20278938780086E-05	-3.55407847165947E-06	0.960652786048059	-0.261411640463839
11.1	0.0104891777084215	-3.69431063025462E-05	-6.11422655625225E-06	-4.9294058036918E-06	9.50721566712062E-07	5.57394728460004E-06	0.959419875823223	-0.262606878545299
11.2	0.0118021805387439	-0.00051292377037394	3.31232423654353E-06	4.30233357689108E-06	1.06339574773163E-06	-7.87268893325179E-06	0.958371053807529	-0.263698277843111
11.3	0.0130998526961214	-0.00176723926147898	7.14380368385093E-07	-2.65614538321167E-06	-4.84514582120546E-06	9.10783688682839E-06	0.958060340310321	-0.264435472645639
11.4	0.0140181996236927	-0.00382548028840563	1.48165091272873E-06	-2.20086223919508E-06	-2.99811150754723E-06	-7.44638516000562E-06	0.958470335723401	-0.26596254206361
11.5	0.0128369100433097	-0.00608684962136675	9.50578277941876E-07	-1.01134447648483E-06	-9.03224644533359E-07	-8.73857480463704E-07	0.958036708390476	-0.27045281650718
11.6	0.0125823950401446	-0.00647608217832326	1.12379444135383E-05	-3.2802066464863E-06	-5.42909755125287E-06	-6.83891023120325E-06	0.955661268601244	-0.273356208208527
11.7	0.0129983959941571	-0.00809042413016365	5.33234473187212E-06	-2.89791867356229E-06	-4.41449536544782E-06	1.65201609286591E-06	0.955038505242037	-0.275879280347161
11.8	0.0129986204087716	-0.0103574408513382	-4.50100584458611E-07	-2.55101389381614E-06	1.05744661336283E-06	1.32788980806307E-05	0.955417934280971	-0.279279421876593
11.9	0.0122123460098622	-0.0135748971971113	3.33130449571324E-06	1.99193445499817E-06	-1.06044428251704E-08	1.27577579530445E-05	0.956475641077116	-0.283878611899668
12	0.00827697583359231	-0.0160742817126085	2.0034084272595E-06	4.80656576878284E-07	-3.69851862777037E-06	-9.64029472299722E-07	0.952694047532107	-0.288799031831962
