# GHZ S RI R 50
0.2	0.000452658533398422	0.00330991806561508	6.31013292600243E-06	-1.00420965961868E-06	1.0668727613002E-05	1.05090214555934E-05	0.999984828097172	-0.00685901379149076
0.3	0.00108112929870186	0.00304991930652631	5.81886790352153E-06	5.04417409085344E-06	8.10129506917678E-06	2.95995021968159E-06	0.999899287284941	-0.00975250382931126
0.4	0.00155855318669922	0.00307976616249252	-2.71439968876443E-06	7.87783092187779E-06	-4.80205235851594E-07	-4.43603423692276E-06	1.00021629308102	-0.0123636332991396
0.5	0.00215451481742555	0.00290523226013974	2.31050577864919E-06	1.48029227255769E-06	7.51860260063971E-06	-1.05470820572103E-06	1.00022308567881	-0.0159905643567664
0.6	0.00214433977981408	0.00275162768529516	3.21507677237121E-07	3.54299370221138E-06	2.75710667397734E-07	-7.66765020916868E-06	0.999989639699853	-0.0188979922913955
0.7	0.00221951469636749	0.00298601343537392	4.17162440661506E-06	5.06234517683622E-07	-3.90021158390563E-06	-4.87112058300853E-09	0.999763586873859	-0.0217971048815421
0.8	0.00246735649508975	0.0031973052580899	-2.89310212377086E-06	2.96820127357681E-06	-6.83263545277364E-06	1.32043551165422E-06	0.999594314817536	-0.0240314799700506
0.9	0.00265084050957233	0.00344975133836925	6.04764656689472E-06	9.01198562245879E-07	-7.3547764405545E-06	-1.8363232044937E-06	0.999407788870734	-0.026349372696743
1	0.00326767000687093	0.00365366205181943	2.36538920088184E-06	2.94885616673494E-06	-9.06011910130303E-06	-2.5783373338154E-07	0.999432420510222	-0.0278666717670685
1.1	0.00342083481105872	0.00307619780994815	6.44846881606877E-07	3.54953502990512E-08	-5.30817735382845E-06	1.40621393796169E-06	0.999044643286883	-0.0301833634821134
1.2	0.00312566849973035	0.00252810302712553	-5.30097383401906E-06	-3.29244447185894E-06	-1.1200526623425E-05	-1.26700621325253E-05	0.998235120462448	-0.0312959474011287
1.3	0.00244065091743829	0.00170410369736517	3.05368154615993E-06	3.10549709173769E-06	6.96317146079567E-06	-4.09052142132259E-06	0.997992809527409	-0.0324503898915197
1.4	0.00167862275212409	0.00117170657330771	-2.80155879150304E-06	-1.11358287602258E-06	5.71724354830263E-06	6.07296925083132E-08	0.997466935514671	-0.0344685898825149
1.5	0.00165280179315102	0.00103691484125894	1.24141055682448E-06	-2.53649223669363E-06	8.0310705885026E-07	2.51464299393953E-06	0.998572526917478	-0.0377754054485304
1.6	0.00162383489806594	0.00135366114895037	-9.36204816850061E-07	-6.42613246611315E-06	3.18985631580648E-06	-4.25152936242705E-06	0.998484929747697	-0.0414231863424234
1.7	0.00211991102258675	0.0017884530868535	3.41271105333894E-06	6.33045138043868E-07	2.24113151318086E-06	3.85932469463541E-06	0.999049440196812	-0.0439886645319726
1.8	0.00258916484734876	0.00209241900896397	-2.38120135329735E-06	2.9054690038036E-06	-1.01871579183563E-06	-4.00586848453856E-06	0.999132345856687	-0.0466875130191932
1.9	0.00306396680720337	0.00222935649533386	-3.74203625988904E-06	-1.76283474450441E-06	5.64442774394323E-06	3.03241116065706E-06	0.999403596351413	-0.048621231002988
2	0.00362111456833383	0.00202336877465045	-6.20066564125141E-06	-5.76535515036674E-06	-2.07969518400093E-06	9.1856106421428E-06	1.00016214225591	-0.0517423609289724
2.1	0.00347320855803774	0.0017218212452638	1.18210196822995E-06	4.61806924191052E-06	4.50179047860921E-06	3.99675446426895E-06	0.999556649682769	-0.0550601109044248
2.2	0.00341286160423072	0.0018051198839363	6.5945997127936E-07	9.08457731622403E-07	-3.65532189986249E-06	-1.09644420429372E-05	0.999291791395567	-0.0575602780192962
2.3	0.00338940463276603	0.00179209383748551	-2.2863819236856E-06	3.57413443786042E-06	-5.41042390239961E-07	-2.80352207233799E-06	0.99886554485487	-0.0595254270504681
2.4	0.00331538396369131	0.00183645539118127	-1.56413903142105E-06	-1.45738421464713E-06	1.28635684213447E-06	-1.00414848714316E-06	0.998754545039604	-0.0626473883840116
2.5	0.00343065195215877	0.0017243804320638	7.82021963468116E-06	4.05508965291552E-06	-2.37016512038517E-06	-7.24497437293191E-06	0.998638886588509	-0.0649873336493069
2.6	0.00307704489777513	0.00145693754084325	4.93030454586333E-07	2.12263107689266E-06	-1.46101973478426E-06	4.70338187159592E-06	0.998674351204338	-0.0682237659632871
2.7	0.00279114962868366	0.00163915062466773	-7.87752018543735E-06	5.27724324493727E-06	2.56614681405621E-06	9.74453780883236E-06	0.998314265154472	-0.071598527792381
2.8	0.00279407487309116	0.00198980562758717	-7.74455735503235E-06	8.00217781646337E-06	6.09178182984319E-06	1.99607963167888E-05	0.998188087739785	-0.0738964017804613
2.9	0.00313169299089649	0.00225887798092388	-1.19047199918555E-06	8.66336189739355E-07	-8.15223717439483E-06	-2.94397939610398E-06	0.997631896557856	-0.0760656926542437
3	0.00366013800876194	0.002189571145379	-6.26946146598876E-07	-4.48101389310434E-06	-2.16772806056374E-06	6.46194700998564E-06	0.997305348799168	-0.0786118006836716
3.1	0.00377546717501475	0.00208714549640399	-2.59395827548917E-06	9.8258374937832E-08	1.10286821600632E-05	-3.57268604470005E-06	0.996649645283635	-0.0807971468011411
3.2	0.00401713196444782	0.0021233100295219	-9.80813461587072E-06	2.58794379555522E-06	1.22007285058948E-05	4.22698940608481E-06	0.996047333606706	-0.0826185887685575
3.3	0.00424301000909035	0.00198140048230351	-3.46962602619076E-06	9.4802397443016E-07	-5.01808201019154E-06	-1.24439223410789E-07	0.995406706202874	-0.0858715594587259
3.4	0.00439201908009172	0.00187823426071105	5.35374749855918E-06	4.66649293822364E-07	1.35178711413185E-06	4.41999409820098E-07	0.99485304555681	-0.0876118688109209
3.5	0.0046001872588536	0.0014967489868456	2.77593230847469E-06	1.54968713874929E-06	1.31611038720901E-06	7.88417880221875E-07	0.99492647744895	-0.0899014761189722
3.6	0.00426014881640388	0.00127174755627869	-7.15475605288585E-06	-1.0677587428981E-07	1.85343089095108E-06	-3.50726397655704E-06	0.994781069329113	-0.0929637353929838
3.7	0.00415236765819592	0.00135910990259114	5.7742843344014E-06	-1.53630062009319E-06	-3.32172791989539E-07	-1.73227413386756E-06	0.994135781855719	-0.0958780333370426
3.8	0.00424683169067723	0.00141330526626217	-1.99932056997867E-06	8.85129738225675E-07	-5.19382851488681E-06	3.19529597104973E-07	0.993342996495817	-0.0977907590346327
3.9	0.00447685762867831	0.00138800114165676	-8.36129344292926E-06	1.81310373713055E-06	-4.12445889857775E-06	-1.48418964943355E-06	0.99314445511298	-0.100432106018222
4	0.00475893995224734	0.000980925679924514	-5.82784576984666E-06	3.92589529092696E-07	-9.54059992625588E-06	-8.41642494367397E-06	0.993431412762353	-0.102034667213984
4.1	0.00446733128142572	0.000730925894163166	-3.96785888867871E-06	4.08430744321974E-06	-1.85437252499134E-06	5.59004207133148E-06	0.992659666521686	-0.104368578291823
4.2	0.00444997149742234	0.000753707085911027	4.5979521991002E-06	-4.40440927985942E-06	6.75433470349903E-06	7.23225301248815E-07	0.991779940202687	-0.106857087244281
4.3	0.00453599697315649	0.000667247701577189	-3.78809852060871E-06	1.14365361383599E-06	3.54086569262168E-06	-1.22170312178632E-06	0.99143704606363	-0.108802047725848
4.4	0.00457393399459018	0.000519535067819014	-3.16867767927244E-06	-4.91566504611441E-06	9.24272943378514E-07	-1.03963708091453E-06	0.990885619924593	-0.111015134726718
4.5	0.00459329403195923	0.000103166505188882	-1.37946032045195E-06	2.03350373692456E-06	2.10002236598029E-06	-8.46999115388221E-06	0.990723062575447	-0.113300240778451
4.6	0.00391629693264509	-0.000173512575332463	5.42427671298108E-06	9.5562200735981E-06	-1.41358249912852E-05	9.85337884942465E-06	0.990270644596152	-0.116109670201879
4.7	0.00349095128698153	2.26571770218469E-05	-7.61569791696379E-06	-9.51683138945658E-06	-1.14370385621215E-06	-1.30298826284073E-07	0.990038063238249	-0.118261657061485
4.8	0.00326514735838056	0.000323237596126202	-8.7383848540968E-06	-2.64982906682126E-06	-4.35450668660304E-06	4.55200695516629E-06	0.989337741833144	-0.120899521823463
4.9	0.00336054317807947	0.000650142920605466	5.79357967055815E-06	8.27668235621349E-06	-7.22839883549618E-06	3.30180925490335E-06	0.988530961569072	-0.12267420100718
5	0.00374235833263253	0.000507306229568645	4.23765823313191E-06	-8.53705839775583E-06	-4.30419387888877E-06	-6.14909695097498E-06	0.988139176076574	-0.123963372533729
5.1	0.00381994956974859	0.000464155466105286	1.51501105722787E-05	-1.0271547567615E-05	3.45200707505861E-06	-8.71572002291895E-06	0.98806129724567	-0.125214038532707
5.2	0.00425586099430641	0.000325318227765824	-4.23723286940926E-06	-4.69013939802757E-06	-3.15388948311753E-06	5.3288724318925E-07	0.987530014748868	-0.127426090356875
5.3	0.0045686453148629	-0.000125929918234078	4.77259843059927E-06	3.34882432242311E-06	-9.2815185115632E-06	-4.70227688535486E-06	0.98685371488917	-0.129561834197198
5.4	0.00462761417761903	-0.000585232644136522	5.16312228421706E-06	1.18146169069947E-06	-4.44939339093838E-07	1.04164560086324E-05	0.986352945625437	-0.131801627176144
5.5	0.00441847171859846	-0.00122783922015254	-1.80817873347934E-06	-1.96985569122187E-06	8.84657496404737E-06	4.92291431124842E-07	0.986479178627596	-0.133886218270215
5.6	0.00361648025289048	-0.0012295401114595	4.24091544821087E-06	7.19591104010011E-06	-4.7644185723548E-07	-8.58055679787254E-06	0.986344972530515	-0.136631696915138
5.7	0.00331060959875205	-0.000879673357286509	2.04662835302262E-06	-7.22374187137633E-07	5.45457896545961E-06	2.43669581385778E-06	0.985802840783317	-0.139022084074951
5.8	0.00318834420039744	-0.000645286366718071	3.89960193647237E-06	1.94770568294919E-06	2.73239716824254E-06	7.79950822375763E-06	0.985417834463599	-0.140868207320742
5.9	0.00318351461180637	-0.000423594532448067	-3.77146611529609E-06	-3.04130975059521E-06	-4.6829132982896E-06	-1.76786282713845E-06	0.985148431828253	-0.14245688252566
6	0.00329496282648144	-0.000819968237911354	-2.06635936920889E-06	1.70043499947752E-06	1.03873144902412E-05	-2.66471201455181E-06	0.985366333516132	-0.144357524231731
6.1	0.0023932813507455	-0.00120905689169495	-7.29285309574074E-06	-1.09108182064505E-06	-7.24411636388755E-07	-2.47065950746816E-06	0.984466300744083	-0.145661601550177
6.2	0.00157750694162795	-0.00102860557647675	-1.05533263576157E-06	1.97891466480393E-06	-3.46673722249569E-06	-5.33300413086261E-06	0.983830118291458	-0.146422155175213
6.3	0.00105758797558771	-0.000715431116100874	1.56863408672709E-06	2.81567343731862E-06	1.13996628500635E-06	5.94069207320909E-06	0.983450744476397	-0.147853760702991
6.4	0.000860652068656917	-0.000428476282962233	2.05659494045398E-06	5.01119739912466E-06	-3.31641277356493E-07	2.25968603565586E-07	0.983269786082565	-0.149655294778438
6.5	0.000714017878082773	-0.000641515559093821	4.64295507164104E-06	-1.86482987037424E-06	-4.66244981415216E-06	-1.5427709596595E-06	0.982884044347774	-0.152528805350517
6.6	0.000221914400658378	-0.00022123019746989	3.25969380658726E-07	-1.06259443625151E-06	9.24028715872758E-06	3.33598829681564E-06	0.98254792748565	-0.154428078203546
6.7	0.000263573043801167	0.000212743960256372	5.13772065490915E-07	5.5866224990647E-06	-1.79273445212363E-06	4.94573342022304E-06	0.982649162061323	-0.156551243028144
6.8	0.000254340667817022	0.00058361647909776	1.79059241537336E-07	-1.57922395359663E-06	-3.44902088036125E-06	-5.10656844912821E-06	0.982315504133894	-0.158651138858035
6.9	0.000383111286964074	0.00102957062089444	-6.6345296422485E-06	6.67437345302638E-06	2.27478529402801E-06	1.35440002388386E-06	0.982121234266167	-0.160340503254917
7	0.000504240027766589	0.000906293554371202	8.03706747951416E-06	3.17301167731222E-06	4.53308203391436E-06	5.85056127857712E-06	0.981951275025231	-0.16201934844727
7.1	-0.000181739057625569	0.00143515814950641	1.38734130541683E-06	7.84883288515627E-07	-2.24814860749488E-06	-4.46451816627338E-06	0.981400152188502	-0.163486296897867
7.2	-0.000153775760980845	0.00226626918568825	-1.52475175938749E-07	4.37863098539905E-06	-4.98748051099135E-06	-6.75159415741872E-07	0.980863540967609	-0.164899037517911
7.3	2.87826342557289E-05	0.00287963592253882	1.36953099000754E-06	-5.23607962513068E-06	-2.326154100302E-06	-2.78819601010661E-06	0.979908488559105	-0.166291358169994
7.4	0.000323049219173807	0.0033763715870013	1.80672143546685E-06	4.4126703279221E-06	-7.19499444042659E-07	-1.0686329416055E-06	0.978973852217478	-0.167669849197204
7.5	0.000759733939496301	0.00308020036591155	-5.71597042072478E-06	-1.5216436555517E-06	-1.52002951307976E-06	-8.88468875739777E-06	0.979671135040912	-0.169301054917795
7.6	9.25686259784145E-05	0.00279403934089353	5.63402363265848E-06	-3.3503775065431E-06	1.00336984807403E-06	3.19103793473913E-06	0.979645739087165	-0.17315162523566
7.7	-0.000384968684638681	0.00305525848415233	-6.48123065498262E-06	-2.89272139220407E-06	4.34243728223211E-06	5.68664299249406E-06	0.979169465316526	-0.17640740155025
7.8	-0.000590806759950506	0.00329232998974185	-1.05542840621087E-06	-5.35697196819457E-06	-2.18892195537115E-07	1.14143093808881E-06	0.979000906132938	-0.179337635636746
7.9	-0.000506063246836242	0.00349735931998825	-3.38233152598028E-06	7.18981730911173E-06	5.06055933407923E-07	-6.87475880536143E-06	0.979440322231168	-0.182137008550726
8	-0.000611351261737628	0.00332931284561944	-2.64198158562413E-07	7.38509108492367E-06	1.7909719688759E-06	-4.45084679804334E-06	0.979839154592227	-0.186191944233613
8.1	-0.000921661052965455	0.00418037786821718	-7.13688502865986E-07	-6.46559470427361E-06	-1.74322894875014E-06	-1.06931520296702E-06	0.978136266403041	-0.189002593984422
8.2	-0.000453116142033174	0.00494255180025324	-3.83041058257691E-06	1.6346328788672E-06	-1.09487793989357E-05	-2.65841792343175E-06	0.977708285996608	-0.190729600133763
8.3	7.26297042218078E-05	0.00543879885916981	-5.49928200732743E-06	-9.87626002085493E-06	-7.7938413140698E-06	2.9831000627723E-06	0.977352026598071	-0.19301042371859
8.4	0.00068723878372776	0.00592333852669776	6.79320993563838E-07	-6.06715676834381E-07	-1.41722260368015E-06	4.34009162018446E-07	0.9770089052449	-0.195469481909813
8.5	0.00120158647605913	0.00577759537097266	-1.74982418093567E-06	-2.65006118231461E-07	-1.62354328233212E-08	1.80210745209222E-06	0.97644316338345	-0.19833779547185
8.6	0.000991475406716699	0.0063975055732705	2.44632616498344E-06	-3.95903989150453E-06	-4.53309260959082E-06	-5.9432954349881E-06	0.976118689734521	-0.200633551871741
8.7	0.00165243409839111	0.00727151362204843	-1.48889665797288E-06	-2.10181664905779E-06	-3.57584808887957E-06	3.62123616131082E-06	0.976161126628593	-0.203135606173238
8.8	0.00268856706238831	0.00782302813962012	-5.49000580927168E-06	-2.14643389969916E-06	-7.23095998554593E-06	-1.3023681642761E-06	0.97616323618787	-0.205526595200833
8.9	0.00407354661654022	0.00791529282256245	8.54340340820252E-06	4.13270865857801E-06	-1.43097985216389E-06	3.19549760798997E-06	0.976520877500373	-0.207708545604827
9	0.00536916480668318	0.00697174333707703	-5.17431884632178E-07	4.15905315042454E-06	-7.82335298545155E-06	1.19679059227203E-06	0.976774851546713	-0.210311411653985
9.1	0.00574468078874731	0.00616011375203783	-2.58649826455059E-06	6.62534995012912E-06	4.11940244537919E-06	-3.06385988147371E-06	0.976600628726446	-0.212907452495877
9.2	0.0061817165384356	0.00540937215866441	-1.1927928646023E-06	3.42009185156829E-06	-2.2370220022297E-06	-2.06887222734314E-06	0.976116307327918	-0.215691568907438
9.3	0.0062978948993821	0.00472211016414257	2.3463409970344E-06	-4.03172434028318E-06	-7.84776165716011E-07	-1.78571989842202E-06	0.975572500239591	-0.218241349794658
9.4	0.00640901180522515	0.00429682375755051	-1.82162542688699E-06	3.88972018169038E-06	-2.05081214760904E-06	-3.59368765523009E-06	0.975023299373894	-0.220746973268576
9.5	0.00625671430540008	0.00373380530444869	3.46410990105501E-06	6.3279513716947E-06	3.80217014651906E-07	-2.15183906107326E-06	0.975204678822985	-0.223560280650887
9.6	0.00586665508594822	0.00409485580270183	4.59762719727976E-06	7.12343543806211E-06	-8.32304505529168E-06	1.27978270334506E-05	0.97462787789761	-0.22729743137854
9.7	0.00625662080885501	0.00446248422892337	-2.88431544102908E-06	-1.55293339435227E-06	-1.37201905703434E-06	-3.99113878211877E-06	0.974001701783679	-0.229951139207341
9.8	0.00679217146215908	0.00456478805028878	1.4753877784082E-07	-3.60938236906659E-06	3.04584975264804E-06	2.42386969454934E-06	0.97399728163092	-0.231932613512441
9.9	0.00750086320833535	0.00452544773054765	5.82949744891195E-06	-5.90271389438099E-07	-2.61138032153421E-06	6.74687666604981E-06	0.974595164715762	-0.233743277718659
10	0.00798697944322005	0.00373088309762869	-1.1454522599382E-06	-5.85596882166646E-07	1.37509993423381E-06	-1.18809715007936E-06	0.975064209391688	-0.237383644941751
10.1	0.00777876969186584	0.00365571463910639	7.43109359800371E-07	-8.45418281854861E-06	6.17189242294554E-06	3.64297707453118E-06	0.973316392746105	-0.239548541428375
10.2	0.00829049366574253	0.00372518493357749	7.50348344595253E-06	8.38347608530014E-06	5.23822462367385E-06	3.56431782764552E-06	0.972844755291387	-0.240787943784747
10.3	0.00900223384666868	0.00346303775171711	1.78650893950387E-06	-6.98648460768619E-06	1.42454690590274E-06	2.88664485095743E-06	0.97254747764079	-0.242656012000441
10.4	0.00989563526999428	0.00281016014951007	-4.03903749282512E-06	-3.66881692506413E-06	1.9783803882012E-06	-5.62116650487444E-06	0.972386409839721	-0.245098020535317
10.5	0.0102651818074064	0.00131251335257	3.91782576215359E-07	-7.10150798406345E-06	-5.76789913909937E-06	4.08056169033772E-06	0.97191667907418	-0.24862736219273
10.6	0.00976110038434433	0.000662050528303295	5.50634364467935E-06	6.78613643143164E-06	2.44534489484983E-06	1.20609669183412E-06	0.971182292441488	-0.2517502488922
10.7	0.00954742841932824	0.000423275865890154	-7.1183091471738E-06	-1.7109656485999E-06	-7.80294046103923E-07	1.56806798326233E-06	0.970215666575967	-0.255316415832714
10.8	0.00960883541278808	0.000427052841313689	1.49238009824377E-06	4.47207162347732E-06	9.47738687807696E-06	-4.4896382619561E-06	0.9689805998477	-0.25774028003302
10.9	0.0101670617178816	0.000331751684788395	3.26255873523288E-07	7.46726853650445E-06	-5.19551882036859E-06	2.08367746757105E-07	0.968627720056683	-0.259848113595521
11	0.0106619666535411	-0.000568880631273318	-2.23838164958697E-06	-3.84842447659058E-06	1.21138134164653E-05	-3.5761848860631E-06	0.968106592576019	-0.262363731527752
11.1	0.0106754948238784	-0.000778462178721073	-6.1557544335196E-06	-4.96612147509713E-06	9.55637241322997E-07	5.61355151263211E-06	0.966513510251605	-0.26446439385102
11.2	0.011411732706252	-0.00121336763063752	3.33736137416903E-06	4.33260034834023E-06	1.06909062430753E-06	-7.92987696347792E-06	0.96501874809384	-0.266101414926019
11.3	0.0122670513218831	-0.00214628886216899	7.16386888756678E-07	-2.6753799434964E-06	-4.8686573078879E-06	9.17645492981208E-06	0.963720549350952	-0.267387500382759
11.4	0.0129394151771094	-0.00351213956333662	1.48598497276432E-06	-2.21657014370655E-06	-3.0301008823031E-06	-7.48389955531026E-06	0.962640716592819	-0.268785271343094
11.5	0.012942762069689	-0.00566246123096206	9.55002856533679E-07	-1.01683704240459E-06	-9.08139664471412E-07	-8.77935217725271E-07	0.963193376087693	-0.271504654793692
11.6	0.0122407666903169	-0.00698601938736665	1.13099971706872E-05	-3.30938960854564E-06	-5.46953708596146E-06	-6.88046366864307E-06	0.961755047020828	-0.276043785257367
11.7	0.0120486188590862	-0.00836557418373686	5.36269384542345E-06	-2.92610964229794E-06	-4.44088571954183E-06	1.67041494546543E-06	0.960287000190119	-0.279377781611783
11.8	0.0117251965786061	-0.0100658828027984	-4.58261535241318E-07	-2.56561898300628E-06	1.09208601643618E-06	1.33576514488996E-05	0.959737324745986	-0.282593442285546
11.9	0.0112775077794784	-0.0121806078033178	3.35391637775981E-06	1.99871542272444E-06	8.34588356073854E-09	1.28330009102296E-05	0.960970261982587	-0.285528507299548
12	0.00927843731459065	-0.0146600095980069	2.02077875191845E-06	4.80968043282359E-07	-3.73072577283338E-06	-9.65235862892758E-07	0.961069953339449	-0.291341662808563
