# GHZ S RI R 50
0.2	0.000319013347383585	0.00304201293005705	6.31432847715766E-06	-1.00118564126664E-06	1.06688559957837E-05	1.05211420383656E-05	1.0006442617814	-0.00637753996491622
0.3	0.0010712369211914	0.00295240952391839	5.82056309214747E-06	5.04939273822922E-06	8.10514976571953E-06	2.9647366689083E-06	1.00071966261573	-0.00931970530174563
0.4	0.00159693114578095	0.00308588752144998	-2.71847534281068E-06	7.88296846814681E-06	-4.79401248645068E-07	-4.43945266827303E-06	1.0011635177145	-0.0119925243199514
0.5	0.00252580017496507	0.00300884368357609	2.31260615933682E-06	1.48110113340816E-06	7.52447024154117E-06	-1.05679415979413E-06	1.00126438360129	-0.0159578347466952
0.6	0.00256332865990304	0.00239921421344064	3.22120482773777E-07	3.54427511032116E-06	2.74748073651129E-07	-7.67055843547495E-06	1.00045522024622	-0.018893428804142
0.7	0.00238510537477309	0.00253160166102462	4.17330356152722E-06	5.06805284669195E-07	-3.90182210197593E-06	-5.21127380961554E-09	1.00014364140689	-0.0213334593865212
0.8	0.00244253897189425	0.00275513809432898	-2.89521722746219E-06	2.96930086822008E-06	-6.83660512297724E-06	1.31992505863356E-06	1.00016534331555	-0.0232575900376937
0.9	0.00234933327754396	0.00313509380136624	6.05194823423466E-06	9.03603420630023E-07	-7.35979662922918E-06	-1.83980592462489E-06	1.0003150477922	-0.0253389230484954
1	0.00298531503034502	0.0039792250964651	2.36780121498736E-06	2.95284062148944E-06	-9.07114349847898E-06	-2.59614485451012E-07	1.00109162502271	-0.0268801326843128
1.1	0.00368951082898895	0.0033264825593116	6.45676551759934E-07	3.54112687583418E-08	-5.31466623351752E-06	1.40907250578182E-06	1.0008869582188	-0.0300270757985129
1.2	0.00341402009607971	0.00273677163241585	-5.30926533253532E-06	-3.295431487569E-06	-1.12197280731786E-05	-1.26842652290851E-05	0.999831153748928	-0.0313400909990919
1.3	0.00295050964101549	0.00196943266955181	3.06003072355215E-06	3.1085426311899E-06	6.97151396363605E-06	-4.10056583845742E-06	0.999547822223044	-0.0325731322460665
1.4	0.00237086406001966	0.00124410660025826	-2.80630026736073E-06	-1.11247679102428E-06	5.72488063603271E-06	5.55396036129753E-08	0.998779631021806	-0.0348059662599065
1.5	0.00264055778816798	0.00077527027063587	1.23980449818104E-06	-2.54005780834232E-06	8.06497301146046E-07	2.5160100866781E-06	0.999465692787917	-0.0382530035903412
1.6	0.00218107409892161	0.000410559423645439	-9.43391444897445E-07	-6.42847314209429E-06	3.18706803488601E-06	-4.25705152765325E-06	0.998622103130179	-0.0418450222497324
1.7	0.00221325213782866	0.000921802137164346	3.41441677451945E-06	6.30033081423747E-07	2.24549853223974E-06	3.85846555264831E-06	0.99897705050653	-0.0439841367693215
1.8	0.00247417421401194	0.00139400041898399	-2.37915390808128E-06	2.90803470680835E-06	-1.02232489553883E-06	-4.00573015966051E-06	0.999031473468892	-0.0464908528643792
1.9	0.00283565518460282	0.00185360561654977	-3.74299282190603E-06	-1.76078477596479E-06	5.64607479987148E-06	3.02931827316476E-06	0.999190365385029	-0.0480582227296903
2	0.0039547135619881	0.00193924969346281	-6.20488603806287E-06	-5.76930721032183E-06	-2.08113758235003E-06	9.1918783209378E-06	1.00093061456656	-0.0507421698598921
2.1	0.00393209566665915	0.000963664726248031	1.18759038138006E-06	4.62216869757931E-06	4.51043185519975E-06	3.99716412030531E-06	1.00040221853073	-0.0553830237357059
2.2	0.00348599450355911	0.000862118758529612	6.61090502600479E-07	9.08269826706778E-07	-3.6719119001391E-06	-1.09676563385165E-05	0.999372082868144	-0.0580273756820104
2.3	0.00310092120099284	0.000893238008078471	-2.28251894508643E-06	3.57877155224319E-06	-5.4507637244773E-07	-2.8039940728699E-06	0.998575090517475	-0.0598043425091174
2.4	0.00260441961958812	0.00128369799433141	-1.5665953218885E-06	-1.4554906955954E-06	1.28522430140256E-06	-1.00622737813345E-06	0.998248812537691	-0.0627805770962152
2.5	0.00296602122737158	0.0020497055135431	7.8255678167477E-06	4.04135806409946E-06	-2.38179238806624E-06	-7.2397381641042E-06	0.997930866294531	-0.0650537720682708
2.6	0.00328587153310367	0.00165290085096501	4.95296997712186E-07	2.12053530147057E-06	-1.45420624369794E-06	4.70188066436905E-06	0.99760287074286	-0.0680701108664119
2.7	0.00320688616569091	0.00161909367986919	-7.86860589708844E-06	5.28087702689737E-06	2.57289127709083E-06	9.73684525290667E-06	0.997294720271796	-0.0711110856479507
2.8	0.00324812110563484	0.00172917287728179	-7.73599425179353E-06	8.00572945167204E-06	6.1053768839836E-06	1.99499794164154E-05	0.997337092162691	-0.0733818428123699
2.9	0.00347866612000552	0.00202229413483517	-1.18957074166E-06	8.67313797609091E-07	-8.15402823877432E-06	-2.93635946792774E-06	0.99689887320405	-0.0756045210048575
3	0.00451758658494575	0.00204908133047877	-6.3120474813346E-07	-4.47957278012334E-06	-2.16101851289747E-06	6.4628676988546E-06	0.996722295370883	-0.0782719743127784
3.1	0.00470630944188622	0.00121098107881586	-2.59420168300428E-06	1.0028760870947E-07	1.10272637134294E-05	-3.58170267675078E-06	0.996104262697523	-0.0805962628955544
3.2	0.00463639966844656	0.000988268714451644	-9.80947819603626E-06	2.59933963137424E-06	1.22102366928838E-05	4.21590151315757E-06	0.995578766379361	-0.0825611745601219
3.3	0.00458335158338001	0.000740282715868602	-3.46988392147234E-06	9.53355408475163E-07	-5.0205651622101E-06	-1.17416162954352E-07	0.994932491912855	-0.0860630640986209
3.4	0.00441937616271614	0.000785368919550806	5.35569101516703E-06	4.56648020606412E-07	1.35288903825296E-06	4.39538559512472E-07	0.994055191413779	-0.0881577906906763
3.5	0.00500950310273133	0.000696752079653763	2.77658491163052E-06	1.54403330103628E-06	1.31650853535846E-06	7.85700394787927E-07	0.99347247026998	-0.0900564010149019
3.6	0.00465975504447592	-0.000245666618514215	-7.15219746748989E-06	-9.91680146163376E-08	1.84902900317659E-06	-3.50791487119251E-06	0.993535649903205	-0.092806115823933
3.7	0.00392314638675714	-0.000279395692974142	5.7712329562893E-06	-1.5429215049516E-06	-3.34185895544763E-07	-1.73151345623408E-06	0.992878001051625	-0.0956711320666787
3.8	0.00348664637527664	8.99248223884746E-05	-1.99749000325886E-06	8.87397967989399E-07	-5.19162214454906E-06	3.26106231376977E-07	0.992037078472653	-0.0974435147112946
3.9	0.00345199305181323	0.000836047230218291	-8.35427753336945E-06	1.82021681952868E-06	-4.12334404201369E-06	-1.4791937827968E-06	0.991876642572692	-0.0996064955206971
4	0.00465946191906496	0.00121774898942958	-5.82849059595148E-06	3.95101289033756E-07	-9.54547511363987E-06	-8.41357266869532E-06	0.993653765723569	-0.101007869872882
4.1	0.00498763910299301	0.000212288703003651	-3.9637022866527E-06	4.09105097782576E-06	-1.84746481799067E-06	5.59444813633785E-06	0.992759806971008	-0.105134436259007
4.2	0.00474638964519328	-0.000167225911690343	4.59100322345506E-06	-4.41050704150693E-06	6.75453217862814E-06	7.13363903218355E-07	0.990940138316563	-0.107788536950419
4.3	0.00450696008517616	-0.000280573906104405	-3.78556852324661E-06	1.14842472630149E-06	3.53829635143042E-06	-1.22612259477468E-06	0.990181731047126	-0.109526171819119
4.4	0.00426001679873239	-1.45123878480617E-05	-3.17520754099608E-06	-4.91000329589684E-06	9.22559070183737E-07	-1.04077221130739E-06	0.989463743067636	-0.11157101634343
4.5	0.00504259889678319	0.000275002410781591	-1.37378377175495E-06	2.03516138119856E-06	2.07907105629371E-06	-8.46854518217845E-06	0.989093544602281	-0.114234122773018
4.6	0.00503672515773974	-0.000765357128330405	5.43018274079486E-06	9.52680013540653E-06	-1.40890328307191E-05	9.8583404770921E-06	0.987468602530836	-0.116787312316222
4.7	0.0045499608026562	-0.00106756516980167	-7.60735286363347E-06	-9.48671907403592E-06	-1.14114000224535E-06	-1.28837744709564E-07	0.986886488702093	-0.118095781813612
4.8	0.0041405192954669	-0.00112395445220055	-8.71894893559633E-06	-2.63930045303923E-06	-4.34196891646909E-06	4.54332703708096E-06	0.986246186427399	-0.12015747048929
4.9	0.00386514892526485	-0.000838975296756537	5.78256402997023E-06	8.25666728011077E-06	-7.21134567055445E-06	3.29614121847494E-06	0.985631019674706	-0.121625451390797
5	0.00465874432989102	-0.000832596289376201	4.22532097019604E-06	-8.51549973610065E-06	-4.29394137951635E-06	-6.13243761971525E-06	0.985308947261555	-0.122979626451868
5.1	0.00441043885302222	-0.00180535069417641	1.51195495691632E-05	-1.02367560513097E-05	3.44910037660361E-06	-8.69218188342642E-06	0.984934818706784	-0.124042586160263
5.2	0.00396909130540233	-0.00183845625477023	-4.22522948969533E-06	-4.6846596900339E-06	-3.14828669825765E-06	5.29254708220392E-07	0.984511915362894	-0.125810309083908
5.3	0.00387529889046669	-0.00168839961300042	4.7633097859156E-06	3.34710868755197E-06	-9.26467496617742E-06	-4.70160735460934E-06	0.984250378216453	-0.127829891473373
5.4	0.00401063508877724	-0.00134484764203459	5.15577512082245E-06	1.17989124773038E-06	-4.44520650131859E-07	1.04016728380767E-05	0.983836294124256	-0.13045379321652
5.5	0.00520259524164747	-0.00164395769953899	-1.80312487683309E-06	-1.96493873811084E-06	8.82321056977059E-06	4.92312623988402E-07	0.983537377380182	-0.132243281983197
5.6	0.00450505735302767	-0.00316705230531773	4.22244292424095E-06	7.18458597085101E-06	-4.64908760133671E-07	-8.56147857333193E-06	0.983592013324874	-0.134870416761911
5.7	0.00328132400658183	-0.00319772534341854	2.0436770564899E-06	-7.18141338971314E-07	5.44066548371696E-06	2.43955234254711E-06	0.982885748599856	-0.137048628220664
5.8	0.00230363163446102	-0.00277092535750267	3.88930896922083E-06	1.95091765097947E-06	2.71415368833738E-06	7.79028400492573E-06	0.982468411869152	-0.138389334758034
5.9	0.00141578476772572	-0.00159813134129025	-3.75843737737779E-06	-3.04733979068878E-06	-4.67207211014463E-06	-1.7779852951218E-06	0.982606200925729	-0.138857480623011
6	0.00233869547474476	-1.3915846863119E-05	-2.07389317697805E-06	1.69658166679855E-06	1.04081204630427E-05	-2.63793566830826E-06	0.985836375426214	-0.140449550052249
6.1	0.00298907449335773	-0.000714568348125776	-7.30562737170153E-06	-1.09827080409927E-06	-7.24008376185473E-07	-2.47576157921486E-06	0.985326876826993	-0.144639255933369
6.2	0.0027548038040397	-0.00100385174781488	-1.05691407450877E-06	1.98180870361421E-06	-3.47175490690969E-06	-5.34089786547582E-06	0.983940231943926	-0.146110554061547
6.3	0.00248501858415109	-0.00127323100679485	1.57129341226244E-06	2.81901597253181E-06	1.14274032794549E-06	5.94821314715488E-06	0.983226879310785	-0.147742074620157
6.4	0.00215003246158511	-0.00117991256199104	2.0615009967653E-06	5.01845250416505E-06	-3.32091821916832E-07	2.2643553567682E-07	0.9831630969642	-0.149426740480195
6.5	0.00295515253132885	-0.0017453578025655	4.64589913471893E-06	-1.87711427728949E-06	-4.67243854049751E-06	-1.53542517671984E-06	0.983065160157703	-0.153820241856297
6.6	0.00176792738641571	-0.00284303861096028	3.2360529978613E-07	-1.06239293788398E-06	9.23952779127706E-06	3.31503067541701E-06	0.980222759592353	-0.155632163949968
6.7	0.000870121501255581	-0.00244926846841744	5.18484111019694E-07	5.57780206383685E-06	-1.78521703236511E-06	4.94012827417636E-06	0.97984235144057	-0.156222539739099
6.8	0.000299217747670405	-0.00192505239889635	1.78342067086576E-07	-1.57663369169555E-06	-3.444612198745E-06	-5.09712616326377E-06	0.979761819311223	-0.157489664770118
6.9	-9.11880209147898E-05	-0.000816280632254996	-6.62658705674209E-06	6.66163108329398E-06	2.27076520354179E-06	1.35310334301244E-06	0.979946063297774	-0.158534103285239
7	0.00142539275001587	-0.000223945796993461	8.02697800165983E-06	3.17458245226882E-06	4.52496344880569E-06	5.84730781729834E-06	0.981146664134237	-0.160277037297303
7.1	0.000839564757383389	-0.00154079532906921	1.38618966488397E-06	7.84695900707104E-07	-2.24547326039348E-06	-4.46202205365321E-06	0.980203282585156	-0.163120923843101
7.2	-0.000357204181273302	-0.00124388180797237	-1.513242272363E-07	4.37545395576726E-06	-4.9839807174062E-06	-6.73480419519174E-07	0.978842044285838	-0.164586758891097
7.3	-0.00143759277532019	-0.000517694997383792	1.36310470946183E-06	-5.23141473823534E-06	-2.32611024025154E-06	-2.78286853752711E-06	0.977190498633294	-0.165944151980595
7.4	-0.00268950914882206	0.00101798765030139	1.81016278522116E-06	4.39782247844809E-06	-7.19597426896866E-07	-1.06451617756986E-06	0.974644029996367	-0.1669226993959
7.5	-0.0018204185235646	0.00335360888790847	-5.68691755117769E-06	-1.51331250436318E-06	-1.51313067175567E-06	-8.83915113177664E-06	0.974845461690301	-0.165060357969705
7.6	-0.00117484024102966	0.00316619637338785	5.61460432348785E-06	-3.32760367903012E-06	9.94336065421409E-07	3.17872279957146E-06	0.977214841909936	-0.168459400923524
7.7	-0.00122942566968498	0.0037332421456752	-6.44904591823423E-06	-2.89201719671342E-06	4.31428507573086E-06	5.6704972097E-06	0.977333294436755	-0.171795549295871
7.8	-0.000780087237652166	0.0041560205881644	-1.03809270245577E-06	-5.33736428944423E-06	-2.20749989892937E-07	1.13617867421877E-06	0.977670299937859	-0.174580601704831
7.9	8.90258780094428E-05	0.00470171634173016	-3.39698565067446E-06	7.14841118041065E-06	5.3079015344393E-07	-6.84577147322906E-06	0.97871238427508	-0.176395682091181
8	0.00234954820896678	0.00382109490203886	-3.07743464365474E-07	7.37741919724534E-06	1.8158666687184E-06	-4.43655344897234E-06	0.983142578732087	-0.180132461902012
8.1	0.00182515944597346	0.00209502225956468	-6.88812924877923E-07	-6.47872773143977E-06	-1.7416943927066E-06	-1.07802468459985E-06	0.982101141962002	-0.186763793677771
8.2	0.00118178475262454	0.00200422543100055	-3.84289355858745E-06	1.62671664520214E-06	-1.09630195075846E-05	-2.69578608798734E-06	0.980685646340576	-0.189586893072602
8.3	0.000739719562508262	0.00228090059030682	-5.48913024574448E-06	-9.9131886156606E-06	-7.81976293115195E-06	2.97180937101758E-06	0.979881540914142	-0.19218567270575
8.4	0.000456352770126309	0.00339763873066789	6.82360338144354E-07	-6.07487835927372E-07	-1.42224047691521E-06	4.33080296804765E-07	0.979485643583588	-0.194711128388701
8.5	0.00226207253345705	0.00417017464884794	-1.75371180952369E-06	-2.65514180054237E-07	-1.61901358679918E-08	1.80609966566364E-06	0.979160317413272	-0.198247498285991
8.6	0.0022443835819069	0.00286745377798114	2.45319780356518E-06	-3.96036250979621E-06	-4.53112945974341E-06	-5.95436200462394E-06	0.978014818665731	-0.200791574652382
8.7	0.00156837994800808	0.00309244507969434	-1.48710720085069E-06	-2.10809832727074E-06	-3.58868607915209E-06	3.61992023909445E-06	0.977838069559082	-0.202905025058799
8.8	0.00120169491089526	0.00380710555254955	-5.49830320379092E-06	-2.16463140309265E-06	-7.24549094131332E-06	-1.32262350628807E-06	0.977886326697175	-0.205000929710295
8.9	0.00115789793620326	0.0051729769819596	8.56555429912315E-06	4.16732005854957E-06	-1.44350213703675E-06	3.20404289780925E-06	0.978324661687712	-0.206878913969231
9	0.00327562839969071	0.00643771250261445	-5.24911706390256E-07	4.17518112755228E-06	-7.85650271486505E-06	1.19148583972237E-06	0.978853249346967	-0.20882138012239
9.1	0.0045102368848536	0.00554114857378739	-2.60742722424242E-06	6.65218749464738E-06	4.1424846549948E-06	-3.07226906194642E-06	0.979690667498425	-0.211142478199267
9.2	0.00544473913591815	0.00525752504700741	-1.20022037542507E-06	3.43753500995206E-06	-2.24797975668439E-06	-2.08046046581116E-06	0.980101349993806	-0.214387434861306
9.3	0.00646293748713649	0.00464673476237758	2.35385427445328E-06	-4.05377164407401E-06	-7.90377072671679E-07	-1.79368793151782E-06	0.979880146592114	-0.217906946368943
9.4	0.00726857092159245	0.00419411669867472	-1.81917488202939E-06	3.907728028068E-06	-2.06634944762627E-06	-3.60175657175115E-06	0.978517477264505	-0.22124071226713
9.5	0.00900782105748787	0.00299978623774437	3.47612644720129E-06	6.32909526103176E-06	3.77593800457672E-07	-2.15438608747936E-06	0.978274821755472	-0.222868998678249
9.6	0.0082291310654541	0.000850638614505297	4.6025968010966E-06	7.13370195632814E-06	-8.33625962143552E-06	1.28135491765681E-05	0.978603016261777	-0.227092463194653
9.7	0.00724373967980159	0.000500600797085901	-2.88845095719363E-06	-1.55618789398566E-06	-1.37308763858777E-06	-3.99783403303079E-06	0.977700443381069	-0.230291264676507
9.8	0.00655725957700628	0.000597211654655814	1.49527769833851E-07	-3.61439435761059E-06	3.04894453729277E-06	2.42878742692314E-06	0.977084324757185	-0.232339472098147
9.9	0.0060920893564729	0.00154386932496462	5.83888998432003E-06	-5.81310178402415E-07	-2.62649846765177E-06	6.75220222599589E-06	0.97700326805299	-0.232801736377498
10	0.00779019925001749	0.0021350366012305	-1.1492723655385E-06	-5.90570395887876E-07	1.38363941491133E-06	-1.19045453473018E-06	0.98073011553592	-0.235433222725403
10.1	0.00784127845057986	0.000711155818466286	7.40861500596109E-07	-8.49261160478195E-06	6.20199431843328E-06	3.65524941777753E-06	0.978897714277658	-0.240701801971412
10.2	0.00735148132163686	0.000635640043589182	7.53944958629894E-06	8.40351322699974E-06	5.26060008750142E-06	3.57039095793274E-06	0.977088392330151	-0.242350263515165
10.3	0.0071441259758465	0.00096461533213506	1.78353312116741E-06	-7.00962489340429E-06	1.43227886290819E-06	2.89362194823965E-06	0.976004039448914	-0.244122013430924
10.4	0.0074189452821064	0.00199787131804857	-4.05703418138991E-06	-3.67478222669151E-06	1.97674794911139E-06	-5.6418079637001E-06	0.975360075615942	-0.246253570696562
10.5	0.00985280427512688	0.00236794961046187	3.69976631661635E-07	-7.11945567256896E-06	-5.76839902176597E-06	4.10861305415105E-06	0.974472280802825	-0.250163487601614
10.6	0.0109116071571784	0.000848299556865616	5.52405192274193E-06	6.7744509071754E-06	2.44884186676043E-06	1.20047623459541E-06	0.972576751751182	-0.252230145739016
10.7	0.011690309631439	-0.000163074633078972	-7.12241258493471E-06	-1.70072551794359E-06	-7.78126257708146E-07	1.56957336480372E-06	0.972548363012921	-0.254816548939622
10.8	0.0120682772618796	-0.0014795382407716	1.49933259373942E-06	4.47240209969878E-06	9.47626048589865E-06	-4.50507992332496E-06	0.972191811871831	-0.257701430881927
10.9	0.0120259785578706	-0.00207986446403843	3.38911568226793E-07	7.47354827515328E-06	-5.19991892370481E-06	2.17156212603889E-07	0.971712560783298	-0.260343740503687
11	0.0137656530934496	-0.00307838694392725	-2.24927935516744E-06	-3.84525497434145E-06	1.21124200571995E-05	-3.60835309342391E-06	0.971367858096181	-0.262431412379369
11.1	0.0133510431441183	-0.00573962614827551	-6.17102243074343E-06	-4.95249646758153E-06	9.70369886775205E-07	5.61347402769993E-06	0.97056133433926	-0.265040526274223
11.2	0.0124276175064599	-0.00700071912352471	3.35197381840547E-06	4.32427035592623E-06	1.0453877336731E-06	-7.93649454219319E-06	0.969394915195068	-0.26757841575313
11.3	0.0116104249972471	-0.00788561510921144	7.06127198711754E-07	-2.67838417854426E-06	-4.83368309556089E-06	9.19606488293892E-06	0.967879360341299	-0.270239420167751
11.4	0.0107743342588466	-0.00810668992475652	1.47320284156673E-06	-2.2215692387183E-06	-3.06431559757911E-06	-7.46036726379679E-06	0.965062804771336	-0.272960018621569
11.5	0.0118017089480871	-0.00895366495103974	9.4856762412202E-07	-1.01692224232283E-06	-9.08300934542675E-07	-8.72109994086601E-07	0.964588762605216	-0.273584790983414
11.6	0.01062699258425	-0.0114709716891694	1.12817763667772E-05	-3.33193817693304E-06	-5.47716787219885E-06	-6.85462376804528E-06	0.964407845453282	-0.278792134478186
11.7	0.00886537102228139	-0.012292909859438	5.34556806991546E-06	-2.93797006614392E-06	-4.42899726806422E-06	1.68138900990617E-06	0.962150866401936	-0.283154429412881
11.8	0.00745473144465111	-0.0123326777112979	-4.65336583498255E-07	-2.5590447123695E-06	1.13151682806358E-06	1.33274545438162E-05	0.959878437993301	-0.286386734080625
11.9	0.00696440281215195	-0.0113791199608952	3.3486889526891E-06	1.98854862236687E-06	2.82355505003827E-08	1.28011211094963E-05	0.959114254586786	-0.286535754535002
12	0.00901393303412547	-0.0118614039435299	2.02245225607302E-06	4.80374079229457E-07	-3.73385127989029E-06	-9.64194749575414E-07	0.96290550533064	-0.289519356595378
