# GHZ S RI R 50
0.2	0.000608711531792567	0.00345500731400709	6.30663453891693E-06	-1.00633893729837E-06	1.06678805090417E-05	1.0499460329195E-05	0.999655735734698	-0.00711806556056364
0.3	0.00123873462172226	0.00313787691684741	5.81772452236775E-06	5.03867421357572E-06	8.09790582486936E-06	2.95464943916008E-06	0.999479113708702	-0.0100936085281355
0.4	0.00168150738066654	0.00303950844718678	-2.70945065289617E-06	7.87283059280931E-06	-4.81463712915224E-07	-4.43248323488835E-06	0.999579106884191	-0.012754143469659
0.5	0.00205441373394536	0.00298679922682793	2.30933424765135E-06	1.47901137118017E-06	7.51383481376647E-06	-1.05528697380203E-06	0.999505386757631	-0.0160565223367432
0.6	0.00229403501588223	0.00296929172940109	3.23041191013831E-07	3.54073811591446E-06	2.7181628206889E-07	-7.66324146132336E-06	0.999526698573048	-0.0191363722388678
0.7	0.00245829354395482	0.00307575531412097	4.16839199472644E-06	5.03516378619734E-07	-3.89693209798215E-06	-2.72402557439845E-09	0.999142574120665	-0.0222067092163729
0.8	0.00273245204598138	0.00319935524986376	-2.88858100168533E-06	2.96665860099955E-06	-6.82492403295164E-06	1.3226402995719E-06	0.99882158836278	-0.0244865140512185
0.9	0.00294114686513142	0.00328490105882847	6.04059113925485E-06	8.9734953873341E-07	-7.34653110534017E-06	-1.83072862017283E-06	0.998468808566637	-0.0268933568614715
1	0.00320482625275544	0.0033361284160295	2.36276416727803E-06	2.94446708731872E-06	-9.04802473734805E-06	-2.55813826986555E-07	0.998053750422427	-0.028307821208737
1.1	0.00331808792520213	0.00312451167640751	6.44064728677643E-07	3.53560768245268E-08	-5.30148625657943E-06	1.40528644816796E-06	0.997733835334378	-0.0302369586399028
1.2	0.00317076961573849	0.0026492690325694	-5.29492125881167E-06	-3.28760825237542E-06	-1.11885756409673E-05	-1.26527998773761E-05	0.997048326672541	-0.0312731837452614
1.3	0.00265251221330632	0.00186909906901247	3.05055289042354E-06	3.10145453040777E-06	6.9544891771115E-06	-4.08671893167334E-06	0.997028874911739	-0.0323771689647868
1.4	0.00202851180517871	0.00118731215398707	-2.79867026535181E-06	-1.11171419703937E-06	5.71085759180479E-06	5.9391929992464E-08	0.996675076057126	-0.0346205940841672
1.5	0.00187165517547053	0.00107368801733446	1.23906010849704E-06	-2.5336356843818E-06	8.02845280937558E-07	2.51119496564277E-06	0.997476581387254	-0.0379581692730637
1.6	0.00199625348365317	0.00131632232962323	-9.36088808865644E-07	-6.41625936214365E-06	3.18419236587461E-06	-4.24576489631656E-06	0.99731763619187	-0.041551140690071
1.7	0.00239738649966869	0.00162098613830255	3.40710976197945E-06	6.31871253870657E-07	2.23758469789273E-06	3.85287740499384E-06	0.997666974680269	-0.0440621420136948
1.8	0.00277594300426325	0.00187526451394678	-2.37727720921309E-06	2.90026799697326E-06	-1.01667129470296E-06	-3.99899738129415E-06	0.997592773294513	-0.046693925599205
1.9	0.00310570245832459	0.00194094716444993	-3.7347609838621E-06	-1.75965104020484E-06	5.63343394164114E-06	3.02689235779562E-06	0.997538181342075	-0.0487117150130378
2	0.00341129510904535	0.00196184502356044	-6.18314321666716E-06	-5.75409113818577E-06	-2.07865423456476E-06	9.16246314315136E-06	0.997553626278045	-0.0512048498392197
2.1	0.00350489612152252	0.001816493633435	1.17529602092852E-06	4.60928708290758E-06	4.48845989813395E-06	3.99237616491048E-06	0.997487714730755	-0.0538764531098744
2.2	0.0035093432039534	0.00181035153290799	6.57246293132408E-07	9.07240766278728E-07	-3.63736594105578E-06	-1.09456267748293E-05	0.997396508286578	-0.0564217605082538
2.3	0.0034849143205777	0.00173314438297503	-2.28541090388249E-06	3.56427923672916E-06	-5.36948393168266E-07	-2.79826368148835E-06	0.996942793114762	-0.0583387281991885
2.4	0.00334693394105245	0.00167041266429065	-1.55895988572106E-06	-1.45625877406079E-06	1.28488679165665E-06	-1.00037942227804E-06	0.996744825305149	-0.0613557994818316
2.5	0.00316057311399337	0.00167378431527103	7.79869574122689E-06	4.0585767524905E-06	-2.3547609775119E-06	-7.23407827554013E-06	0.996486383960614	-0.0633978430058584
2.6	0.00297828853005934	0.00171891329548083	4.88825838360458E-07	2.11906422447052E-06	-1.4651504988807E-06	4.69162481730417E-06	0.996634634339916	-0.0662822760082111
2.7	0.0029110598760633	0.00189560551302857	-7.8706409175082E-06	5.25234276581742E-06	2.54352351464817E-06	9.72898397319488E-06	0.996473895283736	-0.0693759416202301
2.8	0.00303727725599024	0.00211418170392741	-7.74573709458865E-06	7.9706939970506E-06	6.03908941202021E-06	1.99341565766772E-05	0.996599057548598	-0.0715354768671968
2.9	0.00331895757099349	0.00222479405924324	-1.19032344278937E-06	8.62106528631265E-07	-8.13112832419294E-06	-2.95721489655324E-06	0.996205564589365	-0.0736592518817556
3	0.00370909876353182	0.00227862197675044	-6.15744635978175E-07	-4.47552898755255E-06	-2.17913988593338E-06	6.44702190610108E-06	0.99596510473133	-0.0760869975394264
3.1	0.0040328693896468	0.00217291032120761	-2.59013582944934E-06	9.18616518348865E-08	1.1020023405791E-05	-3.54055251685101E-06	0.995494199186042	-0.0781135018480212
3.2	0.00427745027917265	0.0020827729665716	-9.80131380422316E-06	2.5587838001533E-06	1.21728241883046E-05	4.25296038762002E-06	0.995106543442666	-0.0798767541453475
3.3	0.00447874270527416	0.00185127776377328	-3.46824360034082E-06	9.37426537482733E-07	-5.01198352330576E-06	-1.38050277619446E-07	0.994706336938249	-0.0830997878132106
3.4	0.00452428878916976	0.00163358502277722	5.34808383425435E-06	4.81010238828376E-07	1.34946439935687E-06	4.45360326138976E-07	0.994392665275796	-0.0849745851138307
3.5	0.00454275150831987	0.00140362905350053	2.76990726534976E-06	1.55529143588376E-06	1.31312159249321E-06	7.91032251851767E-07	0.994265669094244	-0.0874047456039181
3.6	0.00438221480907828	0.00120940111370407	-7.14803495015034E-06	-1.26423402602495E-07	1.86144436420417E-06	-3.49899921234036E-06	0.994233274699385	-0.0901157432100964
3.7	0.00423052674247514	0.00116692263223541	5.77513379838995E-06	-1.51840048234041E-06	-3.26884244253166E-07	-1.73215163280957E-06	0.993849298915545	-0.0930041549248771
3.8	0.00419517947484416	0.00118526126883617	-2.00109714609598E-06	8.78910433495841E-07	-5.19264299597643E-06	3.0418188547917E-07	0.993176065996258	-0.0949826138116028
3.9	0.00424662163816931	0.00120974818575473	-8.36310925926822E-06	1.78862532871998E-06	-4.11859691885967E-06	-1.49531553904744E-06	0.992824779526684	-0.097684620614261
4	0.00442685682083885	0.00117647590250927	-5.82588296831868E-06	3.73248191172397E-07	-9.50766187179777E-06	-8.44303461493666E-06	0.992891228044979	-0.0984962644532039
4.1	0.00452734420927981	0.00101152510716106	-3.98227328257584E-06	4.07039205575907E-06	-1.87406132134802E-06	5.58357955789617E-06	0.993077036062712	-0.100572449748246
4.2	0.00461150021979354	0.000855584371539482	4.61442440648261E-06	-4.38962822586763E-06	6.75360013807679E-06	7.46825802436546E-07	0.992542324824943	-0.10331216655196
4.3	0.00466409394745764	0.000656168976709692	-3.79384490437059E-06	1.13084906809144E-06	3.5467741347669E-06	-1.20980374463617E-06	0.992371130214535	-0.10533959345258
4.4	0.00457275328754035	0.000427033765420407	-3.15299641755092E-06	-4.93076604496733E-06	9.287334990094E-07	-1.037007066357E-06	0.991973078858081	-0.107538780952436
4.5	0.00440783207422421	0.000275085620579116	-1.3885750156585E-06	2.03124614597746E-06	2.13316727433021E-06	-8.47365932846767E-06	0.992208852796768	-0.109708825359355
4.6	0.00405097849559675	0.000114082664551089	5.40164100687962E-06	9.58678505333505E-06	-1.41868275967533E-05	9.82246094480748E-06	0.992097333422821	-0.11281245169987
4.7	0.00374765519732888	0.00018489366247138	-7.59646600021464E-06	-9.55435125173512E-06	-1.14491400705225E-06	-1.34092163914122E-07	0.992006398097644	-0.115084834906324
4.8	0.00356207424305186	0.000346702425317237	-8.7435821619998E-06	-2.68198055088577E-06	-4.37591392768123E-06	4.54518416788112E-06	0.991514065835314	-0.117828373365082
4.9	0.0035684391380227	0.000509610548257842	5.77738253623717E-06	8.31102008034515E-06	-7.25265214767296E-06	3.28438485444031E-06	0.990940000428959	-0.11974958871592
5	0.00380647526910613	0.00052057715123309	4.27261652099468E-06	-8.54322112471826E-06	-4.29527177237604E-06	-6.17558983434192E-06	0.990711752336257	-0.121207397961534
5.1	0.00405609890874504	0.000383536967458207	1.52135487834738E-05	-1.02493984306328E-05	3.48524661011901E-06	-8.72463277929448E-06	0.990772475004018	-0.122589190734609
5.2	0.00434977096533237	0.000149293008244485	-4.23353817838069E-06	-4.71444648680639E-06	-3.16325829850671E-06	5.24700373058406E-07	0.990392197516116	-0.12486654544595
5.3	0.00456652308080806	-0.000228382879482953	4.77637731498987E-06	3.372515918477E-06	-9.29421541533494E-06	-4.74316522968296E-06	0.990023590957704	-0.127052404320711
5.4	0.00456834757289161	-0.000635774114036261	5.17741821603685E-06	1.19910915286083E-06	-4.74001102796009E-07	1.04504269753769E-05	0.989931886397577	-0.129633751370211
5.5	0.00440671088622919	-0.000943955562448818	-1.81042666082209E-06	-1.97997705550326E-06	8.87531802708918E-06	5.1110945851384E-07	0.989978016837921	-0.132087556773823
5.6	0.00401542619023952	-0.00115632459048277	4.23972606289513E-06	7.22758896278422E-06	-4.60388634276336E-07	-8.60894799469951E-06	0.990105918697959	-0.134902318719579
5.7	0.00363597571534225	-0.00109707895475408	2.05511900052876E-06	-7.20798465852385E-07	5.46854202260725E-06	2.45593261044252E-06	0.989751025793976	-0.137668409920867
5.8	0.00333587269122416	-0.00101484597100591	3.91016050199104E-06	1.96165929958491E-06	2.72833210125519E-06	7.83243363452062E-06	0.989332535051487	-0.139898627479111
5.9	0.00300634733300403	-0.000903232624232217	-3.77958315133991E-06	-3.05822254942953E-06	-4.69633740812821E-06	-1.78184256317689E-06	0.988647888565739	-0.141729604249614
6	0.0026601023657114	-0.000821187747450621	-2.07800689893724E-06	1.70212840021057E-06	1.04324688457536E-05	-2.65108667510595E-06	0.988747883310004	-0.142648462444028
6.1	0.00213867598639681	-0.000827491282746039	-7.32539408640571E-06	-1.1097332357227E-06	-7.23277191686026E-07	-2.48370608628748E-06	0.989076400544766	-0.144145945061669
6.2	0.00155772901340915	-0.000646469563934744	-1.06297309418716E-06	1.9874212282305E-06	-3.47738430399302E-06	-5.36363546044813E-06	0.988764489285043	-0.14554261008207
6.3	0.00118671211061362	-0.000430446574703429	1.57423564603323E-06	2.83086632722812E-06	1.14101559141292E-06	5.97106373088578E-06	0.988471917374958	-0.147503622367929
6.4	0.0009099459608948	-0.000295085701480813	2.06381027802815E-06	5.03737417739695E-06	-3.33427797753742E-07	2.26893309707844E-07	0.988198711896625	-0.149624903072862
6.5	0.000806856323412151	-0.000209161343085771	4.66934122650296E-06	-1.8745393315102E-06	-4.68838397852496E-06	-1.552204762461E-06	0.988407129565778	-0.152725263006986
6.6	0.000603711957743169	-5.49293426560554E-05	3.26760217788662E-07	-1.06851517299053E-06	9.29221592316157E-06	3.34552333968404E-06	0.987904425578791	-0.155841519047586
6.7	0.000587964149474356	0.000243049310556878	5.22825401519148E-07	5.6131733566079E-06	-1.79564400776686E-06	4.97187602111032E-06	0.987501783914919	-0.158315874984474
6.8	0.000573021239082237	0.000486972877211645	1.77796071527522E-07	-1.58680117631394E-06	-3.47182621127273E-06	-5.12572558105574E-06	0.986953679545745	-0.160673089939012
6.9	0.000469289297966877	0.000767649486363688	-6.65512390776259E-06	6.71460254584961E-06	2.28717092081976E-06	1.35727085648441E-06	0.986455903608201	-0.16267190628556
7	0.000477963093359864	0.00112219498779458	8.07957561838367E-06	3.1737685785591E-06	4.56406278341271E-06	5.86970075808033E-06	0.986138959554976	-0.164179746750969
7.1	0.000258083941391355	0.00144110977691408	1.39525352930396E-06	7.85607183504168E-07	-2.26751169865323E-06	-4.48019846370605E-06	0.985908359434676	-0.166141871497399
7.2	0.000186277988485602	0.00196390635351973	-1.42720352196127E-07	4.39875002363822E-06	-5.01159310968242E-06	-6.66310757764376E-07	0.985196533808652	-0.168164444065817
7.3	0.000181705229678283	0.00240001759223919	1.36086546102198E-06	-5.26358726295799E-06	-2.34455436934068E-06	-2.79418132618424E-06	0.984007294265795	-0.170165278309492
7.4	7.88167172232203E-05	0.00270423754581397	1.83097204803967E-06	4.42569227016327E-06	-7.26628274204516E-07	-1.07075120191779E-06	0.982531586486126	-0.172533244502242
7.5	-3.01955721553693E-05	0.00297785335709629	-5.74116905072145E-06	-1.50145229639992E-06	-1.56399678492482E-06	-8.90678264404294E-06	0.981397784647524	-0.174137731913154
7.6	-0.000294836710300737	0.0030562855037454	5.6365170477067E-06	-3.38129904318555E-06	1.01843492404128E-06	3.19590204925573E-06	0.981343816551696	-0.177101755713798
7.7	-0.000680219949142701	0.00334254456422013	-6.50991189934998E-06	-2.87488494899193E-06	4.37642996073364E-06	5.68468580448072E-06	0.980878851770756	-0.180409225251324
7.8	-0.000783849692309212	0.00363289780897945	-1.07986133644468E-06	-5.3655179491183E-06	-2.14751554771954E-07	1.14506600931371E-06	0.980500255325329	-0.183421739599162
7.9	-0.000714303106533361	0.00393299245903562	-3.3588404502615E-06	7.21700351247746E-06	4.78581375538387E-07	-6.88948217334794E-06	0.980345632050323	-0.186055698909865
8	-0.000351775789536456	0.0041895300226708	-2.416309737412E-07	7.3977444664912E-06	1.77998523177685E-06	-4.46355250220899E-06	0.981058447672301	-0.188712973892248
8.1	-0.000175939234709087	0.00447312760830396	-7.36505353190864E-07	-6.47957699319407E-06	-1.75110026271352E-06	-1.06634473319885E-06	0.980692297056382	-0.192346576235261
8.2	0.000170484463270645	0.00482821578613075	-3.8339775546978E-06	1.65359615575529E-06	-1.09872122753229E-05	-2.62309048622484E-06	0.980065072252568	-0.195055060801105
8.3	0.000510901085232411	0.00509795471607494	-5.55361517065131E-06	-9.87643813466868E-06	-7.79966858272462E-06	3.02278609674393E-06	0.979234655585451	-0.197839062794017
8.4	0.000751854451632287	0.00546160126613901	6.78248427488842E-07	-6.11004683364336E-07	-1.41855861878674E-06	4.41078562544272E-07	0.978404772587469	-0.200501478838859
8.5	0.00112266726643942	0.00588370208341879	-1.75537726990104E-06	-2.56938385609365E-07	-7.3055202619615E-09	1.80654890670341E-06	0.977700770071658	-0.203511653665751
8.6	0.00138753745574602	0.00629161318081228	2.42859184391083E-06	-3.97851370122382E-06	-4.57248800597991E-06	-5.92788091376255E-06	0.976894167244758	-0.206288367413614
8.7	0.00191623745182233	0.00684277030783451	-1.50164413347813E-06	-2.09608308263218E-06	-3.56029887913013E-06	3.64406003810987E-06	0.976321358749678	-0.208882777621399
8.8	0.00269556230210488	0.00722698962971289	-5.50524095791145E-06	-2.11959925669599E-06	-7.24312688954193E-06	-1.26588115144705E-06	0.975810527506108	-0.211238564674099
8.9	0.00360377387377023	0.00727532877560648	8.57042650221633E-06	4.09281412740309E-06	-1.41597395707841E-06	3.2050284127652E-06	0.975704944404912	-0.21332719626373
9	0.00456371052270979	0.0070157008650575	-4.94958430596539E-07	4.16495195856057E-06	-7.82252438895714E-06	1.24065842777109E-06	0.975486036384127	-0.215715451990202
9.1	0.0052724294784488	0.00645638532421791	-2.5501023606442E-06	6.64114134444888E-06	4.1031772967174E-06	-3.0874579823285E-06	0.975090895551435	-0.217998957603949
9.2	0.00586252927974	0.00591392452626156	-1.17330712518043E-06	3.42698160217901E-06	-2.2488816761885E-06	-2.05615849029503E-06	0.974542750131202	-0.220648542027394
9.3	0.0063309706710234	0.0053199338688064	2.32118525866413E-06	-4.04471311455997E-06	-7.95360078685484E-07	-1.7804167630471E-06	0.973946449349941	-0.223363594604906
9.4	0.00662169756369331	0.00472195901218605	-1.79461382356503E-06	3.8983818402148E-06	-2.07262814833273E-06	-3.57723171292709E-06	0.972940618164207	-0.226394180003653
9.5	0.00679959347222893	0.00435615515433813	3.49934663673296E-06	6.29032430958295E-06	3.64760402331758E-07	-2.14962248695296E-06	0.97204170932195	-0.228902916653056
9.6	0.00676488488189418	0.0040912558008467	4.62617353241959E-06	7.07547894417483E-06	-8.2232270252866E-06	1.28094477738921E-05	0.971347216554355	-0.232209113828392
9.7	0.00692642495310759	0.00405691955280757	-2.88383975824801E-06	-1.53197065151641E-06	-1.38989474407053E-06	-3.97088456499552E-06	0.970355365188831	-0.234874517613613
9.8	0.0071999106652095	0.00393289253631541	1.27463032836404E-07	-3.597207026412E-06	3.04802679273383E-06	2.39866307029707E-06	0.969717465543365	-0.236838219106675
9.9	0.00744182081934548	0.00380084914469485	5.80092836613504E-06	-6.17069995021385E-07	-2.56590047791407E-06	6.73042151219711E-06	0.969163491509621	-0.238209517369473
10	0.00774641216071323	0.003600166385815	-1.14261464435654E-06	-5.78793311479907E-07	1.36468718323633E-06	-1.18799810803319E-06	0.969746065883991	-0.239955305746282
10.1	0.00788776517692888	0.00334236652353336	7.06500828278122E-07	-8.42460591084377E-06	6.16267680745826E-06	3.60431648337373E-06	0.968790305638181	-0.242658962320618
10.2	0.00819058927553734	0.00321149602820567	7.50559486186363E-06	8.31645225915383E-06	5.23028766017801E-06	3.52739887421679E-06	0.967658906925795	-0.244092275576925
10.3	0.00859865771703043	0.00292073263532918	1.75101314011305E-06	-6.95976452001213E-06	1.42881200787434E-06	2.8672765298231E-06	0.966663131023768	-0.245623786271124
10.4	0.00899014639332408	0.00248031613210071	-4.03071665612277E-06	-3.63706663163552E-06	1.94995950929839E-06	-5.5993222777201E-06	0.965917304440002	-0.247272490674928
10.5	0.00932840057723804	0.00195397556044723	3.66358909204378E-07	-7.0690218906738E-06	-5.72692046415978E-06	4.08028356740555E-06	0.965627614090267	-0.249959108291837
10.6	0.00952879710892189	0.00149314404793324	5.49918484614525E-06	6.7302648736292E-06	2.4360339613132E-06	1.19119130792963E-06	0.9648613592746	-0.252726221656893
10.7	0.00979344789604042	0.00116779065579975	-7.08146450219305E-06	-1.68077998248447E-06	-7.71281914063014E-07	1.56109432426222E-06	0.964191815464463	-0.255744559557731
10.8	0.0102203732955438	0.000769407837091129	1.49424612628303E-06	4.44230345610815E-06	9.41115063571084E-06	-4.48581149375931E-06	0.963395092582722	-0.258046468117895
10.9	0.0105353144255861	0.000283200750075963	3.39219693065741E-07	7.42308419547913E-06	-5.16481367164279E-06	2.17496240203982E-07	0.962909870968271	-0.260181817034071
11	0.0110350237323145	-0.000251744805213809	-2.23316861771505E-06	-3.82097192835443E-06	1.20346450244149E-05	-3.58031228774285E-06	0.962254417456946	-0.262346225925718
11.1	0.0113887264644539	-0.000925577881455557	-6.12497344513932E-06	-4.92402124673207E-06	9.59087400879411E-07	5.5761625749128E-06	0.960721475733574	-0.264341675177454
11.2	0.0119072709621217	-0.0016947344622333	3.32127521018678E-06	4.30055038607164E-06	1.05232754123447E-06	-7.88015962486223E-06	0.959134344983767	-0.265839386560934
11.3	0.0124759347644868	-0.00284800891311789	7.09135353951548E-07	-2.65909516355462E-06	-4.82845531395066E-06	9.12303018433492E-06	0.957859482953739	-0.26715488790302
11.4	0.0126621181810538	-0.00425881467764137	1.47392912775379E-06	-2.20420019024522E-06	-3.01957730112871E-06	-7.43270874018346E-06	0.956300089489189	-0.268823881155201
11.5	0.0126096840374427	-0.00578461289472596	9.4696953273755E-07	-1.01004670575398E-06	-9.02096846807666E-07	-8.70573224387504E-07	0.955731730688821	-0.270344058689667
11.6	0.01215718142474	-0.00740978731935083	1.12278612653779E-05	-3.28094109832083E-06	-5.42676652157275E-06	-6.83173886493715E-06	0.954987750360273	-0.27403033424627
11.7	0.0115719112935001	-0.0089191142402135	5.32688059485447E-06	-2.90156285546236E-06	-4.41068710310933E-06	1.65540979993587E-06	0.953531071520941	-0.277255022121196
11.8	0.0107906286756989	-0.0104093014281368	-4.52634474260039E-07	-2.54770557174939E-06	1.07203465254242E-06	1.32632006984992E-05	0.952487647098144	-0.280102051516235
11.9	0.00986641841904933	-0.0118190814979034	3.32473965416029E-06	1.98829576401454E-06	-1.13927897819793E-08	1.27330998232947E-05	0.952750313194181	-0.281643884782796
12	0.00862231850386792	-0.0130687393538212	2.00414255375137E-06	4.8394539574969E-07	-3.69976125072961E-06	-9.7015613247307E-07	0.95422901453535	-0.284616684619886
