# GHZ S RI R 50
0.2	0.000509352501647864	0.00388711420007352	6.30421647944698E-06	-1.00867002563328E-06	1.06689163304367E-05	1.04916568480338E-05	0.999413039446051	-0.00694927310182476
0.3	0.00119591782252094	0.00351932768967817	5.81675804276175E-06	5.03477090143649E-06	8.09533820093576E-06	2.95094922238202E-06	0.999185228284235	-0.00986570971988957
0.4	0.00170833654399553	0.00328783000771637	-2.70662786729587E-06	7.86786249430659E-06	-4.81699217583472E-07	-4.42943246806421E-06	0.999066484932872	-0.0125258576971185
0.5	0.00189506348058873	0.00331184270160341	2.30755826952288E-06	1.47878904832775E-06	7.50970513211924E-06	-1.05255392825524E-06	0.998656656258678	-0.0153501749693422
0.6	0.00250149618951515	0.00347604613855052	3.22821657081491E-07	3.53905901588215E-06	2.71829315244924E-07	-7.65958933240989E-06	0.998991368003239	-0.018182903251783
0.7	0.00288038750143981	0.00336356507120078	4.16522848830039E-06	5.02984135454506E-07	-3.89395799873222E-06	-2.58362971936723E-09	0.998637640503887	-0.0212373199132224
0.8	0.00322855342737752	0.00330420411610538	-2.8858738490129E-06	2.96362240484608E-06	-6.81828262426361E-06	1.32104795873874E-06	0.998379717304513	-0.0234409761530056
0.9	0.00349163834220336	0.00316531445469927	6.03332865755859E-06	8.97330033035264E-07	-7.33757165064216E-06	-1.82983480559011E-06	0.998223890635263	-0.0259273756141794
1	0.00336906140285415	0.00299168245243434	2.35834273819276E-06	2.94229063129423E-06	-9.03718302051385E-06	-2.60511455629896E-07	0.997654045704062	-0.0276199871228583
1.1	0.003394617717669	0.0033864487310734	6.43579308988192E-07	3.57335021116823E-08	-5.29855165748566E-06	1.40095951557161E-06	0.997381776489098	-0.0292065652893934
1.2	0.00362616380067631	0.00327744084677936	-5.29107822445522E-06	-3.28977871266275E-06	-1.11769110557734E-05	-1.26554453939098E-05	0.997142353646446	-0.0299415805026076
1.3	0.0036150244271237	0.0027735922610985	3.04881479638113E-06	3.10420128738064E-06	6.95864477504998E-06	-4.08235349483708E-06	0.997816550924377	-0.0305814190692269
1.4	0.00344577262421068	0.00188622841934572	-2.79918667457778E-06	-1.11436648388664E-06	5.71357975694325E-06	6.37337182473392E-08	0.998050883968185	-0.0327350058182977
1.5	0.00313430439075473	0.00141672829604461	1.2408168798468E-06	-2.53360436461912E-06	8.01639567132113E-07	2.51231024729107E-06	0.998253122305934	-0.0363344721417525
1.6	0.0032754110927955	0.00124580870014505	-9.32768262442771E-07	-6.41434546407884E-06	3.1849975069472E-06	-4.24273308245144E-06	0.997518637759654	-0.0398508184162996
1.7	0.00330791787116166	0.00111253014102382	3.40386582273294E-06	6.3311784249734E-07	2.23365138023266E-06	3.85075719090965E-06	0.997375805407685	-0.042505274764633
1.8	0.00331871288071656	0.00120680785427597	-2.37610884650702E-06	2.89569480359653E-06	-1.01338368452523E-06	-3.99497690150729E-06	0.996920499553565	-0.0453272397979813
1.9	0.00333012181582494	0.00119116632859642	-3.7288582568619E-06	-1.75841702480824E-06	5.6244040622986E-06	3.02450151498456E-06	0.9964035635064	-0.0478274187004592
2	0.00320009305761226	0.0014593575719913	-6.16649306071141E-06	-5.74406386157424E-06	-2.07831527287488E-06	9.14084572070193E-06	0.994923210529706	-0.0501967809361221
2.1	0.00354800270729431	0.00162730056722102	1.16724286863088E-06	4.60093452131743E-06	4.47412792240552E-06	3.98932913624898E-06	0.994926162877606	-0.0515983212601231
2.2	0.0036684165286488	0.00150540081092422	6.5486777161477E-07	9.06338244234693E-07	-3.61681610032774E-06	-1.09293869592837E-05	0.995211330926842	-0.0539041621897713
2.3	0.00361887291224183	0.00134060230283404	-2.28555873948501E-06	3.55462331546788E-06	-5.32400872010652E-07	-2.79362109371646E-06	0.994966887710125	-0.0557173580736355
2.4	0.0033924397798064	0.00118204506100876	-1.55378825107461E-06	-1.45548166520884E-06	1.28368022294847E-06	-9.96574208115928E-07	0.994913814756961	-0.0587943563694127
2.5	0.00281047854676823	0.00128702398950934	7.77653668042682E-06	4.06400035520328E-06	-2.33779060995634E-06	-7.22399280017954E-06	0.994340663106687	-0.0609159256668328
2.6	0.0027387496724054	0.00184685151796041	4.84358812665439E-07	2.11592735876331E-06	-1.47028393574322E-06	4.68040702677321E-06	0.994240025813166	-0.0634219848288045
2.7	0.00294723285658186	0.00216477382755851	-7.86452980523837E-06	5.22815021760806E-06	2.52134464174693E-06	9.71444746439201E-06	0.994018315387527	-0.0661351428016732
2.8	0.00331863965074405	0.00238736186067675	-7.74617970505484E-06	7.94032255667641E-06	5.98888988414755E-06	1.99073177924359E-05	0.994314853310556	-0.0679448285525675
2.9	0.00375871685213541	0.00236421598605571	-1.19012114345489E-06	8.5803773515851E-07	-8.11062628947532E-06	-2.96965748191103E-06	0.99432177825893	-0.0699383327189899
3	0.0041362779809936	0.00244085896455893	-6.05124976093027E-07	-4.4716554225972E-06	-2.19085077572395E-06	6.4346601048405E-06	0.994417977070162	-0.0724535109306527
3.1	0.0048511919160444	0.00224782324869274	-2.58794166850208E-06	8.64975745094438E-08	1.10171083455146E-05	-3.51483455394791E-06	0.994295263938994	-0.0744009466859287
3.2	0.00520925375755681	0.00178230149128531	-9.80042432605563E-06	2.536854022089E-06	1.2156319105049E-05	4.275501394027E-06	0.994397881022544	-0.0761979381581383
3.3	0.00536078491128397	0.00123208087808709	-3.46928503827992E-06	9.29757389272847E-07	-5.01029953238644E-06	-1.48719308323379E-07	0.994526858568914	-0.0795235614647166
3.4	0.00523235485207995	0.000711189808952106	5.34834106677847E-06	4.92595159541492E-07	1.34883450986357E-06	4.4836158472735E-07	0.994797417096303	-0.0817820048894251
3.5	0.00485199382426295	0.00047708761493979	2.76902878532759E-06	1.56043256199972E-06	1.31262205352489E-06	7.93499102080097E-07	0.994385730640374	-0.0850100225962508
3.6	0.00477084419521921	0.000383583826680132	-7.14875496282819E-06	-1.37778702403163E-07	1.86723459708929E-06	-3.49649699820917E-06	0.993905125197357	-0.0871555981569
3.7	0.00451761856515052	0.000189704568911693	5.77933726281002E-06	-1.50802543368623E-06	-3.23741708412317E-07	-1.73317340130411E-06	0.99394608061901	-0.0896616804678135
3.8	0.00428030378339382	0.000193804809140235	-2.00369093029629E-06	8.75487910181485E-07	-5.19559654902589E-06	2.94397818689631E-07	0.993817388684263	-0.0917073772912354
3.9	0.00412667979279599	0.000288835439549967	-8.37072467115779E-06	1.77521497833495E-06	-4.11826123016E-06	-1.5032095947303E-06	0.993797013883467	-0.0950498463333647
4	0.004071036571378	0.000639074290152888	-5.82713621345429E-06	3.61842379566324E-07	-9.49193315978533E-06	-8.46245709209024E-06	0.993006476933451	-0.0960846079768168
4.1	0.00460143254575717	0.000765162452730351	-3.99547413607399E-06	4.06287168991247E-06	-1.88973950655696E-06	5.58252438882593E-06	0.993567928931984	-0.0974083821379456
4.2	0.00491262067104441	0.000448942360725093	4.63102738186581E-06	-4.38348603048366E-06	6.76000341490234E-06	7.64593883450186E-07	0.993590220243123	-0.100220709144433
4.3	0.0050137886964707	9.95293595761383E-05	-3.80226220008425E-06	1.12362163277589E-06	3.5550029341634E-06	-1.20327835007712E-06	0.993773647530245	-0.102458150026806
4.4	0.00487000964715542	-0.000275485797045567	-3.14654466097095E-06	-4.94599071567019E-06	9.32633671843751E-07	-1.03649982218293E-06	0.99347701831761	-0.104937157717296
4.5	0.00446987855099181	-0.00026838393188705	-1.39652004927562E-06	2.03165948335307E-06	2.159135097099E-06	-8.48479173817926E-06	0.993579042944173	-0.107031307546097
4.6	0.00450475056331831	-0.000239354809976605	5.39232954993669E-06	9.61986283446957E-06	-1.4239824318645E-05	9.8127116819481E-06	0.993581247232929	-0.11003548687696
4.7	0.004424323901523	-0.000412900010841887	-7.5917360733303E-06	-9.59064704425761E-06	-1.14701390050415E-06	-1.36837940097039E-07	0.993520757030667	-0.112159973146007
4.8	0.00428024277893481	-0.000511032196951976	-8.75533555860785E-06	-2.70716201621658E-06	-4.39507503926956E-06	4.54456876287414E-06	0.993188144349	-0.114715732271459
4.9	0.00417067074182991	-0.000622443456847798	5.76911972459649E-06	8.3433833302959E-06	-7.27650915078666E-06	3.27337959113469E-06	0.992992089624664	-0.116595022922526
5	0.0040915779046761	-0.000554673649887924	4.30528879514184E-06	-8.55643869656323E-06	-4.29208919164392E-06	-6.20316263658539E-06	0.993037923886115	-0.118411166721211
5.1	0.00448531638193991	-0.000700847501504823	1.52780147047667E-05	-1.02477894342712E-05	3.51299962571001E-06	-8.74253669053685E-06	0.993116422178515	-0.119922989075928
5.2	0.00458880773738989	-0.00109108282507698	-4.23695862390363E-06	-4.73701987076663E-06	-3.17382211413884E-06	5.2002149904621E-07	0.993045694575182	-0.122261538019617
5.3	0.00460216273744489	-0.00139756442653846	4.78585114930686E-06	3.39305343206803E-06	-9.31617018493457E-06	-4.7770346702477E-06	0.993139624591258	-0.124701948910953
5.4	0.00448915654229738	-0.00172756020026619	5.19581972560299E-06	1.21276383889385E-06	-4.93868694873409E-07	1.04909210398212E-05	0.993536605139014	-0.127953584363922
5.5	0.00419709667408565	-0.00167216564221433	-1.81686445226322E-06	-1.98953436303985E-06	8.91269869690884E-06	5.18898612560405E-07	0.993064090428722	-0.131441654157398
5.6	0.00431038058813397	-0.00190762416021889	4.25207533390277E-06	7.25489803035508E-06	-4.58773580444896E-07	-8.63974242651356E-06	0.992657143796947	-0.133924193947186
5.7	0.00385297064210819	-0.00221862636995069	2.06276216807634E-06	-7.2247059109042E-07	5.48696855635175E-06	2.46707981719981E-06	0.992548613722614	-0.136619579838879
5.8	0.0032312736448836	-0.00221524908736499	3.92434904726828E-06	1.96990147783916E-06	2.73674775977003E-06	7.86238370457678E-06	0.992481619655727	-0.139155851868773
5.9	0.00254285396362524	-0.00193474616173703	-3.79461121814497E-06	-3.06880866550401E-06	-4.71450276224414E-06	-1.78738283778399E-06	0.99197973179062	-0.141882427397484
6	0.00179871119051336	-0.00107899281991363	-2.08509476599778E-06	1.70832491916263E-06	1.04687162127439E-05	-2.66154759469948E-06	0.991129982069354	-0.143147551206955
6.1	0.00217391982225316	-0.000193369605788404	-7.35843103549732E-06	-1.11214865042809E-06	-7.27359500848941E-07	-2.49452745803215E-06	0.992069669455719	-0.144400676826125
6.2	0.00260926369640441	-0.000135806361367186	-1.06541251671346E-06	1.99823917506766E-06	-3.50089996632146E-06	-5.3845217306816E-06	0.992205419193391	-0.146601323489223
6.3	0.00284925278697197	-0.000551901480673008	1.58705828714374E-06	2.84038880775829E-06	1.15826920748326E-06	5.99557557825828E-06	0.991836496454626	-0.149387012834478
6.4	0.00253018598201364	-0.0011848403852443	2.08303740214603E-06	5.05246218053435E-06	-3.3422626769736E-07	2.28518429019004E-07	0.990911971731215	-0.151987922108441
6.5	0.00206454096792994	-0.0012182207364927	4.6844949290976E-06	-1.89042189867026E-06	-4.70980647184491E-06	-1.54989509701874E-06	0.990640408277481	-0.154388125898583
6.6	0.00194407741288441	-0.00148507679190346	3.25346385341247E-07	-1.07352333133966E-06	9.33703897314792E-06	3.3352014322328E-06	0.990387713325085	-0.157640555490921
6.7	0.00150410378547716	-0.00153961625597001	5.40256923240488E-07	5.62990771755043E-06	-1.78752771501074E-06	4.99303078892834E-06	0.989676523056229	-0.160250316416056
6.8	0.00113064568048309	-0.00140250385653641	1.73791482891732E-07	-1.59157751980234E-06	-3.49566006879626E-06	-5.1297219381903E-06	0.988957377447112	-0.162706843564478
6.9	0.000629842784432367	-0.00122862732418934	-6.65285827530067E-06	6.74807487234281E-06	2.2961504584248E-06	1.3543651281811E-06	0.988303621336894	-0.16512380101902
7	0.000199192035992192	-0.000404218933187277	8.10854873624408E-06	3.16093149180469E-06	4.59101605186935E-06	5.87291018728074E-06	0.987271970347964	-0.166897297349928
7.1	0.000437357689538501	-4.80838717074509E-05	1.4014061865652E-06	7.83210464071798E-07	-2.28772820493411E-06	-4.48467672063738E-06	0.986826682883008	-0.16870552885623
7.2	0.000181920063519957	8.39730442570294E-05	-1.26917387668122E-07	4.4095313669373E-06	-5.02572426122543E-06	-6.49480725228852E-07	0.986008283243831	-0.170760205841845
7.3	-0.000298225815399572	0.000387842432477576	1.34219575120645E-06	-5.27993303322479E-06	-2.36075643515255E-06	-2.79035353074555E-06	0.984884630517507	-0.172811273595529
7.4	-0.00104946492577984	0.000736170577151708	1.8555176034813E-06	4.42554765854586E-06	-7.3311461825978E-07	-1.06936971792438E-06	0.983793301675142	-0.175806242706028
7.5	-0.0020575587849188	0.00188130151270884	-5.75446342670346E-06	-1.4676152367565E-06	-1.61931269585722E-06	-8.90372313875901E-06	0.98137243716434	-0.17872644766659
7.6	-0.00184840560037086	0.00318750014867139	5.6120664941516E-06	-3.40948648040571E-06	1.03530143090668E-06	3.18706362284175E-06	0.980190271333133	-0.180545357521128
7.7	-0.0016807222540628	0.00390992233899439	-6.51515183009546E-06	-2.83718348306957E-06	4.39925170987133E-06	5.65383740418589E-06	0.979842910765522	-0.183433615023833
7.8	-0.0011579914312614	0.00435333725303684	-1.10474253544647E-06	-5.35118179416731E-06	-2.08697696208781E-07	1.1442207526578E-06	0.97962511601747	-0.186656756509551
7.9	-0.000591445237605419	0.00453950559677502	-3.3159248187841E-06	7.22022162822428E-06	4.42818785770914E-07	-6.87875596822747E-06	0.979082682665618	-0.190057987614381
8	0.000250135951471433	0.00497013962486647	-2.09393522096544E-07	7.37829034824512E-06	1.75600895375282E-06	-4.45878811735915E-06	0.978147060725461	-0.191938844894328
8.1	0.00131437792113592	0.00452402225169415	-7.56387366274234E-07	-6.46573035396124E-06	-1.7514948585485E-06	-1.058737744775E-06	0.978900203101897	-0.194556910944541
8.2	0.00169972393802045	0.0041087381917984	-3.82412735627209E-06	1.66488533426769E-06	-1.09841394392174E-05	-2.58267402828562E-06	0.978865963991962	-0.197554102908403
8.3	0.00193932120266164	0.00386198752328492	-5.58385003847471E-06	-9.84705508745615E-06	-7.78136679507057E-06	3.04796160683141E-06	0.978216317452704	-0.20061993075769
8.4	0.00192369478213345	0.00375332825213812	6.75351864140433E-07	-6.1270606370861E-07	-1.41543647143333E-06	4.4556591892763E-07	0.977294341206539	-0.203465187985616
8.5	0.00191416101414043	0.00429822146815633	-1.7546622389621E-06	-2.51032663195229E-07	-1.4541409348554E-09	1.80498113094008E-06	0.976555466298619	-0.206245306707251
8.6	0.00257508158390843	0.00441039137963374	2.41251315682201E-06	-3.98256475707789E-06	-4.58779960298049E-06	-5.90609110652261E-06	0.975868569690875	-0.20917420955631
8.7	0.00278340410664312	0.00434053550912464	-1.5061878972749E-06	-2.08851453966189E-06	-3.54400777488554E-06	3.65029088528003E-06	0.975036816837854	-0.211813907228395
8.8	0.00294293875921879	0.00446825385605233	-5.50249716176821E-06	-2.10123338157497E-06	-7.23534701727748E-06	-1.24408201983437E-06	0.974243321242378	-0.214037496041359
8.9	0.00311350213203745	0.0045928614618459	8.56658586512468E-06	4.06902758689462E-06	-1.40724414279195E-06	3.20335314768672E-06	0.973889264668683	-0.215926186636939
9	0.00345608540846036	0.00517677511234363	-4.86312425440953E-07	4.16382657245684E-06	-7.81603689975287E-06	1.25579097422419E-06	0.973426032196521	-0.218021746496671
9.1	0.004603052669385	0.00523527779287471	-2.53170712911824E-06	6.64468470325894E-06	4.09327760270993E-06	-3.09666929579536E-06	0.973067091093341	-0.219927008668004
9.2	0.00547715513277912	0.00487818479856791	-1.16310551118484E-06	3.42847210728009E-06	-2.25345832590523E-06	-2.04879127136962E-06	0.97269776330104	-0.222406746109927
9.3	0.00627210322801621	0.00434607880943082	2.30776101500211E-06	-4.04922960040961E-06	-8.00192006315646E-07	-1.77699212476205E-06	0.97233918821482	-0.225072893283822
9.4	0.00675723905463441	0.00355744871667722	-1.7809202694632E-06	3.90226675089471E-06	-2.08328933970103E-06	-3.56860835531305E-06	0.971601857363059	-0.228416796212112
9.5	0.00706632110652661	0.003366240304874	3.52192375426596E-06	6.26793788949304E-06	3.55183238659998E-07	-2.14860929635885E-06	0.969952909476728	-0.231271888222885
9.6	0.00750804346416372	0.00257218340224077	4.64144488211423E-06	7.04058491471498E-06	-8.15464470823318E-06	1.28088655132959E-05	0.969071520936933	-0.233827387420389
9.7	0.00733548164922763	0.00198750319228043	-2.88082014630516E-06	-1.5185087569935E-06	-1.39880562808197E-06	-3.95550494462668E-06	0.968285780339255	-0.236317644527925
9.8	0.0070804840943364	0.00170787322068888	1.16184335261385E-07	-3.587235275224E-06	3.04652583150174E-06	2.38251016916417E-06	0.967633152477835	-0.238487639736052
9.9	0.00671594364479269	0.00177533781439117	5.77988164935293E-06	-6.33326170525206E-07	-2.5362330659341E-06	6.71634881868066E-06	0.966178448571358	-0.24030765099366
10	0.00665563003602352	0.00250984692559788	-1.13924177088162E-06	-5.73845273977486E-07	1.35641868163241E-06	-1.18621255624933E-06	0.965073829273641	-0.24009132950237
10.1	0.0074938605407866	0.00268755292192655	6.89102843639058E-07	-8.39615671140487E-06	6.14732929876776E-06	3.58070528433061E-06	0.965687272884611	-0.241241663765457
10.2	0.00809854817467654	0.00251730389476585	7.493255291597E-06	8.27228362123033E-06	5.21755239328042E-06	3.50493176344951E-06	0.96537054236873	-0.242723358226201
10.3	0.00864981591628204	0.00218739303901688	1.73274784452267E-06	-6.9335623285095E-06	1.42738854714039E-06	2.85309011526876E-06	0.964576187567345	-0.244425489147805
10.4	0.0089777199403105	0.00178551594694453	-4.01445364874972E-06	-3.61598755894332E-06	1.93564700360719E-06	-5.57401312572718E-06	0.963328625517632	-0.246112833573354
10.5	0.00949355317465129	0.00195868884929455	3.65946901734474E-07	-7.03567369185219E-06	-5.70071650332639E-06	4.06001051783741E-06	0.962592871824471	-0.247656080391015
10.6	0.010698273683864	0.00146233654851937	5.46960646952579E-06	6.69954531076371E-06	2.423645549324E-06	1.18633784176436E-06	0.962003141707103	-0.249695409538257
10.7	0.0116252094128609	0.000597747816464936	-7.04339379374471E-06	-1.67913586398548E-06	-7.68858951616218E-07	1.55230569662406E-06	0.961652193544991	-0.251880065458028
10.8	0.0123199737609133	-0.000647172946644098	1.47946664713542E-06	4.4211108441373E-06	9.3682961408891E-06	-4.44751541459864E-06	0.961364084679472	-0.253822355561191
10.9	0.012368673269804	-0.0019309734869849	3.20795509788208E-07	7.3856126833225E-06	-5.13870022407331E-06	2.0477252709396E-07	0.96102309236575	-0.255830514398818
11	0.0124883547004163	-0.00256462353230142	-2.21456321750883E-06	-3.8099343570801E-06	1.19916926336089E-05	-3.53647333483119E-06	0.960408605117495	-0.257166297325519
11.1	0.0129928725764369	-0.00386052714099536	-6.09021144382723E-06	-4.91503519392633E-06	9.44609081967789E-07	5.55474771794541E-06	0.960195872043657	-0.258660375192373
11.2	0.0129124265445787	-0.00529244635636427	3.29947866019727E-06	4.28866849473631E-06	1.06241152908474E-06	-7.84526641479042E-06	0.95974783086451	-0.260528263727062
11.3	0.0126772876046354	-0.00672615333486137	7.11362336022391E-07	-2.64723829870738E-06	-4.82662305103221E-06	9.07781828550373E-06	0.959540729697395	-0.262792851617204
11.4	0.0119747691102274	-0.00806905876197983	1.47246606962212E-06	-2.19428628263417E-06	-2.99722813478526E-06	-7.41221880564786E-06	0.958519888143169	-0.26615795490166
11.5	0.0112866400841334	-0.00878542569391348	9.43900081493741E-07	-1.00552442770644E-06	-8.98042590733936E-07	-8.67735078918845E-07	0.956136777222385	-0.268708707973975
11.6	0.010934973056783	-0.0101834637196439	1.11801394203525E-05	-3.2513944084788E-06	-5.39292472008042E-06	-6.807093641169E-06	0.955175552736484	-0.271336266439352
11.7	0.00985485746776147	-0.0115146631787453	5.30834573536509E-06	-2.8792723369974E-06	-4.3940211740924E-06	1.64027109949639E-06	0.954110922656344	-0.274792622380137
11.8	0.00857756557757023	-0.0123814289638509	-4.45787058923784E-07	-2.53781977269866E-06	1.04181309112032E-06	1.32092478427995E-05	0.952702466527312	-0.27834313002825
11.9	0.00730975205814642	-0.0127418410383504	3.30592993859826E-06	1.9862102907001E-06	-3.71911887533525E-08	1.26764976831459E-05	0.950880948159128	-0.280231872324811
12	0.00671556320402387	-0.0124388441044024	1.99274858443223E-06	4.88420029651707E-07	-3.67846580549479E-06	-9.7804328630666E-07	0.949954517701534	-0.279681708309174
