# GHZ S RI R 50
0.2	0.000625417989286502	0.00378499438404692	6.30217735675296E-06	-1.00940944827064E-06	1.06674760526963E-05	1.04867814794708E-05	0.99930775505068	-0.00714596423867072
0.3	0.0011915020954047	0.00331808388825425	5.81575858299764E-06	5.03298208037788E-06	8.09357898781403E-06	2.94947533754899E-06	0.999007752491789	-0.0100924720999654
0.4	0.00166116276014441	0.00305363255188248	-2.7050649739718E-06	7.8661861697324E-06	-4.82074480107423E-07	-4.42826395413125E-06	0.998825738718611	-0.0128261594713734
0.5	0.00172005996337261	0.00296681596346302	2.30674184327746E-06	1.47836494711102E-06	7.50722671618596E-06	-1.05197343942448E-06	0.998102524443673	-0.0156193755061579
0.6	0.00223330763433571	0.00328676162452089	3.2251827665418E-07	3.53870129767953E-06	2.72381108320635E-07	-7.65874148755829E-06	0.998500536391808	-0.0181123334538803
0.7	0.00267210318153545	0.00320143700435294	4.16493669536691E-06	5.02828192399219E-07	-3.89367185219611E-06	-2.47221623032644E-09	0.998283761198845	-0.0211223645516456
0.8	0.00304219927958281	0.003138206258851	-2.88540111625924E-06	2.96354495561437E-06	-6.81755665192316E-06	1.3213941051256E-06	0.998115872508397	-0.0232938300861916
0.9	0.00338796492174008	0.0030041633851593	6.03261288749217E-06	8.96524675541176E-07	-7.3367848499698E-06	-1.82875528701246E-06	0.998144144575089	-0.0258143244863037
1	0.00335694801258485	0.00256128953797839	2.35788880775392E-06	2.94114127776797E-06	-9.03437845892908E-06	-2.59555980600024E-07	0.997586312011862	-0.0279436554645166
1.1	0.00316982525129165	0.00286217539136887	6.43334799280208E-07	3.57155967108489E-08	-5.29652725445707E-06	1.40046227386965E-06	0.996896357982874	-0.0296713626125948
1.2	0.00335917242398704	0.00254244336927164	-5.28791195911959E-06	-3.28748346812486E-06	-1.11704766237189E-05	-1.26470243532092E-05	0.996235738849645	-0.0306630692246121
1.3	0.00299064724108623	0.00176542840649603	3.04555815017071E-06	3.10135689407157E-06	6.95205959776229E-06	-4.07778011966663E-06	0.99605364638591	-0.0313971732031344
1.4	0.00246379094003576	0.00102807737003037	-2.79594268181059E-06	-1.1142075318164E-06	5.70773036015579E-06	6.56640770088471E-08	0.995834238777241	-0.0330075506189351
1.5	0.00202266182834588	0.000876151551191051	1.24111773445302E-06	-2.53148928676305E-06	8.00068356823484E-07	2.51107762767062E-06	0.996198109605664	-0.0361172668921987
1.6	0.00247361324752931	0.00117266632584818	-9.30371422976334E-07	-6.41279139022301E-06	3.18547849801763E-06	-4.24044507026186E-06	0.996133296167207	-0.0390277656973234
1.7	0.0028660067958527	0.00108070040850298	3.40341969094571E-06	6.34133717787171E-07	2.23228670513075E-06	3.85117294354629E-06	0.996715006977082	-0.0415726661635462
1.8	0.00311619777152669	0.00112163121729293	-2.37745767987037E-06	2.89529103707982E-06	-1.01214546868305E-06	-3.99590793327631E-06	0.996831863084507	-0.0444445838977095
1.9	0.00333417787157341	0.000927896380655108	-3.73015453917628E-06	-1.7602597202698E-06	5.62625874915865E-06	3.0274577437509E-06	0.996908346930782	-0.0473127794731461
2	0.00303636635354329	0.000868048789600421	-6.16976270629435E-06	-5.74504504328313E-06	-2.07743169418766E-06	9.144538709534E-06	0.995020773290932	-0.0505850373992666
2.1	0.00323951788144571	0.00123916507796226	1.16643707332378E-06	4.60191340419267E-06	4.47397675422988E-06	3.9909231312622E-06	0.994539051877438	-0.0512807332900624
2.2	0.00343358620619222	0.00116327666773124	6.54878793956628E-07	9.06935645787626E-07	-3.61507077994343E-06	-1.09352858747438E-05	0.995197171546947	-0.053326884023145
2.3	0.00345378703125296	0.00103467644760817	-2.28764126413065E-06	3.556225372062E-06	-5.32127343920974E-07	-2.79536795715362E-06	0.995265261083644	-0.0551317594874806
2.4	0.00343384486119566	0.000855966078000502	-1.55455197133764E-06	-1.45650769386377E-06	1.28454533772516E-06	-9.97026760094805E-07	0.995568977736625	-0.0583756129937209
2.5	0.00290800194945234	0.000553440692824068	7.78038972966987E-06	4.06862570886521E-06	-2.3373654949302E-06	-7.22918472260265E-06	0.995100643049902	-0.0609701856497987
2.6	0.00258990955071963	0.00106854632751841	4.84643973367702E-07	2.11810223464509E-06	-1.47221008124391E-06	4.68497505956301E-06	0.994920455808352	-0.0637627004521627
2.7	0.00269673239957705	0.0013574156610507	-7.87141735150039E-06	5.23493873919873E-06	2.52577245520795E-06	9.72372224368468E-06	0.994460674742103	-0.0667386685316023
2.8	0.00299958756247167	0.00162180899275387	-7.75067571420363E-06	7.94973328464976E-06	6.00023947772716E-06	1.99232305537443E-05	0.994515019151251	-0.0685282443256534
2.9	0.00347566486447812	0.0015655558866702	-1.1907688198609E-06	8.58987301607384E-07	-8.11739279767694E-06	-2.96968077216683E-06	0.994417100476938	-0.0704840553437402
3	0.00361070473578004	0.00148852333792762	-6.06110077871096E-07	-4.4752793128668E-06	-2.19195941428274E-06	6.44020745713418E-06	0.994271843310684	-0.073053345695758
3.1	0.00421172521987484	0.00160360172454145	-2.58980868523713E-06	8.73278094906108E-08	1.10241238642108E-05	-3.52067016384879E-06	0.993808862752392	-0.0747288245109851
3.2	0.00463405080091504	0.00126976826681423	-9.80505306058041E-06	2.5398397284109E-06	1.21633292865892E-05	4.27563187508542E-06	0.993804733505074	-0.0761027405102943
3.3	0.00486742481301392	0.000849478009075902	-3.4708496125736E-06	9.3004624464934E-07	-5.01250675027849E-06	-1.48960743546844E-07	0.994052868796418	-0.0790092177300815
3.4	0.00495537575546799	0.000384379044642288	5.35109710901944E-06	4.94610226074718E-07	1.34942373530389E-06	4.49046553223013E-07	0.994771428314363	-0.0809524162929983
3.5	0.00454839392497957	-3.68268924652351E-05	2.77194824200609E-06	1.562705780255E-06	1.31399672371053E-06	7.94638628890683E-07	0.994859922412902	-0.0846530096550308
3.6	0.00454213203109116	0.000144583659682233	-7.15515476946328E-06	-1.35400698923884E-07	1.86767065201474E-06	-3.5002567122105E-06	0.994096659975761	-0.0868498588642673
3.7	0.00461243197396756	-0.000107836098626739	5.78317646238242E-06	-1.51101966338858E-06	-3.24543465521123E-07	-1.73436622174955E-06	0.994490590259631	-0.0892592608885734
3.8	0.00459905987008924	-0.000322132061105505	-2.00501605204509E-06	8.7695420570104E-07	-5.1997672763331E-06	2.96572291551869E-07	0.994880000443252	-0.0916162179152851
3.9	0.00459998782078652	-0.000624729115481163	-8.37800791588872E-06	1.78288612004838E-06	-4.12350903364283E-06	-1.5018563615006E-06	0.995374590476517	-0.0959236581540625
4	0.0041212782210598	-0.000837300718478021	-5.82893005220464E-06	3.70352992818659E-07	-9.50785240805317E-06	-8.45218761704496E-06	0.99338812934454	-0.0985751288701831
4.1	0.00423256244795366	-0.000442303769759109	-3.99108208944976E-06	4.06579079239155E-06	-1.88433537997731E-06	5.58326370254118E-06	0.992711444886394	-0.0990896419023565
4.2	0.00449746225952261	-0.000614706615159533	4.62649444315571E-06	-4.38618191991965E-06	6.75908649577886E-06	7.59042333198067E-07	0.992560042418876	-0.1015426532551
4.3	0.00459377689822586	-0.000857893474983159	-3.79968963857823E-06	1.1260291638385E-06	3.55248064505209E-06	-1.20546056967739E-06	0.992528217724378	-0.103574484112681
4.4	0.00458692079349989	-0.00123406672923968	-3.14705740524914E-06	-4.94007429591662E-06	9.31245255949576E-07	-1.03623992424724E-06	0.99206402162576	-0.105904640757322
4.5	0.00394614473652544	-0.00155603664347702	-1.39568123048348E-06	2.02952668234566E-06	2.1589585793609E-06	-8.47665466611046E-06	0.99178774706398	-0.107618665647281
4.6	0.00369160590889902	-0.00115092961997748	5.39010274657684E-06	9.62092819311036E-06	-1.42418102466825E-05	9.80938897259173E-06	0.992173533317982	-0.110205263688439
4.7	0.00364968487941829	-0.00110453310499358	-7.59577381867282E-06	-9.59109794837979E-06	-1.14731434359948E-06	-1.36599294609213E-07	0.992312415098423	-0.112397810135382
4.8	0.0035805372192684	-0.000972417257583433	-8.75887433695218E-06	-2.70262358888908E-06	-4.39338492930601E-06	4.54816126355943E-06	0.992075351191887	-0.114905553649928
4.9	0.0037476278929246	-0.000953083002151719	5.77535916219797E-06	8.33975239110382E-06	-7.2745898563074E-06	3.27872376876055E-06	0.992124940281732	-0.116719905388513
5	0.00364026192549963	-0.00104331402851952	4.30228503307312E-06	-8.56202499237181E-06	-4.29708407841263E-06	-6.203192538864E-06	0.992473806691678	-0.118692311980372
5.1	0.00426612061416827	-0.000847035301535447	1.52737615891622E-05	-1.02700577950641E-05	3.50477944054787E-06	-8.75073700012931E-06	0.992741865743266	-0.120330958480253
5.2	0.00477982745083611	-0.00144160565644281	-4.24376598252227E-06	-4.73208126649193E-06	-3.17356566003993E-06	5.2426968692195E-07	0.992869240216147	-0.122939687975529
5.3	0.0049042635313342	-0.0020818166206727	4.78910579471063E-06	3.38636327834783E-06	-9.32021870399876E-06	-4.76438991872554E-06	0.992885858134155	-0.125708205756084
5.4	0.00479146778432207	-0.00270080644696007	5.19491598287409E-06	1.20794503134061E-06	-4.84862759940866E-07	1.04874522306108E-05	0.993184491842	-0.129019701872246
5.5	0.00397318842273857	-0.00289020367272209	-1.81936181873202E-06	-1.98846898902124E-06	8.91616070057865E-06	5.10594606514088E-07	0.992626948661854	-0.133071480016991
5.6	0.00420319788902482	-0.00243306162244369	4.26333501482705E-06	7.2460399841039E-06	-4.73249709216274E-07	-8.63696591700282E-06	0.991537539536084	-0.135288035523134
5.7	0.00435152141861403	-0.00278440820232998	2.06017791016049E-06	-7.25204834386601E-07	5.48699164754055E-06	2.45672399588097E-06	0.991706642412843	-0.137677241514095
5.8	0.00421041062236387	-0.00314105727916809	3.92377272494807E-06	1.96212604602504E-06	2.74623246224564E-06	7.85104562311401E-06	0.992140304158017	-0.140493137462961
5.9	0.00401976200324546	-0.00364124527158268	-3.79609936695969E-06	-3.05815548784822E-06	-4.71252559307527E-06	-1.77644706852871E-06	0.992106252176519	-0.14457167456539
6	0.00275607282612285	-0.00445717455645578	-2.07531986630367E-06	1.7077703345615E-06	1.04322925701311E-05	-2.67612787659298E-06	0.988784088509203	-0.148055862228675
6.1	0.00157747000434647	-0.00387051990447691	-7.3321226749263E-06	-1.10694087951312E-06	-7.25149180363095E-07	-2.48542814789765E-06	0.987269331033407	-0.147657227846399
6.2	0.000713566680538875	-0.00342656575010948	-1.06372685219011E-06	1.99110671367438E-06	-3.48550165819318E-06	-5.37055909439891E-06	0.986423562006166	-0.148404051415243
6.3	0.000231117219173816	-0.00268163714071208	1.57954557142569E-06	2.83490523394266E-06	1.1481041928148E-06	5.98138459656791E-06	0.985779291307235	-0.149536601543066
6.4	0.000279116913133382	-0.00233822149390577	2.07343558041221E-06	5.0420881344872E-06	-3.33621734712871E-07	2.27663286181047E-07	0.985363921880661	-0.151308722681464
6.5	-5.68744601393394E-05	-0.00204329506140134	4.67552031428127E-06	-1.87771797346841E-06	-4.69503040337106E-06	-1.55373549237906E-06	0.985071315637241	-0.152406479267356
6.6	0.000580464840409397	-0.0016890833811376	3.26569604367606E-07	-1.07187489213099E-06	9.32195860550556E-06	3.34528943800698E-06	0.987173807215301	-0.15503061166695
6.7	0.000647827281437253	-0.00193805038951926	5.36330560166335E-07	5.62613752085478E-06	-1.78935552382739E-06	4.98826504875771E-06	0.987556706363063	-0.158549749376935
6.8	0.000505205576862492	-0.00178627108214671	1.7391749629575E-07	-1.59038686056154E-06	-3.4922901823845E-06	-5.12652913507538E-06	0.987315294772849	-0.161473808548418
6.9	0.000505012556774907	-0.00171187935052222	-6.64720235934421E-06	6.74225247291688E-06	2.29417504806153E-06	1.35321956226241E-06	0.987254117269692	-0.164351280559737
7	-0.000285590111762153	-0.00139542314071941	8.10160612727616E-06	3.15990644546562E-06	4.58635019262027E-06	5.86912025332803E-06	0.985735013850724	-0.166796030419505
7.1	0.000117696945401254	-0.000247451283655797	1.40034533774111E-06	7.82875049866661E-07	-2.28554757999881E-06	-4.48195301896194E-06	0.985298436929411	-0.16755593231817
7.2	0.000531027346942111	-0.000118577900403135	-1.28412731731392E-07	4.40613167849308E-06	-5.02166724950955E-06	-6.50801060634151E-07	0.985295769368528	-0.169039459163324
7.3	0.000582320555706721	3.39086706744863E-05	1.34626275993896E-06	-5.2749799387807E-06	-2.35646652955651E-06	-2.79064486504856E-06	0.985248004040009	-0.170473642819875
7.4	0.000686635132325854	-2.24924075871343E-06	1.846920101962E-06	4.42964124834608E-06	-7.31063909388996E-07	-1.07092328580046E-06	0.986559013472293	-0.173003548280316
7.5	-0.000211668939061705	-0.000427999814975504	-5.76528265993821E-06	-1.47795119855053E-06	-1.61186064367676E-06	-8.92527256037899E-06	0.986662245134694	-0.179115485361494
7.6	-0.000681580055742711	0.000539808086950947	5.62176187628694E-06	-3.41418615240547E-06	1.03649872031976E-06	3.19242998201918E-06	0.984060503842528	-0.182573391930921
7.7	-0.00097070692682228	0.000826319254588851	-6.52572506318049E-06	-2.84181308554055E-06	4.40637894887904E-06	5.6630351702021E-06	0.983190230589285	-0.186316435429641
7.8	-0.00103144743250793	0.00120408008410635	-1.10833039436482E-06	-5.35978013559026E-06	-2.08675266099063E-07	1.14620385815162E-06	0.982260059523373	-0.190176167997143
7.9	-0.000721089706851423	0.00137308496724952	-3.31492676573095E-06	7.23693213996847E-06	4.36818740031473E-07	-6.89198184867067E-06	0.981108799407936	-0.19465171915015
8	-0.00111046474027699	0.00177389318837881	-1.8989883704716E-07	7.37942002687364E-06	1.74435528422778E-06	-4.46377973931754E-06	0.976416498533574	-0.197886671851442
8.1	4.11074432102324E-05	0.00238922456825952	-7.62033802901442E-07	-6.45590575810305E-06	-1.75014368753253E-06	-1.05544138339202E-06	0.975637525202675	-0.197160942309524
8.2	0.000584185193122821	0.00213850954261008	-3.81857132819266E-06	1.66386270664889E-06	-1.09704412696134E-05	-2.57589532969766E-06	0.975971637203279	-0.198966479792967
8.3	0.000784121827595861	0.00213405807211565	-5.57758934645412E-06	-9.8330637488638E-06	-7.77048596547718E-06	3.0448535828653E-06	0.975373188065648	-0.201421183684482
8.4	0.00102750555148474	0.00219842356597912	6.7408980720474E-07	-6.11557991767738E-07	-1.41278928862278E-06	4.44728714611658E-07	0.974364035067174	-0.203783543598407
8.5	0.000459211821950232	0.00249179777211035	-1.75108210892777E-06	-2.52985652643406E-07	-3.93647668458512E-09	1.80165185217859E-06	0.973416327264295	-0.205527278558413
8.6	0.00119187189580656	0.00378553377475987	2.41491631149776E-06	-3.97723190130106E-06	-4.57842043392255E-06	-5.90663252364619E-06	0.97380863285147	-0.207731352825056
8.7	0.00212760079778254	0.00398460899903247	-1.50410776671965E-06	-2.08780395233009E-06	-3.54334240330462E-06	3.64599899526552E-06	0.973749200347411	-0.210527462569937
8.8	0.00288937767046745	0.0040914607651353	-5.49726260591499E-06	-2.10011540926077E-06	-7.22867621430089E-06	-1.24397584612083E-06	0.973475202058601	-0.213092404601314
8.9	0.00382829358180541	0.00383789054904626	8.55325633050148E-06	4.06364642126807E-06	-1.40540488517055E-06	3.19837910286475E-06	0.973380894279229	-0.215478275075736
9	0.0039998522910483	0.00325767927888074	-4.89096285355517E-07	4.15743725051193E-06	-7.80585717380124E-06	1.24744938441189E-06	0.97276037490052	-0.21819073536652
9.1	0.00478396542687494	0.00323934809346476	-2.53100634068355E-06	6.63212577436979E-06	4.08804028038839E-06	-3.08925258620593E-06	0.971607805124865	-0.220269567930467
9.2	0.00527398752853361	0.00254251796112629	-1.16503152096323E-06	3.41893495563762E-06	-2.24545583363935E-06	-2.04707280721055E-06	0.970432205426172	-0.222084018965552
9.3	0.00547471615436058	0.00216175339790635	2.31272320093422E-06	-4.03439255528729E-06	-7.93955893099819E-07	-1.7750156621304E-06	0.96985301146727	-0.223448324091126
9.4	0.0058523325394923	0.0017600953717056	-1.79237082071677E-06	3.89027331934861E-06	-2.06749002449485E-06	-3.57096397966856E-06	0.970052680485947	-0.225463216239912
9.5	0.00566392888474818	0.00182180507036991	3.50452056154947E-06	6.28048689117868E-06	3.61673797833645E-07	-2.14827781999668E-06	0.969483407466925	-0.228975039376255
9.6	0.00671382604005964	0.00211717345241683	4.62588466518601E-06	7.04652279289436E-06	-8.17585377483697E-06	1.27876639721589E-05	0.968437868093399	-0.231041777187733
9.7	0.00741707078970331	0.00151618907248675	-2.87522307005148E-06	-1.5238107215712E-06	-1.38887372627837E-06	-3.95562950561111E-06	0.968585540797296	-0.233122640971224
9.8	0.00781978024205181	0.000997592109362615	1.25001308952522E-07	-3.58514763039549E-06	3.03910235304616E-06	2.38885204397141E-06	0.969161541813627	-0.235485502924284
9.9	0.00823707999984708	0.000396487885734136	5.78150081935826E-06	-6.22520666596859E-07	-2.5490327346235E-06	6.71208632306483E-06	0.968961923245071	-0.238975239215328
10	0.00768016231931766	-0.000238593893308316	-1.13675297832954E-06	-5.74196146852403E-07	1.35555552542753E-06	-1.18276861167985E-06	0.96522463030426	-0.240467554376646
10.1	0.00807083133742682	5.33505385963932E-05	7.1461556184501E-07	-8.38137563638991E-06	6.12678092560568E-06	3.59476747408085E-06	0.966077878509903	-0.239240851354551
10.2	0.00842540142351949	-0.000408960975048394	7.46343406306049E-06	8.29529308719292E-06	5.20437425154144E-06	3.52155271753187E-06	0.967026040909325	-0.241117160287706
10.3	0.00866070617438927	-0.000707490668631496	1.75331924187344E-06	-6.93191889602864E-06	1.41993984517595E-06	2.85851030726589E-06	0.966705045100185	-0.243679335169795
10.4	0.00919153846640405	-0.00127928027508242	-4.00818012614493E-06	-3.62583768815449E-06	1.94822112955338E-06	-5.57187904131673E-06	0.965378936631121	-0.24660268139528
10.5	0.00890874859732436	-0.00189667862517687	3.88203821572423E-07	-7.03692817242733E-06	-5.71543706742117E-06	4.04346622659674E-06	0.9636370108713	-0.248200809774045
10.6	0.00942841309366029	-0.00206256307454198	5.46419349430226E-06	6.72604339506106E-06	2.42556450293363E-06	1.19455492678343E-06	0.963446853219899	-0.250763528435823
10.7	0.00953697096435838	-0.00257377056930346	-7.05545244701865E-06	-1.69190903037425E-06	-7.72483225739329E-07	1.55443302288972E-06	0.961972493704404	-0.253358150459038
10.8	0.00984941546648991	-0.00270331693425099	1.47807271502915E-06	4.43014026500378E-06	9.38860826871575E-06	-4.44684784194907E-06	0.961010055282591	-0.254245570602242
10.9	0.0105449527419803	-0.00320836096352012	3.13920086050418E-07	7.39609382054058E-06	-5.14597444534936E-06	1.9996344226605E-07	0.961016329345448	-0.255179108250341
11	0.0105089290005839	-0.00386091513650017	-2.21303057944755E-06	-3.82159158977007E-06	1.2022786325905E-05	-3.52439638507831E-06	0.96091087567005	-0.255645786327364
11.1	0.0115511938341618	-0.00409283124568419	-6.1012392325708E-06	-4.93377642962336E-06	9.41629779842641E-07	5.570117151703E-06	0.96206482942955	-0.256120034318779
11.2	0.0123018891687675	-0.0054453084548643	3.30362737689121E-06	4.30204461398073E-06	1.07204794812101E-06	-7.86334934768876E-06	0.963036515532436	-0.257802440345523
11.3	0.0126466491430839	-0.00689911779879816	7.16414387918201E-07	-2.65254547738701E-06	-4.84955279728577E-06	9.09296788930675E-06	0.964116263389231	-0.260005335928427
11.4	0.0127212917491103	-0.00854214406386761	1.48145800649652E-06	-2.19767686939E-06	-2.99046023826522E-06	-7.44049595234363E-06	0.965099545092451	-0.263634028934273
11.5	0.0116820241659548	-0.0100062709797432	9.49007710628411E-07	-1.00939060134814E-06	-9.01476175982269E-07	-8.7240997437968E-07	0.963375622700796	-0.269069424316071
11.6	0.011697394133955	-0.0107726880928598	1.12157932224365E-05	-3.26409260185395E-06	-5.41173187991777E-06	-6.82814596026196E-06	0.961356147435369	-0.271657463748756
11.7	0.0114605836379975	-0.0124166500045734	5.32482272008911E-06	-2.88731880000826E-06	-4.40756377446904E-06	1.6446774093557E-06	0.961268090589006	-0.275448523519706
11.8	0.0108814219389185	-0.0139839017197702	-4.47283000311E-07	-2.54685344479675E-06	1.0450562686939E-06	1.32562233177193E-05	0.960952644436213	-0.280565554634866
11.9	0.0103873367499043	-0.0159371244088542	3.32432112216803E-06	1.99028263613067E-06	-1.77056150370564E-08	1.27352653820535E-05	0.959703419877173	-0.286530934001274
12	0.00793305419246401	-0.0172363815794524	1.99920402434708E-06	4.82852295403855E-07	-3.69064084609453E-06	-9.67949913510316E-07	0.953132686678667	-0.288393321775179
