# GHZ S RI R 50
0.2	0.000604427295657428	0.00401013959668775	6.30214351269599E-06	-1.01004725480731E-06	1.06686323452041E-05	1.0485830771766E-05	0.999114371563411	-0.00717796086913104
0.3	0.00126715898677068	0.00358889017183588	5.81600312185152E-06	5.03178852769981E-06	8.0933591372294E-06	2.94812859192283E-06	0.998820318541795	-0.0101039864120702
0.4	0.00174376329800826	0.00330228858482657	-2.70420123816623E-06	7.86518858553172E-06	-4.82265650641022E-07	-4.42758369056775E-06	0.99862142329477	-0.0127324686734649
0.5	0.00180229626840171	0.00337115736152888	2.30685859987357E-06	1.47816641304165E-06	7.50711416726184E-06	-1.05260067763518E-06	0.998290093551227	-0.0153912747348298
0.6	0.00247246786311451	0.00365522806872352	3.23315914076629E-07	3.53801571999375E-06	2.70488114628719E-07	-7.65749162909496E-06	0.99883914326701	-0.0184096255467889
0.7	0.00291491557913918	0.00353968097067789	4.16382895112269E-06	5.01910155681685E-07	-3.89254946596192E-06	-1.74881875541746E-09	0.99840464996773	-0.0216786512389581
0.8	0.00330825192089516	0.0034616989972593	-2.88395263571657E-06	2.96295163687016E-06	-6.81499113612422E-06	1.32196387806234E-06	0.997992741872028	-0.0240059122626874
0.9	0.00361616954502582	0.00324288784124787	6.03025228832775E-06	8.95564302371129E-07	-7.33398691995037E-06	-1.82728749925603E-06	0.997583772510004	-0.0265658764220028
1	0.00335577288974695	0.00295033640188564	2.35714292143688E-06	2.94011053928305E-06	-9.03133723483421E-06	-2.59318051483045E-07	0.996640613957911	-0.0280176054930212
1.1	0.00329035116595128	0.00347101218006397	6.43162161042017E-07	3.56873738146896E-08	-5.29505699454667E-06	1.40023719474235E-06	0.996477442880538	-0.0292090064560014
1.2	0.00355167896845293	0.00342247638452332	-5.28762896063821E-06	-3.28760202289651E-06	-1.11696497548223E-05	-1.26471120141044E-05	0.996446831218	-0.0298203504628591
1.3	0.00360252390025657	0.00294277985946923	3.04691581832786E-06	3.10223490567592E-06	6.95425134904397E-06	-4.07982561860211E-06	0.997403368962886	-0.030499356192677
1.4	0.00346896052520284	0.00200376042163922	-2.79753915743996E-06	-1.1135850232683E-06	5.71013130009737E-06	6.34739659128906E-08	0.997803702078707	-0.032907000246053
1.5	0.00306198294229547	0.00160403896820964	1.2399939331884E-06	-2.53199607559866E-06	8.01154518174054E-07	2.510692642464E-06	0.998004410833624	-0.0365638591429091
1.6	0.00328857199627861	0.00152354657550707	-9.31610800984281E-07	-6.41036022852161E-06	3.18335215384568E-06	-4.23976160710734E-06	0.997342367122251	-0.0402296601174149
1.7	0.00335838571430348	0.00137974649192152	3.40167270360961E-06	6.33218684799008E-07	2.23171594290498E-06	3.84870230298738E-06	0.997041745986767	-0.0429611819004567
1.8	0.00337529418056944	0.00144795494359065	-2.37509261223519E-06	2.89351038920879E-06	-1.01211245317249E-06	-3.99265071154577E-06	0.996430014177222	-0.0457594687026556
1.9	0.00333506460611224	0.00138137567540713	-3.72598171138612E-06	-1.75764729718809E-06	5.62001732591999E-06	3.02307596782653E-06	0.995687857036442	-0.0482026859128236
2	0.00306148179866993	0.00174439774055447	-6.15898257258639E-06	-5.74044331271864E-06	-2.07903038994602E-06	9.13159899123886E-06	0.993983066869743	-0.0501189330713009
2.1	0.00349377699277442	0.00205119105302276	1.16381543629107E-06	4.59757310873967E-06	4.46816497589773E-06	3.9882347461616E-06	0.994376648309557	-0.0512891773242824
2.2	0.0037057109610123	0.00194113280924304	6.53790367754406E-07	9.05997888062909E-07	-3.60729518529452E-06	-1.09227028619235E-05	0.994790927124308	-0.0536985151468426
2.3	0.00373216441001933	0.0017364329439834	-2.28623099164814E-06	3.55026047922414E-06	-5.30050764148747E-07	-2.79180405332507E-06	0.994518751143767	-0.0555663364865547
2.4	0.00352977791967407	0.00145882601433882	-1.55148180616709E-06	-1.45569974269754E-06	1.28356776509145E-06	-9.94809382302173E-07	0.994359390493511	-0.058577545140322
2.5	0.00278292892781476	0.00151325421646703	7.76878522550759E-06	4.06849116471399E-06	-2.33028180836907E-06	-7.22206622144312E-06	0.993806036059588	-0.0604164843178491
2.6	0.00268906374591406	0.00219497347678272	4.82370863894731E-07	2.11517398432827E-06	-1.47330194074342E-06	4.67666836088317E-06	0.993948277440948	-0.062785182532773
2.7	0.00295011253313618	0.00254732427268166	-7.86489966559697E-06	5.21812983909212E-06	2.51115124848153E-06	9.71134050506686E-06	0.993930375675651	-0.0654514053350158
2.8	0.00335487576416138	0.00274091553708296	-7.75010694340391E-06	7.9284523564664E-06	5.96586290572977E-06	1.9902983845464E-05	0.994373936204611	-0.0673021280440053
2.9	0.00374745377529374	0.00265987396513566	-1.19049793192576E-06	8.56387671789432E-07	-8.1038262007237E-06	-2.97694014161431E-06	0.994397382801868	-0.0693307011401439
3	0.0039978734739752	0.00282130138951913	-6.00380850036988E-07	-4.47032921781298E-06	-2.1963541786694E-06	6.42968262026128E-06	0.994513623446545	-0.0717539986985392
3.1	0.00476218934378062	0.00273795821145531	-2.5866675688489E-06	8.3683855602902E-08	1.1015049970171E-05	-3.50119465954344E-06	0.994519386329881	-0.0737129904025612
3.2	0.00516448946793686	0.0023051499602973	-9.79852848518143E-06	2.52422215685779E-06	1.21453500631596E-05	4.28750336989626E-06	0.994659412680073	-0.0755966763646147
3.3	0.00535904706393584	0.0017496532849375	-3.46895545623235E-06	9.25153938385923E-07	-5.00801254921587E-06	-1.54740523898561E-07	0.99478520454089	-0.0789887043026084
3.4	0.0052160746304255	0.00116796674984483	5.34612627450849E-06	4.98925667361342E-07	1.34788326110677E-06	4.49860060623023E-07	0.995018163567482	-0.081295440817001
3.5	0.00471514237161476	0.000998730009968636	2.76642515047452E-06	1.56305109660456E-06	1.3113275886355E-06	7.94723751506194E-07	0.994554781980886	-0.0844427127722081
3.6	0.00469355763862623	0.00100809259440711	-7.14647446136219E-06	-1.46554784146396E-07	1.87099564818854E-06	-3.49316179125708E-06	0.99423262519317	-0.0866046511110184
3.7	0.00450236294180984	0.00082604741990287	5.7801516488375E-06	-1.50043791356475E-06	-3.21490538286102E-07	-1.73325525275133E-06	0.994217918946534	-0.0892405155897769
3.8	0.0043042734423771	0.000797743122706941	-2.00455278918005E-06	8.7288197441445E-07	-5.19536188869532E-06	2.87869756391324E-07	0.993892793061331	-0.0912907905351371
3.9	0.00411361854667609	0.000827349914464899	-8.37167989266835E-06	1.76473013218037E-06	-4.11582744495249E-06	-1.50802336452683E-06	0.993532480270322	-0.0944215317832019
4	0.00393966048578142	0.00127387131584695	-5.82658502147911E-06	3.53258892248321E-07	-9.47780590947974E-06	-8.4747611826175E-06	0.992724567151118	-0.0945918991108731
4.1	0.00456597441459741	0.00149855041970601	-4.00204913874056E-06	4.05714916369689E-06	-1.89843890326097E-06	5.58015833577719E-06	0.994079062257395	-0.0957262937290139
4.2	0.00495456227230734	0.0011727153007973	4.63862167311443E-06	-4.37759641853291E-06	6.760419403293E-06	7.74838656571124E-07	0.994435494856371	-0.0987354200616812
4.3	0.00510548567275024	0.000767432118670387	-3.80529353440281E-06	1.11837541019021E-06	3.55806403451957E-06	-1.19842799643574E-06	0.994782350126326	-0.101110999964435
4.4	0.00492411366992826	0.000275449244055853	-3.14068795489361E-06	-4.9535387044694E-06	9.34736825978623E-07	-1.03563925836341E-06	0.994603007773752	-0.103623225662379
4.5	0.00434173623864371	0.000328487559935013	-1.40067798080703E-06	2.03164101194505E-06	2.17301329872261E-06	-8.48983536135554E-06	0.995078401001526	-0.105688824228954
4.6	0.00439213397467228	0.000472364437119368	5.38715838077865E-06	9.63522876135493E-06	-1.42645658272024E-05	9.80686237838105E-06	0.99539151770915	-0.109059908801108
4.7	0.00434688746755856	0.000346485657635153	-7.5894910521446E-06	-9.6079351601962E-06	-1.14801463365307E-06	-1.38145259882109E-07	0.995414282955157	-0.111468449399376
4.8	0.00425016183418525	0.000248291989393305	-8.76197422453889E-06	-2.71871629660085E-06	-4.40425522248251E-06	4.54505306044578E-06	0.995107020161223	-0.114272831380938
4.9	0.0041251492178715	7.03802191501982E-05	5.76818342929336E-06	8.35874991085591E-06	-7.28826264068206E-06	3.27046475434565E-06	0.994818740833826	-0.116346638377192
5	0.00393455214834991	0.000228719029177631	4.31663880852284E-06	-8.56385419474617E-06	-4.29293590437239E-06	-6.21380602123866E-06	0.994762974406352	-0.118137204215695
5.1	0.00440851302158982	0.000171578510390796	1.53020929738021E-05	-1.02480281740162E-05	3.52312340287062E-06	-8.74957932719518E-06	0.994896374454402	-0.119712369148602
5.2	0.00457971376075528	-0.000200389335384203	-4.23824500943401E-06	-4.74563234702807E-06	-3.1778474866312E-06	5.18228408616389E-07	0.994734789523064	-0.122110416542554
5.3	0.00466137637468713	-0.000536427083752202	4.78934762060991E-06	3.40082540867995E-06	-9.32432181900366E-06	-4.78987436990473E-06	0.994804481618931	-0.12447316530483
5.4	0.00452135832978587	-0.000980559571513017	5.20239184798722E-06	1.21775993534046E-06	-5.01195390262181E-07	1.05054261144317E-05	0.995305632669798	-0.127697442296456
5.5	0.00408351970485792	-0.000827167289406477	-1.81850371809833E-06	-1.99308890086394E-06	8.92480954754985E-06	5.23541877920913E-07	0.994958394172902	-0.131114366032557
5.6	0.0042602949549088	-0.000999459660869951	4.25469403993057E-06	7.26751017515507E-06	-4.55208464679354E-07	-8.65250692681755E-06	0.994881535585684	-0.133808987652243
5.7	0.00383079960710798	-0.00129557665627502	2.06626244321464E-06	-7.22848984911773E-07	5.49467305222384E-06	2.47295809772915E-06	0.994723540565926	-0.136864638293417
5.8	0.00325114342472794	-0.00131290040787098	3.9301003489559E-06	1.97380604082637E-06	2.7394146967047E-06	7.87529059468668E-06	0.994366269770534	-0.139588588102803
5.9	0.0025200446333619	-0.00115157439361283	-3.79942427455512E-06	-3.07352082811414E-06	-4.72074711704318E-06	-1.79045444330871E-06	0.993274458513327	-0.142145059686419
6	0.00153192025483159	-0.000186358848542996	-2.08884790917512E-06	1.70966840201511E-06	1.04846204915286E-05	-2.66005319537043E-06	0.992433767505064	-0.142178719444316
6.1	0.00200424200673723	0.000906112581353488	-7.37079924102068E-06	-1.11632633243317E-06	-7.2785071465487E-07	-2.49905902225526E-06	0.994484524141965	-0.143302865016777
6.2	0.00260203873936429	0.000992941909140254	-1.06735306145045E-06	2.00153702083034E-06	-3.50642798510336E-06	-5.39386063029276E-06	0.995129961590755	-0.145895298158511
6.3	0.00295442461406715	0.00045256999117789	1.58964454735984E-06	2.84478592058765E-06	1.16029288798086E-06	6.00493321813478E-06	0.99493225772571	-0.149187384560861
6.4	0.0025097371542324	-0.000343587125970547	2.08584891858381E-06	5.06032883941517E-06	-3.3475328283513E-07	2.28842937523417E-07	0.993854667249098	-0.152076501424499
6.5	0.00186144439805719	-0.000165922904512461	4.69351509166158E-06	-1.89404346439966E-06	-4.71886364836962E-06	-1.55289335343209E-06	0.993924696058701	-0.154663195354755
6.6	0.00184770011733108	-0.000280625639354317	3.25583117863152E-07	-1.07562079817953E-06	9.3554538684101E-06	3.33819590433808E-06	0.99344803651854	-0.158687111091388
6.7	0.00156579269887529	-0.000268487010369605	5.43459423588813E-07	5.63973057318449E-06	-1.78872880873551E-06	5.00264399798304E-06	0.992321831770406	-0.161515851178089
6.8	0.00134211065845305	-0.000236133473344915	1.73355348871912E-07	-1.59450687583538E-06	-3.5043227031623E-06	-5.1372595626719E-06	0.991305336669249	-0.164120208207103
6.9	0.000752683829128803	-0.000273247607467798	-6.66052513795827E-06	6.76444590223616E-06	2.30114194285631E-06	1.35533858862161E-06	0.990212140746922	-0.166603869293333
7	0.000104690123971279	0.000720376715087753	8.12421258794902E-06	3.15910958029664E-06	4.603350518804E-06	5.87841543443712E-06	0.989028886359541	-0.16794297785805
7.1	0.000449568789905989	0.00118203428437389	1.4040055233445E-06	7.83258358686729E-07	-2.29442048592332E-06	-4.48933296563024E-06	0.988890855579672	-0.169960250875576
7.2	0.00029949968408279	0.00135880301335332	-1.23823288755608E-07	4.41618318829274E-06	-5.03368145293866E-06	-6.46704973533529E-07	0.987971915264075	-0.172429609644585
7.3	-1.34209474444741E-05	0.00159647622350358	1.33983235452803E-06	-5.28962286868282E-06	-2.36696959945682E-06	-2.79283829330643E-06	0.986588960798439	-0.174944145958091
7.4	-0.000725082863717474	0.00165434540479805	1.86420974013646E-06	4.43101784784208E-06	-7.35713730678061E-07	-1.07034135385979E-06	0.984855647342715	-0.178598682718253
7.5	-0.00202599459185158	0.00272938049404724	-5.76436101657265E-06	-1.46060016499516E-06	-1.63531361724357E-06	-8.91298249186648E-06	0.981034394826454	-0.181180439666274
7.6	-0.00176886198766552	0.00409272612737016	5.61473828771078E-06	-3.42132529009102E-06	1.04086799231119E-06	3.18977876446449E-06	0.979866323857346	-0.182219423164205
7.7	-0.00165663242564472	0.00480911831168967	-6.5276847485562E-06	-2.83140184833848E-06	4.41313501732157E-06	5.65476366442986E-06	0.97948104230009	-0.184899759241722
7.8	-0.00118525351632967	0.0052161716571131	-1.11437000839851E-06	-5.35554748185996E-06	-2.07145737943669E-07	1.14585012286476E-06	0.979195021839543	-0.187912426663614
7.9	-0.000852768070346234	0.00541380988693092	-3.30638998778894E-06	7.23104048529952E-06	4.31734135663391E-07	-6.88455726016402E-06	0.978391251183066	-0.190889901600098
8	-0.000101804537967102	0.00624656800873055	-2.00521545256671E-07	7.38207186396362E-06	1.75142641498648E-06	-4.46305478248816E-06	0.977982924004075	-0.19176726888673
8.1	0.00112814122371378	0.00593769703786551	-7.65706769192313E-07	-6.46895365225724E-06	-1.75409207070138E-06	-1.05704485631658E-06	0.979637415690406	-0.19495978834896
8.2	0.00166525483406987	0.00559933447817644	-3.82327836550474E-06	1.67146858760596E-06	-1.09929575695347E-05	-2.56703049508701E-06	0.979539289461632	-0.198447938901419
8.3	0.00206379137043337	0.0052958645286174	-5.59998975393662E-06	-9.8408233592392E-06	-7.77850520508194E-06	3.06040935551544E-06	0.978720044465267	-0.201765313018422
8.4	0.00200774867733984	0.00499719857135425	6.74691255997124E-07	-6.13759774879588E-07	-1.41517780611251E-06	4.47573172671974E-07	0.977619789294339	-0.204733562528293
8.5	0.00182369136244865	0.00571011234806029	-1.75603069263808E-06	-2.48183098566023E-07	1.61492159773589E-09	1.80595211085393E-06	0.976870461140048	-0.207690223520133
8.6	0.00260579165537765	0.00589823269922094	2.40471082958045E-06	-3.98786888850536E-06	-4.600236891231E-06	-5.89743488772447E-06	0.975845869934542	-0.210918222966911
8.7	0.00292294428129544	0.00586328075017538	-1.51005888414927E-06	-2.08509846751733E-06	-3.53602729785194E-06	3.65664432368361E-06	0.974641153253656	-0.213573749291833
8.8	0.00324365182128375	0.00590969473091897	-5.50423060069068E-06	-2.08986023833603E-06	-7.23472705225927E-06	-1.2297559049261E-06	0.973549494334541	-0.21571278695392
8.9	0.00341110671243675	0.00577906830504214	8.56978767704297E-06	4.05134817819834E-06	-1.40068974688704E-06	3.20434137812161E-06	0.972984379581262	-0.217469424706691
9	0.00353168178744902	0.006392949145677	-4.7751344094473E-07	4.16192323319607E-06	-7.80805717454333E-06	1.2708017703364E-06	0.972374041524527	-0.219441085833372
9.1	0.00466921321774241	0.00651419425806274	-2.5169508392241E-06	6.64292882182256E-06	4.08357569353044E-06	-3.10124465422519E-06	0.97196056760997	-0.221231475485892
9.2	0.00556292005424511	0.00623655942312419	-1.1556957427635E-06	3.42741337065804E-06	-2.2551310016448E-06	-2.04272086087563E-06	0.971640428872296	-0.223724518406205
9.3	0.00645025420477824	0.00568759911837002	2.29749979775147E-06	-4.04993199213225E-06	-8.02956088499082E-07	-1.77369726579028E-06	0.9713000181739	-0.226618049977403
9.4	0.00685330405544885	0.00473387842100032	-1.77046675433062E-06	3.90197043228813E-06	-2.08885994644812E-06	-3.56021427311568E-06	0.970280901989341	-0.23040159955201
9.5	0.00699723579550131	0.00472007485824149	3.53005191473273E-06	6.25084203212857E-06	3.50023241040306E-07	-2.14610891840115E-06	0.968042394949404	-0.23307945856871
9.6	0.00747114872319418	0.00398956237117428	4.64748872143992E-06	7.02204289717256E-06	-8.11972549415003E-06	1.28051525763001E-05	0.967074740602934	-0.2355549129494
9.7	0.00734142201252768	0.00347786967746506	-2.87960444844603E-06	-1.51107079822785E-06	-1.40415747993034E-06	-3.94740315707082E-06	0.965957935097891	-0.238076651539193
9.8	0.00717533728417593	0.00316130579634826	1.09125227721381E-07	-3.58184578016457E-06	3.04632720742583E-06	2.37294201966222E-06	0.964857884177034	-0.240154301278109
9.9	0.00672193476094155	0.00306641265587977	5.76697486117988E-06	-6.42446176929406E-07	-2.51897420650013E-06	6.70724386679677E-06	0.962815121752565	-0.241524907386432
10	0.00647568056603724	0.00401225810319594	-1.13757279034549E-06	-5.71459636752463E-07	1.35240938624317E-06	-1.1852956674843E-06	0.962177269473171	-0.240394559169524
10.1	0.00744285374335407	0.00429185782008756	6.7730803808937E-07	-8.38194171148672E-06	6.14078951022047E-06	3.56654407999359E-06	0.962956249292881	-0.242119492043694
10.2	0.00819467471991634	0.00413165707159667	7.48828622048328E-06	8.24615752110577E-06	5.21129280332214E-06	3.49132626856331E-06	0.96217642473344	-0.24351304623808
10.3	0.00886519712514489	0.00362374084240604	1.7219292268305E-06	-6.91997003152776E-06	1.42710543418667E-06	2.84534058447195E-06	0.961115714968784	-0.244826521119147
10.4	0.00899656481106211	0.00295480631868937	-4.00805633864693E-06	-3.60602477057035E-06	1.92833537893735E-06	-5.56334841369155E-06	0.959869140194877	-0.245848286968244
10.5	0.00918845037818036	0.00333827823840272	3.60478835432463E-07	-7.02453473644716E-06	-5.68867213101869E-06	4.05738675013208E-06	0.959843185581144	-0.247078915407385
10.6	0.0103890672772919	0.00307865827994238	5.46447616390296E-06	6.68272227582917E-06	2.41999872461002E-06	1.18223749501099E-06	0.959406721587825	-0.249200002221199
10.7	0.0114872329814467	0.00237740136832058	-7.03088312746289E-06	-1.67247673163931E-06	-7.66636032153057E-07	1.54974542111335E-06	0.959414034366889	-0.251363190460397
10.8	0.0122979437220679	0.00104873687002858	1.47794662872886E-06	4.41250554941624E-06	9.34969859696857E-06	-4.44186124363706E-06	0.959217659528468	-0.253668723506707
10.9	0.0122355859353436	-0.000421933012519178	3.22091980935623E-07	7.37312704481236E-06	-5.13001764951322E-06	2.05705529317336E-07	0.958871959625871	-0.25598292972357
11	0.0121555118779876	-0.00076060974220473	-2.21175863628493E-06	-3.8016957635804E-06	1.19670985135746E-05	-3.53429429232214E-06	0.958034434990808	-0.257706713270301
11.1	0.0127796071685326	-0.00187706794680405	-6.07653884009701E-06	-4.90448804210117E-06	9.42256271733671E-07	5.54254015247214E-06	0.957088860491453	-0.259483309797733
11.2	0.0128874492239241	-0.00316900626647568	3.29099417150307E-06	4.2808439370246E-06	1.06301035565545E-06	-7.8283904137363E-06	0.955963124024525	-0.261125808906879
11.3	0.012909904059792	-0.00467753608907262	7.11253017329033E-07	-2.64182998520809E-06	-4.82167478732128E-06	9.05814190973184E-06	0.955325548588343	-0.263013142860579
11.4	0.0122598063578035	-0.00626488489997894	1.47054050932438E-06	-2.18976023310742E-06	-2.98915931157775E-06	-7.3997143549784E-06	0.953834510333305	-0.26596937468148
11.5	0.0115365499824632	-0.00689951036183014	9.4230782293134E-07	-1.00264748863825E-06	-8.95458681168303E-07	-8.66255866228302E-07	0.95125071745437	-0.267463966796389
11.6	0.0113108793620541	-0.00842721559647301	1.11613096057495E-05	-3.23283305562009E-06	-5.37480358831293E-06	-6.79931240736501E-06	0.950727221050764	-0.269837789476033
11.7	0.0102478271757049	-0.00992190686168665	5.30173635973336E-06	-2.86817015186741E-06	-4.38773715312213E-06	1.63244738211458E-06	0.949493522882643	-0.272988013731434
11.8	0.00886940577892763	-0.0110171348673002	-4.42169731305395E-07	-2.53335461605814E-06	1.02547767604832E-06	1.31846224148062E-05	0.947959111983803	-0.275896276034217
11.9	0.0072170648220782	-0.0115064463270496	3.29521589880574E-06	1.98559872429183E-06	-5.35126246635778E-08	1.26452278272387E-05	0.946271289842405	-0.276678506733143
12	0.00641467316903566	-0.0107709013821667	1.98698185426561E-06	4.91750551132937E-07	-3.66764915291759E-06	-9.84012011013766E-07	0.947305864431081	-0.275138488257591
