# GHZ S RI R 50
0.2	0.000127263631911453	0.00250884062618298	6.32202302386837E-06	-9.95897618420628E-07	1.06695781390398E-05	1.05430122297888E-05	1.00132210151803	-0.00608676372295128
0.3	0.000906931243292777	0.00262765110169503	5.823426453082E-06	5.06056642570699E-06	8.11260110300626E-06	2.97529042327027E-06	1.00159463792827	-0.00896680731878749
0.4	0.00143707824906806	0.0030739275200383	-2.72781721438592E-06	7.89441464401705E-06	-4.7748327669199E-07	-4.44712835801997E-06	1.00252243985386	-0.011525396658065
0.5	0.00291141327105044	0.00290963143998073	2.31626392379706E-06	1.48301090904812E-06	7.53559157321088E-06	-1.05937448282455E-06	1.00326242370453	-0.0163186540511421
0.6	0.00244541395216083	0.00182889357643493	3.21083921075923E-07	3.54845861813226E-06	2.78103562731546E-07	-7.67922711248626E-06	1.00179039243389	-0.0195618543387664
0.7	0.00191745306065537	0.00226317221288781	4.17978394025481E-06	5.10167473336652E-07	-3.90816589068086E-06	-7.59244917179225E-09	1.00150054506744	-0.0218193993017456
0.8	0.00185529663764875	0.00274827482953375	-2.90271121025563E-06	2.97376622957334E-06	-6.85121553765192E-06	1.31890153992455E-06	1.0015775109441	-0.0237574152933575
0.9	0.00160681703217286	0.00351727001635185	6.06649067908719E-06	9.08201253124267E-07	-7.37719115208511E-06	-1.84722116297738E-06	1.00162299886123	-0.0256273274623911
1	0.00293655781653219	0.00500758236417815	2.37510197033311E-06	2.96030170437185E-06	-9.09611047546355E-06	-2.5786283163466E-07	1.0030987624206	-0.0267084862484122
1.1	0.00403670548383204	0.00342845256543755	6.47127936998963E-07	3.51628521639316E-08	-5.32575149627028E-06	1.41489260469855E-06	1.0031290114227	-0.0306399968687891
1.2	0.00330115277562443	0.0025231908241995	-5.32165259318013E-06	-3.29963299520848E-06	-1.12486174907024E-05	-1.27048066739989E-05	1.00179090151544	-0.0321785515709294
1.3	0.00242707697946363	0.00159763475018338	3.06732167866843E-06	3.11196057603354E-06	6.9809512226218E-06	-4.11213595544868E-06	1.00114895578746	-0.0338414125675686
1.4	0.00147058303676777	0.00111781533889001	-2.81095020631695E-06	-1.11204534710272E-06	5.73281567844104E-06	5.1605862027966E-08	0.999847504948937	-0.0361902711926474
1.5	0.00212040310274705	0.000746093819046137	1.24059187155398E-06	-2.5442624129875E-06	8.08685852964282E-07	2.51935665061142E-06	1.00124722205525	-0.0395604034839519
1.6	0.00124870725013197	0.00045505443992408	-9.4758914134867E-07	-6.44162651868559E-06	3.19228075667594E-06	-4.2670780623602E-06	1.00059026881174	-0.0436955744714832
1.7	0.00142750714021655	0.00147818363510472	3.42347981621151E-06	6.29648203976974E-07	2.25346563520388E-06	3.8669840363955E-06	1.00111915432046	-0.045820183402939
1.8	0.00193036419956845	0.00219047941428721	-2.3834595980941E-06	2.91770360967126E-06	-1.02807742864036E-06	-4.01585612833884E-06	1.00127554350698	-0.048195832949267
1.9	0.00257283634913245	0.00294848768642537	-3.75468574348237E-06	-1.76419360866659E-06	5.66388366336757E-06	3.03554605154399E-06	1.00175989068569	-0.0489424527249926
2	0.00453588880367321	0.00282530608610332	-6.23549426571379E-06	-5.79101132289353E-06	-2.08490648545606E-06	9.23344585639187E-06	1.00609207430298	-0.0517082077916173
2.1	0.0041249932917349	0.00116424030683326	1.20271543535097E-06	4.6390268442327E-06	4.53817718466458E-06	4.00411201460426E-06	1.00530226667035	-0.0589060440313394
2.2	0.00338458843039049	0.00122855274013068	6.65689078131518E-07	9.10000720693286E-07	-3.71168596080728E-06	-1.09989163659098E-05	1.00336080371896	-0.0619370935294362
2.3	0.00293791477752464	0.00142208538938955	-2.28179187590555E-06	3.59717594569231E-06	-5.5396130237505E-07	-2.81263655826898E-06	1.00213452121754	-0.0638188550469882
2.4	0.00242445104584538	0.00209261777679014	-1.57641767083909E-06	-1.45658129846806E-06	1.28722542808077E-06	-1.01350077422991E-06	1.00153407550692	-0.0666977133964893
2.5	0.00351018317290831	0.00305220155897777	7.86640086152341E-06	4.02843075247914E-06	-2.41484234563882E-06	-7.25651185658048E-06	1.00163130593146	-0.068877299255423
2.6	0.00388100402463673	0.00182313002024322	5.03769711209166E-07	2.12545455179572E-06	-1.44329329638014E-06	4.72114747446667E-06	1.00150101578934	-0.0724357830901945
2.7	0.00343991679538785	0.00157285994470488	-7.87622750056388E-06	5.32494156233602E-06	2.61450627835235E-06	9.7597973261783E-06	1.00127644789495	-0.0760095052813882
2.8	0.00314038878526212	0.00166468841050039	-7.73044162758718E-06	8.06171286260157E-06	6.20220822680894E-06	1.99916845883056E-05	1.00107475105582	-0.0789513841089722
2.9	0.00314661514347345	0.00222681194499313	-1.18921961880918E-06	8.75218629440993E-07	-8.19140348321685E-06	-2.90855853218152E-06	1.00002228648122	-0.0815646909003359
3	0.00449079441163637	0.00224383878350946	-6.53881082385384E-07	-4.48527638481085E-06	-2.13428565166516E-06	6.48580281668612E-06	0.999338973105155	-0.0843272492453569
3.1	0.00410781946905867	0.00122090738171215	-2.59802091201246E-06	1.12256741423749E-07	1.10291408643697E-05	-3.63778076488327E-06	0.99818894682874	-0.0870111555384241
3.2	0.00379251893388967	0.00144181128891002	-9.80961712241857E-06	2.64943522770388E-06	1.22459400892033E-05	4.1630660692107E-06	0.996909657884113	-0.0890666998362977
3.3	0.00372698374108197	0.00157357367435362	-3.46764705312346E-06	9.71473480602196E-07	-5.02484226407518E-06	-9.2300623070132E-08	0.995426665067282	-0.0925908479197688
3.4	0.00368549693917715	0.00208008792168466	5.35709683206621E-06	4.28636460344463E-07	1.35493469380502E-06	4.32403576083043E-07	0.99345880270361	-0.0942743599101627
3.5	0.00499419218678805	0.00205640236402047	2.78010699652092E-06	1.53100673832465E-06	1.31839948051297E-06	7.79469013293505E-07	0.993032276161855	-0.0947406134238383
3.6	0.00441594039638374	0.000708656975710683	-7.15070459890684E-06	-7.07586697873969E-08	1.83462030677087E-06	-3.51432744087614E-06	0.993754902137171	-0.0982612498585847
3.7	0.00358311352282076	0.000962072002374619	5.76156857251451E-06	-1.56773949691486E-06	-3.41694974015286E-07	-1.72918433266087E-06	0.992278604134807	-0.101580223036773
3.8	0.00330830712615212	0.00154720151265202	-1.99154877475065E-06	8.95456979088578E-07	-5.18503858702539E-06	3.49007024046473E-07	0.990507107962505	-0.103025592090156
3.9	0.00356916682377409	0.00251433606559043	-8.33639953649487E-06	1.8509730288286E-06	-4.12393484787862E-06	-1.46097699997908E-06	0.989881480006507	-0.10384633619475
4	0.005586652315494	0.0025846821964249	-5.82567680403796E-06	4.18659578644055E-07	-9.57761691255936E-06	-8.37310767351565E-06	0.993739378111188	-0.104768878711041
4.1	0.00553287526590503	0.000808783443457331	-3.93799955137483E-06	4.10824498976694E-06	-1.81578923053408E-06	5.59887812485958E-06	0.992347903980402	-0.110754993931356
4.2	0.00495353713211806	0.000474735573315178	4.55950077306983E-06	-4.42627813853701E-06	6.74574136022292E-06	6.76820461300256E-07	0.989555646539272	-0.113397611311363
4.3	0.00459589920096696	0.000425035290100396	-3.77139891536827E-06	1.16470863827523E-06	3.52429195953924E-06	-1.24100189743562E-06	0.98828648178174	-0.114898482360701
4.4	0.00429680051371019	0.000855694379945165	-3.19245840941126E-06	-4.88320955174189E-06	9.15319076855222E-07	-1.04301604731483E-06	0.987420930843147	-0.116648886422401
4.5	0.00558576153142858	0.000974817667991806	-1.35831343054395E-06	2.03693441495395E-06	2.02534210431221E-06	-8.4554587470762E-06	0.98712350309342	-0.11973618590163
4.6	0.00495831058578627	-0.000746079783833003	5.45523441547223E-06	9.4649641679565E-06	-1.39888531758621E-05	9.88850251207043E-06	0.984691559609856	-0.122372182915024
4.7	0.00387088959021994	-0.000770988988661422	-7.62122205762382E-06	-9.4189293042407E-06	-1.13755524071659E-06	-1.23374199450766E-07	0.983758555229838	-0.123520063009201
4.8	0.00318313202918744	-0.000411890411756864	-8.69910033851157E-06	-2.59181215613791E-06	-4.30655609104838E-06	4.54591323819671E-06	0.982693839173557	-0.125516043700601
4.9	0.00288069828052395	0.000452109789974526	5.79878007016576E-06	8.19833366136122E-06	-7.16853280508934E-06	3.31700093775602E-06	0.981409848065595	-0.126756591541662
5	0.00433366954986726	0.000576212506405196	4.16564674418005E-06	-8.4919273396456E-06	-4.30014745960079E-06	-6.08229181820709E-06	0.980584671244185	-0.127391665959594
5.1	0.00370671930344922	-0.000575947412220481	1.5005435164736E-05	-1.02380954277739E-05	3.40040832514638E-06	-8.65985057221908E-06	0.980041555104486	-0.128004456569504
5.2	0.00332333761703221	-0.000158018274019073	-4.21924427210353E-06	-4.64581940674642E-06	-3.13008318187816E-06	5.37262643265694E-07	0.979214730369935	-0.129359778059114
5.3	0.0035272100057644	0.000176908198681711	4.74788147533103E-06	3.31216011882903E-06	-9.22853923384636E-06	-4.64379571161312E-06	0.978472228454986	-0.130839247110298
5.4	0.00397302989960984	0.000699976703857957	5.12570643614112E-06	1.15521833346043E-06	-4.07486430393311E-07	1.03346618951174E-05	0.977394310702095	-0.132530915093149
5.5	0.00597748900372194	-8.03321287368818E-05	-1.79237741126773E-06	-1.94746509732582E-06	8.75729434566075E-06	4.75706240665878E-07	0.977805506412675	-0.132564051591543
5.6	0.00450484478126117	-0.0021646474669992	4.20070973368197E-06	7.13615708561185E-06	-4.67925057204729E-07	-8.50694755762103E-06	0.97874424164946	-0.135751817563293
5.7	0.00305842145446769	-0.00175301005748489	2.0303199855103E-06	-7.1529901348242E-07	5.40861491717763E-06	2.41991226835196E-06	0.977515913202219	-0.138033866759773
5.8	0.00228272494243786	-0.00108529859414934	3.86482601364851E-06	1.93625368198614E-06	2.70021547215911E-06	7.73800296170272E-06	0.976475167696598	-0.138777142549131
5.9	0.00167969331170623	0.000276803249799961	-3.73276667535246E-06	-3.02903040084231E-06	-4.64096929941341E-06	-1.76829933147376E-06	0.976408681871809	-0.137534722052987
6	0.00371103849510417	0.00151192152720268	-2.0629276939393E-06	1.68772333895908E-06	1.03532790671071E-05	-2.6243950128809E-06	0.982229314792768	-0.138621129323264
6.1	0.00383528472021549	-0.000723116898928063	-7.25628480353645E-06	-1.0849654783731E-06	-7.20983715274367E-07	-2.45817627167337E-06	0.980840026438601	-0.14452133744104
6.2	0.00251161307209614	-0.00119296465798421	-1.04934452047724E-06	1.96594141345296E-06	-3.44273481952813E-06	-5.30035234059149E-06	0.97839877315767	-0.145265320554539
6.3	0.00146856003267231	-0.00105752638885254	1.55481202397888E-06	2.799343652477E-06	1.12493445255792E-06	5.90346013279741E-06	0.977455757831836	-0.145896852980316
6.4	0.000922388473877379	-8.07455059260157E-05	2.03665282831805E-06	4.9874463277042E-06	-3.3022589309502E-07	2.24158706366273E-07	0.978038465662892	-0.146669491617417
6.5	0.00237933067987789	-0.000599336116799786	4.61429857437051E-06	-1.85805987857859E-06	-4.63667533442914E-06	-1.52969508819065E-06	0.978494535156303	-0.152313543014746
6.6	0.000591049331719719	-0.00150108835052433	3.23881850086729E-07	-1.05286742944854E-06	9.15531484627093E-06	3.31336424583304E-06	0.974109388402147	-0.15334499294586
6.7	-6.33717801386075E-05	-0.000465769943081003	4.93140569726313E-07	5.53885746146241E-06	-1.79118689472305E-06	4.8969696377299E-06	0.974009969290828	-0.152760322295265
6.8	-0.000326021660103031	0.000292457110794731	1.84018534599578E-07	-1.56547101262401E-06	-3.39976707588207E-06	-5.07851271970134E-06	0.974236322440807	-0.153378797697112
6.9	-0.000384543360372176	0.00181690932320599	-6.61609893589556E-06	6.59179579952312E-06	2.25099089077435E-06	1.35501365439106E-06	0.974649686736891	-0.153419339519364
7	0.00230072531607403	0.00198560135340165	7.96251322660619E-06	3.19111540579084E-06	4.4702513153574E-06	5.83130600536763E-06	0.977390822834556	-0.154587499387706
7.1	0.00090898783439734	-7.47460030293425E-05	1.37331149032299E-06	7.87297017782574E-07	-2.20736880665677E-06	-4.44635208307257E-06	0.976532178251947	-0.158095267576952
7.2	-0.000488472328786319	0.000741473541674023	-1.76966466567242E-07	4.34907057879565E-06	-4.95089039475599E-06	-6.9977234425386E-07	0.975012819919386	-0.159348496507034
7.3	-0.00126631586783011	0.0017498942266911	1.38986712121824E-06	-5.19376868320829E-06	-2.29512136455521E-06	-2.78281680780754E-06	0.973091116295297	-0.160502453191191
7.4	-0.00204131145459964	0.0035771744721835	1.76739846083724E-06	4.38588139274181E-06	-7.0762939133795E-07	-1.06369702816944E-06	0.96946213604029	-0.160345024087078
7.5	0.000324215844408768	0.00540555080484782	-5.64554304159262E-06	-1.56409573481987E-06	-1.41651436588865E-06	-8.81406492051763E-06	0.971637952368667	-0.155281897133674
7.6	0.000377797561230617	0.00344853120562487	5.63805316428589E-06	-3.26742952311295E-06	9.61700539652297E-07	3.1833130790102E-06	0.976275197092736	-0.16033168780742
7.7	-0.00063500884351563	0.00368277135685323	-6.41728465122789E-06	-2.94731075548142E-06	4.25950057434191E-06	5.70412818741753E-06	0.976017850570361	-0.164292472430244
7.8	-0.0009630372928725	0.00434740125773141	-9.90081626366427E-07	-5.34265299445149E-06	-2.30647325536953E-07	1.13339380104492E-06	0.976041775759803	-0.166334165597235
7.9	-0.000407111202374402	0.00554630499486376	-3.46393884789924E-06	7.11310451640443E-06	5.95993025486148E-07	-6.83797306474299E-06	0.977969003107182	-0.166133401185254
8	0.00219131094617103	0.00436431364664127	-3.75627097644678E-07	7.39005261688065E-06	1.86010247493443E-06	-4.42928728936266E-06	0.986593968900432	-0.170612250047209
8.1	0.000556039319507895	0.00288477226365108	-6.44596205756618E-07	-6.49303586038961E-06	-1.73672273650685E-06	-1.09176379983406E-06	0.984641492427949	-0.180053150558029
8.2	-0.000187641403062782	0.00372581290229489	-3.85672122748691E-06	1.60078939922886E-06	-1.09510143527309E-05	-2.77436967377122E-06	0.982406671935556	-0.182617174839493
8.3	-0.000426421971245756	0.00455706707815476	-5.42042423226101E-06	-9.9601599528642E-06	-7.84688370883294E-06	2.9166763174968E-06	0.9817332650674	-0.184878097471704
8.4	-0.000383335306871332	0.00630229569917048	6.87591467172751E-07	-6.03437837686609E-07	-1.42721334656974E-06	4.2353177826204E-07	0.981923431645053	-0.187294797822977
8.5	0.00263773251395487	0.00687484740861268	-1.75349574460916E-06	-2.76685284454275E-07	-2.7483390848867E-08	1.80748382859559E-06	0.982064373552771	-0.191661855255314
8.6	0.00197392564450864	0.00492233668139779	2.48354620328178E-06	-3.94582888609607E-06	-4.49189858832669E-06	-5.9915341469294E-06	0.980518116105824	-0.194211257603359
8.7	0.00117596914007599	0.00573968176613634	-1.4743640041019E-06	-2.1222673611746E-06	-3.62064515298598E-06	3.60001266246807E-06	0.980744457222544	-0.196192754404602
8.8	0.00121921784105445	0.00678323154071935	-5.49639499478384E-06	-2.2066998595596E-06	-7.25329179471368E-06	-1.37452984819552E-06	0.981269349142112	-0.198503093658818
8.9	0.00175927468829688	0.00832358481883308	8.56431866137039E-06	4.22661860691417E-06	-1.46538278284937E-06	3.20423284890924E-06	0.982072654939144	-0.200774762453535
9	0.00507024974310643	0.00886476640186188	-5.46725702830508E-07	4.17716102989986E-06	-7.87130899954649E-06	1.15286459245388E-06	0.982870840878248	-0.20317414303819
9.1	0.00556004673333163	0.00678111851684809	-2.65152221246326E-06	6.64433547214928E-06	4.16646079116415E-06	-3.05058141290153E-06	0.983699273423707	-0.206080819056726
9.2	0.00585505554358766	0.00644445621636956	-1.22357495739701E-06	3.43586096583525E-06	-2.23884297646778E-06	-2.09791017744886E-06	0.983936359550797	-0.20962654721874
9.3	0.00640388938917472	0.00594777097730578	2.38325734699583E-06	-4.04714831886105E-06	-7.80898528971218E-07	-1.80199388684004E-06	0.983456083960014	-0.213350068926039
9.4	0.00695688933304786	0.00602786512351501	-1.84656927462258E-06	3.90302013830343E-06	-2.04743353630215E-06	-3.62070903301554E-06	0.981545123877592	-0.216195218195309
9.5	0.00910866884453085	0.00451737745297273	3.43136354218497E-06	6.37050624283752E-06	3.96018696126442E-07	-2.15569208358916E-06	0.982483216305138	-0.216647752216164
9.6	0.00728486369613963	0.00249327410331467	4.56716837883076E-06	7.20341322844157E-06	-8.47689351610297E-06	1.2806628109454E-05	0.983722678748597	-0.222153005790507
9.7	0.00628712739724655	0.003014044603397	-2.8933129022443E-06	-1.58481311629254E-06	-1.35266432571438E-06	-4.02917425810793E-06	0.982602401927749	-0.225757816830623
9.8	0.00597514316385528	0.00359446053211744	1.74335579534888E-07	-3.63428125871195E-06	3.05046598329998E-06	2.46301479237085E-06	0.981936916785012	-0.227471670055381
9.9	0.0060262898384495	0.00494205704800595	5.88137644947494E-06	-5.43832576020161E-07	-2.69151853193795E-06	6.77800259532558E-06	0.983080036420942	-0.226573792715161
10	0.00895272009711467	0.0050174181505383	-1.15636192628128E-06	-6.02310052544684E-07	1.40277211373865E-06	-1.1934960709063E-06	0.99096628085895	-0.231709292532086
10.1	0.00841976047426819	0.00274238647041714	7.77712747470921E-07	-8.55746452318441E-06	6.23800293640696E-06	3.7069328616737E-06	0.986824305967268	-0.240361585768236
10.2	0.00774042282204365	0.00281092199024069	7.56585920050179E-06	8.49508622398155E-06	5.28745531584826E-06	3.61685897856471E-06	0.983740243607064	-0.241783235130656
10.3	0.00760986837484319	0.00312651119187291	1.82349135259059E-06	-7.0597053564313E-06	1.43328900635287E-06	2.92220316874803E-06	0.982638208002148	-0.243177628987602
10.4	0.00806493934831072	0.00416263203882407	-4.08317132545983E-06	-3.72090106976631E-06	2.01206933302724E-06	-5.68767738642384E-06	0.983066779942749	-0.245154724820048
10.5	0.0110545802356514	0.00361439570154407	3.82183279865118E-07	-7.18346217144122E-06	-5.82574299320625E-06	4.13864077797137E-06	0.983250410107486	-0.25103074415232
10.6	0.010773726333207	0.00139624995103613	5.56166633334176E-06	6.84372053058636E-06	2.46853243147109E-06	1.21521049069314E-06	0.980777300140101	-0.25395355518695
10.7	0.010687923706524	0.000836612956263106	-7.19020586589819E-06	-1.72604132001488E-06	-7.87660967142492E-07	1.5840240246708E-06	0.980989346471275	-0.257530094824723
10.8	0.0104497902841099	0.000268960224400686	1.51375137407617E-06	4.51902240694539E-06	9.57536411709769E-06	-4.54936820999696E-06	0.979948716959942	-0.261600117125172
10.9	0.0104421177860002	0.000717571050577937	3.50963660335567E-07	7.55133395733434E-06	-5.25406159982224E-06	2.2534669529193E-07	0.979152520369847	-0.264787668878704
11	0.0131342742413531	-0.000157860438957857	-2.27704682224226E-06	-3.87575467133117E-06	1.2215180377489E-05	-3.66433071615339E-06	0.978757219017443	-0.268263715223881
11.1	0.0121009922990164	-0.00274756041046996	-6.23346520582875E-06	-4.987862923377E-06	9.87215926979919E-07	5.66231674391529E-06	0.976063385552924	-0.272211742295086
11.2	0.0114200875375331	-0.0031436706973198	3.3906757884832E-06	4.35728092906299E-06	1.03986862273854E-06	-8.01071439460857E-06	0.973185128183702	-0.274763396111462
11.3	0.0112826632806114	-0.00346279825627938	7.05602269431995E-07	-2.70355816651446E-06	-4.85293707785509E-06	9.28852164428411E-06	0.969725344377661	-0.276651626575704
11.4	0.011294777679752	-0.00335641651476588	1.47801656809446E-06	-2.24251883564821E-06	-3.108620209945E-06	-7.50797900758864E-06	0.965348334869269	-0.277446949109592
11.5	0.013736054886229	-0.00501942890676367	9.54916500004063E-07	-1.02550912034854E-06	-9.15992328531942E-07	-8.77970407471946E-07	0.967630078438684	-0.275887130360793
11.6	0.0120762043313044	-0.00841725781998401	1.13809533631192E-05	-3.38511981185293E-06	-5.5418190172744E-06	-6.90815699304724E-06	0.968101213939015	-0.283507839764733
11.7	0.0104597996308378	-0.00928635316157975	5.3845083859697E-06	-2.98154973269353E-06	-4.4636594767067E-06	1.71069394245948E-06	0.964660727810461	-0.288108479624965
11.8	0.00932450381558452	-0.00975772812518721	-4.78616610201038E-07	-2.57865728172712E-06	1.18991423771522E-06	1.34343434557686E-05	0.961994761854043	-0.290444000775729
11.9	0.00940003685545301	-0.0093527702362799	3.38435349776094E-06	1.99337993055473E-06	7.46755622373003E-08	1.29099202132468E-05	0.963718554051006	-0.289308275927762
12	0.01143218438372	-0.0115135196392764	2.04508544494663E-06	4.74638958425529E-07	-3.77603881142107E-06	-9.54376429822398E-07	0.971942439039042	-0.29659335202804
