# GHZ S RI R 50
0.2	2.40369766756228E-05	0.00266694878205405	6.32107554025371E-06	-9.97279113297482E-07	1.06708671580158E-05	1.05393036751363E-05	1.00132207556929	-0.00597651613982221
0.3	0.000748388533168407	0.00270214582351741	5.82341386749879E-06	5.059524356845E-06	8.11217251494374E-06	2.97420473319232E-06	1.00156546697277	-0.00881884569280451
0.4	0.00130727934424696	0.0031407596644414	-2.72690257354171E-06	7.89382054616251E-06	-4.77791077360436E-07	-4.44663200975834E-06	1.00245486314625	-0.0114203907683843
0.5	0.00281885509333434	0.00289717130617635	2.31578788061763E-06	1.48270359992649E-06	7.53403830705315E-06	-1.05916204478266E-06	1.00283217870541	-0.0162175070161176
0.6	0.00239442714837196	0.00180819157732524	3.20867757904686E-07	3.5479362509654E-06	2.78423976164635E-07	-7.67805072242686E-06	1.00125754683575	-0.0190184674225711
0.7	0.00192127135531741	0.00213105561169597	4.17890453339532E-06	5.10172040937425E-07	-3.90735601424536E-06	-7.69397273935603E-09	1.00109321233986	-0.0210606107230222
0.8	0.00182190047114033	0.00250982633993913	-2.90212883123284E-06	2.97277405091082E-06	-6.8494619870568E-06	1.31809157966003E-06	1.00132386165784	-0.0228486114170094
0.9	0.0014911644423269	0.00325419189217047	6.06468989296968E-06	9.08789242094666E-07	-7.37489859299715E-06	-1.84773107251253E-06	1.00169264431918	-0.0246576006207616
1	0.00277605945045494	0.00479745314633608	2.37408300619327E-06	2.96025072035307E-06	-9.09443507117068E-06	-2.59645152209744E-07	1.00350391012951	-0.0261627890556371
1.1	0.00392597906742138	0.00339590201859017	6.47129291439948E-07	3.52462403581079E-08	-5.3259814145004E-06	1.41422178883532E-06	1.0033538773042	-0.0303959175178141
1.2	0.00344293812975385	0.00256383776028795	-5.32235101784413E-06	-3.29997158478871E-06	-1.12501672510284E-05	-1.2706228858604E-05	1.00199746066294	-0.032059984994304
1.3	0.00278891640137252	0.00153641359384844	3.06814634432761E-06	3.11217477164147E-06	6.98170859413799E-06	-4.11352242852091E-06	1.00121655367508	-0.033784289010056
1.4	0.00184843215295971	0.000867655190217518	-2.81131684507134E-06	-1.11193613351778E-06	5.73339007534472E-06	5.11626183124069E-08	0.999645676817753	-0.0359515514166051
1.5	0.00239553991099003	0.000337466557274005	1.24031759733254E-06	-2.54432726386368E-06	8.08912881315404E-07	2.51922298954861E-06	1.00053973915145	-0.0391695827450141
1.6	0.00141065524216034	-0.000113383732730351	-9.48181436427785E-07	-6.43958273084879E-06	3.19075265509461E-06	-4.26624252522404E-06	0.999550000442723	-0.0427773793120587
1.7	0.00138678022787027	0.000802849494908576	3.42171271854703E-06	6.29039794459147E-07	2.25257892053531E-06	3.86475062167026E-06	1.00009313829641	-0.0446898742055568
1.8	0.00172011736627317	0.00154472584304013	-2.38180808138253E-06	2.91571833557362E-06	-1.02739732643318E-06	-4.01309729214821E-06	1.00025189045379	-0.0470238753494352
1.9	0.00229157670827137	0.00240524375259858	-3.75162782725868E-06	-1.76307647565094E-06	5.65924474155974E-06	3.03356830925255E-06	1.00074777593703	-0.047863596048742
2	0.0043064377623961	0.00237108146504373	-6.22900543033137E-06	-5.78676285889006E-06	-2.08444673773319E-06	9.22483081129036E-06	1.0047183038757	-0.0508194185223359
2.1	0.00402220945714779	0.000671471096883344	1.20001307841977E-06	4.63546912405318E-06	4.53283419186171E-06	4.00229960096171E-06	1.00366793199595	-0.0575588085781148
2.2	0.00327006613571425	0.000602406621912286	6.64829054640893E-07	9.09556998999563E-07	-3.70461978520002E-06	-1.09918919796317E-05	1.00185735308747	-0.0603046912333972
2.3	0.00270419185714324	0.000745937469620482	-2.28139188170638E-06	3.59353796131621E-06	-5.52470300993817E-07	-2.81067619979831E-06	1.00080193862363	-0.0620277361060065
2.4	0.00206038725741587	0.0015104538863836	-1.57447726922578E-06	-1.45596802071705E-06	1.28653021347682E-06	-1.01211167003266E-06	1.00040210127207	-0.0649141520798084
2.5	0.00315474714821078	0.00269902195663486	7.85633908502899E-06	4.02913307055671E-06	-2.40820386192737E-06	-7.25084538447555E-06	1.0003900481965	-0.0672873766855397
2.6	0.00376584095353424	0.00159845331910317	5.0172974818759E-07	2.1239388257356E-06	-1.4455426151808E-06	4.71586231328202E-06	1.00004535392656	-0.0706861016719142
2.7	0.00352101594596856	0.00125327021057754	-7.87406478501831E-06	5.31441540472042E-06	2.60468401022867E-06	9.75397093736117E-06	0.999783822802245	-0.0741438994453286
2.8	0.00329708306494076	0.00120675349929506	-7.73130485534416E-06	8.04972275293974E-06	6.18176547523875E-06	1.99822179805469E-05	0.999607191843492	-0.076993946147006
2.9	0.0033197915126183	0.00167292119649607	-1.18919531864016E-06	8.73704991476839E-07	-8.18394467194946E-06	-2.91343572232176E-06	0.998711949724225	-0.0796270042899963
3	0.00473239201671097	0.00161510857626324	-6.49782308458555E-07	-4.48418768449261E-06	-2.13907880731663E-06	6.48157939720896E-06	0.998088602525235	-0.0825934380122703
3.1	0.00444053239144864	0.000364454894438739	-2.59764629576009E-06	1.10328141197107E-07	1.1029873196098E-05	-3.62903726926038E-06	0.996848647638859	-0.0851914643563047
3.2	0.00402544951071874	0.000360001231822796	-9.81080437725199E-06	2.64266543507921E-06	1.22423895857329E-05	4.17106212707576E-06	0.995707055116001	-0.0871422186030147
3.3	0.00378823256794141	0.000368967327107904	-3.46851553258483E-06	9.69261171661525E-07	-5.0251158047866E-06	-9.56061504279064E-08	0.994452128005182	-0.0905977130725632
3.4	0.00357496321129903	0.000872675891005864	5.35799970239393E-06	4.32004976662927E-07	1.35496496377233E-06	4.33326006520264E-07	0.99276452572713	-0.0924070025050354
3.5	0.00483759170237853	0.00092272323456924	2.78024130434223E-06	1.5325711311325E-06	1.31844119600386E-06	7.80225572942162E-07	0.99213944535944	-0.0932306913009198
3.6	0.00427948393267801	-0.000490393889360273	-7.15132613633396E-06	-7.38142491151125E-08	1.83628605622756E-06	-3.51386543391057E-06	0.992555885179739	-0.0962964998211336
3.7	0.00328889239265469	-0.000313486826484772	5.76312691917032E-06	-1.56469489205126E-06	-3.40766020774303E-07	-1.72957982184965E-06	0.991449071576165	-0.0992289136854954
3.8	0.00281829718127594	0.000367331451833933	-1.99249320212167E-06	8.94424902798759E-07	-5.1862912855865E-06	3.4592224834189E-07	0.990213188995901	-0.100652117844054
3.9	0.0029987173847877	0.00158878708337208	-8.33974852994044E-06	1.84638482479374E-06	-4.12414292961384E-06	-1.46387986115792E-06	0.990134783489618	-0.101862396034803
4	0.00520760131684448	0.00193051672805826	-5.82726676514175E-06	4.14825616816914E-07	-9.57412125488165E-06	-8.3814448409145E-06	0.993898201091936	-0.103533894848911
4.1	0.00548720237150671	0.00010433606058356	-3.94322381712677E-06	4.106458714394E-06	-1.82145788106413E-06	5.59956840490842E-06	0.992185347292137	-0.109495490588084
4.2	0.0050057915584232	-0.000426897463083607	4.5661671403464E-06	-4.42501595897053E-06	6.74929466482548E-06	6.83126894076145E-07	0.989441518896646	-0.112078981848884
4.3	0.00462374021030136	-0.000589356256588913	-3.77507988564324E-06	1.16240151671792E-06	3.52785896894739E-06	-1.23895559958452E-06	0.988286974130992	-0.113631157177872
4.4	0.00429276206503296	-0.000160260191101974	-3.19085443971981E-06	-4.88913566587805E-06	9.16779320027857E-07	-1.04302651635323E-06	0.987444939920887	-0.115549550830031
4.5	0.00570035561802192	2.95458274008188E-05	-1.36100015792686E-06	2.03692689825815E-06	2.0343043453891E-06	-8.45873250652203E-06	0.986835482750536	-0.118763592641298
4.6	0.00531793081252953	-0.00186960691580641	5.44955602318424E-06	9.4768053030452E-06	-1.40081644462781E-05	9.88135080953227E-06	0.984117203697298	-0.121133774283744
4.7	0.00422351210263433	-0.00218298778475779	-7.61687421317492E-06	-9.43317562908852E-06	-1.1382126104411E-06	-1.24617812436858E-07	0.983105440218365	-0.121996274228846
4.8	0.00339147963746071	-0.00200014385544119	-8.70226324667032E-06	-2.60287234740298E-06	-4.31434882109825E-06	4.54441242374479E-06	0.982105406909225	-0.123707017810601
4.9	0.00290737541541685	-0.00117089480381144	5.79342569158432E-06	8.21093743453642E-06	-7.17751928718279E-06	3.31106229874058E-06	0.981109443235986	-0.124777075600396
5	0.00433056955237344	-0.00097062490978468	4.1802223211579E-06	-8.49519438434451E-06	-4.29690971697521E-06	-6.09360085769158E-06	0.980533972541666	-0.125671489982344
5.1	0.00372551085160162	-0.00228567236499048	1.50335252615198E-05	-1.02345360499726E-05	3.41332532184105E-06	-8.66644200103037E-06	0.979923958327615	-0.126305989752279
5.2	0.00309992302514786	-0.00194591506281688	-4.22025463434931E-06	-4.65572848150964E-06	-3.13458684260946E-06	5.34999156403181E-07	0.979394519086966	-0.127625620517537
5.3	0.00311183876400287	-0.00146602733932024	4.75205168046888E-06	3.32091770077365E-06	-9.23813147088972E-06	-4.65820513710167E-06	0.979028308780078	-0.129384372479983
5.4	0.00354061131036748	-0.000698599325248656	5.13356283239043E-06	1.16011925435505E-06	-4.14170662013151E-07	1.03516191454053E-05	0.978144590929712	-0.131654846804185
5.5	0.0058239949584038	-0.00130179910026741	-1.79518558685086E-06	-1.95069951140719E-06	8.77143852411799E-06	4.76886398850499E-07	0.978052250605309	-0.132376297271927
5.6	0.00462200778505332	-0.00368911344147288	4.20589246058612E-06	7.14443321048634E-06	-4.6875195584634E-07	-8.51696036866337E-06	0.978418633436968	-0.135235680494848
5.7	0.00298222986686348	-0.00357066464377514	2.03263243529668E-06	-7.15930327508898E-07	5.41442756280589E-06	2.4230345204995E-06	0.97734392284175	-0.137213313671446
5.8	0.00188234653840472	-0.00291709815172651	3.86934207954832E-06	1.93890064421537E-06	2.70286297020286E-06	7.74756780882516E-06	0.976710937570216	-0.137983237391447
5.9	0.00100493203878923	-0.00125050965863246	-3.73804501328345E-06	-3.03314166861579E-06	-4.64747639907742E-06	-1.77063104581371E-06	0.977234835545962	-0.137270507768363
6	0.00317355079525149	0.000556821285962551	-2.06572132440618E-06	1.69081479537418E-06	1.03686676530739E-05	-2.63087445671345E-06	0.982952709552586	-0.139585519356694
6.1	0.00391661911103545	-0.00153659926564298	-7.26977844538568E-06	-1.08311222870115E-06	-7.23550820226277E-07	-2.46217947242385E-06	0.980902616537322	-0.146012181513424
6.2	0.00294565292398423	-0.00227997886544472	-1.04949697809265E-06	1.97044669466329E-06	-3.45371190436339E-06	-5.30690681040571E-06	0.97791739457457	-0.147000471133014
6.3	0.00196715642459506	-0.00244687485946838	1.56066152152854E-06	2.80235224208111E-06	1.13359058619122E-06	5.91226199880965E-06	0.976507786669685	-0.147562354179248
6.4	0.00134916489102418	-0.00160144532030265	2.04617539494066E-06	4.9923797145172E-06	-3.30437310766062E-07	2.24924604368589E-07	0.976806290266077	-0.148118799502496
6.5	0.00294721457796407	-0.00218913480498654	4.61786579974455E-06	-1.86661110666027E-06	-4.64476658834733E-06	-1.52554311011831E-06	0.976902546963403	-0.153322887085751
6.6	0.00117959859474653	-0.00357105744989196	3.22592053195265E-07	-1.05446812250486E-06	9.17000241015206E-06	3.30266788234063E-06	0.972633788886491	-0.153806819105945
6.7	0.000166407195728942	-0.00280170340242085	5.02287590824604E-07	5.54148609807402E-06	-1.78447345854603E-06	4.9028493784311E-06	0.972748176309495	-0.152977092375175
6.8	-0.000419675761913922	-0.00204235446023782	1.81739175246634E-07	-1.56617748831582E-06	-3.40826585948915E-06	-5.07485543145072E-06	0.973230580378654	-0.153487420209305
6.9	-0.000684094452541727	-0.000321234057502513	-6.60876471666407E-06	6.60048382607742E-06	2.25286058304193E-06	1.35241846857157E-06	0.974017058343105	-0.153645332770859
7	0.002218777070778	0.00010391177638801	7.9693005472173E-06	3.18467119794174E-06	4.47806788697532E-06	5.82952618199663E-06	0.976777176601403	-0.155371806681374
7.1	0.0011363000465662	-0.00235569551711842	1.37537984488131E-06	7.85804768289051E-07	-2.21536187617328E-06	-4.44606792897048E-06	0.975541135949461	-0.158912743875783
7.2	-0.000575563134953518	-0.00199568773253916	-1.69094126704749E-07	4.35127046620054E-06	-4.95430546341585E-06	-6.91025642315982E-07	0.973943683497497	-0.159952154888468
7.3	-0.00193673303784838	-0.00111382038591409	1.37930746989697E-06	-5.19720673447482E-06	-2.30111361328207E-06	-2.77838907039712E-06	0.972165879925843	-0.160847744993016
7.4	-0.00341137516169185	0.00103289503947043	1.77697620958756E-06	4.38042668311254E-06	-7.09864968325456E-07	-1.06172969278019E-06	0.96901280211254	-0.160548809567092
7.5	-0.00125547000117974	0.00369393272826195	-5.6437959551418E-06	-1.54842616483324E-06	-1.43711392072257E-06	-8.80169856706571E-06	0.971511145042328	-0.156055478749245
7.6	-0.000849290010894633	0.00219723642778891	5.62171803165105E-06	-3.27419342785934E-06	9.66975284391794E-07	3.17599320558397E-06	0.975941941226849	-0.161239689669232
7.7	-0.00171206147564638	0.00267814732350821	-6.41116977886182E-06	-2.9295536585999E-06	4.26265140365896E-06	5.68545941085085E-06	0.975654936660502	-0.165375832180698
7.8	-0.0017595390842954	0.00362579000814124	-9.97303269914622E-07	-5.33072908482243E-06	-2.28271166385549E-07	1.13161636182684E-06	0.975594205556331	-0.167603438434992
7.9	-0.000665896847635471	0.00502522162867352	-3.44763386163364E-06	7.10486163577633E-06	5.85346443402596E-07	-6.82623050611271E-06	0.97744518939067	-0.167711841939959
8	0.00274106282827922	0.00373532711017653	-3.68890664817505E-07	7.37761044009547E-06	1.85324378143588E-06	-4.42317693623079E-06	0.985426555225004	-0.172199752583099
8.1	0.00159014571565932	0.0013334070030267	-6.4652789796614E-07	-6.48729505300742E-06	-1.73566951954626E-06	-1.09017728170806E-06	0.983609610200348	-0.181134070379205
8.2	0.000634229646804805	0.00151646208344347	-3.85500696059567E-06	1.60242979607728E-06	-1.09499545317205E-05	-2.76803875993575E-06	0.981663102911293	-0.183654632866446
8.3	7.21913145854849E-05	0.00205370471012788	-5.42816621368752E-06	-9.95685590750775E-06	-7.84528101829718E-06	2.92268032346967E-06	0.981150864598247	-0.185935065259516
8.4	-0.000146753919177544	0.00380826680218375	6.87051283595213E-07	-6.04164072777391E-07	-1.42690962047308E-06	4.24973022619343E-07	0.981428455314424	-0.188368000290061
8.5	0.00304933920841409	0.0045236559807444	-1.75342985994789E-06	-2.75060525112341E-07	-2.58548203136591E-08	1.80718440780462E-06	0.981622372611436	-0.192610184214776
8.6	0.00266674630544365	0.00203412785229757	2.48064279405285E-06	-3.94671749185731E-06	-4.49489909657774E-06	-5.98768968003238E-06	0.980317349952368	-0.195140821516596
8.7	0.00144808409952207	0.00224942591847409	-1.47521149572599E-06	-2.12153740540531E-06	-3.61893285464399E-06	3.60140983209278E-06	0.980656718728918	-0.197221311714922
8.8	0.000761256987592326	0.00312480082178295	-5.49781282365996E-06	-2.20538492387736E-06	-7.25470892269569E-06	-1.37258021751635E-06	0.981214557864963	-0.19965478622052
8.9	0.000558784498772003	0.00505045733560729	8.56851349513853E-06	4.22705846491758E-06	-1.4654993157548E-06	3.20578454316314E-06	0.98190769624227	-0.202074955214728
9	0.00376667668122958	0.00642234800163358	-5.46168102502899E-07	4.18140868372391E-06	-7.87874097211997E-06	1.15606036664667E-06	0.982424390196654	-0.204440155386034
9.1	0.004610981998052	0.00458535833706723	-2.64911086775471E-06	6.6529895203646E-06	4.16829866537611E-06	-3.05680021647673E-06	0.98309464346633	-0.20713586009887
9.2	0.00502249346801359	0.00440377910924768	-1.22136495177782E-06	3.43970488544178E-06	-2.24255000123036E-06	-2.09749704064892E-06	0.983216572839062	-0.210422317651458
9.3	0.00579695191353871	0.00407641030156277	2.38054707686715E-06	-4.05188829874253E-06	-7.83167794659254E-07	-1.80224510674558E-06	0.982768373352653	-0.213814741082399
9.4	0.00664460785100316	0.00429580743991743	-1.84275689182506E-06	3.90670027881438E-06	-2.05244740721816E-06	-3.61975096914191E-06	0.981047858862157	-0.216481430840015
9.5	0.00941528568481491	0.00271623348724699	3.44079806268753E-06	6.36381035457732E-06	3.9252036378321E-07	-2.15589709490275E-06	0.981967422947557	-0.216892873297626
9.6	0.00790703576695507	-9.55751794652509E-05	4.57132231722267E-06	7.19041614037584E-06	-8.45247749916032E-06	1.2803889920668E-05	0.983358987135267	-0.222019732640485
9.7	0.00651186718500961	-0.000136004768297819	-2.89098675393675E-06	-1.58057111004909E-06	-1.35417135236496E-06	-4.02312623503693E-06	0.982582713232522	-0.225571944677812
9.8	0.00562860293670696	0.000332092747251962	1.72143993748535E-07	-3.62973658648836E-06	3.04790654869474E-06	2.45821803831696E-06	0.982103373415047	-0.227455089551778
9.9	0.00518628737849396	0.00202864298008923	5.87389516041208E-06	-5.45300971900905E-07	-2.68571708983256E-06	6.77058919982004E-06	0.983030552316672	-0.226825460355572
10	0.00827997309486464	0.0027364575051818	-1.15506220432128E-06	-6.01350398592877E-07	1.40082545081442E-06	-1.19230480732956E-06	0.990190214085366	-0.231232410640832
10.1	0.00817679795949388	0.000364429834676439	7.75392770201855E-07	-8.54886360863335E-06	6.23229309536085E-06	3.70203486616035E-06	0.986920518325172	-0.239059566623538
10.2	0.00742460557963429	0.000242095368367175	7.5595197001632E-06	8.48351560168462E-06	5.28242098006862E-06	3.61139481228973E-06	0.984444729026384	-0.240709403735296
10.3	0.00706410003536693	0.000628249085822535	1.81965071535913E-06	-7.05015565919711E-06	1.4318158050802E-06	2.91785107064911E-06	0.983460436803521	-0.242492592385904
10.4	0.00738893489930807	0.0021039004225134	-4.07582085833305E-06	-3.71435651849294E-06	2.00860196949927E-06	-5.6775037468847E-06	0.983484876973263	-0.244875916210076
10.5	0.0109332506714376	0.00212144894021273	3.85159502410316E-07	-7.16803709405491E-06	-5.81557805818868E-06	4.12679935275196E-06	0.982796477124272	-0.250379010982331
10.6	0.0114234874744981	-0.000448943768657973	5.54371212189538E-06	6.83366947712995E-06	2.46213288071066E-06	1.21470115399594E-06	0.980266537126977	-0.252606447972007
10.7	0.0115899427816856	-0.00151395127346368	-7.17284643477664E-06	-1.73010670370459E-06	-7.87678847027531E-07	1.57975863375561E-06	0.98047918393634	-0.255675346241451
10.8	0.0113734062950648	-0.00258144885730581	1.50516872665763E-06	4.51136260099258E-06	9.56074012663591E-06	-4.528369826018E-06	0.979790722242477	-0.259199966908108
10.9	0.0111960447753848	-0.00234408285289844	3.39473030474804E-07	7.53649491446292E-06	-5.24371000259271E-06	2.17390038497051E-07	0.97914221624851	-0.262132209949071
11	0.0141262977701212	-0.00330144038596142	-2.26825338207308E-06	-3.87372863894844E-06	1.22036729395316E-05	-3.64146174138544E-06	0.979012500500195	-0.264641674190112
11.1	0.0132390188305113	-0.00673708579136118	-6.22199886419362E-06	-4.98726256204568E-06	9.8131382646021E-07	5.65652865034588E-06	0.977899021590478	-0.268027872290563
11.2	0.0119243343096284	-0.00782392909924232	3.38391951550746E-06	4.35355204666275E-06	1.04294668014242E-06	-7.99985134911326E-06	0.97635337632722	-0.27107363730313
11.3	0.010805225425729	-0.00834872798868365	7.05478202896106E-07	-2.69959919452424E-06	-4.84915388298561E-06	9.2741552656617E-06	0.974003997677193	-0.274117489704265
11.4	0.00998524422331027	-0.00782386461518168	1.47610682423742E-06	-2.23925761206202E-06	-3.10369265772733E-06	-7.49766076061168E-06	0.969999934605088	-0.276476534532038
11.5	0.0123814781522251	-0.00880874658699742	9.52917957989956E-07	-1.02398531277127E-06	-9.14638830163555E-07	-8.76141043737918E-07	0.971003159493287	-0.275806570211307
11.6	0.010738439831702	-0.0122419517933919	1.13554237408551E-05	-3.37767616829149E-06	-5.52949115535368E-06	-6.89261852301252E-06	0.971356116952305	-0.282998082514104
11.7	0.00858831203921677	-0.0129043553541659	5.37343412222537E-06	-2.97378898453341E-06	-4.45430296152986E-06	1.70592301526446E-06	0.968244468237101	-0.288185109508524
11.8	0.0070558798595237	-0.0126597042797929	-4.7673860079709E-07	-2.57348790701183E-06	1.1828267431451E-06	1.34069630515491E-05	0.965188461674009	-0.291487757073348
11.9	0.00727942727944671	-0.0110783943885609	3.37698544621925E-06	1.99141927297889E-06	6.77980862937511E-08	1.2885821681748E-05	0.96532778171565	-0.291061783411939
12	0.0104292896002604	-0.012386934844	2.04099910937963E-06	4.75941940435501E-07	-3.76841233154702E-06	-9.56645299695746E-07	0.971118955726212	-0.296290289937134
