# GHZ S RI R 50
0.2	0.000706415488304069	0.00358155444119347	6.3043035151439E-06	-1.0077757775072E-06	1.06673501703269E-05	1.04930644881901E-05	0.999436794010376	-0.00725818995618931
0.3	0.00133094831100567	0.00320546524351628	5.81678854699626E-06	5.03528273531882E-06	8.09557416872455E-06	2.95147278566489E-06	0.999199334220533	-0.0102653644958171
0.4	0.00176167304261687	0.00300643355646288	-2.70659832973478E-06	7.86931004110271E-06	-4.8204345703408E-07	-4.43012717446349E-06	0.999154541009062	-0.0129592483541435
0.5	0.00193872361919553	0.00297849128332677	2.30822539125426E-06	1.47845236462331E-06	7.51049930172734E-06	-1.05446286658277E-06	0.998934858970948	-0.0160045246216187
0.6	0.00229876418546359	0.00313330289878079	3.23336012939467E-07	3.539575363648E-06	2.7086928336512E-07	-7.66083394229743E-06	0.99919525560649	-0.0190517170423531
0.7	0.00256529627638114	0.00318759598926707	4.16665514569048E-06	5.02509101179063E-07	-3.89522011030302E-06	-1.98800814393297E-09	0.998796773530043	-0.02222889668837
0.8	0.00289165241099509	0.00326098904036847	-2.88643986959642E-06	2.96557410325516E-06	-6.82093294118945E-06	1.3231965049839E-06	0.998431724985583	-0.024543416736045
0.9	0.0031832799473983	0.00323492476172605	6.03660965367058E-06	8.95710239797961E-07	-7.34181433365686E-06	-1.82822893314617E-06	0.998047008709378	-0.0270379033971772
1	0.00326368020196234	0.00303140532889102	2.36076161566416E-06	2.94208014746467E-06	-9.04055457252676E-06	-2.55765698279994E-07	0.997329558361944	-0.0285414393865359
1.1	0.00319478642458044	0.00303630333456946	6.43594031962111E-07	3.5412792010041E-08	-5.29782858821008E-06	1.40359180591709E-06	0.996913780346033	-0.0301666407684161
1.2	0.00310890868982571	0.0026316061782729	-5.29061699602757E-06	-3.2860429096775E-06	-1.11786192872354E-05	-1.26453885603447E-05	0.996271208856489	-0.0311145108941674
1.3	0.00262099905648375	0.00190540142401293	3.04778304740716E-06	3.10007340300996E-06	6.95075531482383E-06	-4.08236072547318E-06	0.996310427920188	-0.0320794289185899
1.4	0.0020790115278374	0.00121767320189831	-2.79685024285394E-06	-1.11183705799414E-06	5.70772038608965E-06	6.08502021542678E-08	0.996156382614927	-0.0342854661902822
1.5	0.00181389385658909	0.00113925229578652	1.23888337806337E-06	-2.53217754700768E-06	8.02021300743923E-07	2.51009670458118E-06	0.996892889585507	-0.0376586891106334
1.6	0.00212091210947836	0.00147137231653895	-9.34635382061788E-07	-6.41265110201515E-06	3.18293661242875E-06	-4.24283915457722E-06	0.996822029646191	-0.0411521653177593
1.7	0.00257829526967773	0.00166022394223845	3.40480032266768E-06	6.32129174858228E-07	2.2353985967561E-06	3.85084062531208E-06	0.997194703020323	-0.0437082827683328
1.8	0.00295691249417366	0.00183261449225457	-2.37642531510735E-06	2.89789557928604E-06	-1.01512626015998E-06	-3.9966940034915E-06	0.997149018670521	-0.0463945277751955
1.9	0.00324932958146931	0.0017637363167499	-3.73222763988927E-06	-1.75891436044558E-06	5.62957538865934E-06	3.02554595583127E-06	0.997062049227685	-0.0486838737158568
2	0.00325897498660262	0.00177997245689731	-6.17617068804801E-06	-5.74802207905558E-06	-2.07671380340644E-06	9.15236545061037E-06	0.996302703120021	-0.0512376177888232
2.1	0.0034175231862436	0.00190079611858234	1.17146057668804E-06	4.60475959936066E-06	4.48124562746854E-06	3.99035002008159E-06	0.996280699884952	-0.0531172109191431
2.2	0.00354484154141147	0.00189123020485359	6.56036108085389E-07	9.06805239260913E-07	-3.62683678901336E-06	-1.09375964077142E-05	0.996493893415326	-0.0555532288807297
2.3	0.00359474718839708	0.00177337673425529	-2.28575786433111E-06	3.55952516750251E-06	-5.34575663245578E-07	-2.79610499076363E-06	0.996179437017396	-0.0574733392269644
2.4	0.00353058211227664	0.0015787529128903	-1.55642915484997E-06	-1.4560826767601E-06	1.28445027438523E-06	-9.98492838722158E-07	0.99605984123219	-0.0605473395408354
2.5	0.00311397436886933	0.00138062886678564	7.78857933001797E-06	4.06262728220175E-06	-2.34605884958488E-06	-7.23044604925291E-06	0.995700207969905	-0.0626376358022754
2.6	0.00278240779585075	0.00164552368683531	4.86720728197673E-07	2.11804561248024E-06	-1.46809430855365E-06	4.68723502169157E-06	0.995801269313521	-0.0654181219109569
2.7	0.0027453086953358	0.00193960050607872	-7.86904366641549E-06	5.24174061392582E-06	2.53342861882251E-06	9.7236991862648E-06	0.995569989075888	-0.0683781243070387
2.8	0.00295455662665353	0.00223712655082487	-7.7471659527734E-06	7.95654397003146E-06	6.01459184745723E-06	1.9923657094619E-05	0.995722559814323	-0.0703017427113376
2.9	0.00333273173181968	0.00229934349748734	-1.1904361198599E-06	8.59991879268432E-07	-8.12119181402705E-06	-2.96474340948389E-06	0.995485857317396	-0.0722448792182165
3	0.00359448591874724	0.00234615794719217	-6.0940854816123E-07	-4.47411996970059E-06	-2.18673357570611E-06	6.44086241869781E-06	0.995398364096183	-0.0745728255219425
3.1	0.00405969622509027	0.00239851996691072	-2.58913644233734E-06	8.85066711594548E-08	1.10198030295264E-05	-3.52492009186847E-06	0.995117005376972	-0.076485371721151
3.2	0.00442829103318628	0.00224105052144164	-9.80121527183188E-06	2.54452170056188E-06	1.21625971922837E-05	4.26796065266528E-06	0.994934610177623	-0.0782267717312946
3.3	0.00469270585473548	0.00192535757678023	-3.46876703265782E-06	9.32139694020022E-07	-5.01056265320529E-06	-1.45327122579834E-07	0.994744529089572	-0.0814354466968845
3.4	0.0047688609317319	0.00155580827700424	5.34738788482121E-06	4.89422164313153E-07	1.34877952331495E-06	4.47486522819144E-07	0.994741535605985	-0.083375969313314
3.5	0.00455077101439149	0.00123774820191039	2.76891793267248E-06	1.55937186373549E-06	1.31258422442763E-06	7.92985843541038E-07	0.994685797306099	-0.0862325599824205
3.6	0.0044295923248196	0.00124310800101222	-7.14879709272633E-06	-1.34482586076482E-07	1.86561706270508E-06	-3.49734736554338E-06	0.99444713000717	-0.088844362194327
3.7	0.00439113249273316	0.00114778189029405	5.77788357713021E-06	-1.51142313587338E-06	-3.24772455726218E-07	-1.73281608107638E-06	0.994236562028451	-0.0916498759003081
3.8	0.0043944156451056	0.00105324370515779	-2.00278409578835E-06	8.76623148353191E-07	-5.19451314530024E-06	2.97681646640081E-07	0.993775013179233	-0.0937388595491951
3.9	0.00439854848426994	0.000882804767728077	-8.36840756797613E-06	1.78022666611949E-06	-4.11861642352534E-06	-1.50040314874762E-06	0.993504774246779	-0.0968564491902223
4	0.00419099356730771	0.00078829701872607	-5.82628721205685E-06	3.67392105370011E-07	-9.49921961122747E-06	-8.45263653612121E-06	0.992773811158283	-0.097829439743399
4.1	0.00423478509515297	0.000958361298679207	-3.98870238533279E-06	4.06510410539205E-06	-1.88242911676713E-06	5.58155238799872E-06	0.993026335634039	-0.0991437948614894
4.2	0.00441108912453486	0.000908264807903538	4.62252966026553E-06	-4.38467269233103E-06	6.75512946685654E-06	7.56845272979337E-07	0.992828566201466	-0.10180725076112
4.3	0.00454480503766155	0.000755549063170354	-3.79718786265963E-06	1.12626117182079E-06	3.55010567699866E-06	-1.20558760502061E-06	0.992823534277162	-0.103879358434361
4.4	0.00453555043774331	0.000471839553421144	-3.14775598482679E-06	-4.93713598872408E-06	9.30527401540206E-07	-1.03621257378659E-06	0.992469852917174	-0.106145743592774
4.5	0.00416055135670663	0.000290064706863517	-1.39272273644369E-06	2.030288240388E-06	2.1481649030638E-06	-8.47555992761262E-06	0.992704145217146	-0.108117022679465
4.6	0.00390514163626299	0.000446601779284899	5.39400583734422E-06	9.60326365148209E-06	-1.42136632557047E-05	9.81292541830116E-06	0.992968842727322	-0.111192071187261
4.7	0.00383221794651787	0.000528504446405087	-7.59243519651836E-06	-9.57211843814711E-06	-1.14582703845992E-06	-1.35550470789517E-07	0.993057263390966	-0.113597059544498
4.8	0.00380451173054711	0.000604423339855845	-8.74851855281565E-06	-2.69427938865663E-06	-4.38502175215642E-06	4.54438874537665E-06	0.992707478032795	-0.116442891707591
4.9	0.00390824208039969	0.000570304297299767	5.77282391250282E-06	8.32583466950225E-06	-7.2634622645785E-06	3.27874661986869E-06	0.992297492792281	-0.118484049191991
5	0.00391587437016854	0.000462715079350861	4.28844607434238E-06	-8.54922807181061E-06	-4.29345542519973E-06	-6.18879904764078E-06	0.992195694927693	-0.120128885012921
5.1	0.00426902817068325	0.000479488101447965	1.52428644148928E-05	-1.02499089615952E-05	3.49750906683974E-06	-8.73330035859644E-06	0.992345030053311	-0.121672822510908
5.2	0.00466336327822159	0.000103514313183727	-4.23519048867547E-06	-4.72397200147501E-06	-3.16777283879076E-06	5.22815156348414E-07	0.992033379458757	-0.124136531376774
5.3	0.00484716155193362	-0.000433644764225495	4.77989194553657E-06	3.38103245497144E-06	-9.3025883765231E-06	-4.75731550485141E-06	0.99169501603048	-0.126471662301763
5.4	0.00472558759960715	-0.00102785403334991	5.18443414475507E-06	1.20591770261168E-06	-4.84678049572045E-07	1.04664378541242E-05	0.991738641673452	-0.129196718314368
5.5	0.00409375203380124	-0.00127809652100792	-1.81310562340268E-06	-1.98497586465652E-06	8.89323632989464E-06	5.1677521453167E-07	0.991694230736917	-0.132099640737832
5.6	0.00381775446578945	-0.00107934981768025	4.24597836846291E-06	7.24086705514334E-06	-4.59829945591953E-07	-8.62403784421369E-06	0.991570049428018	-0.13479050583089
5.7	0.00361488804936174	-0.00102103921526927	2.05871494789981E-06	-7.21677765598759E-07	5.47738680853026E-06	2.46099228096967E-06	0.991363521384738	-0.137522451925721
5.8	0.00338885561592408	-0.000986530487307695	3.91695862768075E-06	1.9653964782326E-06	2.73264409514858E-06	7.84649532593601E-06	0.991116556118458	-0.139912804338719
5.9	0.00312160415504041	-0.00102776284906672	-3.7870149943638E-06	-3.0625483598724E-06	-4.70502729534548E-06	-1.78368991794417E-06	0.990458059730606	-0.142263560771309
6	0.0023651544199463	-0.00111633814793513	-2.07996612564587E-06	1.70440311817568E-06	1.04434421504169E-05	-2.65601785725384E-06	0.989503028762619	-0.143267594883066
6.1	0.00176852177318556	-0.000600364294226391	-7.33578463081586E-06	-1.1138420152096E-06	-7.23500049436883E-07	-2.48760096652437E-06	0.990122277459681	-0.143792526827362
6.2	0.00148639603626921	-0.000258319311421487	-1.06515364488186E-06	1.99090662522325E-06	-3.48304898467728E-06	-5.37382736570756E-06	0.990379528753382	-0.145271850804904
6.3	0.00138260850457961	-9.90785223018827E-05	1.57766676763707E-06	2.8358183572618E-06	1.14421871716978E-06	5.98190719551779E-06	0.990318844987124	-0.147573196280471
6.4	0.0012330451786551	-0.000274844884602871	2.0688017252124E-06	5.04458867011879E-06	-3.33874088282695E-07	2.27365807553463E-07	0.989875214829231	-0.150104457154533
6.5	0.000769261340865223	-0.000252235881644161	4.67718534824769E-06	-1.87677863033001E-06	-4.69568380951386E-06	-1.55549447925712E-06	0.98982390846344	-0.152745764762522
6.6	0.000750448135886692	7.08447037747772E-05	3.27271749308062E-07	-1.0709089422555E-06	9.31312814643716E-06	3.3510715899286E-06	0.990031052822114	-0.156079083499113
6.7	0.000779803328891954	0.000228333105554005	5.27320140511116E-07	5.62481093229109E-06	-1.7964724778076E-06	4.98354471287159E-06	0.989604943377342	-0.159073823515145
6.8	0.000756998120000796	0.000404781778928107	1.76828536312253E-07	-1.59012056637245E-06	-3.4830376571116E-06	-5.13307484285805E-06	0.988925269788328	-0.161712380662517
6.9	0.000639117813115708	0.000475230372588972	-6.66108928670921E-06	6.73347431406093E-06	2.29272856247787E-06	1.35760909660836E-06	0.988294289496802	-0.164053620837982
7	0.000106407773040973	0.00082271665042432	8.09757998200564E-06	3.17138933046559E-06	4.57836491150963E-06	5.87581859709324E-06	0.987366277781154	-0.16567212644712
7.1	1.98387663044754E-05	0.0016438804873042	1.3986807920226E-06	7.85370052206357E-07	-2.27685904358171E-06	-4.48555503698538E-06	0.987159537793678	-0.167251048954506
7.2	0.000176864829544826	0.00217715899743562	-1.37316479398323E-07	4.40645557649791E-06	-5.0210189687825E-06	-6.61015394154036E-07	0.986600263390299	-0.169306207347302
7.3	0.000298943673114285	0.00257087380770214	1.35616570995926E-06	-5.27425738103085E-06	-2.35221327707683E-06	-2.79577200557087E-06	0.985555524871232	-0.171362743976203
7.4	0.000333896017421177	0.00268086435036511	1.84076817079978E-06	4.43176383500907E-06	-7.29552388495695E-07	-1.07182153551051E-06	0.984549867235384	-0.174046471474942
7.5	-0.000191417142519477	0.00270632415715653	-5.75648700745857E-06	-1.49082526193288E-06	-1.58844216025963E-06	-8.9212587024383E-06	0.982976696288758	-0.176947172169564
7.6	-0.000420822455495187	0.00330897726666589	5.63415786559211E-06	-3.39895555453833E-06	1.02748080901979E-06	3.19680067502812E-06	0.981968171670573	-0.179383218330905
7.7	-0.000477241918613175	0.00362338836944165	-6.52197411385517E-06	-2.86272229507088E-06	4.39297407704019E-06	5.67973619304665E-06	0.981665087314899	-0.182414960799875
7.8	-0.000380019491960192	0.00367484772784994	-1.09293866823122E-06	-5.36780577433435E-06	-2.12353023693193E-07	1.14656039797905E-06	0.981483293967686	-0.185720043452125
7.9	-0.000369531820517559	0.0035958080901464	-3.34242293884167E-06	7.23214006714908E-06	4.60580157472527E-07	-6.89664261317951E-06	0.981071795884882	-0.189183030541122
8	-0.000625952785626947	0.00393064963627956	-2.19218821376486E-07	7.39662445398344E-06	1.76605379486245E-06	-4.46781431458615E-06	0.979994781281072	-0.191919269225138
8.1	-0.000222489710730892	0.00456863651880497	-7.50362129191219E-07	-6.47447313249013E-06	-1.75250434504675E-06	-1.0619196040669E-06	0.979626129029509	-0.194265590972352
8.2	0.000259913137077895	0.004869286491134	-3.82890689023252E-06	1.66067005398605E-06	-1.09876744013549E-05	-2.59954860000839E-06	0.979251128852783	-0.196837863384971
8.3	0.000670026445986543	0.00507174623177818	-5.57056788988977E-06	-9.85976236015819E-06	-7.78926010914949E-06	3.03692307072938E-06	0.97839598385276	-0.199627027059263
8.4	0.000950246430259705	0.00519809191176128	6.76549019471246E-07	-6.11746975897893E-07	-1.4165525673315E-06	4.43333075488256E-07	0.977372872664105	-0.202280555027718
8.5	0.000771417941323172	0.00554357177249819	-1.75468858679294E-06	-2.5441548571734E-07	-4.86079183897238E-09	1.80549280712702E-06	0.976468399641885	-0.20493444433501
8.6	0.00111876839441133	0.00646435608719074	2.42077132071117E-06	-3.98120734644377E-06	-4.58102023688955E-06	-5.91769797867103E-06	0.975857771313506	-0.207599833133314
8.7	0.00187916698418851	0.00704996875531104	-1.50454149651E-06	-2.09189537983159E-06	-3.55115282143718E-06	3.6482532697114E-06	0.975222642710554	-0.210203998666123
8.8	0.00280252667050206	0.00738635201530897	-5.50369849652159E-06	-2.10786864930732E-06	-7.2384146234297E-06	-1.25190706103198E-06	0.974615276587897	-0.212446420044802
8.9	0.0038271720125633	0.00723213728908273	8.56593263034564E-06	4.07598110979203E-06	-1.40981546647528E-06	3.20318796411935E-06	0.974494673482289	-0.2143565496466
9	0.00440718600742081	0.00684132033178677	-4.90287093201102E-07	4.16222044537188E-06	-7.81516066267769E-06	1.24774327237285E-06	0.974340198867536	-0.21663721366834
9.1	0.00522638367812238	0.00663802731060299	-2.53952212258695E-06	6.63972975655632E-06	4.09616260647267E-06	-3.09064511463008E-06	0.974027703463519	-0.218830254322762
9.2	0.006014151098404	0.00601553987287324	-1.1679500340909E-06	3.42562338971608E-06	-2.24963381131152E-06	-2.05157059010789E-06	0.973574276447467	-0.221481898623435
9.3	0.00652182077659774	0.00528254893072065	2.31464428159298E-06	-4.04404875720735E-06	-7.96746196924572E-07	-1.77804262627342E-06	0.973058407937932	-0.224198851780144
9.4	0.00675949847361474	0.00446602515207791	-1.7896780794839E-06	3.89804002302749E-06	-2.07509942061548E-06	-3.57315625259981E-06	0.972294398625119	-0.227366168082848
9.5	0.0064811241523358	0.00420783349919383	3.50920201276587E-06	6.28321654411086E-06	3.61084571166511E-07	-2.14980989326102E-06	0.971129388168092	-0.230471355238906
9.6	0.00669512821381401	0.00431875216328864	4.63598285895728E-06	7.06024871449202E-06	-8.19097926794475E-06	1.28143601216512E-05	0.969991865936645	-0.233479555486819
9.7	0.00706842539890271	0.00420604551893838	-2.88333892466265E-06	-1.52507218563443E-06	-1.39545148712817E-06	-3.96391827608165E-06	0.969045313705423	-0.235994412974999
9.8	0.00745183411137595	0.00396200936559683	1.20903568962102E-07	-3.59317144939035E-06	3.04868812967795E-06	2.39039062228545E-06	0.968498003623302	-0.238064711346272
9.9	0.0077434457382423	0.00354482330073214	5.79163956539727E-06	-6.2859155986523E-07	-2.54802211830107E-06	6.72664243465662E-06	0.967735029141431	-0.240048792445792
10	0.0075026796146798	0.00321031542099675	-1.14088740166219E-06	-5.75163548866058E-07	1.35901852978183E-06	-1.18766601942127E-06	0.966706981880093	-0.241456953620943
10.1	0.00767154717316422	0.00340058550047953	6.96367049430326E-07	-8.40595196767662E-06	6.15214992411084E-06	3.58980557715114E-06	0.966187283590157	-0.242829128914529
10.2	0.00814709993283912	0.00331583316911823	7.49818813590108E-06	8.29234147627323E-06	5.22296909850618E-06	3.51522551024133E-06	0.965533064706056	-0.244217148491972
10.3	0.00868465878471072	0.002994183577987	1.74025421881792E-06	-6.94713555566462E-06	1.42878856596972E-06	2.85987079621377E-06	0.96465047127299	-0.245867367118057
10.4	0.00916087582503051	0.00232364398011436	-4.02450282508515E-06	-3.62439624638684E-06	1.93984531187672E-06	-5.5876934488087E-06	0.963682964803351	-0.2476576851335
10.5	0.00908428325113226	0.00177951302514484	3.63250676745209E-07	-7.05289541016021E-06	-5.71245238194695E-06	4.072743553292E-06	0.963178887094582	-0.249788080058107
10.6	0.00938245108744282	0.00163187709268034	5.49164904157323E-06	6.71298023954029E-06	2.43164507119266E-06	1.18727360955391E-06	0.962607081434188	-0.252530650286574
10.7	0.0098120070462319	0.00133497846613971	-7.06567797693815E-06	-1.67275770469676E-06	-7.68565656551124E-07	1.55784326671876E-06	0.961786326973178	-0.255338273509892
10.8	0.0102829644270672	0.000890021132802422	1.49161364369304E-06	4.4296310320309E-06	9.3838685219895E-06	-4.47661477764597E-06	0.960834500951521	-0.257451251857469
10.9	0.0107580873281601	0.000169301265909905	3.36993296869894E-07	7.40235814465594E-06	-5.15038976953869E-06	2.15999033890291E-07	0.960548364982858	-0.259238288102068
11	0.0107807450081098	-0.000441479071201632	-2.22561154229524E-06	-3.81301098988341E-06	1.20076144737389E-05	-3.56484879026577E-06	0.959852166142411	-0.261145508107238
11.1	0.0112808130770726	-0.000736689270376808	-6.10827361715666E-06	-4.91560327922958E-06	9.54086222181669E-07	5.56366152276703E-06	0.958594162728794	-0.262741781260224
11.2	0.0119849288295825	-0.00155123716550887	3.31043218638397E-06	4.29267807806272E-06	1.05530462180357E-06	-7.86078230053844E-06	0.957315391620208	-0.264058839637085
11.3	0.0126446979410103	-0.00283191345299207	7.10189890400298E-07	-2.65242438882646E-06	-4.82669934317502E-06	9.09776042976897E-06	0.956481582206624	-0.265271855496529
11.4	0.012865763254614	-0.00450011649525608	1.47417099563877E-06	-2.19843021803112E-06	-3.00471429256707E-06	-7.42352211415056E-06	0.955563756389934	-0.267142748115856
11.5	0.0122932976293414	-0.00605127526192735	9.46219439588296E-07	-1.00808901657841E-06	-9.00334198537957E-07	-8.69868510206913E-07	0.954549340621555	-0.269525866265772
11.6	0.0119728481965641	-0.00723855033447899	1.12068907408066E-05	-3.26728588936513E-06	-5.41143156380508E-06	-6.8210979594951E-06	0.953354473756036	-0.272551525733865
11.7	0.0116105421359075	-0.0087609147733101	5.3189285372522E-06	-2.89023442430759E-06	-4.40334596719083E-06	1.6475573033213E-06	0.952268172265884	-0.275457818567568
11.8	0.0109667270090326	-0.0103818373822528	-4.48806205122766E-07	-2.54365038915448E-06	1.05441905113601E-06	1.32405708889391E-05	0.951633725196044	-0.278421917430424
11.9	0.00993664863174653	-0.0121006982033724	3.31733749035595E-06	1.98816301966492E-06	-2.34868939478144E-08	1.27119840881436E-05	0.951784593893147	-0.280639943947216
12	0.00808394126949345	-0.0132935030790128	1.99853068264774E-06	4.84847827323584E-07	-3.68931970991203E-06	-9.71626849068414E-07	0.951668231565597	-0.28317709770007
