# GHZ S RI R 50
0.2	0.000464863340460591	0.00295789987786059	6.31336508506686E-06	-1.00119631072005E-06	1.0667536553313E-05	1.05193095675356E-05	1.00043514127111	-0.00666345756347999
0.3	0.00119132923235615	0.00286392738328933	5.81993383554149E-06	5.0481880484441E-06	8.10401089566169E-06	2.96372660012733E-06	1.00046640270498	-0.00963509410657906
0.4	0.00166950889174927	0.00297239301071452	-2.7174318504221E-06	7.8816622993126E-06	-4.79609191009495E-07	-4.43858190334497E-06	1.00088861064708	-0.0122812710304347
0.5	0.00245394383984624	0.00290319478286274	2.31223838426829E-06	1.48088664964989E-06	7.52331155948624E-06	-1.05658188360782E-06	1.00116258016153	-0.0161586978771688
0.6	0.00241923372929288	0.00245896382109042	3.22199669820044E-07	3.54414422730646E-06	2.74543057777039E-07	-7.67029994834882E-06	1.00058920824906	-0.0193445620033552
0.7	0.00228216142797258	0.00271505825349852	4.17336800120578E-06	5.06385515124997E-07	-3.90183503237923E-06	-4.81732129939885E-09	1.00023456843085	-0.0220637472219596
0.8	0.00242860031554556	0.00301780756381781	-2.89470980919616E-06	2.96981143008222E-06	-6.83639470498657E-06	1.32111514206758E-06	1.00010485638769	-0.0241832532524803
0.9	0.00249960629020805	0.00338390675304967	6.0517875890971E-06	9.01877725319425E-07	-7.35980506256812E-06	-1.83765720457122E-06	0.999956658415835	-0.026388955943839
1	0.00320591770916039	0.00394433055766356	2.36791597733881E-06	2.95116267105215E-06	-9.06825634798234E-06	-2.5679928298434E-07	1.00028143621878	-0.0277241067538086
1.1	0.00368972572224967	0.00311959960363318	6.4533570040124E-07	3.53012401089097E-08	-5.31162079974849E-06	1.40906729969214E-06	1.00004554581539	-0.0304983218041521
1.2	0.00320773061625516	0.00237299302028249	-5.3053508698246E-06	-3.2927534616058E-06	-1.1211649042153E-05	-1.26742685706577E-05	0.998925980981676	-0.0317939137621053
1.3	0.00238806748253768	0.00152903637809168	3.05665891449514E-06	3.10588046385781E-06	6.96520454405952E-06	-4.09570311335086E-06	0.998456486532012	-0.0330604917530557
1.4	0.00158174223074473	0.00102494234483614	-2.80343201242523E-06	-1.11231907995051E-06	5.71969704408694E-06	5.72159912005797E-08	0.997751990904515	-0.035229205589086
1.5	0.0017779352959068	0.000891605034734583	1.24013681776037E-06	-2.53816739151059E-06	8.0505018669098E-07	2.51494942031823E-06	0.998971439831214	-0.0385680278219813
1.6	0.00159041722655648	0.00100859544855067	-9.40665248515506E-07	-6.42831143375551E-06	3.18854728182209E-06	-4.25537578256406E-06	0.998824787157802	-0.0423625883910984
1.7	0.00198861650827223	0.00162920454547145	3.41499033758231E-06	6.31229320580284E-07	2.24481206225975E-06	3.86002708594169E-06	0.999422744094178	-0.0447434705221431
1.8	0.00248961449697937	0.00206908669234695	-2.38080622172159E-06	2.90872359536859E-06	-1.02185629238493E-06	-4.00764333570078E-06	0.999599246400309	-0.0473062986434507
1.9	0.00300510480036281	0.00236930955570127	-3.74512884256086E-06	-1.76211318174342E-06	5.64927043346638E-06	3.03154754319905E-06	0.999922069557554	-0.0489337362085445
2	0.00393684639361468	0.00226475274096308	-6.20915581872714E-06	-5.77060979552333E-06	-2.08000419233311E-06	9.19671282890149E-06	1.00161135223113	-0.0517503708956787
2.1	0.00379267648172369	0.00155749314861511	1.18807081362186E-06	4.62332737355238E-06	4.51175373375796E-06	3.99803693812697E-06	1.00117476369965	-0.0561892894445754
2.2	0.00351827605626556	0.00161540139703488	6.61234252004003E-07	9.08657196596185E-07	-3.67212122157837E-06	-1.09719051695571E-05	1.00037528858619	-0.0589210080282696
2.3	0.00337299491722206	0.00166710326971801	-2.28408872978169E-06	3.58015252820191E-06	-5.44950541329835E-07	-2.80539542324197E-06	0.999663942668246	-0.0608502453026966
2.4	0.00317041444099333	0.00186903504244249	-1.56734142508152E-06	-1.45660356458282E-06	1.28615276373116E-06	-1.00665622626176E-06	0.999374035483971	-0.0638915372535388
2.5	0.00351051059177506	0.00210181845882642	7.83160810931052E-06	4.04571268775928E-06	-2.38288193124642E-06	-7.24608897634116E-06	0.999272875059005	-0.0661485841636092
2.6	0.00343538785700133	0.00157939113159452	4.96080412096792E-07	2.12264720852017E-06	-1.45508856848505E-06	4.70689457201079E-06	0.999242871018129	-0.0694431212568324
2.7	0.00313283082904558	0.00160221023312338	-7.87433357260301E-06	5.28862594524606E-06	2.57868640104968E-06	9.74528838795659E-06	0.998928122752945	-0.0727989871799647
2.8	0.00305931814866735	0.0018234045057303	-7.73872700788589E-06	8.01549808644615E-06	6.11891360422365E-06	1.99633259298029E-05	0.99882370587521	-0.0752501308927263
2.9	0.0032502672728879	0.00212586110755116	-1.18986963391481E-06	8.68386373507386E-07	-8.16024325196841E-06	-2.93427653826002E-06	0.998106354131316	-0.0775429662211855
3	0.00395783994983337	0.00213166272899548	-6.33598250198425E-07	-4.48078049297624E-06	-2.15860408564881E-06	6.46610499160265E-06	0.997601147483786	-0.0800892751618724
3.1	0.00394878311156961	0.00176242848748023	-2.59405572611721E-06	1.01490054203106E-07	1.10251760479131E-05	-3.58669314310923E-06	0.996749857068096	-0.0823102579109953
3.2	0.00399252896671528	0.00186837324245584	-9.80555576171215E-06	2.60078372234582E-06	1.22071169900402E-05	4.21159155338755E-06	0.995944245430912	-0.0840844032550133
3.3	0.00413409783278145	0.00184459137960539	-3.46814362904111E-06	9.52883419881098E-07	-5.01804960847222E-06	-1.17349040904868E-07	0.995095384102902	-0.0873227953306696
3.4	0.00423341058285223	0.00193477611211912	5.35269436239494E-06	4.57957634744959E-07	1.35203800586998E-06	4.3969600706142E-07	0.994190570391619	-0.0890243386382173
3.5	0.00477454651283442	0.00172589176734083	2.77541974498205E-06	1.54480830827549E-06	1.31593509373345E-06	7.86057036036469E-07	0.994072837848477	-0.0907656356383357
3.6	0.00445250086472548	0.00113420541402839	-7.15076619291783E-06	-1.0009918212797E-07	1.84912874022049E-06	-3.50697353051059E-06	0.994281707967054	-0.0938749449894275
3.7	0.00411701193499242	0.00121799207102838	5.76970103909631E-06	-1.54182134020246E-06	-3.33893832153052E-07	-1.73103946625568E-06	0.993472772759294	-0.0969502472125668
3.8	0.00407211041242164	0.00140840649842955	-1.99700975323619E-06	8.86871974628223E-07	-5.19011507977709E-06	3.25330254978758E-07	0.992414894576658	-0.0987804617391356
3.9	0.00426310843280173	0.00167886173114361	-8.35257712521026E-06	1.81959967294934E-06	-4.1224377692685E-06	-1.47899985359283E-06	0.992024068147178	-0.100929730114847
4	0.00504753745646969	0.00150974200028656	-5.825569503407E-06	3.96601905912E-07	-9.54331967998818E-06	-8.40675228536661E-06	0.993313487731536	-0.102136711228314
4.1	0.00492427200147504	0.00078404420437538	-3.96050886895192E-06	4.08806688095524E-06	-1.84583586868089E-06	5.59023129364302E-06	0.99252675595277	-0.105604334667514
4.2	0.00473226959670096	0.000647004188902373	4.58778327246194E-06	-4.40683457049503E-06	6.74932234808759E-06	7.13261710423968E-07	0.991005594344765	-0.108184950385165
4.3	0.00465496129403465	0.000551675364354227	-3.78264154190381E-06	1.1469779897639E-06	3.53558120150257E-06	-1.22464601992736E-06	0.990333402671211	-0.109937732013056
4.4	0.00454732771303132	0.000570177311942474	-3.17105257876047E-06	-4.90699761048893E-06	9.22135368812468E-07	-1.03962840511946E-06	0.989694778869586	-0.111934302539787
4.5	0.00490616048711445	0.000393431161410963	-1.37451293602673E-06	2.03318438690955E-06	2.08392824422297E-06	-8.46285250151512E-06	0.989596326196917	-0.1144066497229
4.6	0.00430044746145288	-0.00030943085463756	5.42620263126307E-06	9.5313922100917E-06	-1.40967793388043E-05	9.85279080542719E-06	0.988597078558471	-0.117230270958635
4.7	0.00366074839917614	-0.000178597025986257	-7.60986021051926E-06	-9.49188701955037E-06	-1.14165202300155E-06	-1.29016912572653E-07	0.988168463774962	-0.119065071455419
4.8	0.00329935235834882	0.000160514676526647	-8.72430313727655E-06	-2.63850234887018E-06	-4.34314660264306E-06	4.54687098493785E-06	0.987419926560043	-0.121487996927163
4.9	0.00328018558433089	0.000654678353583949	5.78931245186706E-06	8.25761342432563E-06	-7.21303957905502E-06	3.30122664725523E-06	0.986559531821426	-0.123090387780805
5	0.00400307771799737	0.00064714977988536	4.22227124672067E-06	-8.52145810645536E-06	-4.29921083743484E-06	-6.13257605547113E-06	0.986118838950364	-0.124185146398035
5.1	0.00393922023900319	0.000213034893549431	1.51155692346858E-05	-1.02513644530258E-05	3.4432039687165E-06	-8.69721828623457E-06	0.985968933203255	-0.125246965290602
5.2	0.00409149089638677	0.000212707254349549	-4.22888692505155E-06	-4.68096467896973E-06	-3.1477043811955E-06	5.31820417817777E-07	0.985405620658083	-0.127186906033358
5.3	0.00435642569877975	2.85800217053985E-05	4.76379552273815E-06	3.34254258845095E-06	-9.26437237071659E-06	-4.69341833012515E-06	0.984800443387566	-0.129096351812946
5.4	0.00455099867316151	-0.000102228291243326	5.15303786897878E-06	1.17794265487339E-06	-4.41725142060066E-07	1.03956787434813E-05	0.984263589148537	-0.131207208617189
5.5	0.00508893913759183	-0.000710548797098869	-1.80289060043108E-06	-1.96500741248011E-06	8.82281348468523E-06	4.93017422089626E-07	0.98451720795981	-0.13272997401867
5.6	0.00421793956335802	-0.00145771097983787	4.22540456102769E-06	7.18380196580583E-06	-4.67986050199837E-07	-8.56216122212224E-06	0.98485968261483	-0.135638674149703
5.7	0.00356220883419661	-0.00119380070462615	2.04324008555138E-06	-7.19190760447042E-07	5.44178202747914E-06	2.43662931280417E-06	0.984207699572758	-0.138124921865246
5.8	0.00322651721419876	-0.000916938959192298	3.88995970609789E-06	1.94782599951203E-06	2.71912189904918E-06	7.78693781654015E-06	0.98364907022837	-0.139777039188517
5.9	0.00297195355172017	-0.000477513116299141	-3.75966562668296E-06	-3.04157047716211E-06	-4.67141585406879E-06	-1.77192665903817E-06	0.983336913210998	-0.140636967807716
6	0.00350296919671643	-0.000399117789117313	-2.06794274810027E-06	1.69574530499498E-06	1.03851010543979E-05	-2.64500088520891E-06	0.985169552633898	-0.142130303987644
6.1	0.00281296989050213	-0.00139003640063673	-7.28631576084027E-06	-1.09606082885259E-06	-7.21874923346291E-07	-2.46931889159379E-06	0.98418176166569	-0.144940714362878
6.2	0.00164191059265688	-0.00134219895005877	-1.05596213939341E-06	1.97570864587021E-06	-3.45791412200326E-06	-5.33017223395001E-06	0.982834950620526	-0.145650505713482
6.3	0.000877884864410334	-0.000905628075304514	1.56364823446455E-06	2.81442632882905E-06	1.13181355845571E-06	5.93553748777247E-06	0.982274519552069	-0.146704870563591
6.4	0.000598753386875322	-0.000262356867424971	2.04903704086598E-06	5.01040033999796E-06	-3.31699502446251E-07	2.25408584267639E-07	0.982442233960174	-0.148125662158918
6.5	0.00107307625580054	-0.000422770483095074	4.64076420667141E-06	-1.86272240961641E-06	-4.65947221056434E-06	-1.54296333782805E-06	0.982620277108021	-0.151931642996149
6.6	0.000310581538422518	-0.000466704014907165	3.25922939975687E-07	-1.06076928473333E-06	9.2241942709497E-06	3.33479120733437E-06	0.981063805068563	-0.153885707710434
6.7	0.000169401656951676	0.000162199184026628	5.07275908700379E-07	5.5782192604598E-06	-1.79489467274991E-06	4.93601092278456E-06	0.981089807327417	-0.155228719530963
6.8	0.000150521833301836	0.000661530020799281	1.80923982523357E-07	-1.57675568827906E-06	-3.4373077706928E-06	-5.10398775471009E-06	0.981012195559054	-0.156909648711472
6.9	0.000252101023758745	0.00141361247801725	-6.63701383531681E-06	6.65633436546933E-06	2.27003231738001E-06	1.3563107096583E-06	0.981079178729529	-0.158155023034745
7	0.00121633074861971	0.00146590682959776	8.02393258130833E-06	3.18263234580099E-06	4.51920126481703E-06	5.8519061220503E-06	0.98190308478281	-0.159657477716306
7.1	0.000458454113544219	0.00110439264370965	1.3847959427581E-06	7.86587136311636E-07	-2.23854322852718E-06	-4.46452233745174E-06	0.981421872889636	-0.161882401899353
7.2	4.98261436574228E-05	0.00184900948819313	-1.59960043474043E-07	4.3753266433138E-06	-4.98284733694352E-06	-6.83336884301425E-07	0.98064065776925	-0.163361273617581
7.3	-4.46046645784982E-05	0.00253295966872999	1.37716295183459E-06	-5.2305771636292E-06	-2.32017508906558E-06	-2.79022035274743E-06	0.97949667114074	-0.164787211776585
7.4	-7.29152932643096E-05	0.00333708052454156	1.79846001826837E-06	4.4107460981075E-06	-7.17208339174808E-07	-1.06857592430563E-06	0.977862133458192	-0.165951858501572
7.5	0.000906400219730957	0.00368837106543873	-5.70305772907594E-06	-1.5346251480307E-06	-1.49384898767153E-06	-8.87503937852034E-06	0.978849720407123	-0.165677519486836
7.6	0.000491191178601715	0.00274991524050918	5.64280178899853E-06	-3.33219949406858E-06	9.93312291255295E-07	3.1932661979094E-06	0.980421016609683	-0.17006469243468
7.7	-0.000298351606061688	0.00291447867349706	-6.47381360073313E-06	-2.91055468556755E-06	4.32727044204649E-06	5.69885290534883E-06	0.979907004769826	-0.173839621815402
7.8	-0.000666986154140085	0.00332798571291319	-1.04086295069717E-06	-5.36022408259184E-06	-2.22026211430114E-07	1.14091125458868E-06	0.979577391973519	-0.176605911457674
7.9	-0.000511175257181187	0.0039494764066316	-3.40645680806097E-06	7.17899339988729E-06	5.2896080230859E-07	-6.87348636034571E-06	0.980201365109949	-0.178437025059671
8	0.000320812314870955	0.00359888214861513	-2.94283094627325E-07	7.39663906582968E-06	1.81188933812849E-06	-4.45125889141857E-06	0.983190425015249	-0.182299257356582
8.1	-0.0003481619485255	0.00365725168463156	-6.98394974894999E-07	-6.48289744703313E-06	-1.74457727078192E-06	-1.07644903838738E-06	0.981519270251683	-0.187387561988419
8.2	-0.000313770937869979	0.00441139893406044	-3.84226112167719E-06	1.63011029473009E-06	-1.09671430404189E-05	-2.68740653217921E-06	0.980365720875808	-0.189563673601759
8.3	-8.5389336926287E-05	0.00503286004755437	-5.49262020390275E-06	-9.90878886113631E-06	-7.81691368963517E-06	2.97482104289029E-06	0.979718561066365	-0.191913786281089
8.4	0.000280385865476431	0.00596213095444501	6.81985581324958E-07	-6.07223725436584E-07	-1.42150672641464E-06	4.32945201143287E-07	0.979382701815982	-0.194371432929529
8.5	0.00158677253593821	0.00622130672116749	-1.75338677240391E-06	-2.66516559129426E-07	-1.724730712947E-08	1.8059157220333E-06	0.978982081713439	-0.197727499958109
8.6	0.00137851213766618	0.00602617073650413	2.45414645070398E-06	-3.96244486225431E-06	-4.53370792390493E-06	-5.9569809668971E-06	0.978166680492272	-0.200210347165506
8.7	0.00160433674150295	0.00683685022728752	-1.48889750870703E-06	-2.1075722458438E-06	-3.58704540269449E-06	3.62322195495669E-06	0.978155301819471	-0.202599151371556
8.8	0.00234408166870905	0.00750805453913543	-5.49947915242925E-06	-2.15782057063713E-06	-7.24528828467517E-06	-1.31401106552917E-06	0.978230741338324	-0.205034442291857
8.9	0.00343713651258569	0.0079908483513056	8.56225216363727E-06	4.15026346298049E-06	-1.43724822387462E-06	3.20263948490147E-06	0.978598820786753	-0.207338309469035
9	0.00529868530480944	0.00754324465733952	-5.19384927023769E-07	4.16772874727006E-06	-7.84012107631071E-06	1.19769942348684E-06	0.978801775619958	-0.209933675420551
9.1	0.00570913459243532	0.00630098309982218	-2.59581428870774E-06	6.63757089483388E-06	4.1297821723895E-06	-3.06777121540852E-06	0.978700547100544	-0.212570570361109
9.2	0.00601310738540528	0.00573340768470689	-1.19677581831399E-06	3.4275894412333E-06	-2.24146645075438E-06	-2.07446277996162E-06	0.978260105518745	-0.215453846409292
9.3	0.00627971714530432	0.00522621512458578	2.35108794464825E-06	-4.0408864758676E-06	-7.86703660941212E-07	-1.78958021639071E-06	0.977661190935458	-0.218248745806912
9.4	0.00660976957194975	0.00501360325001524	-1.82225439882739E-06	3.89708068011011E-06	-2.05625751297017E-06	-3.5982694292312E-06	0.976642308917284	-0.220875059914616
9.5	0.00731514040350166	0.00424770039797137	3.46474110606184E-06	6.3325627350395E-06	3.80941518778202E-07	-2.15304847977336E-06	0.976886396778016	-0.222853793333606
9.6	0.00662368877342724	0.00373669660533447	4.59817213649011E-06	7.13692663635083E-06	-8.34481513558955E-06	1.280865086365E-05	0.976906338295738	-0.227061152440216
9.7	0.00659500868757117	0.00406621068715513	-2.88813776342344E-06	-1.55713437791299E-06	-1.37196381718328E-06	-3.9984559542164E-06	0.976093576799266	-0.230042243459971
9.8	0.00689157129299353	0.00424428765996259	1.49731212904398E-07	-3.61498549750407E-06	3.0493293632288E-06	2.42934035465154E-06	0.975811023608988	-0.231982158162959
9.9	0.00738510018618487	0.00454372953408544	5.83973606022324E-06	-5.84820704912082E-07	-2.62310765266152E-06	6.75509736282521E-06	0.976398109247779	-0.23296312915822
10	0.008625683345403	0.0040074054248298	-1.14864225104574E-06	-5.88728110366102E-07	1.3808932919666E-06	-1.19060868201818E-06	0.979194880378161	-0.236811786082529
10.1	0.0083231128594697	0.00306109914426216	7.4094642473375E-07	-8.48086847586191E-06	6.19301481089774E-06	3.6510404900415E-06	0.97678379579655	-0.241289079328393
10.2	0.0082912196260117	0.00302479970868066	7.52898666414691E-06	8.39929005445323E-06	5.25430864680763E-06	3.56950190971328E-06	0.975207688456796	-0.242722080417205
10.3	0.00857591438194863	0.00294573172720231	1.78551586120107E-06	-7.00496738402663E-06	1.43025369496814E-06	2.89261971488958E-06	0.974388512085225	-0.244424895542593
10.4	0.00917694145103618	0.00287692243174269	-4.05385958444866E-06	-3.67504632498487E-06	1.97836060914085E-06	-5.63872533090102E-06	0.974192958021436	-0.246617373569204
10.5	0.0102923911648488	0.00186738133809384	3.77479804217786E-07	-7.12023787535728E-06	-5.77364114864142E-06	4.10325758010979E-06	0.97385296893853	-0.250747579703716
10.6	0.00986152142899499	0.000767135257631101	5.5278361512922E-06	6.78690688754239E-06	2.45153796311104E-06	1.20351404636445E-06	0.972388796803335	-0.253793881346115
10.7	0.00966224845610856	0.000552149612212797	-7.13408995494443E-06	-1.70253582383369E-06	-7.791739629569E-07	1.57219911857553E-06	0.971676348864516	-0.257147353962483
10.8	0.00970334666321733	0.000456107652205094	1.50367199029815E-06	4.47854330868435E-06	9.48866378071794E-06	-4.51630235483757E-06	0.970580615414972	-0.259907080860105
10.9	0.0100901057515872	0.000572500258156393	3.440742115921E-07	7.48285894057803E-06	-5.20640887094245E-06	2.20724488119854E-07	0.97008257478768	-0.262240693314233
11	0.0113534951175913	-0.00017304138709335	-2.25263703996367E-06	-3.84833073864118E-06	1.21231585380502E-05	-3.61553448785329E-06	0.969615413831757	-0.264856594923345
11.1	0.0111816581247557	-0.00117208205786025	-6.17657386503327E-06	-4.95733053405293E-06	9.71062311392676E-07	5.61872833252822E-06	0.967733597772522	-0.267379583293137
11.2	0.0115051889511884	-0.00161753733507123	3.35334352874424E-06	4.32958174323824E-06	1.04949998890987E-06	-7.94338622545217E-06	0.965853436745605	-0.269150419011794
11.3	0.0121102479207618	-0.00238355284832053	7.09231063109283E-07	-2.68049844560036E-06	-4.84680646871185E-06	9.20118237532865E-06	0.964010255477086	-0.270509183124287
11.4	0.0125893077459644	-0.00332052710932432	1.47895633217417E-06	-2.22239989613453E-06	-3.05663173285575E-06	-7.47618824796623E-06	0.961932053388015	-0.271730799556065
11.5	0.0134096516181447	-0.00524406270236369	9.52281433272764E-07	-1.01844440410402E-06	-9.09630518111503E-07	-8.75492306673771E-07	0.962843238895257	-0.272934555917195
11.6	0.0125318815498067	-0.00734285834465214	1.13090682092645E-05	-3.33335224524906E-06	-5.48582704259904E-06	-6.87307671697815E-06	0.962226453453891	-0.278288364157255
11.7	0.0118604151360555	-0.00867431372090846	5.35832125129909E-06	-2.94087393733019E-06	-4.43911970356809E-06	1.68224296669386E-06	0.960195558142298	-0.282092437398814
11.8	0.0112195386186401	-0.0100475318790338	-4.65066878010803E-07	-2.56475853520935E-06	1.12734385191588E-06	1.33565724610808E-05	0.958893428166057	-0.285094090402899
11.9	0.010908378104415	-0.0113962810028852	3.35787063800755E-06	1.99137945850176E-06	3.57120260280233E-08	1.28318042999636E-05	0.960109333233245	-0.286775633206879
12	0.0101722474118447	-0.013616276845116	2.02426526694108E-06	4.77674346978677E-07	-3.73731175749714E-06	-9.59252913778959E-07	0.962662296252305	-0.292506221620363
