# GHZ S RI R 50
0.2	0.000576768408376344	0.00403717470106414	6.30187091280225E-06	-1.01054433360267E-06	1.06691911421829E-05	1.04846252809883E-05	0.99900661600962	-0.00727682258015476
0.3	0.00118733852101266	0.00357606353946056	5.81603263916046E-06	5.0316464136454E-06	8.09333337926823E-06	2.94796807780787E-06	0.99868126089712	-0.0101724491435531
0.4	0.00166385832968501	0.00330422612537243	-2.703970243523E-06	7.86529052335817E-06	-4.82400817633765E-07	-4.42758043810501E-06	0.998505989513316	-0.0127871821998545
0.5	0.00169984156269176	0.00329128805533464	2.30660846195717E-06	1.47808145883383E-06	7.50643587375959E-06	-1.05232837438146E-06	0.998125082172716	-0.0154712887494861
0.6	0.00227845381945404	0.00367086432919546	3.22940072762092E-07	3.53813817450465E-06	2.71325528054565E-07	-7.65765140361118E-06	0.998747473767602	-0.018403065667536
0.7	0.00277697397352457	0.00361398370480665	4.16409063994975E-06	5.02111610606384E-07	-3.89281290759466E-06	-1.90550311994612E-09	0.998381727021775	-0.0217608720652623
0.8	0.00321499080238349	0.00354924225443048	-2.88410479978823E-06	2.96315079956817E-06	-6.81539174702396E-06	1.32209267931935E-06	0.997948898254688	-0.0241705357310823
0.9	0.00359295174362577	0.00334955693146403	6.03056818085397E-06	8.95182581194917E-07	-7.33442244088559E-06	-1.82685429207894E-06	0.997497070426701	-0.026775489222548
1	0.00344942785657217	0.00291427686469937	2.35730470836489E-06	2.9395532565212E-06	-9.03057039105378E-06	-2.5815713388315E-07	0.996477120006288	-0.0283009047310331
1.1	0.00323537442503936	0.00335513761189265	6.43063480741826E-07	3.56598193098536E-08	-5.29418659845529E-06	1.40020091258796E-06	0.996195997978019	-0.0293884680644906
1.2	0.00346580160734907	0.00330092055223586	-5.28655565858706E-06	-3.28687143046563E-06	-1.11674317027052E-05	-1.26443806272858E-05	0.996168428585304	-0.0299624025135436
1.3	0.00339382033638192	0.00278880710140987	3.04565871596493E-06	3.10156592486654E-06	6.95248091514128E-06	-4.0778666541965E-06	0.996994042339242	-0.0305906949155256
1.4	0.00315331701957306	0.00197475853370151	-2.79634019427457E-06	-1.11407076891748E-06	5.70834061324998E-06	6.51510293306768E-08	0.997348982443773	-0.0327553380950819
1.5	0.00271361411292736	0.00166469530252285	1.24080838314891E-06	-2.53108140179093E-06	8.00013252646979E-07	2.51060227811137E-06	0.997729025787715	-0.0363033511635129
1.6	0.0030457181458959	0.00178753535287823	-9.29241533261077E-07	-6.41051124710166E-06	3.184806964238E-06	-4.23847349732502E-06	0.997295774141757	-0.0399668889650013
1.7	0.00329534607635426	0.00162066962981116	3.40156351646311E-06	6.34263250263188E-07	2.23060552255589E-06	3.84947077300294E-06	0.99712315115694	-0.0428441667614108
1.8	0.00340786896233327	0.00161645580305172	-2.37603247787887E-06	2.89304914411662E-06	-1.01109033053019E-06	-3.9931820022293E-06	0.996568698852579	-0.0457325751061576
1.9	0.00344775125852885	0.00143744044676095	-3.72625891443689E-06	-1.75876969449678E-06	5.62035446556972E-06	3.0248347862771E-06	0.995976056174079	-0.0482847025445372
2	0.00306204146339268	0.00158781115500228	-6.16019894255329E-06	-5.74069826741495E-06	-2.07859582618935E-06	9.13291134354536E-06	0.994160529479269	-0.0506172226955908
2.1	0.00334081498767176	0.00203216781795552	1.16335259284857E-06	4.59717679590277E-06	4.46740046631009E-06	3.98814724873097E-06	0.994279458793617	-0.0515516731867041
2.2	0.00360811395255898	0.00199927704872007	6.53625359864368E-07	9.06102748477901E-07	-3.60534995055452E-06	-1.09232203195993E-05	0.994839625366358	-0.0538789828527488
2.3	0.00370675783861993	0.00182163531829312	-2.28698096851422E-06	3.55013920651127E-06	-5.29628643397426E-07	-2.79209248897039E-06	0.994656325608337	-0.0557830925847663
2.4	0.00364235698096902	0.00151336174095825	-1.55147028135695E-06	-1.45606164701526E-06	1.28383919323113E-06	-9.94757254183929E-07	0.994578595566422	-0.0588320216438944
2.5	0.00293324830994564	0.00128328436729551	7.76932127041846E-06	4.07043185148544E-06	-2.32943621782076E-06	-7.2235894938858E-06	0.994114426669447	-0.0607782425996596
2.6	0.0025974931235099	0.00191441729709613	4.82426087410272E-07	2.11588554303652E-06	-1.47400639132811E-06	4.67811943698265E-06	0.994299892247207	-0.0633004294282085
2.7	0.00273355897836789	0.002323490795439	-7.86637974811651E-06	5.22066803371629E-06	2.51318695113815E-06	9.71370828539517E-06	0.994171518351408	-0.0661311172267726
2.8	0.00308282320834858	0.00263171721675057	-7.74962094130968E-06	7.93136734688788E-06	5.97108348727238E-06	1.99048325691263E-05	0.994464307573789	-0.0679869547552722
2.9	0.00353079811534486	0.00260616848608742	-1.19034595815127E-06	8.56671673847623E-07	-8.10470906246384E-06	-2.975261979789E-06	0.994407407552737	-0.0699668802589529
3	0.00368602140086446	0.00269613063965988	-6.01025199816993E-07	-4.47020502755276E-06	-2.19540209363965E-06	6.42994844628736E-06	0.994461246137375	-0.0723547396457268
3.1	0.00438430121516167	0.00282951783778465	-2.58641578916852E-06	8.42050183956092E-08	1.10133349398496E-05	-3.5031286633202E-06	0.994395447328906	-0.0742451485413444
3.2	0.00488513437283314	0.00250098207194996	-9.79602145678809E-06	2.52482947653615E-06	1.21431320449273E-05	4.28508221313003E-06	0.994483431691154	-0.076029695625559
3.3	0.00517868109813837	0.00200248949586885	-3.46793573646905E-06	9.24824933287672E-07	-5.00651753172525E-06	-1.54771296381673E-07	0.994585526634089	-0.0792762750837902
3.4	0.00518531785009961	0.0014152980172622	5.3443785047024E-06	5.000050385819E-07	1.34736794161759E-06	4.50033217904061E-07	0.994910813739906	-0.0813633844233757
3.5	0.00466171166741981	0.0010839381275185	2.76594616413209E-06	1.56393825018501E-06	1.31108346997977E-06	7.95144604056763E-07	0.994779360448622	-0.0845652307647779
3.6	0.00460717607933191	0.00127514869510936	-7.14610725694258E-06	-1.47135892651753E-07	1.87119027346682E-06	-3.49283415660695E-06	0.994381659335347	-0.0868796013933719
3.7	0.00462446276930717	0.00112675465744732	5.77948378677342E-06	-1.49945354068265E-06	-3.21214583550235E-07	-1.73303810242588E-06	0.994372861191084	-0.0895004540847242
3.8	0.00461535509578991	0.000986779421999394	-2.00444768624573E-06	8.72377164393483E-07	-5.19470940505648E-06	2.86830429561208E-07	0.994109617040626	-0.0915801831577995
3.9	0.00456143218753814	0.000750397441073689	-8.37187048733761E-06	1.76352891017722E-06	-4.11558386424617E-06	-1.50859691602139E-06	0.993879212339477	-0.0948960499791861
4	0.00413375538109712	0.000792966818477756	-5.82537072148009E-06	3.54344993030559E-07	-9.47762526214849E-06	-8.47121732805101E-06	0.99265370771089	-0.0955396093068945
4.1	0.0044226683521303	0.00118679569394475	-4.00051895598755E-06	4.05502092970013E-06	-1.897972948821E-06	5.57748756960279E-06	0.993636804263892	-0.0961888614948123
4.2	0.00479331976900808	0.00100735762550254	4.63752848465619E-06	-4.37513815662342E-06	6.75766229752667E-06	7.75636811872895E-07	0.994105797091082	-0.0990311592974301
4.3	0.00498871295339259	0.000665687906057514	-3.80395342609879E-06	1.1172330003337E-06	3.5568386451354E-06	-1.19729790086247E-06	0.994474585417609	-0.101352748882063
4.4	0.00490670278462231	0.000125497705471094	-3.13790364595852E-06	-4.9519018959966E-06	9.34539364244177E-07	-1.03489684496204E-06	0.994297822950107	-0.103805890652312
4.5	0.00415104953084885	-8.8883314764458E-05	-1.4012887628876E-06	2.02976954510252E-06	2.17734643202981E-06	-8.48434897942479E-06	0.99472731317437	-0.105678994221287
4.6	0.00391686186172112	0.000287621718705159	5.38074525907695E-06	9.63871645689462E-06	-1.4270940247504E-05	9.79735382801303E-06	0.995369485176136	-0.108922152653806
4.7	0.00387002963072252	0.000358507352664666	-7.58627434615818E-06	-9.61272040880447E-06	-1.1481178153592E-06	-1.38679920190328E-07	0.995540779562727	-0.111483829020067
4.8	0.00382518955515907	0.000426374437635402	-8.76264136736534E-06	-2.72170394260935E-06	-4.40630188016599E-06	4.54453241587797E-06	0.995248523080517	-0.114380147652342
4.9	0.00386859367898342	0.000332452338599041	5.76694330689328E-06	8.36071621659998E-06	-7.28960691129686E-06	3.26922514272351E-06	0.994950704943104	-0.116467345391907
5	0.00363392662397459	0.000386864979862428	4.31997326057467E-06	-8.56405767854406E-06	-4.291819161455E-06	-6.21618807646456E-06	0.994949883469314	-0.11820431877363
5.1	0.004182871024627	0.000616477112354352	1.53061049505971E-05	-1.02491761534476E-05	3.52449076464681E-06	-8.75122190122175E-06	0.995219509466391	-0.119810025170389
5.2	0.00465965632727902	0.000203975362170253	-4.2383722254229E-06	-4.74582902550568E-06	-3.17796601841924E-06	5.18229215800908E-07	0.995077777848867	-0.122339408053981
5.3	0.00487294630233965	-0.000344498990752552	4.78830596095521E-06	3.40065665970014E-06	-9.3224389383113E-06	-4.7898410584202E-06	0.994998701065978	-0.124752079742135
5.4	0.00473193894846346	-0.00102264472216484	5.20039596034387E-06	1.21945009950474E-06	-5.05179377374672E-07	1.05021654578953E-05	0.995401585849859	-0.127755611280437
5.5	0.00389007439141856	-0.00107311363236364	-1.81764171397195E-06	-1.99446180361864E-06	8.92593937152684E-06	5.28793316568111E-07	0.995275939346534	-0.131173565563871
5.6	0.00397781417118194	-0.000722322941324926	4.25368125680354E-06	7.2691505333513E-06	-4.5350781439385E-07	-8.65352770171012E-06	0.99510054587239	-0.133857165873732
5.7	0.00391464833370934	-0.000877871980225355	2.06630736132074E-06	-7.22373054767673E-07	5.49386074715096E-06	2.47399329395832E-06	0.995068121957153	-0.136852072249048
5.8	0.00368203311976932	-0.000995794252602778	3.92930325440143E-06	1.97442511892546E-06	2.73751281585668E-06	7.87508004132605E-06	0.994863612608231	-0.139678758032032
5.9	0.0033333495001762	-0.00120422790436722	-3.79895718877244E-06	-3.07301024263014E-06	-4.72012393329364E-06	-1.79010405486418E-06	0.993918066014521	-0.142662730905702
6	0.00216982971269227	-0.00117423167232719	-2.08627549764657E-06	1.70854573482722E-06	1.04733770318806E-05	-2.66034478886806E-06	0.992096620316407	-0.143406597719426
6.1	0.00184360447778953	-0.00019905356399168	-7.35983886045883E-06	-1.11964754472857E-06	-7.25190231601435E-07	-2.49607382026403E-06	0.993432908877497	-0.143577892360528
6.2	0.00193261546827446	8.72716209935071E-05	-1.06838609330234E-06	1.99805269531464E-06	-3.49636071670905E-06	-5.39164913734831E-06	0.994083134071041	-0.145630433854639
6.3	0.00201508023332121	3.90729595364988E-06	1.58455729066385E-06	2.84440971645519E-06	1.15144729961597E-06	6.0012711801192E-06	0.994018253249989	-0.148464692615216
6.4	0.0017294610177639	-0.000452927151888813	2.07809932963267E-06	5.0591422508938E-06	-3.34786217317504E-07	2.28263046532853E-07	0.993212032524567	-0.151223429249035
6.5	0.000942737936376347	-0.000202512579096379	4.69302063554108E-06	-1.88446230029279E-06	-4.71242391235978E-06	-1.55976394588023E-06	0.993230569578905	-0.153359619121887
6.6	0.00119573017438172	0.000177423075959207	3.27530911575905E-07	-1.07515513246195E-06	9.35050286077904E-06	3.35519071819903E-06	0.993836389652917	-0.157248950632741
6.7	0.00123616353408027	0.000155626190759314	5.36073312103697E-07	5.64306350561916E-06	-1.79632624746419E-06	5.00252569867999E-06	0.993087314400185	-0.160702947925565
6.8	0.00116389104416926	0.0001679063006038	1.75096916517784E-07	-1.5952597602651E-06	-3.5010844130648E-06	-5.14386483521078E-06	0.992086548632223	-0.163656695910902
6.9	0.00082840538735768	9.83379183215676E-07	-6.66951888197717E-06	6.76326877624773E-06	2.30143533332753E-06	1.35787336269309E-06	0.991039206966101	-0.166386959137379
7	-0.000174852730541712	0.000620292194620636	8.12567820534856E-06	3.16602077584385E-06	4.60140894716182E-06	5.88414691908629E-06	0.989497382086224	-0.167950992609192
7.1	5.79504102311726E-05	0.00169260066616839	1.40398809550802E-06	7.84611723151382E-07	-2.29201575009027E-06	-4.49283044270253E-06	0.989385579338428	-0.169490132217439
7.2	0.000324029478641625	0.0020634439039032	-1.27749006897861E-07	4.417900986327E-06	-5.03519588764642E-06	-6.51388701555652E-07	0.988795875046389	-0.171852459415112
7.3	0.000428032398587851	0.00229991697130479	1.34656753473443E-06	-5.2907693587946E-06	-2.36497146118101E-06	-2.79696355878367E-06	0.987717826098112	-0.174243360450563
7.4	0.000312746563727671	0.00213364824310498	1.85856780658993E-06	4.43828886609815E-06	-7.34618885868599E-07	-1.07257386556603E-06	0.986761699200293	-0.177682408462209
7.5	-0.000878754723650094	0.00220436579546012	-5.7750595992952E-06	-1.47137152552047E-06	-1.6271817871424E-06	-8.93464112592056E-06	0.983921622397324	-0.181561023870474
7.6	-0.00115958223641545	0.00340055662825601	5.62799225630524E-06	-3.42533887078869E-06	1.04130726264712E-06	3.19683207746182E-06	0.98191661921586	-0.183258688077946
7.7	-0.00121877115656077	0.00393698954601173	-6.53984438951076E-06	-2.83972330115555E-06	4.4198860946859E-06	5.66799478402588E-06	0.981334931003761	-0.186101171540645
7.8	-0.00103232468671166	0.00427155074512011	-1.11606076793024E-06	-5.36687882176249E-06	-2.07715668300214E-07	1.14822133469327E-06	0.980849523834595	-0.189308998050401
7.9	-0.000916957648629122	0.00435150326799454	-3.3107055413752E-06	7.24853110662824E-06	4.2979588776772E-07	-6.90006587320496E-06	0.979972901593488	-0.192811883167948
8	-0.00102144399770644	0.0052098733258662	-1.89382334823657E-07	7.39219698497832E-06	1.74685939747329E-06	-4.4716949979836E-06	0.978087764478758	-0.194484662942637
8.1	0.000140342846436498	0.0057971855515875	-7.7210183285552E-07	-6.46996082204579E-06	-1.75557513660486E-06	-1.0556509194102E-06	0.978961995523179	-0.196255190097774
8.2	0.000961672959130141	0.00575582109024366	-3.82285121898197E-06	1.67386090652384E-06	-1.09959049082428E-05	-2.56115366053448E-06	0.979117425931855	-0.199248140814083
8.3	0.00157746491423341	0.00560023952261715	-5.60462444554244E-06	-9.83885973610332E-06	-7.77755623140666E-06	3.06400211637082E-06	0.978405608762136	-0.202399940343327
8.4	0.00183698324717904	0.00524832020656985	6.74347708710913E-07	-6.13861877100287E-07	-1.41473960534624E-06	4.47958060200904E-07	0.977307218028422	-0.205309957073069
8.5	0.00128666793081718	0.00560309192891531	-1.7557557699481E-06	-2.48692919769293E-07	1.06151454698647E-09	1.80574805541704E-06	0.976397373420646	-0.207983106387749
8.6	0.00194751292106377	0.00652170563448474	2.40569494093504E-06	-3.9897291016833E-06	-4.6024617951691E-06	-5.8999794500322E-06	0.975745333229395	-0.211001115928953
8.7	0.00275035469752237	0.0067704934938993	-1.5114705734689E-06	-2.08515357400193E-06	-3.53564785389084E-06	3.65940978517062E-06	0.974738544694277	-0.213815281478912
8.8	0.00357256540241991	0.00682931751814117	-5.50620914810186E-06	-2.08614770785799E-06	-7.2362523081811E-06	-1.2247391118349E-06	0.973721814496075	-0.216139099585874
8.9	0.00433978369796928	0.00637672912941838	8.56981372423242E-06	4.04242777152957E-06	-1.3973999350052E-06	3.20425386285993E-06	0.973182469912717	-0.218109354189832
9	0.00437849085636212	0.00612436843291263	-4.75211312479922E-07	4.15957298409295E-06	-7.80260360774079E-06	1.27377738950083E-06	0.97250991647274	-0.220426330714945
9.1	0.00521910655634419	0.00616354651120301	-2.51114701478392E-06	6.63919989445095E-06	4.07859652150291E-06	-3.10118499818188E-06	0.971707742108294	-0.222441071988256
9.2	0.00591723396219481	0.0056172992907499	-1.15370174748044E-06	3.42383484329921E-06	-2.25304094123534E-06	-2.03998084146935E-06	0.970953884538955	-0.224810157904595
9.3	0.00639449540228277	0.0049981785411284	2.29647113271048E-06	-4.0447303442414E-06	-8.01451469990518E-07	-1.77206877896837E-06	0.97036081290623	-0.22727193063195
9.4	0.00653984452827864	0.00414769274116024	-1.77309820410359E-06	3.89746903201101E-06	-2.08385520008071E-06	-3.55978667306525E-06	0.969581447384431	-0.230476063153507
9.5	0.00608098295543825	0.00425386128581922	3.52646491293847E-06	6.2562906771869E-06	3.51903291356042E-07	-2.14671702480563E-06	0.967773156691998	-0.233548261753883
9.6	0.00664845900947244	0.00443393046972507	4.6479333187898E-06	7.02423908455321E-06	-8.12300747400182E-06	1.28074994106358E-05	0.966443935948345	-0.235897242673725
9.7	0.00703618399440948	0.00416963035157096	-2.879627671569E-06	-1.51141315256709E-06	-1.40388016753978E-06	-3.94774745122598E-06	0.965468621549066	-0.238165545836532
9.8	0.00732495863504902	0.00385812578658774	1.09522986647089E-07	-3.58221722524617E-06	3.04639734517901E-06	2.37352425268663E-06	0.964709542036686	-0.24016392274746
9.9	0.00738715180853762	0.00341935451379506	5.76849855456686E-06	-6.44143388429599E-07	-2.51795841999076E-06	6.70987047891126E-06	0.963234616857547	-0.242102052819993
10	0.00681076647730263	0.00361367503635508	-1.13718299779788E-06	-5.70161592685293E-07	1.350503299135E-06	-1.18547518621027E-06	0.961374440636811	-0.241955443827304
10.1	0.00750270324862868	0.00423054102247898	6.79335641061558E-07	-8.37398455407011E-06	6.13398802825189E-06	3.56519334641004E-06	0.961901562559454	-0.242470300001215
10.2	0.00840205883162866	0.00409443850941878	7.48074670967414E-06	8.24659815061852E-06	5.20723177202626E-06	3.49258974348582E-06	0.961614623234576	-0.243761362577455
10.3	0.00921517601287337	0.00353083115382217	1.72441012787483E-06	-6.91839110629042E-06	1.42580594727781E-06	2.84552635861062E-06	0.960814049051416	-0.245196697819657
10.4	0.00963174071757236	0.00250696882086837	-4.00673390141351E-06	-3.60593490421149E-06	1.92880601606985E-06	-5.56197948157098E-06	0.959729158266948	-0.246530634726497
10.5	0.00926952080516206	0.00217050448168245	3.65320886938554E-07	-7.02283216163823E-06	-5.69033742263669E-06	4.05256756230195E-06	0.959550077412919	-0.24779834286342
10.6	0.00990500315985099	0.00212079985388694	5.4651312825326E-06	6.68854983264795E-06	2.4209439240943E-06	1.18380410090154E-06	0.959405117148108	-0.250362775282832
10.7	0.0105398101067915	0.00165325640094834	-7.0345165631492E-06	-1.67215760286218E-06	-7.66756281930095E-07	1.55060970378388E-06	0.958791035461328	-0.252959117789796
10.8	0.0111856119036551	0.000911287429394919	1.47994522331694E-06	4.41313431803553E-06	9.35055353792988E-06	-4.44644267718914E-06	0.958132676631434	-0.254927195229863
10.9	0.0114175250499923	-0.000193762672244536	3.24059891114667E-07	7.37183584288109E-06	-5.12912430817412E-06	2.07077748092743E-07	0.957649022692279	-0.25685685217385
11	0.0110557994890983	-0.000623781456023021	-2.21092848303652E-06	-3.80148158641893E-06	1.19659490116345E-05	-3.53215075636309E-06	0.956783377218657	-0.258577287333925
11.1	0.0118051426491952	-0.000908249385870564	-6.07591655369004E-06	-4.90484752719436E-06	9.41749127679385E-07	5.54243762059246E-06	0.95570884627075	-0.260041023803942
11.2	0.0124861254650258	-0.00194348643101632	3.2895661837418E-06	4.28086457917476E-06	1.06450180241701E-06	-7.82692698419241E-06	0.954578703418027	-0.261359145974981
11.3	0.0130202557740885	-0.0034356980907586	7.12428558273612E-07	-2.64089428469836E-06	-4.82518461739005E-06	9.05373306924875E-06	0.954057986484032	-0.262773319866375
11.4	0.0129630150205181	-0.00529935419620437	1.47304230484513E-06	-2.18814383560121E-06	-2.98086468952245E-06	-7.40323755501136E-06	0.953273000859624	-0.265099342405662
11.5	0.0120057796283738	-0.00651658906740782	9.43963367874515E-07	-1.00290773679544E-06	-8.9567266096724E-07	-8.67758167632308E-07	0.951331617603663	-0.267481354135471
11.6	0.0118962112519731	-0.0076038115543937	1.11661220228378E-05	-3.23113194972579E-06	-5.37498326071567E-06	-6.80311528445329E-06	0.950185063627887	-0.269718305418929
11.7	0.0114256432313371	-0.00925806589245041	5.30408479257724E-06	-2.86586713023453E-06	-4.38929421623622E-06	1.63042214327841E-06	0.949268058309205	-0.272496324514548
11.8	0.0105234621427265	-0.010900247812146	-4.40688503772356E-07	-2.53451662546126E-06	1.01732723151056E-06	1.31898470056354E-05	0.948450691156636	-0.275479740421909
11.9	0.00910888225089494	-0.0124884940928569	3.29766423209032E-06	1.98762434211236E-06	-5.51056413682468E-08	1.26555501946424E-05	0.947744863300692	-0.277545397718523
12	0.00696613604785005	-0.0128784002488057	1.98682794192221E-06	4.89871837271621E-07	-3.66743167296707E-06	-9.80521808370907E-07	0.946970128828895	-0.277923470319765
