# GHZ S RI R 50
0.2	0.000520064900736373	0.00399062531659268	6.30197278715039E-06	-1.01041400679515E-06	1.06690869078727E-05	1.04849987038474E-05	0.999202443061907	-0.00709310922109941
0.3	0.00108830262031554	0.00348183110710651	5.81586326075746E-06	5.03250911127302E-06	8.09350000486117E-06	2.94893856349256E-06	0.998882506413778	-0.00997674192499094
0.4	0.00160772311188362	0.00318649352282463	-2.7046904026069E-06	7.86538666999162E-06	-4.82073763542792E-07	-4.42779116737177E-06	0.998673448927539	-0.012698218706714
0.5	0.00158925064312724	0.00301335607087858	2.30598481590781E-06	1.47852923105965E-06	7.50593314596487E-06	-1.05026451018999E-06	0.997770598904966	-0.0153659203978731
0.6	0.00210299923128354	0.00350120932159695	3.21653734285933E-07	3.53873422895299E-06	2.74239747112084E-07	-7.65857681764268E-06	0.998349580768205	-0.0176351150362222
0.7	0.00267640521618051	0.0034252965180166	4.16473771460433E-06	5.03452614248617E-07	-3.89355758760119E-06	-3.06964608754097E-09	0.99825458533982	-0.020711191507087
0.8	0.00312903289266865	0.003327858571255	-2.88550872946097E-06	2.96294266360318E-06	-6.81712796222344E-06	1.32046060603895E-06	0.998121882734355	-0.0229400522329352
0.9	0.00358777092785247	0.00315083836733584	6.03163164107248E-06	8.96873707296356E-07	-7.3355322074374E-06	-1.8290684742484E-06	0.998213974692963	-0.0255408414673612
1	0.00357680568109509	0.00244641378722846	2.3567849726478E-06	2.94060054253095E-06	-9.03167656599262E-06	-2.6073285382669E-07	0.997544955018173	-0.0278902257044415
1.1	0.00312848761861057	0.0028647095523694	6.43210376321045E-07	3.59037660747528E-08	-5.29601513194175E-06	1.39861380458904E-06	0.996703843462592	-0.0293564649287372
1.2	0.00337441151469387	0.00276126813318815	-5.28660677467129E-06	-3.2892766659018E-06	-1.11656936924708E-05	-1.26506643501163E-05	0.996227967892833	-0.0300951924398923
1.3	0.00308266769556079	0.00217642421951632	3.04433292945068E-06	3.10339161966202E-06	6.95516607629125E-06	-4.07465838779221E-06	0.996265730648267	-0.0304641743913632
1.4	0.00272464875987252	0.00155724839705795	-2.79602384747771E-06	-1.11657202133075E-06	5.70948604474271E-06	6.97932751826566E-08	0.99639055519464	-0.03175152562855
1.5	0.00226456278547634	0.00127553498878499	1.24330990586607E-06	-2.53161572218957E-06	7.98670887270356E-07	2.51258101164223E-06	0.996817499058306	-0.0350204521274117
1.6	0.00280648057670009	0.00159637494646807	-9.2711143741605E-07	-6.41467220437134E-06	3.18845135220014E-06	-4.23963809195455E-06	0.996660807861855	-0.0380046458211821
1.7	0.00326694494672629	0.00128311587294739	3.40326052685273E-06	6.35759001330149E-07	2.23056793874072E-06	3.85237910046335E-06	0.997157125562354	-0.040826616783816
1.8	0.00348555004440019	0.00115084633389359	-2.37860379113057E-06	2.89421446121634E-06	-1.01044370794554E-06	-3.99622016346131E-06	0.997188415626479	-0.0439292653204735
1.9	0.003678473906188	0.000768724288598762	-3.72982103693962E-06	-1.76118411188533E-06	5.62566738662917E-06	3.02886040791799E-06	0.997289234424301	-0.0471793553772998
2	0.00305400589319002	0.000489641803620387	-6.16862217849212E-06	-5.74169942315015E-06	-2.07485135889515E-06	9.14157207222245E-06	0.994652064146243	-0.0510981277032369
2.1	0.00310223467510797	0.00116728325887754	1.16452160077649E-06	4.59882769774544E-06	4.4697908730695E-06	3.98904834498296E-06	0.993663209534728	-0.0510298975673305
2.2	0.00340643389212705	0.00116830069416514	6.54152000808216E-07	9.06673920464282E-07	-3.60874786155899E-06	-1.09304615218279E-05	0.994600098558456	-0.0528334057272672
2.3	0.00350888051747559	0.00104177309455085	-2.2878467688878E-06	3.55364324295558E-06	-5.30830295636045E-07	-2.79420338948593E-06	0.994843588597919	-0.0546497954062326
2.4	0.00362604731786773	0.000776896405338847	-1.55325513835535E-06	-1.45628279501346E-06	1.28422014123651E-06	-9.96076173925146E-07	0.995272546554377	-0.0580069397271409
2.5	0.00296356605278698	9.53347840056432E-05	7.77448208500208E-06	4.07049709679748E-06	-2.33258323159561E-06	-7.2267586107172E-06	0.994698092562176	-0.0608443720355369
2.6	0.00224239911553947	0.000763425643207689	4.83806672813533E-07	2.11765083748077E-06	-1.47332818433531E-06	4.68313881712635E-06	0.99429281262262	-0.0636741697622329
2.7	0.00221560405725054	0.00131912951212137	-7.86841551914108E-06	5.23155543900366E-06	2.52341614256966E-06	9.71953256720637E-06	0.993500052416817	-0.0665724263531756
2.8	0.00258062148537596	0.00190095578951808	-7.7465794955723E-06	7.94297057319743E-06	5.99286879986152E-06	1.99103765849329E-05	0.993383966908376	-0.0679800992245741
2.9	0.00333589259513883	0.00195506276182295	-1.1901837440617E-06	8.57856850190443E-07	-8.10995112835709E-06	-2.97055964169202E-06	0.993499634881936	-0.0695897939466714
3	0.00347616824341065	0.00177091758908664	-6.02996617128281E-07	-4.47360123080492E-06	-2.19502808972189E-06	6.43585203480376E-06	0.993676271854858	-0.0720537035821186
3.1	0.00422291180778901	0.00210239912603176	-2.58917787755368E-06	8.61349289746215E-08	1.10228616225431E-05	-3.51477741216613E-06	0.993537806590287	-0.0736875936984791
3.2	0.00490444517438875	0.0016803147963059	-9.80386032981684E-06	2.53490783651113E-06	1.21585684415912E-05	4.27999664126427E-06	0.993820307030139	-0.0751479567661512
3.3	0.00527952135458399	0.00111089075164275	-3.47068678544707E-06	9.28029857465916E-07	-5.01148033228103E-06	-1.5159072880156E-07	0.994273728996811	-0.0781111082900412
3.4	0.00549422219915833	0.000421568245583222	5.35057693098273E-06	4.98703352851528E-07	1.34904369582804E-06	4.50070221748165E-07	0.99531021346079	-0.080059253472306
3.5	0.00484301988742671	-0.000332688957332571	2.77245252659594E-06	1.56528965459254E-06	1.31420186363991E-06	7.95892387184873E-07	0.995693823992051	-0.0842818933825435
3.6	0.00470234993648029	0.000109882229373941	-7.15708245944959E-06	-1.37105889750715E-07	1.86899809723749E-06	-3.50077974939031E-06	0.994500124914556	-0.0865704112729072
3.7	0.00495485889426886	-0.000135492240847889	5.78437003699765E-06	-1.50893679283131E-06	-3.23905297590211E-07	-1.73467432115527E-06	0.994941311387625	-0.0887926901878607
3.8	0.00508015808602949	-0.000502050654484166	-2.00581068075759E-06	8.76051498565088E-07	-5.2007928542229E-06	2.93900199722123E-07	0.995567708191183	-0.091177186350306
3.9	0.00513595272483069	-0.00115092943571537	-8.38206220752927E-06	1.7801812871074E-06	-4.12453517735748E-06	-1.50413278142466E-06	0.996356235535294	-0.0959910980447353
4	0.00410821845065471	-0.00177687910423248	-5.82879031835836E-06	3.70545173398674E-07	-9.50793560637967E-06	-8.45167680823623E-06	0.993354426934359	-0.0994924679182063
4.1	0.00378698085510319	-0.000917195879944147	-3.99257763548857E-06	4.0626741734965E-06	-1.88713173014882E-06	5.58103570974965E-06	0.992091911559105	-0.098926970091723
4.2	0.00409101839331477	-0.0007809156172516	4.62987678334349E-06	-4.38381506934612E-06	6.75948083656228E-06	7.63428967174923E-07	0.992314525222683	-0.101031043219185
4.3	0.00430669051808835	-0.00084815469042313	-3.80111380292274E-06	1.12448756007454E-06	3.55388469196582E-06	-1.20405499661272E-06	0.992491075764188	-0.103055452131759
4.4	0.00451451206382064	-0.00120647429758029	-3.14536014234897E-06	-4.9413407700032E-06	9.31643723452361E-07	-1.03593179180313E-06	0.9920293162905	-0.10546499856205
4.5	0.00369363163849958	-0.00175601183452723	-1.39733523679839E-06	2.02802593015049E-06	2.16631289107222E-06	-8.4736845083356E-06	0.991468911163304	-0.106874505216409
4.6	0.0033827519277595	-0.00089545389361663	5.38370130669779E-06	9.62914374901255E-06	-1.42555651597804E-05	9.80058328333092E-06	0.992258340884861	-0.109071047947082
4.7	0.00366726615280839	-0.000738530197095925	-7.59146898012179E-06	-9.59946518348597E-06	-1.14758314791396E-06	-1.37446302765569E-07	0.992654824753725	-0.111297523558416
4.8	0.0038454094128415	-0.00067083884447164	-8.75876188956231E-06	-2.70933201958806E-06	-4.3974785092272E-06	4.54600108397738E-06	0.992561385124493	-0.11384218174416
4.9	0.00424789133569656	-0.000871639364196288	5.7686824028382E-06	8.34537553272707E-06	-7.27798789588755E-06	3.27275730180265E-06	0.992759354278713	-0.115706536614923
5	0.00387275731463368	-0.00131365361953378	4.31384306481341E-06	-8.56115270582758E-06	-4.29212246807841E-06	-6.2108544103137E-06	0.993242530106226	-0.117829454645905
5.1	0.00448647949570787	-0.000806641364678664	1.52902230516254E-05	-1.02664074772303E-05	3.512800121971E-06	-8.75393748933181E-06	0.993608535261882	-0.119612514110196
5.2	0.00524034005099346	-0.00154618988006574	-4.24306693819644E-06	-4.73650816941966E-06	-3.17526483371798E-06	5.22767500640396E-07	0.993793205994468	-0.122452774454301
5.3	0.0053615976830483	-0.00248451165584481	4.78823444684482E-06	3.39053727154263E-06	-9.31974049108948E-06	-4.771984340967E-06	0.993682603998898	-0.125390837265415
5.4	0.00508420891147865	-0.00342456824595681	5.19542741603511E-06	1.21415318888478E-06	-4.9669821155843E-07	1.0490657306723E-05	0.993943394121631	-0.128611297568497
5.5	0.00346540390532411	-0.00378084412338773	-1.81951178388401E-06	-1.9927989997887E-06	8.92653110693649E-06	5.20522490544566E-07	0.993412885760334	-0.133021217234542
5.6	0.00354063739026563	-0.00247634403458094	4.26461971813066E-06	7.25473252398028E-06	-4.70317141449456E-07	-8.64551771535153E-06	0.99182187446661	-0.134979142789104
5.7	0.0040273117691982	-0.002587862134655	2.06212453756984E-06	-7.24789290376211E-07	5.49009004385351E-06	2.4612427249121E-06	0.992165607784917	-0.137002560421345
5.8	0.00412146156779985	-0.00287732912212106	3.92635182651445E-06	1.96584460770752E-06	2.74482988326338E-06	7.85951010818852E-06	0.992992310257922	-0.139750935613224
5.9	0.00427514178320547	-0.00345661980996345	-3.80025947201028E-06	-3.06173716816896E-06	-4.71776430955311E-06	-1.77861986661812E-06	0.993487327402851	-0.14442470800569
6	0.00276290842380595	-0.00483170684923604	-2.07474119213367E-06	1.70881057912073E-06	1.04319578903223E-05	-2.68088621855483E-06	0.988800612536979	-0.148850109728571
6.1	0.0012931504687196	-0.00359695401859371	-7.33219421086697E-06	-1.11167986917229E-06	-7.23658243175958E-07	-2.48614617350819E-06	0.987117095406792	-0.146766550569584
6.2	0.00093363427286525	-0.00290477558505804	-1.06561014389818E-06	1.99185130404117E-06	-3.4847687305534E-06	-5.37625578458698E-06	0.987310926573569	-0.1473853658154
6.3	0.00089258405123557	-0.00228943579430932	1.58013726801139E-06	2.83769158867411E-06	1.14752024312069E-06	5.98669855036785E-06	0.987194653988709	-0.148971352075273
6.4	0.00125120281745514	-0.00247289080886469	2.07433235194634E-06	5.04444140569748E-06	-3.337785334579E-07	2.27764399812992E-07	0.986684064913956	-0.151441100904131
6.5	0.000244167333497973	-0.00266707115434355	4.67777537729926E-06	-1.87249686545574E-06	-4.69341400300772E-06	-1.55907861698821E-06	0.98544510936522	-0.15184118795332
6.6	0.000867952561924187	-0.00191267391703881	3.28377134671881E-07	-1.07278118324329E-06	9.32918008070406E-06	3.36163762775855E-06	0.988777205634045	-0.154025472626932
6.7	0.000940985755489817	-0.00235340555566193	5.32789130880704E-07	5.63502316100819E-06	-1.79590557906244E-06	4.99439253079247E-06	0.989385545611093	-0.158290482792275
6.8	0.00066828798078777	-0.00222890995186588	1.74810958499608E-07	-1.59264513619741E-06	-3.49534312851282E-06	-5.13543664293579E-06	0.988951275006415	-0.161608395379564
6.9	0.000747907099231603	-0.00235271255979262	-6.65696042406133E-06	6.74994350837203E-06	2.29694073135044E-06	1.35535687598495E-06	0.988799588543573	-0.164923550184556
7	-0.000910496356359479	-0.00242181157115862	8.1110497660996E-06	3.16470713206555E-06	4.59120783896906E-06	5.87678463059457E-06	0.986283031323889	-0.16781558304298
7.1	-0.000735234015723835	-0.000263700746960202	1.4020641562838E-06	7.83728653343062E-07	-2.28854000162413E-06	-4.48717453299444E-06	0.985556108622964	-0.167703124083001
7.2	5.59766829572115E-05	0.000164696084987708	-1.27882032650722E-07	4.41085045098399E-06	-5.02712167197318E-06	-6.50734238023974E-07	0.985813782168073	-0.168927780628714
7.3	0.000372519443359982	0.000453984657194966	1.34716250512777E-06	-5.2800986715917E-06	-2.35891164120602E-06	-2.79313075545627E-06	0.985976910540254	-0.170113615364665
7.4	0.000922226029902547	0.000393139793157303	1.84799736961413E-06	4.43577379480956E-06	-7.31684528030923E-07	-1.07248688157747E-06	0.988148712254648	-0.172365432375214
7.5	-0.000209433228296659	-0.000673141388853934	-5.7791762604983E-06	-1.47709042251554E-06	-1.62187184835666E-06	-8.94397427155473E-06	0.988848999141152	-0.180335883005222
7.6	-0.000887279922345817	0.00108638610397706	5.62166013557129E-06	-3.42516715505166E-06	1.04196445838047E-06	3.19366704110429E-06	0.984557977646501	-0.183509686687865
7.7	-0.0004730999700864	0.00147392027337286	-6.53148958887107E-06	-2.83703694432665E-06	4.41378553476587E-06	5.66158722243247E-06	0.984108529166603	-0.186616616341973
7.8	-0.000106015044795149	0.00137986148922962	-1.11398533719112E-06	-5.36277670800644E-06	-2.07798155545271E-07	1.14724622514118E-06	0.983865122140198	-0.191003736330827
7.9	0.000209990502817532	0.000813929654617278	-3.30719745147983E-06	7.25074296245472E-06	4.26267066667043E-07	-6.90076764654901E-06	0.982872579192388	-0.197044564992379
8	-0.0015666724118493	0.000757004056059268	-1.65454057432135E-07	7.37835292205179E-06	1.72919445232995E-06	-4.4685223932339E-06	0.975100359955605	-0.202122383067793
8.1	-0.000332702651613261	0.00237982773595795	-7.73290058516439E-07	-6.4451614369298E-06	-1.74964567442138E-06	-1.05057458856567E-06	0.973408048232458	-0.19870012662556
8.2	0.000521456297380782	0.0022528303781595	-3.81147564877565E-06	1.66683719853087E-06	-1.09598772896721E-05	-2.55796029003475E-06	0.974343046345721	-0.199816304196736
8.3	0.000955553759374885	0.00224273427604701	-5.58227191688519E-06	-9.81396817984908E-06	-7.75702260589996E-06	3.05027770383184E-06	0.974031752346087	-0.202122781558576
8.4	0.00154099751308184	0.00196185730332017	6.72352194850932E-07	-6.11171035315423E-07	-1.40995765284543E-06	4.4534028812736E-07	0.973004340558872	-0.204514170761619
8.5	0.000146469013854596	0.00160801684208838	-1.74839725319487E-06	-2.53125626778603E-07	-4.46261466411804E-09	1.79896515860244E-06	0.971696708315035	-0.205724889557755
8.6	0.00059462904820772	0.00387758185027951	2.41324961504167E-06	-3.97513575019335E-06	-4.57623370960982E-06	-5.90292862214261E-06	0.972618877712872	-0.20748263378977
8.7	0.00194955067218778	0.00437863197396639	-1.50385302429872E-06	-2.08560305330173E-06	-3.53914833634486E-06	3.64474466936221E-06	0.97274996459169	-0.210264497888515
8.8	0.0030860555438907	0.00457853809760555	-5.4920646733807E-06	-2.09548226998093E-06	-7.22120338163478E-06	-1.23956205748564E-06	0.972529297497654	-0.212662649017821
8.9	0.00457293867229019	0.00411915994708358	8.54002782714723E-06	4.05739773813372E-06	-1.40324461814229E-06	3.19343286966262E-06	0.972658036186615	-0.214772374784797
9	0.00444682983464326	0.00287243367985341	-4.92243569910944E-07	4.15323190248026E-06	-7.79983272010138E-06	1.23956958957552E-06	0.972521333960593	-0.217466683631253
9.1	0.00523475946182507	0.00328566828785959	-2.5322101828516E-06	6.62856552013295E-06	4.08741380029078E-06	-3.08661308508585E-06	0.971731105529335	-0.219722728751755
9.2	0.00603348406207641	0.00223833670914348	-1.16562431842078E-06	3.41678174518415E-06	-2.24359603968636E-06	-2.04680665428334E-06	0.970767081312038	-0.221842941848663
9.3	0.00605851523937041	0.00143723475598482	2.31484583462319E-06	-4.031249219488E-06	-7.92370917610731E-07	-1.7749590035134E-06	0.970256973052673	-0.22328365438346
9.4	0.0061484414680012	0.000696791483571936	-1.79788357296013E-06	3.8891508253567E-06	-2.06354560868658E-06	-3.574680692934E-06	0.970916237511574	-0.22525061902605
9.5	0.00488162828013082	0.000717438517503628	3.50816649215986E-06	6.29321159773981E-06	3.63222989262367E-07	-2.15197588815679E-06	0.970504896737192	-0.22997532645472
9.6	0.00595494428759881	0.0020873456806567	4.63596675007065E-06	7.05085193736025E-06	-8.1755486894339E-06	1.2807418479374E-05	0.968562839506405	-0.231874492961824
9.7	0.00709189955939057	0.00168351374833547	-2.87820287975322E-06	-1.52290382448576E-06	-1.3924865279907E-06	-3.95737623333462E-06	0.96879596437197	-0.233617452128152
9.8	0.00779480817889389	0.00118879636512534	1.22511719282102E-07	-3.58794343079407E-06	3.0431176817534E-06	2.38846453256427E-06	0.969760821258144	-0.236032437961146
9.9	0.00859001139050521	0.000279549610738176	5.78607140065584E-06	-6.31930748524136E-07	-2.5412316768634E-06	6.72238141244195E-06	0.969945780507962	-0.240685647553529
10	0.00725901272864164	-0.000969724610679729	-1.13695225011768E-06	-5.71080474859625E-07	1.35158339162551E-06	-1.18468492449738E-06	0.963385912647244	-0.243028965475479
10.1	0.00741118064400316	0.000302097430960426	7.09584583069801E-07	-8.37122605314305E-06	6.12087756132209E-06	3.5872400152786E-06	0.964154597719367	-0.239029582536721
10.2	0.00823805549945078	0.000167996670595462	7.46104770535435E-06	8.28846080875844E-06	5.20214324628188E-06	3.51814214595705E-06	0.966290605441085	-0.240503477811865
10.3	0.00896654655586414	-5.26792484111428E-05	1.74898937493596E-06	-6.93007213057505E-06	1.42087055584082E-06	2.85662641599405E-06	0.966605783686295	-0.243324612839426
10.4	0.0101330004631575	-0.00105834049139904	-4.00745098569318E-06	-3.6189628835885E-06	1.94161218248663E-06	-5.56822850413741E-06	0.965294115548659	-0.246907625444366
10.5	0.00928124929393793	-0.00243291346105585	3.89864659440054E-07	-7.02727448147611E-06	-5.70895077619493E-06	4.03621238291589E-06	0.962820473092967	-0.248053502008472
10.6	0.00973524746775151	-0.00222984630546667	5.46091400324833E-06	6.72174015440223E-06	2.42407400901057E-06	1.19376245716142E-06	0.963172235550648	-0.250688980625223
10.7	0.00983046775507031	-0.00288873630112119	-7.04733158004497E-06	-1.68748550643465E-06	-7.71016750496875E-07	1.5527765170643E-06	0.961039122921774	-0.2535480384443
10.8	0.0101073904780301	-0.00292964844038042	1.47541730740801E-06	4.42195142109812E-06	9.37123351943172E-06	-4.43879753231149E-06	0.959561368404525	-0.253878074019786
10.9	0.0111135501039433	-0.00363076243748918	3.08906171399748E-07	7.37909715377492E-06	-5.13413799824695E-06	1.96517771452095E-07	0.959540909794292	-0.254321949835868
11	0.0102305065913218	-0.00484763499437174	-2.20359538148542E-06	-3.81780110697779E-06	1.20059839109763E-05	-3.50094744712589E-06	0.959260123068108	-0.254608770718476
11.1	0.0111333077317763	-0.0042163681799661	-6.0867712571078E-06	-4.933548042026E-06	9.33930491596135E-07	5.56309942954931E-06	0.960621396023823	-0.254502590497564
11.2	0.0122142718997724	-0.00543742033341632	3.29314966404945E-06	4.29925256158423E-06	1.07993091490285E-06	-7.84958150360321E-06	0.961911262122389	-0.255930211632747
11.3	0.0127823878406313	-0.00695172551718084	7.19606498134479E-07	-2.64726105231929E-06	-4.85677602257378E-06	9.07096766631261E-06	0.96343425569051	-0.257866985544967
11.4	0.0131795668023515	-0.00892594433146294	1.48542754116004E-06	-2.19219455155027E-06	-2.96999136772318E-06	-7.44113451028768E-06	0.965621124189201	-0.261323664513491
11.5	0.0112804600825721	-0.0108361641278846	9.50724397131855E-07	-1.00861849106836E-06	-9.00754678688317E-07	-8.73954135553274E-07	0.963998801047409	-0.268638096137931
11.6	0.0112298351114704	-0.0106034457896745	1.1209197941729E-05	-3.25482092688424E-06	-5.40347123501538E-06	-6.82620037962917E-06	0.960606052697273	-0.27057488403958
11.7	0.0115890074357496	-0.0120625272276618	5.32258672782221E-06	-2.87778239361229E-06	-4.40481263641435E-06	1.63758489291297E-06	0.961004290825483	-0.273576692251612
11.8	0.0115612105802217	-0.0138711452747227	-4.42885493084307E-07	-2.54589129004611E-06	1.02301512089589E-06	1.32491488916358E-05	0.961724901211852	-0.278746952871679
11.9	0.0110017409198748	-0.016703842866187	3.32062123482627E-06	1.99410088712578E-06	-3.47147538424269E-08	1.27312544400974E-05	0.960600369936315	-0.286017149492023
12	0.00735524970331172	-0.018801635211547	1.99651299651537E-06	4.82196823591795E-07	-3.68567326086072E-06	-9.66636750633801E-07	0.951311198584136	-0.289616303962852
