# GHZ S RI R 50
0.2	0.000394764353464387	0.00287017459297144	6.31408764213891E-06	-1.00082677919383E-06	1.06678440543979E-05	1.05211866428159E-05	1.00073252903329	-0.00644934528326864
0.3	0.00108732017533088	0.00274449952071777	5.82029911693767E-06	5.04970037459934E-06	8.10499610706593E-06	2.96516389643177E-06	1.00079537025022	-0.00942884467143256
0.4	0.00160022174045608	0.00286693068029896	-2.71849850427483E-06	7.88317161150721E-06	-4.79436325928368E-07	-4.43955638456093E-06	1.00123503767239	-0.0121859978495106
0.5	0.00245316140979115	0.00266438469430429	2.31233706859237E-06	1.48115462483323E-06	7.52400159618678E-06	-1.05619700694772E-06	1.00108608176032	-0.016202389970462
0.6	0.00234050290141417	0.00216273261596391	3.21547212701323E-07	3.54477012121397E-06	2.76109207285845E-07	-7.67146159790628E-06	1.0002716428978	-0.0188231084930713
0.7	0.00218228342526173	0.00237135388605044	4.17421771570878E-06	5.07303935512755E-07	-3.90271968419057E-06	-5.56962575299983E-09	1.00011836305647	-0.0211791472575548
0.8	0.00226605618790273	0.00263906807122918	-2.8960902889016E-06	2.97002652074656E-06	-6.83850408444986E-06	1.32008904890517E-06	1.00027375682084	-0.023066602548091
0.9	0.00228638852150081	0.00306822853396925	6.05368247717464E-06	9.03487208528615E-07	-7.36195057572877E-06	-1.83987021134176E-06	1.00064889425077	-0.0251854510474675
1	0.00312221888467426	0.00363375133332269	2.36839890233356E-06	2.95282991338142E-06	-9.07205203532026E-06	-2.58505975668285E-07	1.00151556723649	-0.0272081697385358
1.1	0.00359949962263386	0.00274082683153396	6.45656849556948E-07	3.53863705626174E-08	-5.31444152004621E-06	1.40922212609602E-06	1.00084938808793	-0.0306086295477172
1.2	0.0031730360850541	0.00188542833544625	-5.30783880422465E-06	-3.29414423207726E-06	-1.12170260021409E-05	-1.26798140239746E-05	0.99926976797182	-0.0322107528235233
1.3	0.00224260828570932	0.000859040930039981	3.05771274838933E-06	3.10668052341578E-06	6.96711898944213E-06	-4.09723735413851E-06	0.998044254105924	-0.0335196819467104
1.4	0.00128519819168797	0.000360965210211104	-2.8040735531313E-06	-1.11271265428856E-06	5.72110073303491E-06	5.74751315703907E-08	0.996871339661952	-0.0351699980307082
1.5	0.00146150137856421	0.000191134098114405	1.24051157370518E-06	-2.53922920020475E-06	8.05484164912742E-07	2.5159083405904E-06	0.997889880526097	-0.0382452924352795
1.6	0.00125578247271066	0.00035506393666215	-9.42519606755721E-07	-6.43042666981273E-06	3.18870505075097E-06	-4.25767271946671E-06	0.997750123939626	-0.0413177855816572
1.7	0.00166098389057396	0.000975344142963948	3.41621919268586E-06	6.30531954816261E-07	2.24652168423088E-06	3.86064166907955E-06	0.998842331558803	-0.0434168877791691
1.8	0.00217351557993894	0.00146628598370195	-2.38097778529225E-06	2.91023223016383E-06	-1.02308045480483E-06	-4.00878022273466E-06	0.999454615628322	-0.0459738619509719
1.9	0.00280961160152451	0.00182045923333593	-3.74743409025174E-06	-1.76228762859774E-06	5.65282206599238E-06	3.0320056281088E-06	1.00029314319205	-0.0478728619796402
2	0.00384275802138566	0.00154708933809817	-6.21583783097979E-06	-5.77064434831758E-06	-2.07630316183943E-06	9.20315870934746E-06	1.00176308930021	-0.0516493291974208
2.1	0.00365844256150099	0.000803086333995806	1.19050308760132E-06	4.62461492789164E-06	4.51520917876987E-06	3.99766473470256E-06	1.00056431067763	-0.0556624738874206
2.2	0.00336431720769844	0.000787218967326483	6.61939804037268E-07	9.08837668990222E-07	-3.67848771430665E-06	-1.09758659551925E-05	0.999910355634835	-0.0579796718275399
2.3	0.00313542229972761	0.000837381372589723	-2.28342188976058E-06	3.58323767267152E-06	-5.46705815308678E-07	-2.80659158843105E-06	0.999489331373294	-0.0597639088488245
2.4	0.00293615438161022	0.00115609047778234	-1.56894491453172E-06	-1.45616468382302E-06	1.28601439732995E-06	-1.007917652349E-06	0.999580067392532	-0.0629794459624749
2.5	0.00343129505047428	0.00133273535686533	7.83506761620727E-06	4.04245828547347E-06	-2.38699105645551E-06	-7.24617691462764E-06	0.999396387913273	-0.0658757160012996
2.6	0.00333961402858195	0.000753478125465186	4.97196791836595E-07	2.1232558538259E-06	-1.45360554655132E-06	4.70935610152505E-06	0.998893425541636	-0.0693215522537235
2.7	0.00302170410708598	0.00072360332928236	-7.87438008511085E-06	5.2956192317566E-06	2.58569468292343E-06	9.74776275179514E-06	0.998185770881713	-0.0727006976013617
2.8	0.0029455678853737	0.000966343123768945	-7.7359007410648E-06	8.02354587070176E-06	6.13467402787424E-06	1.9965995912325E-05	0.997830118157608	-0.0749287059854099
2.9	0.003260677471535	0.00126826680261608	-1.18964978725918E-06	8.69360775708245E-07	-8.16426763433866E-06	-2.92998889967372E-06	0.997203575868164	-0.0770767527731145
3	0.00404337973644757	0.00105505338681383	-6.3565722800467E-07	-4.48282179828147E-06	-2.15720107145243E-06	6.47024104778267E-06	0.996697273643239	-0.079805344265985
3.1	0.00400308883362415	0.000587081175809036	-2.59595040167395E-06	1.03190309936198E-07	1.10312537819428E-05	-3.5963014213111E-06	0.995609272800393	-0.0818526912577604
3.2	0.00399047636344348	0.000562126381158913	-9.81069264801714E-06	2.60992255721174E-06	1.22190314520527E-05	4.20558093838105E-06	0.994844029091603	-0.0833667580852629
3.3	0.00402342755086769	0.000500052932594981	-3.46980233191427E-06	9.5614690699237E-07	-5.02157576482276E-06	-1.13652055287654E-07	0.994176058184375	-0.0863838868687485
3.4	0.00411878844579313	0.000639108153585703	5.35673062201189E-06	4.54737616651545E-07	1.3532717819936E-06	4.39108662335844E-07	0.993650484516004	-0.0880206078239497
3.5	0.0046725564236545	0.000290460344788282	2.77953587108784E-06	1.54419758561025E-06	1.31792949759446E-06	7.85823149554451E-07	0.993646627364705	-0.0903369738917108
3.6	0.00428372286014294	-0.000277230314358766	-7.1562832988583E-06	-9.17317704722769E-08	1.84638413353052E-06	-3.51180462581923E-06	0.993296232384119	-0.0931928818885586
3.7	0.0039250387586148	-0.000240576546322044	5.77128033973584E-06	-1.5490609974122E-06	-3.35992740517474E-07	-1.73165521679885E-06	0.99286538951014	-0.0958185431838623
3.8	0.00382323469044398	-4.0008704218275E-05	-1.9972398979689E-06	8.89459843724941E-07	-5.19277129897509E-06	3.30913845687377E-07	0.992538956041387	-0.0977081926937574
3.9	0.00405888250297718	0.000265047187121743	-8.35695020568577E-06	1.83038093023064E-06	-4.12726651071772E-06	-1.47550501600656E-06	0.99305286489329	-0.10069202336274
4	0.00480895226735282	-7.51108383243229E-05	-5.82792573121492E-06	4.06353219867566E-07	-9.56202087539212E-06	-8.39545128668568E-06	0.993702453064468	-0.10387524691004
4.1	0.00456634872829737	-0.000684542019921047	-3.95578830268761E-06	4.09377623632439E-06	-1.83886895541801E-06	5.59342045027603E-06	0.991420414040545	-0.106972023738199
4.2	0.00439792996429174	-0.000759319380925333	4.58325548460004E-06	-4.41336386840735E-06	6.75153642453684E-06	7.05078942590862E-07	0.989679850597622	-0.109091738056049
4.3	0.004352867359148	-0.000772898038413836	-3.78144061087634E-06	1.15209293464565E-06	3.53425630548067E-06	-1.2294398165368E-06	0.988959527198913	-0.110699436626208
4.4	0.00441969659104834	-0.000645536330119435	-3.17725044944782E-06	-4.90089049746022E-06	9.20340620272776E-07	-1.04065905360534E-06	0.988195142957707	-0.112815967524283
4.5	0.00497121656151136	-0.00100876836971375	-1.37136681082407E-06	2.03264973447224E-06	2.07410083067379E-06	-8.45720800979367E-06	0.987326248830531	-0.115301539995621
4.6	0.00442199303840898	-0.00175992690028082	5.42882492245687E-06	9.52260959417511E-06	-1.40826862478794E-05	9.85561353600179E-06	0.986000103789953	-0.117422209243206
4.7	0.00384999613700737	-0.00180337801149377	-7.61226608828793E-06	-9.48117279421416E-06	-1.14109977029688E-06	-1.28139156921863E-07	0.985534359899464	-0.118868175389152
4.8	0.00343902204290814	-0.00156825029016272	-8.72016101626948E-06	-2.63012350534685E-06	-4.33669886385292E-06	4.54693339475414E-06	0.984842750790806	-0.120906320612074
4.9	0.00344981235628504	-0.00108739363582428	5.78923748438212E-06	8.24639548477513E-06	-7.20435115030047E-06	3.30276780977831E-06	0.98432687711674	-0.122239902833392
5	0.0041674957890425	-0.00131873207546779	4.21772742774643E-06	-8.51717582717756E-06	-4.29796369965467E-06	-6.12781977025805E-06	0.984214387511698	-0.123635261798412
5.1	0.00405565936326712	-0.00178000991740125	1.51042791209546E-05	-1.02579730257249E-05	3.43651953624048E-06	-8.69676091898483E-06	0.983992812507432	-0.124733531815948
5.2	0.00414591404879416	-0.0019470157540004	-4.23081445131609E-06	-4.67524560537816E-06	-3.14578782114403E-06	5.34198277781006E-07	0.983720602859808	-0.126742060092551
5.3	0.00422848646028896	-0.00219152823484856	4.76359660780993E-06	3.33639361359141E-06	-9.26245807387065E-06	-4.6826073360766E-06	0.983260955073826	-0.129043793363924
5.4	0.00436858123664194	-0.0022238355726059	5.15012648574559E-06	1.17371913541349E-06	-4.34587895655994E-07	1.03885358817273E-05	0.982665629339841	-0.131527234549232
5.5	0.00482174379937181	-0.00294793944785827	-1.80404413220385E-06	-1.96297580629241E-06	8.82085196445919E-06	4.85528687369499E-07	0.982441556155818	-0.133815092418304
5.6	0.00397231393842571	-0.00349993322243715	4.23156512831316E-06	7.17244568461444E-06	-4.78981953332924E-07	-8.55469230372801E-06	0.981731385089211	-0.136159079625158
5.7	0.00337178449775255	-0.00331700369675492	2.04018006711542E-06	-7.20633903071584E-07	5.43840852294727E-06	2.4279491818911E-06	0.981320115750017	-0.137881733253809
5.8	0.00294965153834329	-0.00302077869484924	3.88772926453458E-06	1.94219921901705E-06	2.72351886302217E-06	7.77633803269405E-06	0.981541115378937	-0.139348048692146
5.9	0.00279163916081911	-0.0023891148614051	-3.76064156239463E-06	-3.0351441484375E-06	-4.67029995031058E-06	-1.76530461613566E-06	0.98249293770878	-0.141144059437086
6	0.00351703027859778	-0.00254637006478785	-2.06193263513205E-06	1.69739924080989E-06	1.03660924017218E-05	-2.66120702581939E-06	0.983305199775769	-0.145415937447081
6.1	0.00274362564866562	-0.00349542123469497	-7.27482975685404E-06	-1.08599852039196E-06	-7.23377557444596E-07	-2.46420336899947E-06	0.980176667236849	-0.147755193889282
6.2	0.00158558327192755	-0.00350115089911374	-1.05265454547589E-06	1.9737468009606E-06	-3.45757721513553E-06	-5.3192705324481E-06	0.9781016773439	-0.14784830109961
6.3	0.000787015493754962	-0.00300090713291506	1.5641911114204E-06	2.80919057826029E-06	1.13585997207396E-06	5.92652525627972E-06	0.977151866820303	-0.148183585601285
6.4	0.000748742548772097	-0.00231591942700257	2.05198195671137E-06	4.99981393502534E-06	-3.30887016910773E-07	2.25459552963532E-07	0.97726330518144	-0.149252894975137
6.5	0.00126347117538168	-0.00286720598855656	4.62843551486144E-06	-1.86110926286663E-06	-4.64920654818459E-06	-1.53636347940397E-06	0.976431092210297	-0.152080219494411
6.6	0.000500949961808302	-0.00308033555941334	3.25053309069266E-07	-1.05893816906392E-06	9.20840373219872E-06	3.32632420684691E-06	0.975991031165274	-0.152480544737109
6.7	8.6179249917965E-05	-0.00273914462792871	5.09216022970262E-07	5.56786155739674E-06	-1.7891162198168E-06	4.9279954322556E-06	0.976920549485308	-0.153751151795019
6.8	-0.000251527571296228	-0.00210697835874751	1.79728406899184E-07	-1.57367297605285E-06	-3.43306932722218E-06	-5.09188895523376E-06	0.977412585753925	-0.155342163848697
6.9	-1.53695515255869E-05	-0.00108731917667766	-6.62097341771009E-06	6.64322011590469E-06	2.26535734873742E-06	1.35282959964753E-06	0.978339781408694	-0.156751200672314
7	0.000990900624012167	-0.00132901448706109	8.00912219793057E-06	3.17886315276747E-06	4.50993955235758E-06	5.8426555344628E-06	0.978969905697645	-0.159330977075599
7.1	0.000247187431552768	-0.00156045297697922	1.3829552785704E-06	7.85251893133457E-07	-2.23607282510979E-06	-4.45783290526046E-06	0.977828068273601	-0.160792432254916
7.2	-0.000199228376150925	-0.0010438834028734	-1.58295450753178E-07	4.36805648135359E-06	-4.97472771177088E-06	-6.80602559170494E-07	0.977377740203341	-0.161432709874586
7.3	-0.000623304571502217	-0.000359465167541968	1.37369591246283E-06	-5.22019674938603E-06	-2.31585654033496E-06	-2.78428211015862E-06	0.976909837187103	-0.161939717263749
7.4	-0.000779126809096031	0.000829504902753967	1.79245159656215E-06	4.40243566813579E-06	-7.15163855109866E-07	-1.0667059553895E-06	0.977128755240177	-0.162096983226666
7.5	0.000291579777845644	0.00115925743364969	-5.69560748674354E-06	-1.53393118330904E-06	-1.49008150365515E-06	-8.86427739788185E-06	0.980520857860513	-0.163892807365926
7.6	-0.000119859805422103	0.000616549390601964	5.63023976038219E-06	-3.32614971935314E-06	9.91780593658894E-07	3.18631778660723E-06	0.981231300355308	-0.169374541161008
7.7	-0.000654542673510911	0.000869213165004902	-6.45816184617963E-06	-2.90538579368294E-06	4.3159074894563E-06	5.68672840658148E-06	0.980798609143813	-0.173459248415588
7.8	-0.000776023471236381	0.00128323845439081	-1.03601836520472E-06	-5.34983904698819E-06	-2.22154191481837E-07	1.13847530444034E-06	0.980639218320969	-0.176853222574563
7.9	-0.000188015695001839	0.00172755888884017	-3.40485849100711E-06	7.16762287731702E-06	5.31198700252875E-07	-6.86377937524162E-06	0.98136277781441	-0.180070568254716
8	0.000539707789803869	0.000735588448623206	-2.90128788082464E-07	7.38303833783052E-06	1.80635156855508E-06	-4.4438713618828E-06	0.981597739721069	-0.18583619163042
8.1	-7.45540762423248E-05	0.000700270367094553	-6.92025361677233E-07	-6.46868799273438E-06	-1.73982052578523E-06	-1.07529129097699E-06	0.978284310174937	-0.188310365908188
8.2	-0.000195352748308223	0.00113364765860615	-3.83805895380823E-06	1.62269091395388E-06	-1.09460229748218E-05	-2.69668451702073E-06	0.97764507185924	-0.189298222379155
8.3	-0.00023009761733371	0.00174059886281944	-5.4738970643056E-06	-9.90349613766237E-06	-7.81108274203994E-06	2.96169381891913E-06	0.97742474319531	-0.191116249738974
8.4	0.000227850627734726	0.00282750264581676	6.81600956491868E-07	-6.05641049494621E-07	-1.41986032927198E-06	4.30868068418371E-07	0.977365027599983	-0.19331269017666
8.5	0.00149470635702351	0.00270465323720668	-1.74950156954819E-06	-2.69836551038661E-07	-2.11515502721298E-08	1.80247491563493E-06	0.976883220607338	-0.196014492688927
8.6	0.00121414245467086	0.00264272866321811	2.46225399829158E-06	-3.95295688558422E-06	-4.51481990722696E-06	-5.96369185289439E-06	0.977013026243198	-0.197841817152746
8.7	0.00134247081666813	0.00321832386216896	-1.48321273710623E-06	-2.11028544467788E-06	-3.59428369797441E-06	3.61309746596094E-06	0.977742005206212	-0.200301802986978
8.8	0.00170414320906859	0.00390398978484539	-5.4934663298014E-06	-2.17025360623242E-06	-7.24093020844004E-06	-1.33066427134851E-06	0.978324666449348	-0.202915983928613
8.9	0.00268597335574707	0.00475941066677236	8.55051613899566E-06	4.17080683555836E-06	-1.44495166353044E-06	3.19853532205702E-06	0.979006369704845	-0.205445242339794
9	0.00459085664862289	0.00429301561152238	-5.32837428878328E-07	4.1688084093387E-06	-7.84899517668269E-06	1.17380941983844E-06	0.979361999766822	-0.208223665914445
9.1	0.00512058856973684	0.00327162202161369	-2.61484605410549E-06	6.63861685407931E-06	4.14182850620967E-06	-3.0611244707682E-06	0.979200006806678	-0.210916005756544
9.2	0.00550321061179854	0.00254646825053343	-1.20631663355366E-06	3.42732981420418E-06	-2.23806109523522E-06	-2.08173386025719E-06	0.978573139132824	-0.213562895287887
9.3	0.00563213224441529	0.00208536910301507	2.3649245010222E-06	-4.03708192261542E-06	-7.82010805957262E-07	-1.79331950279884E-06	0.977991250337207	-0.215641825754468
9.4	0.00618454230111309	0.00211847504507969	-1.83813072353174E-06	3.89571816259684E-06	-2.04637019016611E-06	-3.61001163608815E-06	0.977878296868908	-0.217446236988065
9.5	0.0069789994312384	0.00111024193890139	3.45577568675621E-06	6.35665116390339E-06	3.87624220610858E-07	-2.15704282281477E-06	0.979082810390731	-0.220210927798062
9.6	0.00657565816604413	0.000641652226597676	4.5914830385254E-06	7.15544141854027E-06	-8.38016444082605E-06	1.28112833589469E-05	0.97901079858654	-0.224229796738636
9.7	0.00658540706201293	0.000612781073354329	-2.88788898363773E-06	-1.56502823127797E-06	-1.36482749003864E-06	-4.00570892105614E-06	0.979024572106215	-0.227041743589946
9.8	0.00667021712959483	0.000725293440502759	1.58412556334013E-07	-3.61958170270597E-06	3.04780620474799E-06	2.4398151091024E-06	0.979761286993365	-0.229317638924873
9.9	0.00726087508678933	0.00119252966248146	5.85332146419708E-06	-5.75266607406833E-07	-2.64122395515263E-06	6.76470644645514E-06	0.981303335004408	-0.23176586360312
10	0.00846095737610277	0.000321239075258228	-1.14951775221634E-06	-5.90181829770822E-07	1.38326121623879E-06	-1.19098217658839E-06	0.981656257375991	-0.236915957707792
10.1	0.00811884315207762	-0.000437969134083251	7.57251724385686E-07	-8.48724722877523E-06	6.19194166332905E-06	3.66578699774405E-06	0.979565664250456	-0.238891076800008
10.2	0.00803257381171857	-0.000564339605955772	7.52509253255935E-06	8.42636247421406E-06	5.25585231882351E-06	3.58482681283543E-06	0.979535788650018	-0.240540431835022
10.3	0.00818048011675019	-0.000435282327361179	1.79860134603844E-06	-7.01496861830867E-06	1.42872521648151E-06	2.89981096223725E-06	0.979403135474698	-0.243265042404474
10.4	0.00915971957930012	-0.000206369609646821	-4.05602005148887E-06	-3.68271806855773E-06	1.98516426584E-06	-5.64415436935818E-06	0.978926974364949	-0.247037956120128
10.5	0.0105419800284918	-0.0016213077371829	3.90247005647664E-07	-7.12199900870279E-06	-5.78289573652982E-06	4.09441048327875E-06	0.976720580071548	-0.251259866611915
10.6	0.0102726571326576	-0.00294957204916018	5.52243709765007E-06	6.80554776552093E-06	2.45243685815764E-06	1.20950197071747E-06	0.975223573177189	-0.253874308163759
10.7	0.00982316869152829	-0.00354938892285574	-7.14012404523486E-06	-1.71370123900099E-06	-7.82100605502007E-07	1.57300786970959E-06	0.973738183551887	-0.257037254951481
10.8	0.00958174338804502	-0.00355307371756095	1.50024665971496E-06	4.48407599107194E-06	9.50179629092872E-06	-4.51021521000785E-06	0.972377925154328	-0.258966863288484
10.9	0.0103376828925165	-0.00320529152231439	3.33308886391198E-07	7.48836173250564E-06	-5.21021015204769E-06	2.1322173961977E-07	0.972317305750738	-0.26016079202054
11	0.0116662072380735	-0.00451911302991011	-2.2486374323098E-06	-3.85963522328171E-06	1.21516181612594E-05	-3.59689645113121E-06	0.972370995427613	-0.261541209397825
11.1	0.0115008632954613	-0.0056752955257656	-6.18672503424211E-06	-4.97510771733349E-06	9.68069314606929E-07	5.63315974525739E-06	0.972611119159794	-0.263005410741723
11.2	0.0115464060360296	-0.00660072671155548	3.35870609312142E-06	4.34037446070129E-06	1.05520089846158E-06	-7.96007181594553E-06	0.972706541527368	-0.265189564779245
11.3	0.0114896193322504	-0.00741705007594456	7.11503815503382E-07	-2.6852818565053E-06	-4.85913687877025E-06	9.21675505937254E-06	0.972464552075036	-0.267555742184837
11.4	0.0117134790112372	-0.00800538956623388	1.4837840229427E-06	-2.22600919998045E-06	-3.05747898500587E-06	-7.49440605781922E-06	0.97199021770829	-0.27021109483301
11.5	0.0121604778396935	-0.0099701223532932	9.54928904723575E-07	-1.02225969953658E-06	-9.13050202319352E-07	-8.77939156827121E-07	0.972533531876912	-0.274489674621529
11.6	0.0111908168545995	-0.0114341550961894	1.1326960954829E-05	-3.35508195198595E-06	-5.50587283927653E-06	-6.87931883171843E-06	0.970641213327586	-0.279687421004638
11.7	0.010598978865063	-0.0124445683566827	5.36451891695515E-06	-2.95117347022367E-06	-4.44500026741426E-06	1.68949390225408E-06	0.969383234512952	-0.284029164365514
11.8	0.0102012033003539	-0.0133814970633231	-4.68179823610735E-07	-2.56990171434974E-06	1.14076592995958E-06	1.33844222752345E-05	0.96860201733739	-0.288725684284978
11.9	0.0106949404271233	-0.0145961743681748	3.37209412613342E-06	1.99281332069499E-06	5.56241658419175E-08	1.2874364485128E-05	0.969036606710908	-0.29370773971399
12	0.00987681855153331	-0.017397453040705	2.03028975740639E-06	4.72828690897708E-07	-3.74866134033982E-06	-9.50483251935205E-07	0.965681670746675	-0.300099530532901
