# GHZ S RI R 50
0.2	6.8423860374503E-06	0.00234529235942003	6.32565713692513E-06	-9.94073047800321E-07	1.06711888584495E-05	1.05524057433012E-05	1.00177901573424	-0.00583510103339128
0.3	0.000843415268112029	0.00255024748498579	5.82539516948535E-06	5.06506050091262E-06	8.11645324743829E-06	2.9792094406621E-06	1.00216705564914	-0.00873290689814216
0.4	0.00139931894827099	0.00311421952077132	-2.73106462419647E-06	7.8999137609781E-06	-4.77163041875888E-07	-4.45053322157336E-06	1.00328056082054	-0.0113127986696556
0.5	0.00317339874985748	0.00292317257522889	2.31819999619192E-06	1.48348128217428E-06	7.54050433742962E-06	-1.06187513428096E-06	1.00417073548469	-0.0165248370633104
0.6	0.00255125524345899	0.00151511967579978	3.21392818010886E-07	3.54994680467658E-06	2.77847416183E-07	-7.68249508700142E-06	1.00223197418167	-0.0197988289115412
0.7	0.00181687370023276	0.0019864066918786	4.18216373689809E-06	5.1081450413679E-07	-3.91043049614294E-06	-7.92534778967197E-09	1.0019277302563	-0.0218009891786157
0.8	0.00162249507974085	0.00253380964956541	-2.90513466099644E-06	2.97568229599765E-06	-6.85639259852177E-06	1.3192213471526E-06	1.00209655656935	-0.0236148061034753
0.9	0.00117305319028222	0.00346615352007835	6.07210930971611E-06	9.0966204935665E-07	-7.38394951276127E-06	-1.84969664278647E-06	1.00225364972815	-0.025320882800934
1	0.00268061663480341	0.00544019961738705	2.37844560103012E-06	2.96360590282623E-06	-9.10733877938551E-06	-2.56885351410632E-07	1.00426170674419	-0.0263128804535239
1.1	0.00408516025480881	0.00361295126513805	6.47874387072906E-07	3.49641283739064E-08	-5.33126632991425E-06	1.41845977775618E-06	1.00437694881708	-0.030823236296063
1.2	0.00326085144950575	0.00271087576232645	-5.32942712260866E-06	-3.30118581203575E-06	-1.12675923633219E-05	-1.27148845252814E-05	1.00289688436218	-0.0324639638967778
1.3	0.00249598855458452	0.00181192575040119	3.07323536814068E-06	3.11354537113149E-06	6.98647010271341E-06	-4.12205635454569E-06	1.0022650317336	-0.0343302662816482
1.4	0.00161882197948727	0.00123054895398015	-2.81486946806164E-06	-1.11020869083185E-06	5.73849957706042E-06	4.56834133626113E-08	1.00074597624583	-0.0370036975453243
1.5	0.00248285350729803	0.000635211795919669	1.23867401495103E-06	-2.54729258324542E-06	8.11940154638492E-07	2.52016076415336E-06	1.00198199107855	-0.0405348239156887
1.6	0.00120519655211238	5.90785665007859E-06	-9.54974122872706E-07	-6.44378041868205E-06	3.18926960374308E-06	-4.27260758646791E-06	1.00074366558553	-0.0448008225200228
1.7	0.0011664215177042	0.00124287866133451	3.42559173124661E-06	6.26422833691939E-07	2.25838098731955E-06	3.86634244882048E-06	1.00111851206541	-0.0466001859146299
1.8	0.00161818984430226	0.00212178421276917	-2.38142250853936E-06	2.92110480607537E-06	-1.03241975278935E-06	-4.01627244045193E-06	1.00123794466534	-0.0487992204958516
1.9	0.00226963838955931	0.00315851119184288	-3.75691298180636E-06	-1.76185924129617E-06	5.66751949107904E-06	3.03211700169321E-06	1.00167817820355	-0.0490828400357263
2	0.00474560203095971	0.00315250776735154	-6.24373960340828E-06	-5.79311251552347E-06	-2.08231942179471E-06	9.24255024667649E-06	1.00709160906459	-0.0516053564300221
2.1	0.00432404117007876	0.00101437809104592	1.20958436524923E-06	4.64187096665739E-06	4.54737569112446E-06	4.00223208363486E-06	1.00618400358227	-0.0599747937778317
2.2	0.00336978595705063	0.00101274711460647	6.67307977847685E-07	9.09607609731275E-07	-3.72879845535212E-06	-1.10000800560257E-05	1.00366028590881	-0.0630719552996848
2.3	0.00273721686471787	0.00121917937046556	-2.2778418249471E-06	3.60165572994841E-06	-5.5796484658665E-07	-2.81299144082033E-06	1.00214816559709	-0.0648554227215311
2.4	0.00197444428609693	0.00209085140412946	-1.57894230617201E-06	-1.45485175682612E-06	1.28622470080927E-06	-1.015611502407E-06	1.00132291185515	-0.0676123647499921
2.5	0.00330124909982113	0.0035283791293646	7.87306024154147E-06	4.01588920726656E-06	-2.42655773470871E-06	-7.25280538157101E-06	1.00134428602088	-0.0696704299159295
2.6	0.00394984603909803	0.00208401422621658	5.06306420521874E-07	2.12407027237309E-06	-1.43676489373302E-06	4.72134255733246E-06	1.00099647012208	-0.0731150801428246
2.7	0.00351827770243211	0.00176809791054963	-7.86860389128011E-06	5.33156851365815E-06	2.62380919411971E-06	9.75444024325788E-06	1.00079071474003	-0.076465328808018
2.8	0.00320158832965787	0.00181230012842427	-7.72142743455116E-06	8.06781434886936E-06	6.22039348431688E-06	1.99824422617601E-05	1.00064999006584	-0.0793409601617875
2.9	0.00317921687789738	0.00250521711527233	-1.18822397160855E-06	8.76333702940176E-07	-8.19355313248974E-06	-2.90002478287831E-06	0.999633796801234	-0.081859670757743
3	0.00495713400740909	0.00255560563322022	-6.58124177330843E-07	-4.48366509958118E-06	-2.12748258999007E-06	6.48648368706462E-06	0.999188779326004	-0.0845828791224951
3.1	0.00454258708083527	0.00105629821884008	-2.59815283728464E-06	1.14419734481619E-07	1.10270808493196E-05	-3.64723685542187E-06	0.99822171498461	-0.0875122664121403
3.2	0.00405266014034086	0.00117919857844929	-9.80921698160775E-06	2.66141064439233E-06	1.22540171266342E-05	4.15012810650679E-06	0.996959645790973	-0.0898806682335512
3.3	0.00383557158657019	0.00123215357416601	-3.46689193747029E-06	9.76792524180125E-07	-5.02596635958761E-06	-8.48878087760626E-08	0.995290510463062	-0.0937470671850949
3.4	0.00359311288018517	0.00183256833310404	5.35708736752735E-06	4.18816411683384E-07	1.35552238238435E-06	4.29872070249866E-07	0.99282570485428	-0.0956563760977959
3.5	0.00515472043717242	0.00191997803276801	2.78014461533499E-06	1.52577121852712E-06	1.31849482498495E-06	7.76944233873113E-07	0.992006805044721	-0.0956377812741783
3.6	0.0043959463891813	0.000140634023859931	-7.14746879369082E-06	-6.25785463707345E-08	1.82976530503226E-06	-3.51478784416467E-06	0.992855360104069	-0.0991904544773871
3.7	0.00315800994159399	0.000460058973995681	5.75691048658288E-06	-1.57438280890747E-06	-3.4374812888098E-07	-1.72795101165791E-06	0.991085579952119	-0.102491812898522
3.8	0.00260756425005877	0.00130574028710744	-1.98917353231608E-06	8.97361560503789E-07	-5.1813158219221E-06	3.55223255350279E-07	0.989036863197856	-0.103649003529234
3.9	0.00275661533067394	0.00276602016772912	-8.32823507229862E-06	1.85673015789857E-06	-4.12195269243033E-06	-1.45625805198217E-06	0.988332736640568	-0.103754072022669
4	0.00537143310644976	0.00323608748572409	-5.82517333638923E-06	4.21664251687556E-07	-9.58149471118747E-06	-8.36772293974749E-06	0.993485411815738	-0.104299538851856
4.1	0.00551079936323634	0.00104016292341322	-3.93307807282748E-06	4.11301548619378E-06	-1.80905818719769E-06	5.60110266361828E-06	0.992037858929841	-0.111413847184121
4.2	0.00479719758890292	0.00065174911068774	4.55298055551084E-06	-4.4309255569012E-06	6.7450503506233E-06	6.68305954632663E-07	0.988812493453761	-0.114039220180208
4.3	0.0043512882630524	0.000715268235879445	-3.76907802057612E-06	1.16935016487481E-06	3.5219251927603E-06	-1.24530652129523E-06	0.987466386887551	-0.115457517248766
4.4	0.00402227360906368	0.00145557022079289	-3.19954892731358E-06	-4.87730046700585E-06	9.13512766020764E-07	-1.04426387176033E-06	0.986588269251766	-0.117204150282817
4.5	0.00595670646804358	0.00192617689552986	-1.35260147208196E-06	2.0385398327061E-06	2.00433692275413E-06	-8.45379526357837E-06	0.986192403104795	-0.120674748121856
4.6	0.00571691050082125	-0.00033867777170148	5.46300135795279E-06	9.43731802491479E-06	-1.39445611866548E-05	9.89662666791054E-06	0.982971760418226	-0.123199041688121
4.7	0.00467757761631695	-0.000686277386606668	-7.61701625948514E-06	-9.38946796893098E-06	-1.13531194986301E-06	-1.21681113320291E-07	0.981873564236688	-0.123884551989031
4.8	0.00394640509686887	-0.000653838929915852	-8.68255767153971E-06	-2.57915053104178E-06	-4.29360739086513E-06	4.53967878559422E-06	0.980839947942495	-0.125658604649371
4.9	0.00340694308721504	6.48465356608966E-05	5.79169842783069E-06	8.17752539040757E-06	-7.15142686128218E-06	3.31448915493243E-06	0.979499224596441	-0.126820683791833
5	0.00506758504563039	0.000131116695322953	4.15114348003103E-06	-8.47301384946956E-06	-4.29254053818708E-06	-6.06513248702159E-06	0.978538540872233	-0.127437042795279
5.1	0.00402041188664038	-0.0015846830843628	1.49718247430216E-05	-1.02125660684734E-05	3.39354056628518E-06	-8.63935408532754E-06	0.977738136644662	-0.127939177064954
5.2	0.00309628579403983	-0.00101689364891924	-4.20989076662486E-06	-4.63742937653163E-06	-3.1239589653334E-06	5.35552431619984E-07	0.976819521117134	-0.129041276579328
5.3	0.00306316891467824	-0.00036141839439163	4.73910231633324E-06	3.30673299105816E-06	-9.21165226496774E-06	-4.63644069700523E-06	0.976141354414684	-0.130402403481944
5.4	0.00346790676824829	0.000569299636084037	5.11641407159165E-06	1.15183465107393E-06	-4.0425165604264E-07	1.03154661972933E-05	0.974906896736045	-0.132143069931904
5.5	0.00615442778521492	-0.000123021323058048	-1.78729610839989E-06	-1.94283954353147E-06	8.73453877924207E-06	4.76482376206801E-07	0.975192600282537	-0.131632237129101
5.6	0.00431776675607682	-0.00297698236499522	4.18614193758731E-06	7.12570331666956E-06	-4.5954917600211E-07	-8.49051046518237E-06	0.976330612661958	-0.134868997608715
5.7	0.00216997033665768	-0.00243811641435041	2.02757561216022E-06	-7.12226939235554E-07	5.39731437559634E-06	2.42084377565322E-06	0.974808636354415	-0.136889164128287
5.8	0.000846187405122049	-0.00131223373351278	3.85689843496678E-06	1.93793181913173E-06	2.6872153052762E-06	7.72981613128195E-06	0.973626836703672	-0.136959386208053
5.9	-0.00021064141037514	0.00104550549396089	-3.72386632130797E-06	-3.03303097121957E-06	-4.63352501314222E-06	-1.77509777525179E-06	0.973915308473258	-0.134352244720002
6	0.00268025402301552	0.00384790641651413	-2.06793927868884E-06	1.68614478838511E-06	1.03687911022172E-05	-2.61015756708111E-06	0.98243030072526	-0.134712275056889
6.1	0.00419803762395236	0.00166552526130135	-7.26624856741857E-06	-1.08610779006449E-06	-7.22083803711542E-07	-2.46150066138713E-06	0.982090738206977	-0.142357355135688
6.2	0.00395997734085073	0.00080924695071261	-1.04907733193428E-06	1.96866525458813E-06	-3.44986406105445E-06	-5.30342284347366E-06	0.980075502790125	-0.143954852114656
6.3	0.00350461471528542	-1.41705947413589E-06	1.55841534327174E-06	2.79984006403646E-06	1.13106459136272E-06	5.90646378754181E-06	0.979250079762301	-0.145543455160322
6.4	0.00282443480632769	0.000223835268188776	2.04225621025109E-06	4.98873866610523E-06	-3.30233562118609E-07	2.24584666157971E-07	0.979637863833892	-0.146900234028639
6.5	0.00446648266406494	-0.000968665031690067	4.61206621264206E-06	-1.86634396656217E-06	-4.64024894063746E-06	-1.52206977210175E-06	0.979678031100289	-0.153842733542447
6.6	0.00174740315585763	-0.00270864819398754	3.22397353848208E-07	-1.05190847037985E-06	9.14748909574335E-06	3.29984517181037E-06	0.97317398172836	-0.154517761349377
6.7	0.000407662903423541	-0.00154598444942561	4.93117677711651E-07	5.5310989045458E-06	-1.78811113475286E-06	4.89037664641739E-06	0.972626702646658	-0.152764181670515
6.8	-0.000262247784353172	-0.000662827641399662	1.84417661318172E-07	-1.56335897101581E-06	-3.39327175283236E-06	-5.07329139502004E-06	0.972844988234116	-0.152767938191997
6.9	-0.000706037008917857	0.00126570968101786	-6.61343499043631E-06	6.57942845987E-06	2.24743387844201E-06	1.35513184899493E-06	0.973272344419513	-0.152265852039356
7	0.00272547195539775	0.0017566048358832	7.95260377859673E-06	3.1946910304097E-06	4.46138894364819E-06	5.82960802013693E-06	0.976835135818697	-0.153321358490428
7.1	0.00100362148661962	-0.00131676070282311	1.37172349895807E-06	7.8770191017289E-07	-2.20252349410968E-06	-4.44463920061846E-06	0.975589755836677	-0.157735311347264
7.2	-0.00121353276164367	-0.000525905514005847	-1.78676204656811E-07	4.34586755498242E-06	-4.94703365249802E-06	-7.01360235392891E-07	0.973366641743371	-0.159052274580018
7.3	-0.00274101099145108	0.000737695908905034	1.38799327548452E-06	-5.18875178941895E-06	-2.29311142530816E-06	-2.77983857496583E-06	0.970638500374153	-0.160271328517087
7.4	-0.00442134538706086	0.00334464090851431	1.76672774561563E-06	4.375659821567E-06	-7.06892571877427E-07	-1.06102931121752E-06	0.965366969432224	-0.159689614385275
7.5	-0.00171834689352882	0.00689865163742931	-5.62448823161011E-06	-1.5621748612726E-06	-1.40581139444578E-06	-8.78367653570041E-06	0.966963726493234	-0.151718453416073
7.6	-0.000782847479950344	0.00527788277393947	5.62529551122761E-06	-3.24861086661507E-06	9.53850006586562E-07	3.17477027983997E-06	0.973025448524628	-0.155947382591489
7.7	-0.00112012287746583	0.00588705264214575	-6.39139209118514E-06	-2.95063717552199E-06	4.23497464804857E-06	5.69458519981529E-06	0.973527631118223	-0.159250612916206
7.8	-0.000652467707414322	0.00636457655159683	-9.73219121680428E-07	-5.32966200596427E-06	-2.32939379125092E-07	1.12948515908766E-06	0.974591825320743	-0.161056826297132
7.9	0.000441401941166363	0.0073140718010438	-3.48099706034263E-06	7.08338142024948E-06	6.19044952957048E-07	-6.8191961945893E-06	0.977571319188395	-0.16041204480697
8	0.00406630716026655	0.00548315075279115	-4.0803501406501E-07	7.38648652119021E-06	1.87910299093966E-06	-4.41995850608347E-06	0.98896877083135	-0.165236915377597
8.1	0.00196857366605898	0.00255979861381972	-6.25920899292427E-07	-6.50148988876352E-06	-1.73522161778791E-06	-1.09803144057491E-06	0.987293973559971	-0.177459420208362
8.2	0.000600812026969867	0.00318460437989565	-3.86471702155394E-06	1.59328620919496E-06	-1.09561973389035E-05	-2.80357782572005E-06	0.984379295221381	-0.180582615097979
8.3	-3.11937480246077E-05	0.00396711731867075	-5.40611596963485E-06	-9.984993790164E-06	-7.86353108433185E-06	2.90361640220727E-06	0.983570921570221	-0.183032935680763
8.4	-0.000363119651748834	0.0059954334902112	6.89853485017874E-07	-6.03329999099853E-07	-1.43048302102408E-06	4.21831760782788E-07	0.98386426063219	-0.185630374942493
8.5	0.00344271100280344	0.00682313758967029	-1.75551585623553E-06	-2.7831690025415E-07	-2.88386279844333E-08	1.80975440780624E-06	0.984127601623776	-0.19066476441449
8.6	0.00252215429391499	0.00367992385263778	2.49141493102952E-06	-3.94444194321164E-06	-4.48529861249187E-06	-6.00253993558576E-06	0.98186166683927	-0.193364039134411
8.7	0.000816850545729096	0.00432696736992824	-1.47150591622225E-06	-2.12776589414884E-06	-3.63232791263459E-06	3.59634772665325E-06	0.981848458390167	-0.195001508545045
8.8	5.62875550455327E-05	0.0056234940847142	-5.50030198410777E-06	-2.22370999904467E-06	-7.26216756513831E-06	-1.39439079650167E-06	0.982334204011958	-0.196900980875023
8.9	-0.000187339953960976	0.0080452171790454	8.57588790131663E-06	4.25841243472249E-06	-1.47698125452338E-06	3.2088453267686E-06	0.983313004765554	-0.198610233222408
9	0.00378190451113163	0.00996041288938368	-5.56637653083374E-07	4.18801330472359E-06	-7.89612185409147E-06	1.14042959215959E-06	0.984779771245101	-0.200293901428062
9.1	0.00484736428602426	0.00793147415634972	-2.67519528986267E-06	6.66375906094837E-06	4.18838355557813E-06	-3.0534032131454E-06	0.986966268246705	-0.203151246975842
9.2	0.00579918470828779	0.00785412059864059	-1.23246422699609E-06	3.45004394951901E-06	-2.24679527974016E-06	-2.1095305735828E-06	0.988356953135257	-0.207600054323471
9.3	0.00706999703862392	0.0070427447338638	2.3927518489971E-06	-4.06527913840238E-06	-7.8468799218078E-07	-1.8096670933305E-06	0.988217940786846	-0.212755341596416
9.4	0.00788452073695458	0.00676258226482777	-1.84823768113508E-06	3.91877396946847E-06	-2.05890947810468E-06	-3.63076915969944E-06	0.985496825191186	-0.216714718272033
9.5	0.0108497458155683	0.00458795503425689	3.44213229839669E-06	6.38217756026914E-06	3.9568492974126E-07	-2.16049070778386E-06	0.986096581773868	-0.216770993230012
9.6	0.00827424785196271	0.00122471251903945	4.58033494875973E-06	7.22359206740459E-06	-8.50036551980787E-06	1.28431155016561E-05	0.987534668684911	-0.22311749753867
9.7	0.00632495705078893	0.00161351052780802	-2.90261938672551E-06	-1.58847532077829E-06	-1.35827010031989E-06	-4.04077586126818E-06	0.985787086228612	-0.227210276657355
9.8	0.0052430364189707	0.00238781828520547	1.72933504367897E-07	-3.6448495497355E-06	3.06055069633317E-06	2.46851649979716E-06	0.984391668218746	-0.22892896298527
9.9	0.00455783934254355	0.00448512199965763	5.89852836742484E-06	-5.45257396917617E-07	-2.6995452316417E-06	6.79767919612115E-06	0.985009771521744	-0.226956499110509
10	0.00818303714685114	0.00548937854429005	-1.16202019120001E-06	-6.04872543042294E-07	1.40913256796037E-06	-1.19954045204894E-06	0.9951042697516	-0.231916761182781
10.1	0.00769088324011573	0.00280169975010062	7.62609655041961E-07	-8.5953114859468E-06	6.27233983350736E-06	3.70919740596237E-06	0.990075215658035	-0.242480999481021
10.2	0.006790761571539	0.00315536239250277	7.61168920598604E-06	8.50531717351973E-06	5.31389188393565E-06	3.61623451852324E-06	0.986046618584407	-0.24365840363578
10.3	0.00657056473119021	0.00382118081770295	1.81192194927792E-06	-7.08488844559071E-06	1.4445266867956E-06	2.92737562176952E-06	0.984609222553807	-0.244755665832384
10.4	0.00695154303811901	0.00564976487508719	-4.10500327546609E-06	-3.72134113630153E-06	2.00324950775728E-06	-5.70983417290895E-06	0.984941673841289	-0.246453810499239
10.5	0.0112473543726826	0.00591031562667691	3.55187981329113E-07	-7.20035409017231E-06	-5.82221673750689E-06	4.1700782057406E-06	0.984953859256604	-0.252761245249889
10.6	0.0118465727555795	0.00315105004668618	5.58617503682144E-06	6.83009236686601E-06	2.47370399742533E-06	1.20815305861127E-06	0.981740346840099	-0.254916398763595
10.7	0.0124795989733073	0.00202415657283679	-7.19715271335387E-06	-1.70990031071836E-06	-7.8426964128547E-07	1.58650852203732E-06	0.982567303225969	-0.258091238218426
10.8	0.0125038017191439	0.000389267340663528	1.52407269110061E-06	4.51824342432418E-06	9.57088825217062E-06	-4.57195314674062E-06	0.982118708306126	-0.262721628946172
10.9	0.0120064985036114	0.000288625096004597	3.67773082110207E-07	7.5553980711947E-06	-5.25693071790987E-06	2.37030275383553E-07	0.980998024766176	-0.266522181929981
11	0.0151779129695226	-0.000897818682617344	-2.28739262516901E-06	-3.87060267586383E-06	1.22079516560444E-05	-3.6963134855868E-06	0.980369667966127	-0.270221926842478
11.1	0.013434732528953	-0.00482615683508352	-6.24606447408093E-06	-4.97377395879318E-06	1.00072939309256E-06	5.66071713257753E-06	0.977337573425162	-0.274772250819027
11.2	0.0116859713252414	-0.00545663203060791	3.40284797808794E-06	4.3489427423911E-06	1.01866923585869E-06	-8.01478640630187E-06	0.973898082900488	-0.27775016622605
11.3	0.0105996110876479	-0.00567383282451094	6.96939350781105E-07	-2.70565341836799E-06	-4.82303483606918E-06	9.3034661358839E-06	0.969683668469833	-0.280098748373368
11.4	0.00973805909907966	-0.00486657571129248	1.46802374234156E-06	-2.24622007326985E-06	-3.13485023239364E-06	-7.48923067371301E-06	0.963786106186205	-0.281064859362194
11.5	0.012725615640222	-0.00587263639079678	9.50422567214755E-07	-1.02589643019551E-06	-9.16401743420635E-07	-8.73906749430209E-07	0.965772282233715	-0.277692588836152
11.6	0.010427839613024	-0.00979088230541244	1.13624649299296E-05	-3.40828235255935E-06	-5.55261347435948E-06	-6.88886659881923E-06	0.966687871753377	-0.285879614176122
11.7	0.00794682025881479	-0.0100157946978065	5.37123645031002E-06	-2.99295675583085E-06	-4.45468593776458E-06	1.72090246948671E-06	0.962424615693143	-0.290418246753101
11.8	0.00632976662554422	-0.00938485785096219	-4.84347871074812E-07	-2.57391870815226E-06	1.22156894786714E-06	1.34128869936082E-05	0.958914406008299	-0.291824246456949
11.9	0.00619715550628934	-0.00714630854829144	3.3799969353914E-06	1.98640026247274E-06	8.70367017564777E-08	1.28858670147273E-05	0.959872528922421	-0.287818441661325
12	0.0108729644374724	-0.00810136162221577	2.04695089677256E-06	4.73973841549287E-07	-3.77952291757247E-06	-9.53210289568191E-07	0.972475683117923	-0.29404142198264
