# GHZ S RI R 50
0.2	-0.000273631482529713	0.00236932034788105	6.32928107965545E-06	-9.92324446632017E-07	1.06729287680705E-05	1.05616744348104E-05	1.00200885903937	-0.0054655775284333
0.3	0.000587467432328545	0.00264840282131046	5.82653883647352E-06	5.07058485453516E-06	8.11985254826343E-06	2.98453572604077E-06	1.0024880048182	-0.00820579677810461
0.4	0.00121531143789908	0.00335025620190938	-2.73641179166362E-06	7.90444809604133E-06	-4.75605432056253E-07	-4.45394915919969E-06	1.0038180416633	-0.0106642750146713
0.5	0.00324595842951586	0.00308286827545936	2.31916549918199E-06	1.48499084408803E-06	7.54525150602948E-06	-1.06044502510918E-06	1.00484651859693	-0.0161084056962973
0.6	0.00249047163585467	0.00153516650320464	3.19592890331113E-07	3.55198758104707E-06	2.8225337118567E-07	-7.68637179507323E-06	1.00272306537639	-0.0192593641255002
0.7	0.0017255275750593	0.00207539320443905	4.18474147524642E-06	5.13844784399315E-07	-3.91314123549718E-06	-1.04325295557019E-08	1.00255588097144	-0.0211286083571686
0.8	0.001532597500541	0.00265692938577365	-2.90946639957172E-06	2.97627053732206E-06	-6.8629284660973E-06	1.31588211157282E-06	1.00285109671076	-0.0229163150103792
0.9	0.0010496136047712	0.00370454432568874	6.07766499483734E-06	9.14368969397835E-07	-7.39024144844854E-06	-1.85617025096643E-06	1.00313737570513	-0.0245371018962736
1	0.0028375846432573	0.00588731444919628	2.3800340911783E-06	2.96810613775513E-06	-9.11802664579371E-06	-2.60971466220679E-07	1.00558424587587	-0.0255134117980941
1.1	0.00437062591832609	0.00384333043382572	6.48632224601725E-07	3.52337605791445E-08	-5.33810308744333E-06	1.41826918937155E-06	1.00584740702483	-0.0302894791716182
1.2	0.00356317901657999	0.00301155324634152	-5.33567196123246E-06	-3.30770980430505E-06	-1.12787297707826E-05	-1.27366777557907E-05	1.0046135294413	-0.0318571604476644
1.3	0.00288136093414869	0.00217639651080039	3.07689236699855E-06	3.11958817635711E-06	6.99898818344163E-06	-4.1259063987763E-06	1.00426123968895	-0.0336578493643571
1.4	0.00202384649588838	0.0016492581813151	-2.81880608451007E-06	-1.11338915709276E-06	5.74763472145273E-06	4.86281415084427E-08	1.00279941878498	-0.0361722753797212
1.5	0.00298509827975833	0.000861682397464224	1.2422782490296E-06	-2.55056052077058E-06	8.11622004879312E-07	2.52469743727146E-06	1.00414584095977	-0.039777772018706
1.6	0.00145053445591296	5.72819474788474E-05	-9.52924318725553E-07	-6.45490446807692E-06	3.19690942082393E-06	-4.2778367357303E-06	1.00270197832096	-0.0443401401136096
1.7	0.00128089851770297	0.0012744823609509	3.4308663970765E-06	6.28685110436012E-07	2.26059249189243E-06	3.87338281197931E-06	1.00287880985907	-0.0463680137608158
1.8	0.00162149997674882	0.00217825383005454	-2.38567295488025E-06	2.92502113164445E-06	-1.03311339927192E-06	-4.02259381899078E-06	1.00277386847723	-0.0486850575781492
1.9	0.00225815128615652	0.0033359951266043	-3.76221579812083E-06	-1.76534400763296E-06	5.67543760564528E-06	3.03794043642411E-06	1.00318725063067	-0.0488362218828543
2	0.00495308308138115	0.00326711834912614	-6.25559988645744E-06	-5.80427083448658E-06	-2.08642302304003E-06	9.26019299101993E-06	1.00922773518523	-0.0516340830164413
2.1	0.00438402944456406	0.000969854583484468	1.21393068846911E-06	4.64942974078305E-06	4.55726757222587E-06	4.00706907029425E-06	1.00800313508133	-0.0606720813174803
2.2	0.00336199414435094	0.00102590820540814	6.68902479673865E-07	9.10721169033904E-07	-3.74099676560836E-06	-1.10159590956574E-05	1.00527860634045	-0.0638029553666341
2.3	0.0027056033126481	0.00128194632129079	-2.27932150004975E-06	3.609065862093E-06	-5.60677414277679E-07	-2.81729264168683E-06	1.00374468551002	-0.0656308090407845
2.4	0.00193914505862611	0.00227019905738379	-1.58282262213875E-06	-1.45610707550961E-06	1.28763675385724E-06	-1.01838589096545E-06	1.00295357277953	-0.0684388008995011
2.5	0.00352156846032343	0.003772985537377	7.88997716672907E-06	4.01435282898387E-06	-2.43793462547359E-06	-7.26211290879291E-06	1.00311002805665	-0.0706290335869323
2.6	0.00417615293434534	0.00210348312780013	5.09326440527612E-07	2.12691499042301E-06	-1.43412068526891E-06	4.73033883541478E-06	1.00275144267281	-0.074309371017129
2.7	0.00365005031937993	0.00175141790900872	-7.87486694457114E-06	5.35030023718255E-06	2.64045018010228E-06	9.76723370312527E-06	1.00250926741293	-0.0779315729665972
2.8	0.00325078830606078	0.00182810967288506	-7.72113299326898E-06	8.0931644944841E-06	6.26222548837914E-06	2.00049667636895E-05	1.00223356132178	-0.0811136620965688
2.9	0.00322574401267265	0.00261896474087925	-1.18827680530575E-06	8.79966907336735E-07	-8.21143847851071E-06	-2.88829121812548E-06	1.00104528181715	-0.0838969454988863
3	0.00514621808837681	0.00260033766297939	-6.68697335764141E-07	-4.48754466036393E-06	-2.11583841546082E-06	6.49882230513104E-06	1.0004264430125	-0.0868775540572653
3.1	0.00457059162334621	0.000989796840503645	-2.60077009387117E-06	1.20423980759861E-07	1.10310367468497E-05	-3.67621991989755E-06	0.999230691222338	-0.09002580443657
3.2	0.00402640351246145	0.00118483844237386	-9.81227881207392E-06	2.68773133456738E-06	1.22759342087164E-05	4.12448927676876E-06	0.997744264709375	-0.0924779385706363
3.3	0.0037784400513515	0.00129034531490058	-3.46722151448233E-06	9.86336682102388E-07	-5.03023504108107E-06	-7.22623724482505E-08	0.995848453606495	-0.0963912463001141
3.4	0.00354549710956523	0.00199790884129157	5.36105954577117E-06	4.05188401741215E-07	1.35736510257266E-06	4.26598405985688E-07	0.993098970105323	-0.0982199922644375
3.5	0.00529592562680738	0.00205072563992396	2.78460374162959E-06	1.5199236814685E-06	1.32073189196944E-06	7.74189446496073E-07	0.992318556447889	-0.0979102438247518
3.6	0.00439951434362893	0.000183807658151648	-7.15108393425617E-06	-4.58268885346384E-08	1.82240056567767E-06	-3.52078957462183E-06	0.993162116574094	-0.101648165975899
3.7	0.00312668329564175	0.000627189996982647	5.75478581703391E-06	-1.58906112360808E-06	-3.48114526922188E-07	-1.72763094652076E-06	0.991135901750302	-0.104940005899321
3.8	0.00263996934739322	0.00158313910710151	-1.98715806035969E-06	9.02313177268554E-07	-5.1809186835301E-06	3.67940257637005E-07	0.988905996945	-0.105938431119004
3.9	0.00294033012747349	0.00314515279517839	-8.32404850804427E-06	1.87572504304798E-06	-4.1252950491525E-06	-1.44686988259091E-06	0.988256204068864	-0.10573502578989
4	0.00585750758499071	0.00347790729209412	-5.82589485415778E-06	4.35707964600316E-07	-9.60433237220235E-06	-8.34731282198197E-06	0.993995585662604	-0.106513089164135
4.1	0.00591711804451727	0.00105377039920337	-3.92227446902899E-06	4.12385399602306E-06	-1.79411721091959E-06	5.60632703682551E-06	0.992232861898421	-0.114116779626728
4.2	0.00518413259991935	0.000627066356151692	4.54081541383344E-06	-4.44270564326029E-06	6.74629765485105E-06	6.50282464491417E-07	0.988854215747423	-0.116747323759066
4.3	0.00475399846317521	0.000593717536737283	-3.76540121416833E-06	1.17915082242822E-06	3.51808530354159E-06	-1.25444101166659E-06	0.98744894354854	-0.118237202944203
4.4	0.00441797465657287	0.00124413972651119	-3.21199514440139E-06	-4.86783626056521E-06	9.10550198540379E-07	-1.0465121500923E-06	0.986518912971947	-0.120087651574005
4.5	0.00642122987231314	0.00147785155962507	-1.34639931669218E-06	2.04133047526861E-06	1.98024301423548E-06	-8.45547944647973E-06	0.985930086215745	-0.123806376354409
4.6	0.00582876807019399	-0.00105174909708342	5.48269475659952E-06	9.41859457418093E-06	-1.39124742659688E-05	9.9246651096837E-06	0.982296050130658	-0.126280353600808
4.7	0.00445417321839606	-0.0013096159260663	-7.63530695603681E-06	-9.36632005682114E-06	-1.13499568569397E-06	-1.18912979975256E-07	0.980917148916737	-0.126865773443984
4.8	0.00350464766596672	-0.00106601597198261	-8.68348823351886E-06	-2.55634892878801E-06	-4.27986444856367E-06	4.54735860367386E-06	0.979562632444136	-0.128490597871423
4.9	0.0029075966286342	-4.79036476151299E-05	5.80776258941682E-06	8.1559725318611E-06	-7.13704444557694E-06	3.32998816828553E-06	0.977921675029512	-0.129436085822077
5	0.00475569552256577	0.000127306693902326	4.12506848485948E-06	-8.4727206426682E-06	-4.30217072549794E-06	-6.04699459607152E-06	0.976754789569985	-0.1297845175229
5.1	0.00360526900110545	-0.0015227279418647	1.49287295814736E-05	-1.02333584964311E-05	3.3693036029601E-06	-8.63573175974306E-06	0.975817047474697	-0.13005481470712
5.2	0.00275835806082934	-0.000764130210548321	-4.2143084534466E-06	-4.62095066224858E-06	-3.11812768225903E-06	5.41919002214029E-07	0.97479957885792	-0.130957414652928
5.3	0.00285835922418782	-2.36634794938856E-05	4.73845552529637E-06	3.29026260486776E-06	-9.2063233649681E-06	-4.60751179438063E-06	0.973992458747603	-0.132167015726634
5.4	0.00341474925523855	0.000986446885753643	5.10809456913336E-06	1.13821328640099E-06	-3.80851375738814E-07	1.02945010564132E-05	0.972531518848156	-0.133656672512321
5.5	0.00637523620357714	0.000110404149180105	-1.78620110470556E-06	-1.93520115103056E-06	8.71427417684208E-06	4.60889708240929E-07	0.972916593910316	-0.132756671470149
5.6	0.00435083127294642	-0.00287071618466539	4.18755152167986E-06	7.10321874309145E-06	-4.71460285892911E-07	-8.47062587520998E-06	0.974042291461109	-0.136050929368777
5.7	0.00216059038253004	-0.0022349155782509	2.02158939835071E-06	-7.1359831804239E-07	5.38796349079929E-06	2.40676124175069E-06	0.972299579311999	-0.137976541868502
5.8	0.000910515067135423	-0.00103086505603658	3.84975166183303E-06	1.92731765023436E-06	2.69151118496915E-06	7.70593919267846E-06	0.971005136152425	-0.137871949004678
5.9	1.78922535111329E-05	0.00144609062042444	-3.71821316033882E-06	-3.02007684486979E-06	-4.62379650907635E-06	-1.76420819871907E-06	0.971404355889348	-0.13500723840184
6	0.00337871542285765	0.00409755052575741	-2.05964223890564E-06	1.68555619361019E-06	1.03376742546912E-05	-2.62210565016278E-06	0.980389609406059	-0.135888185221594
6.1	0.00486020535733478	0.00143388186341975	-7.2440481823002E-06	-1.06806054225377E-06	-7.24544129349284E-07	-2.4518189016004E-06	0.979266605823797	-0.144047542622385
6.2	0.00440791700706647	0.000374608060813684	-1.04189277960803E-06	1.96283657543598E-06	-3.44524088023001E-06	-5.27759437473474E-06	0.976679255775918	-0.145433309926714
6.3	0.0036848639671582	-0.000490362670881941	1.55549446595209E-06	2.7868202499081E-06	1.13351508563709E-06	5.88154148073504E-06	0.975500455473838	-0.146645147952109
6.4	0.0028520705003736	-5.98591363009681E-05	2.03837113778417E-06	4.96732740082247E-06	-3.28741328528231E-07	2.23974471787627E-07	0.975825251529251	-0.147488031802454
6.5	0.00455193961245192	-0.00126706140724359	4.59108075706591E-06	-1.86167021924086E-06	-4.62155390441615E-06	-1.51228124318546E-06	0.975652691634166	-0.154274039999506
6.6	0.00160335145900123	-0.00289963679556677	3.21033859051383E-07	-1.04719514495997E-06	9.10646663340306E-06	3.28577525534865E-06	0.96884520494824	-0.154109362374932
6.7	0.000274088754324474	-0.00159093892281379	4.88134899874033E-07	5.50761444576456E-06	-1.78297063534328E-06	4.86846007234332E-06	0.968488551544535	-0.151825877368855
6.8	-0.000394068636921166	-0.000631634624722094	1.84868135884596E-07	-1.55665641037947E-06	-3.37506492610548E-06	-5.05466624195953E-06	0.968798450467607	-0.151504927728549
6.9	-0.000760898563278434	0.00146179461964188	-6.59233011442445E-06	6.54559937013667E-06	2.23675987405371E-06	1.35168430695596E-06	0.969325471271591	-0.150625469235065
7	0.00297273830942617	0.00177764748690905	7.91530669117986E-06	3.19055773853846E-06	4.43572262013258E-06	5.81025943262831E-06	0.973191932483013	-0.15159845196296
7.1	0.000988811676853285	-0.00145833627647265	1.3647813100467E-06	7.8638031647212E-07	-2.18673098620862E-06	-4.4290919145449E-06	0.971764066020702	-0.155928770856616
7.2	-0.00128866757028488	-0.000551842316630618	-1.85514637411592E-07	4.32731787462331E-06	-4.92504849109528E-06	-7.07054880779996E-07	0.969528799605556	-0.156892686598145
7.3	-0.00278679906920726	0.000774372569194396	1.39293476375413E-06	-5.1642344512495E-06	-2.27779541013697E-06	-2.77298445394449E-06	0.966862082941347	-0.157754581441714
7.4	-0.00437067701983499	0.00354031454974581	1.74788981148177E-06	4.36158267476773E-06	-7.01138082316792E-07	-1.05833566344461E-06	0.961617748368005	-0.156517329788175
7.5	-0.00124556950326223	0.00681126119350787	-5.59876162549096E-06	-1.57591975876365E-06	-1.3704398721494E-06	-8.75675942929685E-06	0.964330408014938	-0.148063714670607
7.6	-0.000794458906270271	0.00477830688629602	5.6196476469827E-06	-3.22173323885346E-06	9.41163250624101E-07	3.16881365434752E-06	0.970652912462207	-0.153010533582385
7.7	-0.0015628809942862	0.00544803306788993	-6.36535922148701E-06	-2.96146802113984E-06	4.20670519944104E-06	5.69161790399548E-06	0.970783782723677	-0.156451558471713
7.8	-0.00138483878848888	0.00633879846082523	-9.54937449414005E-07	-5.31793272781477E-06	-2.35612138826654E-07	1.12571235929153E-06	0.971552182649073	-0.157811301478821
7.9	-0.000124205111754321	0.00769360197923989	-3.4947749315836E-06	7.05452213720743E-06	6.39171349528518E-07	-6.80009990442423E-06	0.97501949854524	-0.15649874838249
8	0.0036908355201985	0.00600821799645054	-4.29247184333221E-07	7.36996151366818E-06	1.88840804374834E-06	-4.40518789596231E-06	0.987030257231643	-0.161403927785568
8.1	0.00162044422515845	0.00307302750694049	-6.06091214850794E-07	-6.4896872529031E-06	-1.72846750475396E-06	-1.10068032440925E-06	0.985450980409317	-0.173798429236916
8.2	0.00045895205768584	0.00388812647423101	-3.86169725822956E-06	1.57778853855156E-06	-1.0924561342322E-05	-2.83227959053172E-06	0.982822962015879	-0.176473823571683
8.3	8.64223754066123E-05	0.004704689166145	-5.36200827294476E-06	-9.98518007766568E-06	-7.85904229932011E-06	2.87136456000912E-06	0.982565104271881	-0.178686739916887
8.4	4.70583170302752E-05	0.00673462488860306	6.90899900858121E-07	-5.99974149508958E-07	-1.42974392176433E-06	4.16159319096328E-07	0.98344129476108	-0.181252809478992
8.5	0.00428289031860572	0.00719152379631453	-1.75159745211903E-06	-2.84291633075032E-07	-3.54240383678857E-08	1.8066608321006E-06	0.984086315614985	-0.186477918263147
8.6	0.00314515614147138	0.00367160805377146	2.50462469078565E-06	-3.92894525527483E-06	-4.45446740329311E-06	-6.01345239534329E-06	0.982056159501644	-0.189148566370418
8.7	0.00134160355617369	0.00428263524273857	-1.46128052390039E-06	-2.1321673406004E-06	-3.64441601832655E-06	3.57797137911195E-06	0.982393495513844	-0.190864679532427
8.8	0.000583781519687821	0.00555385038866802	-5.48822053275867E-06	-2.24507373653681E-06	-7.25253944018195E-06	-1.42342755415498E-06	0.983150672641082	-0.192958456704799
8.9	0.000439655887222918	0.00797892053525141	8.55615189972982E-06	4.288937195469E-06	-1.48845257387047E-06	3.20189972917328E-06	0.984270734368517	-0.194975573473036
9	0.00468337753559712	0.00954377625322114	-5.71600803957147E-07	4.18266093105193E-06	-7.89408440583954E-06	1.11048962426281E-06	0.985689674196005	-0.19700715700187
9.1	0.00535158434011655	0.00708189421037969	-2.69951122308817E-06	6.64827328539678E-06	4.19733377748858E-06	-3.03461724249288E-06	0.987603669290811	-0.200064808822774
9.2	0.00585887295786676	0.00695993850029536	-1.24609949121592E-06	3.44270482517656E-06	-2.23655442414295E-06	-2.11758120404957E-06	0.988718625541169	-0.204358447527785
9.3	0.00673913607638789	0.00631958760951607	2.4100266438117E-06	-4.05306275202305E-06	-7.76305702248749E-07	-1.81249702715487E-06	0.988525379301171	-0.209127105818781
9.4	0.00734902092432402	0.00643531192772083	-1.86700695328243E-06	3.90963215271176E-06	-2.04129168655358E-06	-3.64046971087193E-06	0.985994372706996	-0.212441367992555
9.5	0.0104135437372054	0.00425398656745982	3.41017832023539E-06	6.40393770685788E-06	4.07359524382536E-07	-2.15957932290276E-06	0.98738471077934	-0.212202054614526
9.6	0.00755084125228477	0.00110302150856243	4.54981324357083E-06	7.25698406353736E-06	-8.57770231098901E-06	1.28175303399485E-05	0.98929752984074	-0.218732480237064
9.7	0.00560300492287213	0.00181231570309602	-2.90001860031948E-06	-1.60552226295032E-06	-1.34090619012305E-06	-4.05463482698359E-06	0.987875224008261	-0.22280938049064
9.8	0.00457872893346095	0.00286042544510635	1.90827485685267E-07	-3.65183426210875E-06	3.05524607755144E-06	2.48852409216031E-06	0.986848776379916	-0.224415126638136
9.9	0.0040672500376888	0.00527044895396498	5.91704305712657E-06	-5.1821299614936E-07	-2.73967105304851E-06	6.80292973259719E-06	0.9881790496432	-0.222186868695113
10	0.00813302296894448	0.00633085562109382	-1.16341114945325E-06	-6.11652135007778E-07	1.41874526194881E-06	-1.19775874595777E-06	0.999259690639843	-0.227948336001634
10.1	0.00773026982205194	0.00367328383932339	7.97174908030598E-07	-8.61878103856311E-06	6.2776450721777E-06	3.74407832739064E-06	0.993979198944633	-0.238853426380984
10.2	0.00716697091706753	0.00412163319802555	7.60293269756424E-06	8.56096534089963E-06	5.31665393092264E-06	3.64783731603319E-06	0.990319013464287	-0.239898782302121
10.3	0.00731810760910698	0.00465707584967768	1.84585732777418E-06	-7.10133451868348E-06	1.43780521446886E-06	2.94280891751473E-06	0.989457224389356	-0.241048377744399
10.4	0.00802513534325496	0.00623563444147271	-4.10521081793316E-06	-3.75135996828336E-06	2.03337021011087E-06	-5.72277916455309E-06	0.990468230760362	-0.242993149020777
10.5	0.0125762022131932	0.00569638074939894	3.85047553776168E-07	-7.22503517775689E-06	-5.85986135600954E-06	4.16208472120257E-06	0.990778499749722	-0.250058591440689
10.6	0.0126625975127976	0.00256954931688374	5.58019078773404E-06	6.8835010510031E-06	2.47896818468E-06	1.22407316505908E-06	0.987771595594733	-0.252469952295373
10.7	0.0128002471726253	0.00138437484575779	-7.22530649903001E-06	-1.74749898926565E-06	-7.94544612227932E-07	1.59105864013666E-06	0.988648079835545	-0.256200085040759
10.8	0.0124648069246582	-3.30232726735091E-05	1.51593431317639E-06	4.54728002147525E-06	9.6371835519244E-06	-4.5617331573933E-06	0.988036680907103	-0.261246987573453
10.9	0.0119672319834644	0.000180503331314059	3.47175934113241E-07	7.59729061203913E-06	-5.28602253494682E-06	2.22597261326526E-07	0.986946660699579	-0.26532469018606
11	0.0153576142407488	-0.00107415291936217	-2.28950158413888E-06	-3.8972631840911E-06	1.22828461400352E-05	-3.6841651374173E-06	0.986409907681414	-0.269516503237375
11.1	0.0133862473706393	-0.00500626456805859	-6.26957275855168E-06	-5.01547415207662E-06	9.93544909555879E-07	5.69442449580631E-06	0.983196353452258	-0.274580953773008
11.2	0.0116258057367711	-0.00548224070954274	3.41447654156562E-06	4.37961023150953E-06	1.03858365983494E-06	-8.05844604466758E-06	0.97962548862447	-0.277943512016106
11.3	0.0105764982833247	-0.00549914846797763	7.04571045535179E-07	-2.71989996492823E-06	-4.8629121164171E-06	9.34912105034392E-06	0.975100142150557	-0.280485466033715
11.4	0.00988818392875541	-0.00452131893005041	1.47849769799676E-06	-2.25677562157215E-06	-3.14351381314428E-06	-7.53337990162034E-06	0.96902575350005	-0.281395423547383
11.5	0.0131893994475494	-0.00577583361831023	9.57190270390149E-07	-1.03073799949044E-06	-9.20696730229583E-07	-8.8009739645081E-07	0.971816534588506	-0.278200029226504
11.6	0.0107357601716382	-0.0098571103221953	1.14336047522681E-05	-3.42351789958755E-06	-5.58316227812079E-06	-6.93371554613609E-06	0.972675810282523	-0.287321494509053
11.7	0.00829032012966741	-0.0100738186412158	5.4033483730443E-06	-3.01086860788761E-06	-4.48132026327691E-06	1.73120508388628E-06	0.968145275184485	-0.292271518284998
11.8	0.00674656531963739	-0.00953846543878002	-4.88044868917085E-07	-2.58880539094165E-06	1.23321924500663E-06	1.34909003562554E-05	0.964498771578582	-0.293985316813525
11.9	0.00674179988984351	-0.00744437865040295	3.40164670697404E-06	1.99624325139997E-06	9.57240188272257E-08	1.29635523779758E-05	0.9657317156462	-0.290351841139686
12	0.0113770843133425	-0.00911296625451307	2.06039675911634E-06	4.73698053863218E-07	-3.80447223810606E-06	-9.53185405333379E-07	0.978456747530395	-0.298307523897673
