# GHZ S RI R 50
0.2	0.000501521164315451	0.00358926266528502	6.30730493656313E-06	-1.0061110956131E-06	1.06683828104689E-05	1.05010419789319E-05	0.99966820868638	-0.00691480170878104
0.3	0.00119839282445715	0.00331654734865506	5.81771235541994E-06	5.03937069915955E-06	8.09817074020144E-06	2.95538328338742E-06	0.999519105229027	-0.0098294438789678
0.4	0.00169431679287374	0.00320225306434072	-2.71047649114618E-06	7.87237399468168E-06	-4.8086255350889E-07	-4.43249579099108E-06	0.999598687809887	-0.012445658574348
0.5	0.00205096991234405	0.00319166278004924	2.30902615846561E-06	1.47962138019218E-06	7.51428698680118E-06	-1.0534510072569E-06	0.999519630185558	-0.0155941361070399
0.6	0.00241210452042215	0.00321250727064535	3.2235624427516E-07	3.54092835933982E-06	2.73333460760343E-07	-7.66346220353354E-06	0.999653387337373	-0.0186482850868082
0.7	0.00264514175278022	0.00327480641263641	4.16819682767551E-06	5.04383703662201E-07	-3.89684822719636E-06	-3.54487100848797E-09	0.999294261716331	-0.0217146639477881
0.8	0.00296727150123212	0.00336388293847753	-2.88913323134907E-06	2.96582294852823E-06	-6.8248847627068E-06	1.32095907192207E-06	0.999016551903484	-0.0239823484445458
0.9	0.00322630858607005	0.003393079765142	6.03989690058574E-06	8.98866904280302E-07	-7.34549270777786E-06	-1.83251788484429E-06	0.998730498640496	-0.026417885307221
1	0.00341583955896944	0.00337777015992363	2.36159731725636E-06	2.94516247290575E-06	-9.04748319472512E-06	-2.59025287560432E-07	0.99829758001522	-0.0278578807264631
1.1	0.00350641066850205	0.00332611761228595	6.44127690077776E-07	3.56175952517361E-08	-5.30268214239977E-06	1.40333683707123E-06	0.998086942756095	-0.029628158898062
1.2	0.00344235972177015	0.00302322514947857	-5.29517138033236E-06	-3.29112623296797E-06	-1.11864887927164E-05	-1.26621270545003E-05	0.997659922939409	-0.0304483082259501
1.3	0.00310193372212125	0.00246101688199812	3.05071553137069E-06	3.10515287875528E-06	6.96121392751706E-06	-4.08534247682968E-06	0.998084229651213	-0.0312221318363305
1.4	0.00271834469203177	0.0017934097220074	-2.8003324712698E-06	-1.11439911237737E-06	5.71562976575806E-06	6.30102902850139E-08	0.998162969887907	-0.0333714720758774
1.5	0.00258687366628966	0.00149284122936921	1.24145492690365E-06	-2.53495621202685E-06	8.02083498414818E-07	2.51363520017891E-06	0.998917429985465	-0.036930323618911
1.6	0.00268773278458467	0.00151268552650186	-9.33606097715065E-07	-6.42045934698894E-06	3.18806287911076E-06	-4.24674733378284E-06	0.998526837155702	-0.0407578646836497
1.7	0.00295052107121038	0.00161868006147761	3.40827017175888E-06	6.33544080556664E-07	2.23692489527277E-06	3.8554106131717E-06	0.998610555810117	-0.0434951976533877
1.8	0.00318651482439471	0.00177059339744491	-2.3790247015774E-06	2.90039573022131E-06	-1.01564354736693E-06	-4.00062849617037E-06	0.998327598769242	-0.0463066087777503
1.9	0.00338717013655897	0.00177132566870213	-3.73534508221701E-06	-1.76084161606197E-06	5.63424023554485E-06	3.0287816989145E-06	0.998083640670456	-0.0485504121458581
2	0.00351378313556612	0.00182165403352223	-6.18266129757634E-06	-5.75495149430387E-06	-2.07975102280885E-06	9.16248045944004E-06	0.997664897421645	-0.0511253419366015
2.1	0.00360293375208851	0.00178643540872638	1.17429970501573E-06	4.60958745168649E-06	4.48762967920651E-06	3.99339483795953E-06	0.997540087582193	-0.0535536467997911
2.2	0.00362241996058383	0.00179833141802487	6.57112329544513E-07	9.07404053432252E-07	-3.63554419182258E-06	-1.09468141299938E-05	0.997504877882405	-0.0560804189690024
2.3	0.00360729556686267	0.0017290231849662	-2.28600404919109E-06	3.56415152734504E-06	-5.36599806942499E-07	-2.79847628734779E-06	0.997088243825293	-0.0580165691941825
2.4	0.00347665141599239	0.0016406200869079	-1.55884731635518E-06	-1.45645923640913E-06	1.28502439258516E-06	-1.0002705029005E-06	0.996912199679315	-0.0610991089464961
2.5	0.00318201346879687	0.00161669680647704	7.79853190761438E-06	4.05963929670222E-06	-2.35401563235185E-06	-7.2346350215763E-06	0.996559671224699	-0.0632175133955777
2.6	0.00293956945772137	0.00179467808475714	4.88804397295374E-07	2.11916344197305E-06	-1.46530557133426E-06	4.69179388884923E-06	0.996592645630911	-0.0660774648426743
2.7	0.00288404135631684	0.0020863096653511	-7.8701595189843E-06	5.25254536911891E-06	2.54389413255608E-06	9.72857076246782E-06	0.996336593236561	-0.0691009355429204
2.8	0.00307884961545999	0.00240493356793085	-7.74450993530278E-06	7.97061314586256E-06	6.0400705912104E-06	1.99320711145775E-05	0.996463797277248	-0.0711636633144212
2.9	0.00346201844858793	0.00254200137689273	-1.19017254158954E-06	8.62120640930809E-07	-8.13069908020825E-06	-2.95643271387336E-06	0.996179116490942	-0.0732488578395512
3	0.00389318627934229	0.00260426296235407	-6.16176140675539E-07	-4.47569648869235E-06	-2.17867083784267E-06	6.44753782421833E-06	0.99607932010522	-0.0757143205587681
3.1	0.00434443820796074	0.00250553230323138	-2.59043395822007E-06	9.23321393970893E-08	1.10207332552321E-05	-3.54293660678032E-06	0.995766469366574	-0.0777888145661871
3.2	0.00468837358265223	0.00232499953861321	-9.80258396744463E-06	2.56135370684967E-06	1.21759903752796E-05	4.25114639805766E-06	0.99554824719929	-0.0796425520539754
3.3	0.00493496391767784	0.00198503699220189	-3.46893441119684E-06	9.38445310467732E-07	-5.01331555402984E-06	-1.36965571271741E-07	0.995290756023457	-0.0829696068418505
3.4	0.00498269100379249	0.0016381130270256	5.35018603871266E-06	4.80035016637226E-07	1.35006480911129E-06	4.45235310820121E-07	0.995120911765365	-0.0849823036871644
3.5	0.00488985015381687	0.00132797893358313	2.77181582205116E-06	1.55504274416055E-06	1.31404584496629E-06	7.90940438481136E-07	0.994962161005989	-0.0876698942940155
3.6	0.00470965821278072	0.00116363893572469	-7.15072996062546E-06	-1.23459248296746E-07	1.86065847385847E-06	-3.50107643958322E-06	0.994773519845432	-0.0903533993552029
3.7	0.00455446367470985	0.00109454205307184	5.77647884037986E-06	-1.52114602280564E-06	-3.27664694267126E-07	-1.73260484801266E-06	0.994398855755968	-0.0931996928398299
3.8	0.0045083107562836	0.00108442336049812	-2.00142600458612E-06	8.7998548938008E-07	-5.19426688502627E-06	3.0630829957417E-07	0.993776149161759	-0.0952189758230449
3.9	0.00453335982329239	0.00105287603131762	-8.36505926262991E-06	1.79315529256721E-06	-4.1206747066358E-06	-1.49387769570396E-06	0.993442422147319	-0.0981179602510286
4	0.00458310636737325	0.0010123805954399	-5.82664766983512E-06	3.76264334738465E-07	-9.51350130735651E-06	-8.43959470494066E-06	0.993182668766271	-0.0990627386782686
4.1	0.00467860729359588	0.000946644429627453	-3.98161905100728E-06	4.07272348708329E-06	-1.87240196943769E-06	5.5854554974808E-06	0.993340690622009	-0.100918765256719
4.2	0.00478831387655727	0.000801280450216832	4.61412750718888E-06	-4.39283139524487E-06	6.75600930263998E-06	7.44381441139156E-07	0.99290134239441	-0.103658325990261
4.3	0.00484936701034981	0.000590657798112757	-3.79466745894297E-06	1.1329620684707E-06	3.54747412223307E-06	-1.21183279029104E-06	0.992773053858196	-0.10574268469046
4.4	0.0047506352042706	0.000323924976791164	-3.15631726859834E-06	-4.93083467192193E-06	9.2853739768098E-07	-1.03777239551494E-06	0.992337188955786	-0.108005148127119
4.5	0.0044761195726043	0.000170650907877718	-1.38830228091052E-06	2.03243820712068E-06	2.13079480525395E-06	-8.47729677911084E-06	0.992462377989174	-0.110106198337904
4.6	0.00413456691223065	0.000127195445782774	5.40779167205388E-06	9.58823800278215E-06	-1.4188205612664E-05	9.83227512315919E-06	0.992352183681841	-0.113121476764646
4.7	0.00389072857631393	0.000220640020421129	-7.60301540602189E-06	-9.55404671124357E-06	-1.14533236450319E-06	-1.33635690765174E-07	0.99223569767008	-0.115323632735606
4.8	0.00375414948834713	0.000376904868539768	-8.74670416290856E-06	-2.67913093666337E-06	-4.37513327206745E-06	4.5479937752023E-06	0.991735647106013	-0.117983872878899
4.9	0.00379091964507667	0.00048830804594021	5.78106299236278E-06	8.31070149548043E-06	-7.25293036454403E-06	3.28727732095125E-06	0.991189115107015	-0.119857557226156
5	0.0039460312306851	0.000479550616679491	4.27144615490508E-06	-8.5467472989808E-06	-4.29815098950869E-06	-6.17611040787623E-06	0.990975837844894	-0.121339253415122
5.1	0.00422245305151153	0.000405663224257236	1.52137834570158E-05	-1.02577696143646E-05	3.48293260373349E-06	-8.72824405069505E-06	0.991020487057416	-0.122718025098422
5.2	0.00453343407719823	0.000154182312634307	-4.23624234294985E-06	-4.71392771353874E-06	-3.16377227346033E-06	5.25995506617712E-07	0.990658863127331	-0.124987376580936
5.3	0.00474297523896805	-0.00023631511947373	4.77850591716071E-06	3.37167696568952E-06	-9.29776213654504E-06	-4.74114225932361E-06	0.990318930027134	-0.127168047379299
5.4	0.00473059285683781	-0.000676332163389308	5.17920599065424E-06	1.1981344637613E-06	-4.71476406069752E-07	1.04535400375002E-05	0.990297355292213	-0.129773788051908
5.5	0.00445551596935859	-0.000953474270954417	-1.81196667546453E-06	-1.98007603121828E-06	8.87920125671312E-06	5.07782536475073E-07	0.990273764853553	-0.132390366608819
5.6	0.00413888028577153	-0.00106358920415133	4.24431205850941E-06	7.22725514084809E-06	-4.64737874327911E-07	-8.61080952709603E-06	0.990254042198984	-0.135111328434552
5.7	0.00380726794745671	-0.00103907501611584	2.05513685797743E-06	-7.2187291496637E-07	5.47061394202494E-06	2.45382160066087E-06	0.98991581497686	-0.13782952672687
5.8	0.0035094458454359	-0.000979000768130727	3.91173476704718E-06	1.96006890181448E-06	2.73257395002722E-06	7.83234927205201E-06	0.989543608626085	-0.140102013458122
5.9	0.00317917209823264	-0.000883806061490226	-3.78195927516406E-06	-3.0562263260126E-06	-4.69802528381856E-06	-1.77911661189982E-06	0.988869447213792	-0.142150259915518
6	0.00271868713640223	-0.000771723928390499	-2.07663001590229E-06	1.70326528451257E-06	1.04294007739382E-05	-2.65755081275129E-06	0.98856832810372	-0.143181476189694
6.1	0.00229104572666684	-0.00053867268854297	-7.32578883966691E-06	-1.10563393750952E-06	-7.24633877139343E-07	-2.48322965627768E-06	0.988958795478734	-0.144391445752043
6.2	0.00196065520982141	-0.000320029824028431	-1.06162312480535E-06	1.98824750387831E-06	-3.48128641455793E-06	-5.36141632342761E-06	0.988861481737228	-0.14586745959312
6.3	0.00178998571415526	-0.000228505061960451	1.57654750919491E-06	2.82951973258844E-06	1.14592779265297E-06	5.97002323256465E-06	0.988653329796482	-0.148009212722313
6.4	0.00155836766244499	-0.000320554979339826	2.06752683560318E-06	5.03465954221759E-06	-3.33174004767076E-07	2.27121017933604E-07	0.988242155873082	-0.150278988757562
6.5	0.00127301593316053	-0.000340882359479976	4.66708786113771E-06	-1.87641290645135E-06	-4.68788122227479E-06	-1.54937263732767E-06	0.988211682654312	-0.153119153553322
6.6	0.00103589676853819	-0.000194655914251889	3.2617902888655E-07	-1.06850426114283E-06	9.29237022874154E-06	3.3403877464385E-06	0.987827472433643	-0.156126540684215
6.7	0.000931856122399915	3.94041432830069E-05	5.25626378239882E-07	5.61149984251606E-06	-1.79259948907365E-06	4.97157330528319E-06	0.987340344676974	-0.158629185220632
6.8	0.000831936645536011	0.000265297820655169	1.76916646920458E-07	-1.5863120507126E-06	-3.47318706345523E-06	-5.12206898736843E-06	0.986679218738294	-0.160980052079928
6.9	0.000651593500716112	0.000492538756268242	-6.6488133025514E-06	6.71458988862477E-06	2.28673620860063E-06	1.35554960069612E-06	0.986074876963362	-0.163034954519719
7	0.000429046751448183	0.000875543546242832	8.07699179398897E-06	3.16884396495926E-06	4.56431226877612E-06	5.86494378410545E-06	0.985464554876194	-0.164548866832031
7.1	0.000215688752385799	0.00137426776307126	1.39492318520592E-06	7.84567490289371E-07	-2.26846306623946E-06	-4.47691237641318E-06	0.985142992117434	-0.166288906686836
7.2	0.000169823747448175	0.00192859315530624	-1.40510594758219E-07	4.39639362106806E-06	-5.00915243836442E-06	-6.63515379998831E-07	0.984451875862348	-0.16819467020846
7.3	0.000161621923444371	0.00239270168287178	1.35758300790917E-06	-5.26115677903346E-06	-2.34450589995696E-06	-2.79144153266882E-06	0.983334271467844	-0.170094478037081
7.4	5.37724996903897E-05	0.00269177537918629	1.83216256118332E-06	4.42253780085204E-06	-7.26770635804116E-07	-1.06985144387361E-06	0.982073538028269	-0.172494339628737
7.5	-0.000241762325456296	0.00298646074081534	-5.73925810031532E-06	-1.49592837066305E-06	-1.57043664426281E-06	-8.90062902562038E-06	0.980785990869663	-0.174528457504208
7.6	-0.000502398355585455	0.00338132006167676	5.62816733913824E-06	-3.38265058505981E-06	1.02008523305185E-06	3.19191357202642E-06	0.980302710605174	-0.177200603154791
7.7	-0.000728762452326873	0.003814718229239	-6.50445019416273E-06	-2.86707671656487E-06	4.37536077115266E-06	5.6751393675669E-06	0.97986036775796	-0.18026328417322
7.8	-0.000660220790650195	0.00412082831318827	-1.08210617970333E-06	-5.35855297876374E-06	-2.13753082182874E-07	1.14387040148117E-06	0.979606956560562	-0.183279518778034
7.9	-0.000476246442259363	0.00431661746340592	-3.3494603460744E-06	7.2112970434089E-06	4.72756121575453E-07	-6.8819455866914E-06	0.979478056168268	-0.186205606889304
8	-0.000206627882493263	0.00458311946509934	-2.35131270969416E-07	7.38685612475211E-06	1.77361396251259E-06	-4.45833864192947E-06	0.979588485276071	-0.188892181964841
8.1	0.000142955697871477	0.00490396053416346	-7.38424052710302E-07	-6.46955007308215E-06	-1.74898015011485E-06	-1.06393509087465E-06	0.979346698020542	-0.192010113735558
8.2	0.00060407464064967	0.00516525280624942	-3.82823793275543E-06	1.65262994816042E-06	-1.0973207515297E-05	-2.61589226015693E-06	0.97898959606938	-0.194615604440234
8.3	0.00103130137280939	0.00531812889438082	-5.5489451971176E-06	-9.86230643810077E-06	-7.78885197956456E-06	3.02085522956729E-06	0.978346597579723	-0.1973953908195
8.4	0.00131901784989756	0.00548553395865553	6.77288562659972E-07	-6.10271552486625E-07	-1.41664066958515E-06	4.40648795269411E-07	0.977600994180842	-0.200081291716664
8.5	0.00150276389655555	0.00577283480988517	-1.75325030269417E-06	-2.56968323301155E-07	-7.64071979915636E-09	1.8044088748005E-06	0.976914719639265	-0.202972905185902
8.6	0.00175690347293911	0.00624647785942581	2.42686580280114E-06	-3.97393543632632E-06	-4.56661240729923E-06	-5.92266231159666E-06	0.97624082473179	-0.205677660524078
8.7	0.00229131597017176	0.00675302503232483	-1.49953607262293E-06	-2.09425069591241E-06	-3.55746065709436E-06	3.63932708907611E-06	0.975702998751184	-0.208224285024266
8.8	0.00306211014790803	0.00710445037095996	-5.49838158966616E-06	-2.11928408171769E-06	-7.23466245676858E-06	-1.26714816377474E-06	0.975215068118294	-0.210490710129865
8.9	0.00396775518307409	0.00708496243063628	8.55839413762845E-06	4.09325763547738E-06	-1.41626850889455E-06	3.20059613388831E-06	0.975169293745707	-0.212485423533339
9	0.00477182897525154	0.00679240690403633	-4.97813263778768E-07	4.16105071984068E-06	-7.81690226814689E-06	1.23346631048421E-06	0.975046657814159	-0.214826878450932
9.1	0.00549130636945368	0.00634537395307091	-2.55300230374159E-06	6.63494517631545E-06	4.10257946457281E-06	-3.08255612571347E-06	0.974775374717284	-0.217086671298422
9.2	0.00610020804993499	0.00577630024437499	-1.17507711071526E-06	3.42424709359357E-06	-2.24617809748796E-06	-2.05660495700381E-06	0.974359615545129	-0.219753416851322
9.3	0.00652794056950175	0.00514761000465351	2.32338134071166E-06	-4.0413160163038E-06	-7.93671257384446E-07	-1.78032244054021E-06	0.973895521945292	-0.222459531981601
9.4	0.00674494677430946	0.00450417375975592	-1.79767289885358E-06	3.89635317697261E-06	-2.06933265096204E-06	-3.5785136480365E-06	0.973101696710636	-0.225505194320364
9.5	0.00673258566162448	0.00420397061640998	3.4960784043913E-06	6.29319727359252E-06	3.66077120883019E-07	-2.1496822632029E-06	0.972208683879701	-0.22822483218381
9.6	0.00673869493413859	0.00408954681432206	4.62257922636559E-06	7.0777463085277E-06	-8.22959823748532E-06	1.280520955311E-05	0.9714595617995	-0.23137403853938
9.7	0.00692365699350474	0.00407872376302885	-2.88300111496886E-06	-1.53363287831201E-06	-1.38764794637074E-06	-3.97172448422898E-06	0.970610355381522	-0.233943547310977
9.8	0.00719747412678172	0.00398426542276644	1.29481791194285E-07	-3.59752673888026E-06	3.0470209901279E-06	2.40062245547406E-06	0.970136246030644	-0.235943687469253
9.9	0.00743373673218384	0.00385542900881208	5.80206080344953E-06	-6.14950718662257E-07	-2.56886671915258E-06	6.7304824588573E-06	0.969597293989808	-0.237567652717528
10	0.00757939224726798	0.00374263373978502	-1.1421976021259E-06	-5.79140177500688E-07	1.36491959371323E-06	-1.18726794808242E-06	0.969623551915652	-0.239148529699894
10.1	0.00781868898783659	0.00375226077955091	7.12116184860397E-07	-8.42361338862931E-06	6.1598768962538E-06	3.60823434067579E-06	0.968960962694272	-0.241249093782473
10.2	0.00832055039999761	0.00371821122699718	7.50030971499537E-06	8.32230464575294E-06	5.22819281456103E-06	3.53131442359989E-06	0.96824135970464	-0.242591893251622
10.3	0.0089341412190156	0.00342242052083014	1.75617871441075E-06	-6.95919080403638E-06	1.42689481215506E-06	2.86858299171308E-06	0.967537902528171	-0.244179394430454
10.4	0.0094832437565112	0.00284818249326139	-4.0277435003425E-06	-3.64036776236208E-06	1.95454295129562E-06	-5.59773088694834E-06	0.966886578486221	-0.245954207061513
10.5	0.0097968773555081	0.00225433614508906	3.74695191523535E-07	-7.06928462774384E-06	-5.73227284839592E-06	4.07395903030406E-06	0.966625667278937	-0.248448121619678
10.6	0.0100418587629962	0.00173433442076942	5.49217613216411E-06	6.73754221780172E-06	2.43499557782673E-06	1.19416770078641E-06	0.965895657560428	-0.251297626034236
10.7	0.0104603270827219	0.00135229682899127	-7.08096830650589E-06	-1.68990482154147E-06	-7.73382912710428E-07	1.56048977199423E-06	0.965374541762814	-0.254156663457805
10.8	0.010900515008009	0.000780551284629065	1.48868303900893E-06	4.44487362336938E-06	9.4183116698539E-06	-4.47421253022336E-06	0.96459928834113	-0.256512109157713
10.9	0.0111816861819637	7.78891624045293E-05	3.28803981863166E-07	7.42473336855234E-06	-5.1659350017184E-06	2.10246302559624E-07	0.964146269348974	-0.258736564867152
11	0.0114326297010809	-0.000573541637648649	-2.22851630641606E-06	-3.82584193847903E-06	1.20449321623974E-05	-3.5642101872205E-06	0.963451004602242	-0.260920346586941
11.1	0.0117278917828674	-0.00118486737308645	-6.12216848421763E-06	-4.93453110376995E-06	9.52565318275067E-07	5.58049791215862E-06	0.962076167906745	-0.262884167637876
11.2	0.012196073257111	-0.00198087456631254	3.31833024854059E-06	4.30709944546044E-06	1.0621681711889E-06	-7.88383941652637E-06	0.960680163183568	-0.264479476467361
11.3	0.0127358689829585	-0.00316024631071874	7.12723265038513E-07	-2.66031053674982E-06	-4.84259194270754E-06	9.12445495517252E-06	0.959691157806981	-0.265934694357447
11.4	0.0128660091121636	-0.00463410160111306	1.4778787654204E-06	-2.20486948743843E-06	-3.01455065566161E-06	-7.44373761437482E-06	0.95844464996726	-0.26794783070346
11.5	0.0125753702108741	-0.00612895320733105	9.4877810447091E-07	-1.01068530087956E-06	-9.02651374187439E-07	-8.72219019711974E-07	0.957639573341603	-0.270063401520204
11.6	0.0121112994678325	-0.00758815979453066	1.12408533172067E-05	-3.27867902576701E-06	-5.42886122863498E-06	-6.84134948028685E-06	0.956665525875956	-0.273656346492262
11.7	0.0115338510855709	-0.00905613401559131	5.33373096672539E-06	-2.90177996490683E-06	-4.41597914282814E-06	1.6548358409111E-06	0.955289497274969	-0.27692334041352
11.8	0.0107429391619646	-0.0105216480972753	-4.52002179022705E-07	-2.55069517490885E-06	1.06733685273547E-06	1.32781958233462E-05	0.954295340553809	-0.280001736325467
11.9	0.00971339812321112	-0.0119280538716922	3.32795703927994E-06	1.99132705491947E-06	-1.45288052069256E-08	1.27472868220546E-05	0.954230715552478	-0.281920482274655
12	0.00827120292250457	-0.0130520447381927	2.00565072858578E-06	4.84639468081221E-07	-3.702533487638E-06	-9.71498080748245E-07	0.954851924671716	-0.284705594941985
