# GHZ S RI R 50
0.2	0.000450477165408676	0.00361260565403359	6.30758656881719E-06	-1.00640048955803E-06	1.06693204136287E-05	1.05011709404591E-05	0.999695568186364	-0.0069054911158038
0.3	0.00108870326906496	0.00329275797386013	5.81806688065348E-06	5.04017949985401E-06	8.0988642368209E-06	2.95608850517799E-06	0.999541920538724	-0.0097829947036598
0.4	0.00157390677390461	0.00323313045559728	-2.71120474518396E-06	7.87387388876304E-06	-4.80851520449011E-07	-4.43338858002251E-06	0.999698478087434	-0.0123787825010802
0.5	0.00203841967923875	0.00314632078280236	2.30936189627208E-06	1.47959798532829E-06	7.51494980084972E-06	-1.05410504614109E-06	0.999586615063307	-0.0157000838024808
0.6	0.00227455482999423	0.00310084454686824	3.22075399700253E-07	3.54129077190653E-06	2.74032889752847E-07	-7.66416120256637E-06	0.99956867972776	-0.0186077551658041
0.7	0.00247150360139358	0.00319351392005918	4.16890932753427E-06	5.04904592852508E-07	-3.89756244388909E-06	-3.94603070241664E-09	0.999279228684597	-0.0215866191515123
0.8	0.00275271173051973	0.00328522805799442	-2.89011847413559E-06	2.96622044494903E-06	-6.8266239834234E-06	1.32056314417635E-06	0.999044703651528	-0.0238250312383697
0.9	0.00292721158325854	0.00337904463483405	6.04171436034674E-06	8.99812339833262E-07	-7.34762220106526E-06	-1.8339021943002E-06	0.998810014907708	-0.0261916101470152
1	0.00321952217124301	0.00352066297203931	2.36255284486959E-06	2.94636359721353E-06	-9.05116122194963E-06	-2.59144812603606E-07	0.998600620800902	-0.0276549741367538
1.1	0.00336662331503148	0.00338262551689386	6.44374524833888E-07	3.55972555416581E-08	-5.30462492252453E-06	1.40414947794159E-06	0.998364543145487	-0.0296175882307483
1.2	0.00333394764945875	0.00310215744265288	-5.29777515483725E-06	-3.29181104260909E-06	-1.11927155438516E-05	-1.26659299370693E-05	0.997949730817764	-0.0305014925959603
1.3	0.00306468032595418	0.00245936233434285	3.05265495983322E-06	3.10547635028451E-06	6.96267088888779E-06	-4.08868450027198E-06	0.998337060895692	-0.0314756787049431
1.4	0.00262312531374652	0.00170867665965162	-2.80130920314838E-06	-1.11370461478544E-06	5.71688483954334E-06	6.11153009793906E-08	0.998175317050982	-0.0337212448423286
1.5	0.00249658799574732	0.00136917994186371	1.24093931498593E-06	-2.53559777772063E-06	8.02846443187138E-07	2.51373458522796E-06	0.998814826285496	-0.0372041344852367
1.6	0.00245508870832042	0.00137859851390386	-9.35064875973103E-07	-6.42099440822066E-06	3.18753169153455E-06	-4.24790283780904E-06	0.99827689235601	-0.0408924613825145
1.7	0.00269151262575507	0.00157139641453738	3.40877723896072E-06	6.3299974272387E-07	2.23788063460943E-06	3.85544928570168E-06	0.998397053350154	-0.0434831695955204
1.8	0.00292589748469251	0.00177904029333807	-2.37881679705977E-06	2.90102826399951E-06	-1.01633950481229E-06	-4.000857318685E-06	0.998136943101262	-0.0462183783534403
1.9	0.00314670337792162	0.00187520034762133	-3.73567615411275E-06	-1.76087512004801E-06	5.63474961898534E-06	3.02886055923404E-06	0.997922932254122	-0.0482797054045885
2	0.00346281694718145	0.00193309568865713	-6.18443413443424E-06	-5.75717964479333E-06	-2.08090323977774E-06	9.16543073233073E-06	0.997915766128379	-0.0508331473972269
2.1	0.0035230749863713	0.00174298440315464	1.17544509049354E-06	4.61089903533962E-06	4.4897554810423E-06	3.99395756378321E-06	0.99768611124118	-0.0535946194292767
2.2	0.00347926675193156	0.00173260097953223	6.57434217650906E-07	9.07535001628522E-07	-3.63829789516723E-06	-1.09490983599441E-05	0.997529373772947	-0.0560882490387284
2.3	0.00339320725030168	0.00166174238576049	-2.28604327808882E-06	3.56542515712844E-06	-5.37170977873681E-07	-2.79911587123671E-06	0.997074263018263	-0.0579886929087914
2.4	0.00316674386158311	0.0016597764707495	-1.55952073748806E-06	-1.45658511089467E-06	1.28520011231983E-06	-1.00076303358807E-06	0.996868067472287	-0.0610216970726417
2.5	0.00297905453353375	0.00181384269176818	7.80096442145895E-06	4.05866135584919E-06	-2.35611049266159E-06	-7.23550593993834E-06	0.99653998078644	-0.063091097943654
2.6	0.00284822568914296	0.00192631517229444	4.89095096180018E-07	2.11944561663521E-06	-1.46506057760942E-06	4.69267613419286E-06	0.996584191159031	-0.0659053608493796
2.7	0.0028284222114527	0.00216988951928264	-7.87175119786633E-06	5.25434808835254E-06	2.54515234525483E-06	9.73079532386481E-06	0.996414035974235	-0.0689262306499557
2.8	0.00301031601288373	0.00243983798730741	-7.74619088099086E-06	7.97385137584405E-06	6.04385448745613E-06	1.99377661894958E-05	0.99657637966104	-0.0710446707055289
2.9	0.00336939138072092	0.00260606517384716	-1.19047480818659E-06	8.62618951424367E-07	-8.13412582853824E-06	-2.9562615526777E-06	0.996313765561975	-0.0731557112185859
3	0.00393033781683112	0.00266441263988916	-6.17230277502565E-07	-4.47714320341301E-06	-2.1782225721887E-06	6.45019675688672E-06	0.996287040718488	-0.0756747608396492
3.1	0.00435239071481308	0.00242220614652043	-2.59160767526206E-06	9.29078349505683E-08	1.10250783315214E-05	-3.54683626303958E-06	0.996010916722034	-0.0778647719562455
3.2	0.00463758923569719	0.00220170957520427	-9.80666154725802E-06	2.56607769437607E-06	1.21836519617255E-05	4.24904890977058E-06	0.995780824740271	-0.0798494725688145
3.3	0.00481584619770914	0.00183493977650898	-3.47017977503606E-06	9.40608555905391E-07	-5.01584789798762E-06	-1.34573484038583E-07	0.995461603089027	-0.0833134544708344
3.4	0.0047802379364365	0.00153346064732697	5.35257468928184E-06	4.76780452808978E-07	1.35087602028054E-06	4.44540050831871E-07	0.995131284566274	-0.0854300927550033
3.5	0.00477260873865905	0.00127586998585091	2.77323020834402E-06	1.55378502656946E-06	1.31474661448374E-06	7.90354638443323E-07	0.994848986342995	-0.0879979675768433
3.6	0.00453461723604952	0.000989437029301522	-7.15294459300221E-06	-1.19732825675432E-07	1.85937515608786E-06	-3.50310822650536E-06	0.994690933786339	-0.0907156505836376
3.7	0.00426479368044061	0.000944750563162323	5.77721459013551E-06	-1.5250984602661E-06	-3.28813210326536E-07	-1.73290377579636E-06	0.994241429498084	-0.0935749243477869
3.8	0.0041335268201321	0.00101590176587891	-2.00130324513822E-06	8.81464538432589E-07	-5.19521760741215E-06	3.09710049804977E-07	0.993546400400973	-0.0955533270124991
3.9	0.00412775635299378	0.00115167237595018	-8.36526101020552E-06	1.79811810335791E-06	-4.12211071824738E-06	-1.49177684377636E-06	0.993186294020346	-0.0982806087585167
4	0.00440016019053685	0.00123034440552333	-5.82855098848258E-06	3.79284929048869E-07	-9.52109293611127E-06	-8.43790990583075E-06	0.993335323924016	-0.0992027582274052
4.1	0.00455250855907656	0.00100110696070758	-3.97989706988732E-06	4.07694356802146E-06	-1.8688977241996E-06	5.58860885310565E-06	0.993374700200431	-0.101468677883845
4.2	0.00460248239632229	0.000820586848066824	4.61185014155893E-06	-4.39728321371764E-06	6.75807562159369E-06	7.39462902386028E-07	0.992746188743974	-0.104215461560265
4.3	0.00460617434058895	0.000637381667685539	-3.79453884837683E-06	1.13613671883078E-06	3.54723519655021E-06	-1.21483089996946E-06	0.992535650434476	-0.106280189091558
4.4	0.00446673707602681	0.000493266767782586	-3.16123019943691E-06	-4.92902861618615E-06	9.27810171061423E-07	-1.03878295934427E-06	0.99205285967929	-0.108530370009383
4.5	0.0044099638598788	0.000485781322198535	-1.38602154636273E-06	2.03394247214223E-06	2.12134772685475E-06	-8.47950913559783E-06	0.992113497961513	-0.11074211529165
4.6	0.00420225665296483	0.000283639053464936	5.41515829660048E-06	9.57984139976384E-06	-1.41740282443792E-05	9.84256165619442E-06	0.991758959465686	-0.113681428868002
4.7	0.00398972611980557	0.000274740200735938	-7.60756033846441E-06	-9.54407231538913E-06	-1.14497263094426E-06	-1.32665059830527E-07	0.991606355939603	-0.115751385231172
4.8	0.003838851982869	0.000317249853066461	-8.74485898220879E-06	-2.67186978940663E-06	-4.3700893486871E-06	4.54912143257741E-06	0.991109048782319	-0.118368637753039
4.9	0.00378990006762969	0.000390745141955376	5.78434184556016E-06	8.30331750722851E-06	-7.24768582284753E-06	3.29086632037576E-06	0.990542790765093	-0.120247491460196
5	0.00402150639602538	0.00037571915504299	4.26329488666659E-06	-8.54499218112514E-06	-4.30001141288541E-06	-6.16981305525169E-06	0.990273160459023	-0.121762431438327
5.1	0.00417465302034158	0.000133513298672018	1.52003898465819E-05	-1.02607333353368E-05	3.4764085193353E-06	-8.72563735490175E-06	0.990212960718033	-0.123128127821881
5.2	0.00433373517100945	-6.88332218587557E-05	-4.23697236440489E-06	-4.70945713658021E-06	-3.16206288493987E-06	5.27522789754989E-07	0.989820425888398	-0.125342265704391
5.3	0.00448512228031071	-0.000365439723545349	4.77868121744976E-06	3.36726937186784E-06	-9.29695147430789E-06	-4.73331212482318E-06	0.989502539797218	-0.127544661628921
5.4	0.00446831150501939	-0.000685691979798469	5.17766694285224E-06	1.19339932971929E-06	-4.62859121491913E-07	1.04488712409108E-05	0.989386309211666	-0.130259590576238
5.5	0.0044275535210294	-0.000948757531557331	-1.81192066349029E-06	-1.97722245620116E-06	8.8724922579184E-06	5.01117677066364E-07	0.98921230589339	-0.132768654031789
5.6	0.00400035670808916	-0.00131932559915297	4.24507777227265E-06	7.2199621051914E-06	-4.68883298345437E-07	-8.60450556762567E-06	0.989142528252389	-0.135494500570434
5.7	0.00346011341252854	-0.00127432613744111	2.05332602723947E-06	-7.22399444941702E-07	5.4679969660287E-06	2.44933867691151E-06	0.988644360724569	-0.138110691697699
5.8	0.00298997884839214	-0.0011070788116111	3.90963099874555E-06	1.9570239640625E-06	2.7337335007714E-06	7.82542887336421E-06	0.988159487690901	-0.140172140815214
5.9	0.00249229038185687	-0.000734691157661192	-3.77986848336064E-06	-3.05357428494561E-06	-4.69511748154742E-06	-1.77718845371511E-06	0.987508701506531	-0.141793463216192
6	0.00229829453007131	-0.000154103771929715	-2.07612013478822E-06	1.70336672042339E-06	1.04277221338851E-05	-2.65878456713683E-06	0.987973362785316	-0.142635213648206
6.1	0.00225308542296428	2.3697721383054E-05	-7.32542369291271E-06	-1.10099342197897E-06	-7.26050532910836E-07	-2.48243305669959E-06	0.988470129018926	-0.144398150558753
6.2	0.00215684998047562	0.000110876174237849	-1.05988659086147E-06	1.98840701067024E-06	-3.48406292910834E-06	-5.35732337143848E-06	0.988321237022239	-0.146031375194344
6.3	0.00207380067804639	-3.55452320057935E-05	1.5779002679461E-06	2.82720517285403E-06	1.14969982969481E-06	5.96669357074106E-06	0.988027485563323	-0.148312803654226
6.4	0.00175852870589265	-0.000242844696364792	2.06995458519683E-06	5.03120152701077E-06	-3.32886112565052E-07	2.27243906080327E-07	0.987542717560449	-0.15057614845015
6.5	0.00160183292452574	-0.000371712756868494	4.66281654427488E-06	-1.87984929841723E-06	-4.68685537587927E-06	-1.54409050611935E-06	0.987443223158424	-0.153729372559637
6.6	0.00114820589190391	-0.000460854468025523	3.25057853525989E-07	-1.06767665213617E-06	9.2855473881339E-06	3.33013280923062E-06	0.986464101951078	-0.156535286949189
6.7	0.00089367272366922	-0.000200360297994507	5.27676479726719E-07	5.60515708957797E-06	-1.78832941940601E-06	4.967008752184E-06	0.98591700638526	-0.158658777010628
6.8	0.000686837193447656	3.26299846290381E-05	1.76275047447923E-07	-1.5846150982671E-06	-3.47080516889914E-06	-5.11545055077955E-06	0.985282281503013	-0.160822635822183
6.9	0.000375435491414067	0.000392508099713131	-6.64076407562383E-06	6.70831585112441E-06	2.28447399378184E-06	1.35378178107672E-06	0.98469012665671	-0.162689874636761
7	0.000428103226860639	0.000891682482778731	8.06912536739025E-06	3.16500553075137E-06	4.56019576320749E-06	5.85867766429912E-06	0.984349756347447	-0.164162067443962
7.1	0.000138956500814696	0.00106253003209404	1.39364179053514E-06	7.83669729645553E-07	-2.26668787011664E-06	-4.47233831280528E-06	0.983884051996655	-0.166135170486823
7.2	-0.000136737156692533	0.00158592100604313	-1.39637519781314E-07	4.39202862609047E-06	-5.00426297423477E-06	-6.62018110587856E-07	0.982997198850029	-0.168009596072059
7.3	-0.000372897384514541	0.00209661345035612	1.35447641686212E-06	-5.25570148786509E-06	-2.34273685250331E-06	-2.78761919479565E-06	0.981657839490744	-0.169905018171501
7.4	-0.000796678500006274	0.00263272047413402	1.83151792900461E-06	4.41494340631727E-06	-7.26184486073138E-07	-1.06787739724874E-06	0.979846643171376	-0.172167989966098
7.5	-0.000962985747914751	0.00350984034595884	-5.72704420590959E-06	-1.49288387916485E-06	-1.56690192365194E-06	-8.88177557221586E-06	0.978353468903045	-0.173180659716343
7.6	-0.000901548888678176	0.00395369001509113	5.61848033923911E-06	-3.37353127144652E-06	1.01669190821706E-06	3.18603314603166E-06	0.978415259958281	-0.175570618629015
7.7	-0.000906125722115075	0.00446796754068041	-6.48953162506281E-06	-2.86552990021599E-06	4.36289998569928E-06	5.66657495261612E-06	0.978200304885529	-0.178417465791228
7.8	-0.000623371381346098	0.00469326326577885	-1.07501272001885E-06	-5.34896740885791E-06	-2.14388659396838E-07	1.14141289837462E-06	0.978202908280374	-0.181334840297021
7.9	-0.000310591653065589	0.00483300794030999	-3.35260243893289E-06	7.19325116404919E-06	4.80907765992823E-07	-6.86830413036057E-06	0.978293036864832	-0.184038055238565
8	0.000364843620358312	0.00487462996633149	-2.47731314909101E-07	7.37784569560586E-06	1.77931890521061E-06	-4.45005666826833E-06	0.979342674972956	-0.186722061200056
8.1	0.000535311559035274	0.00470772445662808	-7.29317268686286E-07	-6.46555114362195E-06	-1.74623131413645E-06	-1.06542563912252E-06	0.97910199552918	-0.190671730269246
8.2	0.00075920527022012	0.00485028833060847	-3.82744416122944E-06	1.64680856673452E-06	-1.09620622153666E-05	-2.62722482358123E-06	0.978517994575595	-0.193391961406992
8.3	0.000984311149270043	0.0049634585346247	-5.53357856181235E-06	-9.86275125184634E-06	-7.7875657632059E-06	3.00957920742334E-06	0.977800922158632	-0.196163225003616
8.4	0.00105950301946365	0.00526090912453488	6.77684051889917E-07	-6.09230158739979E-07	-1.41651589484978E-06	4.38840315873724E-07	0.97706837742659	-0.198793104962364
8.5	0.00148407792919838	0.00571567981973539	-1.75199905179327E-06	-2.58347241296283E-07	-9.21032648446692E-09	1.80334515619964E-06	0.976443662468709	-0.201766334165507
8.6	0.00166739195408513	0.00585281496963512	2.42994917843692E-06	-3.96803395215557E-06	-4.55598963501253E-06	-5.92389739113695E-06	0.97562110527453	-0.204388328249449
8.7	0.0019397755905653	0.00632912021171614	-1.49567083665725E-06	-2.09532206299786E-06	-3.56087748980483E-06	3.63217654422957E-06	0.975120817451727	-0.206737546859271
8.8	0.00246152141403502	0.00675876096509339	-5.49337667752405E-06	-2.12766316435188E-06	-7.23056036843744E-06	-1.2786008719616E-06	0.974742529103065	-0.208824947844716
8.9	0.00309593213734803	0.00703033106083056	8.55233856975188E-06	4.10821792054428E-06	-1.42185125897804E-06	3.19852593555055E-06	0.974855626243989	-0.21062841815755
9	0.00410334256947484	0.00721722222378827	-5.0447053800034E-07	4.16152437776487E-06	-7.82118363215924E-06	1.22161264553024E-06	0.975012197645376	-0.212728857046154
9.1	0.00503155386922082	0.00681195428815886	-2.56512096855951E-06	6.63496251317283E-06	4.11000172082843E-06	-3.07792680242036E-06	0.975215318565038	-0.214942055130433
9.2	0.00587466735320719	0.00634284360510424	-1.18049205649091E-06	3.42568824709052E-06	-2.24547049460031E-06	-2.06126534031568E-06	0.975209400939167	-0.217835198411113
9.3	0.0065641881716735	0.00562549656135438	2.32919337258504E-06	-4.04250192439001E-06	-7.92640893453717E-07	-1.7825786535743E-06	0.974919238609836	-0.22092655074237
9.4	0.0068953767143548	0.00487113430135208	-1.80137235216227E-06	3.89747732212582E-06	-2.06816366871181E-06	-3.58205018988477E-06	0.973952138617317	-0.22427913686154
9.5	0.00718895656558099	0.00436979974447632	3.49073847557463E-06	6.29749767167758E-06	3.68153900138471E-07	-2.14968688403166E-06	0.973006070431443	-0.226799741443494
9.6	0.00700829310278856	0.00379582490478737	4.6160262812705E-06	7.08619320310408E-06	-8.24830202647475E-06	1.28006567470671E-05	0.972446326661062	-0.230139276243789
9.7	0.00691990498284189	0.00369825688863758	-2.88272629976327E-06	-1.53778317637666E-06	-1.38375963593833E-06	-3.97541192718321E-06	0.971533370112096	-0.232838766446793
9.8	0.00695950616286561	0.00361117783608993	1.33799313538839E-07	-3.59927566337544E-06	3.04579642136852E-06	2.40549042425618E-06	0.970933505240975	-0.234855501391655
9.9	0.00695575831976321	0.00368040513864165	5.80621486917686E-06	-6.06937395829056E-07	-2.58001102484128E-06	6.73057216995464E-06	0.970273735754405	-0.236143433070182
10	0.00734707979972054	0.00384096005964143	-1.14278745694659E-06	-5.81568508363094E-07	1.36841138324085E-06	-1.18674971462533E-06	0.971114662125696	-0.237588300145176
10.1	0.0075875529324345	0.00361984277671323	7.20686059325752E-07	-8.43345853504224E-06	6.16426037067301E-06	3.61834774682727E-06	0.970326543133404	-0.240342881720271
10.2	0.00793343028866001	0.00360660212820234	7.50146906329911E-06	8.33793372028619E-06	5.23094636513239E-06	3.53969940421767E-06	0.96940684226198	-0.241684613631101
10.3	0.00840179871270891	0.00341278749070885	1.76419464839291E-06	-6.96547189532082E-06	1.42600338821411E-06	2.87304058270582E-06	0.968651555584694	-0.243243982898528
10.4	0.00881738776516451	0.00316434245378022	-4.03001895739448E-06	-3.64831643069635E-06	1.96157649822355E-06	-5.6033931343518E-06	0.968017249842855	-0.24494555106307
10.5	0.00955108090204277	0.00294323505643936	3.77608968387077E-07	-7.07757917238219E-06	-5.74052651327365E-06	4.07681387095431E-06	0.967806898370049	-0.247572659249936
10.6	0.0101495064871124	0.00234307650278273	5.49332281730301E-06	6.74680884169203E-06	2.43652832905433E-06	1.1966451426004E-06	0.967064940952323	-0.250104261097425
10.7	0.0108093022915775	0.0017469781979219	-7.08638875808616E-06	-1.69655226842704E-06	-7.75223253748193E-07	1.56139749233229E-06	0.966849479363235	-0.252971914653041
10.8	0.0113155029725219	0.000824587553663211	1.48709479399738E-06	4.45079628520884E-06	9.43181491724527E-06	-4.47228640282969E-06	0.966318647532907	-0.255605061569331
10.9	0.0114130726033409	-1.27074153979437E-05	3.24600083770888E-07	7.43448115582016E-06	-5.17270571241016E-06	2.07297528076432E-07	0.965867322661153	-0.25805385389663
11	0.0118626183249735	-0.000692362660933631	-2.22973940766061E-06	-3.83155114023548E-06	1.20614901294359E-05	-3.56373480642183E-06	0.965212093479459	-0.260297515479038
11.1	0.0119904947420547	-0.0017268132245418	-6.12823515070286E-06	-4.94331051124743E-06	9.51655720278356E-07	5.58812697679947E-06	0.963899902613356	-0.262465645368084
11.2	0.0121606829154463	-0.00261325975084456	3.32203741384191E-06	4.3137919582472E-06	1.0653101825993E-06	-7.89458309639464E-06	0.962527041081128	-0.264290246351045
11.3	0.0124140030575727	-0.00378128555540297	7.13580318459101E-07	-2.66405244823738E-06	-4.84887177130347E-06	9.13741145868709E-06	0.961425775676694	-0.26609836991771
11.4	0.0122516970568949	-0.0050540051703775	1.47873055140503E-06	-2.20808395404151E-06	-3.02115659469793E-06	-7.45132655377665E-06	0.959751561502742	-0.268415361279927
11.5	0.0121491747839218	-0.00631964708804582	9.49451888044075E-07	-1.01163732977305E-06	-9.03504514333112E-07	-8.72841497040816E-07	0.958824890407512	-0.270095119747875
11.6	0.0115206929233748	-0.00797592753674859	1.12540158650085E-05	-3.28363281456483E-06	-5.43598806267737E-06	-6.84904665027434E-06	0.958062745080207	-0.273957811967454
11.7	0.0106487399208777	-0.00927064046197896	5.3393534007847E-06	-2.90700674382134E-06	-4.4208686325948E-06	1.65824758565108E-06	0.956452021913384	-0.277404412179989
11.8	0.00966718150618496	-0.0103759863613831	-4.53502218303162E-07	-2.55334094754911E-06	1.0737227488695E-06	1.32924729033153E-05	0.955113891774323	-0.280396468911983
11.9	0.00862118792452593	-0.0111434754679328	3.33133166724545E-06	1.99301059446036E-06	-1.35960076846495E-08	1.27596473739475E-05	0.954732687166894	-0.28160216996178
12	0.00806666016925274	-0.0118461266382886	2.00905815163685E-06	4.85680195144683E-07	-3.7088158971339E-06	-9.7355174252269E-07	0.956522476717853	-0.283901441672904
