# GHZ S RI R 50
0.2	0.000546484796509957	0.0040777335218188	6.30174361038617E-06	-1.01054246798912E-06	1.06690106115066E-05	1.04843876931743E-05	0.998965786105947	-0.00723110906125635
0.3	0.00116003352642673	0.00362946862389184	5.81581274971357E-06	5.0315796848167E-06	8.09307662544205E-06	2.94798589216112E-06	0.998636155447594	-0.010099352377553
0.4	0.0016381184990648	0.0033642808577935	-2.70419701045157E-06	7.86485902658601E-06	-4.82192585832502E-07	-4.42742303241984E-06	0.998447923900833	-0.0126791381490794
0.5	0.00168398878606244	0.00340122972970078	2.30652648038892E-06	1.47820299904573E-06	7.5064827179714E-06	-1.05192545992922E-06	0.998103563366414	-0.0153035034698089
0.6	0.00233545976425939	0.00377057970125985	3.22896317787399E-07	3.53800692194651E-06	2.71383445333212E-07	-7.65735868981955E-06	0.99875326068948	-0.0182723414161285
0.7	0.00284991834972539	0.00368013928702598	4.16374694274463E-06	5.02191912781517E-07	-3.89250507351796E-06	-2.01753566433917E-09	0.998368345235056	-0.0216284570629874
0.8	0.00329166500982547	0.00359281176946949	-2.88398529965157E-06	2.96271253364705E-06	-6.8148070848957E-06	1.3216029252233E-06	0.997933572856792	-0.0240270797440615
0.9	0.00364996220389711	0.0033686396539088	6.02989409966273E-06	8.95622372625673E-07	-7.33353796629963E-06	-1.8273162610204E-06	0.997477765067668	-0.0266217489892059
1	0.00343944720425404	0.00299447764769706	2.3568339362853E-06	2.93976254360395E-06	-9.03022170352909E-06	-2.593421461233E-07	0.996467621499799	-0.028065927243009
1.1	0.00329108764851398	0.00354169860095626	6.43092740807424E-07	3.57352313733791E-08	-5.29462124964686E-06	1.39966787657609E-06	0.996320596655437	-0.0290843615277084
1.2	0.0035883384675285	0.00358067450418244	-5.28699101122605E-06	-3.28810751106963E-06	-1.11676004939139E-05	-1.26479280818954E-05	0.996457690147736	-0.0295577121949492
1.3	0.0036537876925707	0.00316905345484486	3.04614377627817E-06	3.10298477846799E-06	6.95525156957769E-06	-4.07809873073233E-06	0.997551058464923	-0.0300690857904657
1.4	0.00353077693202415	0.00232352657573923	-2.79714795653619E-06	-1.11486938693553E-06	5.71031461871693E-06	6.60136670437712E-08	0.998050409846942	-0.032252978553771
1.5	0.00313403158012909	0.0019405010207865	1.24152515107952E-06	-2.53146801885688E-06	7.99779677915213E-07	2.51132682496212E-06	0.998350322861376	-0.0358312500337684
1.6	0.003458125895232	0.00188672509743275	-9.2801907855338E-07	-6.41142319311007E-06	3.18604170715004E-06	-4.23829014260323E-06	0.997789679337756	-0.0396029849880323
1.7	0.00363107764863617	0.00161228307560711	3.40156362876286E-06	6.35085534236479E-07	2.22980348955841E-06	3.85015966905294E-06	0.99749275463211	-0.0425473418655219
1.8	0.00367766240899491	0.00152362793071629	-2.37673302514816E-06	2.89250792966252E-06	-1.01015362328279E-06	-3.99344912375274E-06	0.996851011939628	-0.0455160957258558
1.9	0.0036160510164133	0.00128420095470167	-3.72567559407745E-06	-1.75957045708521E-06	5.6193867667324E-06	3.02602581499282E-06	0.996112972547234	-0.0481380305555331
2	0.00316822453501493	0.00147389404365149	-6.15802681790087E-06	-5.74283348220582E-06	-2.08186331364798E-06	9.13201552662574E-06	0.99425923265729	-0.0503245489668084
2.1	0.00342281509345896	0.00185291361522368	1.16232031626105E-06	4.59820781919336E-06	4.46704916409155E-06	3.98995591903466E-06	0.994502926578457	-0.0514183228465834
2.2	0.00358097728156729	0.00181557064836617	6.53599500887629E-07	9.06333463275995E-07	-3.60438026483145E-06	-1.09254050254813E-05	0.994945909552157	-0.0538576574829608
2.3	0.00359737758825543	0.00168191615110127	-2.28753184033027E-06	3.55040990607015E-06	-5.29485339656726E-07	-2.79247988465156E-06	0.994659568603943	-0.0557717130084044
2.4	0.0034491863451209	0.00144010921314594	-1.5515750137083E-06	-1.45628554977617E-06	1.28402054742588E-06	-9.9480932803273E-07	0.994495678309867	-0.0587926327338581
2.5	0.00269827845196285	0.00140073990960264	7.77024790325582E-06	4.07065504173863E-06	-2.32987305876299E-06	-7.2242890904789E-06	0.993981781213466	-0.0606431072059382
2.6	0.00249464936569214	0.00212160931310838	4.82512514543584E-07	2.11590996244033E-06	-1.47386566955113E-06	4.67826572034641E-06	0.994190343040693	-0.0630842133167146
2.7	0.00271337928635202	0.00253669984210105	-7.86670691005406E-06	5.22083255100713E-06	2.51323863030438E-06	9.71409401458482E-06	0.994152741995863	-0.065860840345713
2.8	0.003102870245358	0.00281886559764597	-7.75040438498127E-06	7.9323189240157E-06	5.97193268109201E-06	1.99069807561533E-05	0.99455145464506	-0.0677515166162242
2.9	0.00353845051776562	0.00280115624796497	-1.19052268167078E-06	8.56915081267037E-07	-8.10647887596306E-06	-2.97532011538611E-06	0.994567299606495	-0.0697802775156186
3	0.00377013767974975	0.00297590610646785	-6.01905850082801E-07	-4.47112304855569E-06	-2.19483221582224E-06	6.43177805363864E-06	0.994711344373958	-0.0721945853442548
3.1	0.00457794979434188	0.00303585824021884	-2.58708285333629E-06	8.46383266379392E-08	1.10156755126648E-05	-3.5058010459135E-06	0.994770247188672	-0.0741371586742402
3.2	0.00510356034783823	0.00264298916807694	-9.79909476273499E-06	2.52764276601998E-06	1.21483762890429E-05	4.28429087601983E-06	0.994985085511113	-0.0760101002674094
3.3	0.00541308711864779	0.00208720143320045	-3.46925963405292E-06	9.26141389294892E-07	-5.00881520626483E-06	-1.53542608081823E-07	0.995194954750672	-0.0793775814803093
3.4	0.00539642436825291	0.0014554074907478	5.34729725297137E-06	4.98230390217518E-07	1.34822684140559E-06	4.49751234721353E-07	0.995558030549513	-0.0816361889110568
3.5	0.00491392351728188	0.00116585297683412	2.76772604470474E-06	1.56327022767467E-06	1.31195183913484E-06	7.94848630625271E-07	0.995329235550679	-0.0848759248503859
3.6	0.00493284814435071	0.00121334733903005	-7.14926192616517E-06	-1.44690420800385E-07	1.87077627518062E-06	-3.4950078946989E-06	0.995055331604531	-0.0872107040499212
3.7	0.00487350183468587	0.000962983041298174	5.78184726560332E-06	-1.50272431136004E-06	-3.2212849137383E-07	-1.73380213985701E-06	0.99506733892828	-0.0900076923737908
3.8	0.00476710554463019	0.000790734555725902	-2.00498013515242E-06	8.73970284202191E-07	-5.19721650056717E-06	2.89944197097499E-07	0.99471327719386	-0.0922633522249669
3.9	0.00461571648503234	0.000598905778239451	-8.37382642231123E-06	1.76994652906963E-06	-4.11817709830894E-06	-1.50634075497715E-06	0.994261837609642	-0.0956641438736259
4	0.00425558959593441	0.000770235154524048	-5.82711954678828E-06	3.57994262690868E-07	-9.48595291160857E-06	-8.4683298087778E-06	0.993059714933719	-0.0961400737908251
4.1	0.0046405639199023	0.000995170717762554	-3.99864039254306E-06	4.05963179788874E-06	-1.89414688197328E-06	5.58093422742835E-06	0.994091627294488	-0.0971587028254032
4.2	0.00486823419008167	0.000684243659222986	4.63451370981292E-06	-4.37978752562426E-06	6.75938282691438E-06	7.6998085046216E-07	0.994215393685756	-0.100154623370272
4.3	0.00486471561296698	0.00034603204500677	-3.803267433593E-06	1.12028693556392E-06	3.556076958422E-06	-1.20016123744099E-06	0.994286787977917	-0.102391581932319
4.4	0.00459399496861776	-5.50248316483698E-05	-3.14162084216849E-06	-4.95002244647929E-06	9.33871592100037E-07	-1.03562873233168E-06	0.993949414619462	-0.104633328095602
4.5	0.00385113885288896	3.95737401937767E-05	-1.39978137598228E-06	2.0312072571917E-06	2.17055810345329E-06	-8.48728908959067E-06	0.994425162626467	-0.1063462783199
4.6	0.00379516823219995	0.000466949619045227	5.38857696720312E-06	9.63334643428003E-06	-1.4261421301281E-05	9.80880481869001E-06	0.995006847145161	-0.109522252907346
4.7	0.0038230391282008	0.000552718982981529	-7.59235679133795E-06	-9.60572545563867E-06	-1.148059433259E-06	-1.37806460283375E-07	0.99519773861147	-0.111927760746018
4.8	0.00384850419297863	0.000609032157062262	-8.76330494148755E-06	-2.71551495559794E-06	-4.40269976878361E-06	4.54686987300643E-06	0.994999002813161	-0.11474149676901
4.9	0.00389947438305946	0.000499165710429004	5.77197748783535E-06	8.35644541363643E-06	-7.28702083095655E-06	3.27372819747248E-06	0.994792611781832	-0.116828119190023
5	0.0037606560840954	0.000623248357745264	4.31318718510212E-06	-8.56638016722251E-06	-4.29598388151735E-06	-6.21237223792569E-06	0.994836587598735	-0.118598737225078
5.1	0.00435709112893175	0.000688769676551148	1.52974773166843E-05	-1.02570511366594E-05	3.5185682938349E-06	-8.7520681918792E-06	0.995109895657916	-0.120222592035066
5.2	0.00472063548325594	0.000261945220733125	-4.24078521002815E-06	-4.74323957530807E-06	-3.17751710560067E-06	5.19963183453495E-07	0.99497935831253	-0.122707421415293
5.3	0.00490008654113204	-0.000195720645639686	4.79054295157418E-06	3.39809842781574E-06	-9.32574011433781E-06	-4.78475360218566E-06	0.994988550131621	-0.125075635123147
5.4	0.00480030755869664	-0.000767463679018365	5.2018567224153E-06	1.21574232368038E-06	-4.974805697445E-07	1.05036703328228E-05	0.995461718010781	-0.128163813822544
5.5	0.00422974796181004	-0.000702130914417101	-1.81893969957275E-06	-1.99251153990694E-06	8.92450875822532E-06	5.21163503946082E-07	0.995248116695402	-0.13154242774707
5.6	0.00450778085192887	-0.000665748814148746	4.25674840811234E-06	7.26446727532226E-06	-4.58523733870101E-07	-8.65069634517472E-06	0.995191059514292	-0.134257286394283
5.7	0.00439884984583932	-0.00102517026800323	2.06522915665146E-06	-7.2328012231691E-07	5.49342745144413E-06	2.47013918432599E-06	0.995101950858615	-0.137386433097472
5.8	0.0040993404796861	-0.0013345156224204	3.92835163916548E-06	1.97159551105079E-06	2.73995526929284E-06	7.86997415528222E-06	0.994715274763437	-0.140307605418423
5.9	0.00353782220334359	-0.00173154892887861	-3.79693994214185E-06	-3.07013777585357E-06	-4.71721718183674E-06	-1.78793582735332E-06	0.993418195048435	-0.143202660207905
6	0.00216962356551102	-0.00160293538023936	-2.08591616649057E-06	1.70728563084655E-06	1.04699335948299E-05	-2.65638068223884E-06	0.991732811594664	-0.143486264602976
6.1	0.00173478338192948	-0.000752212433043196	-7.35864699905696E-06	-1.12026630665137E-06	-7.24819307858357E-07	-2.49578699999092E-06	0.993125087534149	-0.144001616485694
6.2	0.00149062979948133	-0.000361085273483962	-1.06852349479953E-06	1.99774568557473E-06	-3.49541009491649E-06	-5.39156943316547E-06	0.993461831790189	-0.145929473048368
6.3	0.00142488441588982	-0.00011252923375218	1.58432984369048E-06	2.84479602412573E-06	1.15081476288513E-06	6.0018259312032E-06	0.993389700500259	-0.14843431678806
6.4	0.00119602208962149	-0.000239816435101186	2.07859710072739E-06	5.06095147658301E-06	-3.34909708023979E-07	2.28326891391611E-07	0.992895892913142	-0.150960246008101
6.5	0.000806702833385533	0.000238837434434213	4.69513356895432E-06	-1.88805031464283E-06	-4.71628091177054E-06	-1.55841210951183E-06	0.993524761253208	-0.153433109298284
6.6	0.00123341991091861	0.000368208682234948	3.26646716979397E-07	-1.07570508341357E-06	9.35573928171591E-06	3.34762198425998E-06	0.993848789853832	-0.157847930828422
6.7	0.00126538695891776	0.000286158982850189	5.41132392455769E-07	5.6426519105538E-06	-1.79186894525059E-06	5.00419468299314E-06	0.992905492025877	-0.161305199691281
6.8	0.0011856057129227	0.000243340039194549	1.73694292387102E-07	-1.59526191232091E-06	-3.50522485557682E-06	-5.140339005556E-06	0.991830979163896	-0.164271954960503
6.9	0.000729161951973496	0.000112716398413895	-6.66300933373177E-06	6.76805220489644E-06	2.302295844506E-06	1.35577005881929E-06	0.990668817337266	-0.166957597125432
7	-6.67649368549699E-05	0.000981412164552039	8.12755814279153E-06	3.15848434152169E-06	4.60608818008914E-06	5.87941735246814E-06	0.989308554058277	-0.168353965921516
7.1	0.000339535416515511	0.00176571810715916	1.40451963737539E-06	7.83208572625651E-07	-2.29584743503E-06	-4.49009943624191E-06	0.989306800772002	-0.170176761088177
7.2	0.000500323607729201	0.00202580184450814	-1.23392211779287E-07	4.41741822052509E-06	-5.03514244745372E-06	-6.46353514425794E-07	0.988622291259718	-0.172666617339893
7.3	0.000516539469848835	0.00222719854123128	1.34049340126398E-06	-5.29144537265785E-06	-2.36770742166708E-06	-2.79390946197639E-06	0.987463187492022	-0.175190110219907
7.4	0.000219563934591907	0.00208018715199201	1.86411248583675E-06	4.43419808930231E-06	-7.35862033615239E-07	-1.07118810356968E-06	0.986155918136314	-0.178858255407459
7.5	-0.000956334120860929	0.00254838172005864	-5.77093360889916E-06	-1.46295656172717E-06	-1.63622091141882E-06	-8.92358378032921E-06	0.982744736387357	-0.182065943938133
7.6	-0.000882567264280073	0.00368549934761346	5.62038730292943E-06	-3.42604884497364E-06	1.04255160452156E-06	3.19313826151199E-06	0.98126473729015	-0.18338987042427
7.7	-0.000926975548288479	0.00413193871175651	-6.53571004536399E-06	-2.83264179707981E-06	4.41964146957831E-06	5.65973186344559E-06	0.980714362228384	-0.186335406920186
7.8	-0.000738312739207544	0.00442371052250516	-1.1182773013978E-06	-5.36048178748126E-06	-2.06768073323597E-07	1.14713555856144E-06	0.980094800889372	-0.18954145120354
7.9	-0.000671257271119649	0.00458583540578236	-3.30335598334962E-06	7.24034339350837E-06	4.26386298771314E-07	-6.89115026061484E-06	0.978934175165076	-0.192737083724176
8	-0.000332435383990002	0.00543754234437901	-1.90630117498057E-07	7.38536419482318E-06	1.74611347780222E-06	-4.46724772493499E-06	0.977926943188049	-0.193888907736292
8.1	0.000808178983341757	0.0055052224057072	-7.72911029863441E-07	-6.46703041914536E-06	-1.75500342672253E-06	-1.05488499407828E-06	0.979133884055496	-0.196602134634644
8.2	0.00132898764614093	0.00520977197868035	-3.82041100507998E-06	1.67480732826775E-06	-1.09921480711018E-05	-2.55515160925145E-06	0.978916500735611	-0.20006636593792
8.3	0.00159160764855622	0.00498386898615993	-5.60697002288479E-06	-9.83130439443634E-06	-7.77228100681168E-06	3.06650839557352E-06	0.977813884606583	-0.203324930298176
8.4	0.00145675056792587	0.00481719139563813	6.73773460546154E-07	-6.13997481819501E-07	-1.4139832612007E-06	4.48549590509856E-07	0.976439792568219	-0.206087840677539
8.5	0.000996896002364415	0.00566103275788456	-1.75531824353736E-06	-2.46976448574217E-07	2.72925021435407E-09	1.80506080802424E-06	0.975522659545219	-0.208656226389272
8.6	0.00182822303133864	0.00645097368890061	2.40058835369613E-06	-3.98858396003593E-06	-4.60367732610462E-06	-5.89166224838039E-06	0.974672451867857	-0.211589840500009
8.7	0.00252609863290196	0.00670395260726651	-1.51147123234936E-06	-2.08265598056671E-06	-3.53078851813378E-06	3.65855006658582E-06	0.973619609738553	-0.214146198591838
8.8	0.00327343059175855	0.00680992255641394	-5.50328053341831E-06	-2.08254126699178E-06	-7.23180202099379E-06	-1.22103421287343E-06	0.972689072135469	-0.2162778723002
8.9	0.00387695557715829	0.0064874368377996	8.56741992982604E-06	4.03801924146781E-06	-1.39580028844064E-06	3.20332311906311E-06	0.972263357241973	-0.218118029383053
9	0.00404046033699013	0.00663321249974997	-4.72861319953816E-07	4.15832636992046E-06	-7.79913088029263E-06	1.27740705818753E-06	0.97170361021856	-0.220274484082221
9.1	0.00510291838244486	0.00661076586906929	-2.5077664568478E-06	6.63780984222107E-06	4.07599568420049E-06	-3.1016287320545E-06	0.971147092983785	-0.222188685525551
9.2	0.00586962600314376	0.00614113263284476	-1.15207596678693E-06	3.42373842883355E-06	-2.25351274309166E-06	-2.03869457827213E-06	0.97062851650166	-0.224552796614441
9.3	0.00652663678110573	0.00555644733352335	2.29374919568477E-06	-4.04538598216606E-06	-8.02343290764191E-07	-1.77131033395797E-06	0.970182478481515	-0.227126696413586
9.4	0.0067910328220343	0.0046798561928183	-1.76937521175213E-06	3.89740140799995E-06	-2.08586900134243E-06	-3.55681818989218E-06	0.969277896707186	-0.230498210497802
9.5	0.00669717950103144	0.00480838947967609	3.52598503103764E-06	6.24791602587492E-06	3.50430022101426E-07	-2.14464687702105E-06	0.967249954451752	-0.233111175127367
9.6	0.00736483147639233	0.00452540394466722	4.64262120916234E-06	7.01786710768038E-06	-8.11644515109514E-06	1.27940804257558E-05	0.966261023122284	-0.235312204851755
9.7	0.007644336294817	0.00407680906467243	-2.876657696818E-06	-1.51097596302032E-06	-1.40145168837424E-06	-3.94473732710399E-06	0.965364954462836	-0.237595577298799
9.8	0.00787467202385385	0.0036095488445166	1.11178723318183E-07	-3.57888844572127E-06	3.04244871767016E-06	2.37284745353529E-06	0.964582803247005	-0.239574937062546
9.9	0.00776487046725078	0.00306697842035088	5.76319606474726E-06	-6.38157495609838E-07	-2.52158094810637E-06	6.70068530270182E-06	0.962945123389667	-0.24120639608474
10	0.00730663078594549	0.00332668229854232	-1.13594817611011E-06	-5.71751908237163E-07	1.3519287039124E-06	-1.18301395903482E-06	0.962004367264319	-0.24057115087513
10.1	0.0079064039638231	0.00342164125101943	6.88719683546651E-07	-8.37461902073092E-06	6.13105640239346E-06	3.57257515575926E-06	0.962794658318301	-0.242110974330819
10.2	0.00826434520229576	0.00313693197900728	7.47450571278736E-06	8.25619495689411E-06	5.20512238236887E-06	3.49868149373584E-06	0.962065043266969	-0.243684910814227
10.3	0.00857392025067353	0.00278150100532639	1.73169339505208E-06	-6.9200552137681E-06	1.4238213218645E-06	2.84820647532193E-06	0.960972094662534	-0.245050061828708
10.4	0.00862910599072265	0.00227658620557938	-4.00705081851241E-06	-3.61218573281178E-06	1.93496193424754E-06	-5.56495045245364E-06	0.959824997616888	-0.246108153445454
10.5	0.00855771529322823	0.00264707991879298	3.66873201795831E-07	-7.03023813679139E-06	-5.69705890822194E-06	4.05593308781937E-06	0.959950576294639	-0.247382971821294
10.6	0.00959763302470038	0.00266574612493459	5.46863289610036E-06	6.69284867285305E-06	2.42249681009289E-06	1.18456637369588E-06	0.959730244277708	-0.249905479088867
10.7	0.0105552635805509	0.00218613513195372	-7.038930525338E-06	-1.67392623644629E-06	-7.67405138396049E-07	1.55154412652349E-06	0.959458068208151	-0.252391858463641
10.8	0.0113730684023632	0.00121715018766672	1.48082357781372E-06	4.41664075403989E-06	9.35806241336032E-06	-4.44931853422579E-06	0.959085494264113	-0.254616375472227
10.9	0.0114541589948194	1.82179751297624E-05	3.24983035255711E-07	7.37880982903195E-06	-5.13397815497528E-06	2.07702577637511E-07	0.958596812465543	-0.256812202318285
11	0.0113275538490834	-0.00020693430802844	-2.21440986583383E-06	-3.80398677461187E-06	1.1975198372809E-05	-3.54005743037541E-06	0.95780712971826	-0.258556130765028
11.1	0.0121913139419425	-0.000849590175256193	-6.082436624716E-06	-4.90669030018585E-06	9.44389758593643E-07	5.5465391622085E-06	0.956838454478766	-0.260223379844094
11.2	0.0127383658011239	-0.00199435437615839	3.2941743801905E-06	4.28357534424735E-06	1.06257646059442E-06	-7.83450861459874E-06	0.955768283197306	-0.261699513263554
11.3	0.0132189752416681	-0.00352131864887825	7.11869374224496E-07	-2.64399357567453E-06	-4.82574737508368E-06	9.06553181645213E-06	0.955337029388394	-0.263287561849891
11.4	0.0129906705467911	-0.00531995177507243	1.47258398980344E-06	-2.19152647825765E-06	-2.99011529820588E-06	-7.40783039476888E-06	0.954271439883442	-0.2659485680262
11.5	0.0122621453373257	-0.0062824147607557	9.43699903794327E-07	-1.00395907291502E-06	-8.96627965201754E-07	-8.67533377012248E-07	0.952094494034461	-0.267833961606237
11.6	0.0122282747872688	-0.00776076761991058	1.11743080677024E-05	-3.23767487111865E-06	-5.38180689130215E-06	-6.80692775980497E-06	0.951489701948178	-0.270268953615933
11.7	0.0114755500381827	-0.00950863568429166	5.3078257506921E-06	-2.87197140832441E-06	-4.39283159066898E-06	1.63471226476685E-06	0.95043426672346	-0.27346899569691
11.8	0.010300686653147	-0.0109984309931269	-4.43302319386165E-07	-2.53651222004602E-06	1.02973241698213E-06	1.32013400468598E-05	0.949172950712499	-0.27660600051622
11.9	0.00864483689717401	-0.0121380084656173	3.30068428347134E-06	1.98612983503927E-06	-4.58002882069467E-08	1.2661556634013E-05	0.947684237975637	-0.278146808514454
12	0.00737835673132161	-0.0119959844390529	1.98941976773497E-06	4.89321930614471E-07	-3.67225888541663E-06	-9.79595649428567E-07	0.948358523853714	-0.277892846982902
