# GHZ S RI R 50
0.2	-0.000401904784196064	0.0021117174661306	6.33306266454783E-06	-9.89987596941054E-07	1.06737780246538E-05	1.05720584951311E-05	1.00237191718326	-0.00530869374073421
0.3	0.000485604088501548	0.00250306924618505	5.82826145604443E-06	5.07560485878347E-06	8.12365676803666E-06	2.989103325289E-06	1.00294545544539	-0.0080446819457054
0.4	0.00113388309107239	0.00334731709395909	-2.74013275702107E-06	7.90992977923927E-06	-4.75051752585323E-07	-4.45745350813258E-06	1.00447573421889	-0.0104928052394798
0.5	0.00341966710596387	0.00304398307588386	2.32094553994956E-06	1.48566633630019E-06	7.55020621602124E-06	-1.06223384755902E-06	1.00571920066902	-0.01632253716014
0.6	0.00247288106785814	0.00127241857242583	3.19566472999262E-07	3.55374831363372E-06	2.82788750568306E-07	-7.69013168597782E-06	1.00325851778087	-0.019574663712968
0.7	0.00155610854824596	0.00192063152380764	4.18746875566347E-06	5.14728251796551E-07	-3.91575221455521E-06	-1.09448544916209E-08	1.0030951722328	-0.0213271083702456
0.8	0.00130270476599259	0.00260677124467532	-2.9121158506079E-06	2.97845874250926E-06	-6.86867785641805E-06	1.31636059110086E-06	1.00343707195544	-0.0230963896260744
0.9	0.000744070999929194	0.00383261854092856	6.08368373230523E-06	9.15355296100819E-07	-7.39755035674409E-06	-1.85810815897788E-06	1.00374317006597	-0.0246231531432878
1	0.00283520102567703	0.00631663023145001	2.38352247147761E-06	2.97078629669511E-06	-9.1283396960627E-06	-2.58760532164275E-07	1.00656255383638	-0.0254954117707577
1.1	0.00454452545609567	0.00391183894531564	6.49244752272973E-07	3.50120603941994E-08	-5.34247453865626E-06	1.42167051624252E-06	1.00686970065961	-0.030671663496562
1.2	0.00355251711249964	0.00302140901633994	-5.34154697218547E-06	-3.30872159591264E-06	-1.12931943040518E-05	-1.27438737326443E-05	1.00547865389328	-0.0322563745095529
1.3	0.00273199038671789	0.00223839280147615	3.08047651410992E-06	3.12095165007909E-06	7.00305776832822E-06	-4.13173707040254E-06	1.00497291225265	-0.0340303122907614
1.4	0.00182360092889943	0.00187923631343511	-2.82100442002806E-06	-1.11311760960723E-06	5.75134007298141E-06	4.66488094588506E-08	1.00334573111059	-0.0364162115380635
1.5	0.00303850653539377	0.00104767298594519	1.24241806453269E-06	-2.55233198713275E-06	8.12673580438779E-07	2.52598325051916E-06	1.00494742260637	-0.0400078497444345
1.6	0.00135695472208602	0.000126732488110753	-9.55233939735035E-07	-6.45903012797818E-06	3.19797144725383E-06	-4.28155801744311E-06	1.00343730132932	-0.0448467972753054
1.7	0.00125007486308426	0.00144968841074063	3.43365854528801E-06	6.2804323633939E-07	2.26355747551763E-06	3.87556884935417E-06	1.00366919319735	-0.0468917233112367
1.8	0.00169319704367062	0.00234191895018616	-2.38651871854396E-06	2.92819589935327E-06	-1.03537306306318E-06	-4.02541559421411E-06	1.00364433506798	-0.0492452738911855
1.9	0.00242248154779891	0.00351250846475736	-3.76598706167792E-06	-1.76607336430374E-06	5.68121163527744E-06	3.03937659637134E-06	1.00422793685649	-0.0492077174825789
2	0.00539229403805882	0.00322617612859682	-6.26728659187147E-06	-5.81096239341158E-06	-2.08632762534429E-06	9.27517253135609E-06	1.01123915466893	-0.0523249923511414
2.1	0.00452439202735325	0.000594727031008397	1.22064653024931E-06	4.65482710315179E-06	4.56811093364358E-06	4.0079691386609E-06	1.00965068950555	-0.0624697779425315
2.2	0.00325364890547698	0.000734990509040652	6.7081301788798E-07	9.10983645853155E-07	-3.75893822960061E-06	-1.10244635713192E-05	1.00639992988521	-0.065733434487327
2.3	0.00247924818206106	0.00112583934642139	-2.27704215518481E-06	3.61601820778805E-06	-5.65011823514807E-07	-2.81962823299408E-06	1.00458804478394	-0.0675566280624867
2.4	0.00166541482197061	0.00232129562857482	-1.58666930837479E-06	-1.45528946604131E-06	1.28748215101649E-06	-1.02138374844956E-06	1.00362341315196	-0.0703048241827955
2.5	0.00355279286133874	0.00395564958926564	7.90369206834506E-06	4.00374203951904E-06	-2.4528359264879E-06	-7.26387611707254E-06	1.00383830145975	-0.0725149094876513
2.6	0.00420442125704682	0.00198852145772783	5.13242006357809E-07	2.1273826131699E-06	-1.42701630270246E-06	4.73572027187216E-06	1.00336920877703	-0.0763743264840289
2.7	0.00350802456215582	0.00162273458985681	-7.8705496876864E-06	5.36728563276116E-06	2.65900990257523E-06	9.76879351869919E-06	1.00301024266919	-0.0800859463527944
2.8	0.00299301786976687	0.00179807101575571	-7.71068781462417E-06	8.11216228815196E-06	6.3028546090671E-06	2.00050825805173E-05	1.00258554744231	-0.0833289673389322
2.9	0.00297830736556054	0.00279460871303813	-1.18706486126638E-06	8.82743284731165E-07	-8.22097270170123E-06	-2.87322006750432E-06	1.00125218498342	-0.0860519408145897
3	0.0051683135903248	0.00276848465067104	-6.77668892097246E-07	-4.48686435248654E-06	-2.10328733188141E-06	6.50393736054757E-06	1.00063072400465	-0.0889579993133035
3.1	0.00446366722624058	0.00104143324141859	-2.60103786422971E-06	1.25256269860961E-07	1.10263186500372E-05	-3.69731279295984E-06	0.999421533023177	-0.092191295522588
3.2	0.00390772572425219	0.00134392601936146	-9.80831492330037E-06	2.70717582147592E-06	1.22855469323203E-05	4.10112958175152E-06	0.997829708596897	-0.0946903559142199
3.3	0.00370930566150373	0.00152411978023406	-3.46505484409093E-06	9.93362210956688E-07	-5.03015678524859E-06	-6.20023366754403E-08	0.995744394754723	-0.0986401341122676
3.4	0.00357877144639768	0.00235016509022491	5.35977449627534E-06	3.93907694450724E-07	1.35771180967238E-06	4.23613786987752E-07	0.99268413898533	-0.100331469570643
3.5	0.00566051485107026	0.00230418496755668	2.78517094450218E-06	1.51454879199677E-06	1.32108473443198E-06	7.71605251473619E-07	0.992071206067467	-0.0995569239591074
3.6	0.00466734867741529	0.000163746944584438	-7.14876381324768E-06	-3.49879479745427E-08	1.81646268114697E-06	-3.52237144936793E-06	0.993163134988335	-0.10363206078643
3.7	0.00331877805988874	0.000618014148320851	5.74980176365167E-06	-1.59807827094553E-06	-3.50873465751216E-07	-1.72635105833301E-06	0.990879451048878	-0.107127024429605
3.8	0.00283580854204189	0.00158222859938364	-1.984481041106E-06	9.0518072402734E-07	-5.17731990219275E-06	3.76554958005775E-07	0.988360952294631	-0.108098868062808
3.9	0.00320130701171063	0.00316916618374865	-8.31569342677903E-06	1.88738439955964E-06	-4.12483371271907E-06	-1.43953542973558E-06	0.987609376984575	-0.107588200654291
4	0.0063537092494453	0.00326105035750477	-5.82340348898359E-06	4.45738389942282E-07	-9.61603494004871E-06	-8.32808267027083E-06	0.993959870483802	-0.10864430250019
4.1	0.00608451547184858	0.000490279315580297	-3.9099330539336E-06	4.12948685968306E-06	-1.78008945657971E-06	5.60601202044058E-06	0.99148783850698	-0.11701816054991
4.2	0.00501760391199368	0.000119875378197694	4.52554301054851E-06	-4.44697040415592E-06	6.73927744022181E-06	6.34890632160002E-07	0.987368047724111	-0.119494045516809
4.3	0.00437319304635366	0.000270931966215762	-3.75743546317007E-06	1.18494651295803E-06	3.5103365044783E-06	-1.25962881785107E-06	0.985518592256837	-0.120634871045003
4.4	0.00396015703992505	0.00124128551248821	-3.21640849685508E-06	-4.8538222748316E-06	9.07057469840593E-07	-1.04662953289973E-06	0.984400985034783	-0.12207759762492
4.5	0.0062577751869063	0.00162414754576628	-1.33938763521637E-06	2.04004813995028E-06	1.95845238115246E-06	-8.44259725001864E-06	0.983729840993335	-0.125668259761355
4.6	0.00559690656502194	-0.00100451538431814	5.48445585074328E-06	9.38722506623252E-06	-1.38632382147693E-05	9.92287243889715E-06	0.979830816191569	-0.127750485945395
4.7	0.00420805165833184	-0.00113461562543471	-7.62915848331505E-06	-9.33423269763346E-06	-1.13244744001468E-06	-1.17173369148716E-07	0.978515525111436	-0.128014770595145
4.8	0.00332556262834704	-0.000802965403271341	-8.6661445156526E-06	-2.54047184124172E-06	-4.2646871452516E-06	4.54163339245431E-06	0.977253444851883	-0.129488159396848
4.9	0.00284155451522408	0.000345353639547625	5.80326626530862E-06	8.1300737638739E-06	-7.1163692458831E-06	3.3302019496436E-06	0.975614867395257	-0.130310144409947
5	0.00502093177932477	0.000396297074174896	4.10586726591229E-06	-8.45361045197566E-06	-4.29619941460628E-06	-6.02651309044199E-06	0.974467646466552	-0.13047778919842
5.1	0.00368057017196989	-0.00145721287211586	1.48846899827161E-05	-1.02149663974757E-05	3.35596343938584E-06	-8.61524990636794E-06	0.973571058748021	-0.130641600531484
5.2	0.00277859592756135	-0.000616237936617869	-4.20591396870746E-06	-4.6075073782919E-06	-3.110107682046E-06	5.41992257360988E-07	0.972514765433211	-0.131432861197728
5.3	0.00289629121976616	0.000170447891731214	4.72762915396299E-06	3.27985537869968E-06	-9.18455436785492E-06	-4.59188028626664E-06	0.971582262739773	-0.132485837344732
5.4	0.00353259894269035	0.00130027470143341	5.09357947000814E-06	1.13339846284799E-06	-3.76709594712169E-07	1.02646844194535E-05	0.969884583643196	-0.133590674433216
5.5	0.00684144469496616	0.000220402106312323	-1.77954566959379E-06	-1.93000537420396E-06	8.68646451068928E-06	4.63953446488136E-07	0.970605021889498	-0.132012655533012
5.6	0.00454500258332917	-0.0029795937000142	4.1706444828335E-06	7.08764269019855E-06	-4.63366382339629E-07	-8.44840192827733E-06	0.972042719767551	-0.135429680840295
5.7	0.00234303941035663	-0.00222819463318851	2.01691266231298E-06	-7.09928807184316E-07	5.37167325084911E-06	2.40522320207898E-06	0.970263658322514	-0.137242635615503
5.8	0.00117803207651422	-0.00105437259271551	3.83708649270177E-06	1.92666450164682E-06	2.67514527982888E-06	7.68832437336146E-06	0.96891225335572	-0.136872304882388
5.9	0.000347664060306386	0.00136824313124804	-3.70369926059324E-06	-3.01883172263477E-06	-4.60915006214258E-06	-1.76766971665663E-06	0.969491726368424	-0.133446829864893
6	0.00401454576255125	0.00370076997542245	-2.05837284419627E-06	1.67909616760026E-06	1.03221002225962E-05	-2.60081106726844E-06	0.979416845542755	-0.134556669715404
6.1	0.00496647663584608	0.000410489516400601	-7.22552282748817E-06	-1.07681590355932E-06	-7.19051946085043E-07	-2.44723428495928E-06	0.977629474894975	-0.143232752059832
6.2	0.00381637651713512	-0.0004956633938453	-1.04362545368217E-06	1.95621742545602E-06	-3.42643113221709E-06	-5.27282272433567E-06	0.97464947103653	-0.144029217693643
6.3	0.00277397702471461	-0.000808998971987416	1.54598849205668E-06	2.78553812015804E-06	1.11732692202652E-06	5.87366643454034E-06	0.973722151057697	-0.144559848562413
6.4	0.00214813381635966	0.000192228874531345	2.02478140275854E-06	4.96605939960446E-06	-3.28857993936789E-07	2.22970045302195E-07	0.974839679395216	-0.145151504575341
6.5	0.00439643812274719	-0.00111854165957136	4.58831381497433E-06	-1.85214743423201E-06	-4.61344727561288E-06	-1.51766860223193E-06	0.975120649234664	-0.152780978972149
6.6	0.0012964399983056	-0.00287423931731192	3.22593313678662E-07	-1.04505314988705E-06	9.08688402302789E-06	3.29861879053673E-06	0.967947270277474	-0.152582127271701
6.7	-2.44099482725819E-05	-0.00146888384634482	4.76064855674033E-07	5.50249556829277E-06	-1.79117107648539E-06	4.859301023925E-06	0.967766585396691	-0.150192022014729
6.8	-0.000698162399526364	-0.000418708589353912	1.87929257360283E-07	-1.55499941494351E-06	-3.36186780192141E-06	-5.0574900200531E-06	0.968189990587336	-0.149844002585346
6.9	-0.000947464604951518	0.00192195282625905	-6.60105914456106E-06	6.52871243153152E-06	2.23274807448462E-06	1.35522042945348E-06	0.96888540295936	-0.14874846031879
7	0.00329326282327044	0.00204623544548325	7.90464453024969E-06	3.20340569073485E-06	4.42225250678596E-06	5.81506243118987E-06	0.973364080208507	-0.149815248701575
7.1	0.000963114258154173	-0.00147383623847249	1.36253353495888E-06	7.88665893228413E-07	-2.17688721670162E-06	-4.43113127830456E-06	0.971847603823472	-0.154493401552689
7.2	-0.00142831235209613	-0.000355314773585686	-1.9412528700467E-07	4.32532287952225E-06	-4.92178316511988E-06	-7.16668933114582E-07	0.969547158015594	-0.155414004592429
7.3	-0.00288380927719837	0.00116207629600548	1.40282477690211E-06	-5.15960176614979E-06	-2.2714116095557E-06	-2.77658097539989E-06	0.966750933290233	-0.156191109954996
7.4	-0.00428200027784588	0.00422851209702186	1.73687866905745E-06	4.36293075215253E-06	-6.98298528441016E-07	-1.05929490755555E-06	0.961189818745841	-0.154341835694535
7.5	-0.000440701997106977	0.00750254773421396	-5.59248406066738E-06	-1.59403677583205E-06	-1.34135615431248E-06	-8.75956197165421E-06	0.964939122221758	-0.144739175056529
7.6	0.000131853547409015	0.00494302387575303	5.63352538328115E-06	-3.20595064784202E-06	9.31697443322395E-07	3.17385554500841E-06	0.972190373627079	-0.150267838041632
7.7	-0.000658326986846865	0.00538134211908792	-6.36196455544211E-06	-2.98330517945727E-06	4.19316818988335E-06	5.70931223396155E-06	0.97250604236546	-0.153992684292225
7.8	-0.00055601298124765	0.00603572606978748	-9.39951060451099E-07	-5.32650802725395E-06	-2.39253731015657E-07	1.12620970531035E-06	0.973456685353143	-0.155503400367445
7.9	0.000528431006267546	0.0073429669570877	-3.5216452555892E-06	7.05302269745804E-06	6.61402862515257E-07	-6.80723335045627E-06	0.977183467982224	-0.154046028520568
8	0.00445660835351831	0.00497484513437187	-4.49127243785199E-07	7.38795568867018E-06	1.9045170512916E-06	-4.41178776814777E-06	0.990744684966228	-0.160244295672306
8.1	0.0016306722695663	0.0020501639480327	-5.9735566525552E-07	-6.50384959232419E-06	-1.73030031569779E-06	-1.10558012485323E-06	0.987951949905488	-0.173795151540938
8.2	0.000102757633551742	0.00307055378045071	-3.87058495718613E-06	1.57513922456853E-06	-1.09395359374535E-05	-2.85241109778937E-06	0.9846512664292	-0.176533080386546
8.3	-0.00057506190716031	0.00413861379257962	-5.3583074312E-06	-1.00095265566812E-05	-7.8764457732747E-06	2.86610726612824E-06	0.984040123889481	-0.178689977745918
8.4	-0.000742514124442653	0.00665153705280876	6.92772553479381E-07	-6.00395778816271E-07	-1.43279875404834E-06	4.1550701530464E-07	0.98477330630432	-0.181149431245015
8.5	0.00386113762971212	0.00723313571290089	-1.75390322926016E-06	-2.85833305128694E-07	-3.66476320367931E-08	1.80920650947273E-06	0.985277300120651	-0.186490560676126
8.6	0.00243350713920454	0.00370578542116135	2.51201462071765E-06	-3.93200463664183E-06	-4.45481155378986E-06	-6.02629392928045E-06	0.983027649263376	-0.188886474410965
8.7	0.000621063145494783	0.0047455825823096	-1.46182183750583E-06	-2.13705794927807E-06	-3.65374416849554E-06	3.58071046298509E-06	0.983538442124006	-0.190381672749981
8.8	4.02523166136266E-05	0.00632850533348623	-5.49708524869106E-06	-2.25304381283167E-06	-7.26530036167267E-06	-1.43103883091982E-06	0.984539822226977	-0.192416906614835
8.9	0.000226799161674099	0.0090715489702169	8.5720451325946E-06	4.29979467190853E-06	-1.49228338729778E-06	3.20787879808463E-06	0.985942579948571	-0.194428218331284
9	0.00518414831432447	0.0104827549181001	-5.7328851120607E-07	4.18914809780134E-06	-7.90673953005143E-06	1.11075613109441E-06	0.987781822106517	-0.196496878229492
9.1	0.00581999036622686	0.00761791038723233	-2.70727280971973E-06	6.65956981270799E-06	4.20640838133703E-06	-3.03855806444768E-06	0.990082175521514	-0.199891763665437
9.2	0.006364710395172	0.00732764585260204	-1.24944774152663E-06	3.44934168655871E-06	-2.24054826166068E-06	-2.12239309442244E-06	0.991349896041804	-0.204600108822688
9.3	0.00716148737421083	0.0065075144532646	2.41520884961738E-06	-4.06065554968362E-06	-7.77595656826392E-07	-1.8161180109239E-06	0.990970773557179	-0.209702373242575
9.4	0.00775872344186996	0.00669345897566488	-1.87072326184081E-06	3.91566428479948E-06	-2.04397717456116E-06	-3.64674448013996E-06	0.988095343277987	-0.212854289829964
9.5	0.0110101705197567	0.0041930263370616	3.40954107644934E-06	6.41817982787196E-06	4.10208475414015E-07	-2.16282450895574E-06	0.989903196120733	-0.212209658425839
9.6	0.00774372840528212	0.000987845134568407	4.554598884439E-06	7.27788908935357E-06	-8.60853532746414E-06	1.28407791385322E-05	0.991939870754164	-0.219234501198256
9.7	0.00580616777492813	0.00189157454083637	-2.90599836455836E-06	-1.61107137661987E-06	-1.34171412477055E-06	-4.06511387951854E-06	0.990348893068214	-0.223387282340564
9.8	0.0049323279756249	0.0029915646584699	1.93654264715367E-07	-3.66033333303279E-06	3.06084133749558E-06	2.49638833681251E-06	0.989323238109416	-0.224827284187348
9.9	0.00467071058609564	0.0054297827908493	5.93375058433613E-06	-5.14198202694167E-07	-2.75343666997771E-06	6.81907418107672E-06	0.991301737366125	-0.222249177715627
10	0.00916646481723159	0.00586811122936556	-1.1674221228199E-06	-6.14064342225451E-07	1.4240337369467E-06	-1.20172688544427E-06	1.00364965531457	-0.229527029044874
10.1	0.00815191880103151	0.00258858258780769	7.97347522488544E-07	-8.64586551396876E-06	6.29822140189026E-06	3.75406663802081E-06	0.997152599720242	-0.241620841287515
10.2	0.00694389315140447	0.00305128022048127	7.62991447537435E-06	8.58661916173863E-06	5.33488073334021E-06	3.65819892163781E-06	0.992806857772145	-0.242694188353645
10.3	0.00662079761575885	0.0039694813162024	1.84832698219399E-06	-7.12831770872308E-06	1.44480839385811E-06	2.95267049846867E-06	0.991672781166438	-0.243774876829611
10.4	0.00733339904638646	0.00615157934587297	-4.12704558121237E-06	-3.76059830895887E-06	2.03340313181308E-06	-5.74867163871006E-06	0.992837320979956	-0.245820617766703
10.5	0.0123458022939337	0.0057220422300594	3.68753317914626E-07	-7.25210036489572E-06	-5.87085958724656E-06	4.19147757570162E-06	0.993122441179711	-0.253601029692432
10.6	0.0122360956416115	0.00233704408485142	5.61510827104248E-06	6.88962040901593E-06	2.48966404720006E-06	1.22125718019989E-06	0.989538746938523	-0.256249095705537
10.7	0.0122702846636888	0.00131148300137797	-7.25110999540942E-06	-1.73169494577182E-06	-7.92242087411178E-07	1.59792177234101E-06	0.990098666425081	-0.260308883502806
10.8	0.0118634259391963	0.00012627802952317	1.53431633304631E-06	4.55451996040689E-06	9.64826407434545E-06	-4.60425972810189E-06	0.989058446562359	-0.265499014298106
10.9	0.011537223740947	0.00065351259111605	3.74528846996716E-07	7.61434684651714E-06	-5.29795605504045E-06	2.41583207973131E-07	0.987785568735543	-0.269576672600911
11	0.0153852600055288	-0.000791937298355477	-2.30733864025771E-06	-3.89612337477651E-06	1.22917212579957E-05	-3.73409016352773E-06	0.987202161954553	-0.274032066272424
11.1	0.0131085789750948	-0.00481070981292664	-6.29686581804711E-06	-5.00297424898212E-06	1.01423113223014E-06	5.70068454824879E-06	0.983390232887575	-0.27936731773231
11.2	0.011350130028253	-0.00504808010215647	3.43473842013281E-06	4.37477962388561E-06	1.01270349279704E-06	-8.07453963994332E-06	0.979274540190115	-0.28262528849016
11.3	0.0104724793676008	-0.00479373114444584	6.96178459300397E-07	-2.72558738352351E-06	-4.83701919460403E-06	9.37696816470696E-06	0.974095098168755	-0.284595220185036
11.4	0.0101097488939353	-0.00356472466983804	1.47209906387613E-06	-2.26286771402273E-06	-3.16963256057927E-06	-7.52769185292085E-06	0.967547671055719	-0.28455697096034
11.5	0.0139381900262066	-0.00525444921145446	9.55574133571321E-07	-1.03376986480209E-06	-9.23462852385198E-07	-8.78673814221806E-07	0.971521610844748	-0.280800697474926
11.6	0.0111979948300237	-0.00957283444323223	1.14384082382064E-05	-3.45840844175463E-06	-5.60861398876673E-06	-6.92721198331366E-06	0.972336851001948	-0.290653745089044
11.7	0.00879281775463749	-0.00970001370252889	5.39997666139799E-06	-3.0296448361141E-06	-4.48075794722266E-06	1.7460103900928E-06	0.967408538510187	-0.295492645517705
11.8	0.00739777375281237	-0.00915402933563841	-4.95877686385867E-07	-2.58943808246742E-06	1.27300715140915E-06	1.34979670449242E-05	0.963720912909145	-0.296759666710029
11.9	0.00792736626692004	-0.00713603165949706	3.41128487483781E-06	1.98911417983917E-06	1.32080626370046E-07	1.29787467361697E-05	0.966266755773976	-0.29286166553337
12	0.0126986439876675	-0.00957566546164925	2.06575196624286E-06	4.66592786447014E-07	-3.81466221853554E-06	-9.4020040080022E-07	0.980007194681806	-0.302920051729236
