# GHZ S RI R 50
0.2	0.000586902169296533	0.00381762711689584	6.30365831473096E-06	-1.0090937946643E-06	1.06689397428935E-05	1.04900145164882E-05	0.999247546254523	-0.00724137238957776
0.3	0.00118905831997235	0.00339496854792122	5.81676198737957E-06	5.03433545343027E-06	8.09516874069862E-06	2.95049187739898E-06	0.998972936222417	-0.0101656980140743
0.4	0.00165231509011121	0.00319142623697869	-2.70597264751402E-06	7.86834880351751E-06	-4.8212755795902E-07	-4.42951878082618E-06	0.998911206343245	-0.0128057664608184
0.5	0.0018076340345572	0.00312637473901682	2.30760530571021E-06	1.47840332411966E-06	7.5091089178943E-06	-1.05344860045091E-06	0.998606661013637	-0.0157464626049119
0.6	0.00221200659264188	0.00338544881940618	3.22856044409241E-07	3.53924868628092E-06	2.7180732764593E-07	-7.66000448312386E-06	0.999008540721971	-0.0186725328650879
0.7	0.00259573420316649	0.00341548133089655	4.16597184489735E-06	5.02728035927902E-07	-3.89461466920243E-06	-2.26537220313107E-09	0.998674798305944	-0.0219276480468656
0.8	0.0029815563567782	0.00343101988172051	-2.88598526044609E-06	2.9647107132947E-06	-6.81947894299332E-06	1.32244169175205E-06	0.998298636541316	-0.0243027426862936
0.9	0.00331586386836597	0.00335260287394557	6.03485352161409E-06	8.95882468224869E-07	-7.3396266678514E-06	-1.8282311484113E-06	0.997902192886381	-0.0268442812798018
1	0.00337031743927159	0.0030512676132787	2.35963048810916E-06	2.94140191132908E-06	-9.03755910641016E-06	-2.56778916685056E-07	0.997113502833731	-0.028392154364108
1.1	0.00321192378270817	0.00321232328190791	6.43458587800019E-07	3.55300381331746E-08	-5.29704110180773E-06	1.40228796334607E-06	0.996740610070237	-0.0297930419068007
1.2	0.00327614381783315	0.00300500180177197	-5.28985143275927E-06	-3.28705350701362E-06	-1.11758458858708E-05	-1.26474166326283E-05	0.996429468017658	-0.0305380240875442
1.3	0.00299024403662048	0.00239294419118697	3.04744795084111E-06	3.10144066159663E-06	6.95306306393069E-06	-4.08114106074103E-06	0.996862435636896	-0.0313229871628008
1.4	0.00258333320873083	0.00167696924819811	-2.79712742119521E-06	-1.11325487751098E-06	5.70917754940989E-06	6.3170403485879E-08	0.996938026301248	-0.0334345996338371
1.5	0.00225332827294967	0.00146284600393022	1.24028584811743E-06	-2.53208778798832E-06	8.01016863297108E-07	2.51094336237095E-06	0.997544224263958	-0.0368859321703906
1.6	0.00254290681973459	0.00170399299567442	-9.31834185719582E-07	-6.41312140061524E-06	3.1848259885262E-06	-4.24148456547035E-06	0.997277988988526	-0.0404891537445838
1.7	0.00292515378106075	0.00171266018999661	3.40396391027561E-06	6.33391975146339E-07	2.23346613064744E-06	3.85108250127157E-06	0.997392272175842	-0.0432530342955798
1.8	0.00318410853746885	0.00177821389364083	-2.37674895092193E-06	2.89615197206437E-06	-1.01337068806125E-06	-3.99584230005045E-06	0.997090701616536	-0.0460797703476937
1.9	0.00337142088274089	0.0016435759499039	-3.7302216792401E-06	-1.75927563605498E-06	5.62644296296634E-06	3.02594099355323E-06	0.996798005463902	-0.0485035775711487
2	0.00320590621633317	0.00164922934824765	-6.17097191749412E-06	-5.74563556181137E-06	-2.077323867095E-06	9.14603170775732E-06	0.99562092608377	-0.0511263966431081
2.1	0.00334230464121777	0.00191641630997712	1.16857079459584E-06	4.60190274297818E-06	4.47620199426616E-06	3.98940351014971E-06	0.995502342619296	-0.0526266685180422
2.2	0.00352169363777933	0.00192352193315554	6.55152870922728E-07	9.06555110917502E-07	-3.61894207155297E-06	-1.09324005119744E-05	0.995860854716056	-0.0549829874689473
2.3	0.0035915536385502	0.00179571445671239	-2.28624181934142E-06	3.55621030944703E-06	-5.32803149330694E-07	-2.79471198390225E-06	0.995613466561119	-0.0569037957006541
2.4	0.00354293502682891	0.00157337557417879	-1.55472320672787E-06	-1.45607925632529E-06	1.2842429259119E-06	-9.97207267763595E-07	0.995524067058871	-0.0599774952325222
2.5	0.00303755460689947	0.00132291500021966	7.78191389063973E-06	4.06532992149683E-06	-2.34030472188071E-06	-7.22807377155835E-06	0.995136849888772	-0.0620436122695175
2.6	0.0026439808585992	0.0017238808010174	4.85317299750726E-07	2.11737668698355E-06	-1.47006847484933E-06	4.68432826460741E-06	0.995259892616831	-0.0647552079837497
2.7	0.00264470379608025	0.00209811250423033	-7.86784247711606E-06	5.2354122430436E-06	2.52748904712019E-06	9.7202958218919E-06	0.995031996639564	-0.0677052288053979
2.8	0.00290260991563892	0.00245269886642282	-7.74679072866374E-06	7.94895337102329E-06	6.0024866447309E-06	1.99161527939886E-05	0.995195822700443	-0.0696023847936212
2.9	0.00334707611544231	0.00252009284275914	-1.19021890243145E-06	8.59024167973875E-07	-8.11575755127661E-06	-2.96687838599817E-06	0.995034101388663	-0.071544474917817
3	0.00359518660779095	0.00256063071048547	-6.07283867091269E-07	-4.47259278629375E-06	-2.18857083272461E-06	6.43737522346216E-06	0.995040781705126	-0.0739131779001098
3.1	0.00415338987615842	0.00266992194822019	-2.58820011890935E-06	8.75997416890922E-08	1.10168804851303E-05	-3.51988521446161E-06	0.994873381435652	-0.0758492195277534
3.2	0.00461638325923465	0.00244207515812326	-9.79879469823428E-06	2.54009012372089E-06	1.21568940450371E-05	4.27092526349166E-06	0.994818865784953	-0.0776429997988012
3.3	0.0049156406550964	0.00203516333671867	-3.46825406834721E-06	9.30426155040423E-07	-5.00918968020296E-06	-1.47411852997051E-07	0.994748183126894	-0.0808900192980622
3.4	0.0049887262137189	0.00155945804791216	5.34646364367635E-06	4.92007936246239E-07	1.34838592727042E-06	4.48097416488416E-07	0.994881311138136	-0.08287716819419
3.5	0.00464647233080637	0.00117657725459985	2.7683941099678E-06	1.56057886276555E-06	1.31231376290621E-06	7.93560311265265E-07	0.99486265934301	-0.0858967630635643
3.6	0.00451332066983274	0.00127779951713259	-7.14837688843356E-06	-1.37100406316953E-07	1.86680439577664E-06	-3.49648095756173E-06	0.994516358165915	-0.0884480319475705
3.7	0.00452602521217704	0.00117583159596227	5.77823169630193E-06	-1.50867336297374E-06	-3.2395551227595E-07	-1.73286134501475E-06	0.994357331562152	-0.0911681274279665
3.8	0.00455788044544081	0.00104767963479096	-2.00320223777013E-06	8.75596247756468E-07	-5.1945958623552E-06	2.95044174558163E-07	0.993974851951117	-0.0932489753829314
3.9	0.00457159210318468	0.000805159279438414	-8.36954811592316E-06	1.77633579597814E-06	-4.11805469952687E-06	-1.50240308567865E-06	0.993759227322758	-0.0964766388422749
4	0.00424090476123508	0.000662647616533195	-5.82591265443115E-06	3.64645280290262E-07	-9.49439495191613E-06	-8.45626734810672E-06	0.992777311150328	-0.0974901544994679
4.1	0.00428359415882888	0.000940174421763428	-3.99161672296932E-06	4.06237018526304E-06	-1.88637402155448E-06	5.58031982391501E-06	0.99316214613702	-0.0984746706721037
4.2	0.00451492078250667	0.000875292373200845	4.62672956505908E-06	-4.38236442562737E-06	6.7561336681591E-06	7.61858634549816E-07	0.993232993317603	-0.101160266864535
4.3	0.00466703392619304	0.000669588529174393	-3.7993221725016E-06	1.12403684902906E-06	3.5522066616505E-06	-1.20356249033121E-06	0.993371227320439	-0.103323848819951
4.4	0.00464206623175659	0.000298036898288051	-3.1455140576458E-06	-4.94149596481253E-06	9.31669467571984E-07	-1.03597695989503E-06	0.993070581696261	-0.105653794652158
4.5	0.00410302005957358	5.80466526793348E-05	-1.39533944791676E-06	2.03025712216245E-06	2.15692280765562E-06	-8.47866907271333E-06	0.993327554427998	-0.107542534546104
4.6	0.00379750077346133	0.000351575423310004	5.39084208163714E-06	9.61554035772557E-06	-1.42332905028163E-05	9.80976319741147E-06	0.993774155010695	-0.110595238401977
4.7	0.00374968721799318	0.0004719903585941	-7.59227383326408E-06	-9.58593789135195E-06	-1.14673636790522E-06	-1.36486747612283E-07	0.993927167997262	-0.113051266719482
4.8	0.00373522435413463	0.000569546513708945	-8.75449380105846E-06	-2.70266635681882E-06	-4.39204586522859E-06	4.54545198094523E-06	0.993603524383861	-0.115910099479274
4.9	0.00385030733083995	0.000524535846041637	5.77237520547785E-06	8.33748221698216E-06	-7.27240836902552E-06	3.27673912199064E-06	0.993232246469403	-0.117959273454496
5	0.00375740963347944	0.000443187095849855	4.29866604914121E-06	-8.5555274137102E-06	-4.29395660560141E-06	-6.19824026054836E-06	0.993174788785412	-0.119628448281484
5.1	0.00417729076224136	0.000603371721002795	1.52644569710367E-05	-1.0253472638953E-05	3.50562206027663E-06	-8.74103386754105E-06	0.993387074341509	-0.12119657062388
5.2	0.00466238421112597	0.000217524934959526	-4.23755467027844E-06	-4.73097432968975E-06	-3.1714041438879E-06	5.21919902263314E-07	0.993148397971828	-0.123705948678124
5.3	0.00488479261948756	-0.000362676765697647	4.78360508841569E-06	3.38697196262832E-06	-9.31065696631459E-06	-4.76686325693626E-06	0.992881748007977	-0.1260869483191
5.4	0.00475699907298002	-0.0010326667916956	5.19010325220047E-06	1.20989832628612E-06	-4.9036115391917E-07	1.04788325328876E-05	0.993026397122594	-0.128877619077085
5.5	0.00396680707436904	-0.00126447856807612	-1.81502125942741E-06	-1.988273953579E-06	8.9054098608921E-06	5.20170754431034E-07	0.992980409938046	-0.13197242263352
5.6	0.00378519157247691	-0.000896573511258028	4.25024935540018E-06	7.25033317943727E-06	-4.59261316245221E-07	-8.63470754703462E-06	0.992775234516222	-0.134645898032017
5.7	0.00370375324687238	-0.000876651031078493	2.06122522842076E-06	-7.2228452574873E-07	5.48354783687272E-06	2.46453847310686E-06	0.992636886230428	-0.137426793200694
5.8	0.00353833633908393	-0.000907277234362144	3.92150304527278E-06	1.96782780957949E-06	2.73561493417327E-06	7.85580429241726E-06	0.992434666743804	-0.139971269568816
5.9	0.00331606668778616	-0.00105052275369135	-3.79177432842896E-06	-3.06528893035206E-06	-4.7105827037516E-06	-1.78484384209654E-06	0.991729375938132	-0.142622368885622
6	0.00241286306299947	-0.00125009276296508	-2.08121699517713E-06	1.70620279928413E-06	1.04510377684832E-05	-2.66042715948373E-06	0.990295212617095	-0.143734169887316
6.1	0.00180122638811142	-0.000565538703977355	-7.34230389229333E-06	-1.11438559788093E-06	-7.24284412045893E-07	-2.48974619670864E-06	0.991020477006048	-0.143943750537376
6.2	0.00162726012359102	-0.00021563906704207	-1.06584190579896E-06	1.99307206630854E-06	-3.48748203417986E-06	-5.37850466880411E-06	0.99147828628529	-0.145556604785964
6.3	0.00157928452614586	-0.000106658713435314	1.58006420249919E-06	2.83817777758112E-06	1.14710411976947E-06	5.98752209934036E-06	0.991463077419988	-0.148019077583074
6.4	0.00141090804953613	-0.000366478020458872	2.07224071124559E-06	5.04860255372217E-06	-3.34112229339903E-07	2.27676663720892E-07	0.99092512470298	-0.150639515493536
6.5	0.000774694019734491	-0.00029388566744803	4.68173850319203E-06	-1.87889488525989E-06	-4.70043818878218E-06	-1.55679185387564E-06	0.990812048132081	-0.152998871387018
6.6	0.000865658972026617	0.000137973051228345	3.27454874621034E-07	-1.07232409651603E-06	9.32554252534578E-06	3.35329855554351E-06	0.991359678475961	-0.156427678392894
6.7	0.000933892393465002	0.000207442502502698	5.30300108115072E-07	5.63136238889544E-06	-1.79655732487101E-06	4.99029305777666E-06	0.990884871846686	-0.159707375641971
6.8	0.000882697051810817	0.000311003392591789	1.76149200069566E-07	-1.59197788347033E-06	-3.48971759228783E-06	-5.13683958300908E-06	0.990056208460087	-0.162536879588762
6.9	0.000701183031313816	0.000278802944963383	-6.66339201778646E-06	6.7447042026159E-06	2.29595048729007E-06	1.35747006094793E-06	0.989249237216817	-0.165075494227554
7	-9.76841417285068E-05	0.000646521494325678	8.10766405395865E-06	3.16836622142164E-06	4.58711438572507E-06	5.87799990204991E-06	0.98798129644435	-0.166749268772882
7.1	-0.000129298974016325	0.00170611943959833	1.40060647513172E-06	7.84866754816066E-07	-2.28275617696395E-06	-4.48760009857997E-06	0.987748803933656	-0.168197197648838
7.2	0.000137644226117739	0.00224366149445493	-1.33281922826407E-07	4.41024561826261E-06	-5.0258126300277E-06	-6.56837306473044E-07	0.987219899019604	-0.170319358390883
7.3	0.000316688688957318	0.0026025220541729	1.35203416448325E-06	-5.27985132757797E-06	-2.35687834221822E-06	-2.7956951268198E-06	0.986192838841226	-0.172456420211162
7.4	0.000386069503187375	0.00260795054380504	1.84716334439493E-06	4.43382585980005E-06	-7.31357263686882E-07	-1.07201713826148E-06	0.985315214219112	-0.175341879410515
7.5	-0.000361124982886467	0.00250950847305266	-5.76413636339396E-06	-1.48354568378372E-06	-1.60338250376671E-06	-8.92723548179988E-06	0.9834635218405	-0.178807154678139
7.6	-0.00068111894529819	0.00337594250670561	5.63130901413643E-06	-3.40982176144966E-06	1.03321164827709E-06	3.19665989774966E-06	0.981873351027544	-0.181018810516544
7.7	-0.000704222190937355	0.00378739954109698	-6.52883167092415E-06	-2.85299661025905E-06	4.403735396011E-06	5.67443377488672E-06	0.98145877006361	-0.183924484845022
7.8	-0.000558213975147882	0.00391690000977855	-1.10249532031682E-06	-5.36713493193572E-06	-2.10413402422197E-07	1.14719009843042E-06	0.981196770870943	-0.187226949827484
7.9	-0.00051250983687989	0.00383334340741642	-3.32864184439438E-06	7.23943757327125E-06	4.47149930261031E-07	-6.89827229549926E-06	0.980665789838789	-0.190870054483359
8	-0.000861412869790334	0.0043109648275796	-2.04017079579684E-07	7.39431415628818E-06	1.75626219076278E-06	-4.46975825656221E-06	0.978984062176659	-0.193480053845921
8.1	-0.000201377876732858	0.00508298932737119	-7.60973072223207E-07	-6.47033089690889E-06	-1.75352144464859E-06	-1.05848592669063E-06	0.978881282455973	-0.195318582494754
8.2	0.000471783500132376	0.00528617210930875	-3.82487861623749E-06	1.66626938941124E-06	-1.09880085607048E-05	-2.58089041839038E-06	0.978797143372716	-0.197933453405254
8.3	0.000999926173139251	0.00535172836303151	-5.58427944969406E-06	-9.84742317376058E-06	-7.78168080517827E-06	3.048236809277E-06	0.978058424925487	-0.200833347953578
8.4	0.00132916764076686	0.00526313433926349	6.75352853176476E-07	-6.12493395037354E-07	-1.41529308656834E-06	4.45250934179184E-07	0.977032401677931	-0.203583000213069
8.5	0.000925888553871082	0.00549756862995479	-1.75453423560524E-06	-2.5208952408966E-07	-2.53798304774566E-09	1.80500364199848E-06	0.976088291151222	-0.206181816852858
8.6	0.00132201646773678	0.00655946501067295	2.41444059038219E-06	-3.98393804960659E-06	-4.58875233702244E-06	-5.90977089258769E-06	0.975550246219112	-0.208895889932741
8.7	0.00217586930633567	0.007085643087294	-1.5071943756159E-06	-2.08883624399519E-06	-3.54428669056993E-06	3.65235990703603E-06	0.974833974277006	-0.21158155227425
8.8	0.00314613792136152	0.00733481514886696	-5.50396854375221E-06	-2.09840751482955E-06	-7.23646564766134E-06	-1.24027172978175E-06	0.974108905569595	-0.213858412313125
8.9	0.00418825933243789	0.00703284954080741	8.56591430941305E-06	4.06092630174777E-06	-1.40426398887774E-06	3.20301729946464E-06	0.973874217868377	-0.21579919982709
9	0.00456374537102595	0.00654007435787354	-4.84248191071018E-07	4.1603096677948E-06	-7.80858561989528E-06	1.25773485558477E-06	0.973584395773654	-0.218141628444974
9.1	0.00535347677782862	0.00642971796039513	-2.52768094478782E-06	6.6387030135235E-06	4.08852367303442E-06	-3.09455052221158E-06	0.97310433349395	-0.220335922264809
9.2	0.00610623194545443	0.00576757815609176	-1.16207567915533E-06	3.42439716060067E-06	-2.2506615062263E-06	-2.04662809134659E-06	0.972520186307054	-0.222922415013169
9.3	0.00652485425233951	0.00502182514029631	2.30747753606451E-06	-4.04363276454058E-06	-7.98370339143442E-07	-1.77551816576044E-06	0.971947584023471	-0.225516886873622
9.4	0.00665544995927999	0.00418454851751099	-1.78386488968898E-06	3.89731033775067E-06	-2.07775250807754E-06	-3.56817467252242E-06	0.971225667675173	-0.228607778037597
9.5	0.00615096309777302	0.0040668848121881	3.51566764543912E-06	6.2748252294704E-06	3.57966672615969E-07	-2.14905172191053E-06	0.969922096949196	-0.231785461393961
9.6	0.00647496499561527	0.00440316269235264	4.64171135830303E-06	7.04782746775537E-06	-8.16635084189195E-06	1.28146332924399E-05	0.968620337676276	-0.234520695841467
9.7	0.00694178186397705	0.00430093026253015	-2.88245893984831E-06	-1.5200264210482E-06	-1.39902976364805E-06	-3.95837385759289E-06	0.967695179318847	-0.236869238313273
9.8	0.00736450193902683	0.00405016792707313	1.1649654924195E-07	-3.58968696403718E-06	3.04845991029541E-06	2.38434100349302E-06	0.967149921964676	-0.238884889576996
9.9	0.00766328268432377	0.00358805423809511	5.7842883576868E-06	-6.35298470269174E-07	-2.536527284711E-06	6.72230272452148E-06	0.966257325885595	-0.240963193702446
10	0.00723321146145543	0.00332231674809686	-1.13969908499999E-06	-5.72996677826694E-07	1.35555096887903E-06	-1.18726201793007E-06	0.964642367166133	-0.242011512707961
10.1	0.00754134240716707	0.00378597555420913	6.89722686208455E-07	-8.39377347337984E-06	6.14528762561896E-06	3.58031029737946E-06	0.964451602607873	-0.242719866205606
10.2	0.00823972021419809	0.00372481350558917	7.49212208361465E-06	8.27633004186614E-06	5.2174818754478E-06	3.50729708266939E-06	0.964120197908736	-0.243997536035208
10.3	0.00894741100071427	0.00332145311081013	1.7347627534123E-06	-6.93765975016644E-06	1.42789626373442E-06	2.8550640827979E-06	0.96340043044268	-0.245585365084418
10.4	0.00950331901931734	0.00246278295987067	-4.01872511539852E-06	-3.61801489314549E-06	1.93587490250985E-06	-5.57917175777558E-06	0.962473690199541	-0.247283318460532
10.5	0.00926190203781612	0.00184082717355027	3.6480053520897E-07	-7.0426591522585E-06	-5.70544424128648E-06	4.06521631008187E-06	0.962060549918908	-0.249091012829661
10.6	0.00962723136357461	0.00175314919764977	5.48296659677798E-06	6.70634385739484E-06	2.42831888786351E-06	1.18652389661282E-06	0.961756793991095	-0.25182765995313
10.7	0.0100885567187879	0.00137234943821668	-7.05608342245514E-06	-1.67283254722596E-06	-7.68069085085052E-07	1.55560215446373E-06	0.960921973130981	-0.254678256391712
10.8	0.0105406386079104	0.000863530192081867	1.48778229576744E-06	4.42408285992783E-06	9.37263920985194E-06	-4.46667261757873E-06	0.959873560332636	-0.256763501332527
10.9	0.0109943859759205	1.08927741454299E-05	3.32591854169126E-07	7.39195994953167E-06	-5.1431451630412E-06	2.12963006360829E-07	0.959559234016829	-0.258544947887554
11	0.0107761222839501	-0.000605200245782354	-2.22039161169839E-06	-3.80940663590202E-06	1.19941647094754E-05	-3.5528913260805E-06	0.958764268569114	-0.260418341379387
11.1	0.0113361192629158	-0.000740350118590634	-6.0977072818204E-06	-4.91251026447424E-06	9.49857671538419E-07	5.55695706881509E-06	0.957545663300101	-0.261924412639464
11.2	0.0121083158053487	-0.00158684484379054	3.30357871861866E-06	4.28899739763334E-06	1.0585328478378E-06	-7.84986782102992E-06	0.95633218159682	-0.26322180392099
11.3	0.0128091837004275	-0.00294670076709557	7.11137530018688E-07	-2.64871913915601E-06	-4.82704681349649E-06	9.08342008677923E-06	0.955678914053748	-0.264437136236004
11.4	0.0130116236428849	-0.00473246379603947	1.47434397499531E-06	-2.19509938016855E-06	-2.99607769826398E-06	-7.41830249058907E-06	0.954956544167168	-0.266411961852496
11.5	0.0122053422558647	-0.0062620325958836	9.45806308484454E-07	-1.00671722310176E-06	-8.9909760382357E-07	-8.6947653485081E-07	0.953687653000154	-0.269073609388899
11.6	0.0119470450218783	-0.00728918926961176	1.11951471779472E-05	-3.25737936994577E-06	-5.40128321732835E-06	-6.8157750656629E-06	0.952316886979647	-0.271795462230407
11.7	0.0116452918888436	-0.00885162275871845	5.31453108204926E-06	-2.88294891469968E-06	-4.39917592504509E-06	1.64242971433046E-06	0.951329366897212	-0.27456638313354
11.8	0.0109927283745534	-0.0105427229298806	-4.4631441444871E-07	-2.54104356643205E-06	1.04293722991722E-06	1.32260085331248E-05	0.950755189493684	-0.277547346240568
11.9	0.00986793601397172	-0.0123765076817492	3.31201523329989E-06	1.98802405602902E-06	-3.20598919225115E-08	1.26967282795765E-05	0.950761386917302	-0.27995428084779
12	0.00767641789262737	-0.0134620599854046	1.99490449328619E-06	4.85835051722706E-07	-3.68255813582064E-06	-9.73326706867328E-07	0.949984930552901	-0.282073058736426
