# GHZ S RI R 50
0.2	0.000519009073082226	0.00380962442207987	6.30419971205711E-06	-1.00871592185727E-06	1.06689796083671E-05	1.04915613953865E-05	0.999445759844537	-0.00701292453839174
0.3	0.00111741599207633	0.00338062997239086	5.81683599504525E-06	5.03553218832642E-06	8.09572327448759E-06	2.9517149669554E-06	0.9992047860227	-0.00991767892213711
0.4	0.00159866415768248	0.00319938197667073	-2.70729607973238E-06	7.86928371641087E-06	-4.81699347928534E-07	-4.43027345021703E-06	0.99916303791744	-0.012583662095261
0.5	0.00186773224404153	0.00312171115466873	2.30786214130041E-06	1.47871794898718E-06	7.51021508390548E-06	-1.05325072007192E-06	0.998692042923555	-0.0156105668720143
0.6	0.00230319164325959	0.00323365092096525	3.22530597436347E-07	3.53948198969458E-06	2.72567069866874E-07	-7.66041512365582E-06	0.998868503486128	-0.0182775410079348
0.7	0.0026291242156535	0.00316978533183267	4.16612591366124E-06	5.03488178795675E-07	-3.89484076189793E-06	-2.948802044798E-09	0.998591638286907	-0.0212464328883091
0.8	0.00292553812132087	0.00313092369955956	-2.88697181622744E-06	2.96425623440875E-06	-6.8204036926262E-06	1.32086986741374E-06	0.998378037160029	-0.023418131575489
0.9	0.00311596841218621	0.0030786510599972	6.03558316627751E-06	8.98098769362536E-07	-7.34026161687817E-06	-1.8310534111898E-06	0.99828455118363	-0.0258327231025603
1	0.0031386633994978	0.00301479954868054	2.35952145138847E-06	2.94341210407684E-06	-9.04106210296362E-06	-2.60099570828201E-07	0.997929879903397	-0.0276056438545412
1.1	0.00318048577650701	0.00324984300141845	6.43797653810315E-07	3.568444114766E-08	-5.30018861759376E-06	1.40192961925899E-06	0.997532865099849	-0.0294315617029642
1.2	0.00338367457328264	0.00305632015704416	-5.29293083474327E-06	-3.28968839373621E-06	-1.1181790659963E-05	-1.26566518215417E-05	0.997132084775682	-0.0303325399534775
1.3	0.0032811986721583	0.00237824345789875	3.04978487684521E-06	3.10347751789534E-06	6.95778086952863E-06	-4.08442476848968E-06	0.997456300923653	-0.0312303406119328
1.4	0.00292127821638194	0.00147695301405947	-2.79906658131627E-06	-1.1134070987454E-06	5.71271314118401E-06	6.2117730957839E-08	0.99728155148829	-0.033352741843479
1.5	0.00261493836649888	0.00109554241515888	1.2401920333033E-06	-2.53351306368757E-06	8.02002147530555E-07	2.51184443903177E-06	0.997494912263149	-0.0367338359757773
1.6	0.00271828910884736	0.00106374943228036	-9.33665392076387E-07	-6.4143042633977E-06	3.18445591635097E-06	-4.24323005147619E-06	0.996864513343711	-0.0399855952401907
1.7	0.00285920586104188	0.00106346208959073	3.40437113102604E-06	6.32849293094077E-07	2.23433661835663E-06	3.85102516188581E-06	0.996999233678755	-0.0424506263791741
1.8	0.00297607465408509	0.00121196679952105	-2.37648076818042E-06	2.89640539563542E-06	-1.01377022806856E-06	-3.99577022709613E-06	0.996768844954088	-0.0451738520500847
1.9	0.00309825189216293	0.00124167666780844	-3.72989544054957E-06	-1.75932612697E-06	5.62593419695489E-06	3.02599245564171E-06	0.996500115863025	-0.0475308142617887
2	0.00315311202317791	0.00140206050109649	-6.17013572593943E-06	-5.74814305724677E-06	-2.08020281344217E-06	9.14662880366216E-06	0.995491528587298	-0.0501003808921999
2.1	0.00341526033925258	0.00142310571082702	1.16854073671217E-06	4.60362050165096E-06	4.47738493524059E-06	3.99122226390788E-06	0.995318266791553	-0.0518000027464152
2.2	0.00346490789109758	0.00128870174876204	6.5538427975281E-07	9.0680965147975E-07	-3.62042407215013E-06	-1.09356173281695E-05	0.995533740566798	-0.0540760482273116
2.3	0.00334941527637798	0.001140437224805	-2.286480737263E-06	3.55725972897009E-06	-5.33172973819433E-07	-2.79533472922369E-06	0.995284594822222	-0.0558771902720102
2.4	0.00307898880683199	0.00107736777153693	-1.5551407277927E-06	-1.45611891696838E-06	1.28432293928789E-06	-9.97517243814641E-07	0.995255959306215	-0.058938400737031
2.5	0.00264880552653805	0.00125258700874318	7.78229452149651E-06	4.0643363019421E-06	-2.34114214277961E-06	-7.22769102035458E-06	0.994761449890951	-0.0611095463603785
2.6	0.00262068826467239	0.00169041617245053	4.85084502255178E-07	2.11718109003617E-06	-1.47029933995804E-06	4.68368099606905E-06	0.994685365774907	-0.0636833839759265
2.7	0.00281019058151227	0.00193568872494728	-7.86902683492061E-06	5.23377430280639E-06	2.52543267592713E-06	9.72091686049884E-06	0.994493878560866	-0.0664940055976036
2.8	0.00312618091954686	0.0021221537660591	-7.74985507157934E-06	7.94863823481689E-06	5.99918880395936E-06	1.99208911613863E-05	0.994756087542489	-0.0683733530304685
2.9	0.00353915912339626	0.00213458405928779	-1.19074840751749E-06	8.59107872467186E-07	-8.11791318147244E-06	-2.9691833318963E-06	0.994737393356275	-0.070379987429944
3	0.00398902464312342	0.00217100640362166	-6.07035955397236E-07	-4.47474182782774E-06	-2.19034994665848E-06	6.44010544908039E-06	0.994835968230875	-0.0729363334878722
3.1	0.00462056538330575	0.00191716304348512	-2.58998743157664E-06	8.75028592279198E-08	1.10246794592451E-05	-3.5216395629239E-06	0.994656477421186	-0.0749408971456532
3.2	0.00492622144740396	0.00147419753404639	-9.80686381520393E-06	2.54342115424266E-06	1.21677846462001E-05	4.27313275119115E-06	0.994684800177818	-0.0767693496562245
3.3	0.0050357918126927	0.0009625122472977	-3.47122896610064E-06	9.32393202185044E-07	-5.01395518898101E-06	-1.45975734717506E-07	0.99472705363733	-0.0801267689414509
3.4	0.00490326340494366	0.000531571911777541	5.35175014264297E-06	4.89399050253627E-07	1.34990520411982E-06	4.47742711954332E-07	0.994885415746942	-0.0823721855624561
3.5	0.00465001376420307	0.000299517706621065	2.77126440960149E-06	1.55968201139912E-06	1.31371146590603E-06	7.93170041587001E-07	0.994509203464814	-0.0855192342643825
3.6	0.00453506664766383	0.00012783577232834	-7.15297303858022E-06	-1.33343356354477E-07	1.86610532292898E-06	-3.49969681845411E-06	0.994048756695513	-0.0877767632399359
3.7	0.00425044827418646	-6.43213699532105E-05	5.7813386720773E-06	-1.51305999924681E-06	-3.25182519583529E-07	-1.73386754150649E-06	0.994061113937611	-0.090339287637389
3.8	0.00398732898040833	-4.11480231357555E-05	-2.00396311624816E-06	8.77487786009312E-07	-5.19785972358876E-06	2.98634648230677E-07	0.99391599141613	-0.0924300785349764
3.9	0.00384898941291759	0.000116346781655085	-8.37315500722895E-06	1.78254075408323E-06	-4.12130727024965E-06	-1.50068785634276E-06	0.993948669644404	-0.095770730365665
4	0.00392499827755854	0.000413231347656243	-5.83009368427001E-06	3.67443442203402E-07	-9.50513372455812E-06	-8.45844810419908E-06	0.993354604975342	-0.0971382696867969
4.1	0.00436919255748802	0.000415766105516287	-3.99231288448864E-06	4.06870043974326E-06	-1.88417059064305E-06	5.58652712919292E-06	0.993491455066106	-0.0987601097086575
4.2	0.00457662818390967	0.00011200771007622	4.62686641174702E-06	-4.38940244721549E-06	6.76196965986931E-06	7.5713172885669E-07	0.993204992681352	-0.101519721708472
4.3	0.00460080126543814	-0.000157515953560542	-3.80111959499958E-06	1.1279798802363E-06	3.55376116098744E-06	-1.20735855100509E-06	0.993183875030495	-0.10366661124082
4.4	0.00445487944983609	-0.000371106892492945	-3.15226945968836E-06	-4.94179447545648E-06	9.31306963300199E-07	-1.03754395788889E-06	0.992770785588206	-0.106057077678108
4.5	0.00425254156166068	-0.000292907996442742	-1.39338201159909E-06	2.03271116776706E-06	2.14738690361736E-06	-8.48444334455743E-06	0.992732092851416	-0.108168897918122
4.6	0.00435010627543533	-0.000340627604532177	5.40036312732797E-06	9.60862154829455E-06	-1.42211086214032E-05	9.82362768357027E-06	0.992581964891743	-0.111035920467994
4.7	0.00431585084720413	-0.000557788650640659	-7.59774842447289E-06	-9.57686984663965E-06	-1.14649924386004E-06	-1.35514918715667E-07	0.992514980967475	-0.113087714941218
4.8	0.00418308688775127	-0.000710411221489463	-8.75284599653968E-06	-2.69608498349271E-06	-4.38748182205941E-06	4.54648923009049E-06	0.992176088451451	-0.115633021226698
4.9	0.00407461564289597	-0.000822218235413537	5.77449046226537E-06	8.33130158290959E-06	-7.26792881869701E-06	3.2792564684233E-06	0.991960225229422	-0.117527626830948
5	0.00409575515984828	-0.000831652364429432	4.29269130870417E-06	-8.55402394697338E-06	-4.29517024135079E-06	-6.19354257951389E-06	0.991972920930278	-0.119391708856796
5.1	0.00440728628422652	-0.0010910096552284	1.52554043393817E-05	-1.0255022941111E-05	3.5013430388824E-06	-8.73908032556932E-06	0.991964286132738	-0.120926121246532
5.2	0.00444864293624353	-0.00149439866001382	-4.2383088896201E-06	-4.72859191741848E-06	-3.17059250314521E-06	5.22889655573628E-07	0.991831467798742	-0.123277243321348
5.3	0.00441491490512085	-0.00179513389118448	4.78504048888921E-06	3.38466265171516E-06	-9.31260548308244E-06	-4.76241924138201E-06	0.991824667383147	-0.125774773518755
5.4	0.00429118942432771	-0.00206225775382686	5.19127165938406E-06	1.20557600126306E-06	-4.81576994844226E-07	1.0479552191841E-05	0.992013266256689	-0.129029422912922
5.5	0.00411587320696918	-0.00207000492875936	-1.816293575217E-06	-1.98524244120585E-06	8.90141759756535E-06	5.10034605713029E-07	0.99142376470033	-0.132393231677435
5.6	0.00411849216257036	-0.0023889303483347	4.25265055212857E-06	7.24174949079316E-06	-4.65511310991366E-07	-8.62799663037704E-06	0.990872697688921	-0.134816048035149
5.7	0.0036070789268815	-0.00267036841884829	2.05925710832007E-06	-7.2305063944256E-07	5.48107092792543E-06	2.45927919260293E-06	0.990649493506026	-0.137340462914955
5.8	0.00295054761821033	-0.00264242098663625	3.91959718452401E-06	1.96450306066284E-06	2.73741323376415E-06	7.84876463294176E-06	0.990549467578898	-0.139669457378987
5.9	0.0022424916960129	-0.00228653744405796	-3.79008366004635E-06	-3.06291996330129E-06	-4.70815894822063E-06	-1.78306438944581E-06	0.990180290230203	-0.142144744832525
6	0.00166471507860279	-0.00144435890946845	-2.08174339973028E-06	1.70690785869181E-06	1.04541454542968E-05	-2.66209287792562E-06	0.989635240073714	-0.143652152392745
6.1	0.00194513204351353	-0.000757861470212633	-7.34782127202873E-06	-1.10818960710877E-06	-7.27057036640899E-07	-2.4905850945267E-06	0.990130398224933	-0.145043644346639
6.2	0.00218673706964226	-0.00070384958063721	-1.06363432719707E-06	1.99532850629717E-06	-3.49611070250516E-06	-5.37611668987031E-06	0.989994997143832	-0.14697381642878
6.3	0.00228858168027563	-0.000971899967145953	1.58465297192821E-06	2.83644617934697E-06	1.15630076037239E-06	5.98713435172312E-06	0.98954739818563	-0.149414497971411
6.4	0.00202805778170319	-0.00139106690648437	2.08029417234194E-06	5.04600075127099E-06	-3.33800053674438E-07	2.2822043661783E-07	0.9888099603227	-0.151806274058893
6.5	0.00180223117733832	-0.00147095737896666	4.677356231749E-06	-1.88861289688353E-06	-4.70330811957531E-06	-1.54672958771411E-06	0.988554429057525	-0.154374389651259
6.6	0.00166626085459495	-0.00183501504856646	3.24785262800046E-07	-1.0718499120939E-06	9.32250757472007E-06	3.32952603081787E-06	0.988227733678497	-0.157413160260167
6.7	0.00121659236389197	-0.00191906984647714	5.39274858558286E-07	5.62114906476991E-06	-1.78486692577312E-06	4.98520647216778E-06	0.987647547800744	-0.159924800885902
6.8	0.00080168438229901	-0.00176496342900988	1.7366814942958E-07	-1.58909526523322E-06	-3.48977269783559E-06	-5.12209351118434E-06	0.987009218337846	-0.162302730608666
6.9	0.000332460732347133	-0.00146554319805878	-6.64380488301461E-06	6.73652424856796E-06	2.2923796761783E-06	1.35268387334329E-06	0.986489961696756	-0.164579947087497
7	0.000131532243354406	-0.000708492641063468	8.09545577451579E-06	3.1582980550432E-06	4.58252291433896E-06	5.86524695234046E-06	0.985662584777041	-0.166440154132216
7.1	0.000296729365001574	-0.00050253431761752	1.39907847113701E-06	7.82480103785545E-07	-2.28293370337347E-06	-4.47871498492582E-06	0.985091629735485	-0.168255543100359
7.2	-3.26360246049078E-05	-0.00039141154681933	-1.2826458757094E-07	4.40274218864285E-06	-5.01780989508212E-06	-6.5024400027387E-07	0.984227894205197	-0.170172731068498
7.3	-0.000609949015337854	-5.97206012095356E-05	1.34209918951387E-06	-5.27071413702736E-06	-2.35575898836423E-06	-2.78670871434022E-06	0.983030541862717	-0.172061969857641
7.4	-0.00143292919516638	0.000468606856980029	1.84946591531456E-06	4.41815623382095E-06	-7.3110897808388E-07	-1.06774526691021E-06	0.981805965868418	-0.174659325492408
7.5	-0.0021855355498894	0.00178203283028023	-5.74167864354543E-06	-1.47095866449754E-06	-1.60656584770113E-06	-8.8881333887959E-06	0.97984476584035	-0.177045548183551
7.6	-0.00181916970855686	0.00295785957396037	5.60649026137842E-06	-3.39635574412386E-06	1.02943378638559E-06	3.18275448052429E-06	0.979052764612752	-0.178955786763669
7.7	-0.00153700404167597	0.00358352817749062	-6.49975255941415E-06	-2.84199290328084E-06	4.3832998275186E-06	5.65066806817484E-06	0.978904476785683	-0.181811044831118
7.8	-0.000986373871041527	0.00387119696910108	-1.09379640972252E-06	-5.34452029603717E-06	-2.10326826615568E-07	1.14203311902375E-06	0.978847353811202	-0.185061148548934
7.9	-0.000402227612703212	0.0039664787247553	-3.32574433250429E-06	7.20365723717812E-06	4.55919050187789E-07	-6.86838908742791E-06	0.978495034267519	-0.188427588950315
8	0.000498366990451506	0.00409285243243107	-2.23712751738357E-07	7.37113802992014E-06	1.76317361424583E-06	-4.45126128779723E-06	0.977911841724598	-0.190754106300746
8.1	0.00128658004949618	0.00348139318844989	-7.43825087065105E-07	-6.46108024702573E-06	-1.74791810262565E-06	-1.0609608672915E-06	0.978191915930414	-0.193543011213217
8.2	0.00142274372228432	0.00303831129154015	-3.82382615164745E-06	1.65618249095039E-06	-1.09693966744022E-05	-2.6010495455498E-06	0.977950589450551	-0.19641567898947
8.3	0.00140816895348437	0.00287798930043975	-5.56047627077422E-06	-9.84983447353123E-06	-7.78094701099955E-06	3.03058947018217E-06	0.977178086049636	-0.19931966239305
8.4	0.0012475853914196	0.00303211495935992	6.75998442817009E-07	-6.11019558176409E-07	-1.41524341187955E-06	4.42632989643966E-07	0.976231517263397	-0.201965380710912
8.5	0.0013768528907365	0.00369845666312588	-1.75265629830638E-06	-2.54072529895763E-07	-4.8064773308268E-09	1.80339475184529E-06	0.975496536100086	-0.204594093128405
8.6	0.00196630648870921	0.00381824622623237	2.41904976800324E-06	-3.9744641243875E-06	-4.57189480723997E-06	-5.91124258998631E-06	0.974902303841867	-0.207266655851057
8.7	0.00212204416641927	0.00384071288620112	-1.50078408707528E-06	-2.09065073420313E-06	-3.55002664253205E-06	3.64051409938245E-06	0.974288954779594	-0.209742775943469
8.8	0.0022188223499456	0.00408410605275459	-5.49602158855498E-06	-2.11287240411973E-06	-7.23023175006493E-06	-1.25987568415233E-06	0.973737380865026	-0.211859460586361
8.9	0.00237604396459837	0.00444790976608739	8.55680946715167E-06	4.08767334883849E-06	-1.41422647587561E-06	3.19995096518132E-06	0.973633023380638	-0.213649338716905
9	0.00296779166454779	0.00518479981269993	-4.95779470126063E-07	4.16288729717881E-06	-7.81919452935828E-06	1.23810562921502E-06	0.973483662751718	-0.215632416497457
9.1	0.00426372847070595	0.00523384587437319	-2.54759968306184E-06	6.64085459061384E-06	4.10153607464446E-06	-3.08824072505527E-06	0.973480655920909	-0.217550788312895
9.2	0.00530998397991346	0.00483949496860041	-1.17113240957167E-06	3.42722823049705E-06	-2.24980245571649E-06	-2.05456410522725E-06	0.973362617745641	-0.220136613351381
9.3	0.00621797322087891	0.00420460095521584	2.31745341845308E-06	-4.04570679769663E-06	-7.9661482005832E-07	-1.77940025742408E-06	0.973105152331967	-0.222911724074853
9.4	0.00679340888124701	0.00337967110666836	-1.79004630562633E-06	3.89937402774389E-06	-2.07594517780142E-06	-3.57418679111373E-06	0.972382581967731	-0.226217964395021
9.5	0.00728049088462371	0.00298439924616651	3.50755769608721E-06	6.27847351690694E-06	3.60574555848849E-07	-2.14837741081003E-06	0.970999972326726	-0.229013202473613
9.6	0.00764413072750873	0.00199968673803956	4.62612583006884E-06	7.05525714553944E-06	-8.19003011917104E-06	1.2794487982217E-05	0.970261002544936	-0.231715269874365
9.7	0.00741299213500865	0.00132722035230212	-2.87846719447322E-06	-1.52653850001762E-06	-1.38955919298412E-06	-3.96104702273263E-06	0.969583377275936	-0.234253380672057
9.8	0.00709724007847797	0.000992792794066681	1.25707244917407E-07	-3.58909247575728E-06	3.04208487540113E-06	2.39197499563112E-06	0.969074468152936	-0.236426344601341
9.9	0.00672220115534668	0.00106765307384258	5.78664258302543E-06	-6.1759565222804E-07	-2.55733019688024E-06	6.71499086122292E-06	0.967929022142182	-0.238222471723098
10	0.00679662670150772	0.00161533657100754	-1.13920384798173E-06	-5.77568861828264E-07	1.36127223093335E-06	-1.18418441582547E-06	0.967215050278407	-0.238495465612554
10.1	0.00741393679246898	0.00151900701819859	7.11071422517576E-07	-8.40564363207933E-06	6.14656364323374E-06	3.60089851983507E-06	0.967655354642378	-0.239938150776068
10.2	0.00767961689173986	0.00129291881047162	7.4846441350535E-06	8.30374518268338E-06	5.21711326091133E-06	3.52329540532223E-06	0.967305146270793	-0.241576966940019
10.3	0.00790378672716661	0.00114400938017479	1.75171936789482E-06	-6.94256070596002E-06	1.42357403452655E-06	2.86165173229926E-06	0.966483409064297	-0.243429341274182
10.4	0.00813502300185944	0.00113627535277993	-4.01617450579163E-06	-3.63108192552836E-06	1.95010675934417E-06	-5.5821489804519E-06	0.96527245201599	-0.245305925727762
10.5	0.00882565539989306	0.00148880909947099	3.7699203910528E-07	-7.04842009584326E-06	-5.71745572511629E-06	4.05928720452193E-06	0.964275006831788	-0.247167479153596
10.6	0.0101714010428221	0.00101842981844396	5.47094500986129E-06	6.71957255393773E-06	2.42663508598327E-06	1.19184068063405E-06	0.963669809236901	-0.249224363763696
10.7	0.0112404931025391	0.000121464415144856	-7.05568865201991E-06	-1.69036787858765E-06	-7.72136539697638E-07	1.55457066427596E-06	0.963496656203234	-0.251518578257924
10.8	0.0119331457150878	-0.00112635258977962	1.47830164042157E-06	4.43163334323524E-06	9.39184436620009E-06	-4.44775201463265E-06	0.963237142965094	-0.253535827703882
10.9	0.0120494002983547	-0.00230449910427098	3.15597825403398E-07	7.40162974316297E-06	-5.1498297638638E-06	2.011167987066E-07	0.963020491223472	-0.255550631048803
11	0.0124023594979394	-0.00302039274351359	-2.21654417857508E-06	-3.81977718670615E-06	1.20201530204614E-05	-3.53530183290729E-06	0.962583616570438	-0.25689368998589
11.1	0.01287459805402	-0.00447707778742285	-6.10102972045581E-06	-4.93003573477817E-06	9.4329927368475E-07	5.56799852195693E-06	0.962591812539519	-0.258463352727151
11.2	0.0127255437165281	-0.00597830406479462	3.30510679933798E-06	4.30014998714885E-06	1.06855517231447E-06	-7.86293715500478E-06	0.962313998777292	-0.260514241691682
11.3	0.0123630493885417	-0.00738236372132675	7.13786949517432E-07	-2.65297464174869E-06	-4.84031000723218E-06	9.09674637728863E-06	0.962071847224431	-0.262983295129264
11.4	0.0116201053503797	-0.00858804788863843	1.47610049442304E-06	-2.1985377714221E-06	-3.0017090602343E-06	-7.42853762192743E-06	0.960994419469925	-0.266419628936923
11.5	0.0110850124245613	-0.00933335117307656	9.46363313044739E-07	-1.00738077760168E-06	-8.99691091441839E-07	-8.69989511276559E-07	0.958852923668232	-0.269046099570254
11.6	0.0106602130818336	-0.0107834463171339	1.12067302864363E-05	-3.25697312276449E-06	-5.40426317168971E-06	-6.82389009604946E-06	0.957904529416661	-0.271951600135087
11.7	0.00952595482615664	-0.0120402557636136	5.32084610205472E-06	-2.88584734892368E-06	-4.40434624253424E-06	1.6439758408255E-06	0.956841159653926	-0.27559674479501
11.8	0.00826796335763315	-0.0127550260896291	-4.46991148412002E-07	-2.54383682758198E-06	1.04503645373954E-06	1.3240638277672E-05	0.955449498960193	-0.279293548294014
11.9	0.00719564575456696	-0.0129151240322807	3.31473539913566E-06	1.99122211284343E-06	-3.6504147572336E-08	1.27097928219784E-05	0.953841185895538	-0.281286120349723
12	0.00705465065880973	-0.0127823791242997	1.99900659662852E-06	4.8879060650273E-07	-3.69005973260453E-06	-9.78957127059854E-07	0.953161201921982	-0.281387730186334
