# GHZ S RI R 50
0.2	0.000359180733140253	0.00386141506916589	6.30650841289867E-06	-1.00772634794813E-06	1.06703227664895E-05	1.04972932070581E-05	0.9994762926605	-0.00687960031407921
0.3	0.00101561320170286	0.00352956614571494	5.81779798730497E-06	5.03826393085717E-06	8.0978191618055E-06	2.95419072018511E-06	0.999286048643872	-0.00970206847930074
0.4	0.00152597204658823	0.00344420092154841	-2.70980820359903E-06	7.87184230241451E-06	-4.81065202133855E-07	-4.43208583174179E-06	0.999371075115145	-0.0122377474198639
0.5	0.00196864430226903	0.00344096774351511	2.30878552939795E-06	1.47931010994035E-06	7.51322089464363E-06	-1.05367104380892E-06	0.999279533829117	-0.0153719117771454
0.6	0.0024050142171175	0.00342616151554492	3.22393345368823E-07	3.54024097053548E-06	2.7306713688292E-07	-7.66200163008173E-06	0.999399321359145	-0.0183722902812177
0.7	0.00269072420553381	0.0034079100615702	4.16706107093473E-06	5.04193493421681E-07	-3.8957805679031E-06	-3.49527252287323E-09	0.999032426876987	-0.0214434182962349
0.8	0.00299894974214033	0.00340626351375212	-2.88824067936964E-06	2.9646907566692E-06	-6.82256942207749E-06	1.32025324995738E-06	0.998712495698116	-0.0237148670358498
0.9	0.0031466645175542	0.00339542107952918	6.03762514638781E-06	8.9927098161265E-07	-7.34264100626885E-06	-1.83274444808743E-06	0.998375057322331	-0.0261038071532441
1	0.00323078583036115	0.00358737041763672	2.36061232436467E-06	2.94489869031708E-06	-9.0454717914335E-06	-2.6041511121028E-07	0.998024911948662	-0.0273903598085947
1.1	0.00347033495309235	0.00377305518834822	6.44093384738683E-07	3.56756468977472E-08	-5.30255714494779E-06	1.40277728407161E-06	0.998061583021153	-0.0290625940573654
1.2	0.00367452792058165	0.00373217462989575	-5.29626986418361E-06	-3.29201657240769E-06	-1.11886479707049E-05	-1.26652927287938E-05	0.998114953934787	-0.0297022998915432
1.3	0.00379673808782375	0.00326695375404267	3.05253604074551E-06	3.10637042420527E-06	6.96422518608624E-06	-4.08806715812365E-06	0.999195719255807	-0.0305010935924069
1.4	0.00363084083678452	0.00234302237989143	-2.80167147377184E-06	-1.11432387491161E-06	5.71794815889948E-06	6.19642453796244E-08	0.999358384553882	-0.0329295321002202
1.5	0.00346637814440993	0.00177874367462106	1.24121532362344E-06	-2.53504921091132E-06	8.0230533939238E-07	2.51354296103546E-06	0.999626001734533	-0.036581507740464
1.6	0.00333714962230335	0.0014228044749772	-9.32879258958729E-07	-6.41794651293698E-06	3.18702370422614E-06	-4.24487544285667E-06	0.998628504544983	-0.0405093118260246
1.7	0.00328420340140937	0.00138679557205576	3.40581088218001E-06	6.33630025505908E-07	2.23478103218463E-06	3.85308360083448E-06	0.998183922671686	-0.0432330558949528
1.8	0.00326660231119866	0.00150854873546823	-2.37736883153422E-06	2.89714501862314E-06	-1.0138455122247E-06	-3.99703964336251E-06	0.997450023374873	-0.046017649221284
1.9	0.00323824001264218	0.00160915876527859	-3.72999938719262E-06	-1.75993336004914E-06	5.6260454016895E-06	3.02694024372559E-06	0.996700835133883	-0.0480463801590055
2	0.00343255760918394	0.00191309734914006	-6.17023738562555E-06	-5.75282919742204E-06	-2.08465299786648E-06	9.14934544046477E-06	0.996342998977288	-0.0499649135587627
2.1	0.00364435304228844	0.00171956528283207	1.16980944152154E-06	4.60588061758592E-06	4.48031035990799E-06	3.99269037435633E-06	0.996522427541733	-0.0526114033523926
2.2	0.00355806546389538	0.00163569988683421	6.55811691736005E-07	9.06882450396883E-07	-3.62439412469867E-06	-1.09376581076872E-05	0.996317453849027	-0.0552158055937736
2.3	0.00338873607244714	0.00154057600173073	-2.28602739280815E-06	3.55848025144346E-06	-5.33959855899632E-07	-2.79572010088501E-06	0.995733547025851	-0.0570757812938954
2.4	0.00300428490214441	0.00155643543828576	-1.55585623609703E-06	-1.45610753431459E-06	1.28440024339964E-06	-9.98057976123858E-07	0.995370155738149	-0.0599661238653479
2.5	0.00264948775862735	0.0020377505545335	7.78616178171754E-06	4.06143220554834E-06	-2.34529065827673E-06	-7.22824246414191E-06	0.994937562387893	-0.061685805931005
2.6	0.00279979625440216	0.0023932185833726	4.85987550911761E-07	2.11683574741156E-06	-1.46814357966508E-06	4.684038076167E-06	0.995106220631165	-0.0641801978831857
2.7	0.00300881961083693	0.00262227804730731	-7.86707240446644E-06	5.23619421493993E-06	2.52854182389412E-06	9.71979377334069E-06	0.995185694060592	-0.0670043438012927
2.8	0.00330081703005859	0.00276658542656254	-7.74702189650602E-06	7.95232227171271E-06	6.00780058161219E-06	1.99195893687954E-05	0.995603040741847	-0.0691633873255875
2.9	0.00360529011792846	0.00284866579085648	-1.19028060941519E-06	8.59983546926373E-07	-8.12063794566589E-06	-2.96401283452285E-06	0.99547342972074	-0.0714027728876944
3	0.00421064158512119	0.00304499911801325	-6.1114458383508E-07	-4.47306599688428E-06	-2.18368474802606E-06	6.44060890193666E-06	0.995551043547836	-0.0739599539371204
3.1	0.00483263179568924	0.00264215465108215	-2.58892907611879E-06	8.94457286970755E-08	1.10177713347229E-05	-3.52870401715755E-06	0.995466434850112	-0.0761927708482643
3.2	0.00510153238811804	0.00225185301461749	-9.80149930374464E-06	2.55031307243204E-06	1.21670078883042E-05	4.26204273596964E-06	0.995427063990706	-0.0782785334776756
3.3	0.00522576103254972	0.00174926545805002	-3.469134773803E-06	9.35128640630434E-07	-5.01225306990165E-06	-1.41479312413976E-07	0.995275407041253	-0.081867499838667
3.4	0.0050341862930936	0.00135196526263976	5.34935446854192E-06	4.83457673800185E-07	1.3496448053703E-06	4.46067465265895E-07	0.99498419365774	-0.0842018753226712
3.5	0.00495666009475045	0.00126244966937736	2.76941400220947E-06	1.55596397178312E-06	1.31287375207283E-06	7.91349373820741E-07	0.994391990412575	-0.0866899285319147
3.6	0.00483184955762454	0.000839847565592643	-7.14790482024834E-06	-1.31060082174026E-07	1.86370193070149E-06	-3.49776798777339E-06	0.994419276335659	-0.0891234581149176
3.7	0.00439769859980504	0.000695442953019961	5.77717238632511E-06	-1.51460652314834E-06	-3.2572463920667E-07	-1.73267293398984E-06	0.994058992509457	-0.0919901838375087
3.8	0.00407762146642625	0.000823759623826203	-2.00206917205706E-06	8.77777929264058E-07	-5.1938741208885E-06	3.00850180172133E-07	0.993297004435898	-0.0939373647645844
3.9	0.00391119725489271	0.00117475925377986	-8.36447202208187E-06	1.78283694316454E-06	-4.1176161681747E-06	-1.49820006332105E-06	0.99270023551309	-0.0964210069350641
4	0.00437668352590418	0.0017024483842979	-5.82742202072813E-06	3.65985454620339E-07	-9.49878238246137E-06	-8.45654873162458E-06	0.993208744491463	-0.0964201830618244
4.1	0.00500301078099358	0.00129968033182775	-3.98961529499326E-06	4.06908801965623E-06	-1.88148444015619E-06	5.58567280021127E-06	0.994224436911732	-0.098992569082814
4.2	0.00509282357421705	0.000812283774403277	4.6227831887056E-06	-4.38901426190383E-06	6.75884579785932E-06	7.54067337815298E-07	0.993764577420263	-0.102110916437117
4.3	0.00497076639623656	0.000432285760470345	-3.79908317211147E-06	1.12836220192289E-06	3.55182081161231E-06	-1.20764495673293E-06	0.993631312003425	-0.104303156086193
4.4	0.0045823324893618	0.000226240010229121	-3.15245641125594E-06	-4.94065850628608E-06	9.31034738211313E-07	-1.03751433669976E-06	0.993243162810262	-0.106535031575479
4.5	0.00444484568588679	0.000537031812510758	-1.3920614016564E-06	2.03379194534004E-06	2.14165922399756E-06	-8.48642336556258E-06	0.99364690553233	-0.108763170717604
4.6	0.00448598846497946	0.00024754286871173	5.40353765048149E-06	9.60071320351838E-06	-1.42083006701009E-05	9.82743928040325E-06	0.993305835858463	-0.111961578326325
4.7	0.00423393507904518	0.000109555795858536	-7.59684529674476E-06	-9.57003172318326E-06	-1.14598345781793E-06	-1.3511708047436E-07	0.993118333119548	-0.113982065191271
4.8	0.00400537167481161	7.01806625942441E-05	-8.74996093037586E-06	-2.69386250562842E-06	-4.38521476605433E-06	4.54540638037842E-06	0.992687687771402	-0.116562109618683
4.9	0.00377197890581491	0.000121394425487312	5.7748386331792E-06	8.32817558448029E-06	-7.26556030637283E-06	3.27997142069785E-06	0.992201302347679	-0.118454414384322
5	0.00400074817206491	0.000378978748153269	4.28622533724073E-06	-8.55004343890974E-06	-4.29485658257913E-06	-6.18757118469665E-06	0.991964034713104	-0.119980750513341
5.1	0.00424336419620972	-4.3556474277274E-05	1.52442883053457E-05	-1.02439748523366E-05	3.49982257282462E-06	-8.73119887934238E-06	0.991936936464467	-0.121322941745304
5.2	0.00416870258638473	-0.000204993469573743	-4.23405834904349E-06	-4.72719172532452E-06	-3.16883904769209E-06	5.21456418714602E-07	0.991642442299909	-0.123412454007721
5.3	0.00425124978968502	-0.000266457629682889	4.78179540098426E-06	3.38476756263336E-06	-9.30690002339967E-06	-4.76342938570455E-06	0.991646690680509	-0.125516365249563
5.4	0.00428769430682599	-0.000370158896986048	5.18853886678279E-06	1.20536505611834E-06	-4.82143683580396E-07	1.04741867106927E-05	0.991873701749982	-0.128483837577302
5.5	0.00467597425246558	-0.000308353390515701	-1.81310434511068E-06	-1.9836697924475E-06	8.89021258150426E-06	5.13678979457567E-07	0.991628079938695	-0.131058620283188
5.6	0.00463133906315215	-0.00122364932846278	4.24142647797186E-06	7.24186835030662E-06	-4.55196530199909E-07	-8.62280248414964E-06	0.991948394976189	-0.133909922180192
5.7	0.00388058103591685	-0.00152240509459524	2.05917338194906E-06	-7.2062719680079E-07	5.47631093517584E-06	2.46395827805441E-06	0.991480669912817	-0.136930036004553
5.8	0.00314081234737985	-0.00148922281574988	3.91564315281749E-06	1.96752276178206E-06	2.72804655569489E-06	7.84765042924947E-06	0.990776296794792	-0.139261915351604
5.9	0.00222014683866761	-0.00107158641645891	-3.78303739769832E-06	-3.06646520338292E-06	-4.70238742606768E-06	-1.78881764707041E-06	0.989620879197219	-0.140733697772234
6	0.00188269538620934	0.000260710970372408	-2.08597153722474E-06	1.70380571966153E-06	1.04642272632797E-05	-2.64365485199979E-06	0.990761855890978	-0.14045492530408
6.1	0.00245613449596733	0.000539981575220435	-7.35115457987372E-06	-1.11417768170446E-06	-7.25648963266677E-07	-2.49251981368669E-06	0.992438564190802	-0.143185717259636
6.2	0.00258013969073002	0.000465724968654082	-1.06498508162465E-06	1.99495949489132E-06	-3.4933428470815E-06	-5.37896460401719E-06	0.992321186446396	-0.145568504173573
6.3	0.00256673404446778	0.000115517734126801	1.58251463459008E-06	2.83780030438215E-06	1.15169339794649E-06	5.98829031220268E-06	0.991962973822711	-0.148302338971104
6.4	0.0020458558195732	-0.000149772017626321	2.07584691285114E-06	5.05055630887214E-06	-3.34198488717616E-07	2.27968021579398E-07	0.991420872437142	-0.150635123370649
6.5	0.00213784712937529	1.93152190417273E-05	4.68207104991913E-06	-1.88974248800955E-06	-4.70755872848398E-06	-1.54886914928849E-06	0.992022467863335	-0.154307736121728
6.6	0.0017790918257642	-0.000532465076541048	3.24969024866542E-07	-1.07172241423283E-06	9.32130274250089E-06	3.33109334781073E-06	0.990206958902565	-0.158136723289737
6.7	0.00134250752013705	-0.000363051284497421	5.3513498071287E-07	5.62094327940442E-06	-1.78829790288888E-06	4.98338028809324E-06	0.989003623584115	-0.160182884183752
6.8	0.0010319231363395	-0.000250101907289096	1.75183475818589E-07	-1.58904615981654E-06	-3.48518176088503E-06	-5.12576473360792E-06	0.988079633499678	-0.162371780999502
6.9	0.000371274652390559	9.98738716930402E-05	-6.65151817970659E-06	6.73257455321694E-06	2.29182894756728E-06	1.35505869589403E-06	0.98710280774909	-0.164276040685194
7	0.000632151652173702	0.00115641013161203	8.09423071759412E-06	3.16355375679773E-06	4.57932306428143E-06	5.86858279842285E-06	0.986914871867478	-0.165445825273929
7.1	0.000698276095203877	0.00075820037021115	1.39832473573827E-06	7.836481578991E-07	-2.2789326604971E-06	-4.48044581037516E-06	0.986646085005674	-0.168173062658086
7.2	9.46419000722232E-05	0.000967666935565259	-1.32341810979948E-07	4.40330271668822E-06	-5.01798420058316E-06	-6.54968522803234E-07	0.985364290725255	-0.170613413851579
7.3	-0.000505072823789658	0.00135598430778547	1.34622217124158E-06	-5.27159558351916E-06	-2.35463391622076E-06	-2.78930400671372E-06	0.983565236516673	-0.173062150312534
7.4	-0.00153672085842841	0.0018939874061103	1.84884704413312E-06	4.4186487939405E-06	-7.30972191967478E-07	-1.06790945523622E-06	0.980704693480417	-0.176090193162729
7.5	-0.00205879245467907	0.00371527639113989	-5.73487186035686E-06	-1.47604724698109E-06	-1.59519569697282E-06	-8.88193321038048E-06	0.977370926831068	-0.175959792906131
7.6	-0.00154191031739775	0.0043929131728489	5.61362634844777E-06	-3.38846248539225E-06	1.0246767825986E-06	3.18537314612023E-06	0.977982148707012	-0.177444863289118
7.7	-0.00160787571041481	0.0050578742926567	-6.49997664831115E-06	-2.85078682875008E-06	4.37925697905316E-06	5.65856104718941E-06	0.977648992941832	-0.180306293530026
7.8	-0.00122298795660024	0.00559357630910271	-1.08889832885551E-06	-5.34706579366088E-06	-2.11496515911201E-07	1.14214490507548E-06	0.977376693183745	-0.182949644527387
7.9	-0.000758315380804994	0.00615508473404698	-3.33511974559049E-06	7.19753394385101E-06	4.65415756921953E-07	-6.86634179791672E-06	0.977104824161595	-0.184762088087744
8	0.00100197042318697	0.00653532848145378	-2.41794360157429E-07	7.37939170928001E-06	1.7760351100157E-06	-4.45231072536542E-06	0.979963864158872	-0.185913348332978
8.1	0.00167698682726713	0.00541948492431044	-7.39569532156725E-07	-6.47433667472386E-06	-1.75038967487274E-06	-1.06457347215427E-06	0.981425750932938	-0.191609518757564
8.2	0.00174545437993762	0.00503797345586354	-3.83031144326941E-06	1.65757736339611E-06	-1.09857116613503E-05	-2.60852589258141E-06	0.980666062226957	-0.195524563654157
8.3	0.00176115224479255	0.00482268488403438	-5.56605640260208E-06	-9.86542029885667E-06	-7.7929216736168E-06	3.03303297531631E-06	0.979639374431748	-0.198879612924935
8.4	0.00140205599911296	0.0050367824226503	6.77376941430397E-07	-6.12059678965018E-07	-1.41798916378325E-06	4.43231341532425E-07	0.978656744752199	-0.20177516824302
8.5	0.002059466260852	0.00605330679020489	-1.75620632656697E-06	-2.52659991409114E-07	-2.87331983679765E-09	1.80677118649401E-06	0.978104397472508	-0.205175300259531
8.6	0.0026426368303382	0.00549236269856429	2.41771851284949E-06	-3.98026323364823E-06	-4.58135763422944E-06	-5.91257674058146E-06	0.976661422383082	-0.208357599382862
8.7	0.0025322156785581	0.0055422619857194	-1.50340603501592E-06	-2.09162872893033E-06	-3.5510254777366E-06	3.64595228782059E-06	0.975571643186946	-0.210730988711136
8.8	0.00260147141734877	0.00580834984480154	-5.50280545465638E-06	-2.11184119761604E-06	-7.23827950076383E-06	-1.25698033445661E-06	0.974740290251378	-0.212780988678218
8.9	0.00257109989722344	0.00620272792801189	8.57148093570019E-06	4.08497648741861E-06	-1.41307223447395E-06	3.20533191834724E-06	0.974420959732813	-0.214535841457746
9	0.00347659692113237	0.00728685248273138	-4.88898073573413E-07	4.16593465764119E-06	-7.82119610585422E-06	1.25217573701738E-06	0.97412254703241	-0.216431765681017
9.1	0.00469444140069773	0.00691247360908213	-2.54091191077679E-06	6.64531624812843E-06	4.09915196881132E-06	-3.09353146948593E-06	0.974164490442603	-0.218379556592171
9.2	0.00555549011564159	0.00671893672247508	-1.16739543541735E-06	3.43082208676853E-06	-2.25382958689652E-06	-2.05288929719109E-06	0.974157228416619	-0.221166378082398
9.3	0.00657603108720064	0.00618518727051629	2.31149741274455E-06	-4.05229733380762E-06	-8.00308712874049E-07	-1.77901024766258E-06	0.973859673524695	-0.224449886087963
9.4	0.00707649310867676	0.00537717886995075	-1.78084748238951E-06	3.9036688350979E-06	-2.08443354731993E-06	-3.56932950313211E-06	0.972315537424857	-0.228294496486881
9.5	0.00799340615059588	0.00502534537196926	3.51176855101874E-06	6.26608193771332E-06	3.5723164101011E-07	-2.14624663876212E-06	0.970406020190754	-0.229983476063768
9.6	0.00795836462772208	0.00350807043419038	4.62834628666517E-06	7.05220153217827E-06	-8.18337454230622E-06	1.27958883706798E-05	0.970129570789932	-0.23298227821872
9.7	0.00740150349133106	0.00306973511502865	-2.88018055942395E-06	-1.52490751897339E-06	-1.39260647897156E-06	-3.96100136348623E-06	0.968874289411167	-0.235724767277564
9.8	0.00701105719756022	0.00288651370220338	1.22909370369466E-07	-3.5893209699313E-06	3.04406305359701E-06	2.38968653714541E-06	0.96759384823224	-0.237580177409835
9.9	0.00640558261926663	0.00318043460069006	5.78447806888799E-06	-6.17767729257136E-07	-2.55592992871393E-06	6.7127045902527E-06	0.965889968817863	-0.237855567874259
10	0.00702537435112621	0.00424715936775593	-1.14038512328876E-06	-5.79045456068113E-07	1.36383256666039E-06	-1.1849459751359E-06	0.968151879139599	-0.237338194793965
10.1	0.00771680528119374	0.00362324723235175	7.03373687644123E-07	-8.41760837879882E-06	6.1584825375506E-06	3.59938692061085E-06	0.968093315034964	-0.241516098797451
10.2	0.00784913923211967	0.00344001993367411	7.49834655157453E-06	8.30070884742116E-06	5.22419061505359E-06	3.5197772968228E-06	0.966370498617241	-0.243004119435261
10.3	0.00803459650215925	0.00324841039022267	1.7476320236197E-06	-6.94673353366763E-06	1.42617157993844E-06	2.86187821569046E-06	0.96503673414304	-0.244071386581731
10.4	0.00794770116117244	0.00337918868323952	-4.02118295524655E-06	-3.63365842957201E-06	1.95057462296711E-06	-5.5882822565951E-06	0.964148637248778	-0.244794747222584
10.5	0.00911018331867216	0.0042306072895979	3.6711442820386E-07	-7.05946593281965E-06	-5.71995115949373E-06	4.07379454084514E-06	0.964582578422033	-0.246882662952264
10.6	0.0104984668028074	0.00354094243283496	5.48111867994362E-06	6.71635152000863E-06	2.42909931208662E-06	1.18960168389743E-06	0.963727760441671	-0.249024418555964
10.7	0.0117411927051843	0.00271057600618144	-7.06124046890085E-06	-1.68732560333528E-06	-7.71724626214567E-07	1.55602813483252E-06	0.964211659681406	-0.251417204286528
10.8	0.0125237558145727	0.0011154908934622	1.48270143054045E-06	4.43517066344353E-06	9.39848128212232E-06	-4.45841262232165E-06	0.964210693758612	-0.254486303474674
10.9	0.0122048951273693	-0.000141352564351292	3.24787397246506E-07	7.41050279842826E-06	-5.15602531048146E-06	2.07487551173484E-07	0.963557457712382	-0.257370857481798
11	0.0129036088917598	-0.000463500940863078	-2.22457346079332E-06	-3.81666736936429E-06	1.20169917698829E-05	-3.55952474043163E-06	0.962738452616626	-0.259617997402314
11.1	0.0131898809853227	-0.00235383198276716	-6.10581810631458E-06	-4.9215319551621E-06	9.49935815442693E-07	5.56569099799603E-06	0.961288492317338	-0.262140851309729
11.2	0.0128721809814463	-0.00360749492638958	3.30981390164121E-06	4.29635490592712E-06	1.05976388798004E-06	-7.86392443365547E-06	0.959603470557034	-0.264144317749015
11.3	0.0126484369640677	-0.00491412919317913	7.10115006762544E-07	-2.65412489328037E-06	-4.82785584706973E-06	9.10403904789945E-06	0.95820949244223	-0.266285406477437
11.4	0.0118359397174899	-0.00602882179089479	1.47088637602525E-06	-2.20033464809227E-06	-3.01505893549586E-06	-7.41852694188455E-06	0.955539119549168	-0.268959666909179
11.5	0.0119876781801092	-0.00654010744512673	9.44044757987768E-07	-1.00615596166476E-06	-8.98612478206114E-07	-8.67874322701095E-07	0.953629374794088	-0.268834889498056
11.6	0.0114722772547517	-0.00882740606579915	1.120222338409E-05	-3.25545619697487E-06	-5.40194674320081E-06	-6.82120409540806E-06	0.953896245362494	-0.272346301545108
11.7	0.00992446478368426	-0.0102116943272027	5.31799560589923E-06	-2.88798097752945E-06	-4.40238472570996E-06	1.64592510406914E-06	0.951954465991494	-0.276004620547143
11.8	0.00825867889015529	-0.0109094998828365	-4.48589441348892E-07	-2.5414482924358E-06	1.05438556687381E-06	1.32291921690344E-05	0.949669347035025	-0.278587794252173
11.9	0.00671389588872113	-0.0105672938426209	3.30886366188698E-06	1.98766604611225E-06	-3.63581800738848E-08	1.26872301144347E-05	0.948143342436063	-0.277847888837031
12	0.00743201694606847	-0.00976074906458066	1.99813795694915E-06	4.90693901620449E-07	-3.6883796971276E-06	-9.82455913639881E-07	0.952589083857417	-0.277176411614913
