# GHZ S RI R 50
0.2	3.71108270893677E-05	0.002563781420813	6.32235761304503E-06	-9.96381357147723E-07	1.06709560484488E-05	1.05429708737781E-05	1.00127489974656	-0.00611627748137428
0.3	0.000771187756896914	0.00265447547118958	5.82394230587383E-06	5.06105503658353E-06	8.11333581520214E-06	2.97559619809101E-06	1.00153078555613	-0.00895308389365069
0.4	0.00131082901476715	0.00314827471701935	-2.72800029352002E-06	7.89553856076811E-06	-4.77650726217211E-07	-4.44771470264933E-06	1.00251498854017	-0.0114870671686664
0.5	0.00284653261682605	0.0029106911163151	2.3163937360196E-06	1.48291207516372E-06	7.53568607263408E-06	-1.05981589850144E-06	1.00322868808482	-0.0163838908333746
0.6	0.00228764687168631	0.00184651423653134	3.2088782259782E-07	3.54868473966425E-06	2.7858461146485E-07	-7.67965756585357E-06	1.00172218562095	-0.0195319685869596
0.7	0.00178730875345686	0.00232495895564168	4.18021877030648E-06	5.10321398529558E-07	-3.90858362401814E-06	-7.68617473311457E-09	1.00149637359476	-0.021814859960382
0.8	0.00174172297759187	0.00281389371396494	-2.90300213711891E-06	2.9741298792622E-06	-6.85196505982938E-06	1.31912417409984E-06	1.00157088708147	-0.0238036514554051
0.9	0.00149632642936812	0.00362322578051991	6.06732763785256E-06	9.08009347430428E-07	-7.37824692872558E-06	-1.847084587337E-06	1.00159978911439	-0.0256753533671282
1	0.00294676904255978	0.00512562296579539	2.37577613535055E-06	2.96026582212943E-06	-9.09709177901748E-06	-2.56575518071876E-07	1.00314048716872	-0.0267884376626074
1.1	0.0040011066679775	0.00348735218820683	6.47176203422303E-07	3.50870841042977E-08	-5.32594287856648E-06	1.41563209263842E-06	1.00312809666684	-0.0307178717968168
1.2	0.00328844633828812	0.00265168480249357	-5.32262635800346E-06	-3.29930317304621E-06	-1.12514018984142E-05	-1.27047078186744E-05	1.00188232993318	-0.0321923945997582
1.3	0.00244175848594119	0.00174819196911728	3.06791841271559E-06	3.11194294785915E-06	6.9811888078733E-06	-4.11321711669519E-06	1.00129100703144	-0.0338162892157491
1.4	0.00147238965464111	0.00131596108530773	-2.81104180508157E-06	-1.11211346469082E-06	5.73302422514113E-06	5.16639630996181E-08	0.999943329716044	-0.0360341221529737
1.5	0.0021392937360817	0.000914153438732064	1.24092061532433E-06	-2.54413632132736E-06	8.08382453710324E-07	2.51948422202901E-06	1.00136876294465	-0.0393491933355029
1.6	0.00124308599020087	0.00064229014854424	-9.4677334101095E-07	-6.44169051240467E-06	3.19278864769515E-06	-4.26664145370638E-06	1.00066288200586	-0.0435285111024063
1.7	0.00147761398246468	0.00162290126772779	3.42324030304114E-06	6.29942545536311E-07	2.25297788060339E-06	3.86699694980363E-06	1.0011624031888	-0.0457469445387758
1.8	0.00199550985353958	0.00226863815788231	-2.38348415446641E-06	2.91721602688507E-06	-1.02762955339636E-06	-4.01555955127633E-06	1.00126052703118	-0.0481891678373601
1.9	0.00264983297159868	0.00297142873467727	-3.75418526363253E-06	-1.7644642572288E-06	5.66308739445792E-06	3.03592383678817E-06	1.00175691654503	-0.0489429597106757
2	0.00459933838061296	0.00271076003320139	-6.23564611590929E-06	-5.79089622997918E-06	-2.0847109304088E-06	9.23352758162548E-06	1.00618154828985	-0.0519493126757488
2.1	0.00403890644654902	0.00104296141935044	1.20289667825416E-06	4.63827808799301E-06	4.53783749761448E-06	4.00320036577787E-06	1.00513309813738	-0.059225457217867
2.2	0.00325732538014174	0.00115712487803244	6.65626755093768E-07	9.09840051830582E-07	-3.71157263198486E-06	-1.09971457060729E-05	1.0031423101875	-0.062206094511662
2.3	0.0027926825459236	0.0013917132736635	-2.28131164567815E-06	3.59681805469741E-06	-5.54029728135642E-07	-2.81223936344239E-06	1.00188692641817	-0.0640778593882822
2.4	0.00229504177187599	0.00211443803418894	-1.57634153276787E-06	-1.45626415062469E-06	1.28697721591709E-06	-1.01348144785874E-06	1.00126520644341	-0.0669264299189615
2.5	0.00344959124867429	0.0030334597669358	7.86547671510012E-06	4.02699262450483E-06	-2.41514361639265E-06	-7.25506359829915E-06	1.00139063811932	-0.0690982670737376
2.6	0.00373748192399808	0.001768781016247	5.03912845287833E-07	2.12512756635684E-06	-1.44264086113188E-06	4.72067299483137E-06	1.00126488047246	-0.0726844843407596
2.7	0.00324323431428318	0.00155957446345455	-7.8741762628471E-06	5.32558673068238E-06	2.61586638487779E-06	9.75796091734866E-06	1.00100000559728	-0.0763109519636401
2.8	0.00291713341041401	0.00172844511451716	-7.72709980547812E-06	8.06191303038737E-06	6.20556939701758E-06	1.99863869157041E-05	1.00072574630347	-0.079243485407669
2.9	0.00297129210686271	0.00236882429644451	-1.18870623617885E-06	8.75298570473735E-07	-8.19009879544555E-06	-2.90579207952414E-06	0.999660543808778	-0.0817986988172841
3	0.00437142978311425	0.00235779649399104	-6.54649878153853E-07	-4.48389105912791E-06	-2.13231787679662E-06	6.4844523026372E-06	0.99903124838397	-0.0845324667325649
3.1	0.00397569081114179	0.00137892160565233	-2.59735329540504E-06	1.12815418480343E-07	1.10255931358061E-05	-3.63937095284457E-06	0.997928802677184	-0.0872291577379406
3.2	0.00372839113468757	0.00161566816971062	-9.80632249639939E-06	2.65088288582928E-06	1.22434862986373E-05	4.15919794273725E-06	0.996679380306451	-0.0892986477619618
3.3	0.00371110078382786	0.00173566893447519	-3.4664227565606E-06	9.71834646503209E-07	-5.02335061562251E-06	-9.13267921464933E-08	0.99519855802487	-0.0928171540696562
3.4	0.00372742121256308	0.0022286940713954	5.3553245148117E-06	4.27886258374899E-07	1.35452299438568E-06	4.32103719339246E-07	0.993228926827177	-0.094428582560506
3.5	0.00507499993018159	0.00211135485293403	2.77936499698728E-06	1.53067290010049E-06	1.31804650224326E-06	7.79297046649524E-07	0.992956898773118	-0.094845425747458
3.6	0.0044523911769754	0.000767608204217368	-7.14926742142997E-06	-7.04513237972608E-08	1.83410678660433E-06	-3.51369488994046E-06	0.993695753350573	-0.0984708476845889
3.7	0.0036711548225947	0.00102285580881742	5.76012700081284E-06	-1.56753818345817E-06	-3.41665705101827E-07	-1.72875565748036E-06	0.992188092520016	-0.101803578004417
3.8	0.00344829304695045	0.00156177641074016	-1.99103355345375E-06	8.95228841257513E-07	-5.18370011244422E-06	3.48924589257609E-07	0.990397289353883	-0.103253967072847
3.9	0.00375558817805024	0.00244121292515477	-8.33455576211033E-06	1.8503965046556E-06	-4.1229773389908E-06	-1.4607264737227E-06	0.98980158581719	-0.104086710028148
4	0.00572715066609852	0.00232111360668467	-5.82435864382955E-06	4.19289884220343E-07	-9.57657175296493E-06	-8.37010175860696E-06	0.993629504926724	-0.105241810867663
4.1	0.00547801313624464	0.000526169396771858	-3.93607017977016E-06	4.10704128099513E-06	-1.81453514620011E-06	5.59688830435405E-06	0.991957699851847	-0.11119258529574
4.2	0.00480081401240782	0.000245789560240868	4.55750154115703E-06	-4.42456679394476E-06	6.74297072730976E-06	6.76365932388992E-07	0.989074240877685	-0.11373394437405
4.3	0.00437809076839234	0.000260556791254847	-3.76981598516441E-06	1.16411322360909E-06	3.52281668156008E-06	-1.24038022746152E-06	0.987727797113867	-0.115127360067562
4.4	0.00406437605737772	0.000774721155866266	-3.19069229668768E-06	-4.88128640945693E-06	9.14991056008024E-07	-1.04248868269312E-06	0.986832778671886	-0.116735324900511
4.5	0.00535453346410252	0.000888344195605071	-1.35802539017799E-06	2.03563327403322E-06	2.02597982606296E-06	-8.45076927996662E-06	0.986519884734169	-0.119667335762764
4.6	0.00465516227527461	-0.000727736228241274	5.44989963606669E-06	9.46322369344108E-06	-1.39869080672328E-05	9.87992064061026E-06	0.984213841245617	-0.122104262902384
4.7	0.00361575554597784	-0.00065898369269411	-7.61559332257196E-06	-9.41880871320715E-06	-1.13717023712578E-06	-1.23740899432826E-07	0.983418385100898	-0.123207515201227
4.8	0.00298880727698171	-0.000253612054702658	-8.69601965002458E-06	-2.59425580922771E-06	-4.30709977918483E-06	4.54325559167276E-06	0.982446842714233	-0.125202368473887
4.9	0.00276888019766349	0.000639492504821899	5.79461100485593E-06	8.19844312057466E-06	-7.16802316424765E-06	3.31376031458148E-06	0.981223223114162	-0.126436931560718
5	0.00426198021762164	0.000692716790605563	4.16829090221421E-06	-8.4884258906208E-06	-4.29672956856525E-06	-6.08279949581596E-06	0.980467758957714	-0.127045094331502
5.1	0.00362216873454095	-0.00039786220323205	1.50076902292001E-05	-1.02310745413287E-05	3.40338698576283E-06	-8.65752866879784E-06	0.980022072030901	-0.127665701651114
5.2	0.00333178520115453	1.80269014729831E-05	-4.21705063071459E-06	-4.64685831691971E-06	-3.12993001807027E-06	5.36043939655507E-07	0.979248631037025	-0.129062742917257
5.3	0.00358148720314793	0.000288057356985653	4.74593904921553E-06	3.31354090789144E-06	-9.22545909691036E-06	-4.64672846019507E-06	0.978491320232147	-0.130561226496829
5.4	0.00403966598910649	0.000753007576706197	5.12411747893713E-06	1.15747552579454E-06	-4.1242289661391E-07	1.03323912979463E-05	0.977374128372662	-0.132157656794601
5.5	0.00597498317130516	-0.000134930601177468	-1.7909462523666E-06	-1.94850942907045E-06	8.75631368967717E-06	4.81494364575337E-07	0.9779207124018	-0.132108495275025
5.6	0.00443282511597862	-0.00208654216134039	4.19656098887567E-06	7.13849971168745E-06	-4.63026403307825E-07	-8.50712861800195E-06	0.97887977357183	-0.135315895754331
5.7	0.00311714405125287	-0.00162578071140816	2.03061926075139E-06	-7.14053458279536E-07	5.40685179233275E-06	2.42296586926199E-06	0.97770230999487	-0.137567018563879
5.8	0.0024644840651472	-0.00102535563051529	3.86322179031129E-06	1.93860784572527E-06	2.69492419759334E-06	7.73908671402262E-06	0.976710776919697	-0.138315342942658
5.9	0.00196954251039684	0.000189043775314228	-3.73046494510192E-06	-3.03144371223731E-06	-4.63948902840631E-06	-1.77141062744451E-06	0.976725320198127	-0.13712413763587
6	0.00398012329244155	0.00107047534507819	-2.06354347932785E-06	1.68619498574154E-06	1.03529198689677E-05	-2.6178018705701E-06	0.982419190915353	-0.138499112396457
6.1	0.00373250492535975	-0.00130032276177124	-7.25296104991535E-06	-1.09108885455111E-06	-7.18555971947101E-07	-2.4580217159573E-06	0.980700529068736	-0.144188347113099
6.2	0.00211824806982742	-0.0016553499443442	-1.05136764710368E-06	1.96450148929471E-06	-3.4363863138094E-06	-5.30340164414793E-06	0.978256548851713	-0.144672560806983
6.3	0.000932026536173384	-0.00125022419597959	1.55172507727087E-06	2.80145537377042E-06	1.11819092042456E-06	5.90540849988821E-06	0.977460234069168	-0.145071597907516
6.4	0.000484937736718243	-4.00968489856852E-05	2.0320723185163E-06	4.99123328452346E-06	-3.30570666022481E-07	2.23884837460615E-07	0.978343236970529	-0.145791427048344
6.5	0.00202563612544469	-0.000546136432783485	4.61777810278609E-06	-1.85400984043688E-06	-4.63671880891924E-06	-1.53493577807673E-06	0.978923635841004	-0.151508757939259
6.6	0.000315121119740678	-0.0013243950448078	3.2517396398993E-07	-1.05320280474365E-06	9.15771840117909E-06	3.32491599661128E-06	0.974866547170907	-0.152558330002532
6.7	-0.000230047464799367	-0.000318166433909173	4.88934764124763E-07	5.54377989344926E-06	-1.79671965971773E-06	4.89946892295963E-06	0.974930937882815	-0.152270327049207
6.8	-0.00047280532837754	0.000420021613569365	1.85194721035222E-07	-1.56675982240726E-06	-3.39954516492404E-06	-5.08527415586182E-06	0.975150699897745	-0.153100754350042
6.9	-0.000467557793748001	0.00194578558519947	-6.62536267493913E-06	6.59482891509517E-06	2.25245167835233E-06	1.35733438612195E-06	0.975570203014114	-0.153261526487859
7	0.00217164898396002	0.00197175491745857	7.96857183285768E-06	3.19671195947243E-06	4.47226763364935E-06	5.83807689315965E-06	0.978265946707254	-0.154602839820104
7.1	0.000671048109523408	9.0749941696932E-05	1.3743095790714E-06	7.88396673152501E-07	-2.20805353923237E-06	-4.45095854770824E-06	0.97736039497712	-0.158063325885234
7.2	-0.000605562178116959	0.00101876348806427	-1.78188830845147E-07	4.35296944011632E-06	-4.95520709682373E-06	-7.01615541569615E-07	0.975921636418824	-0.159342974372275
7.3	-0.0012518203041505	0.0020685368508508	1.3923244401632E-06	-5.19816655196275E-06	-2.29656586533128E-06	-2.78587251648573E-06	0.974032694780364	-0.160524049856784
7.4	-0.0018327077260868	0.00389355537105067	1.76760031135077E-06	4.39060397392653E-06	-7.07941233840226E-07	-1.06493548167679E-06	0.970497722357594	-0.160269376504627
7.5	0.00067983105311986	0.00549054100534147	-5.65215450043951E-06	-1.56790285658068E-06	-1.41543650809013E-06	-8.82564087385551E-06	0.973013900708376	-0.155374235709496
7.6	0.00067292760209438	0.00346508034458656	5.64540203042189E-06	-3.271092105816E-06	9.62657893128702E-07	3.18739241602264E-06	0.977547672189145	-0.160649985363598
7.7	-0.000303721337938645	0.00360644042899246	-6.42509385627392E-06	-2.95111025774938E-06	4.26458128147935E-06	5.71125803569858E-06	0.977295667087039	-0.16468517923612
7.8	-0.000673071384081226	0.00415348900608198	-9.91768568008472E-07	-5.34928716379036E-06	-2.30843431395327E-07	1.13483766314597E-06	0.977317990264027	-0.166896271701838
7.9	-0.0001920917553746	0.00525744869439509	-3.46660970604041E-06	7.1234839293342E-06	5.9493183050924E-07	-6.84721044043444E-06	0.97925623842989	-0.166934905727317
8	0.00216206000905972	0.00389261342536706	-3.70342186033211E-07	7.39949518761577E-06	1.85895932449431E-06	-4.4362188959545E-06	0.98765804725602	-0.172011919800961
8.1	0.000345479305504649	0.00265101605116016	-6.50519033948437E-07	-6.49763341956769E-06	-1.73900637512607E-06	-1.09117935258978E-06	0.985158918516334	-0.181313867309584
8.2	-0.000401652055952287	0.00355847014071839	-3.85815148848584E-06	1.60491116571644E-06	-1.09607875473522E-05	-2.76775145498994E-06	0.982843080264178	-0.183828438414262
8.3	-0.000690184578790469	0.004438949811539	-5.43192632118209E-06	-9.96233905066803E-06	-7.8496821674129E-06	2.92485313843292E-06	0.982054114748522	-0.186102839720901
8.4	-0.000644657681849658	0.00625662526726046	6.87472319250283E-07	-6.04368896949984E-07	-1.42767138888104E-06	4.24988976702391E-07	0.982119950436303	-0.188506472636052
8.5	0.00228084911104518	0.0067703982681406	-1.75456358573836E-06	-2.75532244125399E-07	-2.61678071252018E-08	1.80839503253021E-06	0.982092808027602	-0.192789041292225
8.6	0.00150124471397711	0.00510640609284045	2.48194767017894E-06	-3.95039507989554E-06	-4.49966566692857E-06	-5.99175923529979E-06	0.980574015929534	-0.195183402115236
8.7	0.000867452408041211	0.00612325937915606	-1.47732019026994E-06	-2.12211321087763E-06	-3.61932615899828E-06	3.60571083020306E-06	0.980851304183694	-0.197151344291367
8.8	0.00110972293416706	0.00724814079818604	-5.50165503609533E-06	-2.20181832625313E-06	-7.2585484604973E-06	-1.36729292555131E-06	0.98141119206777	-0.199479635387987
8.9	0.00189920428318011	0.00876991604743531	8.57256348808826E-06	4.21786164917177E-06	-1.46206376349624E-06	3.20717790639509E-06	0.98226047315711	-0.201790125738728
9	0.00531299417566795	0.00904942295396797	-5.42218412891636E-07	4.17884500680558E-06	-7.87205302437066E-06	1.16192013192443E-06	0.983134519205486	-0.204284881969899
9.1	0.00576513783434471	0.00692419611632824	-2.6443554026469E-06	6.64927814076035E-06	4.1639677210669E-06	-3.05634990767955E-06	0.983959631515713	-0.207349225079768
9.2	0.00608134291608672	0.00645499884528755	-1.21975284541011E-06	3.43781719567857E-06	-2.24163569872757E-06	-2.095619566954E-06	0.984104124285651	-0.211004995205338
9.3	0.00652039340064242	0.00585038571212551	2.37921634375977E-06	-4.04997135148637E-06	-7.82847633275169E-07	-1.80132335463587E-06	0.983461861964057	-0.214720927906962
9.4	0.00699153026373385	0.00591084084252522	-1.84335737213162E-06	3.90488617038919E-06	-2.05068585267113E-06	-3.61921649004139E-06	0.981490163723187	-0.217407375634557
9.5	0.00895966235802854	0.00436881978800449	3.43727871942576E-06	6.37010925124994E-06	3.94545514519655E-07	-2.15671896466171E-06	0.982525244214831	-0.217874227906544
9.6	0.00709472063162231	0.0026202154767268	4.57546272115968E-06	7.20112838980133E-06	-8.46703478953487E-06	1.28185773979783E-05	0.983578027877743	-0.223368674547201
9.7	0.00626804434523771	0.00323189892924885	-2.89524677990005E-06	-1.58227566028771E-06	-1.3567127482212E-06	-4.02846351986497E-06	0.982402642736511	-0.22685366355979
9.8	0.00612357813468569	0.00379180460405385	1.71119727719005E-07	-3.63467717507136E-06	3.0528556271928E-06	2.46046922740684E-06	0.981772364655148	-0.228475431602974
9.9	0.00637443594170671	0.00501477300595247	5.88152635824734E-06	-5.49185349364055E-07	-2.68571046475028E-06	6.78116202352204E-06	0.983132354478196	-0.227651067166043
10	0.00925207704222619	0.00470828950725398	-1.15686168237453E-06	-6.00968999390285E-07	1.40128238913913E-06	-1.19486274751911E-06	0.990768678200607	-0.233293487706569
10.1	0.0084735129971969	0.00240126341080757	7.71094231601317E-07	-8.5557096243362E-06	6.23907431039103E-06	3.70125070715274E-06	0.986300849991943	-0.24169265710099
10.2	0.00765191389545027	0.00248151833400573	7.57074232298016E-06	8.48962205284371E-06	5.28938308743414E-06	3.61321014225788E-06	0.983222632197251	-0.243043977323044
10.3	0.00741040372423182	0.00290251788425042	1.81852124596938E-06	-7.06177101211782E-06	1.43557345229131E-06	2.92145908657206E-06	0.982104170102584	-0.244408367563556
10.4	0.00792824057909068	0.00403390595087273	-4.08730830084269E-06	-3.71750242073712E-06	2.00689398038135E-06	-5.69039858587142E-06	0.982564890569494	-0.246415481574265
10.5	0.010871687486458	0.00334898702458371	3.7504843346235E-07	-7.18375390326708E-06	-5.82156399050508E-06	4.14437283430176E-06	0.982653349206251	-0.252345162009968
10.6	0.0104745556296612	0.001240372959627	5.56962854772711E-06	6.83804112702023E-06	2.4700493662486E-06	1.21256281241883E-06	0.980201189657101	-0.255346910312321
10.7	0.0102904852364526	0.000751229874211927	-7.19156491700501E-06	-1.71670986177568E-06	-7.8555801933978E-07	1.58484083304126E-06	0.980035788890017	-0.2591204910261
10.8	0.0100579068533435	0.000315581278628612	1.51926225668892E-06	4.51558761050972E-06	9.56630763079297E-06	-4.56062104708125E-06	0.978847757980752	-0.263058226613066
10.9	0.0101520802759107	0.000855718081973564	3.60743067421172E-07	7.54702098866353E-06	-5.2510855795567E-06	2.32160613192929E-07	0.977945984894847	-0.266137870685114
11	0.0128024906336735	-0.000110146257159662	-2.28005712162036E-06	-3.87060443424324E-06	1.22030147854117E-05	-3.67609637467563E-06	0.977475534045519	-0.269618688836744
11.1	0.011733402508388	-0.00245034620833249	-6.23466235303131E-06	-4.97753261084519E-06	9.92784741199062E-07	5.65731212704833E-06	0.974588832175906	-0.273444982053747
11.2	0.0112228460391578	-0.00273346596464165	3.39247509003309E-06	4.35037425194691E-06	1.0308355317631E-06	-8.00547532413946E-06	0.971607401197388	-0.275822620890995
11.3	0.0112939106388441	-0.00300742448514592	7.02687533675879E-07	-2.70180510959483E-06	-4.8408088002536E-06	9.28456536934307E-06	0.968135072082033	-0.277376337308669
11.4	0.0115250961847341	-0.00295796369435416	1.47535710285362E-06	-2.24130195627015E-06	-3.11008567770039E-06	-7.49925241102084E-06	0.963888590154178	-0.277786259614815
11.5	0.0139206127499446	-0.004867985366838	9.53771361166812E-07	-1.02536409428998E-06	-9.15875995777651E-07	-8.7693172444937E-07	0.966470414058893	-0.276407689260756
11.6	0.0122381027201856	-0.00813099975334553	1.13696295027115E-05	-3.38989729755888E-06	-5.5419313374774E-06	-6.89899055980313E-06	0.966699271810965	-0.283976352301956
11.7	0.0108001489198061	-0.00901773854216626	5.37794076114348E-06	-2.98167681670747E-06	-4.45862212309573E-06	1.71150203554354E-06	0.963279801688287	-0.288345113171678
11.8	0.00981975322639922	-0.00961356193114461	-4.79262353459046E-07	-2.57607459828928E-06	1.19448201953603E-06	1.34214379722996E-05	0.960807030065493	-0.29052976285105
11.9	0.0100351323653746	-0.00951258273728745	3.3827043046617E-06	1.99017615402843E-06	8.0939989089074E-08	1.28998687874202E-05	0.96297717181028	-0.289618726532658
12	0.011814030816706	-0.0120842037508547	2.04351613109171E-06	4.7229858795107E-07	-3.77321275848305E-06	-9.4997872062326E-07	0.970951437901298	-0.297744685432991
