# GHZ S RI R 50
0.2	-2.10698825325853E-05	0.00318506420572228	6.31792222612335E-06	-1.00046341536523E-06	1.06724903875545E-05	1.05289266141113E-05	1.00068531108572	-0.00617677219613881
0.3	0.000715833491293903	0.00314410777220752	5.82238151045192E-06	5.05440828166194E-06	8.10905247739119E-06	2.96926140950494E-06	1.00081271345848	-0.00892504124380826
0.4	0.00129774474321881	0.00346977993537324	-2.72298188935355E-06	7.88832132387294E-06	-4.78437537164303E-07	-4.44307364172921E-06	1.00153033251594	-0.0114042645084116
0.5	0.00254180881682859	0.0033002652887527	2.31384515674969E-06	1.48209476692248E-06	7.52886210625101E-06	-1.05694014028298E-06	1.00195168254012	-0.0156963988236963
0.6	0.00236007255317311	0.00257052455469766	3.20796154887213E-07	3.54612455441315E-06	2.78084450227786E-07	-7.67415513620528E-06	1.00098463675469	-0.0186893082425735
0.7	0.00217147956788936	0.00284950031118854	4.1759039640445E-06	5.09094998901419E-07	-3.90447177593446E-06	-7.03350887901729E-09	1.00076821839791	-0.0211916197253682
0.8	0.00226187435245726	0.00313142210884472	-2.8987932795251E-06	2.97044544479964E-06	-6.84263213458553E-06	1.31807688210649E-06	1.00076010764953	-0.0232587647745898
0.9	0.00212622727224068	0.00365133458371583	6.05750235259219E-06	9.06622271181052E-07	-7.36628879209345E-06	-1.84419629345429E-06	1.00073939064788	-0.025286296941082
1	0.00309831263922253	0.00478496636206203	2.37030194604517E-06	2.95619470394684E-06	-9.08115406411343E-06	-2.60254312596166E-07	1.00177386283502	-0.0264690248981844
1.1	0.00391222442466366	0.00389722673863189	6.46337278489301E-07	3.54572756804307E-08	-5.32013043503363E-06	1.41043540920627E-06	1.00189667933891	-0.0295858394330623
1.2	0.00365114111512932	0.00355478704081799	-5.31605466619217E-06	-3.3000746666326E-06	-1.12337418123783E-05	-1.27015993773661E-05	1.00142671969738	-0.0305839210060642
1.3	0.00342835164853244	0.00299436177572092	3.06470883067875E-06	3.11356300758319E-06	6.98265403781843E-06	-4.10671370404608E-06	1.0019287135521	-0.0317274089095274
1.4	0.0029799826056431	0.00232179522922733	-2.81036789851704E-06	-1.1145718921303E-06	5.73350767132991E-06	5.64741943296609E-08	1.00138738872649	-0.0340475012422118
1.5	0.00339987140194975	0.00160625600551033	1.24251861376091E-06	-2.54276790743617E-06	8.06418942218736E-07	2.51959453779604E-06	1.00221441118341	-0.0376801008320767
1.6	0.00260274601144656	0.00100052003648073	-9.41372080991563E-07	-6.43684777176841E-06	3.19309437319439E-06	-4.26071183415517E-06	1.00094614015688	-0.0419819720251247
1.7	0.0025320892434454	0.00147756706019192	3.41806027576893E-06	6.31895805156509E-07	2.24673344987929E-06	3.86358005088811E-06	1.00076700182255	-0.0444962670154609
1.8	0.00269027310569427	0.00187859695723621	-2.38197069845281E-06	2.91035849999363E-06	-1.0225440501922E-06	-4.00974206510669E-06	1.00030006410603	-0.0471639907249869
1.9	0.00296658384207687	0.00239137769847457	-3.74559232362996E-06	-1.76319973379191E-06	5.64989864457381E-06	3.03326612566752E-06	1.00011473083459	-0.0483998635119044
2	0.00428764515428823	0.00238530886115938	-6.21207295956915E-06	-5.77818806824067E-06	-2.08566250803686E-06	9.20375359243476E-06	1.0027889852394	-0.0510041923547695
2.1	0.00397294574423547	0.00118998630523672	1.19124135639883E-06	4.62683933736068E-06	4.5175542990739E-06	3.99947048041803E-06	1.00205331842753	-0.0567525284307379
2.2	0.00337758423837189	0.00122701723846149	6.62169613015281E-07	9.0871854414775E-07	-3.68111336136782E-06	-1.09754095179517E-05	1.00058650829043	-0.0595793026063557
2.3	0.00294762461408818	0.00135416130177622	-2.28253479161355E-06	3.58315060523775E-06	-5.47098274351359E-07	-2.80613795005348E-06	0.999514580037509	-0.0614252622834181
2.4	0.00239371564216349	0.00188942585013222	-1.56907262250824E-06	-1.45589482300017E-06	1.28582629943416E-06	-1.00804631363239E-06	0.998922844145404	-0.0642718632980036
2.5	0.00299743624118714	0.00282340501226521	7.83655263399518E-06	4.03740095648259E-06	-2.39097407873453E-06	-7.24395456004603E-06	0.998757614643428	-0.0662428419708672
2.6	0.00329706221998409	0.00221473012524313	4.97654239409889E-07	2.12159898242003E-06	-1.45082204068945E-06	4.70664616019378E-06	0.998631173343112	-0.069338191678941
2.7	0.00310295840277557	0.00223811995140329	-7.86904325121164E-06	5.29322471704131E-06	2.58514213003413E-06	9.74157092262213E-06	0.998474059697536	-0.0725629201591358
2.8	0.00306026921529955	0.00245609182830549	-7.73123355972739E-06	8.02187677446512E-06	6.13617317287221E-06	1.99568286398029E-05	0.99849592081986	-0.075147581609457
2.9	0.00328147706812386	0.00296118207826158	-1.18889043137042E-06	8.6986784370254E-07	-8.16423326894565E-06	-2.92461368772346E-06	0.99789592652728	-0.0775557050143677
3	0.0045817356967321	0.00304285457621769	-6.39997971238789E-07	-4.47950026811643E-06	-2.14911648004462E-06	6.46868216007756E-06	0.997759475720566	-0.0802779741269733
3.1	0.00467003500496469	0.00211206903223794	-2.59454134980422E-06	1.05153645478882E-07	1.10228136179286E-05	-3.6030279061664E-06	0.997250413609	-0.0829564822863194
3.2	0.00465207750183935	0.00198943181127905	-9.80568684545876E-06	2.61958355434801E-06	1.22205991505768E-05	4.19181954868197E-06	0.996619226894495	-0.0852645956912291
3.3	0.00466677791346668	0.00174016621399369	-3.46788679106002E-06	9.60861888795078E-07	-5.02090643805828E-06	-1.06581243778529E-07	0.995696331385979	-0.0890492458267593
3.4	0.00452405859325879	0.0018194252758576	5.35510884701295E-06	4.44357939777133E-07	1.35347755758918E-06	4.36336032120542E-07	0.994290705869374	-0.0911457326178988
3.5	0.00534295790664975	0.00169058593170336	2.77736734156411E-06	1.53810641434199E-06	1.31697333116803E-06	7.82853119494493E-07	0.993731209014032	-0.0923725968907673
3.6	0.0048214175264349	0.00055958156340786	-7.15032407814388E-06	-8.77344750514925E-08	1.84290984474404E-06	-3.50986705877636E-06	0.994143521565052	-0.0955473043606339
3.7	0.00402758371367634	0.000661953659153958	5.76636525731E-06	-1.55252372706183E-06	-3.37114692937794E-07	-1.73028000939993E-06	0.992970467213972	-0.0986778037150637
3.8	0.00365989808373443	0.0011122044435703	-1.99471105209787E-06	8.90366453566739E-07	-5.18787950474454E-06	3.35030547924455E-07	0.991492535522673	-0.100260406576203
3.9	0.00373078031596595	0.00192786127813899	-8.34487183809891E-06	1.83119901103774E-06	-4.12224237324498E-06	-1.47186801753575E-06	0.990860798191246	-0.101606961492932
4	0.00527232148926192	0.00217594225220844	-5.8263582335599E-06	4.03063430755669E-07	-9.55452744213598E-06	-8.39806837586432E-06	0.993684715704441	-0.102299643539422
4.1	0.00540969747898567	0.000795866550194252	-3.9538950227402E-06	4.09687060384651E-06	-1.83571232349261E-06	5.59544855938609E-06	0.992972627665859	-0.107258112543073
4.2	0.00496593878560867	0.00040112732321857	4.57950610203045E-06	-4.4160177531808E-06	6.7511239211566E-06	7.00195527719127E-07	0.990902345672474	-0.110036906816831
4.3	0.00459146428488879	0.000288749135066702	-3.78087477802393E-06	1.15428812400722E-06	3.53363999907366E-06	-1.2314953153336E-06	0.989986779854837	-0.111745349405192
4.4	0.00419392841728109	0.00063343970909687	-3.18197979458191E-06	-4.90192328990319E-06	9.20275607798643E-07	-1.04180863122944E-06	0.989230253193299	-0.113603440816156
4.5	0.00508654964821288	0.000972708816531258	-1.36865950413035E-06	2.03671378778944E-06	2.0600893315088E-06	-8.46742662539794E-06	0.989072942883615	-0.116311959622014
4.6	0.00481417317449008	-0.00021678718267074	5.44096852816206E-06	9.50754401905867E-06	-1.40574040668062E-05	9.87239324691167E-06	0.987269827434895	-0.118882729012607
4.7	0.00414056627142015	-0.000312256971108777	-7.61359425382463E-06	-9.46638915353311E-06	-1.14020438711591E-06	-1.27060616549175E-07	0.986649976580659	-0.120112640880634
4.8	0.00368527000917651	-0.000191008358362918	-8.71446286534625E-06	-2.62520597623138E-06	-4.33189634796245E-06	4.54495929363282E-06	0.985893854189997	-0.122198688072234
4.9	0.00339468978524376	0.000308438996727591	5.78904879284642E-06	8.24087510583367E-06	-7.20005391103126E-06	3.30340879396561E-06	0.984952318598183	-0.123626059809941
5	0.0044242615013252	0.00042068959243174	4.20679403360593E-06	-8.50955969554004E-06	-4.29682116870546E-06	-6.11738876228072E-06	0.984357135534129	-0.124590454160509
5.1	0.00400564181885833	-0.000551787889029591	1.5086866818913E-05	-1.02365869548829E-05	3.43531414745908E-06	-8.68268812332499E-06	0.983976527227241	-0.125441463497235
5.2	0.00363593211200476	-0.00030601224492772	-4.22346609237972E-06	-4.6741769717254E-06	-3.14333344249248E-06	5.31352818762876E-07	0.983378776353599	-0.127005770103761
5.3	0.00375155012867526	-5.44930702268558E-05	4.75926576995829E-06	3.33788139279654E-06	-9.25518623911326E-06	-4.68633615367942E-06	0.982971518116055	-0.128697514679531
5.4	0.00404207915769214	0.000311224162286184	5.14754056022891E-06	1.17301825968742E-06	-4.34153761905741E-07	1.03832799060357E-05	0.982356873169203	-0.130872414803979
5.5	0.0055680419999756	-0.000172700125649496	-1.79919572719744E-06	-1.96015607393991E-06	8.80282559068348E-06	4.90051223421163E-07	0.98247957503929	-0.131748786152331
5.6	0.00453619439916945	-0.00194207252329104	4.2131679070621E-06	7.17359641375493E-06	-4.61623525846606E-07	-8.54705233686756E-06	0.983152205635867	-0.134763475198416
5.7	0.00324352367907533	-0.00176052595502748	2.04043227781341E-06	-7.16546917087695E-07	5.43116642874699E-06	2.43658575177697E-06	0.9821272577472	-0.137171594313753
5.8	0.00237896001740921	-0.00126704750087764	3.88158069504728E-06	1.94847625798396E-06	2.70686511928023E-06	7.77675657062551E-06	0.981192419406188	-0.138327620740427
5.9	0.00155649563953695	-5.58694311808372E-05	-3.74897621386375E-06	-3.04415900101124E-06	-4.66176003860621E-06	-1.77791656971303E-06	0.980848815731889	-0.137813579963975
6	0.00289862229389121	0.00152957475032467	-2.07256583164128E-06	1.693170938208E-06	1.03975124082829E-05	-2.62780819478422E-06	0.985486680078178	-0.138403424210506
6.1	0.00346353882100192	0.00030168357114937	-7.29333555172937E-06	-1.09677282237286E-06	-7.22679372356068E-07	-2.4716474131254E-06	0.985390981670149	-0.143411137584716
6.2	0.00298962313351303	-5.23567515115336E-05	-1.05534892927854E-06	1.9774529336916E-06	-3.4630855810296E-06	-5.33104081268372E-06	0.984076709265103	-0.144931450477577
6.3	0.00252670388655646	-0.000304158745569479	1.56626876378498E-06	2.81436372617126E-06	1.13652083488317E-06	5.93696690606471E-06	0.983535308897068	-0.146623977607114
6.4	0.00202638148817731	1.27409402020351E-05	2.05337375205562E-06	5.01247393434097E-06	-3.31783236121371E-07	2.25754727661093E-07	0.983774326300165	-0.148186934080806
6.5	0.00300395996367294	-0.000495171329790637	4.64000027167021E-06	-1.87218780982901E-06	-4.66489509741001E-06	-1.5353824404546E-06	0.984116714070406	-0.153407463820499
6.6	0.00149886552797677	-0.00147451288978985	3.24110659481296E-07	-1.05998759003769E-06	9.21807481305832E-06	3.31845481448416E-06	0.980293601883356	-0.155319498897528
6.7	0.000726250827952615	-0.000810120117545357	5.09092621287962E-07	5.56948670412248E-06	-1.78986927153119E-06	4.92932529055364E-06	0.979679482984193	-0.155588742161561
6.8	0.000252914212604341	-0.000307204221115448	1.80704629794459E-07	-1.57424659115959E-06	-3.43163587346461E-06	-5.09603839284601E-06	0.979360477740573	-0.156768640260417
6.9	-0.000194772880629975	0.000871855011446876	-6.62913045308324E-06	6.6442152550284E-06	2.26618635583384E-06	1.35498759225084E-06	0.97915688048113	-0.157465957995464
7	0.00162990157548748	0.00142132377440715	8.01193135305935E-06	3.18036530594504E-06	4.51135213512982E-06	5.84499001506256E-06	0.980813466164821	-0.15874413801848
7.1	0.000617412077040968	-0.000103678244692608	1.38284304896704E-06	7.85702560805843E-07	-2.2349946285932E-06	-4.45881202652965E-06	0.979933242023262	-0.162088111324811
7.2	-0.000656665729376833	0.00056441977521787	-1.5872147970295E-07	4.36937861657133E-06	-4.97619022281676E-06	-6.81240764432072E-07	0.978321012362412	-0.163774371704045
7.3	-0.00154446566972785	0.00146530989769668	1.37038412302196E-06	-5.22294103145377E-06	-2.31864579611576E-06	-2.78354260468862E-06	0.976216972633733	-0.165420334079365
7.4	-0.00263059872308098	0.00307628317689243	1.80033641608363E-06	4.39462933482294E-06	-7.16822827750581E-07	-1.06420907123966E-06	0.972431599552569	-0.166301479021695
7.5	-0.00127340748014181	0.00541475633424859	-5.67437049623845E-06	-1.52669172823465E-06	-1.48663121356942E-06	-8.83026075504363E-06	0.97233331153333	-0.162393677991559
7.6	-0.000768627677855138	0.00473904070249119	5.62139017438988E-06	-3.31120434636201E-06	9.85395515013184E-07	3.18017012835838E-06	0.975614788194562	-0.165770198924926
7.7	-0.00103440114671358	0.00532347765964281	-6.44036062082849E-06	-2.90645807721128E-06	4.29963163958386E-06	5.67909229655704E-06	0.97558349790069	-0.16892855064333
7.8	-0.000725366491641641	0.00582918632637813	-1.02563090055409E-06	-5.33761682388441E-06	-2.23229620601445E-07	1.1352347429691E-06	0.975898234535489	-0.171206700266512
7.9	2.35162395272342E-05	0.00657923374642614	-3.41311229985502E-06	7.13643659371378E-06	5.47573410003693E-07	-6.84108194600113E-06	0.977371312549806	-0.171955059958388
8	0.00252967012008878	0.00565608819300652	-3.26423563308644E-07	7.38152051258996E-06	1.82817729016978E-06	-4.43493549143566E-06	0.984325681183876	-0.175649311113044
8.1	0.0016123421232246	0.00395127555173932	-6.80943636550463E-07	-6.48317278969087E-06	-1.74128107797026E-06	-1.08083589725318E-06	0.983512111625387	-0.184278724663804
8.2	0.00103500967409306	0.0041695327837151	-3.84513632521672E-06	1.62248236125751E-06	-1.09610253310848E-05	-2.70859482071561E-06	0.981753307094768	-0.187518692218196
8.3	0.000748103685227816	0.00449425151569546	-5.47665938848401E-06	-9.92091200177365E-06	-7.8240992692886E-06	2.96188628324439E-06	0.980932222473155	-0.190309501700543
8.4	0.000492621111749612	0.00566328507748295	6.83467981528146E-07	-6.06850620966152E-07	-1.42344350422056E-06	4.31384127238572E-07	0.980664394931999	-0.19298075072225
8.5	0.00267357792091411	0.00638137065108955	-1.75419585047688E-06	-2.66878351237355E-07	-1.74960260379198E-08	1.80678328566854E-06	0.980459133772113	-0.197049095149762
8.6	0.00230857248111453	0.00480945002785087	2.45753913530243E-06	-3.958179805567E-06	-4.52536199244683E-06	-5.95961992303047E-06	0.978812972110536	-0.199711258637571
8.7	0.00158799046943218	0.00537815282341858	-1.48512272276206E-06	-2.11035504011137E-06	-3.59376066374052E-06	3.61683736584237E-06	0.97851262192146	-0.201664000224282
8.8	0.00148899506169901	0.0062404247841956	-5.49828837020239E-06	-2.17137221569671E-06	-7.2470966886726E-06	-1.33087060093356E-06	0.978553595914575	-0.203672236973862
8.9	0.00168863647319443	0.0075948650602303	8.56751747851675E-06	4.17557000130633E-06	-1.4465230480189E-06	3.20485666949596E-06	0.979066887128119	-0.2055127804265
9	0.00425732640408398	0.00865719999074654	-5.26039750360906E-07	4.17456947253136E-06	-7.85597088361578E-06	1.18912176858207E-06	0.979805078434633	-0.207503024472562
9.1	0.00523500218062741	0.00730231210681128	-2.61272434945767E-06	6.65002699430409E-06	4.14489885529616E-06	-3.06891887880044E-06	0.980897761207421	-0.210114968672737
9.2	0.00601674535625023	0.0070033345346136	-1.20286205695891E-06	3.43798777967305E-06	-2.24744151237036E-06	-2.08264994980653E-06	0.981479718403578	-0.213765272553584
9.3	0.00691020227850941	0.0062784276150476	2.35665184822554E-06	-4.0547579141028E-06	-7.9002151584689E-07	-1.79487623921916E-06	0.981181520783659	-0.217795822130656
9.4	0.00740830288254521	0.00583228825500161	-1.82086773707642E-06	3.90815203657748E-06	-2.06574336180427E-06	-3.60332469079745E-06	0.979196340807368	-0.221309429093969
9.5	0.00912845156260779	0.00456752444647037	3.46778169617675E-06	6.33429944138534E-06	3.80551958646473E-07	-2.154035003057E-06	0.978986448641692	-0.22220459000362
9.6	0.00773799180279429	0.00254461564315784	4.59759248550524E-06	7.15045199371948E-06	-8.36746894284455E-06	1.28176517025131E-05	0.979561316038406	-0.226853551069987
9.7	0.00670640895602192	0.00272085152044611	-2.89151096100732E-06	-1.5621618038447E-06	-1.37076105616375E-06	-4.00616261016541E-06	0.978239441713774	-0.230099961915645
9.8	0.00620702664135929	0.00307324883817904	1.53494287207416E-07	-3.62022533900909E-06	3.05149405071924E-06	2.43594621576587E-06	0.977216040360763	-0.231789463331612
9.9	0.00587832980951974	0.00417863075757335	5.84933675598547E-06	-5.73840175730697E-07	-2.64056496018566E-06	6.7595224139589E-06	0.977221897285149	-0.231113988641846
10	0.00803381841428059	0.004768438731135	-1.15180222834124E-06	-5.93760455043573E-07	1.38915901986375E-06	-1.19207078373454E-06	0.983257329444107	-0.234136878664591
10.1	0.00787644699415689	0.00311505651410515	7.45526852078377E-07	-8.51339370916548E-06	6.21613302922366E-06	3.66636772048597E-06	0.98042303229502	-0.241188688824612
10.2	0.00743661259611035	0.00324937991558181	7.5520080330755E-06	8.42557586110179E-06	5.27045656737629E-06	3.58074611689376E-06	0.97783678012511	-0.242433852759373
10.3	0.00741568022717888	0.00357659949197989	1.79283105038123E-06	-7.02492937279564E-06	1.43357478592007E-06	2.90150985792576E-06	0.976735026338599	-0.243574883225569
10.4	0.0077484762657377	0.0045773976341086	-4.06626069834253E-06	-3.68911367578844E-06	1.98725552282285E-06	-5.6571732833247E-06	0.976757599329169	-0.244995365726694
10.5	0.0104632349889211	0.00478053327381231	3.70633435297958E-07	-7.14218158670246E-06	-5.78648853897416E-06	4.12213599585337E-06	0.976989065686053	-0.2494399744366
10.6	0.0112085331716127	0.00305428692536304	5.53788760303674E-06	6.79436879442888E-06	2.45535981817377E-06	1.20431935913122E-06	0.975114720432298	-0.251816043704072
10.7	0.0119487337740286	0.00206607592439316	-7.14363415239826E-06	-1.7079790139995E-06	-7.80954442050684E-07	1.57413286431788E-06	0.975595563605332	-0.255008572511611
10.8	0.0122264384361564	0.000697936304005875	1.50394027055767E-06	4.48715190998168E-06	9.50760281910399E-06	-4.51919315304468E-06	0.975038981365542	-0.258850132020119
10.9	0.0119238246157101	0.000175491026435731	3.44006189428869E-07	7.49832300857597E-06	-5.2171664895835E-06	2.20638655476691E-07	0.974103729470956	-0.262222594389726
11	0.013802193928673	-0.000721140115567129	-2.25884567086206E-06	-3.85244764099746E-06	1.2138686894623E-05	-3.62987142225351E-06	0.973364350099976	-0.265369367683185
11.1	0.0129778201032783	-0.00330671802947378	-6.18767454804811E-06	-4.9600289332915E-06	9.7576728777677E-07	5.62547445318904E-06	0.971000093458093	-0.268879736998116
11.2	0.0121418823158486	-0.00406929060667298	3.36282378193559E-06	4.3324234780998E-06	1.04269547196026E-06	-7.95616815387458E-06	0.968470340558619	-0.271348017964153
11.3	0.0117732468221129	-0.00473659909428352	7.05497184286026E-07	-2.68550758147484E-06	-4.83737145308528E-06	9.22263202506658E-06	0.965816586416948	-0.273436372260834
11.4	0.0112440015427852	-0.00494894162257064	1.47340203143299E-06	-2.22769142941752E-06	-3.07931230009541E-06	-7.47125640880911E-06	0.961854462125846	-0.275086678275141
11.5	0.0127678986332156	-0.00604985999406999	9.49938861281809E-07	-1.01870608771606E-06	-9.09898067347895E-07	-8.73374807494649E-07	0.962344264472686	-0.273956370278216
11.6	0.0113407970298536	-0.00900746561286339	1.13105158755894E-05	-3.3443740252761E-06	-5.49384750426541E-06	-6.87097410052289E-06	0.962654668002298	-0.280059441792126
11.7	0.00954542138620381	-0.00985104985778484	5.35647469390613E-06	-2.95009241432242E-06	-4.43869660356649E-06	1.68953253482944E-06	0.959569506344767	-0.28420226689617
11.8	0.00810365869235582	-0.0100669001943812	-4.69083641965505E-07	-2.5637703895823E-06	1.14838903385541E-06	1.33534770063566E-05	0.956862586189386	-0.286395652132393
11.9	0.00743515003191428	-0.00916855297387365	3.35533599603578E-06	1.98934955866678E-06	3.71717437487653E-08	1.28212311201994E-05	0.9569822466479	-0.284696379096685
12	0.00967639882945236	-0.00989288730960688	2.02806599258204E-06	4.79820791054857E-07	-3.74428364414474E-06	-9.63371690402491E-07	0.964650115601781	-0.288880755740635
