# GHZ S RI R 50
0.2	0.000264630237383911	0.0032160687771424	6.31415606503476E-06	-1.00168127433349E-06	1.06695513736848E-05	1.0520127582449E-05	1.00035512591894	-0.00647397513574107
0.3	0.0010265685578986	0.00312193857605728	5.82024637128697E-06	5.04911809447396E-06	8.10470877673128E-06	2.96457546523781E-06	1.00039848447868	-0.00932490688357734
0.4	0.00158299869244665	0.00323071217729324	-2.71862779783726E-06	7.88169466311928E-06	-4.79037046431069E-07	-4.43887016749409E-06	1.00084403893623	-0.0118969593178613
0.5	0.00236243541188267	0.00310593719626048	2.31171594774086E-06	1.48156152156228E-06	7.5234305232139E-06	-1.05422352090702E-06	1.00105699886232	-0.0156532572580256
0.6	0.00236781466220085	0.00277542824827061	3.20909264035275E-07	3.54459467137754E-06	2.77426377697531E-07	-7.67091272372464E-06	1.00065875584304	-0.0186897865731035
0.7	0.00236565525347666	0.00302594673011488	4.17352789709361E-06	5.07806860947864E-07	-3.90213966302183E-06	-6.1094111785645E-09	1.00041664900693	-0.0214769292487975
0.8	0.00259992062728993	0.00328545637066974	-2.89578988664283E-06	2.96900049914532E-06	-6.83710687676788E-06	1.3189622653459E-06	1.00032344309168	-0.0236600099834534
0.9	0.00276618918131168	0.00360910666538347	6.05161644943825E-06	9.03735361276077E-07	-7.35937141079173E-06	-1.83992900321258E-06	1.00022079447895	-0.0259269470315006
1	0.003498265599494	0.00400068951658943	2.36681626392036E-06	2.95187582577906E-06	-9.06785151765116E-06	-2.59915687390226E-07	1.00050394167921	-0.0273567496374783
1.1	0.00381904008223259	0.00331733750833271	6.45407029224818E-07	3.56091054918024E-08	-5.31300605410502E-06	1.40676484561964E-06	1.00030659532029	-0.0298470043114061
1.2	0.003456070663424	0.00283710691382539	-5.30577812908731E-06	-3.29692653992242E-06	-1.12095125297376E-05	-1.2685434145804E-05	0.999597171433475	-0.030824929182246
1.3	0.00283951695442985	0.00224683147555231	3.05672932653087E-06	3.11029794514571E-06	6.97318101047829E-06	-4.09383626367209E-06	0.999678780881319	-0.0316867215273903
1.4	0.00228449845143598	0.00181066278609353	-2.80515157804268E-06	-1.11587186674607E-06	5.72516242009723E-06	6.23311532208329E-08	0.999477694182267	-0.0336290247240893
1.5	0.00247104490657179	0.001443406491669	1.2435627851884E-06	-2.53950472315394E-06	8.0360346408062E-07	2.51806802115355E-06	1.00071317711827	-0.0372258372845847
1.6	0.0022549111422527	0.00141118931282809	-9.36551287241606E-07	-6.43370392946022E-06	3.19405128251012E-06	-4.25609947370361E-06	1.00030063321989	-0.041339809821129
1.7	0.00257142896839462	0.00177144776735572	3.41631372556146E-06	6.33692974865772E-07	2.24351733649765E-06	3.86338171417586E-06	1.00056360397836	-0.044108125963717
1.8	0.00292761107320868	0.00205550947237264	-2.38317565260408E-06	2.90854936039901E-06	-1.02015505475242E-06	-4.00962814540683E-06	1.00043335580495	-0.0469307474374073
1.9	0.00333746317554873	0.00224329090933442	-3.74574368386399E-06	-1.76392288741583E-06	5.65007372533599E-06	3.03439709701795E-06	1.00058914711689	-0.0488369038658034
2	0.00400878699050769	0.0020314039098522	-6.20923660613207E-06	-5.77066430067207E-06	-2.08001146561227E-06	9.19682098803574E-06	1.00171060284803	-0.0520556942027866
2.1	0.00375968368104685	0.00156431701584222	1.18661203217432E-06	4.62245188160324E-06	4.50960828797283E-06	3.99815210893629E-06	1.00094593707824	-0.0560050495583636
2.2	0.0035765735714131	0.00168579802178757	6.60831812137917E-07	9.08746058504214E-07	-3.66789474427448E-06	-1.09715289011645E-05	1.00034740699053	-0.0586177457405436
2.3	0.00349680062926924	0.00173560288528037	-2.28501264721968E-06	3.57920202560921E-06	-5.44059218107637E-07	-2.80535989821923E-06	0.999757103516614	-0.0605986098735851
2.4	0.00338319810545	0.00187702176638339	-1.56687235067274E-06	-1.4569200893088E-06	1.28633506268368E-06	-1.00626463416595E-06	0.999539389881715	-0.0637363443168262
2.5	0.00362311826284208	0.00186906936058776	7.83012215799586E-06	4.04810489799755E-06	-2.38051410578915E-06	-7.24666517479153E-06	0.999379641937786	-0.0661363071300624
2.6	0.003270130124276	0.00147783092145494	4.95833772781105E-07	2.12295981286639E-06	-1.45592649763348E-06	4.70722285708956E-06	0.999234205442783	-0.069478489486712
2.7	0.00288680916799568	0.00171129674010408	-7.87382825170866E-06	5.28915310327517E-06	2.57939132341336E-06	9.74496381399317E-06	0.998716260866654	-0.0728454081201018
2.8	0.00286942702887222	0.00217031325506755	-7.73608735795596E-06	8.01522961476896E-06	6.12086910369656E-06	1.99587542297516E-05	0.998500419110547	-0.075138796790558
2.9	0.00326960982046609	0.00256636430314457	-1.18945577603426E-06	8.6830526315272E-07	-8.15848195250966E-06	-2.93252678194926E-06	0.997907044523937	-0.0773008084541396
3	0.00400850006658344	0.00249624009147426	-6.33838002145604E-07	-4.4803706364787E-06	-2.15800532863214E-06	6.46571370392748E-06	0.997632134768396	-0.0798689439867086
3.1	0.00411626448659218	0.00225067346276561	-2.59409465284985E-06	1.02118611904301E-07	1.10245799497319E-05	-3.58944176402435E-06	0.997015323018768	-0.0821794501894317
3.2	0.00436188795471569	0.00227571504668377	-9.80513548322022E-06	2.60371471847284E-06	1.2208753245835E-05	4.20819618165012E-06	0.996407436317171	-0.0841046382238531
3.3	0.00460240744799418	0.002108717572212	-3.46815310774513E-06	9.5381895341571E-07	-5.01843751873608E-06	-1.16102319723381E-07	0.995681759614794	-0.0874631307899863
3.4	0.00476727232389768	0.00201030874154031	5.35368475525659E-06	4.57476933867539E-07	1.35232214875948E-06	4.39631632103294E-07	0.994942039669216	-0.0892156827016027
3.5	0.00510957412357537	0.00156641003991174	2.77719203100429E-06	1.54508277058711E-06	1.31678590248856E-06	7.86215554783453E-07	0.99497745857332	-0.0913026702414163
3.6	0.004666911006548	0.00116304873308241	-7.15325585641525E-06	-9.69803097130918E-08	1.84821474474546E-06	-3.50898826432966E-06	0.994865721990277	-0.09447939196645
3.7	0.00444275950264145	0.00128239269231443	5.77033103376133E-06	-1.54400662010905E-06	-3.34524193573281E-07	-1.73127046588975E-06	0.994004660116494	-0.0974123079939851
3.8	0.00450132733016173	0.00140570968940199	-1.99722032603486E-06	8.87478202365807E-07	-5.19108686373115E-06	3.26508541398162E-07	0.993025900261066	-0.0991926801099458
3.9	0.00475853964058209	0.00147071101352443	-8.35492546338918E-06	1.82232789198514E-06	-4.12419905105709E-06	-1.47845284953166E-06	0.992796728121715	-0.101561432995217
4	0.00521872020850464	0.00103714442134095	-5.82598110772706E-06	3.99542157446275E-07	-9.54850043994006E-06	-8.40288231085344E-06	0.993523860300766	-0.103184315283655
4.1	0.00485693232497662	0.000615675295806001	-3.96037004652753E-06	4.08879007801784E-06	-1.8453808418801E-06	5.59084208223204E-06	0.992561596901744	-0.10595244909273
4.2	0.00475150090583727	0.000645230866072078	4.58913300635668E-06	-4.4089757014252E-06	6.75199709693341E-06	7.12890879110183E-07	0.991448960567546	-0.10840759214077
4.3	0.0047945277175208	0.000582548333322766	-3.78434870135713E-06	1.1484859495563E-06	3.53714027603907E-06	-1.22613544368E-06	0.991014572546306	-0.110291333170961
4.4	0.00481562529892688	0.000502892217579807	-3.17412847674011E-06	-4.90810245799183E-06	9.22192335546187E-07	-1.04040370214005E-06	0.990409668462762	-0.112468614546018
4.5	0.00498568713268837	8.2642815186063E-05	-1.37499915219486E-06	2.03399651914637E-06	2.08455131867519E-06	-8.46615576299755E-06	0.990122461469529	-0.114844981394596
4.6	0.00423248752915157	-0.000360262257319042	5.43072142308102E-06	9.53784832252876E-06	-1.41062057071495E-05	9.8607814273354E-06	0.989331669464162	-0.117520566633529
4.7	0.00370542114761359	-0.000143720508419208	-7.61686106068786E-06	-9.49654298258117E-06	-1.14243089881677E-06	-1.28862601768661E-07	0.988947906232649	-0.119439191177063
4.8	0.00343121675782214	0.00020589452984178	-8.72956793457194E-06	-2.63786982138371E-06	-4.34439832437341E-06	4.55030830065446E-06	0.98814617689344	-0.121885967455696
4.9	0.00351971691269703	0.000619970439848149	5.79289596302885E-06	8.25986077490803E-06	-7.21528887942858E-06	3.30367833851635E-06	0.987231197818773	-0.123489207814072
5	0.00403527107916669	0.000451648121154734	4.2244367640959E-06	-8.52614794481908E-06	-4.30163660633658E-06	-6.13584175852907E-06	0.98675697931851	-0.124597592038326
5.1	0.00397052847758661	0.000307695677594893	1.51210056347296E-05	-1.02619145772713E-05	3.44246374065057E-06	-8.70325154459847E-06	0.986608970536255	-0.125688285085137
5.2	0.00431532479764896	0.000270541140846155	-4.23227096806668E-06	-4.68116448402243E-06	-3.14870991082269E-06	5.33210292910852E-07	0.986017145622686	-0.127720410672787
5.3	0.00461880299139813	-7.39230669424861E-05	4.76582368482616E-06	3.3419410043714E-06	-9.26780200825945E-06	-4.6918401776569E-06	0.98528065424439	-0.129663977660727
5.4	0.00474553447362965	-0.000403480072572897	5.15408978116437E-06	1.17834096742928E-06	-4.42120891748831E-07	1.03978571799899E-05	0.984696941900774	-0.131630956613374
5.5	0.0047769916003614	-0.00112820462996303	-1.80416845945785E-06	-1.96648118289257E-06	8.82925430050916E-06	4.93559084133637E-07	0.984992416769979	-0.133327153459551
5.6	0.00382079508922364	-0.0013105004542715	4.23040767798642E-06	7.18602077923761E-06	-4.71510547056048E-07	-8.56655289019225E-06	0.985026841766434	-0.136077035633223
5.7	0.00338532645903395	-0.000885675767005244	2.0437548252878E-06	-7.20155799557778E-07	5.44463848904019E-06	2.43567839151159E-06	0.984419090052301	-0.138374868006731
5.8	0.00320970548906659	-0.000537016360958612	3.89234979131938E-06	1.94720760258845E-06	2.72318983216553E-06	7.78925308951756E-06	0.984028373915323	-0.139992701510747
5.9	0.0032123155685194	-9.15391150331127E-05	-3.76395347926915E-06	-3.04034241794434E-06	-4.6752278756429E-06	-1.76933771926749E-06	0.983976997201997	-0.141190140799361
6	0.00367603751831244	-0.000313253825277536	-2.06552845213869E-06	1.69783096622924E-06	1.0379877841095E-05	-2.65667007723295E-06	0.984985911463327	-0.143195271550115
6.1	0.00294677449630406	-0.000869098197192877	-7.28495066595218E-06	-1.09118421053147E-06	-7.23219657560987E-07	-2.4681708386141E-06	0.984049079681907	-0.144999442719735
6.2	0.00225794216227087	-0.000751573841480863	-1.05445390762314E-06	1.97638523577896E-06	-3.46166152945968E-06	-5.32735495775109E-06	0.983447200288241	-0.145802164084698
6.3	0.00183616258382816	-0.000581073760596625	1.5660726347376E-06	2.81276783764834E-06	1.13710973940656E-06	5.93400728573291E-06	0.983191889470766	-0.147319197956251
6.4	0.00167110955852642	-0.00040002172551534	2.05278779410817E-06	5.00632632987683E-06	-3.31346658977554E-07	2.25617907934264E-07	0.983126972230846	-0.149195413611689
6.5	0.00158415748154778	-0.000901484399805586	4.63706453017761E-06	-1.8614580868772E-06	-4.65589739457647E-06	-1.54156781815942E-06	0.982553963216098	-0.152450964065698
6.6	0.000725854738741457	-0.0006507698634498	3.2615883465391E-07	-1.06062882364907E-06	9.22285251344316E-06	3.33681317340584E-06	0.98162793133585	-0.15402009849031
6.7	0.000558470875113849	-0.000133452206251349	5.07253505957616E-07	5.57854558495768E-06	-1.79504386693492E-06	4.9362789020334E-06	0.981646121007569	-0.155750220800248
6.8	0.000423067108734386	0.000334060103960928	1.80681818187214E-07	-1.57674745546354E-06	-3.43800095367639E-06	-5.10335365058791E-06	0.981294159739563	-0.157605390820135
6.9	0.000531168109030668	0.000946976707028195	-6.63403960098463E-06	6.65688991747493E-06	2.26998066853386E-06	1.35546109583532E-06	0.981151776533037	-0.159041633559286
7	0.000871033965525817	0.000729107027626547	8.02214083315266E-06	3.1793887884336E-06	4.51929934151156E-06	5.84873366575437E-06	0.98124414505054	-0.160739840334427
7.1	-8.96839014400228E-05	0.00106609478161838	1.3844524582159E-06	7.85831549442623E-07	-2.23896506283237E-06	-4.46195393162116E-06	0.980510686674932	-0.162341117624439
7.2	-0.000265827652266802	0.00202702861460997	-1.58611769672437E-07	4.37303673084809E-06	-4.9803841201758E-06	-6.81533817119959E-07	0.979821483204631	-0.163626997520014
7.3	-0.000200487915536557	0.00280639376548424	1.37544479091643E-06	-5.22758133510419E-06	-2.31920833087678E-06	-2.788114643949E-06	0.978711003623348	-0.164857313736223
7.4	4.37625577110422E-05	0.00357674519385726	1.79716971269794E-06	4.40924759656217E-06	-7.16784946916913E-07	-1.06825006133657E-06	0.97751565089543	-0.16580049576904
7.5	0.000770675546145534	0.00347497300347729	-5.70515723833497E-06	-1.53189235463876E-06	-1.49896759825706E-06	-8.87621343259792E-06	0.978667922554777	-0.166662868802592
7.6	9.45860450767135E-05	0.00311893855068602	5.63598924089399E-06	-3.33567839570765E-06	9.95838930142634E-07	3.19029061040132E-06	0.979063264285877	-0.170693904862059
7.7	-0.000356978490184171	0.00350723781907835	-6.47006717441331E-06	-2.90345439752307E-06	4.32737828408057E-06	5.69076044510317E-06	0.978670418938331	-0.173871128166361
7.8	-0.00045013977770509	0.00382540710762999	-1.04362272611114E-06	-5.3553874043087E-06	-2.21095832169998E-07	1.14017675527769E-06	0.978752422293575	-0.176675556102573
7.9	-0.000187605857297658	0.00405855624088985	-3.39672132155716E-06	7.17937883663983E-06	5.20955055207785E-07	-6.87077396803295E-06	0.979711356046136	-0.179347855733002
8	-6.62037467460907E-05	0.00363561894121197	-2.79053854274439E-07	7.3866888348421E-06	1.80039504902913E-06	-4.44854415428123E-06	0.981032923085418	-0.183960915630359
8.1	-0.000599465879454652	0.0043427254494899	-7.04145421426273E-07	-6.46876011427098E-06	-1.74217515020628E-06	-1.07229536392903E-06	0.97909753870826	-0.187444024014768
8.2	-0.000154175613628744	0.00518964849536961	-3.83404619020464E-06	1.62947702488668E-06	-1.09483121432416E-05	-2.67547914423078E-06	0.978639564775963	-0.189142328156155
8.3	0.000432269981793667	0.00571954036840148	-5.4872061831433E-06	-9.88895993754351E-06	-7.80185574192916E-06	2.97294383625101E-06	0.978482211900883	-0.191435651712027
8.4	0.00116830423477514	0.00625172551837056	6.8056604295273E-07	-6.06176437280245E-07	-1.41869543866627E-06	4.32364208119779E-07	0.978386876220773	-0.19401295626988
8.5	0.0019844449608206	0.00587450993773523	-1.75024385348691E-06	-2.67287542427599E-07	-1.84752923311646E-08	1.80285771696176E-06	0.977906433096056	-0.197179409487015
8.6	0.00153605482614064	0.00617993092060481	2.45362833484451E-06	-3.95718450700339E-06	-4.52611543332621E-06	-5.95318236817533E-06	0.977471370445625	-0.199511844901547
8.7	0.00200321693938658	0.00709179514227327	-1.48660743440662E-06	-2.10565518982982E-06	-3.58410520103138E-06	3.61810570760345E-06	0.977537921345173	-0.201994993869976
8.8	0.00295310185025129	0.0077476057245685	-5.49148053347722E-06	-2.15660659168442E-06	-7.23521410621859E-06	-1.31445335618643E-06	0.977580511375987	-0.204386461080688
8.9	0.00437087948657093	0.00802066865286628	8.54595987586185E-06	4.14802742855408E-06	-1.43660103557231E-06	3.19660712465305E-06	0.978006499788853	-0.206565868259487
9	0.00595722880560997	0.00703859841476267	-5.23294170390586E-07	4.16171030474795E-06	-7.83119353181533E-06	1.18750344841444E-06	0.97843058517929	-0.20918668905172
9.1	0.00625415408464767	0.00603082516074873	-2.59861041643657E-06	6.62871034570692E-06	4.12810068941421E-06	-3.06127872669034E-06	0.978466248120472	-0.211951446142801
9.2	0.00662788994864363	0.00523252502864327	-1.19866524267651E-06	3.42293302123574E-06	-2.23724048500576E-06	-2.07435572081014E-06	0.978098337596417	-0.214979695621439
9.3	0.00664930429262553	0.0045033056227199	2.35417824260824E-06	-4.03458712978302E-06	-7.83813824304239E-07	-1.78907345231175E-06	0.977527884296319	-0.217729623689585
9.4	0.00670269270483225	0.00414269363803551	-1.82839027839778E-06	3.89297410748501E-06	-2.04961790563693E-06	-3.60081991478893E-06	0.97688613979059	-0.220207609002095
9.5	0.00660840416967535	0.00341239695474066	3.46019165326018E-06	6.34236800493249E-06	3.83874447431165E-07	-2.15450386352277E-06	0.977335332201748	-0.222913172292542
9.6	0.00587715676785568	0.00372386299421794	4.59742511097118E-06	7.14343793496014E-06	-8.35606538657093E-06	1.28122149431627E-05	0.976836038956655	-0.226965801430576
9.7	0.00609696433748548	0.00427990263963468	-2.88872360742522E-06	-1.55932916582512E-06	-1.3705995312223E-06	-4.00104517185792E-06	0.976103695870679	-0.229685853523955
9.8	0.00655342783791641	0.00458938658585627	1.51411415529348E-07	-3.61721081864437E-06	3.05019650485594E-06	2.43221718915307E-06	0.976073512834944	-0.231574815683153
9.9	0.00729439769535517	0.00483778934678357	5.84457206784092E-06	-5.86019309998172E-07	-2.62449365233593E-06	6.76109099142604E-06	0.976966294302758	-0.233147166376719
10	0.0080747812220213	0.00409766664208654	-1.14859398451317E-06	-5.87810434027274E-07	1.37966652493825E-06	-1.1910331086086E-06	0.978078437623132	-0.237392652038769
10.1	0.00779209544172396	0.0040078812895672	7.44626680623096E-07	-8.47628214812023E-06	6.18818055197276E-06	3.65217586188535E-06	0.975795778308719	-0.239974681723224
10.2	0.00838015962225061	0.00426488798669096	7.52254248380139E-06	8.40339749527483E-06	5.25134363841369E-06	3.57262095001835E-06	0.975211609308136	-0.241020770785006
10.3	0.0092778150376642	0.00411755356988092	1.79007920793635E-06	-7.00371788760331E-06	1.42834422981011E-06	2.89352218958913E-06	0.975061858258242	-0.242786833747038
10.4	0.0104413793392824	0.00353689529122591	-4.05008519443653E-06	-3.67675631713449E-06	1.98168278646198E-06	-5.63565256178774E-06	0.975161455576122	-0.245303422580427
10.5	0.0112024945822065	0.00175551335436095	3.88574913359245E-07	-7.11659436253585E-06	-5.77765759693818E-06	4.0923740501048E-06	0.97467750552258	-0.249271256417596
10.6	0.0105962649497479	0.000817910158343615	5.51859245584757E-06	6.7969963747535E-06	2.45023250906074E-06	1.20757889865297E-06	0.973691077158095	-0.252398233934934
10.7	0.0103317608660713	0.000457554062740931	-7.13176708772685E-06	-1.71211223335563E-06	-7.81282388660542E-07	1.57114445990962E-06	0.972657062841748	-0.256080741147131
10.8	0.0103290639452921	0.00036288881568169	1.4966598635594E-06	4.47945936138152E-06	9.4925588457028E-06	-4.50106180813669E-06	0.971277473620373	-0.258695973734513
10.9	0.0108677316933385	0.000228744475754444	3.31179869745477E-07	7.47968139635328E-06	-5.2041662567923E-06	2.11762277984138E-07	0.970782100867658	-0.261038866849917
11	0.0114736607132682	-0.000948354228003246	-2.24415768897168E-06	-3.85238990952819E-06	1.2128632912962E-05	-3.58943168195891E-06	0.970119674922039	-0.263883250842302
11.1	0.0111243166692702	-0.00135561374212241	-6.16794863460755E-06	-4.96893575086109E-06	9.6087715162442E-07	5.62088126707011E-06	0.968122590941085	-0.266267575123291
11.2	0.0116208476805841	-0.00170556591273623	3.34581510606191E-06	4.33572065889189E-06	1.06363245411089E-06	-7.9418783868762E-06	0.966250406463299	-0.268009624221855
11.3	0.0123832081192744	-0.00247458659922789	7.14604490588669E-07	-2.67949738597331E-06	-4.86560532784609E-06	9.19300398587767E-06	0.964598518434804	-0.269173699650422
11.4	0.0130606194711822	-0.00364533968873851	1.48518876079165E-06	-2.22027021353073E-06	-3.04072003559283E-06	-7.4881847552818E-06	0.963213773055099	-0.270256155981675
11.5	0.0132194069773675	-0.00588984646917766	9.5534585440639E-07	-1.01860338704709E-06	-9.09734395229125E-07	-8.78268853991113E-07	0.964154572244449	-0.272778038195801
11.6	0.0122747666667908	-0.00727859951263841	1.13220408912107E-05	-3.32466868334834E-06	-5.48348085145963E-06	-6.88448155365703E-06	0.962631737615283	-0.277713586805447
11.7	0.0119874681484113	-0.00849696762874231	5.3658523314315E-06	-2.93576687965381E-06	-4.44435940802634E-06	1.67750061500238E-06	0.960867483192348	-0.280999890730558
11.8	0.011671498630619	-0.0100479937819306	-4.61650257790833E-07	-2.56788832620514E-06	1.10832426074844E-06	1.33709245350719E-05	0.960213604027715	-0.283976786603516
11.9	0.0112818004043123	-0.011973284307416	3.35973013757327E-06	1.99807060168154E-06	1.99589878646019E-08	1.28483236872429E-05	0.961699512571873	-0.286482379334567
12	0.00952144384714134	-0.0147396843064398	2.02485161306289E-06	4.78796046473177E-07	-3.73835871264298E-06	-9.6135465970985E-07	0.962495581900583	-0.293301918096967
