# GHZ S RI R 50
0.2	0.000566917805992202	0.0034952340410769	6.306433290029E-06	-1.00640511426038E-06	1.06677255338106E-05	1.04989886148082E-05	0.999790736698029	-0.00691408395345481
0.3	0.00120754656874053	0.00316654716755383	5.81750616593345E-06	5.03862171291743E-06	8.09765634758304E-06	2.95468153464211E-06	0.999631049327431	-0.00988622573262671
0.4	0.00167219118863407	0.00304781972798702	-2.70966449744978E-06	7.8723605225003E-06	-4.81252951204439E-07	-4.43230419230634E-06	0.99968366957329	-0.012591184230873
0.5	0.002076469646778	0.00301013869847632	2.30917169307959E-06	1.47914964032437E-06	7.5137426160611E-06	-1.05470376039544E-06	0.999381596170247	-0.0158535685721559
0.6	0.00242549118418647	0.00291522540673132	3.22900332956108E-07	3.54052169946116E-06	2.72058788996317E-07	-7.66274013116912E-06	0.999282104761869	-0.0186683722732327
0.7	0.00257911432835172	0.00289712647688117	4.16782022659814E-06	5.03793922784307E-07	-3.89643592097653E-06	-3.04305663409667E-09	0.998946063780533	-0.0214872604598231
0.8	0.00279131528738127	0.00294381127359963	-2.88861060615586E-06	2.96577773389739E-06	-6.82412088663281E-06	1.32139746300278E-06	0.998783049876294	-0.0235700505682341
0.9	0.00289977016365762	0.00300244398656593	6.03960992488174E-06	8.98773521074939E-07	-7.34514976767588E-06	-1.83236828355063E-06	0.998744471044161	-0.0258933836642498
1	0.00304219230451078	0.00318050675546994	2.36182659826761E-06	2.94546435968272E-06	-9.04839072652598E-06	-2.590752014769E-07	0.998646977770096	-0.0275891358740219
1.1	0.0032874551287867	0.00315650201397912	6.44221914720361E-07	3.55296388421576E-08	-5.30321319083323E-06	1.4042955731955E-06	0.998274245008636	-0.0298173985681979
1.2	0.00330697484540489	0.00274519457151785	-5.296429888295E-06	-3.2897752830866E-06	-1.11908065876529E-05	-1.26595988255179E-05	0.997524869331482	-0.030940033560306
1.3	0.00299831337464004	0.00196997982311146	3.05189982491432E-06	3.10331198675425E-06	6.95843758300707E-06	-4.08830313103303E-06	0.997464251781786	-0.032013682112356
1.4	0.00249888790684959	0.0011223093388702	-2.80015560487409E-06	-1.11220178179417E-06	5.71381867995314E-06	5.92421662175472E-08	0.997017792772243	-0.0342030810433105
1.5	0.0023483962712114	0.00082876042983141	1.23911765817208E-06	-2.53472810842219E-06	8.03513111495282E-07	2.5119693512589E-06	0.997404268878075	-0.0375207460121143
1.6	0.00237351702791888	0.000784049923980108	-9.3734490501708E-07	-6.41648196048225E-06	3.18359676244987E-06	-4.24662245043654E-06	0.996892014668241	-0.0407556583362297
1.7	0.00254285697562389	0.000987964833967085	3.40675140617148E-06	6.31456494296629E-07	2.23768911345134E-06	3.85218041018454E-06	0.997250738102661	-0.0430303496474689
1.8	0.00276558822476216	0.00125701806415028	-2.37671802065054E-06	2.89972255610982E-06	-1.01655328280017E-06	-3.99814601840129E-06	0.997251544593847	-0.0456330822748627
1.9	0.0029934050639061	0.00139841673827572	-3.73365558678473E-06	-1.75930548224848E-06	5.63175227325587E-06	3.02626756646252E-06	0.99719356204579	-0.0477719774332436
2	0.00335570890291233	0.00155738316032503	-6.18001517550947E-06	-5.75377017996241E-06	-2.08009366112494E-06	9.15927531317762E-06	0.996975262338951	-0.0502949714980637
2.1	0.00357869184947975	0.00128013904234469	1.17410777096101E-06	4.60918675361428E-06	4.48714555561515E-06	3.99311122838867E-06	0.996835632007269	-0.0528286047537194
2.2	0.0034798591290893	0.00113987233442089	6.57105735398037E-07	9.0726708282843E-07	-3.6359044286326E-06	-1.09454490242563E-05	0.996703100028915	-0.0552533337273387
2.3	0.0032883279162599	0.00104376084690196	-2.28531338392075E-06	3.5637687428211E-06	-5.36759365791365E-07	-2.79796941315715E-06	0.996293120913478	-0.0570515379605729
2.4	0.00295951714644096	0.00109815541923324	-1.55857408626159E-06	-1.45595826972691E-06	1.2846139561546E-06	-1.00012466853022E-06	0.9961858058393	-0.0600942181467949
2.5	0.00273948728030103	0.00144889229767235	7.79547557796197E-06	4.05779129560225E-06	-2.35324886893295E-06	-7.23164101314298E-06	0.995747869404606	-0.0622950299260096
2.6	0.00285402973229967	0.00164346758230841	4.88130827086079E-07	2.11828072313907E-06	-1.46561197234449E-06	4.68930314602328E-06	0.995627340816684	-0.0650039157216271
2.7	0.0029849317094311	0.00176234898221683	-7.86962543066114E-06	5.24770923391389E-06	2.53922186452292E-06	9.72635548352938E-06	0.995433021979071	-0.0678822969335789
2.8	0.00321494145761512	0.00187084146349643	-7.74715447204686E-06	7.96565995917014E-06	6.02954908635562E-06	1.99319117565436E-05	0.995659103691278	-0.0698922660717038
2.9	0.00352692960113019	0.00191884940517526	-1.19063797814363E-06	8.61505073679988E-07	-8.12923448032311E-06	-2.96073323506655E-06	0.995496319897187	-0.0719813851322331
3	0.00408332326293493	0.00197282515341256	-6.13750542477519E-07	-4.47676648318983E-06	-2.18265996910518E-06	6.44734930439539E-06	0.995441005909943	-0.0745510966131058
3.1	0.00457167470071198	0.00157149724758383	-2.59142212974884E-06	9.09112910971176E-08	1.10267057485381E-05	-3.53803039630313E-06	0.995066288932628	-0.0765820922506491
3.2	0.00473544826922477	0.00122381295949994	-9.80869039572746E-06	2.55823502840752E-06	1.21802292386038E-05	4.25877597287915E-06	0.994895578688675	-0.0783702617444381
3.3	0.00479198208072776	0.000836200830612585	-3.47125330192767E-06	9.37929015354157E-07	-5.0162081191746E-06	-1.38585801594093E-07	0.994742985332597	-0.081704151593354
3.4	0.00466069228321965	0.000577739244974859	5.35332191603922E-06	4.80817193349128E-07	1.35082601958335E-06	4.45625350507101E-07	0.994637569049825	-0.0838878165245149
3.5	0.00467064965999541	0.000437686965584567	2.77286762026779E-06	1.55554620725816E-06	1.31454575234541E-06	7.91198791141499E-07	0.994196367440531	-0.0866864823877495
3.6	0.00455461889846348	3.49217326123822E-05	-7.15326366671909E-06	-1.2430064688203E-07	1.86171176382146E-06	-3.50211621898044E-06	0.993949470182155	-0.0890674414378477
3.7	0.00415125221642338	-0.000146226804963154	5.77924594643718E-06	-1.52137233284812E-06	-3.27673729529271E-07	-1.73342435962919E-06	0.993830651856163	-0.0917798246313859
3.8	0.00382984982994378	-4.70263027659593E-05	-2.00241018754137E-06	8.8042133529488E-07	-5.19682370252765E-06	3.06465887767977E-07	0.993505689899318	-0.0938634857061744
3.9	0.00369768855089421	0.000269779434854782	-8.36866355724546E-06	1.79397341154095E-06	-4.1224625625747E-06	-1.49450160957601E-06	0.993438750895402	-0.0969497132551184
4	0.00408975346426764	0.000627124875489038	-5.82997789611059E-06	3.75645466840546E-07	-9.51764832027889E-06	-8.44569662420378E-06	0.993454556006731	-0.0982951250189935
4.1	0.00453902658868517	0.000321841121359371	-3.98397889724105E-06	4.07562367022813E-06	-1.8732926327552E-06	5.58921871519467E-06	0.993304148579614	-0.100690779191364
4.2	0.00459870872757855	-3.05211552047041E-05	4.61596674836963E-06	-4.39571682684799E-06	6.75962781307958E-06	7.43898272983428E-07	0.992463707404041	-0.103450263208885
4.3	0.00451863360829394	-0.000252824592123568	-3.79616314335811E-06	1.13395423524541E-06	3.54885221917946E-06	-1.21282652000596E-06	0.992136560992307	-0.105435027334439
4.4	0.00431926911720739	-0.00031058978742068	-3.15852933300512E-06	-4.9319796748411E-06	9.28658667038386E-07	-1.03835231201985E-06	0.991600283372254	-0.107663192297006
4.5	0.00439068109030507	-0.000117414458452173	-1.38760035926846E-06	2.03329585679959E-06	2.12740274772175E-06	-8.47929290407939E-06	0.991504093753397	-0.109897640075951
4.6	0.004497671130593	-0.000439519589576001	5.40933340365559E-06	9.58395684165982E-06	-1.41812976627924E-05	9.83406248027081E-06	0.990955924358034	-0.112716725237612
4.7	0.0043338893899706	-0.000678329108713549	-7.60111920896518E-06	-9.54950601327815E-06	-1.14490303823507E-06	-1.33457839668204E-07	0.990747077543587	-0.11457460796329
4.8	0.00413054466491451	-0.000789117914116617	-8.74310350867369E-06	-2.67835134775088E-06	-4.37353118179786E-06	4.54602078550623E-06	0.990345850277328	-0.1169952946477
4.9	0.00398704551157409	-0.000780153105914887	5.77813024886227E-06	8.30866109871937E-06	-7.25093392433533E-06	3.28529953514733E-06	0.990053948218312	-0.118787844533433
5	0.00425623445202586	-0.000760853703749422	4.27140798221423E-06	-8.5437982749764E-06	-4.29612653437415E-06	-6.17497193749815E-06	0.990001992276048	-0.120532383686829
5.1	0.00445674365427044	-0.00126567879700214	1.521353794813E-05	-1.02526018083232E-05	3.48431851483638E-06	-8.72598568161127E-06	0.9899051797014	-0.121957088556902
5.2	0.00434810133972288	-0.00159443347941973	-4.23535571010657E-06	-4.7149520391931E-06	-3.16396831410945E-06	5.25338562017781E-07	0.989693058280341	-0.124157609724871
5.3	0.00428960642002881	-0.00176449694509207	4.77940130585299E-06	3.37280458859512E-06	-9.29963036864466E-06	-4.74290650524816E-06	0.989624513951462	-0.126529680292837
5.4	0.00424801648356911	-0.00184604669383933	5.18136437535007E-06	1.19691407533471E-06	-4.68343846205813E-07	1.04572828733048E-05	0.989662694865398	-0.12964237991447
5.5	0.00451056046440671	-0.00190329861568449	-1.81304693031292E-06	-1.97872243906828E-06	8.87863398414275E-06	5.0207214456615E-07	0.989129497992527	-0.132589969740512
5.6	0.00438715343465282	-0.00263291469332334	4.24560385231945E-06	7.2234627897188E-06	-4.67710239067913E-07	-8.60795368279161E-06	0.988786666523407	-0.135082285120353
5.7	0.00368314860083358	-0.00290412374442401	2.05439536983848E-06	-7.22149899691017E-07	5.46965869292378E-06	2.45186342197239E-06	0.988443654707164	-0.137561882128274
5.8	0.00294339185367988	-0.00283585154691608	3.91095258257295E-06	1.95925666367525E-06	2.7325826289819E-06	7.83021138369494E-06	0.988233688138308	-0.139676718728173
5.9	0.00215238521278503	-0.00236583842145084	-3.78090605832176E-06	-3.05692200974075E-06	-4.69721609817488E-06	-1.78013925610991E-06	0.987911198173845	-0.141645568641152
6	0.00188921529230886	-0.0014005580213107	-2.0788832380546E-06	1.70365054425006E-06	1.04382338117774E-05	-2.65512432230973E-06	0.988321339509	-0.143114813480276
6.1	0.00211546416272002	-0.00119808035629428	-7.33417439752345E-06	-1.1052738209945E-06	-7.25978400612747E-07	-2.48583357565377E-06	0.988394238714313	-0.145324636873423
6.2	0.00197241729729414	-0.00118573395199182	-1.06173767121315E-06	1.99093258849787E-06	-3.48779613841466E-06	-5.3653815000508E-06	0.987665947181309	-0.146962839537973
6.3	0.00183473682163404	-0.00125135360582267	1.58013263534532E-06	2.83133475922319E-06	1.15125009946444E-06	5.97536630345604E-06	0.987073443264365	-0.14892355360009
6.4	0.00157806219981964	-0.00132515516921878	2.07413507946486E-06	5.03814228454605E-06	-3.33325009221743E-07	2.27653426004881E-07	0.986636224982659	-0.150955156725692
6.5	0.00179171646681413	-0.00140360654088654	4.66864615737646E-06	-1.88552789972124E-06	-4.69482332097825E-06	-1.54352544044632E-06	0.986660646481236	-0.154064497870499
6.6	0.00148822242563797	-0.00199179386265262	3.24252131381482E-07	-1.06923830414662E-06	9.2996815298705E-06	3.32369314746256E-06	0.985687874997637	-0.156915566892331
6.7	0.000976747486905675	-0.0019330998925807	5.34667844872816E-07	5.60863490055198E-06	-1.78378402632277E-06	4.97274912278344E-06	0.985211829426529	-0.158905956944891
6.8	0.000588749870880015	-0.00166841439046839	1.74611799867737E-07	-1.5855831777329E-06	-3.47814640349348E-06	-5.11411601716285E-06	0.984819303700926	-0.160972554869343
6.9	0.000192525187019244	-0.00114224971206698	-6.63745915591587E-06	6.71684628499849E-06	2.286576036928E-06	1.35229693305509E-06	0.984582459417629	-0.162903344465799
7	0.000561324356256465	-0.000393454224984855	8.07700527174252E-06	3.16133301085379E-06	4.5676055238316E-06	5.85941708489325E-06	0.984434150361447	-0.164695169791214
7.1	0.000619717428340607	-0.000696624567138387	1.39564689525882E-06	7.82891944930665E-07	-2.27327054537064E-06	-4.47380631434627E-06	0.983872941565852	-0.16684517894019
7.2	6.67925564230731E-05	-0.00059748083601096	-1.34146037784809E-07	4.39539007496839E-06	-5.00873339835139E-06	-6.56125681100993E-07	0.982930626142832	-0.168654622206002
7.3	-0.000622233547191849	-0.00020256007005756	1.34761165844568E-06	-5.2604189382746E-06	-2.34798818001382E-06	-2.78570800055438E-06	0.981703587014792	-0.170406907007111
7.4	-0.00154688371638134	0.00054556781876259	1.83924064109309E-06	4.41298894534853E-06	-7.28120804298544E-07	-1.06693767130499E-06	0.98020736086028	-0.172636723888649
7.5	-0.00181573575773091	0.00210931985728244	-5.72726203285731E-06	-1.4826011113628E-06	-1.581285840887E-06	-8.87555056059842E-06	0.978885321919068	-0.173853434930293
7.6	-0.00133820730591569	0.00271807179787081	5.6104714103625E-06	-3.37817298802925E-06	1.01993635197571E-06	3.18259971298348E-06	0.979182123363475	-0.176342361689842
7.7	-0.00127071398347421	0.00321048530714879	-6.48829417486501E-06	-2.85653874784021E-06	4.36614086741729E-06	5.65801864231603E-06	0.979050863897187	-0.179554324256489
7.8	-0.000880547532179482	0.00352668952651515	-1.07927944982273E-06	-5.34431643643726E-06	-2.13175673070189E-07	1.14083522319943E-06	0.978937674418096	-0.182730104338979
7.9	-0.000316258556546735	0.003823350187515	-3.34585128340625E-06	7.19040761170802E-06	4.76322582978914E-07	-6.86390333937952E-06	0.978771380531463	-0.185565428304055
8	0.00102204954595789	0.00372313085467452	-2.47598508253186E-07	7.37491464486529E-06	1.77859102537359E-06	-4.44829635020148E-06	0.979661716547346	-0.188089935988948
8.1	0.00140951421764162	0.00275399032402224	-7.28825288255485E-07	-6.46808551146493E-06	-1.74676583324235E-06	-1.06603643409855E-06	0.979555552226514	-0.192064392167673
8.2	0.00123438015148171	0.0024010418560113	-3.83006082666228E-06	1.64874374383721E-06	-1.09708668177439E-05	-2.62726676572592E-06	0.978827816840441	-0.194974639753766
8.3	0.0010003836200167	0.00241417017439676	-5.54299402038001E-06	-9.86902302838791E-06	-7.79313620950039E-06	3.01580205613072E-06	0.977887549226527	-0.197757615806303
8.4	0.000722414284922549	0.00294861449447258	6.7781799208266E-07	-6.10259166911436E-07	-1.41741469778625E-06	4.40269900838204E-07	0.976990697711736	-0.200279158303035
8.5	0.00134990914375782	0.00381779484798629	-1.75334160742743E-06	-2.56864500873603E-07	-7.52295654508669E-09	1.80448603601098E-06	0.976364128763278	-0.203088668424048
8.6	0.00186453317182067	0.00356758820295254	2.42764930425195E-06	-3.97158442379355E-06	-4.56263605562231E-06	-5.92248711147031E-06	0.97560857292316	-0.205705659095812
8.7	0.00181945005132674	0.00365563550621842	-1.4976688269366E-06	-2.09525958337389E-06	-3.56006716344994E-06	3.63604212805865E-06	0.975142193209056	-0.208055975780457
8.8	0.0018138856539866	0.00403195924209437	-5.4977953122944E-06	-2.12588882352415E-06	-7.23553659020336E-06	-1.27536651667203E-06	0.974805241290506	-0.210184333844271
8.9	0.00191760334340245	0.00466560995517929	8.56147795710807E-06	4.10757050262223E-06	-1.4215130096288E-06	3.2018891673996E-06	0.974865565567881	-0.212046771003762
9	0.00295073348732011	0.00557518841706043	-5.02362536013342E-07	4.16672480476027E-06	-7.82955026964793E-06	1.22811523874009E-06	0.974846341098484	-0.21404284629541
9.1	0.00423980860433619	0.00530940338499031	-2.56207868375779E-06	6.64440923439938E-06	4.11175700668746E-06	-3.08487222715923E-06	0.974986701769169	-0.216028365870781
9.2	0.00520531570410957	0.00497806193620069	-1.17833074594498E-06	3.4300548754856E-06	-2.24956429706037E-06	-2.06106535696257E-06	0.974949302253361	-0.218682801167421
9.3	0.00616799459275278	0.00443049157228098	2.32647168621264E-06	-4.04796809088918E-06	-7.95158387719049E-07	-1.78300483043021E-06	0.974706492687733	-0.221555359274387
9.4	0.00688295418768724	0.00375854716535991	-1.79691162057707E-06	3.90149648421517E-06	-2.07380440473076E-06	-3.5807699390533E-06	0.973828255074205	-0.224835090383679
9.5	0.00786249931674851	0.00317873691359538	3.49909456331335E-06	6.28980988423085E-06	3.64722511793455E-07	-2.14945315155953E-06	0.97276775959045	-0.227207682164424
9.6	0.00801266829006104	0.00175939302260924	4.61872019489599E-06	7.07426557948912E-06	-8.22671798677558E-06	1.27963062162121E-05	0.972447052540783	-0.230310294240678
9.7	0.00760302932969807	0.00110196415649635	-2.88042324631681E-06	-1.534124081643E-06	-1.38477893117189E-06	-3.96993574025268E-06	0.971776104210994	-0.233073365505009
9.8	0.0072220054058402	0.00081040234105931	1.32192603889077E-07	-3.59496205982447E-06	3.04306601096003E-06	2.40134939209976E-06	0.97128648664642	-0.235258973999091
9.9	0.00683401997154512	0.00103201307058977	5.79917662699619E-06	-6.07001439581879E-07	-2.57600323382942E-06	6.72286083212297E-06	0.970445758467199	-0.23671316084307
10	0.00738725471698216	0.00150133010620855	-1.14163431830778E-06	-5.8128321491971E-07	1.36742525791568E-06	-1.18539199278401E-06	0.971136811118022	-0.237619009306074
10.1	0.00778993874822927	0.000817284088142813	7.20216600927468E-07	-8.42901028668391E-06	6.1610415267528E-06	3.61637116752719E-06	0.970998802464436	-0.240447510151108
10.2	0.00763316033372632	0.000522989209607934	7.49909845715435E-06	8.33143139838104E-06	5.22876872389644E-06	3.53646703693688E-06	0.970063245081621	-0.2422649189717
10.3	0.00752778063180558	0.000531691086545801	1.7604306185814E-06	-6.96126775010708E-06	1.42605740149062E-06	2.87052223358754E-06	0.969003691089028	-0.244157206530663
10.4	0.00761704136345905	0.000924511200427979	-4.02823686005459E-06	-3.64308432140376E-06	1.95706737908836E-06	-5.59937992657791E-06	0.967848009177904	-0.246111886825953
10.5	0.00881602250213081	0.0014495655742545	3.72882554518484E-07	-7.06989260023729E-06	-5.73162657045001E-06	4.07574495741052E-06	0.96697206057638	-0.248562757998284
10.6	0.0100534370266011	0.000730339775753087	5.48958865362115E-06	6.73368384806829E-06	2.43375923450401E-06	1.19341115532728E-06	0.965907073005923	-0.250675091284143
10.7	0.0109673131056707	-8.95488308214179E-05	-7.07619414376328E-06	-1.69037736333119E-06	-7.73237319664057E-07	1.55935129407899E-06	0.965669237019055	-0.252998820864527
10.8	0.0115890528986912	-0.00124792910718421	1.48670296686356E-06	4.44320599839425E-06	9.41515764246599E-06	-4.46939464367507E-06	0.965436122500548	-0.255199920150382
10.9	0.0116900110051119	-0.00215645668008073	3.26249596101702E-07	7.42343987585873E-06	-5.165028804772E-06	2.08472530932989E-07	0.965210581010034	-0.257337348180862
11	0.01255505341154	-0.00282159267579416	-2.22854052102667E-06	-3.82653364256328E-06	1.20468547439646E-05	-3.56381093903643E-06	0.964899823813124	-0.258787254989629
11.1	0.0129087365443416	-0.0046427734683912	-6.12468468824709E-06	-4.933972866019E-06	9.54189290068096E-07	5.58139569469324E-06	0.964809494873433	-0.260598572384632
11.2	0.0125982898273654	-0.00609224740651601	3.32121334136111E-06	4.30615697106451E-06	1.05822039556823E-06	-7.88586677534534E-06	0.964393139077779	-0.262761621865419
11.3	0.0121662724211742	-0.00735491620436674	7.10469900925874E-07	-2.66105818231457E-06	-4.83498431857506E-06	9.12908293018164E-06	0.963889262808105	-0.265275594979896
11.4	0.0114325856697687	-0.00829153511019508	1.47441740756057E-06	-2.20626448368266E-06	-3.02391922767931E-06	-7.43743517043765E-06	0.962357379726172	-0.268581540089797
11.5	0.0114331673214283	-0.009044214408626	9.46563534895549E-07	-1.01064376648344E-06	-9.02642722136403E-07	-8.70213447367888E-07	0.960671630447063	-0.270594251689589
11.6	0.0108903376875192	-0.0109143117629503	1.12284119426169E-05	-3.28328644077133E-06	-5.42854150601798E-06	-6.83145903216158E-06	0.960129214823197	-0.274199478614786
11.7	0.00957131460112736	-0.0121367155423808	5.32773116121037E-06	-2.90372216867163E-06	-4.41157481695286E-06	1.65697851040847E-06	0.958784524557176	-0.278221992934139
11.8	0.00825457446102186	-0.0127106419030664	-4.53690729357086E-07	-2.54850816127834E-06	1.077049522478E-06	1.32678254348469E-05	0.957107941709929	-0.281948647823522
11.9	0.00735660472396057	-0.0125881087517338	3.3262034356238E-06	1.98872068253006E-06	-1.01263904063467E-08	1.2737947017082E-05	0.955627349194224	-0.283544873077942
12	0.00790971366194462	-0.0126248580074252	2.0063189357409E-06	4.85301949297732E-07	-3.70374889883675E-06	-9.72751033073103E-07	0.956268535357156	-0.284408332796528
