# GHZ S RI R 50
0.2	0.00042267601471614	0.00379234492164235	6.30636303035566E-06	-1.00758260570574E-06	1.06698494167166E-05	1.0497218783289E-05	0.99960997980492	-0.00684660649089935
0.3	0.00112609326989529	0.00348483240561337	5.81790410369195E-06	5.0375142182291E-06	8.09763136231627E-06	2.9533637121143E-06	0.999439246218212	-0.00975187337963984
0.4	0.00164099889300342	0.0033549477924213	-2.70871962052728E-06	7.87133676704447E-06	-4.81477475355596E-07	-4.43159275314707E-06	0.999458067667427	-0.0123773299912666
0.5	0.00205141109623107	0.00339454179827856	2.30887378085952E-06	1.47899309439148E-06	7.51283501804179E-06	-1.05449570454433E-06	0.999266511342548	-0.0154832641621377
0.6	0.00256864054414747	0.0033303585471869	3.23173784810217E-07	3.53982369758061E-06	2.71283907841023E-07	-7.66132113048752E-06	0.999315078399249	-0.018467731200968
0.7	0.00281443426008845	0.00324682338785973	4.16649959937133E-06	5.03227337344577E-07	-3.89515625233605E-06	-2.66708238839183E-09	0.998900742433943	-0.0214331797206683
0.8	0.00308317415789192	0.00322799126484878	-2.88712922993529E-06	2.96470213032181E-06	-6.82104793748315E-06	1.3213338158255E-06	0.998627198087995	-0.0236083389000603
0.9	0.003202428396619	0.00319222920541109	6.03646871849572E-06	8.98081435887343E-07	-7.34135645046075E-06	-1.83113807460587E-06	0.998411876725876	-0.0259864734887271
1	0.00319165611616503	0.00339730723186193	2.36045873498025E-06	2.94411465473271E-06	-9.04380098375374E-06	-2.59478231510681E-07	0.998118301056049	-0.0274296665075791
1.1	0.0034946877012988	0.00363137972964339	6.4399333715655E-07	3.5560965159002E-08	-5.30144690849651E-06	1.40344202252134E-06	0.998057591443405	-0.0292989496472456
1.2	0.00370272168683706	0.00349681292494265	-5.29568327736489E-06	-3.29006742350361E-06	-1.11886411765892E-05	-1.26597765316223E-05	0.997865416658046	-0.0301001920293846
1.3	0.00379677214200432	0.00296528867769822	3.05247510377394E-06	3.10459290818225E-06	6.96100088410787E-06	-4.08875970732393E-06	0.998685061208598	-0.030967603871393
1.4	0.00362409427689677	0.00197056518864575	-2.80124395042436E-06	-1.11286805654506E-06	5.7161990172519E-06	5.96792969023098E-08	0.99872942500971	-0.0334356682138789
1.5	0.00343591017834052	0.00139967793768694	1.23945250431697E-06	-2.53491085323597E-06	8.03405373720744E-07	2.51230927027457E-06	0.998833016331065	-0.0370894278374658
1.6	0.00329132588911884	0.00100259930267955	-9.36240977832909E-07	-6.41491045755794E-06	3.18332158102864E-06	-4.24507485784136E-06	0.997773162882201	-0.0407843317155426
1.7	0.00314468369314935	0.00101385355535147	3.40469207137118E-06	6.31528918027421E-07	2.23589346230399E-06	3.85023222231601E-06	0.9973914360146	-0.0433015845518738
1.8	0.00308858564990514	0.00123658416890324	-2.37487712172269E-06	2.89701848269014E-06	-1.01536019412603E-06	-3.994750170274E-06	0.996746243220799	-0.045967165544039
1.9	0.00306780604487776	0.00144013551914393	-3.72899619120504E-06	-1.75730706537608E-06	5.62470806318916E-06	3.02279583533141E-06	0.996039569967679	-0.0479920038579658
2	0.00333041655889903	0.00187482648112299	-6.16854632441725E-06	-5.74713951573197E-06	-2.08012587751751E-06	9.14453933019148E-06	0.995510388176157	-0.0498239643151412
2.1	0.00371146233734216	0.00166309094016887	1.17034578523907E-06	4.60308062701847E-06	4.47889210917727E-06	3.98938122112866E-06	0.995731761000133	-0.0522646137871256
2.2	0.00366627292176047	0.00149574500266459	6.55658424086755E-07	9.06204349748544E-07	-3.62499339777783E-06	-1.09305256283399E-05	0.995559114622754	-0.0547642074222767
2.3	0.00348838256402926	0.00134691879935477	-2.28386439144032E-06	3.55669147865114E-06	-5.34186107965282E-07	-2.79384483901859E-06	0.995035401525575	-0.0565367519644308
2.4	0.00306848097359672	0.00134106071239628	-1.55495649860222E-06	-1.45485813036796E-06	1.28335041681504E-06	-9.97529703758153E-07	0.994747464114512	-0.0594401684764461
2.5	0.00268511048481016	0.00188411280406245	7.78027971663598E-06	4.05807911787187E-06	-2.34369161532577E-06	-7.22260598313638E-06	0.994225167582602	-0.0612548063278607
2.6	0.00294491792836421	0.0022628676300053	4.85428354340943E-07	2.11517057320139E-06	-1.46733377365949E-06	4.68015153722152E-06	0.994234235704551	-0.0636701695103856
2.7	0.00321995250100898	0.00242855094828316	-7.86180056674961E-06	5.2303584740176E-06	2.52451015764833E-06	9.71247264495274E-06	0.994244935669424	-0.0663572449013994
2.8	0.0035447267010847	0.00248571120712793	-7.74349557492871E-06	7.94367344964658E-06	5.99682015968221E-06	1.99059580234366E-05	0.994666087121614	-0.0683962605259894
2.9	0.00383096748060468	0.00248195502363697	-1.18975824296943E-06	8.58832930394091E-07	-8.11330494397803E-06	-2.96526395018528E-06	0.994571934252443	-0.0705824263157929
3	0.00441638828156271	0.00264762838619406	-6.08417633912049E-07	-4.47041225430947E-06	-2.185576411732E-06	6.43519816197869E-06	0.99460046918148	-0.0731465567443244
3.1	0.00504086749475904	0.00213865628417105	-2.58739037505419E-06	8.79545557661672E-08	1.10129695331151E-05	-3.52042664768989E-06	0.994414590425897	-0.0752675424527391
3.2	0.00521169119776852	0.00167572646063477	-9.79732984741352E-06	2.54304152464159E-06	1.21574410251259E-05	4.2667669195888E-06	0.994364744368555	-0.0772037039896092
3.3	0.00523528096215068	0.00116256165982261	-3.46781090285359E-06	9.32465783745008E-07	-5.00941539298696E-06	-1.44507738811019E-07	0.99426410058612	-0.0806759308187432
3.4	0.00495305008208331	0.000793279754840564	5.34639113789229E-06	4.86571131334241E-07	1.34869396063846E-06	4.46691822765675E-07	0.994066514751218	-0.0830008438521015
3.5	0.00483337530676094	0.000787183669174243	2.76714017304123E-06	1.55667026458465E-06	1.31176656428927E-06	7.9165652338062E-07	0.993333474610462	-0.0855802319585399
3.6	0.00472710190713434	0.00034963645459309	-7.14350757772322E-06	-1.35500749597109E-07	1.86478874121068E-06	-3.49447832769596E-06	0.993234990522696	-0.0877218171779028
3.7	0.00420101368823484	0.000200301826649724	5.77501169659506E-06	-1.50950533222505E-06	-3.2426752536931E-07	-1.73193050518782E-06	0.993041552305944	-0.0903443921472036
3.8	0.00378690837641348	0.000408781939513569	-2.0017784680289E-06	8.75694414637418E-07	-5.19150037660338E-06	2.96442065382263E-07	0.99254116983651	-0.0921764358571625
3.9	0.00357262455994466	0.000910375931339368	-8.3624107000527E-06	1.7745607356451E-06	-4.11447218521776E-06	-1.50123489493935E-06	0.992226081111987	-0.0947170486668796
4	0.00412254714366937	0.00165025619325634	-5.82551426338214E-06	3.59724994027354E-07	-9.48617047565989E-06	-8.46319282486214E-06	0.992771007764536	-0.0948414804111028
4.1	0.00497255826002766	0.00128903800749378	-3.99362414075496E-06	4.06367946318016E-06	-1.8876532141915E-06	5.58244309064181E-06	0.993848825957561	-0.0973258500757915
4.2	0.00519791497862202	0.000752051840645895	4.6277465939794E-06	-4.38343826321644E-06	6.75770894414845E-06	7.6195011935324E-07	0.993560037712113	-0.100379053047476
4.3	0.00517429512320877	0.000305147141469992	-3.80060331234289E-06	1.12408797041851E-06	3.55341658676778E-06	-1.20365817191916E-06	0.993637746512332	-0.102613936027529
4.4	0.00485149589705525	2.65263753535757E-05	-3.14732298130651E-06	-4.94455281586803E-06	9.32254539721117E-07	-1.03658645012927E-06	0.993380219900655	-0.105020635826768
4.5	0.00479552775388532	0.000300507654218497	-1.39441755615263E-06	2.03244905594702E-06	2.1511594855393E-06	-8.48484136472978E-06	0.993712816214393	-0.107435371917973
4.6	0.00495426242955334	-0.000164722032864504	5.39348559867983E-06	9.60739969456324E-06	-1.42201966971895E-05	9.81271202864991E-06	0.993217440852719	-0.110655020049131
4.7	0.00465737333792951	-0.000489496785560357	-7.58671368580051E-06	-9.57942931492834E-06	-1.14593062853606E-06	-1.36421057118928E-07	0.992955233325246	-0.112589908014801
4.8	0.00432823037409475	-0.000641956261711981	-8.7477578080652E-06	-2.70440246145993E-06	-4.39101476545901E-06	4.54076525618165E-06	0.992535181396781	-0.115054036832761
4.9	0.0039769855975482	-0.000637720980869816	5.76532362244419E-06	8.33671429037287E-06	-7.27080910582821E-06	3.271393774542E-06	0.992173979346584	-0.116864612991226
5	0.00415430989088052	-0.000353362708293014	4.2986954886752E-06	-8.54714716356046E-06	-4.28815169763537E-06	-6.19510041542169E-06	0.992047317430505	-0.118487060450037
5.1	0.00437198144395772	-0.000872302392978405	1.52636347308762E-05	-1.02290281205296E-05	3.51232115895955E-06	-8.73044918066739E-06	0.992001227432693	-0.119819448738726
5.2	0.00414174470770565	-0.0010608471739574	-4.23040567864169E-06	-4.73493836165466E-06	-3.17115177524974E-06	5.1779094123475E-07	0.991850880592568	-0.121873828312401
5.3	0.00410797743382065	-0.00103811825987937	4.78088235805653E-06	3.39277558020226E-06	-9.3073226845502E-06	-4.7778068292685E-06	0.992054353760622	-0.124077066773048
5.4	0.00411357706149021	-0.00101876476521062	5.19161435550516E-06	1.21209788655777E-06	-4.94079973480774E-07	1.04825425579144E-05	0.992439764878311	-0.127296645760082
5.5	0.00460122174090167	-0.00085215355362386	-1.81310827756619E-06	-1.98701743027088E-06	8.89796440967685E-06	5.21613527929748E-07	0.992038724064058	-0.130188584320746
5.6	0.00462725361772916	-0.00191511443197155	4.23924846838636E-06	7.25165186921329E-06	-4.4858366867532E-07	-8.6307154706468E-06	0.992203575752616	-0.132922383673137
5.7	0.00369036121350134	-0.00229334462067352	2.06185384593635E-06	-7.19705879323417E-07	5.47991571112957E-06	2.47087740002302E-06	0.991861827458556	-0.135837744211683
5.8	0.00273239158727671	-0.00213753494524278	3.91905119818121E-06	1.97279137225869E-06	2.72572451139969E-06	7.85931820273589E-06	0.991428542261333	-0.138151274954526
5.9	0.00167308707796326	-0.00140033926662923	-3.78688572691156E-06	-3.07313470449237E-06	-4.70831657062518E-06	-1.79412159200466E-06	0.990668473401875	-0.139810444074544
6	0.00148966077943681	0.000426540822751132	-2.09016017839321E-06	1.70595701244166E-06	1.04830836671272E-05	-2.64435346641168E-06	0.992003516953384	-0.139971037291591
6.1	0.00262011445283472	0.000901327336077303	-7.36525349296877E-06	-1.11624258783618E-06	-7.27063508673503E-07	-2.49728969886145E-06	0.993741805873453	-0.143064297746254
6.2	0.0032215529804622	0.000633017070734794	-1.0662278893693E-06	1.99907721074181E-06	-3.50186297874668E-06	-5.38769500129126E-06	0.993608509661489	-0.145825953698116
6.3	0.0034338404408851	-0.000139285241687622	1.58683680039147E-06	2.84160522981152E-06	1.15715914740759E-06	5.99761331387846E-06	0.993068255648284	-0.148901417251105
6.4	0.00282535898804369	-0.000769971297644705	2.08202030813376E-06	5.05638982545617E-06	-3.34526547988916E-07	2.28504990921505E-07	0.992179841565523	-0.151395981599868
6.5	0.0028058570167474	-0.000776068034241621	4.68685982837909E-06	-1.89484073260462E-06	-4.71437865765108E-06	-1.54807992893557E-06	0.992390469473786	-0.154925563761459
6.6	0.00227067976557313	-0.00157026165969962	3.24702850623041E-07	-1.0730663816562E-06	9.33328242698655E-06	3.32932307935362E-06	0.990406927970828	-0.15842852179914
6.7	0.00157385272051978	-0.00143246507710812	5.38352233193278E-07	5.62597321658956E-06	-1.78757439891565E-06	4.98893214423052E-06	0.989271710210609	-0.160178196660844
6.8	0.00111754351956456	-0.00125205819254088	1.74733814948359E-07	-1.59049304642395E-06	-3.49015102788728E-06	-5.12889788175681E-06	0.988548985103166	-0.162216357300007
6.9	0.000386822754630072	-0.000810061687195587	-6.65575996909572E-06	6.73989044440311E-06	2.29411528210462E-06	1.35571629309676E-06	0.987827849455539	-0.164162736036042
7	0.000750062381922557	0.000351259355014667	8.10345455330137E-06	3.16598876725574E-06	4.5850529320845E-06	5.87440852796168E-06	0.987714381599398	-0.165582475755554
7.1	0.000913398388925899	-0.000279491117074979	1.40032537010695E-06	7.84133689602619E-07	-2.28330135643517E-06	-4.48519914652961E-06	0.987311369693849	-0.168401026844573
7.2	9.74296873855996E-05	-0.000264040909530928	-1.30137798536703E-07	4.4086048597986E-06	-5.0242968470729E-06	-6.5305577906604E-07	0.985976165143637	-0.170788649388045
7.3	-0.000808204003951084	9.44177784084995E-05	1.34407366758329E-06	-5.27831350420204E-06	-2.35914018255716E-06	-2.79074815164818E-06	0.984241718526357	-0.173166418972666
7.4	-0.00217731357395471	0.000776955436898289	1.85457328885018E-06	4.42146093180424E-06	-7.32641131040736E-07	-1.06834012898577E-06	0.981611375066874	-0.176242164264649
7.5	-0.00286173705661634	0.00301317333796012	-5.74059217530892E-06	-1.47091933704473E-06	-1.60593071698514E-06	-8.88660324300656E-06	0.978357243351251	-0.176440291769588
7.6	-0.00221208212758874	0.00393593879560384	5.61297346882179E-06	-3.39587374449808E-06	1.02843420156662E-06	3.18591790322775E-06	0.978896949916224	-0.178046442862584
7.7	-0.00221671519202196	0.00476091483872857	-6.50595295347075E-06	-2.84554294648941E-06	4.38707663167103E-06	5.65680116654985E-06	0.978585251807478	-0.181037944760117
7.8	-0.00165783350835716	0.00544872367244059	-1.09463840458124E-06	-5.348700103402E-06	-2.10493969058602E-07	1.14292520146997E-06	0.978367853081796	-0.183801455414155
7.9	-0.000908606968209851	0.00610371616406746	-3.33084998604788E-06	7.20470960939626E-06	4.59727814451512E-07	-6.87082775333391E-06	0.978156714759673	-0.185790936240334
8	0.00116775051124454	0.00647685817874028	-2.37089021935202E-07	7.38418654078249E-06	1.77422022107692E-06	-4.45627664787702E-06	0.980643579181814	-0.186914855353853
8.1	0.00206459841275453	0.00499048835031795	-7.43901963151334E-07	-6.48081460471867E-06	-1.75283365068734E-06	-1.06474650609763E-06	0.982255109111709	-0.192466532981708
8.2	0.00210580310735341	0.00442961996353545	-3.83413781523686E-06	1.66237386802096E-06	-1.10017707607714E-05	-2.60432450398939E-06	0.981627279022494	-0.19633861168256
8.3	0.0021270537975694	0.00412832711683179	-5.58237438223361E-06	-9.87426353820717E-06	-7.80109501645668E-06	3.044030305712E-06	0.980755984218713	-0.199740608352061
8.4	0.00179603085635551	0.00428018605598316	6.77637517515926E-07	-6.13601050166352E-07	-1.41942409228351E-06	4.45331916827962E-07	0.979883812416014	-0.202787707014262
8.5	0.00261526656178354	0.00523197431429056	-1.75857890685838E-06	-2.50978177942063E-07	-8.3754165625166E-10	1.80892194881677E-06	0.979365912945694	-0.206351626967556
8.6	0.00328012438362096	0.00426428512808327	2.41617924062988E-06	-3.98731516837427E-06	-4.59281907546443E-06	-5.91431848720292E-06	0.977913712565753	-0.209732158067063
8.7	0.00288924382162468	0.00398157821895414	-1.50732518345908E-06	-2.092459033659E-06	-3.5512897930963E-06	3.65386328744856E-06	0.976738902580209	-0.21228472820826
8.8	0.0025608785599349	0.00415877179866744	-5.51149911742165E-06	-2.10847275408735E-06	-7.24809974375922E-06	-1.25076663734521E-06	0.975767058705554	-0.214473033185862
8.9	0.00215159987060161	0.00471589865293778	8.58618266690396E-06	4.08096314771857E-06	-1.41143219326569E-06	3.21070969818505E-06	0.975248534847957	-0.216329990597475
9	0.00296225448510905	0.00616630866895162	-4.84791442222344E-07	4.17223074270503E-06	-7.8305267363434E-06	1.26287304866963E-06	0.974689927204899	-0.218229181070911
9.1	0.00427325250629344	0.00593079223117289	-2.53507196458652E-06	6.65762176712497E-06	4.1002898795648E-06	-3.10329739570047E-06	0.974539285005296	-0.220079661342782
9.2	0.0051650416888636	0.00586614664046634	-1.16342478224075E-06	3.43674347335427E-06	-2.25973031393671E-06	-2.05181617064377E-06	0.974394736794239	-0.222796044272841
9.3	0.00631003979682565	0.00545380094106072	2.3068209899089E-06	-4.06055618352629E-06	-8.04251335690114E-07	-1.77946348042331E-06	0.97403417046374	-0.226024827498865
9.4	0.00699653293791521	0.00468589915696099	-1.77464969220391E-06	3.9107533425029E-06	-2.09345191674722E-06	-3.56838365418853E-06	0.972519218596577	-0.229934364315904
9.5	0.00818706231809355	0.00429335996146176	3.52811928830085E-06	6.26139783721464E-06	3.52479918397722E-07	-2.14823747065939E-06	0.970465981137902	-0.23173464744809
9.6	0.00822137160231461	0.00238676911408249	4.64517590853002E-06	7.04269924282991E-06	-8.15537364444194E-06	1.28165529411197E-05	0.970131093944916	-0.234735341514456
9.7	0.00739927066180291	0.00173577908917002	-2.883666553669E-06	-1.51839428225077E-06	-1.40159943784739E-06	-3.95788496900547E-06	0.96884468079571	-0.237578307724776
9.8	0.00668228977991187	0.00157887750365612	1.14541931642907E-07	-3.5893303751132E-06	3.0493928408921E-06	2.38241395887555E-06	0.967461173546931	-0.239581543661083
9.9	0.00580830619362469	0.0021787454095269	5.78214199661734E-06	-6.3180982891576E-07	-2.53916661345688E-06	6.7179885747561E-06	0.96546735920767	-0.239985462688799
10	0.00653880947018826	0.00369166084480133	-1.14151633862251E-06	-5.75992274934834E-07	1.3604374076403E-06	-1.1880488791037E-06	0.967258754212417	-0.239086751482058
10.1	0.00753609726556967	0.00315318612470055	6.80325299879196E-07	-8.41552300266926E-06	6.16528135465831E-06	3.58106446226622E-06	0.967399735163346	-0.242871246189399
10.2	0.00784913870525926	0.00295829285578558	7.51494147322566E-06	8.27268403020335E-06	5.2294595103045E-06	3.50220914045991E-06	0.965817510418049	-0.244347841595791
10.3	0.00816500131122206	0.00270078823485213	1.72660400885836E-06	-6.94230181536787E-06	1.43200985658665E-06	2.85426661587733E-06	0.964455042760511	-0.245551456240989
10.4	0.00812472326919881	0.00281113203427896	-4.0230642408623E-06	-3.61729095709866E-06	1.93330541966224E-06	-5.58323119163628E-06	0.963247752483888	-0.246461861347332
10.5	0.00949256969454375	0.00371303016754343	3.51517912382989E-07	-7.04534010331171E-06	-5.69932792182921E-06	4.07720761638311E-06	0.963115379164943	-0.248366257654407
10.6	0.0110832889190123	0.00279050764315316	5.48034178585714E-06	6.69136781858405E-06	2.42562302971795E-06	1.18262059956498E-06	0.961978814577467	-0.250077212903321
10.7	0.0123608626490557	0.00174873172022465	-7.04707319050233E-06	-1.67290707379901E-06	-7.67603744556561E-07	1.55349730209077E-06	0.962376404383355	-0.252015130965754
10.8	0.0131336038800204	-4.68350897710903E-05	1.48483316536628E-06	4.42261726299096E-06	9.3701900493929E-06	-4.45976866534648E-06	0.962480199864706	-0.254712555528253
10.9	0.0127405738318305	-0.00143339526805036	3.31866277415555E-07	7.39224933851431E-06	-5.14334467369384E-06	2.1245752848072E-07	0.961865538217708	-0.257366966271383
11	0.0135173484113953	-0.00184948127987441	-2.22328927846457E-06	-3.80605045309246E-06	1.1986867476467E-05	-3.56313797627239E-06	0.961095173621957	-0.259105789836401
11.1	0.0137658673990468	-0.00415583362113436	-6.09772998527221E-06	-4.90379686200772E-06	9.54022146821236E-07	5.55226541093953E-06	0.960207602222021	-0.26131451603248
11.2	0.0130799486389621	-0.00568400394181314	3.30693844188277E-06	4.28239419266463E-06	1.04820896298778E-06	-7.84656351904471E-06	0.95896710040017	-0.263413649364551
11.3	0.0124129982481336	-0.00701833900589814	7.05379623049911E-07	-2.64829581688693E-06	-4.80564463329742E-06	9.08671548295319E-06	0.957887309751335	-0.265837600113704
11.4	0.0112161385837709	-0.00792641133825247	1.46461319142788E-06	-2.19630883113976E-06	-3.01562161468892E-06	-7.3959816031706E-06	0.955282915100956	-0.269019648483801
11.5	0.0112864349241564	-0.00811991619051373	9.40152879482562E-07	-1.00446688965226E-06	-8.9713410527286E-07	-8.64328607371567E-07	0.952787862622899	-0.269188128556392
11.6	0.0107148630367437	-0.0103827202480024	1.1164851425894E-05	-3.25670486711084E-06	-5.39228930126734E-06	-6.79503907677238E-06	0.952945960711152	-0.272395558261774
11.7	0.00892791389146321	-0.011602444997591	5.29937010044771E-06	-2.88321194244936E-06	-4.38754420446686E-06	1.64427181747159E-06	0.951106443929426	-0.276112941030233
11.8	0.00710753477569224	-0.0119543670169246	-4.48603877055673E-07	-2.5333937816363E-06	1.05839567302161E-06	1.31879672494749E-05	0.948672052452972	-0.278910927742854
11.9	0.00558702768568667	-0.0111213202852433	3.29917976087879E-06	1.98068111046863E-06	-3.29559470816932E-08	1.26481319712126E-05	0.946402184091625	-0.27820382469563
12	0.00677815916704715	-0.00985828060674135	1.99215010457429E-06	4.89729628536154E-07	-3.6773083491005E-06	-9.80450665081706E-07	0.949914905730774	-0.276400657005043
