# GHZ S RI R 50
0.2	0.000515143281801897	0.00337241199265069	6.30863273011965E-06	-1.00493580922269E-06	1.06680116572061E-05	1.05051813379509E-05	1.00006175904209	-0.00674478212068781
0.3	0.00123143332909711	0.00312664225402813	5.81835410024049E-06	5.04116251504355E-06	8.09955673597015E-06	2.95700290392269E-06	0.999972611269788	-0.00973999334272956
0.4	0.00174514199640391	0.00301938645620258	-2.71141535327658E-06	7.87437267266151E-06	-4.80863149313725E-07	-4.43367827806299E-06	1.00006717837821	-0.0124956405287744
0.5	0.00216724791985805	0.00294307183816366	2.30962706007876E-06	1.47976595450141E-06	7.51580921718349E-06	-1.0542301115564E-06	0.999724349081061	-0.0158179535145145
0.6	0.00245742904069933	0.0028443388276681	3.22454603058183E-07	3.5415674741449E-06	2.73296840345581E-07	-7.66485633559461E-06	0.999572623551176	-0.0185555298052962
0.7	0.00259332284368128	0.00288297982219866	4.16922486678412E-06	5.04581788642207E-07	-3.89781749507732E-06	-3.61364616233462E-09	0.999301398506853	-0.0212995671059495
0.8	0.00283045272947007	0.00298714143372853	-2.89010241167355E-06	2.96670136876663E-06	-6.82706261299297E-06	1.32124159481178E-06	0.999237517781143	-0.0233544494746668
0.9	0.00302888226444432	0.00309522614407831	6.04224784462901E-06	8.99330433379944E-07	-7.34833822496409E-06	-1.83337141848362E-06	0.99934686731014	-0.0257047999497477
1	0.00331666404441946	0.0031440545922319	2.36282134552521E-06	2.94645731927841E-06	-9.05174936998329E-06	-2.5879983666628E-07	0.99934155672939	-0.0276364717855388
1.1	0.0034510696991743	0.002959455771673	6.44421572955114E-07	3.55462255007911E-08	-5.30487141049755E-06	1.40468570667676E-06	0.998768250994013	-0.0300037181759346
1.2	0.00331528849441282	0.00249007220878253	-5.29753117981764E-06	-3.29098909523304E-06	-1.11927214689212E-05	-1.26636064149717E-05	0.99777132613372	-0.0311268740235907
1.3	0.00278859435459528	0.00179378788615812	3.05188655856514E-06	3.10467157090154E-06	6.96087676266412E-06	-4.08766573041921E-06	0.997431497032618	-0.0319589259517757
1.4	0.00228654105710071	0.00116599845630133	-2.80076418542636E-06	-1.11353996036301E-06	5.71580804249162E-06	6.1195482950343E-08	0.997102676722538	-0.0337876259194778
1.5	0.00222342465414084	0.000868655568532143	1.24042869762433E-06	-2.53587789568036E-06	8.03372205287807E-07	2.51359329944078E-06	0.997783453637641	-0.037197076844165
1.6	0.00230776998160305	0.000919378817472992	-9.37673870439076E-07	-6.42072263753359E-06	3.18586845919006E-06	-4.24926042001126E-06	0.997409022494987	-0.0404729411490793
1.7	0.00260124451378455	0.00111199725343767	3.40914158447265E-06	6.31590048403351E-07	2.23956096689008E-06	3.85462386894555E-06	0.997952635889732	-0.0428774760180032
1.8	0.00290798094393185	0.00135069164627573	-2.37799005391495E-06	2.90229704887435E-06	-1.0180029970242E-06	-4.00095343376346E-06	0.998119154955403	-0.0456096631514652
1.9	0.00324937285590237	0.00141780616543277	-3.73763433034295E-06	-1.75973535018144E-06	5.63787169932329E-06	3.02725740398519E-06	0.998350467894062	-0.0479968783612749
2	0.00353665652087695	0.00134155437786286	-6.18993460527785E-06	-5.7537079477119E-06	-2.07449030516736E-06	9.16878076146531E-06	0.997947357649421	-0.0512690745652492
2.1	0.00359539814271064	0.00119346214884622	1.17818609390247E-06	4.61053097246893E-06	4.49236352547567E-06	3.99163462206554E-06	0.997243410308532	-0.0535895518893624
2.2	0.00355893120483092	0.00114437559831569	6.58049306902611E-07	9.07249390214163E-07	-3.64522240523612E-06	-1.09482029062426E-05	0.997174753656831	-0.0558251579191723
2.3	0.00346323925146665	0.00108216459694135	-2.28380701663257E-06	3.56722869356451E-06	-5.39097961457846E-07	-2.79895933587089E-06	0.996892998629135	-0.0576243612524243
2.4	0.0033173687035935	0.00109483986152449	-1.56049476498342E-06	-1.45528624987537E-06	1.28433791752936E-06	-1.00165318330877E-06	0.99693998502593	-0.0608169274125959
2.5	0.00316490962274192	0.00104983974237704	7.80143848150084E-06	4.05289370118773E-06	-2.35989994126889E-06	-7.23223208115119E-06	0.99647215174577	-0.0634177799362508
2.6	0.00290360750097171	0.00112502655082119	4.90308550248892E-07	2.11880705677958E-06	-1.46196462757617E-06	4.6928155305678E-06	0.996040060547734	-0.0663807607139665
2.7	0.00278950605378515	0.001386728657868	-7.86609786614931E-06	5.25831016099542E-06	2.55109455461442E-06	9.72649220827078E-06	0.995407537652658	-0.0693131128583348
2.8	0.00297398511376984	0.00175194989166909	-7.73823677318548E-06	7.97528640310892E-06	6.05342638221785E-06	1.99260268237962E-05	0.995321528894442	-0.0710719120295336
2.9	0.00346815037031577	0.00192212749600154	-1.18953490581473E-06	8.6262948107177E-07	-8.13107508139822E-06	-2.95164500907306E-06	0.995125259730311	-0.0728967485188573
3	0.0040219357523735	0.0018250530011397	-6.17283998896845E-07	-4.47567856957878E-06	-2.17716539519516E-06	6.44825854828591E-06	0.995088770372762	-0.0753775388099169
3.1	0.00444081859522625	0.00160185690099154	-2.59113000750753E-06	9.3225366102401E-08	1.10226398190065E-05	-3.54762077735988E-06	0.994660376619189	-0.0772916933320233
3.2	0.00472442756814486	0.00132627851123951	-9.80424087789579E-06	2.5663341552542E-06	1.21812761649297E-05	4.24705978722891E-06	0.994480818930207	-0.0789480819447068
3.3	0.00488592138068203	0.000966091976924538	-3.46927117393417E-06	9.40297616867712E-07	-5.01450865851737E-06	-1.34624677122359E-07	0.994323551271502	-0.0821216226730676
3.4	0.00493321530137568	0.000670437587033087	5.35125635507787E-06	4.77877295759283E-07	1.35047032997694E-06	4.4474351771572E-07	0.994370135922271	-0.084073781466767
3.5	0.00489744894150937	0.000248565933183343	2.77344738963552E-06	1.55435813079621E-06	1.31484292051986E-06	7.90634275598629E-07	0.994280706757344	-0.0871104496665946
3.6	0.00463554539435254	2.81256595826013E-05	-7.1521734963247E-06	-1.18638491881755E-07	1.85864053560956E-06	-3.5030027571814E-06	0.993703326372315	-0.0896295916887829
3.7	0.00440555130377202	-7.69087659866606E-05	5.77584639553789E-06	-1.52486837010537E-06	-3.28773940320274E-07	-1.7324961081412E-06	0.99356575987302	-0.0921417960627476
3.8	0.00427733270296741	-6.43578962101307E-05	-2.001042317473E-06	8.81138497196502E-07	-5.19436545956714E-06	3.09198618573105E-07	0.993455445127529	-0.0941582267636596
3.9	0.00430235330726748	-3.62679883626825E-05	-8.3657838754667E-06	1.79811863812883E-06	-4.1223379773626E-06	-1.49191867230232E-06	0.993796935379255	-0.0975903526529993
4	0.00434612849065949	-0.000178473288319187	-5.82697198613651E-06	3.81629088496231E-07	-9.52230002311565E-06	-8.43187330949135E-06	0.993178609295743	-0.0999980664261663
4.1	0.00429923678005184	-0.000174541555779179	-3.97775374573508E-06	4.07485078803201E-06	-1.8678449410089E-06	5.58569489472431E-06	0.992098056096031	-0.101683321710318
4.2	0.00437453795291094	-0.000200380291067163	4.60999134410276E-06	-4.39492794349861E-06	6.75487619422384E-06	7.3956563646965E-07	0.991365376426604	-0.103976611114264
4.3	0.00445743811457316	-0.00025241051032951	-3.79242769516435E-06	1.1354097249197E-06	3.54526513991149E-06	-1.2140652578292E-06	0.991162532547659	-0.105843813950041
4.4	0.00453325951661919	-0.000322499991045692	-3.15857567250241E-06	-4.92451992743032E-06	9.2694635804356E-07	-1.03788709635252E-06	0.9906320343902	-0.108133718229918
4.5	0.00455484592071762	-0.000536564342083662	-1.38527072305753E-06	2.03062906293655E-06	2.12291400737176E-06	-8.4675459517488E-06	0.990159591068091	-0.110243728218532
4.6	0.00436995231948494	-0.000659130249331226	5.40342932047742E-06	9.57485971624688E-06	-1.41679481568621E-05	9.82352640065589E-06	0.989733952557417	-0.112651792238668
4.7	0.00426907563840044	-0.000744427490732381	-7.59490932948642E-06	-9.54014609265419E-06	-1.143863934059E-06	-1.33244446469213E-07	0.989631791355336	-0.114460675602205
4.8	0.00416075017087567	-0.000757799095413301	-8.73468196582014E-06	-2.67446184880532E-06	-4.36851249167143E-06	4.54205017262937E-06	0.989250202494221	-0.116797416912951
4.9	0.00423979995572914	-0.000748770136234677	5.77153827906897E-06	8.298321717577E-06	-7.24199609240581E-06	3.28167416826898E-06	0.989020377148118	-0.118470088434748
5	0.00441679773960672	-0.00103709964565671	4.26984210400187E-06	-8.53345899996842E-06	-4.28956882189255E-06	-6.16999039680807E-06	0.989084950401822	-0.120189239241609
5.1	0.00455606738633824	-0.00125687835668257	1.52013732265568E-05	-1.02432020946837E-05	3.48187891388668E-06	-8.71849968289457E-06	0.989078321074746	-0.12160349864943
5.2	0.0047191274037232	-0.00164864448853224	-4.23102397361279E-06	-4.70975549333536E-06	-3.16057260583844E-06	5.24903055874065E-07	0.988929971279234	-0.123913916696611
5.3	0.00471934083194243	-0.002073917785052	4.77256012542917E-06	3.36880237691009E-06	-9.28652882867776E-06	-4.73757587223798E-06	0.988688639234226	-0.126370091701795
5.4	0.00461817097406557	-0.00240363506243046	5.17283129560892E-06	1.19858264414336E-06	-4.74618455103617E-07	1.04413596300899E-05	0.9886009716183	-0.129205360298751
5.5	0.00429619848439402	-0.00277948828720913	-1.80983672211144E-06	-1.97915299132578E-06	8.87201224016655E-06	5.10518452839682E-07	0.988269079836622	-0.132279040073898
5.6	0.00386781565444868	-0.00278898634464557	4.23965464918674E-06	7.22033900337284E-06	-4.63748585545464E-07	-8.60228790769124E-06	0.987528813589503	-0.134559687940596
5.7	0.00346285436072586	-0.00274067589763511	2.05305561558577E-06	-7.20561915195908E-07	5.46397471542118E-06	2.45249434009928E-06	0.987383189583908	-0.136604342229382
5.8	0.0030189112815076	-0.00254784443070465	3.90725227809803E-06	1.96003761729413E-06	2.72651771524808E-06	7.82638688748791E-06	0.987670125786426	-0.13855866990765
5.9	0.0027137913718217	-0.00212258092558892	-3.77912178165852E-06	-3.05637716276997E-06	-4.69528910273854E-06	-1.78018029120906E-06	0.98814925577575	-0.141057316548566
6	0.00251900004977107	-0.00196686103713955	-2.07506660467107E-06	1.70274393660981E-06	1.04228406858488E-05	-2.65831232615181E-06	0.987545492879086	-0.144091509122635
6.1	0.00219808185294886	-0.00161665334229211	-7.32008999317618E-06	-1.1061927387518E-06	-7.23620632073282E-07	-2.48150610952165E-06	0.986569329556856	-0.145064123957296
6.2	0.00210855415633184	-0.00141706870662911	-1.06164467426603E-06	1.98705016442379E-06	-3.47828402303426E-06	-5.3598284895497E-06	0.986203096651881	-0.146166174617589
6.3	0.00210655304102485	-0.00141793223376907	1.57571009950516E-06	2.82873367122785E-06	1.14489755196155E-06	5.96812983101381E-06	0.985894268606479	-0.148014168223539
6.4	0.00213092363386581	-0.00168964912062222	2.06751293894587E-06	5.03146687906129E-06	-3.32942818102146E-07	2.27071011340603E-07	0.98549380911983	-0.150311855006952
6.5	0.00186022144697814	-0.00224808324502213	4.66145465865815E-06	-1.87342657239916E-06	-4.68176590691091E-06	-1.54804349832823E-06	0.984550144426343	-0.152737946500652
6.6	0.00141053366528233	-0.00235963799608691	3.26442249105501E-07	-1.06735749795882E-06	9.28213278949344E-06	3.34221697980782E-06	0.984732197155599	-0.154539068111263
6.7	0.000961791578590501	-0.00230404095172107	5.2276645485625E-07	5.60704143800199E-06	-1.79324777182969E-06	4.96664900050264E-06	0.984907726974869	-0.156865947890588
6.8	0.00055659940183325	-0.00191785341101887	1.774669476642E-07	-1.58481511152397E-06	-3.46779505887761E-06	-5.11904171834792E-06	0.984730036758538	-0.159086624556303
6.9	0.000472337264010738	-0.00142816039610447	-6.64715435737051E-06	6.70376388790601E-06	2.28366849743528E-06	1.35583671983007E-06	0.984862644272098	-0.161234720613206
7	0.000347562030508608	-0.00129518763077175	8.06950111376989E-06	3.17518548729391E-06	4.55602248831922E-06	5.86634050311356E-06	0.98422611129231	-0.163622969234451
7.1	1.94106611537728E-05	-0.000777812169157982	1.39410091819819E-06	7.85331953492957E-07	-2.26498695558918E-06	-4.47747167778256E-06	0.983355460785437	-0.164904068410501
7.2	-0.000171604407289247	-0.000328167362997871	-1.42490577203197E-07	4.39474447359358E-06	-5.00704091556077E-06	-6.65589919087691E-07	0.982844802703911	-0.166196952233755
7.3	-0.0005125752720991	0.000236143401886062	1.35926894081599E-06	-5.25712178050956E-06	-2.34164519878913E-06	-2.79079012772167E-06	0.982138346732261	-0.167421809604833
7.4	-0.000778433686905199	0.000990528548431914	1.82678086334981E-06	4.42049800560212E-06	-7.25235122295946E-07	-1.06960626150732E-06	0.98206212858489	-0.168970936385925
7.5	-0.000884119669710617	0.00151413238820319	-5.73619352718396E-06	-1.50002627045757E-06	-1.56281427176533E-06	-8.89898445535022E-06	0.982636920278655	-0.172177168570005
7.6	-0.000967076182119651	0.00227773698044759	5.62462206435868E-06	-3.37644142641102E-06	1.01741710670074E-06	3.18942471944893E-06	0.981715703731169	-0.175611320048178
7.7	-0.000717789788651929	0.0027762257103378	-6.4947105951014E-06	-2.87031637945831E-06	4.36517624373887E-06	5.67330999440608E-06	0.981669176930961	-0.178792972607005
7.8	-0.00026133893881764	0.00286175105741947	-1.07455032304831E-06	-5.35612077041274E-06	-2.15050367294585E-07	1.14278782955707E-06	0.981909527723388	-0.182456684733924
7.9	0.000290284164146395	0.00268664813165168	-3.35848362354528E-06	7.20706860613589E-06	4.81378898224015E-07	-6.88132377950227E-06	0.982073304973842	-0.186697624936107
8	0.000386555422292349	0.00218077339394723	-2.37803801116126E-07	7.38633467792557E-06	1.77513067380209E-06	-4.45743051580942E-06	0.980266842360694	-0.191311815171478
8.1	0.000520546066055865	0.00234948853807886	-7.31599831608826E-07	-6.46763098732051E-06	-1.74718788342458E-06	-1.06525978759671E-06	0.978443778719965	-0.192815502599148
8.2	0.000698887604817145	0.0024369893817028	-3.83034587185139E-06	1.64778262138588E-06	-1.0969928586931E-05	-2.62981146003225E-06	0.978213112819936	-0.194560052733064
8.3	0.000837332872281479	0.00266633053921928	-5.53923957706665E-06	-9.87141214908198E-06	-7.79448841992615E-06	3.01280793328176E-06	0.977751300358721	-0.196951529878808
8.4	0.00116399889361457	0.00305265645577449	6.77838890008027E-07	-6.09726208149128E-07	-1.41708259050995E-06	4.3946798741483E-07	0.977118649267224	-0.199474617514803
8.5	0.00136999999688788	0.00305797596230318	-1.75211209198426E-06	-2.59695282072924E-07	-1.05531579364546E-08	1.80365243456145E-06	0.976255490916789	-0.201944026899737
8.6	0.001446290568744	0.00359368460866995	2.4354456706253E-06	-3.97055640512836E-06	-4.55661599922289E-06	-5.9335905241435E-06	0.976140457085073	-0.20412355106742
8.7	0.00181294778399159	0.00402361970090792	-1.49670377084272E-06	-2.09840558496209E-06	-3.56652044641E-06	3.63524912325472E-06	0.976098527449832	-0.206647694004833
8.8	0.00225031020414532	0.00451403717980867	-5.4994157271199E-06	-2.1309129581494E-06	-7.23872857249774E-06	-1.2811203018533E-06	0.975973051867292	-0.208935956905209
8.9	0.00307967257395489	0.00494284416775465	8.55864702339076E-06	4.11353862038839E-06	-1.42374466058322E-06	3.20091019747833E-06	0.976234018951306	-0.210931613833526
9	0.00405574162730996	0.00477304561017374	-5.08829929673652E-07	4.16669449703896E-06	-7.83281830403471E-06	1.21634765884475E-06	0.976459941354136	-0.213264306460444
9.1	0.00499118700370066	0.0045656688644604	-2.57108987932011E-06	6.64506856283488E-06	4.11752355173392E-06	-3.08182552128857E-06	0.976495113790299	-0.215613614209853
9.2	0.00588258704987114	0.00387259105185887	-1.18319732303718E-06	3.42956442379191E-06	-2.24755117247658E-06	-2.06465391518653E-06	0.976200445182614	-0.218400794614046
9.3	0.00637084874450957	0.00312812080299744	2.33508860333361E-06	-4.04553811593E-06	-7.92215352512836E-07	-1.78531859491379E-06	0.97577853492175	-0.220967849170705
9.4	0.00682856779271179	0.00249373323105309	-1.80904822619176E-06	3.90153217888667E-06	-2.06709415408596E-06	-3.59034433913504E-06	0.975489734541619	-0.223689683114384
9.5	0.0068940736598873	0.00183899195262295	3.49773766302183E-06	6.31613783330011E-06	3.70031354898362E-07	-2.15541830141815E-06	0.975224628435237	-0.227161188252674
9.6	0.00694001543977487	0.00162230074443815	4.62881688325484E-06	7.09616680077876E-06	-8.25527967724253E-06	1.2829016170177E-05	0.974220094012861	-0.230427612420825
9.7	0.007036328170952	0.00134857639727311	-2.88743159823841E-06	-1.53844710470152E-06	-1.38763214483606E-06	-3.98015366770562E-06	0.973762780054793	-0.232978954206026
9.8	0.00707681459558283	0.00122704090014459	1.32366335064404E-07	-3.60471776125077E-06	3.05144168369545E-06	2.40770504227934E-06	0.973884448938549	-0.235272284173861
9.9	0.00733003266962616	0.00128186864410233	5.8173104101736E-06	-6.14826784632895E-07	-2.57753398919322E-06	6.74719874346803E-06	0.973969301478065	-0.238009532580152
10	0.00747141799781258	0.000885926275601454	-1.14480594205883E-06	-5.79302619307158E-07	1.36651813357289E-06	-1.190595618523E-06	0.972156823214994	-0.24081259793901
10.1	0.00753714766397221	0.00099848859598054	7.12020813117776E-07	-8.43602848422422E-06	6.16937226422066E-06	3.61267985441834E-06	0.971310050062585	-0.241179336615861
10.2	0.00789282183692648	0.00100062780642804	7.51518626028146E-06	8.33584073999937E-06	5.23815975356373E-06	3.53669489029954E-06	0.971487620464226	-0.24259913077762
10.3	0.00837119748735256	0.000997356226664075	1.75499029793171E-06	-6.97320866825365E-06	1.43137049622376E-06	2.87298803833713E-06	0.971131063678735	-0.244918968690979
10.4	0.00925513718317361	0.000801091940027842	-4.03783520490428E-06	-3.63962117539222E-06	1.94951001736385E-06	-5.60756968463021E-06	0.970106914238391	-0.247911711841819
10.5	0.00993302632257272	-3.90331225102095E-05	3.68915789874072E-07	-7.07135487114793E-06	-5.7303148073461E-06	4.07973465354714E-06	0.968187622194097	-0.250536315576654
10.6	0.0103725550947512	-0.000767574511910361	5.50051819567844E-06	6.73716956315078E-06	2.43731180357414E-06	1.19297486545619E-06	0.96717800044069	-0.253073633111597
10.7	0.0107527751737417	-0.00143928878533678	-7.08426863804659E-06	-1.68304496493909E-06	-7.71960255850704E-07	1.56162680195657E-06	0.965981951283986	-0.255489022726035
10.8	0.0110777594936084	-0.0020088318818743	1.4926734639897E-06	4.44265361665245E-06	9.41234378082588E-06	-4.48243201611377E-06	0.964958152419856	-0.256923996330954
10.9	0.0116318717863605	-0.0026639099709945	3.33057401864912E-07	7.42121526902531E-06	-5.16349818107803E-06	2.13214012948276E-07	0.964731078558834	-0.258379950596347
11	0.0119583605262059	-0.00390915866508613	-2.22900585227354E-06	-3.82660931285066E-06	1.20473767642833E-05	-3.56504236852736E-06	0.964359757082369	-0.259580648706879
11.1	0.0120745423793172	-0.0047599336604382	-6.12958827695713E-06	-4.93355729286261E-06	9.57033708667982E-07	5.5835081379685E-06	0.964425913098105	-0.260701082875411
11.2	0.0121941763141173	-0.00588744985979832	3.3239598085141E-06	4.30543809976776E-06	1.05464574412499E-06	-7.88798226362111E-06	0.964355860268936	-0.262494086818122
11.3	0.0121622117777131	-0.00703339293182646	7.10170979320775E-07	-2.66115811504017E-06	-4.83397575741664E-06	9.12969961081903E-06	0.964332181562891	-0.264545118476913
11.4	0.0120598767879508	-0.00816825091532235	1.47679267631962E-06	-2.20589423856512E-06	-3.0189606798701E-06	-7.44275634392292E-06	0.964121655588418	-0.267391226865811
11.5	0.0114958534417166	-0.00968988999879532	9.4841104617409E-07	-1.0128023497814E-06	-9.0457290892788E-07	-8.71914369538222E-07	0.963152497795579	-0.271578074559465
11.6	0.0108249520998167	-0.0106397851513905	1.12347113007747E-05	-3.29969796309768E-06	-5.44165048034895E-06	-6.83119040065216E-06	0.961145387433552	-0.27502683042484
11.7	0.0102587219061554	-0.0117091824207976	5.32773365288869E-06	-2.90906256107449E-06	-4.41215434987936E-06	1.66108548694515E-06	0.960249341906042	-0.278456001316028
11.8	0.00968481571661605	-0.0126864373633127	-4.55092862612125E-07	-2.55017961497384E-06	1.08341037245217E-06	1.32770670171607E-05	0.959685021447038	-0.282484092096396
11.9	0.009266099863428	-0.0138256669372166	3.33393492904104E-06	1.98854609895325E-06	3.38987545143901E-09	1.27594745774753E-05	0.959225434424481	-0.286349334943095
12	0.00811138781488846	-0.0153863620070602	2.00786319608966E-06	4.7968230879363E-07	-3.7068165791748E-06	-9.62383634590878E-07	0.955887257562157	-0.289891140917133
