# GHZ S RI R 50
0.2	0.000683877475567194	0.00392271152788792	6.30069360925877E-06	-1.01066351429154E-06	1.0667778989726E-05	1.04822383405097E-05	0.999125523683716	-0.00727115227640248
0.3	0.0012512383616094	0.00340744494532498	5.81537805309447E-06	5.0306010762161E-06	8.09223152244662E-06	2.94713489656333E-06	0.998784901510677	-0.0102330886963108
0.4	0.00170813398331988	0.00308446697526184	-2.70301081418153E-06	7.8641607130479E-06	-4.82608221353462E-07	-4.4268142910663E-06	0.998529955114909	-0.012965884856171
0.5	0.0016667433187231	0.00301689017607083	2.3061759884461E-06	1.47785892949666E-06	7.50512684494984E-06	-1.05201642155487E-06	0.997799794533102	-0.0156284539944552
0.6	0.00223787115613067	0.00342214927998253	3.22904577286087E-07	3.53786908628672E-06	2.71328287448426E-07	-7.65706603760478E-06	0.998340083111841	-0.018195294816446
0.7	0.00272587805187542	0.00331456225751232	4.16379053953814E-06	5.01984463537657E-07	-3.89252229216244E-06	-1.82154471445665E-09	0.998076468385543	-0.0213253169563374
0.8	0.00311993731460448	0.00322265608137089	-2.88386722428336E-06	2.96294508012362E-06	-6.81486709527132E-06	1.32203667129051E-06	0.997819502987521	-0.0235595693776205
0.9	0.00348557247118376	0.00302058780461317	6.03007326921067E-06	8.95241516860389E-07	-7.33380466947861E-06	-1.82686774767597E-06	0.997712957876251	-0.0261293909465392
1	0.00332074928111659	0.00248587548254067	2.35682792871601E-06	2.93952746040532E-06	-9.02978291404275E-06	-2.58988079581147E-07	0.99690776799553	-0.0281515426326848
1.1	0.0030433047302097	0.0029300310857371	6.43035787914637E-07	3.57053153901873E-08	-5.29408210821162E-06	1.3997602619546E-06	0.996250487771027	-0.0296064489493278
1.2	0.00327923692809947	0.00271281239690114	-5.28562690525705E-06	-3.28616603109986E-06	-1.11655693033608E-05	-1.26418270660952E-05	0.995742902652811	-0.0304864402355651
1.3	0.00302720091847103	0.00199815839044951	3.0445511216666E-06	3.10020274085414E-06	6.94952944877557E-06	-4.07648984916048E-06	0.995817120883922	-0.0312195208252866
1.4	0.00261045360062622	0.00118428868710905	-2.79516809566721E-06	-1.11352864333262E-06	5.70589669607754E-06	6.49907110704081E-08	0.99577252998931	-0.0330604627105821
1.5	0.00210061407889749	0.000998801090895876	1.24017751177497E-06	-2.53066688781423E-06	8.00170819306474E-07	2.50991447124658E-06	0.99604057163917	-0.0363092587746677
1.6	0.00257162711011048	0.00130305159259035	-9.30678877637876E-07	-6.40929926615126E-06	3.18327406566141E-06	-4.23860845519398E-06	0.995861115114926	-0.0392875773181662
1.7	0.00293214458846151	0.00118191895976602	3.40141772846842E-06	6.33552263971104E-07	2.2311769609927E-06	3.84873300080611E-06	0.996264963056265	-0.0418415729786702
1.8	0.00314189423459194	0.00121902341635555	-2.37583899857667E-06	2.89346882974141E-06	-1.01158835464477E-06	-3.99328463958364E-06	0.996235044894805	-0.044670251654632
1.9	0.00330315724609301	0.00101667098474584	-3.72742840089514E-06	-1.75875534219366E-06	5.6221646603623E-06	3.02490808286636E-06	0.996118690247492	-0.0475122570428101
2	0.0028968857254693	0.00105752706648281	-6.16307092635095E-06	-5.7396875993827E-06	-2.07601877734165E-06	9.13510872144322E-06	0.993925176469869	-0.050476484335436
2.1	0.0032011074855501	0.00155176142488079	1.1637566640233E-06	4.59768017679241E-06	4.46817916848175E-06	3.98838833456127E-06	0.99365029874876	-0.0508500127829157
2.2	0.00348890510869615	0.00145708449263611	6.5385173634552E-07	9.06334789590269E-07	-3.60685235632403E-06	-1.0926200644041E-05	0.994429878278668	-0.0528862739629439
2.3	0.0035575024976001	0.00126702479601887	-2.28728989962667E-06	3.55157735998229E-06	-5.30144481646577E-07	-2.79293734711507E-06	0.994502711792052	-0.0546962070321685
2.4	0.00352515732700236	0.000982357255986827	-1.55212266426695E-06	-1.45610928225558E-06	1.28395340920823E-06	-9.95243317095562E-07	0.994734145200267	-0.0579008512649931
2.5	0.00282900254768437	0.00064948713741	7.77058766365147E-06	4.07085464439467E-06	-2.32996183309795E-06	-7.22461832152092E-06	0.994192808280075	-0.0603176838955833
2.6	0.00246908013614577	0.0013108680952394	4.82615881912496E-07	2.11660853164869E-06	-1.47446137931519E-06	4.67974640923005E-06	0.994067693956009	-0.0629227073406916
2.7	0.00262374825203626	0.0016822935585797	-7.86875230486555E-06	5.22326111967718E-06	2.51496797646607E-06	9.71699156929105E-06	0.993686045124286	-0.0657263375853973
2.8	0.0029943373634088	0.0019778121702751	-7.75176620160958E-06	7.93445985352662E-06	5.97420704854346E-06	1.99111566913442E-05	0.993849708444232	-0.0673671274279664
2.9	0.00351330709667355	0.00189482321863739	-1.1908178206541E-06	8.56840698036269E-07	-8.10709035996645E-06	-2.97700434137533E-06	0.993890235028262	-0.0691962229152995
3	0.00362261266963778	0.00185521718100024	-6.00051972111438E-07	-4.4730522159286E-06	-2.19862834049646E-06	6.43313210173783E-06	0.993935394614294	-0.0716555415460467
3.1	0.00432686084504489	0.0019927317187793	-2.58840436485642E-06	8.39380900617902E-08	1.10222054026004E-05	-3.50439664492045E-06	0.993727498367125	-0.0733596719916895
3.2	0.00480180550585772	0.00158735165962575	-9.80366064239848E-06	2.52592146601197E-06	1.21519791392552E-05	4.28935045316335E-06	0.993866465124027	-0.0748893259845406
3.3	0.00504078167598577	0.00107938395270725	-3.47071530394547E-06	9.2522125336035E-07	-5.01039192883457E-06	-1.55356414759684E-07	0.994165972936856	-0.0779401441574076
3.4	0.00506554581820725	0.000506169499096844	5.34905773356556E-06	5.01235797881391E-07	1.34849996537569E-06	4.50631617971023E-07	0.994884618233486	-0.0800143440803583
3.5	0.00449327208459252	9.6960583662568E-05	2.76951895816641E-06	1.56548540064449E-06	1.31278398115032E-06	7.95943548318739E-07	0.994860154463959	-0.0837870650479879
3.6	0.00446516713601597	0.000360714426261787	-7.15294758756777E-06	-1.43950382183722E-07	1.87133832500925E-06	-3.4970147012387E-06	0.994062570416514	-0.0859211970122293
3.7	0.00451957079981595	0.000127472587148154	5.78379267281822E-06	-1.50328124348161E-06	-3.22251987025543E-07	-1.73438657719183E-06	0.994421933521094	-0.0882993536830807
3.8	0.0044765972022603	-7.66522282583253E-05	-2.00587810305109E-06	8.74146757697523E-07	-5.19936619593936E-06	2.89594448823832E-07	0.994746498760608	-0.0905794411599486
3.9	0.00440550931347122	-0.000375351994414284	-8.37941237052035E-06	1.77127283353917E-06	-4.12096378549246E-06	-1.50728234030264E-06	0.995104199021192	-0.0947433930248127
4	0.0038020251499078	-0.000443588272485457	-5.82873408125423E-06	3.61116932798656E-07	-9.49325983882503E-06	-8.46604167083805E-06	0.993050055654768	-0.0968374136067341
4.1	0.00400106734931262	0.000123747702324956	-3.99876237786161E-06	4.0596237767077E-06	-1.89426406821237E-06	5.58098171000641E-06	0.992936482529456	-0.097048436180808
4.2	0.00437523457803655	1.38614719297219E-05	4.63576256585578E-06	-4.38028055553203E-06	6.76064363401099E-06	7.70660767437272E-07	0.993181999639601	-0.0995640675924434
4.3	0.00457535232116677	-0.000223608284895666	-3.80372482041063E-06	1.12072529843376E-06	3.55649340115064E-06	-1.20059277551298E-06	0.993416502014477	-0.101730487260983
4.4	0.00461641765968437	-0.000652592501923715	-3.14200611034755E-06	-4.94822007079263E-06	9.33434014247991E-07	-1.03560204612443E-06	0.99308914731219	-0.104204852823528
4.5	0.00392998280572247	-0.000914393516070505	-1.39961856974073E-06	2.02946577322237E-06	2.1721538046073E-06	-8.48128602680179E-06	0.992992265061152	-0.105958570681188
4.6	0.00384253510117359	-0.000427814553306002	5.38365894877304E-06	9.63468060308317E-06	-1.42642166584795E-05	9.80131891239861E-06	0.993556809036879	-0.108731830174784
4.7	0.00396434734812308	-0.000464093734221449	-7.59013005729956E-06	-9.60646954875281E-06	-1.14795984550927E-06	-1.38004556527539E-07	0.993779006356637	-0.111076771055462
4.8	0.00398107606091055	-0.000503094646879933	-8.76165828759627E-06	-2.71525775882708E-06	-4.4020282283557E-06	4.54593662477327E-06	0.993597759882835	-0.113759034585069
4.9	0.00410762348090052	-0.000695811894200542	5.76905110164299E-06	8.35390450666121E-06	-7.28463812256967E-06	3.27182667879345E-06	0.993635192959766	-0.115739547959798
5	0.00382170510370853	-0.000835596414577667	4.31668284358129E-06	-8.56463000331093E-06	-4.29345566509636E-06	-6.21412902354042E-06	0.993924871635355	-0.117795001428075
5.1	0.00440921460408447	-0.000629749713241349	1.52997713928661E-05	-1.0261222731982E-05	3.51833676415408E-06	-8.75449543952561E-06	0.99417868301398	-0.11952455317317
5.2	0.00486689929172952	-0.00124239151399173	-4.24232388961147E-06	-4.74178788055309E-06	-3.17731599434492E-06	5.21014621486527E-07	0.994250266983139	-0.122200342643672
5.3	0.00493787158088855	-0.00190308659236549	4.79052746325944E-06	3.39576761520772E-06	-9.32512031475156E-06	-4.78064038976899E-06	0.994274183118511	-0.124975118633398
5.4	0.00471072826990192	-0.00258937522039741	5.2005669722254E-06	1.21521601851214E-06	-4.96921907467962E-07	1.05009858156762E-05	0.994658396788986	-0.128361664883088
5.5	0.00367526187321818	-0.00267116232711869	-1.82029124337224E-06	-1.99288487655385E-06	8.92857931207581E-06	5.18923515190544E-07	0.994080441959656	-0.132493419928721
5.6	0.0038648334454137	-0.00210532791407058	4.2636657487498E-06	7.26031970357243E-06	-4.6680558215458E-07	-8.6501736082683E-06	0.993064150262317	-0.134752987928106
5.7	0.00390823420538171	-0.00236793014470858	2.06409587033533E-06	-7.24821320114014E-07	5.49408598962431E-06	2.46491481170576E-06	0.993204135757301	-0.137227586271491
5.8	0.00365007606827937	-0.00256182241858472	3.92949897223328E-06	1.96821854197539E-06	2.74597580935238E-06	7.86689568080981E-06	0.993546595585557	-0.140009821683057
5.9	0.0033494135301738	-0.00282018868027445	-3.80160488117317E-06	-3.06593898976813E-06	-4.72044066129461E-06	-1.78230958574065E-06	0.993351385655817	-0.143861382716453
6	0.0020359587745215	-0.00310477947782781	-2.08074976505219E-06	1.71003611558228E-06	1.04558490023929E-05	-2.67513497770541E-06	0.990271472332258	-0.146465884570713
6.1	0.00144155239037312	-0.00199320873679571	-7.35068597902633E-06	-1.11172783570236E-06	-7.26356379046106E-07	-2.4920118783429E-06	0.990027969861468	-0.145918726335229
6.2	0.0013835062889282	-0.00160963374844605	-1.06595768027677E-06	1.99659768885134E-06	-3.49607702979231E-06	-5.38362512214204E-06	0.99010317535194	-0.147344459668581
6.3	0.00140341054143501	-0.00144312454608163	1.58508828961798E-06	2.84065385312375E-06	1.15460230108672E-06	5.99488950749421E-06	0.989747671372461	-0.149483892359168
6.4	0.00136631378242522	-0.00178025200751679	2.08073309582084E-06	5.05124439098981E-06	-3.3417336928679E-07	2.28332725981543E-07	0.988931485571588	-0.151947597545953
6.5	0.000629127678886254	-0.00168225356523359	4.68459325664339E-06	-1.88381932434661E-06	-4.70569792476564E-06	-1.55490787976151E-06	0.988372247391844	-0.15320422084566
6.6	0.00107873685773271	-0.00136634949050928	3.26621552734577E-07	-1.07422227485694E-06	9.34265951206549E-06	3.34676036361582E-06	0.990094538223422	-0.156193235491777
6.7	0.00102043789465252	-0.00161552253518892	5.4036249914038E-07	5.636518455706E-06	-1.79007540066264E-06	4.99868273493188E-06	0.990049274713594	-0.159760514091148
6.8	0.000807968404429962	-0.00152478645305337	1.73391639595881E-07	-1.59340283325704E-06	-3.50143544825412E-06	-5.13409616563011E-06	0.989512939311449	-0.162727562403749
6.9	0.000619812127503998	-0.00158887144217189	-6.6552427625347E-06	6.75830327556413E-06	2.29910467193983E-06	1.35431684318371E-06	0.989092796069821	-0.16567529494539
7	-0.000464737907071747	-0.00111967991699444	8.11780372370757E-06	3.15956025881518E-06	4.59843272138115E-06	5.87594584399466E-06	0.987290847518024	-0.167912113291861
7.1	-7.55119630897201E-05	0.000145055464453392	1.40324310923811E-06	7.83044062827331E-07	-2.29280665608223E-06	-4.487445245123E-06	0.986872163612907	-0.168779738768229
7.2	0.000277010870829579	0.000323581816898994	-1.2450407649786E-07	4.4133051791618E-06	-5.03031391594183E-06	-6.47153919005482E-07	0.986659068512953	-0.170532919201284
7.3	0.000250815522858494	0.000506913200190889	1.34209662058012E-06	-5.28479128653562E-06	-2.36344848593781E-06	-2.79219237261364E-06	0.986250575242889	-0.172286444692321
7.4	0.000156173107796772	0.000473384920429289	1.85676157522194E-06	4.43295313413343E-06	-7.33849002767921E-07	-1.07126098236406E-06	0.986847791271587	-0.175215759211518
7.5	-0.00107268885031247	0.000425764169720424	-5.77246628804384E-06	-1.46736317046375E-06	-1.63108887302632E-06	-8.92850414997647E-06	0.985608442365527	-0.180961135874522
7.6	-0.00130438040712569	0.00189839929985578	5.61734337213653E-06	-3.42478696274775E-06	1.04228179942688E-06	3.19147850400492E-06	0.982827264962986	-0.183361527069938
7.7	-0.00110990503832152	0.00235654728952968	-6.53043469372956E-06	-2.83275750048683E-06	4.41491561354505E-06	5.65729003988459E-06	0.982346288795218	-0.186469435843725
7.8	-0.000792935018047518	0.00252275276508109	-1.11536398399306E-06	-5.3590621366255E-06	-2.07229842197738E-07	1.14662304891231E-06	0.981909584805224	-0.190285011392428
7.9	-0.000484510950489878	0.00235850188985178	-3.30544726692921E-06	7.24182688137313E-06	4.27619405756591E-07	-6.89300164164777E-06	0.980825693046424	-0.194950216998939
8	-0.000956827576158658	0.0028034240627403	-1.82325490125703E-07	7.37928576833132E-06	1.73970156626501E-06	-4.46536896605448E-06	0.976305282450722	-0.19777855771074
8.1	0.000269715705332642	0.0034054995838627	-7.68847819228677E-07	-6.45626494749958E-06	-1.75154661031685E-06	-1.05381847715396E-06	0.97603947331953	-0.197319435733141
8.2	0.000885322679794162	0.00312959342606341	-3.81728527363715E-06	1.66855096839709E-06	-1.09752440831547E-05	-2.56365153071425E-06	0.976421831210938	-0.199436617035299
8.3	0.00120236555233609	0.00301202998812784	-5.58968458893379E-06	-9.82718610295782E-06	-7.76745904240362E-06	3.05430864966943E-06	0.975801474816771	-0.202114279474118
8.4	0.00141719682156377	0.00281815933026146	6.73466261254637E-07	-6.12321603744056E-07	-1.41238781514069E-06	4.46281977006686E-07	0.974694184824456	-0.204664167934475
8.5	0.000632637494833902	0.00310610098855833	-1.7518325962854E-06	-2.50908413419556E-07	-1.73466180720236E-09	1.80211057787984E-06	0.973671891645558	-0.206564404620424
8.6	0.00135302989059912	0.00437032402858365	2.40937499833116E-06	-3.98061532204049E-06	-4.58667812597695E-06	-5.90026440774943E-06	0.973783091010548	-0.208972109104497
8.7	0.00221089433573417	0.0045400832976542	-1.50651254848094E-06	-2.08538308296606E-06	-3.53780355731833E-06	3.64984298606412E-06	0.973373489155174	-0.21171922589156
8.8	0.00288413066741185	0.00462905447805767	-5.49759290648795E-06	-2.09329652145664E-06	-7.22743745135145E-06	-1.23555727412456E-06	0.972815749889727	-0.214058017810794
8.9	0.00364976829715201	0.00435570353907124	8.55402638484186E-06	4.05547314217265E-06	-1.4023824870313E-06	3.19857408521397E-06	0.972620145278046	-0.216089548119258
9	0.00360481957867122	0.00408579652460897	-4.85648883212946E-07	4.15767937039447E-06	-7.80452577364624E-06	1.25383812279764E-06	0.97214961624869	-0.218472615962186
9.1	0.0045935665057513	0.0043919771928886	-2.52519012150323E-06	6.63530725644411E-06	4.0856993456771E-06	-3.09342627388793E-06	0.971402309624504	-0.220431476049496
9.2	0.00542793954483581	0.00375900121722011	-1.16109289035935E-06	3.42131440206252E-06	-2.24861410228349E-06	-2.04483450655475E-06	0.970633728704216	-0.222558152894405
9.3	0.00590545250350234	0.00316528186958542	2.30674806021852E-06	-4.03901725629265E-06	-7.96990136702377E-07	-1.77413512118918E-06	0.97019063399428	-0.224503947767433
9.4	0.00625924034713902	0.00240427435794319	-1.7850890790585E-06	3.89409091167078E-06	-2.07453832370963E-06	-3.56735096588578E-06	0.970165738092919	-0.227180161419177
9.5	0.00585124702951776	0.00241549699169091	3.51715326643457E-06	6.27124769978699E-06	3.56937759792619E-07	-2.1484876939344E-06	0.968955395293347	-0.230953969874392
9.6	0.00679573893106922	0.00264162456514354	4.63840968558477E-06	7.03408926950383E-06	-8.14620355340739E-06	1.27990973441571E-05	0.967576942869092	-0.233057589481519
9.7	0.00733481580668354	0.00203280525381356	-2.87704247923897E-06	-1.51700888772379E-06	-1.39654178483679E-06	-3.9507830468569E-06	0.967325761454064	-0.235206209175511
9.8	0.00758089212957754	0.00153334327200889	1.16940453887033E-07	-3.58312891704061E-06	3.04247296269003E-06	2.38055629001898E-06	0.967427719054483	-0.237565983251133
9.9	0.00774490469941089	0.00098058671376817	5.77415412177536E-06	-6.35134516633845E-07	-2.5310385110377E-06	6.71105600586438E-06	0.966554390666508	-0.240826773114
10	0.00694825927539253	0.000766713400025839	-1.13642548842462E-06	-5.71310306818462E-07	1.35160432096497E-06	-1.18387334166079E-06	0.962626383833561	-0.241452848382889
10.1	0.00752784589117325	0.00142602418611807	6.97098423945666E-07	-8.37228407163792E-06	6.12622785368137E-06	3.57811024506347E-06	0.963609717883433	-0.240106619462017
10.2	0.0081932487340697	0.00113811113660851	7.46813731272595E-06	8.26746230699173E-06	5.20316994903624E-06	3.50570357734592E-06	0.964417500014633	-0.241733380150826
10.3	0.00871884438476445	0.000754260066633904	1.73745008513684E-06	-6.92188914214926E-06	1.42240336258407E-06	2.8505005863692E-06	0.964002534085544	-0.244020031234502
10.4	0.00925173898278681	-1.27355039061089E-05	-4.00500009992222E-06	-3.61231937160431E-06	1.93596647915168E-06	-5.56294345839552E-06	0.962558313054188	-0.246537305524188
10.5	0.00888133800019269	-0.000435328556416454	3.77898783048028E-07	-7.02308914453136E-06	-5.69830466876824E-06	4.04293890673083E-06	0.961055781856221	-0.247724560741703
10.6	0.00968330259235649	-0.000450221602679337	5.45934470653105E-06	6.70282478069465E-06	2.42116396602988E-06	1.18860488424164E-06	0.960955180654634	-0.250065828172142
10.7	0.0101833051880329	-0.00106890112152551	-7.03798159665139E-06	-1.68138899053052E-06	-7.69094344238195E-07	1.55092305817883E-06	0.959785883778259	-0.25246496862782
10.8	0.0106529526126646	-0.00157679069450634	1.47597318149391E-06	4.41675715986382E-06	9.35961444780541E-06	-4.43863831780004E-06	0.958791292810282	-0.253573484549957
10.9	0.0112595536199391	-0.00257005137502823	3.13890547538785E-07	7.37608210065424E-06	-5.13205294898959E-06	1.99992731428815E-07	0.958991218700302	-0.254654797094094
11	0.0108967330822156	-0.00327339276104223	-2.20710654306722E-06	-3.81105988334742E-06	1.1989771123645E-05	-3.51516523824573E-06	0.958647221243852	-0.255326785708952
11.1	0.0118170112938869	-0.00355644591280436	-6.0826746166709E-06	-4.92098799712318E-06	9.3770487677675E-07	5.55436880015731E-06	0.959351100317889	-0.255936770364167
11.2	0.0124373852523509	-0.00492414862952474	3.2924332740115E-06	4.29129943522258E-06	1.07239950948036E-06	-7.84064964416442E-06	0.959884817621863	-0.257516695709955
11.3	0.0126639917664081	-0.00645821368914837	7.15858836011487E-07	-2.64495062883209E-06	-4.84113447961337E-06	9.06567465710844E-06	0.960628460638042	-0.259599475802209
11.4	0.0125051999083898	-0.00820732444593927	1.47859322531448E-06	-2.19127140371567E-06	-2.97927787621206E-06	-7.42244932483567E-06	0.961236932104058	-0.263118894925827
11.5	0.0112017064907781	-0.00945286179459677	9.46732885883889E-07	-1.00597741300932E-06	-8.98415680080678E-07	-8.70305768482349E-07	0.959045918193143	-0.267964472528199
11.6	0.0111455945832503	-0.0100888359939796	1.11863127300144E-05	-3.24493382556102E-06	-5.39020001145824E-06	-6.81317626940422E-06	0.957055635051931	-0.270063562442301
11.7	0.0108037797210671	-0.0115985006930095	5.31288856692872E-06	-2.87348998856399E-06	-4.39688960496243E-06	1.63533259680678E-06	0.956843071225355	-0.273351895687947
11.8	0.0101096527840303	-0.0130272795848054	-4.42744736851399E-07	-2.54018681553232E-06	1.02508232763421E-06	1.32198782386082E-05	0.956480347212796	-0.277788333806713
11.9	0.00918906673816547	-0.0146491560676374	3.31016444461566E-06	1.9900908258899E-06	-4.10108254869911E-08	1.26949859719411E-05	0.955093307669084	-0.282443493397832
12	0.00696503844338161	-0.0154145663020058	1.99207243103471E-06	4.86577278152918E-07	-3.67727837322557E-06	-9.74600885015667E-07	0.949753985681833	-0.283298508510171
