# GHZ S RI R 50
0.2	-0.000350186542050867	0.00145708485288089	6.33842472460908E-06	-9.84952365634887E-07	1.06717338466838E-05	1.05891764753747E-05	1.00313232174626	-0.00506464300458038
0.3	0.000586634378990491	0.00201985149508896	5.82984737801265E-06	5.08369904908273E-06	8.12854341739447E-06	2.99694309107682E-06	1.00389287081855	-0.00788358055739637
0.4	0.00119405361725777	0.00304634745072405	-2.74691340683633E-06	7.91808876011521E-06	-4.73625652727749E-07	-4.46295256311037E-06	1.00572837440522	-0.0103648398795257
0.5	0.00387636900155083	0.00274615024441668	2.32406352815363E-06	1.48698936639438E-06	7.55913698232678E-06	-1.06507364825456E-06	1.00738895614362	-0.0168517702068255
0.6	0.00261145408946975	0.000450486985143088	3.19622361590042E-07	3.55669282308239E-06	2.83469984414993E-07	-7.69644664293732E-06	1.00422922825713	-0.0203659752531504
0.7	0.00127129022269272	0.00123207870357635	4.19216372548882E-06	5.16611549661825E-07	-3.92028707831023E-06	-1.21607899747147E-08	1.00398236275469	-0.0217527359198227
0.8	0.000790548740942373	0.00211208498947517	-2.91747165103315E-06	2.98199570638396E-06	-6.87945080566135E-06	1.31610567009627E-06	1.00444109803928	-0.0233255463581455
0.9	-2.94922656406192E-05	0.00364220477898498	6.09477073999357E-06	9.18883916194214E-07	-7.41080896957819E-06	-1.86379018718746E-06	1.00484168264436	-0.0245885867768784
1	0.00245551137082972	0.00680938346707114	2.38919777238115E-06	2.97709647002156E-06	-9.1486801024003E-06	-2.58191179348315E-07	1.00839454863227	-0.025208783505957
1.1	0.00468604832554311	0.00366355687045242	6.50443987859097E-07	3.47656782153452E-08	-5.3515259713055E-06	1.42681205207553E-06	1.00880466850186	-0.031462387556469
1.2	0.00326661480092518	0.00229097905361792	-5.35127226991989E-06	-3.31073943802459E-06	-1.13168716669798E-05	-1.2756676028915E-05	1.00666612085835	-0.0335812328360451
1.3	0.00199970724686361	0.00114326623364356	3.08640970121295E-06	3.12145225805401E-06	7.00663557490157E-06	-4.14218179787505E-06	1.00525245741287	-0.0360484964225085
1.4	0.000659760805315855	0.00081710345181375	-2.82412911982474E-06	-1.11028223160679E-06	5.75493690285524E-06	3.95005914302402E-08	1.00276302049704	-0.0387569822424174
1.5	0.00217531741285663	0.000135306517305607	1.24011876611091E-06	-2.55549004637418E-06	8.16268004339266E-07	2.52662691644157E-06	1.00469276796336	-0.0421829679763296
1.6	0.000134421058608889	-0.00075080807014701	-9.63853336252206E-07	-6.46562869948078E-06	3.1968279240558E-06	-4.29036879630006E-06	1.0033733236547	-0.0469624342201083
1.7	3.8000216778776E-05	0.00120352540690256	3.44006783328016E-06	6.24986676110482E-07	2.27190785203213E-06	3.87926069563157E-06	1.00406121122849	-0.0484451414711244
1.8	0.00069863828173868	0.00251335658101311	-2.38754891607027E-06	2.93655389004463E-06	-1.04210300273157E-06	-4.03178466887582E-06	1.00448119345744	-0.0503913875412163
1.9	0.00171827206080298	0.00414619157648698	-3.77511912578237E-06	-1.76667196447743E-06	5.69528870820901E-06	3.04104824645572E-06	1.00553291284705	-0.049511398634493
2	0.00564170246650812	0.00394410449652924	-6.29118813213729E-06	-5.8271543684404E-06	-2.08854316274015E-06	9.30720928983425E-06	1.01482706243487	-0.0523260835656116
2.1	0.00477775081461069	0.000555029395810325	1.23348866183645E-06	4.66914330440784E-06	4.59167029359243E-06	4.01387102566488E-06	1.01337936192524	-0.0645958231143707
2.2	0.00324832000975631	0.000634727719430852	6.74787147919319E-07	9.12382794872005E-07	-3.79361136991264E-06	-1.10505294090108E-05	1.00936050863441	-0.0681754246145863
2.3	0.00232517008935181	0.00106702353824388	-2.27599430985435E-06	3.63145520880649E-06	-5.72677912272469E-07	-2.8266742571532E-06	1.0072306742353	-0.069992798365829
2.4	0.0013386924515759	0.00250830375455867	-1.59473901418729E-06	-1.45598211409552E-06	1.28897291553607E-06	-1.02738373103724E-06	1.00612001235209	-0.0726802127510154
2.5	0.00379610700537835	0.00460029653104939	7.9363430909911E-06	3.99243537203547E-06	-2.47985131270602E-06	-7.27668999504104E-06	1.006581626944	-0.0749156655267904
2.6	0.0048491037032652	0.00196134550680268	5.19690841880713E-07	2.13095666334096E-06	-1.41851593580386E-06	4.75005292669239E-06	1.00610985487467	-0.0790866786094482
2.7	0.00403067508003261	0.00122442318844382	-7.87804534030563E-06	5.39896690905003E-06	2.68823022322629E-06	9.78732036472949E-06	1.00588752929374	-0.083023234830734
2.8	0.00327959017452112	0.00112643339407871	-7.71163608714454E-06	8.15347080845803E-06	6.36972452776585E-06	2.00441281643873E-05	1.0054181368354	-0.0867483267053421
2.9	0.00295229939368655	0.00217793549902754	-1.18768696287426E-06	8.88541598076689E-07	-8.25129124340394E-06	-2.85711576504405E-06	1.00366462026105	-0.0898322378209069
3	0.00542250108791633	0.00217213638324888	-6.9305350343771E-07	-4.49348260205521E-06	-2.08699869488143E-06	6.52320276162425E-06	1.00256052507133	-0.0928818978074413
3.1	0.00426790397439532	-9.01478787138218E-06	-2.60540423724971E-06	1.32969234381898E-07	1.10357164361856E-05	-3.73576372090909E-06	1.00079934979297	-0.0963440110803849
3.2	0.00323687495179531	0.000532770073231822	-9.81614621608985E-06	2.7424158757002E-06	1.23188344589577E-05	4.06945125490201E-06	0.998540161780329	-0.0988274739850117
3.3	0.00281074632589127	0.00103230111580018	-3.46599843118529E-06	1.00672147186988E-06	-5.03677643911822E-06	-4.45235488831809E-08	0.995781336601809	-0.10277749417564
3.4	0.00257248108215918	0.00235452921711088	5.36413883754431E-06	3.73207334415829E-07	1.36008060983776E-06	4.18540921183532E-07	0.991813228247431	-0.104291112170621
3.5	0.00528707162163682	0.00259797534692005	2.7887020284236E-06	1.50501338890856E-06	1.32292854229535E-06	7.67057950698615E-07	0.990948106389076	-0.102383851896747
3.6	0.00418302131236493	-4.93819046549411E-05	-7.14942205608722E-06	-1.45141865122495E-08	1.80651520248755E-06	-3.52784936906448E-06	0.992484830727197	-0.106742646407171
3.7	0.0024922495271171	0.000585804318538971	5.74467869259546E-06	-1.61684822581601E-06	-3.5650710454519E-07	-1.72523326295395E-06	0.98973124278635	-0.110447528939388
3.8	0.0018721549943988	0.00189759577288898	-1.98078557630374E-06	9.1150833412319E-07	-5.1743136026934E-06	3.93733132031927E-07	0.986698004642482	-0.111105368774623
3.9	0.00231900219419347	0.00406615292240579	-8.3051394077954E-06	1.91017141094927E-06	-4.12644058504486E-06	-1.4267700804509E-06	0.985788735406157	-0.109508869937718
4	0.00645723245587803	0.00445045837582973	-5.82468999362592E-06	4.61341805720967E-07	-9.64215216468104E-06	-8.30615607219434E-06	0.9941760587943	-0.11014268264463
4.1	0.00639997551020568	0.00093448313457717	-3.89456357387593E-06	4.14513223572974E-06	-1.75873213254506E-06	5.61365498208852E-06	0.991496369006763	-0.120410085139888
4.2	0.00519351193016564	0.000410521345595407	4.50549825553638E-06	-4.46198597291928E-06	6.73774725104395E-06	6.08214271722267E-07	0.986511986544733	-0.122991746780186
4.3	0.00449304578348653	0.000540534695470814	-3.74946044905417E-06	1.19826783447056E-06	3.5023009394839E-06	-1.27193467871384E-06	0.984298506238984	-0.124045360213874
4.4	0.00406025283838737	0.00166580986383613	-3.23271871783752E-06	-4.83630163788513E-06	9.02002350351491E-07	-1.04924932821349E-06	0.983086371780313	-0.125482414364518
4.5	0.00706423144485453	0.00210656329668641	-1.32718073488562E-06	2.04333451498174E-06	1.91374012504265E-06	-8.43856064442687E-06	0.9823510897294	-0.129810006537633
4.6	0.00633083327454164	-0.00150467639606535	5.50970723455272E-06	9.33627958565543E-06	-1.37800342851871E-05	9.95492330713378E-06	0.977249933082243	-0.132178395264233
4.7	0.00443968502787651	-0.0018183360998678	-7.64253020002663E-06	-9.2767553237844E-06	-1.12951598797351E-06	-1.12433601321701E-07	0.975382796824163	-0.13214510834167
4.8	0.0031824896234144	-0.00143652786410245	-8.64933224573498E-06	-2.50047214459763E-06	-4.23482949943454E-06	4.54375411837831E-06	0.973714435864922	-0.133412225166625
4.9	0.00241800954243347	4.1902349862164E-05	5.81611388104067E-06	8.08161601441042E-06	-7.08071577136453E-06	3.34704815489345E-06	0.97159895553909	-0.134011281310583
5	0.00516747656676686	0.000274319552173805	4.05599055900115E-06	-8.43376466571435E-06	-4.30128728858191E-06	-5.98454625201353E-06	0.970041563084209	-0.133827147612676
5.1	0.00341637816436158	-0.00216193188327961	1.47902315552315E-05	-1.02139523351111E-05	3.31627046370047E-06	-8.58758902138862E-06	0.968745723317307	-0.133661417998261
5.2	0.00209080269647638	-0.00100602164534405	-4.20086425715432E-06	-4.57623183208032E-06	-3.09538697548192E-06	5.48342279742685E-07	0.96736504801608	-0.134021540123815
5.3	0.00215830587353905	0.000172211734706908	4.71628720035589E-06	3.25173610939612E-06	-9.15737263649121E-06	-4.54509326143414E-06	0.966206739105254	-0.134752274545071
5.4	0.00295900741443081	0.00180025108731792	5.07145681669205E-06	1.11134018754225E-06	-3.41901775909025E-07	1.02139885150152E-05	0.964002896887328	-0.135544921087655
5.5	0.00739469972838722	0.000648801844165569	-1.77230394288517E-06	-1.91409344507492E-06	8.6324790538988E-06	4.42944707874184E-07	0.964810553377934	-0.132782389246364
5.6	0.00462004862860986	-0.00361129890626408	4.15604149656466E-06	7.04418348144161E-06	-4.70551663308753E-07	-8.40178176337111E-06	0.966722537367673	-0.136501366156353
5.7	0.00172883279280899	-0.00272329185120629	2.00553922870768E-06	-7.08590289300327E-07	5.34643247457155E-06	2.3863405196027E-06	0.964453320679549	-0.138241072186659
5.8	0.000213931815805255	-0.00114953488727717	3.81845113040171E-06	1.91303803972065E-06	2.66779138371296E-06	7.64517731855748E-06	0.962699828341453	-0.13717486759037
5.9	-0.000839760612952271	0.00204129472612512	-3.68494209976969E-06	-3.00368899325536E-06	-4.58585440169532E-06	-1.75886071349043E-06	0.963404724103964	-0.132119022683575
6	0.00397902827719717	0.00530391847636424	-2.05164852240547E-06	1.67424230323091E-06	1.02894517256531E-05	-2.59460675022901E-06	0.976310186483427	-0.132711883955204
6.1	0.00567151900004496	0.00104123081879157	-7.19923380248759E-06	-1.05973526717964E-06	-7.20606091228679E-07	-2.43639897403285E-06	0.974310685763063	-0.143770175053937
6.2	0.00440545880388455	-0.000384803406419504	-1.03554800146544E-06	1.94805966595854E-06	-3.41724913276819E-06	-5.24158454066251E-06	0.970262560698824	-0.14464900169222
6.3	0.00307791316654215	-0.00101660530259502	1.53986731668644E-06	2.76920577855558E-06	1.11602157793991E-06	5.84095842068723E-06	0.968712810005244	-0.1447815472004
6.4	0.00213354503172821	0.000193963138943696	2.01609099054684E-06	4.93979700072753E-06	-3.27087906511587E-07	2.21937113740031E-07	0.96983064047398	-0.144758891997145
6.5	0.00504820087470045	-0.00127692266313181	4.56031017437909E-06	-1.84870409648467E-06	-4.59026950095617E-06	-1.50251200034671E-06	0.970274758310353	-0.15356106417387
6.6	0.00121352607588059	-0.00361928154071754	3.198758126493E-07	-1.0375885899065E-06	9.02215685982565E-06	3.27140887856433E-06	0.960871038517586	-0.15264416137898
6.7	-0.000442371736763655	-0.00178610318609304	4.66967695750209E-07	5.46339442539416E-06	-1.78329191945984E-06	4.82249085309203E-06	0.960588783608645	-0.148510796354544
6.8	-0.00115742615829439	-0.000468188563776768	1.89572544799592E-07	-1.54397043252516E-06	-3.3292494281961E-06	-5.02911412114241E-06	0.961391797377848	-0.147111896202689
6.9	-0.00141833734991548	0.00243752310577667	-6.57396062400974E-06	6.46979775252253E-06	2.2148187878259E-06	1.35185157777982E-06	0.962453697534564	-0.144932556450022
7	0.00426895907085587	0.00272600919764438	7.84472956667255E-06	3.20558596718762E-06	4.37716588478418E-06	5.79047729269359E-06	0.968564933077563	-0.145411985905511
7.1	0.00161748356748728	-0.00228933031911331	1.35133084217923E-06	7.88412390225198E-07	-2.14812672463335E-06	-4.4109409279667E-06	0.967007547093507	-0.151082899413734
7.2	-0.00153367676842892	-0.00124104062112884	-2.09328298443548E-07	4.29840707768254E-06	-4.88927841508454E-06	-7.30967565159668E-07	0.964182227982158	-0.151763999080976
7.3	-0.00348789494063134	0.000415233631085859	1.41473074639832E-06	-5.12274173613432E-06	-2.2466407432386E-06	-2.76872139291901E-06	0.960892713896989	-0.152241019584219
7.4	-0.0054146491396603	0.00412463608894799	1.70629441924782E-06	4.34020037230184E-06	-6.88962664804951E-07	-1.05495459074317E-06	0.954007752839691	-0.149339661917723
7.5	-0.000491551218805671	0.00825661716188928	-5.54156892772301E-06	-1.62171706543482E-06	-1.27069073519115E-06	-8.70659412515358E-06	0.958987215597984	-0.136246591082063
7.6	0.000190630308984469	0.00466318913563444	5.62996128188019E-06	-3.147537953891E-06	9.03104194497034E-07	3.16523615891484E-06	0.968573004385724	-0.142464272349787
7.7	-0.00112860809198868	0.00498612256636857	-6.31262925255744E-06	-3.01719474507492E-06	4.13314905091292E-06	5.71551934306044E-06	0.968940188189212	-0.146596299116838
7.8	-0.0012913004286659	0.00596308553691549	-8.94650351599994E-07	-5.31185141900919E-06	-2.47025593749526E-07	1.11970451494354E-06	0.969894863596899	-0.147363829735257
7.9	-1.31368073613336E-05	0.00794858291759348	-3.57346292511472E-06	6.9943024526716E-06	7.21619654911341E-07	-6.77576704272531E-06	0.974478304509088	-0.143832043872789
8	0.00509197856823069	0.00530813626437176	-5.22828683687562E-07	7.37724116574264E-06	1.94715289798827E-06	-4.38898214541898E-06	0.992156223264146	-0.149867633060353
8.1	0.00178240857927007	0.00123898039892098	-5.43228444017964E-07	-6.51016418736315E-06	-1.72143286984431E-06	-1.12023923072233E-06	0.98980019374112	-0.166437217838169
8.2	-0.000324274168228891	0.00251846666978667	-3.88301427404234E-06	1.54422242131533E-06	-1.09164217955645E-05	-2.93954547507416E-06	0.985648276389192	-0.169266781438209
8.3	-0.00122844073476984	0.0039076296081838	-5.27937914482962E-06	-1.00549555319811E-05	-7.90136759117909E-06	2.80366586990695E-06	0.985112975544432	-0.171121145262367
8.4	-0.00150212900269962	0.00709982258767378	6.9803019994412E-07	-5.95700462219165E-07	-1.43737129464386E-06	4.0498669541699E-07	0.986416656683457	-0.173423128447048
8.5	0.00457894030744861	0.00802830436507928	-1.75280112244474E-06	-2.9715437377624E-07	-4.82191362802891E-08	1.8097189058553E-06	0.98763859869879	-0.179557765705906
8.6	0.00303286737241437	0.00293026136979891	2.5415073948738E-06	-3.91220514965282E-06	-4.40817378697787E-06	-6.05915807549955E-06	0.984930258574099	-0.18220788425006
8.7	0.000363614340216209	0.00380906901545178	-1.44555490041645E-06	-2.15075909100603E-06	-3.68600769722953E-06	3.55378609544978E-06	0.98569435220945	-0.183499745109623
8.8	-0.00080830636840771	0.00557011527752535	-5.48862569950249E-06	-2.30195890272092E-06	-7.2667387852541E-06	-1.49289634753404E-06	0.987086729548222	-0.185557867895746
8.9	-0.00114849572116585	0.00902755996357443	8.56330222350068E-06	4.3760324963746E-06	-1.52049237000304E-06	3.20548476040746E-06	0.988792140432705	-0.187664430792593
9	0.00490113174751032	0.01121506443311	-6.0228154484428E-07	4.19373988924594E-06	-7.92998069073583E-06	1.06043179700438E-06	0.990856526317213	-0.189663043614503
9.1	0.0054588955768099	0.00755915676982876	-2.76338145869286E-06	6.65483048166272E-06	4.2389276538774E-06	-3.01417539462389E-06	0.99359418045632	-0.193109267347727
9.2	0.00577370693615087	0.00756479823419247	-1.27777903250049E-06	3.45066933045444E-06	-2.23205465201588E-06	-2.1446894447595E-06	0.995225797390802	-0.198006847174212
9.3	0.00676300601475202	0.00695701146348496	2.44894562188341E-06	-4.05751697439772E-06	-7.68227673610577E-07	-1.82674663547221E-06	0.995031989178273	-0.203599647555512
9.4	0.00756797960738295	0.00758512635809801	-1.89830492596002E-06	3.91406190308452E-06	-2.02740211115893E-06	-3.66756857773789E-06	0.991569359764631	-0.206765351603978
9.5	0.0121808858504913	0.00457883524379953	3.36684274750719E-06	6.45237327736228E-06	4.26777982592661E-07	-2.16281590469051E-06	0.994050403231523	-0.204955595955452
9.6	0.00812322919649865	7.36919985656181E-05	4.51190369936336E-06	7.33844693365205E-06	-8.73947437871956E-06	1.28151799453525E-05	0.997345842138394	-0.213138225942628
9.7	0.00542829733391815	0.00109242606595826	-2.90628913068748E-06	-1.63911067675338E-06	-1.31747703435242E-06	-4.09190343586483E-06	0.995692922613063	-0.217988452506206
9.8	0.00407090576451685	0.00250589375009	2.20599076338534E-07	-3.67547073359789E-06	3.05687223830993E-06	2.52945397553916E-06	0.994477841038349	-0.219410120305423
9.9	0.0033905602778435	0.00576015895246113	5.96875961978057E-06	-4.70204168582575E-07	-2.82144654552704E-06	6.83299857219896E-06	0.996907172431215	-0.215418537452103
10	0.00922492616263579	0.00685480409110135	-1.17285276851969E-06	-6.27288937341584E-07	1.44422857576738E-06	-1.201808101822E-06	1.01356754532203	-0.223643030265235
10.1	0.00826092094875618	0.00253063091387542	8.40918141656035E-07	-8.70927854143807E-06	6.33068742283421E-06	3.81034642157422E-06	1.00593169556949	-0.239370083683735
10.2	0.00670984098762661	0.00295862837239463	7.64899412994147E-06	8.67652321038553E-06	5.35750332432855E-06	3.70474898161204E-06	1.00034640679253	-0.240681356697612
10.3	0.00617204701950464	0.00395020481618955	1.88912966080017E-06	-7.17041275637932E-06	1.44321217343793E-06	2.97879099448545E-06	0.998947058357146	-0.241714283680783
10.4	0.00669308805252716	0.00667993250556974	-4.14526366357735E-06	-3.80405275550957E-06	2.06940309378815E-06	-5.7854414671307E-06	1.00055825356357	-0.243767919397973
10.5	0.0129498854138159	0.00649619654669614	3.83966367099057E-07	-7.3052264608316E-06	-5.92159364973216E-06	4.21244688405021E-06	1.00138386651543	-0.253092059320992
10.6	0.0126912350647574	0.00208971666783675	5.63540280067763E-06	6.94814931567787E-06	2.50304499821128E-06	1.23520392476169E-06	0.996937348559941	-0.256001659948135
10.7	0.0123990648097854	0.000939764978281142	-7.30062997348552E-06	-1.76284073552267E-06	-8.02157158406447E-07	1.60779942200327E-06	0.998130444391573	-0.260236626230041
10.8	0.0116290087204811	-0.000280022918020679	1.53851544934103E-06	4.59499402083589E-06	9.73652321381371E-06	-4.62433864518606E-06	0.997344712566596	-0.266377867795436
10.9	0.0110866487376564	0.000915863797971931	3.71236564823365E-07	7.68052417082562E-06	-5.34398500622062E-06	2.39128078700089E-07	0.996003598065444	-0.270820604933654
11	0.0162740069193608	-0.000325666560943016	-2.32598337242022E-06	-3.9265408120879E-06	1.23881091265837E-05	-3.76498184834076E-06	0.995750529155077	-0.275834067416247
11.1	0.0135708098897148	-0.00563922267275286	-6.34745717311997E-06	-5.0426614224122E-06	1.02262218798905E-06	5.7462115019967E-06	0.991641625278911	-0.282504232001817
11.2	0.0111362400035688	-0.00586532646878664	3.46608380385075E-06	4.40814812829294E-06	1.01512946531032E-06	-8.14147931652238E-06	0.986823678993307	-0.286523821013541
11.3	0.00955715475514246	-0.00534047158795324	6.96644190118044E-07	-2.74804585925576E-06	-4.85761031215942E-06	9.45866606060022E-06	0.979952922907481	-0.289236000604916
11.4	0.00883361591465659	-0.00325519557680823	1.47527017055179E-06	-2.28175435915147E-06	-3.21155768239912E-06	-7.56768807583575E-06	0.971433358522515	-0.288896333237872
11.5	0.0143190149233353	-0.00462930627140426	9.6004969919108E-07	-1.04020478600907E-06	-9.29230396506464E-07	-8.82810034220788E-07	0.97689305658404	-0.282491870236508
11.6	0.0110314744241147	-0.0102475731602886	1.1518232729433E-05	-3.49757578752043E-06	-5.6581376126932E-06	-6.971322978244E-06	0.978793297833147	-0.294597885041003
11.7	0.00790618917637226	-0.0101156562353994	5.43239679778034E-06	-3.06465356038623E-06	-4.509478513544E-06	1.76942871323132E-06	0.972769964879264	-0.300337902618077
11.8	0.00614393351410419	-0.00903912743411292	-5.06457468099609E-07	-2.60554722523441E-06	1.31929380386828E-06	1.35856019110998E-05	0.968025696427476	-0.301299579134788
11.9	0.00700279541439938	-0.00576192472394157	3.43886725848558E-06	1.99585001660535E-06	1.59531024152934E-07	1.30679425932078E-05	0.971238103556547	-0.295374889607308
12	0.0139336491470111	-0.008373106511276	2.08661950099461E-06	4.65798575394914E-07	-3.85339599464998E-06	-9.39482559112757E-07	0.989747824405659	-0.306993384562768
