# GHZ S RI R 50
0.2	0.000543463413391061	0.00397458161724155	6.30245637108119E-06	-1.0101877210961E-06	1.0669332385187E-05	1.04862257279269E-05	0.998998014293126	-0.00732070038141452
0.3	0.00112586836654192	0.00352008504858442	5.81621541965512E-06	5.03265720261168E-06	8.09392763651029E-06	2.94895318074732E-06	0.998666376678394	-0.0101922616451589
0.4	0.00161752048372742	0.00326912981263616	-2.70463263814312E-06	7.86602486347602E-06	-4.82247212237569E-07	-4.42808725143335E-06	0.998525459999206	-0.0128086316410278
0.5	0.00160572836075362	0.00316526151785525	2.30644855757979E-06	1.4783810163647E-06	7.50663984211459E-06	-1.05141127053311E-06	0.99807845463215	-0.0155037300980301
0.6	0.00206645824095892	0.0036859879575074	3.22210608179811E-07	3.53885323489352E-06	2.73080684775506E-07	-7.65898288083858E-06	0.998809545047853	-0.0183065762361771
0.7	0.00263594129257976	0.00373657505552886	4.16515787802527E-06	5.02800081246761E-07	-3.89387256340502E-06	-2.42183567347698E-09	0.998569508595401	-0.0217414098421738
0.8	0.00315988506031557	0.0037254780723799	-2.88510987390927E-06	2.96389730127788E-06	-6.81749269318787E-06	1.32215893294137E-06	0.998180261407371	-0.0242395409175109
0.9	0.00370048653336289	0.0035611130601982	6.0323777889037E-06	8.95003606611172E-07	-7.33667690309918E-06	-1.82685015643653E-06	0.997768607836866	-0.0269331677854248
1	0.00376372489614351	0.002843918746611	2.35797374878719E-06	2.9394339402202E-06	-9.03139131578889E-06	-2.56749624440852E-07	0.996677641329406	-0.0286781118811573
1.1	0.00330701892560765	0.00310022767777395	6.43053657993716E-07	3.56494917138473E-08	-5.29408004175893E-06	1.40025864031791E-06	0.996166652866517	-0.0296995799264856
1.2	0.00340237861695634	0.00296943173947485	-5.28570879668312E-06	-3.28678937507279E-06	-1.11652970776848E-05	-1.26435089531122E-05	0.995998085913857	-0.0302597384221014
1.3	0.00301115544715008	0.00244820990508027	3.04390334095072E-06	3.10169746749768E-06	6.95192533952644E-06	-4.07465030980167E-06	0.996483562644763	-0.0306745558002281
1.4	0.00260031719286774	0.0019416395037097	-2.79524693729083E-06	-1.11576576556123E-06	5.70756143226411E-06	6.88960865941115E-08	0.996876604990979	-0.0322832904993852
1.5	0.00215650065225767	0.00181123188106575	1.24300650987327E-06	-2.53079442653364E-06	7.98344338458899E-07	2.51183054858031E-06	0.997706465210404	-0.0356679532393031
1.6	0.0027216217981606	0.00227424704672664	-9.26081899181509E-07	-6.41462768740746E-06	3.18901959194107E-06	-4.23901480363365E-06	0.997796866621341	-0.0393664610283794
1.7	0.0033059622331413	0.00206704211152355	3.4037438528029E-06	6.36070182343794E-07	2.23066924391337E-06	3.85311123936625E-06	0.997986979381247	-0.0425332262231473
1.8	0.00361389559893801	0.00192708381291536	-2.37888762845225E-06	2.89487709887335E-06	-1.01084528630664E-06	-3.9969041665501E-06	0.99767765421625	-0.0456618863241515
1.9	0.00381342995978993	0.00151494005472448	-3.73040755131052E-06	-1.76105032602014E-06	5.62658556225004E-06	3.02870135447176E-06	0.997470859129259	-0.0485965442762412
2	0.00318913537361848	0.00125551631777294	-6.17012474189362E-06	-5.74299639120405E-06	-2.07525903415678E-06	9.1437420096713E-06	0.995360772717109	-0.0519059593771442
2.1	0.00316373600016372	0.00196477135852225	1.16596154282103E-06	4.59953665136158E-06	4.47179886793962E-06	3.98877222329116E-06	0.994874644980043	-0.052436580234322
2.2	0.00351948274945032	0.00210540301641697	6.54415671485117E-07	9.06599292070401E-07	-3.61156787377192E-06	-1.0930546969182E-05	0.995673002806046	-0.0546092862717509
2.3	0.00377402699083496	0.00200999449550654	-2.28758109138812E-06	3.55430815325917E-06	-5.31268096401085E-07	-2.79440466007347E-06	0.995694945063317	-0.0565983064215783
2.4	0.00401791990862261	0.00163792709278544	-1.55377536710885E-06	-1.45656112877393E-06	1.2844924000148E-06	-9.96434924649904E-07	0.995843669400362	-0.0598345364327233
2.5	0.00338454675131713	0.000813897528419385	7.77930703059798E-06	4.07021988842707E-06	-2.33573047912558E-06	-7.22951265179229E-06	0.995508249988537	-0.0621928643255246
2.6	0.0025473828490195	0.001320279850506	4.84840791901009E-07	2.118219184442E-06	-1.47195963235518E-06	4.68542784389927E-06	0.99561500205914	-0.0651259384179913
2.7	0.00239744900970696	0.00186446966145387	-7.86899359533854E-06	5.23668044087347E-06	2.528363293908E-06	9.72189230701753E-06	0.995127068418265	-0.0682748548879088
2.8	0.00264865447967516	0.00243349070528195	-7.74506536834188E-06	7.94969973120326E-06	6.00527629832964E-06	1.99140012279059E-05	0.995068879492392	-0.0700991995460647
2.9	0.00322332867843711	0.00251939182404633	-1.18978331846318E-06	8.58945668371431E-07	-8.11393727311644E-06	-2.96501410394024E-06	0.994828626570014	-0.0719853314095256
3	0.00319318915504229	0.00246623483223221	-6.07340126271073E-07	-4.4717150669294E-06	-2.18790485223431E-06	6.43622988273546E-06	0.994711408594047	-0.0743346380454719
3.1	0.00376302686432594	0.00302513021081002	-2.58723120292482E-06	8.81217002289574E-08	1.10120824616059E-05	-3.5209516650235E-06	0.994436890610279	-0.0760705950360629
3.2	0.00445746678621024	0.00292098028133719	-9.79334249108566E-06	2.53862273753566E-06	1.21500913978228E-05	4.26860595292093E-06	0.994420208850516	-0.0776062866423119
3.3	0.00497045856987316	0.00255199805259757	-3.46656440518618E-06	9.28759222999143E-07	-5.00626251357837E-06	-1.489623132276E-07	0.994514476241621	-0.0805436392439268
3.4	0.00530750365400361	0.00195012519911592	5.34421705959959E-06	4.9587646680312E-07	1.34757443529378E-06	4.48959452489308E-07	0.995106676386422	-0.0822392235916177
3.5	0.00475292344184476	0.00127828480412373	2.76849770672798E-06	1.56286468121568E-06	1.31233002741826E-06	7.94664395124979E-07	0.995626400946688	-0.0857132248275686
3.6	0.00464487660240679	0.0018000964280583	-7.14893605076358E-06	-1.38226397971516E-07	1.86750131483112E-06	-3.49647377301991E-06	0.994994402716406	-0.088362074096358
3.7	0.00507208922841981	0.00170326881840428	5.77830388314082E-06	-1.50677824625075E-06	-3.23395974570566E-07	-1.73284314976974E-06	0.995017520488038	-0.0909798810792921
3.8	0.00544369630811187	0.00132097391967148	-2.00359629056004E-06	8.7484685010654E-07	-5.19485459849968E-06	2.93045822483461E-07	0.994944250117951	-0.093227064136991
3.9	0.00565438731671448	0.000517317305276586	-8.37193909013155E-06	1.77579895994813E-06	-4.11894739590355E-06	-1.50328588790287E-06	0.99501175863	-0.0971722186101575
4	0.00467443198589198	-0.000271928067947437	-5.82334141927579E-06	3.67187917253471E-07	-9.49438824570261E-06	-8.44839110626226E-06	0.992710731650338	-0.0991142191890073
4.1	0.0042472419597761	0.000467691285151811	-3.98990542565634E-06	4.05825042520478E-06	-1.88663656344032E-06	5.57571328520582E-06	0.992566834130144	-0.0988391834504987
4.2	0.00455115526241054	0.00060507844857498	4.62646749608457E-06	-4.37826197179481E-06	6.75260654622608E-06	7.64465212956077E-07	0.99302517169176	-0.101258674869024
4.3	0.00480933980957894	0.000420764693805317	-3.79818809828247E-06	1.12182894004556E-06	3.55121551778822E-06	-1.2014321640185E-06	0.993306832801769	-0.103413591640365
4.4	0.00493488271121464	-0.000182767800322865	-3.14042470919238E-06	-4.94071871853683E-06	9.31816000278926E-07	-1.03476119030936E-06	0.99301808228553	-0.105726554396559
4.5	0.00383780635227571	-0.000924885237618279	-1.39809248841825E-06	2.02746649910747E-06	2.16952316770737E-06	-8.47275007573996E-06	0.993163643107371	-0.107181110495132
4.6	0.00301991693914724	-7.08019368699161E-05	5.38174308940429E-06	9.63092384547701E-06	-1.42586282022356E-05	9.7977834480147E-06	0.994313968944865	-0.110028520175822
4.7	0.00296275709023173	0.000436688886136423	-7.59216669600653E-06	-9.60335241485535E-06	-1.14788869851415E-06	-1.37660187235607E-07	0.994718122823159	-0.112751202322462
4.8	0.00305357901080559	0.000883334817379363	-8.76303203236316E-06	-2.71053053522786E-06	-4.39954709863382E-06	4.54825552618554E-06	0.994452273864954	-0.115702423934107
4.9	0.00348639852966401	0.000974653617989688	5.77453937078272E-06	8.34861778952435E-06	-7.28133090402577E-06	3.27682581964222E-06	0.994182352201081	-0.117720398368554
5	0.00319440744267111	0.00080145700291888	4.30949724213378E-06	-8.56529405106615E-06	-4.29662445962229E-06	-6.20941156765272E-06	0.994338393247075	-0.11935504981973
5.1	0.00390682023839666	0.00158991394840376	1.52861624824476E-05	-1.02695724430697E-05	3.51016880229346E-06	-8.75410662503776E-06	0.994860173290394	-0.12099744180169
5.2	0.00500186660996034	0.00108819572477317	-4.24330097833577E-06	-4.73546460661261E-06	-3.17488311675216E-06	5.23151169212314E-07	0.994788049697694	-0.12376068019338
5.3	0.00549045338385072	0.000113187319506716	4.78777490929664E-06	3.38959959341564E-06	-9.31869042658452E-06	-4.77044482977142E-06	0.994432750223088	-0.126288477146491
5.4	0.00537924584360628	-0.00104113006958234	5.19381564010655E-06	1.21358152659385E-06	-4.96166642251083E-07	1.04873332198095E-05	0.99465245174931	-0.128893756569889
5.5	0.00374535135240138	-0.00153192455548716	-1.81756707644029E-06	-1.99263658541396E-06	8.9215408549389E-06	5.24634861432389E-07	0.994877915994818	-0.132429996488645
5.6	0.00365819662414446	-0.00016224952823302	4.25965913553819E-06	7.25874258429241E-06	-4.63888706284621E-07	-8.64683923333341E-06	0.994337236190609	-0.13502699859852
5.7	0.00433675483791506	-4.92977635606065E-05	2.06310882656966E-06	-7.24030853129371E-07	5.49061754247902E-06	2.46462214653083E-06	0.994535771496565	-0.137779029904872
5.8	0.00481966598889046	-0.000402929874720263	3.92655849229735E-06	1.96721421725443E-06	2.74330222772235E-06	7.86164612882679E-06	0.994711882498324	-0.140808347280313
5.9	0.00526066777258627	-0.00142189804581135	-3.7985603851304E-06	-3.06224312433014E-06	-4.71626001069688E-06	-1.77966472130527E-06	0.994142757010819	-0.144859964691223
6	0.00369400747021189	-0.00340143694255738	-2.07543287581224E-06	1.70734542255821E-06	1.04319814767329E-05	-2.67439363369994E-06	0.990017960845483	-0.147451356576761
6.1	0.00160215006199806	-0.00270019767430624	-7.32798606498582E-06	-1.11386654290236E-06	-7.22347979298743E-07	-2.48513377972459E-06	0.989323446667586	-0.145614053568795
6.2	0.000539406127634681	-0.00193373597391842	-1.06615567704077E-06	1.9892452125178E-06	-3.47755028620712E-06	-5.37403779254861E-06	0.989659348738765	-0.146268569219242
6.3	4.9223329738465E-05	-0.000975198135293487	1.57525419509775E-06	2.83709488974925E-06	1.13916822438812E-06	5.98276360303009E-06	0.989734533556357	-0.147861745829026
6.4	0.000158541948163893	-0.000686650129628692	2.06517950105596E-06	5.04559618917043E-06	-3.34002704014636E-07	2.2711873647763E-07	0.98946278125159	-0.150179050995952
6.5	-0.00087624819255492	-0.00032504240599212	4.68130841606568E-06	-1.86672753491528E-06	-4.69240854643174E-06	-1.56564229883205E-06	0.989221354382445	-0.151154159422686
6.6	-0.000115332931924397	0.0010624986389251	3.29919907955948E-07	-1.07257714132909E-06	9.32671342216292E-06	3.37516964150365E-06	0.992144134076715	-0.154333968145599
6.7	0.000554558109422826	0.00102072286769946	5.2472331971382E-07	5.63960564804865E-06	-1.80457830206138E-06	4.99506343682497E-06	0.992410300773833	-0.158818085633677
6.8	0.000807834227089768	0.00106551996408594	1.77186796674122E-07	-1.59417819533148E-06	-3.49219965301431E-06	-5.14593917864587E-06	0.991671907125	-0.162326568812546
6.9	0.00106234212064881	0.000681671011216216	-6.67243492320348E-06	6.75312590324776E-06	2.29886669110827E-06	1.35936228023165E-06	0.990951154375991	-0.165492637529838
7	-0.000624475745604649	0.000516522689822198	8.11681932593331E-06	3.17166544254918E-06	4.59241596884897E-06	5.88443223982556E-06	0.988735525692431	-0.16755865365762
7.1	-0.000605318203535949	0.00283363507302771	1.40211668482121E-06	7.85690746994979E-07	-2.28525643226198E-06	-4.49238075843176E-06	0.988659248278331	-0.167914259214167
7.2	0.000528789460259702	0.0036243005826726	-1.34377959118241E-07	4.41494163911599E-06	-5.03105496312181E-06	-6.58627294510604E-07	0.988919088757737	-0.169757133885899
7.3	0.00153511040744375	0.00388458697993743	1.35774999755947E-06	-5.2857921582029E-06	-2.3578959034326E-06	-2.80113173768082E-06	0.988818243605737	-0.171623036753507
7.4	0.00275941524089464	0.00324058261763153	1.84447289650463E-06	4.4477807121031E-06	-7.31409086185144E-07	-1.07585654121251E-06	0.990089313722271	-0.174517147716331
7.5	0.00183645425989681	0.00112265610806437	-5.79151403967518E-06	-1.49233230381916E-06	-1.608587045895E-06	-8.97074140991512E-06	0.989855259464311	-0.181515001112188
7.6	0.000449863887549131	0.00188430550603779	5.64977867769167E-06	-3.43080139558279E-06	1.04146568135168E-06	3.20829300326163E-06	0.986139814477733	-0.184939875573457
7.7	-8.23951325009486E-05	0.00205603504634816	-6.55918350924576E-06	-2.85314103314935E-06	4.43053498544565E-06	5.68920002454989E-06	0.985004038745174	-0.188342669758212
7.8	-0.00049371006895483	0.00225169379948943	-1.11934781099716E-06	-5.38502692491103E-06	-2.08514158029356E-07	1.15206521622856E-06	0.984037786026867	-0.192074450540321
7.9	-0.000827099704489028	0.00215482026376108	-3.31548871375232E-06	7.2779701882998E-06	4.24524293692252E-07	-6.92539833245216E-06	0.982845511657272	-0.196771815507727
8	-0.00279191512646889	0.00295321046298327	-1.63686135084538E-07	7.4051706099094E-06	1.73403283181429E-06	-4.48528671050267E-06	0.977350172503983	-0.20038153100553
8.1	-0.00173281515645617	0.00541285898365416	-7.84854447478853E-07	-6.46430150985784E-06	-1.75662840175357E-06	-1.0513929023811E-06	0.976339028631802	-0.198716500414561
8.2	-0.000363762544565162	0.00598987123371808	-3.81768348499491E-06	1.67667115751056E-06	-1.0989253789526E-05	-2.54669595402785E-06	0.97702372652819	-0.20036773700235
8.3	0.000675537492970297	0.00617327599460739	-5.60677854699231E-06	-9.82469584721212E-06	-7.76743164235814E-06	3.0670614118201E-06	0.976615852478725	-0.202969618577162
8.4	0.00160572749167882	0.00574468985818249	6.72990507678358E-07	-6.1326320221729E-07	-1.41232599453579E-06	4.47997632452219E-07	0.97560625264635	-0.205624650605458
8.5	0.000306671270821998	0.00533003219252735	-1.7530642639934E-06	-2.50181279904611E-07	-8.24967078048572E-10	1.80324802255983E-06	0.974417967942154	-0.207528741189961
8.6	0.00069617148262153	0.00777090031450076	2.40786058084409E-06	-3.98835071112844E-06	-4.59915041486111E-06	-5.90243600024088E-06	0.974741751095649	-0.209893748802763
8.7	0.00248575126717589	0.00862100634839939	-1.51185176772546E-06	-2.08469436081642E-06	-3.5346230373056E-06	3.65999309930302E-06	0.974405750106773	-0.212930544196279
8.8	0.00436764587078042	0.00872574970562725	-5.50519963305301E-06	-2.08097184102737E-06	-7.23377085878907E-06	-1.21865260112121E-06	0.973789574384437	-0.215615625200224
8.9	0.00641504453188544	0.0075838436224939	8.56133536247729E-06	4.02861149539237E-06	-1.39239729211104E-06	3.20097692089179E-06	0.973493409775821	-0.218069131351512
9	0.00627547151549448	0.00546913391626931	-4.74486354192192E-07	4.15253922220723E-06	-7.7894499420343E-06	1.27148060132482E-06	0.97278979928543	-0.22115161484297
9.1	0.00643185000127516	0.00528352214815272	-2.50564611309287E-06	6.62754353554967E-06	4.0707674991953E-06	-3.096158429515E-06	0.971232624996476	-0.223618539111142
9.2	0.00660961294906905	0.00423219122015547	-1.15332324340422E-06	3.41511098585583E-06	-2.24643987054743E-06	-2.03675825044099E-06	0.969647840494023	-0.225638008139347
9.3	0.00620429599332155	0.00359054938989421	2.29945651051689E-06	-4.03213223836837E-06	-7.96458780539984E-07	-1.76997555994877E-06	0.968714978824523	-0.227046364301075
9.4	0.00585433379370158	0.00304843688260468	-1.78369089712186E-06	3.88805172378146E-06	-2.07056023693695E-06	-3.56289723225342E-06	0.968760082933786	-0.229006596635655
9.5	0.00421444896617763	0.00343938987739162	3.51555192118566E-06	6.27558290762863E-06	3.5813757391644E-07	-2.14920886314576E-06	0.96812356082494	-0.233003387200825
9.6	0.00502288778465204	0.00551888575065245	4.64722955595219E-06	7.03824592136258E-06	-8.14654387349876E-06	1.28166506207283E-05	0.966251535537243	-0.235155234480839
9.7	0.00654073724989936	0.00579643183544141	-2.88133159560729E-06	-1.51553533668281E-06	-1.40188904110327E-06	-3.95313812435562E-06	0.965882016579142	-0.236951606112019
9.8	0.00785251336044108	0.00550096119725658	1.12604948523096E-07	-3.58690401369548E-06	3.04851413242606E-06	2.37918590014328E-06	0.96620377132181	-0.23897674516803
9.9	0.00909316263469892	0.00430583598405899	5.77948120200736E-06	-6.46163056313533E-07	-2.52187917553381E-06	6.72308918054317E-06	0.966188937236969	-0.242508288707206
10	0.00786676895237196	0.00282728199833205	-1.13777928084798E-06	-5.6838943158699E-07	1.34850059842676E-06	-1.18719727047565E-06	0.961578465008381	-0.244766268273721
10.1	0.00793452511196593	0.00407300372667985	6.85588780594807E-07	-8.3681233632098E-06	6.12724594585107E-06	3.56782537196856E-06	0.96155825819473	-0.242651443002336
10.2	0.00909955581016182	0.0039902074275972	7.47502544358926E-06	8.25986920497439E-06	5.20590481478197E-06	3.50061919656757E-06	0.962535682121083	-0.243816620265897
10.3	0.0102257473799307	0.00333203072042207	1.73168999877258E-06	-6.92593906052713E-06	1.42553205206664E-06	2.85019939503237E-06	0.962483473478897	-0.245792272177292
10.4	0.0113010450662518	0.00152891676856927	-4.01110608284319E-06	-3.610216376432E-06	1.93125958412639E-06	-5.56819583218974E-06	0.961748187423778	-0.248219587338864
10.5	0.00974853191889202	-0.000410361751459797	3.74475236420064E-07	-7.02961086347833E-06	-5.70126531584968E-06	4.04963028668686E-06	0.960913249657835	-0.249750576957011
10.6	0.00914667067540129	-7.18532409133417E-05	5.47641768579674E-06	6.71065255385594E-06	2.42702395320037E-06	1.18859881682064E-06	0.961272383606175	-0.253160658491975
10.7	0.00872314285588485	-6.34299985769568E-05	-7.05489184259182E-06	-1.6730763064372E-06	-7.68062082421366E-07	1.55531126101229E-06	0.959332521333318	-0.256558668433059
10.8	0.00885627413702362	0.000486740308049867	1.48751564271444E-06	4.42198789938425E-06	9.36808402733664E-06	-4.46552443619762E-06	0.957588387153802	-0.257716747958124
10.9	0.00974636932427824	0.000208225338521907	3.31787516023005E-07	7.38359406957406E-06	-5.13732332103159E-06	2.12424290362421E-07	0.957085920261925	-0.258847500768887
11	0.00878437657083301	-0.000404215319665254	-2.21573472522682E-06	-3.80860564190031E-06	1.19888200387828E-05	-3.54059700649019E-06	0.956280522210101	-0.260391524563599
11.1	0.00977137168866285	0.00108869750315709	-6.09286059873911E-06	-4.91377809482135E-06	9.46637834963984E-07	5.55533169247595E-06	0.955367874431318	-0.261044904556431
11.2	0.0116445275926703	0.000647514280106331	3.29877913995103E-06	4.28898837302314E-06	1.06346420000007E-06	-7.8448684097466E-06	0.954692978808101	-0.261787460920798
11.3	0.0133594710466327	-0.000789027510061188	7.14268879225019E-07	-2.64663985145082E-06	-4.83674364126199E-06	9.07318629708427E-06	0.954954259272891	-0.262322364341703
11.4	0.0145858280660611	-0.00322101765724683	1.48002848187667E-06	-2.19260750847887E-06	-2.98018869612966E-06	-7.4283118874902E-06	0.956080855388602	-0.263860441624865
11.5	0.0131490126583557	-0.00562818912720371	9.48700995936239E-07	-1.00789207358677E-06	-9.0012344719629E-07	-8.7211268954922E-07	0.95540556561912	-0.268895918996944
11.6	0.0132849727271618	-0.00583285707630611	1.12029691646319E-05	-3.25848263596575E-06	-5.40424709413604E-06	-6.82086730075911E-06	0.952861552127295	-0.271216866217238
11.7	0.0140656964899652	-0.00781883450089365	5.31822450302121E-06	-2.88082922568077E-06	-4.4017872352316E-06	1.64040000106374E-06	0.952665722369297	-0.273628059647843
11.8	0.0142020359873429	-0.010617324389125	-4.44947362054778E-07	-2.54332237832256E-06	1.03482548408053E-06	1.32370059621598E-05	0.953327560642411	-0.277369072953668
11.9	0.0134219707505323	-0.0146642253143322	3.31852317654499E-06	1.98815484085166E-06	-2.14665498576077E-08	1.27153168341008E-05	0.954374469312985	-0.28316720940866
12	0.00831111685989711	-0.0172861908319666	1.99353887449417E-06	4.81014549354352E-07	-3.68019965937941E-06	-9.64336229848943E-07	0.948523522368529	-0.287511310960846
