# GHZ S RI R 50
0.2	0.000468941851177532	0.00398918342290466	6.30382767990094E-06	-1.00930989981015E-06	1.06695829672534E-05	1.049003356957E-05	0.999133932597068	-0.00712274533216929
0.3	0.00107119887369323	0.00354988188996733	5.81641648759746E-06	5.03502910271893E-06	8.09508363427528E-06	2.951355634279E-06	0.998854242881291	-0.00993527721992511
0.4	0.00158146062135565	0.00333742045102021	-2.70727424696911E-06	7.86772167063561E-06	-4.81353904299198E-07	-4.42951155260035E-06	0.998802308370645	-0.0125019680725664
0.5	0.00168068737322402	0.00321242243575135	2.30686107745427E-06	1.47916889016376E-06	7.50892558244531E-06	-1.05050018941605E-06	0.998425634839845	-0.0152921507455818
0.6	0.0020948256828032	0.00362669026733236	3.21302514373967E-07	3.53975963863917E-06	2.75270056437255E-07	-7.66067515476934E-06	0.999045358993286	-0.0180502289629719
0.7	0.00261058815935203	0.00367746627999494	4.16626829570849E-06	5.0443938911459E-07	-3.89507722857207E-06	-3.8095956779156E-09	0.998843591090963	-0.0213800106104013
0.8	0.00309052327313168	0.00367034515280791	-2.88742190779965E-06	2.96390859261769E-06	-6.82069116747166E-06	1.31995933054799E-06	0.998515504090364	-0.0238168576476254
0.9	0.00355057471865045	0.00355382220889493	6.03503107699967E-06	8.98097975959564E-07	-7.33958044220929E-06	-1.83098631486533E-06	0.99817275727178	-0.0264271335735257
1	0.00365487905112413	0.00301164847778702	2.35840490213715E-06	2.94229727601979E-06	-9.03729168861199E-06	-2.60408209911401E-07	0.997302138924232	-0.0281005394836244
1.1	0.00329064857985929	0.00324274697382873	6.43507374512068E-07	3.589278646142E-08	-5.29838816934765E-06	1.39948247045799E-06	0.996905141421177	-0.0292325211798244
1.2	0.00340592097802368	0.00318876995282214	-5.2892456796088E-06	-3.29131184614653E-06	-1.11709613711331E-05	-1.26580001041777E-05	0.996861181055139	-0.0297520293425693
1.3	0.00315028073926195	0.00272321972529065	3.04627954581345E-06	3.10544666988932E-06	6.95974046746305E-06	-4.07723192631098E-06	0.997569188357589	-0.030206703363945
1.4	0.00283864033965432	0.00214145120300893	-2.79788227354011E-06	-1.11708865479984E-06	5.71312720409548E-06	6.94405602675873E-08	0.998013863096073	-0.0319825138323365
1.5	0.00247021602180157	0.00185907912929192	1.24420300402916E-06	-2.53290084741701E-06	7.98899551182592E-07	2.5140259278405E-06	0.998791346156499	-0.0355207301588138
1.6	0.00285709633884514	0.00214508721736017	-9.26352831141428E-07	-6.41959448476923E-06	3.19174625609676E-06	-4.24203808436423E-06	0.998607166972426	-0.0393105834800288
1.7	0.0033101386766362	0.00195717795037637	3.40617785958483E-06	6.36782278788266E-07	2.23201344989547E-06	3.85608206845137E-06	0.998675022077102	-0.0424357125513526
1.8	0.00354070544563962	0.00186483544901631	-2.38075945599792E-06	2.89674684711669E-06	-1.01127923580924E-06	-3.99978270512511E-06	0.998294077833043	-0.0455323252164993
1.9	0.00370430160540218	0.00156078481124529	-3.73267469759546E-06	-1.76275096302485E-06	5.62995363212765E-06	3.03151711877234E-06	0.998041220850312	-0.0483147364747906
2	0.00324682858919968	0.00137260755764759	-6.17444871677163E-06	-5.74967200652779E-06	-2.07926298612039E-06	9.15163137389442E-06	0.996318184006244	-0.051509257950704
2.1	0.00323666579551642	0.00192195670635128	1.16734922899693E-06	4.60404267775671E-06	4.47643657637251E-06	3.99250639274707E-06	0.995870762389431	-0.0524600827787167
2.2	0.00352359468540367	0.00202262656113363	6.55132912192461E-07	9.07349387882447E-07	-3.61628177311625E-06	-1.09401360387315E-05	0.996526866941893	-0.0547137795089878
2.3	0.00369784942602671	0.00191368360684943	-2.28908751881369E-06	3.55790553926637E-06	-5.32200454065626E-07	-2.79685802791184E-06	0.996479418625393	-0.056731899045269
2.4	0.00381713881966556	0.00161048190196593	-1.55553508621818E-06	-1.45757273266854E-06	1.28546619383294E-06	-9.97640014084247E-07	0.996556149326279	-0.0599703842176017
2.5	0.00323584229024678	0.000993635673704696	7.78742607099685E-06	4.07104245364661E-06	-2.34024492492332E-06	-7.2349428538578E-06	0.996198954644109	-0.0622978243342865
2.6	0.0025041492045731	0.00147463973688358	4.8581677629452E-07	2.11970184693505E-06	-1.47174808719486E-06	4.68943407883994E-06	0.996272112282729	-0.0652029549168237
2.7	0.00238092428244047	0.00202448670310245	-7.87407040568746E-06	5.24301620785759E-06	2.53296491464814E-06	9.72919111843052E-06	0.995838395439576	-0.0683140911845698
2.8	0.00265147347359021	0.00260035024338448	-7.74952695247313E-06	7.95904121109572E-06	6.0165435955007E-06	1.99297946971433E-05	0.995849161135812	-0.0701600479916591
2.9	0.00326178582305282	0.00273798528724589	-1.19063089526547E-06	8.60211189515975E-07	-8.12290373860738E-06	-2.96496907432971E-06	0.995720380758328	-0.0720617872331977
3	0.0034258798678674	0.00269371901486148	-6.09924326978162E-07	-4.47596296796183E-06	-2.18727746237399E-06	6.44369357206606E-06	0.995798656070214	-0.0744947490505626
3.1	0.00403208223465948	0.00305186266161013	-2.59024507212053E-06	8.95018026458659E-08	1.10233589697196E-05	-3.5305433027665E-06	0.995705955428195	-0.0764653504546673
3.2	0.00469217343056429	0.00284526931569246	-9.80407917495095E-06	2.5490593835252E-06	1.21688440999307E-05	4.26519858774147E-06	0.995740233076274	-0.0783059473708504
3.3	0.00513230854684638	0.00239112864406682	-3.47011362595878E-06	9.33370694482918E-07	-5.01285638899747E-06	-1.44221765480822E-07	0.995764855846625	-0.081561219206004
3.4	0.00535850761995419	0.00178039647613147	5.35105337636132E-06	4.89835468061179E-07	1.3496993992399E-06	4.47813319018665E-07	0.996128702035945	-0.0835122733079081
3.5	0.00485031187750187	0.0011447764308607	2.77290018230992E-06	1.56083118438368E-06	1.31448353010928E-06	7.93748460953828E-07	0.996407764323977	-0.0869471198975163
3.6	0.00465325545656349	0.00150610904075983	-7.15598504350474E-06	-1.29835298793679E-07	1.86513054837561E-06	-3.50206751511317E-06	0.99574654904145	-0.0896827652250341
3.7	0.00489589511512504	0.001429608176685	5.78169204388654E-06	-1.5157688862054E-06	-3.25972820589562E-07	-1.73402798705744E-06	0.995577059830256	-0.092370806520115
3.8	0.00512727538558811	0.00115969952368826	-2.00404172792985E-06	8.78320544458698E-07	-5.19872463476302E-06	3.00427639708793E-07	0.995304371273532	-0.094565501302396
3.9	0.00526434821776626	0.000574460936656962	-8.37559434839735E-06	1.78794964044732E-06	-4.12383640915097E-06	-1.49900119225403E-06	0.995241143621432	-0.0982634761240507
4	0.00450532195350579	-2.8917149668882E-06	-5.8284778904484E-06	3.74487523583628E-07	-9.51355722826829E-06	-8.44515039637686E-06	0.993390309334871	-0.100004028837569
4.1	0.00418852189160019	0.000609128075178174	-3.98772859524889E-06	4.0684503906237E-06	-1.8800150835835E-06	5.58422924371588E-06	0.993303077626645	-0.100203023216505
4.2	0.00447038578506959	0.000733920867377653	4.62344613879638E-06	-4.39000765464832E-06	6.76011201888856E-06	7.5392525518329E-07	0.993616312882006	-0.102740648184903
4.3	0.00472011477974204	0.00057774526677327	-3.79948963591765E-06	1.12966976802265E-06	3.55215697772578E-06	-1.20889678173538E-06	0.993825684500518	-0.104993026405398
4.4	0.00483101253320064	9.08969051783541E-05	-3.15310952791772E-06	-4.93834725882043E-06	9.30463470440477E-07	-1.03751656690028E-06	0.993445913645768	-0.107431919140613
4.5	0.00399505189409569	-0.00047794838164303	-1.39377744226771E-06	2.03190261849012E-06	2.14969735156342E-06	-8.48223452284512E-06	0.99344947382818	-0.109125917212196
4.6	0.00340147603115529	0.000179100424726568	5.40424379365263E-06	9.61697815140414E-06	-1.42335948616694E-05	9.83089712414232E-06	0.994180361417426	-0.112015424226518
4.7	0.00342054902254555	0.000510228741637924	-7.61017988583097E-06	-9.58280962905098E-06	-1.14772730517369E-06	-1.35085004650995E-07	0.994374717066421	-0.114636421707694
4.8	0.00350719016470294	0.0007541195327478	-8.76340360179792E-06	-2.69113746810834E-06	-4.38772766695868E-06	4.554528899853E-06	0.993953547378537	-0.117565928815955
4.9	0.00382284938477157	0.000722495563419438	5.78691214044899E-06	8.33140591709256E-06	-7.26978027855342E-06	3.28885050039401E-06	0.993492096233818	-0.119618118635057
5	0.00356037142167488	0.00049415739133204	4.28858388579463E-06	-8.56531859278512E-06	-4.30452786909601E-06	-6.19496207303488E-06	0.993398589004771	-0.121287449095704
5.1	0.00407954583529996	0.00104862443171227	1.52517574842776E-05	-1.02849798626688E-05	3.49116293918114E-06	-8.75071007010075E-06	0.99362598637485	-0.122905083397069
5.2	0.00491404018703861	0.000594946487019266	-4.24670851535E-06	-4.72304169844068E-06	-3.17050803192854E-06	5.27983699146324E-07	0.993319327080845	-0.125563431173109
5.3	0.00526257900662569	-0.000240679099543611	4.78823476474098E-06	3.37738001396822E-06	-9.31639676882303E-06	-4.74874327042277E-06	0.99281033473642	-0.128010086192696
5.4	0.00509975652156494	-0.00121511885305854	5.1893845952948E-06	1.2022196808273E-06	-4.75753026902627E-07	1.04747016468332E-05	0.992808162102779	-0.130602266540713
5.5	0.0036984297880297	-0.0016356307881065	-1.81788370358154E-06	-1.98604289063716E-06	8.90704212763614E-06	5.08256313921183E-07	0.992789622189188	-0.133890548582918
5.6	0.00346978996138106	-0.000552208212300044	4.26281505119023E-06	7.24056514469079E-06	-4.75361041909581E-07	-8.63171634547309E-06	0.992162976555836	-0.136405348904624
5.7	0.00381555964624752	-0.000383119000662656	2.05868100225E-06	-7.25601634211789E-07	5.48475547318265E-06	2.45309498429062E-06	0.992062678497696	-0.138990562708413
5.8	0.00400939093349763	-0.000497741005957876	3.92223135191326E-06	1.95919428317978E-06	2.74800757530511E-06	7.84502190783164E-06	0.991996418243948	-0.141613714070221
5.9	0.00420747909806401	-0.000989268602836509	-3.79527134672642E-06	-3.05409284880825E-06	-4.71040194502165E-06	-1.7727269927767E-06	0.991412326382269	-0.144898446476487
6	0.00302559125496044	-0.00210637129550442	-2.0722561023765E-06	1.70774391783006E-06	1.04211264771309E-05	-2.68123287537046E-06	0.988389301185616	-0.146854150355424
6.1	0.00174448972478338	-0.00122102745671711	-7.32456336375375E-06	-1.10136509377051E-06	-7.25806539569772E-07	-2.48221501867101E-06	0.988381793602004	-0.145599693827915
6.2	0.00142388098204975	-0.000649527068193471	-1.06126712806167E-06	1.98937615406125E-06	-3.48457672637133E-06	-5.36207960429577E-06	0.989073526348632	-0.146710858870826
6.3	0.00136211595903294	-0.000302656421870299	1.57899143115267E-06	2.83019170382385E-06	1.14988834614991E-06	5.9726580004643E-06	0.989194306646233	-0.148910213315864
6.4	0.00138793320241779	-0.000552470309684053	2.07145907639349E-06	5.03385484224297E-06	-3.33055331131717E-07	2.27393671341842E-07	0.98860735507632	-0.151523110354446
6.5	0.000316925470829075	-0.000564569290439602	4.66871222362097E-06	-1.87282710627731E-06	-4.68682778689721E-06	-1.55309013074614E-06	0.987965644531068	-0.152943540199445
6.6	0.000619843862297653	0.000418864706826617	3.27284973100973E-07	-1.07029004691163E-06	9.30765867289326E-06	3.35092143408956E-06	0.989761524298383	-0.155899710878002
6.7	0.00092492973094503	0.000390459213492787	5.29418313428363E-07	5.62262557982743E-06	-1.79382016173184E-06	4.98252727885211E-06	0.989565164048887	-0.159738123375586
6.8	0.00093690221867704	0.000462107935382265	1.75531425189652E-07	-1.58945667398439E-06	-3.48518976642403E-06	-5.12785118177373E-06	0.988599242135469	-0.16279618481335
6.9	0.0009575183388022	0.000233062785825923	-6.6492218766458E-06	6.7347708227862E-06	2.29227136807253E-06	1.35428196030579E-06	0.987702852823996	-0.165534237764035
7	-0.000508268023104935	0.000210330197644213	8.09213559336391E-06	3.1602278240239E-06	4.57923368219056E-06	5.86521704656503E-06	0.985663187252925	-0.167340708244881
7.1	-0.000661049286436253	0.0021498244206739	1.397727110152E-06	7.83106177162738E-07	-2.27831963961574E-06	-4.47799117717167E-06	0.985324145702535	-0.167858660805279
7.2	8.33161698947625E-05	0.00292861041988259	-1.33757029839366E-07	4.40056680641033E-06	-5.01469507512151E-06	-6.56273202621687E-07	0.985161806446548	-0.169584773088466
7.3	0.000694452479712208	0.00331353956891288	1.35234032586492E-06	-5.2675985128793E-06	-2.35006694632425E-06	-2.79108812035927E-06	0.984534969073262	-0.171326611108572
7.4	0.00140100112410073	0.0030768632183823	1.8382782168297E-06	4.42901403727615E-06	-7.28743118019515E-07	-1.07123025403109E-06	0.984742628670459	-0.173857667469151
7.5	0.000518473964017737	0.00192519143958428	-5.76136390562683E-06	-1.48693428735452E-06	-1.59692819862764E-06	-8.9255453937445E-06	0.983792142193784	-0.179107044939124
7.6	-0.000370835434910382	0.00297651188366645	5.6255529572506E-06	-3.40683669475769E-06	1.032404022314E-06	3.19345108586785E-06	0.980853802567925	-0.181555054415686
7.7	-0.00037132860846498	0.00338354033661613	-6.52083459404912E-06	-2.8503550018789E-06	4.39792993260705E-06	5.66823835397896E-06	0.980291115788096	-0.184183599142214
7.8	-0.000315133108080366	0.00343116555032269	-1.10114319018121E-06	-5.36131202697483E-06	-2.10215911972839E-07	1.1459330491805E-06	0.98005437920647	-0.187566131747045
7.9	-0.000386284449107547	0.00309863330079422	-3.32193396749896E-06	7.2347696624645E-06	4.43166592953244E-07	-6.8924071718833E-06	0.979555292873562	-0.19196957951808
8	-0.00182735261451541	0.00359416061357428	-1.9079864000697E-07	7.37804835674898E-06	1.74460199591663E-06	-4.46274367428841E-06	0.975505485693847	-0.195400202558436
8.1	-0.0010133676318142	0.00543156509138131	-7.61223651948608E-07	-6.44833217254301E-06	-1.74810670826488E-06	-1.05418240556672E-06	0.974831596112238	-0.194819111185862
8.2	0.000124202964132205	0.0058653756305195	-3.81297980811297E-06	1.65970031660425E-06	-1.09515828935022E-05	-2.5758645161671E-06	0.97547641993444	-0.196605811621774
8.3	0.00101906704188252	0.00596291753278616	-5.5599531596454E-06	-9.81982309875615E-06	-7.75896093318256E-06	3.03335404533421E-06	0.975215846165943	-0.199187712901441
8.4	0.00178079390103847	0.00556901055256323	6.73702345261729E-07	-6.09673727129652E-07	-1.41093328923269E-06	4.42207784801291E-07	0.974433818441094	-0.201807698175728
8.5	0.000753336512948314	0.00520351166135672	-1.74858480799575E-06	-2.55300915385042E-07	-6.62875921075962E-09	1.79946619111266E-06	0.97346270613009	-0.20388233565061
8.6	0.000984891774790587	0.00713110689671525	2.41733338927608E-06	-3.97054016945359E-06	-4.56699506831819E-06	-5.90641430632927E-06	0.973627800217492	-0.206207852203834
8.7	0.00235683993992967	0.00790172802040179	-1.50028372083416E-06	-2.08693739167636E-06	-3.5429747665535E-06	3.63826052063389E-06	0.973304619073612	-0.208946477549004
8.8	0.00383302827468628	0.00812315036505502	-5.48737411834964E-06	-2.10268516268233E-06	-7.217202380356E-06	-1.24950064152025E-06	0.972815140457742	-0.211254942625381
8.9	0.00550079592313812	0.00740153606533776	8.53424762986598E-06	4.06576266194929E-06	-1.4063922358471E-06	3.19139241142606E-06	0.972812261887861	-0.213241004927774
9	0.00557996056961373	0.00594444320505142	-4.93954679305649E-07	4.1484031268882E-06	-7.79193748342619E-06	1.23397916090707E-06	0.972716076461457	-0.215829038244424
9.1	0.00605620441300014	0.00590714082920435	-2.53815278038605E-06	6.61658813786937E-06	4.08646433871146E-06	-3.07700864880464E-06	0.972107669705721	-0.218174012768375
9.2	0.00663638285859616	0.00494796552355076	-1.16932362019049E-06	3.41245774688012E-06	-2.2390184462049E-06	-2.04820712529466E-06	0.971372639498965	-0.220602219739657
9.3	0.00659441776790985	0.00409744918895715	2.31754591904524E-06	-4.02652779817684E-06	-7.90110431752188E-07	-1.77470891095525E-06	0.970860575988469	-0.22269036239245
9.4	0.00637416861462661	0.00331365035211583	-1.79920242067664E-06	3.88456235870364E-06	-2.05920108713855E-06	-3.57317140240211E-06	0.9708469916999	-0.225190576948612
9.5	0.00497316730149372	0.00336860848496887	3.49233790126834E-06	6.2916170260599E-06	3.66661737364129E-07	-2.14860010965348E-06	0.97014799780877	-0.229145929974041
9.6	0.00544149414899914	0.00487140803506401	4.62125569036943E-06	7.06397898360163E-06	-8.20794735511265E-06	1.2792902992413E-05	0.968537596736587	-0.231617422336713
9.7	0.00648422851743995	0.00506474876082657	-2.87840440870978E-06	-1.52944324439006E-06	-1.38696041594467E-06	-3.96374107872332E-06	0.9680861090175	-0.233627047297835
9.8	0.00737659669381264	0.00486836312841634	1.27772257274638E-07	-3.59146827400499E-06	3.04283817756106E-06	2.3952822658543E-06	0.968256361755262	-0.235648271075813
9.9	0.0082318217724746	0.00406542447443752	5.79177291443195E-06	-6.21632405317889E-07	-2.55575682619068E-06	6.72289616164092E-06	0.968156690123474	-0.23869454539072
10	0.00725318684869189	0.00311727135490773	-1.13824677460741E-06	-5.74915956349345E-07	1.35729138289522E-06	-1.18434133313059E-06	0.964651476703232	-0.240685865635776
10.1	0.00740820015648692	0.00431769194717517	7.17741336998408E-07	-8.38881251042724E-06	6.13131048259984E-06	3.59985588518538E-06	0.964673514529481	-0.239340079659849
10.2	0.0085756290404638	0.0044083035823131	7.46629250932571E-06	8.30754640966212E-06	5.20759858120321E-06	3.52786218379208E-06	0.965568513797311	-0.240458030975769
10.3	0.00974184050083062	0.00389858694076393	1.76022237790777E-06	-6.93864719401863E-06	1.41955546193223E-06	2.86279611813791E-06	0.965651136959952	-0.242363575236947
10.4	0.0108177839767286	0.00242714686439998	-4.01077850294701E-06	-3.63440273308648E-06	1.95573794729664E-06	-5.57812776218673E-06	0.965139207850221	-0.24469745729516
10.5	0.00986230455317382	0.000861955870024563	3.95035453338038E-07	-7.04899390827312E-06	-5.72904465222135E-06	4.04560126968816E-06	0.964599318048213	-0.246461246577826
10.6	0.00965333151310324	0.00093865709469976	5.47042634122626E-06	6.74209262261262E-06	2.42942302608006E-06	1.19829222540381E-06	0.964862569423456	-0.249930079152328
10.7	0.00978434009919307	0.000735781290044362	-7.06735723144879E-06	-1.69962326704497E-06	-7.74919697786092E-07	1.5567955023914E-06	0.963634769418736	-0.25316968806757
10.8	0.010113768271941	0.000694852480249637	1.47743519589951E-06	4.43895514686279E-06	9.40824467686971E-06	-4.44779340739599E-06	0.96233973741788	-0.254887884076912
10.9	0.0108391074821083	4.95829492343461E-06	3.09980918812493E-07	7.40816139921855E-06	-5.15435960970324E-06	1.97193054346519E-07	0.962057905710902	-0.25656142996925
11	0.0100093069405402	-0.000858582116481355	-2.21250787263548E-06	-3.82702683120506E-06	1.20374131829413E-05	-3.51929428784286E-06	0.961304469609781	-0.258599287294907
11.1	0.0106415392672737	-1.32950625639513E-05	-6.10056495558492E-06	-4.94631078029764E-06	9.3529285380201E-07	5.57656041510974E-06	0.960269698666254	-0.259880683911106
11.2	0.0119759868596135	-0.000631976240556923	3.30081845068884E-06	4.31202890063508E-06	1.08532014732914E-06	-7.87070683314892E-06	0.959384598270413	-0.261132896221313
11.3	0.0131563984289926	-0.00199530695690172	7.21762919702387E-07	-2.65501061150196E-06	-4.87117591512384E-06	9.09747997437403E-06	0.95914724501925	-0.262207835928415
11.4	0.0139242737520486	-0.00416427228472948	1.48807286365597E-06	-2.19838715349951E-06	-2.98101300464577E-06	-7.45827018195568E-06	0.959622019589967	-0.26409805390777
11.5	0.0125693613414745	-0.00629403357113341	9.53292353844378E-07	-1.00973338137711E-06	-9.01730506788154E-07	-8.76293690547106E-07	0.95885530071609	-0.268647685656774
11.6	0.0124074071311302	-0.00662213050755283	1.12501219235864E-05	-3.25446024445316E-06	-5.41474189474189E-06	-6.85456888730934E-06	0.956530626055692	-0.271288647410645
11.7	0.0127684385537762	-0.00828853309234562	5.34231503097556E-06	-2.88636219923414E-06	-4.42091348186114E-06	1.64204972912809E-06	0.956022852787701	-0.273864557722689
11.8	0.0126408847700602	-0.0105365116723829	-4.4433438513743E-07	-2.5536958494637E-06	1.02661810975346E-06	1.32898094034764E-05	0.956351603132691	-0.277366196954481
11.9	0.0116673350202178	-0.0136313225318304	3.32847270109567E-06	2.00050199781467E-06	-3.9555870305005E-08	1.27641972148065E-05	0.957056701968753	-0.281950952776939
12	0.00773543384098857	-0.0157386145902553	2.00279507065473E-06	4.862434171252E-07	-3.69717877163318E-06	-9.74369724992083E-07	0.953235450471201	-0.285986791809992
