# GHZ S RI R 50
0.2	0.000578006910028563	0.00401011642870407	6.30243406157856E-06	-1.01017835570066E-06	1.0669283694658E-05	1.04861966588495E-05	0.999125281946028	-0.00720076911283199
0.3	0.00121334194884439	0.00356572068378973	5.81631754856506E-06	5.0322872875787E-06	8.09388706765854E-06	2.94852528684759E-06	0.998829231889765	-0.0101143747602817
0.4	0.00169076177192916	0.00330211452411632	-2.70447710149155E-06	7.86608933202389E-06	-4.82337274474519E-07	-4.42808304091021E-06	0.998673109722917	-0.0127439621659458
0.5	0.00178134727056857	0.00330658975238674	2.30699394186074E-06	1.47815270209694E-06	7.5073736480168E-06	-1.05287331959074E-06	0.998313897769815	-0.0154926736988058
0.6	0.00235962050906859	0.00359547933709108	3.23119661256784E-07	3.53831558704204E-06	2.70989549871071E-07	-7.65807981849586E-06	0.998822710015175	-0.0184338147923405
0.7	0.00279926869038009	0.00352022824299957	4.16438311123402E-06	5.02155550842105E-07	-3.89308728508107E-06	-1.9136298061566E-09	0.998437732919637	-0.021701534453475
0.8	0.00319094313458812	0.00345756042055201	-2.88447813632752E-06	2.96338514181587E-06	-6.81613099929966E-06	1.32205807715316E-06	0.998036718636759	-0.0240491640028768
0.9	0.00349802216828396	0.00327823092191652	6.03142785934268E-06	8.95653508576653E-07	-7.3354268732589E-06	-1.82753836312793E-06	0.997634883417197	-0.0266030753687551
1	0.00332912297749402	0.00298140987812873	2.35779331452291E-06	2.94040944424073E-06	-9.03289322908797E-06	-2.58594028728598E-07	0.99674430052587	-0.0281033741497322
1.1	0.00321054545336799	0.00342443071181678	6.43244086599633E-07	3.5649957045107E-08	-5.2956212878576E-06	1.40075491376204E-06	0.996502981888844	-0.029332150416415
1.2	0.00344464988871316	0.00338448652297735	-5.28845224268649E-06	-3.28754598888082E-06	-1.11718305678184E-05	-1.26476068700431E-05	0.996444815082114	-0.029949076210042
1.3	0.00345627094220106	0.00288702546109314	3.04732353841918E-06	3.10212590436909E-06	6.95423930629189E-06	-4.08060807865654E-06	0.99731915866311	-0.0306557712369984
1.4	0.00328142190745675	0.001987111879337	-2.7975970077137E-06	-1.11343925355261E-06	5.71013429842604E-06	6.3176550550002E-08	0.997642693414383	-0.0330033481628085
1.5	0.00288544601602017	0.00159501124581581	1.23997967556961E-06	-2.53207896093713E-06	8.01217755752651E-07	2.51073934981872E-06	0.997900630543188	-0.0366351688754588
1.6	0.00310261354629813	0.00158723633094669	-9.3187685715544E-07	-6.41071150166881E-06	3.18340252825074E-06	-4.24011873767358E-06	0.997255619759438	-0.040277027383692
1.7	0.00324328872209944	0.00147016929169509	3.40196516894178E-06	6.33106016743103E-07	2.23207083279172E-06	3.8488932225886E-06	0.997022919154657	-0.0430113689391913
1.8	0.00330815780126805	0.00153127327625943	-2.3751791855442E-06	2.89388491890735E-06	-1.01238764656197E-06	-3.99297190563403E-06	0.996458301308403	-0.0458140828924819
1.9	0.00332078652570657	0.00145031355701623	-3.72657451605063E-06	-1.75779814765405E-06	5.62092198900253E-06	3.02335771828842E-06	0.995814276256765	-0.0482434592381003
2	0.00307212578703	0.00170925517298453	-6.16123707765859E-06	-5.74073144171809E-06	-2.07804756739963E-06	9.13392833216384E-06	0.994214819562313	-0.0503774679738666
2.1	0.00341798139949452	0.00201755709407969	1.16474597160617E-06	4.59775497368248E-06	4.46926728241856E-06	3.98776719864095E-06	0.994409216393254	-0.0515760217161213
2.2	0.00363092376526084	0.00193368218091804	6.53966211696084E-07	9.05990318135933E-07	-3.6090449397801E-06	-1.09231741296306E-05	0.994826120097632	-0.053929981180943
2.3	0.00366287480926771	0.00173744281068444	-2.28601315124592E-06	3.55095271718888E-06	-5.30477891297761E-07	-2.79204082889583E-06	0.994568384379013	-0.0558017684070185
2.4	0.00348674892492998	0.00147270643133585	-1.55190128253575E-06	-1.45562224954787E-06	1.28355970004362E-06	-9.95134894626451E-07	0.994420716951498	-0.0588225910925931
2.5	0.00278956414143139	0.00144519679250326	7.77012317324985E-06	4.06758308328166E-06	-2.33165847025063E-06	-7.22231667565059E-06	0.993886745109083	-0.060711540698911
2.6	0.00259078437295733	0.0020778940845575	4.82785282792139E-07	2.11537639238772E-06	-1.47272455940034E-06	4.67753621924296E-06	0.993997381144702	-0.0631294162764209
2.7	0.00278347398617604	0.00246946889954874	-7.86466084703757E-06	5.22053308600983E-06	2.51364810056547E-06	9.71193488432961E-06	0.99390968318856	-0.0658252469391336
2.8	0.00316506079521811	0.00273857895411595	-7.74872456296641E-06	7.93081782203511E-06	5.9709960064421E-06	1.99028641058843E-05	0.994282267918218	-0.0676209477503962
2.9	0.00360882816845412	0.00271728400354204	-1.19034696907929E-06	8.56655418613235E-07	-8.10463315875727E-06	-2.97532055699027E-06	0.994312097832666	-0.0695606232767021
3	0.00389728733598554	0.00283543499592537	-6.01002734723205E-07	-4.47041404852206E-06	-2.19557291387054E-06	6.43021510227973E-06	0.994498785156887	-0.0719468676891246
3.1	0.004638000604056	0.00278707440599304	-2.58690509479671E-06	8.41201808594242E-08	1.10155408583626E-05	-3.50335832746467E-06	0.994556855409542	-0.0739283514759459
3.2	0.00507991659897879	0.0023683938766577	-9.79875096050677E-06	2.52644230907345E-06	1.21471609524721E-05	4.28531532959677E-06	0.994706935948602	-0.075858118239222
3.3	0.00529916763298879	0.00180766431148112	-3.46886750148258E-06	9.25951118933544E-07	-5.0082147276282E-06	-1.5363965816457E-07	0.99480071912691	-0.079277315347313
3.4	0.00519442046611922	0.00121989597686344	5.34609478471066E-06	4.97940152192263E-07	1.34793436892739E-06	4.49604169845562E-07	0.995004255429503	-0.081545248991873
3.5	0.00470147796625432	0.000965282551484555	2.76675419283946E-06	1.56283935285301E-06	1.31148942325261E-06	7.94626469490015E-07	0.994641942858754	-0.084702156587489
3.6	0.0046114032095561	0.00100758798951497	-7.14696959500713E-06	-1.44982260571824E-07	1.87034350402106E-06	-3.49380213383032E-06	0.994255504652339	-0.0869663401019661
3.7	0.00445643698830783	0.000855147487683294	5.77980120469044E-06	-1.50172305944844E-06	-3.21876256918389E-07	-1.73317881452478E-06	0.994186050948245	-0.0895845683394296
3.8	0.0043017944622326	0.000809408599401408	-2.00434086780189E-06	8.73233567190173E-07	-5.19518015498052E-06	2.88829710174506E-07	0.993853966109847	-0.0916086765990826
3.9	0.00415136351632586	0.00077839721163619	-8.37163041144444E-06	1.7661186000436E-06	-4.11618319434631E-06	-1.50740682025366E-06	0.993559651132871	-0.094748126360317
4	0.0039128653547955	0.00107669139488242	-5.82668713238697E-06	3.55073434636125E-07	-9.48077030988849E-06	-8.47213780819761E-06	0.992693468635327	-0.0951612652762058
4.1	0.00436481691310785	0.00135878367025136	-4.00056483687747E-06	4.05779798072576E-06	-1.89676469017607E-06	5.58009377693291E-06	0.993783221061038	-0.0961767453220125
4.2	0.00472271998677882	0.00114065656290825	4.63718079365022E-06	-4.37832473677268E-06	6.76002300924228E-06	7.73162417462507E-07	0.99413918887901	-0.0990668518780607
4.3	0.00489298731139935	0.000818971484941413	-3.80463178037586E-06	1.11932554356848E-06	3.55740299111916E-06	-1.19930226947227E-06	0.994491276607393	-0.101403073796095
4.4	0.00478283506639434	0.00038694594691648	-3.14186282496423E-06	-4.95165407256792E-06	9.34230033395522E-07	-1.03578825748131E-06	0.994300402993078	-0.103905289689495
4.5	0.00425210856219404	0.000378650722507127	-1.39966195982446E-06	2.03136567325636E-06	2.16996566584534E-06	-8.48767036012435E-06	0.994690981039262	-0.105932644862379
4.6	0.004271066913299	0.000579752302606608	5.38742829253939E-06	9.63142302758608E-06	-1.42585843865751E-05	9.80673273276498E-06	0.995046962546915	-0.109180957065685
4.7	0.00430306589506736	0.000478486594973163	-7.5890386600022E-06	-9.60354242020963E-06	-1.14769185503755E-06	-1.37881185574226E-07	0.995135684185093	-0.111592644562638
4.8	0.00426516928588418	0.00035301010328927	-8.75955666722823E-06	-2.71620987618008E-06	-4.40195913670706E-06	4.54434643695711E-06	0.994851691523661	-0.114431987668089
4.9	0.00419732440426454	0.000133303618061372	5.76737739149246E-06	8.35460251414067E-06	-7.28493947987012E-06	3.2704324613846E-06	0.994553943841496	-0.116530909825884
5	0.0039872442530946	0.00016661967941152	4.31439379222578E-06	-8.56090664256089E-06	-4.29174466913319E-06	-6.21114237285796E-06	0.994491593202462	-0.118333871227079
5.1	0.00439835521188383	0.000155422195706916	1.52959448756833E-05	-1.02465580205385E-05	3.5209446769885E-06	-8.74718454629145E-06	0.994624582619462	-0.119935596381024
5.2	0.00462049043289077	-0.000232028923119957	-4.23738041550257E-06	-4.74319611972385E-06	-3.17657265813981E-06	5.18521934437549E-07	0.994434134363537	-0.122386577342804
5.3	0.00470142113614505	-0.000643972616214318	4.78762483689039E-06	3.39862512773084E-06	-9.32071942979987E-06	-4.78642568549641E-06	0.99440539265588	-0.124782756788949
5.4	0.00451868707864095	-0.0011550285450786	5.19960939787549E-06	1.21702050930963E-06	-5.00756748125303E-07	1.04997759464241E-05	0.994794354441438	-0.127916554684988
5.5	0.00391733717849234	-0.00110025852737194	-1.81751977691286E-06	-1.99258488201534E-06	8.92130903673162E-06	5.24621569283642E-07	0.994490256496885	-0.131275851993026
5.6	0.00394245793006418	-0.00107448110742339	4.25309693364154E-06	7.26517469504553E-06	-4.5485212568277E-07	-8.6496177868718E-06	0.994314383261751	-0.133927559651856
5.7	0.0035673750283938	-0.00123662084310383	2.06550745180785E-06	-7.22466036300994E-07	5.49244015623648E-06	2.47229171035977E-06	0.994148920276971	-0.136837791920858
5.8	0.00304867479017925	-0.00118180452195256	3.92847474572845E-06	1.97355652606567E-06	2.73753290419536E-06	7.87280431523382E-06	0.993856743616853	-0.139429884113922
5.9	0.00242886299687242	-0.000968605800830976	-3.79819342025326E-06	-3.07319566615508E-06	-4.71943416863646E-06	-1.79053250208413E-06	0.992956747789727	-0.141923553797288
6	0.00151704484141456	-0.000141281084628926	-2.08798048152949E-06	1.70926161404215E-06	1.04807812463822E-05	-2.66004908552942E-06	0.992077954215412	-0.142193718777804
6.1	0.00189834047688629	0.00100956790398343	-7.36726786302593E-06	-1.11681367498563E-06	-7.271781461897E-07	-2.49801169978891E-06	0.994027036397352	-0.143005305793723
6.2	0.0025858225215657	0.00114339113325977	-1.06740711699631E-06	2.00061757290761E-06	-3.504071004783E-06	-5.39273444477506E-06	0.994927514461261	-0.145508864927162
6.3	0.00301383217694228	0.000575946080862407	1.58863264834364E-06	2.84429699616764E-06	1.15877693133148E-06	6.00346678383068E-06	0.994887864234493	-0.14888121574455
6.4	0.00265215393874587	-0.000313285909846184	2.08446808395378E-06	5.0590557037936E-06	-3.34682200029896E-07	2.28723317034514E-07	0.993857731344005	-0.151934972268584
6.5	0.00188845274680417	-0.000317295458758322	4.69180586056946E-06	-1.89153292512323E-06	-4.71599184354655E-06	-1.55369303450394E-06	0.993670854716174	-0.154512199241091
6.6	0.00179443406390768	-0.000331918734041463	3.26077571204225E-07	-1.07518328728941E-06	9.35137817395641E-06	3.3423723905189E-06	0.99337762550276	-0.158336502909021
6.7	0.00151995874835495	-0.000334538268732338	5.40766499734582E-07	5.63943615257404E-06	-1.79089654990895E-06	5.00131984398073E-06	0.992346016206337	-0.161292884774546
6.8	0.00126430726112669	-0.000292393052632462	1.73981652036762E-07	-1.59437668470273E-06	-3.50214846716169E-06	-5.13845294603206E-06	0.991300292095927	-0.163964377933633
6.9	0.000722132361312247	-0.000332315746245561	-6.66258647357947E-06	6.76199756519823E-06	2.30061467732799E-06	1.35606842888387E-06	0.990218323225716	-0.166480410593577
7	-4.7126761995527E-05	0.00049635622456795	8.1226853452034E-06	3.1615074644957E-06	4.60117733979075E-06	5.87951410627502E-06	0.988910386332012	-0.167948966319906
7.1	0.000137980417286125	0.00116668020085307	1.4036644086608E-06	7.83660368498465E-07	-2.29283047176946E-06	-4.48978623588339E-06	0.988650802194383	-0.169799368995101
7.2	5.46461891902435E-05	0.00146751516271074	-1.25229765025815E-07	4.41579338404983E-06	-5.03307500558747E-06	-6.48268033091842E-07	0.98775721793738	-0.17219082602794
7.3	-0.000199888748585756	0.00177877767460279	1.34150134695904E-06	-5.28848956218081E-06	-2.36570031200896E-06	-2.79330825966202E-06	0.986339324220735	-0.174624411116713
7.4	-0.000778015806225859	0.00189945894258922	1.86167143339619E-06	4.43137955531738E-06	-7.35061939982921E-07	-1.07057595978011E-06	0.984674127259175	-0.178037316601585
7.5	-0.00199112134283505	0.00282330324815393	-5.76456895025869E-06	-1.46380517726182E-06	-1.63100540336618E-06	-8.91530488066314E-06	0.981178090715647	-0.180763065395037
7.6	-0.0017676844323838	0.0042956774684023	5.61591073343451E-06	-3.41941412008244E-06	1.03978131706858E-06	3.19013697326681E-06	0.979790359885459	-0.181789573177483
7.7	-0.00145814460857531	0.0050135943533047	-6.52601914896363E-06	-2.83446316231586E-06	4.41018408789505E-06	5.65667041810754E-06	0.979583897409332	-0.184277467427264
7.8	-0.000874526049549021	0.00523619455421651	-1.11147732248233E-06	-5.35664229057628E-06	-2.07803951654356E-07	1.14583551848059E-06	0.979573157388513	-0.187396276715548
7.9	-0.000544462080583946	0.00517519023073976	-3.31071784547362E-06	7.23197002829789E-06	4.34951025223671E-07	-6.88665478673446E-06	0.979012404255398	-0.190761452907363
8	-0.000150845577756816	0.00581063873667897	-2.00261509263202E-07	7.38364662067662E-06	1.75161514339424E-06	-4.46407367036268E-06	0.978138705561028	-0.19226473426313
8.1	0.000896684528815084	0.00573872540685014	-7.65050790993862E-07	-6.46795373054894E-06	-1.75371728461471E-06	-1.05701497634146E-06	0.979310576132604	-0.195081263418787
8.2	0.00145268055097866	0.00551485137929844	-3.8229596137159E-06	1.67024896367807E-06	-1.09902921116148E-05	-2.56915793614998E-06	0.979247388183873	-0.198343288145985
8.3	0.00187802830636223	0.00527715895870751	-5.59626228438506E-06	-9.8407347970747E-06	-7.77804964284909E-06	3.05769474180694E-06	0.978471423209075	-0.201580644739852
8.4	0.00191283429730166	0.00498474040285179	6.74711420122312E-07	-6.13420588164391E-07	-1.41497659061244E-06	4.47058142118913E-07	0.977383365671415	-0.204531111960335
8.5	0.0016093506780626	0.00551756745258461	-1.75542522758813E-06	-2.4908466623614E-07	6.19169691351209E-10	1.80547099390548E-06	0.976535772705616	-0.207397599578125
8.6	0.00222893863613088	0.00594511223579659	2.40688123680949E-06	-3.98656419060735E-06	-4.59703330540019E-06	-5.89994091646403E-06	0.975613563683505	-0.210467632378131
8.7	0.0026384349562818	0.00606415571841299	-1.50919082140234E-06	-2.0858315006973E-06	-3.53775267484853E-06	3.65520819351484E-06	0.974491563553756	-0.213095215531651
8.8	0.00306965393404845	0.00619436715534495	-5.50346537379827E-06	-2.09212468416442E-06	-7.23433674944941E-06	-1.23270950275056E-06	0.9734593048556	-0.215177059823897
8.9	0.00341762505944453	0.00609052594108749	8.56765504063543E-06	4.05487521568541E-06	-1.40201361168992E-06	3.20359333822676E-06	0.973008441541573	-0.216837634288783
9	0.00359029415191687	0.0065280127262004	-4.80256557585837E-07	4.16185075656016E-06	-7.80933495735447E-06	1.26577996782511E-06	0.972631900215152	-0.218769686482935
9.1	0.00474781279365572	0.00672011057242665	-2.52132436291063E-06	6.64340329960893E-06	4.08643359313827E-06	-3.09986048306278E-06	0.972453299791288	-0.220657173625922
9.2	0.00578421345950663	0.00632615182826478	-1.15769842875712E-06	3.42785165641555E-06	-2.25479624936145E-06	-2.04441265754301E-06	0.972273209450188	-0.223343994610746
9.3	0.00664604809042123	0.00559661665517883	2.3003330761388E-06	-4.04996291353054E-06	-8.02268876371703E-07	-1.77466239633304E-06	0.971930316130612	-0.226393167169532
9.4	0.00697663002812215	0.00454007935981512	-1.77375246224592E-06	3.90230426245697E-06	-2.08729850113781E-06	-3.56298630273526E-06	0.9709461151249	-0.230176981995933
9.5	0.00685754111341644	0.0044061323494372	3.52909686627828E-06	6.25809126251433E-06	3.51622410304563E-07	-2.1476412236891E-06	0.968842109718445	-0.233145312570921
9.6	0.00721824040943396	0.00394138865682962	4.64945285672882E-06	7.02882752778737E-06	-8.12942976583936E-06	1.28133732580012E-05	0.967635016765835	-0.235732876683293
9.7	0.00717680678797818	0.0035243496846081	-2.8813880111652E-06	-1.51268164188011E-06	-1.40443716139952E-06	-3.9504868101677E-06	0.966468351488809	-0.238211449909791
9.8	0.007086207419359	0.00324028184124046	1.09783645311921E-07	-3.58448199101258E-06	3.04820161372867E-06	2.37519135871433E-06	0.965425750035209	-0.240270510848859
9.9	0.0067614642455639	0.00309677154145961	5.77199951339878E-06	-6.42963889207422E-07	-2.5212152116036E-06	6.71306423995936E-06	0.963589203884999	-0.241831499038284
10	0.00639941581122145	0.00380253968876298	-1.13840561426035E-06	-5.71370206904557E-07	1.35273484960204E-06	-1.18643324518701E-06	0.962489490895764	-0.24121069492328
10.1	0.00719933924440867	0.00426667248225521	6.77353148773039E-07	-8.38499041504336E-06	6.14309629282578E-06	3.56768796159139E-06	0.962985660794299	-0.242435304390275
10.2	0.00800851304609635	0.00421441648281196	7.49190190058409E-06	8.25081793778933E-06	5.21390112039471E-06	3.49338304376334E-06	0.962396695428466	-0.243700669801176
10.3	0.00875965962494513	0.00377062313086023	1.72250986031479E-06	-6.92453081189257E-06	1.42823382618681E-06	2.84705483863086E-06	0.961465374360659	-0.245059723115116
10.4	0.00906189770186218	0.00307509646636365	-4.01148764377064E-06	-3.60692198316176E-06	1.92778246292851E-06	-5.56718208988089E-06	0.960277441307112	-0.2462549159369
10.5	0.00910256715457086	0.00320289290519189	3.59507844326206E-07	-7.02635744994822E-06	-5.68949083549168E-06	4.05926790364934E-06	0.959887143468319	-0.247540871411345
10.6	0.0103203552912838	0.00304298526803382	5.46918661611321E-06	6.68448461243273E-06	2.421563715111E-06	1.18212318014253E-06	0.959705801768904	-0.249730378526634
10.7	0.0114002016631429	0.00232707336661027	-7.03409550142222E-06	-1.67001361181862E-06	-7.66233822697712E-07	1.55062639043489E-06	0.959530055128288	-0.252043259584409
10.8	0.0122308423387395	0.00103901703990973	1.48030960501008E-06	4.41293206261433E-06	9.35000960702163E-06	-4.44719335528218E-06	0.959244825133312	-0.254258714709566
10.9	0.0122327079568867	-0.000411267719325984	3.24616080995519E-07	7.37334271327495E-06	-5.1301739682373E-06	2.07460916544789E-07	0.958785374643878	-0.256498892818651
11	0.0120164674753644	-0.000949535063916567	-2.21236251764325E-06	-3.80161367892166E-06	1.19672791141047E-05	-3.53601382798808E-06	0.957899773977966	-0.258286209897801
11.1	0.0125258681804511	-0.00185214031576549	-6.07815083954325E-06	-4.90426687170221E-06	9.43231635703889E-07	5.54318896120838E-06	0.956843880690099	-0.259988281479553
11.2	0.012718371035684	-0.00306356884258794	3.29195963633089E-06	4.28076936885352E-06	1.06193896787804E-06	-7.82931744620218E-06	0.955655156170514	-0.261554043508705
11.3	0.0128086037507764	-0.00455213681177836	7.11074185929041E-07	-2.64198812868966E-06	-4.82115413496006E-06	9.05887035834492E-06	0.954959332012351	-0.263301328943764
11.4	0.0122815909702776	-0.00617698853380306	1.47097158875008E-06	-2.18970994455208E-06	-2.9883017474265E-06	-7.40070876841229E-06	0.95362522989273	-0.266012335169426
11.5	0.011422084995314	-0.00700201983677198	9.42813243620213E-07	-1.00308333067568E-06	-8.95846676617573E-07	-8.66719162567553E-07	0.95127911041834	-0.267832215062728
11.6	0.0111101007368686	-0.00828365653121736	1.11636851698145E-05	-3.23617298388479E-06	-5.37777924398439E-06	-6.80001309054284E-06	0.95039587484994	-0.270157576723245
11.7	0.0102138159092873	-0.00968805207380672	5.30224631413851E-06	-2.86922417744002E-06	-4.38824335766545E-06	1.63320286672721E-06	0.949209634432361	-0.27303546570211
11.8	0.00901429710229365	-0.0108234304671106	-4.4224016152802E-07	-2.53393754288592E-06	1.02555334262056E-06	1.31876409038462E-05	0.947961482428601	-0.275795114350911
11.9	0.00750988850271251	-0.0115193311425709	3.29712701727052E-06	1.98654871377044E-06	-5.29746753541571E-08	1.2652222070385E-05	0.946813046936158	-0.276845759161933
12	0.00642903776748044	-0.0111445808311176	1.98782716010936E-06	4.90941065530859E-07	-3.66924632089521E-06	-9.82541173987968E-07	0.947415024283817	-0.276042275066203
