# GHZ S RI R 50
0.2	0.00053910130038699	0.00366281383966761	6.30546869813889E-06	-1.00751762965721E-06	1.06684832796389E-05	1.04956217911369E-05	0.999414423070835	-0.00713558986028742
0.3	0.00114514956131477	0.00330136308509985	5.81714797642684E-06	5.03725032117412E-06	8.09673474181549E-06	2.95338892370201E-06	0.999188315768625	-0.0100331440644818
0.4	0.00161275643658203	0.00317066503535242	-2.7086400435712E-06	7.87078169132572E-06	-4.81389522574366E-07	-4.43130564250022E-06	0.999232493962911	-0.0126406501581304
0.5	0.00188267862424965	0.00309538067875355	2.30833255987197E-06	1.47907617188429E-06	7.51184827367825E-06	-1.05334611778236E-06	0.999055477435373	-0.0157354382637743
0.6	0.00219539832024526	0.00325988927859831	3.22328670846031E-07	3.5403336590562E-06	2.73230715612714E-07	-7.66218234728445E-06	0.999329939054252	-0.0186982915829476
0.7	0.00251255660338944	0.00335029767095774	4.16751485111206E-06	5.03878243713933E-07	-3.89616384541561E-06	-3.15455182074221E-09	0.999021285065976	-0.021890764159898
0.8	0.00288155992252754	0.003422650247775	-2.88806588737801E-06	2.9655418384246E-06	-6.82314385741313E-06	1.3215941257724E-06	0.998691139681937	-0.0242493049050807
0.9	0.00320368119055852	0.00342745083158196	6.03828461344238E-06	8.97555739115674E-07	-7.34366019366781E-06	-1.83070684186656E-06	0.998328325627444	-0.0267450402342698
1	0.00342360735272137	0.00323695596312643	2.3610349914039E-06	2.94346934809193E-06	-9.04351692913751E-06	-2.57423457199225E-07	0.997726771553536	-0.0282488674117978
1.1	0.00335970815777914	0.0031887998575809	6.43819492228132E-07	3.55532072003438E-08	-5.30002062764386E-06	1.4030482719615E-06	0.997401681623927	-0.0298508550234096
1.2	0.00332632053255661	0.00286248045153332	-5.29247478369721E-06	-3.28884713335621E-06	-1.11812610587526E-05	-1.26541132177854E-05	0.996998567879137	-0.0306874684153009
1.3	0.00289314209217367	0.0021899347922591	3.04862909341781E-06	3.10292416362809E-06	6.9562641083855E-06	-4.0825958438406E-06	0.997266784126775	-0.0315248856886041
1.4	0.00235471044689567	0.00156867180126163	-2.79812026576042E-06	-1.11403615421234E-06	5.71146727981152E-06	6.38761676276507E-08	0.997211728870118	-0.0335168161678416
1.5	0.00210279359182043	0.00142352696560112	1.24144595722911E-06	-2.53311615451451E-06	8.00899259207927E-07	2.51238774347284E-06	0.998033069376331	-0.0368596676040222
1.6	0.00235615584205407	0.00170018325199545	-9.31281008070424E-07	-6.4179293501526E-06	3.18793598889935E-06	-4.24393782708337E-06	0.997941641731889	-0.0405544532811154
1.7	0.00279777458248327	0.00179454424926046	3.40684601545671E-06	6.3429040043144E-07	2.23500392518154E-06	3.8546465227532E-06	0.99819322675102	-0.0433608946675403
1.8	0.00312463620610985	0.00188921871872712	-2.37911600620275E-06	2.89878712778532E-06	-1.01415922780827E-06	-3.99965916127012E-06	0.997988095439259	-0.0462114113973845
1.9	0.00338469961709387	0.00178328513845691	-3.73402092432786E-06	-1.76136340809421E-06	5.63214935067963E-06	3.02948070618497E-06	0.99784935587608	-0.0485540419565746
2	0.00336895581594428	0.00170081640800883	-6.17978932128375E-06	-5.75336743286063E-06	-2.07983252967709E-06	9.15883301639904E-06	0.997194419694669	-0.0513410118211591
2.1	0.00339366964400236	0.00183213951617067	1.17201064164388E-06	4.60777229757426E-06	4.48395109899645E-06	3.99311370343929E-06	0.996989983120729	-0.0533704895143019
2.2	0.00349541009817323	0.001887087098284	6.56458614664883E-07	9.07415318009156E-07	-3.62909169429529E-06	-1.09448964669782E-05	0.997190184770034	-0.0558286563452733
2.3	0.00355374664636982	0.00181996327876976	-2.28721481213195E-06	3.56219572761663E-06	-5.35102590328396E-07	-2.79808322863934E-06	0.996895399214477	-0.0577961151957159
2.4	0.00353946753895829	0.00167647234581336	-1.55784017485349E-06	-1.45699092157577E-06	1.2853042984297E-06	-9.9944747753595E-07	0.996819822547259	-0.0608987209721194
2.5	0.00322472849499678	0.00142952584307675	7.79566194174039E-06	4.06399665312748E-06	-2.34960183752554E-06	-7.23558552662507E-06	0.996569737803905	-0.0630487807332481
2.6	0.00284405886062541	0.00162517519604217	4.87845879265196E-07	2.11968626138365E-06	-1.46777210881651E-06	4.69171970136266E-06	0.996753071081322	-0.0659877900525412
2.7	0.00275806667108974	0.00191429548656531	-7.87310591860569E-06	5.25050847452915E-06	2.54082535643195E-06	9.73082319649571E-06	0.996520723692257	-0.0691752848586895
2.8	0.00291794719517006	0.00224020160621254	-7.74760381678045E-06	7.96908210494962E-06	6.03475231170062E-06	1.99357543834581E-05	0.996590677453897	-0.0713226488141491
2.9	0.00328379116202171	0.00234999457231029	-1.19044509098629E-06	8.61816906822426E-07	-8.13011798015024E-06	-2.95876377618733E-06	0.996221689374351	-0.0734586185793662
3	0.0035375301767497	0.00237624925196944	-6.14936363038292E-07	-4.4759449282409E-06	-2.18050910077274E-06	6.44703914475663E-06	0.995987362340553	-0.0759312260401296
3.1	0.00393794020992926	0.00249384000458451	-2.59014654503607E-06	9.17468595404604E-08	1.1020208874995E-05	-3.5400721898756E-06	0.995548036462704	-0.0779095318141711
3.2	0.00433827069617132	0.00240951345008336	-9.80119631801276E-06	2.55737454838459E-06	1.21716997936633E-05	4.25436609986121E-06	0.995263138059317	-0.079620149630965
3.3	0.00465234947055731	0.00213702855166247	-3.4685410990554E-06	9.36486635575726E-07	-5.01200419609958E-06	-1.39425965840557E-07	0.995020982827324	-0.0827688441154697
3.4	0.00480425013001052	0.00179697011847931	5.34897305299706E-06	4.8353179672098E-07	1.3495420481614E-06	4.46063648226217E-07	0.994996208699481	-0.0846021064853042
3.5	0.00465578887454893	0.00142305241917607	2.7711454441093E-06	1.55697933463283E-06	1.31369393503085E-06	7.9186466101119E-07	0.995090821442686	-0.0873735889870967
3.6	0.00452671026113466	0.00145300477036414	-7.15091671909689E-06	-1.26789085221062E-07	1.86235027070558E-06	-3.50033064640302E-06	0.994885769039003	-0.0901078408716294
3.7	0.00457702735609541	0.00138567660121399	5.77733596778422E-06	-1.51820512862184E-06	-3.2678087714389E-07	-1.73279601557659E-06	0.99461568080522	-0.0929648770616731
3.8	0.00468798578116983	0.00126462173769628	-2.00203317465423E-06	8.79020990986857E-07	-5.19482303632264E-06	3.03653549464668E-07	0.99409714125121	-0.0950804518214594
3.9	0.00480799598506632	0.00100864603567571	-8.36716341783417E-06	1.79011563822122E-06	-4.12076281148643E-06	-1.49576970417561E-06	0.99383252577577	-0.0982141979918282
4	0.00463749448469455	0.000702861717989788	-5.82626294817212E-06	3.75175761425387E-07	-9.51122710093801E-06	-8.44066797147541E-06	0.993134678671453	-0.0994153995776484
4.1	0.00456688436573268	0.000781071296966179	-3.98270249683002E-06	4.07008639483532E-06	-1.87459862681233E-06	5.58348832375519E-06	0.993192649185312	-0.100820997451814
4.2	0.00469888924987523	0.000677214200213063	4.61587444128324E-06	-4.38992920438225E-06	6.75484256949606E-06	7.4780188233101E-07	0.992909492708997	-0.103520194183178
4.3	0.00477996745828033	0.00045064861036452	-3.79487716430221E-06	1.1307278549609E-06	3.54775501379682E-06	-1.20972722337665E-06	0.992806265940016	-0.105607156690978
4.4	0.00471048832689374	8.33227040063493E-05	-3.15257616849229E-06	-4.93239771507817E-06	9.29134192096751E-07	-1.03701484814738E-06	0.992390142015285	-0.10782311471251
4.5	0.00419789798031295	-0.000262893979700083	-1.390484155005E-06	2.03120247593933E-06	2.13958273965207E-06	-8.47585787852614E-06	0.992581987990018	-0.109747985581326
4.6	0.00362894367914453	-8.66317310786553E-05	5.40240225641193E-06	9.59886567590001E-06	-1.42055803116017E-05	9.82539891891402E-06	0.99285355587552	-0.112779593726614
4.7	0.00335036051233833	0.000172278363140433	-7.60298222800602E-06	-9.56635721532956E-06	-1.14614980902526E-06	-1.34462373538724E-07	0.99287506476355	-0.115205140996065
4.8	0.00322903441840839	0.000493050168381712	-8.7530980917282E-06	-2.68503997363532E-06	-4.38076287001856E-06	4.55008703844861E-06	0.992399031659865	-0.118006279977539
4.9	0.00337753926658033	0.000701849263724939	5.78368187066338E-06	8.31942547932585E-06	-7.26005221346246E-06	3.28805954601904E-06	0.991870034115935	-0.11993720027587
5	0.00347924773725951	0.000707190857206141	4.27755859592003E-06	-8.55420680981727E-06	-4.30100322342777E-06	-6.18314931885588E-06	0.99172695526827	-0.121414012906131
5.1	0.0039165463975283	0.000899084758431808	1.52280123192216E-05	-1.02682827047616E-05	3.48592500103769E-06	-8.73679642989666E-06	0.99191811606653	-0.122853594656793
5.2	0.00450888871926432	0.000597672983035585	-4.24025539856394E-06	-4.71733659943573E-06	-3.16631839866359E-06	5.26781146450432E-07	0.991609898127507	-0.12526530486659
5.3	0.0048544231405009	3.66259432514226E-05	4.78220166815521E-06	3.3736162320114E-06	-9.30478323249131E-06	-4.74362840265589E-06	0.991218306294812	-0.127533666157616
5.4	0.00486302383589445	-0.000608361993767261	5.18262914680413E-06	1.19923037080369E-06	-4.72376534573076E-07	1.04605576924642E-05	0.991195897127168	-0.130093211730232
5.5	0.00428322853081161	-0.000986106041974587	-1.81377956787022E-06	-1.98200638604083E-06	8.88796765825327E-06	5.08170193917432E-07	0.991288316420743	-0.132857755502608
5.6	0.00404140836524234	-0.000719067392036006	4.25019422208719E-06	7.23167852300891E-06	-4.68024264386178E-07	-8.61763143954451E-06	0.991200184813863	-0.135616367025144
5.7	0.00405557472761086	-0.000690616740719474	2.05621272442961E-06	-7.23093505179657E-07	5.47507486005943E-06	2.45342397359425E-06	0.990980155445077	-0.138423657427923
5.8	0.00405682849834567	-0.000828263194641848	3.91473749708273E-06	1.95937903213982E-06	2.73756965960622E-06	7.83537641396044E-06	0.990670940144198	-0.140965998242846
5.9	0.00399446429709917	-0.00120193541891659	-3.785274779599E-06	-3.05464378559052E-06	-4.70076860721767E-06	-1.77649353657512E-06	0.989886966521348	-0.143555402777098
6	0.00321367659756711	-0.00193484426108417	-2.07435776050479E-06	1.70378605679467E-06	1.042203668157E-05	-2.66329844807449E-06	0.988486835250248	-0.145027823909118
6.1	0.00202019521954615	-0.00184985305111732	-7.31994405091909E-06	-1.10582927906989E-06	-7.23714370929867E-07	-2.48140654000213E-06	0.98825487925839	-0.145470855026764
6.2	0.00104662414086725	-0.00146109161792767	-1.06207298777535E-06	1.98646411148661E-06	-3.47624178153121E-06	-5.36008856695153E-06	0.987901979595333	-0.146473160052753
6.3	0.000484239950459629	-0.000840555676180128	1.57388304318162E-06	2.8296107561553E-06	1.14112549549239E-06	5.96861862975283E-06	0.987630575397994	-0.148050384147984
6.4	0.000320696357865086	-0.00045020747765189	2.06362054814447E-06	5.03494209731253E-06	-3.33254435733592E-07	2.26842231969384E-07	0.987428180785131	-0.149996638130648
6.5	1.84272033905214E-05	-0.000142290283743138	4.66870512549982E-06	-1.87172269393003E-06	-4.68612289652654E-06	-1.55391370443365E-06	0.987652108550668	-0.15233308128977
6.6	0.000224583526689221	0.000447963955495167	3.27178758487156E-07	-1.06898600103901E-06	9.29619201992772E-06	3.34942137208595E-06	0.988311222797095	-0.155480722802173
6.7	0.000503714893636461	0.000634890750933806	5.2455963456999E-07	5.61647196613397E-06	-1.795488291304E-06	4.97536705075522E-06	0.988136071818433	-0.158603665238655
6.8	0.000616562013011542	0.000796575627019531	1.77017982197212E-07	-1.58774371823723E-06	-3.47649363372971E-06	-5.12654482098224E-06	0.987510622708959	-0.16131859450305
6.9	0.000648453009822379	0.000861136437430699	-6.65269968209175E-06	6.72213515291209E-06	2.28906084918238E-06	1.3560945339497E-06	0.986912166863194	-0.163643560439559
7	0.000150621750781202	0.00104722219177732	8.08410880360504E-06	3.16823207430619E-06	4.56982215984441E-06	5.86760418243473E-06	0.98600511307741	-0.165259452664628
7.1	3.70141422870673E-05	0.00199894966992665	1.39611394402276E-06	7.84630016288583E-07	-2.27145805473674E-06	-4.47915120231475E-06	0.985855309814404	-0.166661604391468
7.2	0.000394401685290326	0.00259795719735161	-1.39686921581969E-07	4.39936354117536E-06	-5.01264137743908E-06	-6.62913625521569E-07	0.985489553558203	-0.168578624495529
7.3	0.000768432441400503	0.00294952548222861	1.35873973452576E-06	-5.26526869422017E-06	-2.34630098848221E-06	-2.7936754789515E-06	0.984705681548342	-0.17048727788354
7.4	0.00114996385914737	0.00289501838429688	1.8328436309575E-06	4.42870565048993E-06	-7.27288360417366E-07	-1.07144606156144E-06	0.984170122654435	-0.172995022488017
7.5	0.000811449642795125	0.00229311779584179	-5.75170894545801E-06	-1.49857761781594E-06	-1.57466933277716E-06	-8.91955987485652E-06	0.983399737431948	-0.176305247479167
7.6	9.71034096766195E-05	0.00244422679082898	5.63735986935036E-06	-3.39314490132827E-06	1.02421944423938E-06	3.19770964289733E-06	0.982240037757567	-0.179526219724026
7.7	-0.000496856877622981	0.00266413312974628	-6.52032096879395E-06	-2.86705783514014E-06	4.38941962619815E-06	5.68277697371622E-06	0.981404000126368	-0.182941660863465
7.8	-0.000833265831940605	0.00302502845172169	-1.09075859939576E-06	-5.36762295355161E-06	-2.1276870836908E-07	1.146350465426E-06	0.980645141466826	-0.186074279668265
7.9	-0.000921672695077659	0.00332854371846603	-3.34346983189353E-06	7.22953187836119E-06	4.62238476503239E-07	-6.8948551587619E-06	0.980102619079417	-0.189158483274143
8	-0.00122238405472708	0.00385383353266133	-2.18721763355231E-07	7.39358975455462E-06	1.76508064041841E-06	-4.46607109018772E-06	0.978976153755874	-0.191904554914707
8.1	-0.000733742194087613	0.0048479338333379	-7.49318820999654E-07	-6.46927051603307E-06	-1.75101120770087E-06	-1.06117564360552E-06	0.978485475384578	-0.193857546475851
8.2	-2.60767993113465E-05	0.00526494346331531	-3.82605044550648E-06	1.65810772924416E-06	-1.09773347314493E-05	-2.60047777979201E-06	0.978331057665278	-0.196205804323207
8.3	0.000542158307553461	0.00549499645162955	-5.56149349975961E-06	-9.85405687923378E-06	-7.78413925397971E-06	3.03089008351972E-06	0.977674254412571	-0.198890760759963
8.4	0.000996282425895217	0.00561921165055669	6.7635177757087E-07	-6.10892519591198E-07	-1.41567909399836E-06	4.42204581559463E-07	0.976837853791997	-0.201483918948964
8.5	0.000860985368862157	0.00580164574838083	-1.75320105465746E-06	-2.55553518536849E-07	-6.22143140139861E-09	1.80415633491698E-06	0.97605791714254	-0.204087438891256
8.6	0.00119639647386945	0.00687061744803536	2.42259920820938E-06	-3.97740435658886E-06	-4.57426616229704E-06	-5.91825527553691E-06	0.975686954740611	-0.206694384817807
8.7	0.00217353068715785	0.00752168054819032	-1.50259970205174E-06	-2.09197685921328E-06	-3.55198073964903E-06	3.64450356559182E-06	0.975273834210213	-0.209412524197097
8.8	0.00336167606990381	0.00779209967218705	-5.5004523311169E-06	-2.10936115534189E-06	-7.23480435091506E-06	-1.25451430057828E-06	0.974811145873267	-0.211902334149061
8.9	0.00467890354821406	0.0074030498137526	8.55984141600193E-06	4.07479025876047E-06	-1.40944264084372E-06	3.20092877585203E-06	0.974683016361424	-0.214184150024607
9	0.00529491135169172	0.00645422174277945	-4.90444370478453E-07	4.15782706767324E-06	-7.80725819697407E-06	1.24520005491587E-06	0.97426599888633	-0.216871928325495
9.1	0.00575116596728	0.00591792338639407	-2.53834957902795E-06	6.63004812809389E-06	4.09173825492951E-06	-3.08516969787576E-06	0.973388509148188	-0.219216977843922
9.2	0.00608390158884597	0.0052050172710202	-1.16881757177753E-06	3.41964600292968E-06	-2.24473234773598E-06	-2.05023164426935E-06	0.972424533320364	-0.221534703803349
9.3	0.00617893528750991	0.00466725098308054	2.31650899293438E-06	-4.03572077414258E-06	-7.93472561716932E-07	-1.77662214237965E-06	0.971731231198916	-0.223646398725247
9.4	0.00623746233928855	0.00419020574419965	-1.79425628283108E-06	3.89090027841902E-06	-2.06693677438034E-06	-3.57279640867324E-06	0.971160472435066	-0.22614606384689
9.5	0.00586064161699237	0.00413545716564999	3.49532468317999E-06	6.28661749338134E-06	3.65008630607901E-07	-2.14798442521115E-06	0.970480157521244	-0.228987435013376
9.6	0.0061440786109823	0.00467017529627575	4.62214130767312E-06	7.06687082158153E-06	-8.21204799795421E-06	1.27964865227361E-05	0.969587840265879	-0.23183640511318
9.7	0.00680176194100063	0.0047582317140431	-2.88023602737256E-06	-1.53016222298188E-06	-1.38806525351126E-06	-3.96602271457614E-06	0.968948977658209	-0.234178614522014
9.8	0.0074730594929956	0.0045720091316426	1.2768105190887E-07	-3.59310741098777E-06	3.04432201451458E-06	2.39624540409735E-06	0.968758561435976	-0.23612928836813
9.9	0.00809603208223371	0.00406689699359351	5.79445462603277E-06	-6.17844662187937E-07	-2.5614262774172E-06	6.7237290685328E-06	0.96853493248342	-0.238148021084402
10	0.00796000422946444	0.00339740529597518	-1.14025017024131E-06	-5.7724801893592E-07	1.3614082452899E-06	-1.18572439544888E-06	0.967699659632062	-0.240084814380291
10.1	0.00807336700439095	0.00353333986513367	7.12900742328935E-07	-8.40724201856857E-06	6.14711592070587E-06	3.60287421051092E-06	0.967182873962759	-0.24140226616801
10.2	0.00860258144471565	0.00336238515317014	7.48558747823617E-06	8.31291866509039E-06	5.21887312811975E-06	3.52818131393424E-06	0.966789749017689	-0.242832280862834
10.3	0.00918547339289244	0.00293946410447785	1.75661695553299E-06	-6.94973804363095E-06	1.42399975843477E-06	2.86550699154853E-06	0.966173713236283	-0.244527374542978
10.4	0.00975973676274095	0.00207003434986567	-4.02148926771457E-06	-3.6373649651344E-06	1.95417464847602E-06	-5.59016308327054E-06	0.965573906303397	-0.246416201117402
10.5	0.00949503670212574	0.00109117092354265	3.80175891987622E-07	-7.06240064534387E-06	-5.7303006723391E-06	4.06544319024295E-06	0.965359236734857	-0.248794365134915
10.6	0.00934196033620803	0.000853947127392414	5.48791591508631E-06	6.73926323725088E-06	2.43401219433074E-06	1.19521079327063E-06	0.965019589718512	-0.251944545380822
10.7	0.00932518496313063	0.000704607233164687	-7.07967642766126E-06	-1.69009037956703E-06	-7.73356966432882E-07	1.56017861138612E-06	0.964028555666599	-0.255174999866465
10.8	0.0096024113222406	0.000682803273135053	1.48879240987131E-06	4.44358206385723E-06	9.41543027448191E-06	-4.47410923343848E-06	0.962923507997399	-0.257278248656004
10.9	0.0101154892686134	0.000345186167493625	3.29556896075575E-07	7.42156395497903E-06	-5.16373203096028E-06	2.10777970646933E-07	0.962496810025205	-0.259179112116802
11	0.0102053774884828	-0.000139619820608989	-2.22742808205697E-06	-3.82470152167996E-06	1.204105617924E-05	-3.56197941411809E-06	0.961865853694061	-0.261252312801765
11.1	0.0108252490700572	-8.18874983783364E-05	-6.11989540143479E-06	-4.93325908313891E-06	9.51944733198003E-07	5.5787282252191E-06	0.960558256991605	-0.26293508753477
11.2	0.0118492273996252	-0.00072661542010412	3.3161251448336E-06	4.30613400676322E-06	1.06343436079521E-06	-7.88055293790439E-06	0.959306981177804	-0.264282343577715
11.3	0.01287008111425	-0.00195245750770372	7.13721890301364E-07	-2.65899715352015E-06	-4.84513746378497E-06	9.11881441485612E-06	0.958550690351641	-0.265410415359338
11.4	0.013466501554997	-0.00371526806911109	1.4796227150914E-06	-2.20335856261508E-06	-3.00780639045926E-06	-7.44554157738132E-06	0.95789390134947	-0.26710745206568
11.5	0.0130324021940929	-0.00558445587733688	9.49666316192243E-07	-1.01064398141913E-06	-9.02602352197393E-07	-8.73022649581001E-07	0.957420176370453	-0.269847902093376
11.6	0.0128191194662654	-0.00682934505998889	1.12416177543126E-05	-3.27503084329181E-06	-5.42655654231754E-06	-6.84290442729479E-06	0.956200397739703	-0.273268729283791
11.7	0.0126911556737513	-0.00858170201916159	5.33484194776063E-06	-2.89888359332254E-06	-4.41652031657505E-06	1.65248810486427E-06	0.955154465136088	-0.276441027255528
11.8	0.0121887172647071	-0.010579767889635	-4.50769639174242E-07	-2.55110952388093E-06	1.0608248477764E-06	1.3279714586374E-05	0.954605642445072	-0.27977192647597
11.9	0.0113398858201363	-0.0129304097925018	3.32921839526146E-06	1.99154100134696E-06	-1.30079313332287E-08	1.27512073056492E-05	0.955148700754711	-0.282917136565313
12	0.00875045656425383	-0.0146970676500007	2.0044342810813E-06	4.83408738963298E-07	-3.7003217687586E-06	-9.69171301750849E-07	0.954185689289066	-0.286499785505571
