# GHZ S RI R 50
0.2	0.000363866574378523	0.00304865933664854	6.31304318416627E-06	-1.00183065790156E-06	1.06682857832183E-05	1.05178201921193E-05	1.00054782975966	-0.00646354975779637
0.3	0.00107713958004901	0.00291443979960731	5.81994726094133E-06	5.04788151816529E-06	8.10390275106995E-06	2.96340041063389E-06	1.00057869904284	-0.00941718202325771
0.4	0.00160114252425993	0.0030015409095434	-2.71712733532812E-06	7.88120142719017E-06	-4.79651707615661E-07	-4.4382891728537E-06	1.00094601616456	-0.0121339190633506
0.5	0.00240363612134972	0.00287441932614902	2.31180892387924E-06	1.48087708077288E-06	7.52239255895364E-06	-1.05582819573888E-06	1.00082937530441	-0.0159774807462682
0.6	0.00244871309348191	0.0024171235211379	3.2186507343479E-07	3.54385713441578E-06	2.75180844933098E-07	-7.66959471617297E-06	1.00015303253006	-0.0187110201685697
0.7	0.00235824885026082	0.00254949139833016	4.17267477390966E-06	5.06628139983032E-07	-3.90122306543282E-06	-5.11761445176772E-09	0.9999222704492	-0.0211662977800467
0.8	0.00246934722352131	0.00275519834174195	-2.89445589416902E-06	2.96883020244138E-06	-6.83510450771275E-06	1.32000557736365E-06	0.999990525946014	-0.0230924886300675
0.9	0.00248623001205766	0.00309485072046828	6.05026523741411E-06	9.02826986838287E-07	-7.35781282172829E-06	-1.8386462638435E-06	1.00024858287442	-0.0252414074833358
1	0.00313857323727413	0.00366098681839385	2.36675887989327E-06	2.95143837870413E-06	-9.06696326286112E-06	-2.59341244063989E-07	1.00092737710251	-0.0270924714041532
1.1	0.00365183710022316	0.00302110440818009	6.45377752806957E-07	3.5450620293868E-08	-5.31235313341875E-06	1.40796966336472E-06	1.00045967705027	-0.0302006502424192
1.2	0.00337621686296408	0.00234292504981048	-5.30592380947675E-06	-3.29404972702725E-06	-1.12121281981404E-05	-1.26780792744111E-05	0.999214911491614	-0.0315957950121905
1.3	0.00271907044138983	0.00147231564564793	3.05707623093384E-06	3.10707217186577E-06	6.96753611379873E-06	-4.09591585909406E-06	0.998520591027702	-0.0327490793187424
1.4	0.00198623905317764	0.000861792279292723	-2.80400019871899E-06	-1.11312239783989E-06	5.72125026627659E-06	5.82502826221259E-08	0.997650562331489	-0.0345718653715234
1.5	0.00214088207198037	0.000548786571087978	1.2406127575993E-06	-2.5385684951249E-06	8.04988491620912E-07	2.51552795625366E-06	0.998444817348826	-0.037804055042455
1.6	0.00190309948584629	0.000466974382999285	-9.40700665705936E-07	-6.42760627426872E-06	3.18811753166937E-06	-4.25498943873607E-06	0.997997677604439	-0.0410820052378965
1.7	0.00212534046432965	0.00092138264974238	3.41376161551381E-06	6.31080954499432E-07	2.24392755188128E-06	3.8587042050147E-06	0.998684636981247	-0.0432840291886305
1.8	0.00247713586772682	0.00133686837325131	-2.37993464230681E-06	2.90711763640685E-06	-1.02100294822545E-06	-4.00582291774123E-06	0.998967800123498	-0.0458778691418323
1.9	0.00293190710805816	0.00166308601906954	-3.74305690375444E-06	-1.76164206567978E-06	5.64610392067701E-06	3.03064960635114E-06	0.999408290150716	-0.0477753358800233
2	0.00383031736463103	0.0015631976001691	-6.20466835336215E-06	-5.7670984910941E-06	-2.07913495230784E-06	9.19043460868262E-06	1.00055323204835	-0.051057079430318
2.1	0.00375205577934546	0.000850775487717711	1.18589110344998E-06	4.62057688371264E-06	4.50752833423821E-06	3.99669973705533E-06	0.99969132560268	-0.0549317223161857
2.2	0.00343827999165901	0.000793465074894865	6.60604848801351E-07	9.08336631764455E-07	-3.66693694296032E-06	-1.09668053533779E-05	0.99901495024471	-0.0573429523238934
2.3	0.00316536089655547	0.000825771460686545	-2.28356544219449E-06	3.57757202923387E-06	-5.44009825156343E-07	-2.80389386524894E-06	0.998486454049111	-0.0591074906244835
2.4	0.00286370874613583	0.00113142575008091	-1.56593132780913E-06	-1.45585943116471E-06	1.28542256124558E-06	-1.00568258424021E-06	0.998433404418169	-0.0622133595916788
2.5	0.00319420455257929	0.00150834732553378	7.82307602849746E-06	4.04521732433616E-06	-2.37791407999565E-06	-7.24061039389226E-06	0.998154703704299	-0.0648205879549553
2.6	0.00326422332043286	0.00113358571316363	4.94628620923351E-07	2.12122482866032E-06	-1.45629708094189E-06	4.70246284348554E-06	0.997746145084315	-0.0680103018679516
2.7	0.00310122607724461	0.00112900908816498	-7.87084051923442E-06	5.2806432500867E-06	2.57188073412496E-06	9.73900867281828E-06	0.99721613901715	-0.0712041267404153
2.8	0.00311609442430006	0.0013119808646529	-7.73705192967446E-06	8.00533253096852E-06	6.10376615508834E-06	1.99513533759741E-05	0.997056262005516	-0.0734047617849302
2.9	0.00341214917513508	0.00156465898544638	-1.18959050922853E-06	8.67030840477259E-07	-8.15271413407917E-06	-2.93738970858406E-06	0.99655342473379	-0.075572695555564
3	0.00422278421099932	0.00146635878527595	-6.29853721946727E-07	-4.47967732894804E-06	-2.16290999275398E-06	6.462100255474E-06	0.996188288844266	-0.0782644103109705
3.1	0.00435084233559948	0.000908597182402303	-2.59387798755458E-06	9.98513474012031E-08	1.10264024180939E-05	-3.57943462943444E-06	0.995320035752963	-0.0803459811890792
3.2	0.00436313026665849	0.000763475523786786	-9.8073394170344E-06	2.59525191704868E-06	1.22050753719182E-05	4.21870278874035E-06	0.994736180524131	-0.0819652711428068
3.3	0.00438298688210743	0.000588396075458546	-3.46924425416088E-06	9.51039403596201E-07	-5.01878117838933E-06	-1.20255386320082E-07	0.994204839534368	-0.0851082082579119
3.4	0.00437780322491674	0.00062437715942664	5.35421401288208E-06	4.61309042708186E-07	1.35222826770103E-06	4.40651093039792E-07	0.993716668261544	-0.086925411369073
3.5	0.00485167508682868	0.000377644277142794	2.77637091199842E-06	1.5466421906085E-06	1.3163668446231E-06	7.86955627788055E-07	0.993507188922104	-0.0892115399659155
3.6	0.00453852379302983	-0.000269176446207132	-7.15276138294997E-06	-1.01983661927533E-07	1.85056173458659E-06	-3.50748478684422E-06	0.993295682691458	-0.0919017196717101
3.7	0.00407626521161783	-0.000308946868796214	5.77186332390928E-06	-1.53986650808463E-06	-3.33273200352807E-07	-1.73163547692625E-06	0.992907024746175	-0.0945696805318264
3.8	0.00384738565639297	-9.13906075455911E-05	-1.998128457369E-06	8.86271022825754E-07	-5.19211359473887E-06	3.23063121526589E-07	0.992493952611428	-0.0964557505768871
3.9	0.00395285469508116	0.0003241545780955	-8.3572269342043E-06	1.81727248917512E-06	-4.12382519031651E-06	-1.48127403648306E-06	0.992772093459285	-0.0992712090937242
4	0.00476706383369132	0.00028710786022937	-5.82720901651331E-06	3.95265325346014E-07	-9.54376450593663E-06	-8.41133807135093E-06	0.993588048675703	-0.101703825797488
4.1	0.00481562055614538	-0.000398765672316664	-3.9639721102899E-06	4.08699977391285E-06	-1.84954097589093E-06	5.59079785963144E-06	0.992049998380163	-0.104938813616748
4.2	0.00465940490129745	-0.000645350910935106	4.59241573968126E-06	-4.40618507774679E-06	6.75197722754132E-06	7.17487588317395E-07	0.990445673103109	-0.107312395202766
4.3	0.0045302161024267	-0.000753933740620924	-3.78504555961823E-06	1.14552476096128E-06	3.537908814408E-06	-1.22336023633539E-06	0.989778499468143	-0.108993313329719
4.4	0.00443256792569382	-0.000643978742198792	-3.16971176257197E-06	-4.91003234025601E-06	9.22916284112052E-07	-1.0395147416862E-06	0.989078814296209	-0.111069384785792
4.5	0.00491345627884916	-0.000743713545045826	-1.37622656894723E-06	2.03223496015939E-06	2.09080432405704E-06	-8.46179274235722E-06	0.988497029859364	-0.11350900361246
4.6	0.00458635281704768	-0.00148779894308776	5.41855383421006E-06	9.53863969009459E-06	-1.41092033015372E-05	9.84189728269707E-06	0.987257317266977	-0.115834882412946
4.7	0.00406344061922113	-0.00160939824142832	-7.60230874780001E-06	-9.50104047206024E-06	-1.14175573903103E-06	-1.30132745206038E-07	0.986817976217829	-0.117273793042821
4.8	0.00366116857827241	-0.00146113222875798	-8.72280975634061E-06	-2.64788169419552E-06	-4.34845353910714E-06	4.54302841811298E-06	0.986213013589343	-0.119321494538595
4.9	0.00357276693886495	-0.0010617595773076	5.7800455424604E-06	8.26555207275761E-06	-7.21785956615381E-06	3.29292646240321E-06	0.985763341226512	-0.120713212143677
5	0.00425280237109537	-0.00114170919465125	4.23645558640797E-06	-8.5197007284308E-06	-4.29264692385725E-06	-6.14171989389475E-06	0.98567260231088	-0.122129529988705
5.1	0.00420313254394925	-0.00172782838748559	1.51384830769868E-05	-1.02419739708097E-05	3.45561085977592E-06	-8.6998490691102E-06	0.985492034773999	-0.123246794247898
5.2	0.00413787540368853	-0.00188634251445011	-4.22748722300339E-06	-4.68913391279609E-06	-3.15081013454578E-06	5.29001519667712E-07	0.985265627904902	-0.125202485744013
5.3	0.00416686062043186	-0.00200090575832313	4.76494715299251E-06	3.35033862588003E-06	-9.26838819146588E-06	-4.70689653760999E-06	0.985002928202246	-0.127434545305399
5.4	0.00430723862583366	-0.00192690764487158	5.15777707487363E-06	1.18395657527473E-06	-4.51676142431731E-07	1.04069987592218E-05	0.984642472153396	-0.130072790349287
5.5	0.00497173766743763	-0.00241420987826766	-1.80447106160955E-06	-1.96835448572917E-06	8.83430496803742E-06	4.9730439764454E-07	0.98439027852804	-0.132383704924233
5.6	0.004366472921679	-0.00328341201804158	4.22740322381723E-06	7.19028530861209E-06	-4.66749759431713E-07	-8.56903115692838E-06	0.983986835554186	-0.134825347010656
5.7	0.00362564430845626	-0.00330633341393661	2.04486256491043E-06	-7.18888259756005E-07	5.44444758509953E-06	2.44030806218042E-06	0.983585536470379	-0.13684593958628
5.8	0.00302673252305779	-0.00308861035706102	3.8920895605783E-06	1.95115705673393E-06	2.71761996777994E-06	7.79428187591077E-06	0.983625210729685	-0.138482311545513
5.9	0.00257280074114256	-0.00243706052441368	-3.76264296260255E-06	-3.04597173257292E-06	-4.6757582146148E-06	-1.77528550004862E-06	0.984165616214207	-0.140114582782864
6	0.00312664344487737	-0.00205299680874958	-2.06988166877417E-06	1.69723182122796E-06	1.03946626369834E-05	-2.64710542060111E-06	0.985423221815954	-0.143371427338948
6.1	0.00278906950850411	-0.00281720846222443	-7.29451561093635E-06	-1.098653821229E-06	-7.2225657656921E-07	-2.47229728910435E-06	0.983369874808889	-0.146225565238191
6.2	0.00188118483497325	-0.0028820487846433	-1.05734936487038E-06	1.97864231354094E-06	-3.46329643141828E-06	-5.3376380841753E-06	0.981548293881759	-0.146886357679058
6.3	0.0012322969578605	-0.00255264321796905	1.56709937644444E-06	2.81814186851992E-06	1.13577947967635E-06	5.94418897775291E-06	0.980684685693699	-0.147680384852552
6.4	0.00108495055469373	-0.002011021048177	2.05531270999623E-06	5.01565951657258E-06	-3.31984364674358E-07	2.25944151567943E-07	0.980753783160901	-0.14895867392399
6.5	0.00169763900493581	-0.00239523936605692	4.64427522523878E-06	-1.86713221673614E-06	-4.66489801941688E-06	-1.54188092448482E-06	0.980405326004677	-0.152194801216485
6.6	0.000989940203117791	-0.00290835234959639	3.25447087183747E-07	-1.06212834011228E-06	9.23639757971383E-06	3.33117634867568E-06	0.979385608702969	-0.153455231826021
6.7	0.000454535900674284	-0.00262703676927908	5.1320223157173E-07	5.58154896721768E-06	-1.7911939829237E-06	4.94120072682412E-06	0.979784807742635	-0.154753185720533
6.8	5.46161709542856E-05	-0.0020917885494335	1.79411018876628E-07	-1.57746335487327E-06	-3.44355017111741E-06	-5.10226396186757E-06	0.980011880412296	-0.156405737934786
6.9	2.73192963606749E-05	-0.00113013618328752	-6.63287892696777E-06	6.66207651196876E-06	2.27131673572718E-06	1.35478991114002E-06	0.980584124626177	-0.157877293990828
7	0.00107618012670308	-0.000967578432088915	8.02970392670839E-06	3.18044731180573E-06	4.52440761731341E-06	5.8528194966601E-06	0.981242835249444	-0.160171275878783
7.1	0.000567490339294052	-0.00151007038424528	1.38668457760558E-06	7.85788168110813E-07	-2.24485922688638E-06	-4.46573207850796E-06	0.980282234910729	-0.16215018448469
7.2	-7.55968717566601E-05	-0.00116261957560704	-1.53915363309914E-07	4.3778192432237E-06	-4.98638791826122E-06	-6.76712742380659E-07	0.979552740091818	-0.163241654163709
7.3	-0.000707300287446886	-0.000545226639091812	1.3691532324021E-06	-5.23353351011127E-06	-2.32491068288955E-06	-2.78699761514041E-06	0.978725212063476	-0.164209099293572
7.4	-0.00126946914584283	0.000628165388277714	1.80523649140888E-06	4.4071290332299E-06	-7.18803317930243E-07	-1.06724808863819E-06	0.978065747611225	-0.164999883460017
7.5	-0.00047477787926003	0.00164237653692806	-5.70337110547989E-06	-1.52237551175731E-06	-1.51101843529607E-06	-8.86769830870981E-06	0.979934730890479	-0.165936515524984
7.6	-0.000531576000952891	0.00132624762938546	5.62825549764465E-06	-3.33777276703066E-06	9.97785946024585E-07	3.18669515886684E-06	0.980947189671768	-0.17058784410817
7.7	-0.000955646371077198	0.00168265109374456	-6.46685275955286E-06	-2.89606298415633E-06	4.32809750104653E-06	5.68266684748205E-06	0.98057294872628	-0.174515745238222
7.8	-0.000934887180936923	0.00218893978939805	-1.04561434092255E-06	-5.34997886107709E-06	-2.20271455373072E-07	1.13926813395697E-06	0.980352793133572	-0.177754368132533
7.9	-0.000231812636407802	0.00276059335829267	-3.39392297101682E-06	7.17287229591321E-06	5.2070975994325E-07	-6.86463411157111E-06	0.980927969667799	-0.180502655802038
8	0.00105782274400107	0.00201664600321766	-2.85890474204734E-07	7.38538613738017E-06	1.80428184902733E-06	-4.44624013176915E-06	0.982287935986577	-0.185154787783605
8.1	0.000734482226313972	0.00135066502337018	-6.9960855681073E-07	-6.47566166131238E-06	-1.74301434908416E-06	-1.07475262428934E-06	0.980158042180885	-0.188963211026024
8.2	0.000491036439149157	0.00146264185263518	-3.84021956683962E-06	1.63055308892606E-06	-1.09634349120836E-05	-2.68314150884928E-06	0.979315424772389	-0.190823528303825
8.3	0.000310960608475487	0.00185407602859946	-5.4971678593491E-06	-9.90512984431657E-06	-7.81471665741447E-06	2.9785279715694E-06	0.978799631098863	-0.193065989166799
8.4	0.000443786567281822	0.00285125689096485	6.8136059814761E-07	-6.07603309353465E-07	-1.42084157096045E-06	4.33931872729831E-07	0.978478566517535	-0.195440792098673
8.5	0.00175339834783048	0.00315342789746126	-1.75250961153533E-06	-2.65874914693628E-07	-1.6726215520923E-08	1.80493938781569E-06	0.977993940278548	-0.19839550328669
8.6	0.00173796754256613	0.00272032996937666	2.45340889194478E-06	-3.96170524154974E-06	-4.5330221980012E-06	-5.95544986414785E-06	0.977635400947242	-0.200601022912901
8.7	0.00164631338486981	0.00307112966987492	-1.48869156004904E-06	-2.10745137927371E-06	-3.58688125194058E-06	3.62277961193942E-06	0.977896172605749	-0.203024863360315
8.8	0.00176035262508241	0.00367444343674587	-5.49946562517891E-06	-2.15876418246934E-06	-7.24549906160009E-06	-1.31516829258892E-06	0.978133114895962	-0.205516727279346
8.9	0.00232802117899023	0.004585087525593	8.56256144209275E-06	4.15455861473665E-06	-1.4388287556205E-06	3.20280029906236E-06	0.978548590723877	-0.207891171162997
9	0.00412061922659637	0.00475357613139856	-5.22411264065608E-07	4.17161184957294E-06	-7.84873213212877E-06	1.19419545113288E-06	0.978700069623712	-0.21043834559815
9.1	0.00491568990040761	0.00383938000736587	-2.59872162826112E-06	6.64587777960332E-06	4.13474172038101E-06	-3.07174119302214E-06	0.978612160668558	-0.212937290201691
9.2	0.00543020419328524	0.00328905727822749	-1.19737200998355E-06	3.43123881490878E-06	-2.24408072569732E-06	-2.07614855143254E-06	0.978141761226068	-0.215638672899019
9.3	0.00585307088933101	0.0028464088348316	2.35257155567671E-06	-4.04451128518133E-06	-7.87563355937277E-07	-1.79097417559687E-06	0.977593128867625	-0.218062843136903
9.4	0.00649212495756462	0.0027229728340359	-1.82352503180079E-06	3.90046565479191E-06	-2.05821687842255E-06	-3.6011491074717E-06	0.976989604448159	-0.220356579690035
9.5	0.00761609216659623	0.00182367757444937	3.4716510562365E-06	6.33477508565453E-06	3.79727609171E-07	-2.15488051372876E-06	0.977428235922032	-0.222642691793962
9.6	0.00728507089163527	0.000757440346777387	4.60152079557961E-06	7.13130792917063E-06	-8.3331171809602E-06	1.28100191139211E-05	0.977420060521531	-0.22643961176557
9.7	0.00699420845541288	0.000514889551662689	-2.88646065762535E-06	-1.55551312231333E-06	-1.37179398544731E-06	-3.99545551334584E-06	0.977096225413084	-0.229278929667306
9.8	0.00681726814487655	0.000540372472193675	1.50013817888695E-07	-3.61257608052403E-06	3.04705375689923E-06	2.42805381832789E-06	0.977276458565458	-0.23144391940484
9.9	0.00697771101405566	0.00108278826518844	5.8373303686715E-06	-5.84315971818159E-07	-2.62231744517607E-06	6.75216700421174E-06	0.977971853844244	-0.233203899890252
10	0.00822179033503924	0.000811715518253553	-1.14768080226866E-06	-5.8806942895847E-07	1.379520302745E-06	-1.18970025488764E-06	0.979193413534646	-0.236899928929861
10.1	0.00814411488741484	-0.000160332910025979	7.43982036139471E-07	-8.47443776484887E-06	6.18700968330624E-06	3.65101340280066E-06	0.977574261978377	-0.239834417315237
10.2	0.00790740127085466	-0.000356450092432635	7.52230761036307E-06	8.39772999405949E-06	5.25044653752353E-06	3.56955517603438E-06	0.976909099730208	-0.241533346540653
10.3	0.00787560673576423	-0.000201504692814089	1.78571953938737E-06	-7.00061325165716E-06	1.42891955957432E-06	2.89120337448845E-06	0.976323666836585	-0.243839010049707
10.4	0.00850137533072906	0.00028011079429707	-4.04942047768225E-06	-3.67104580493257E-06	1.97621816475618E-06	-5.63256083159222E-06	0.975648993452228	-0.246822505883145
10.5	0.0101349208182625	-0.000333397655394099	3.81546566722861E-07	-7.1079341950222E-06	-5.76657853956265E-06	4.09249513206925E-06	0.973994863685489	-0.250594837285576
10.6	0.0104556290468049	-0.00165136561814824	5.51384310825451E-06	6.78093733720528E-06	2.44679324697511E-06	1.20364547965747E-06	0.972433858098299	-0.252973922802437
10.7	0.0104907136967123	-0.00239321300990312	-7.12006147789701E-06	-1.70521849870863E-06	-7.79047898923114E-07	1.56878446306055E-06	0.971444937425438	-0.255795702516562
10.8	0.0105410903644152	-0.00284947009993702	1.49645318947838E-06	4.47101174937285E-06	9.47395887817425E-06	-4.49835003788708E-06	0.970483464988373	-0.257769763632766
10.9	0.0109691898187357	-0.00294242459995331	3.33312497192007E-07	7.46772664616644E-06	-5.19585508450155E-06	2.13275641251205E-07	0.970218050083786	-0.25955087270366
11	0.0123709877819399	-0.00401452511279161	-2.24353032008472E-06	-3.84719341657277E-06	1.2113889250423E-05	-3.59120344520286E-06	0.970094826482127	-0.261004319393915
11.1	0.012294509439455	-0.00569214550661482	-6.16661958239193E-06	-4.95801574326518E-06	9.65363627195153E-07	5.61435458585826E-06	0.97007140129235	-0.262729541858641
11.2	0.0120383127912589	-0.00682556081337662	3.34719240905317E-06	4.32655320404899E-06	1.0526832420101E-06	-7.93387329815172E-06	0.969817768603074	-0.2649533727311
11.3	0.0117161076859005	-0.00773503980530489	7.09579166001886E-07	-2.67670779506236E-06	-4.84489070208371E-06	9.18703412046325E-06	0.969273515968095	-0.267404660621829
11.4	0.011511482115874	-0.00828141023457621	1.47839920414827E-06	-2.21900992453863E-06	-3.04908611612079E-06	-7.46903950597498E-06	0.968066062968069	-0.270173917964894
11.5	0.0120749831111884	-0.00973923795055661	9.51092436477566E-07	-1.01759353319609E-06	-9.08875700184611E-07	-8.74404687551894E-07	0.967934340431557	-0.273100125494864
11.6	0.0111772021958191	-0.0115962190942008	1.12870150571006E-05	-3.32922379264928E-06	-5.47676764650894E-06	-6.85900631036084E-06	0.966752400422368	-0.277954829930156
11.7	0.0101437807095586	-0.0126544358636208	5.34854055219043E-06	-2.93411773179268E-06	-4.43086670819254E-06	1.6781047119646E-06	0.965251335745862	-0.282281417449149
11.8	0.00929340689391702	-0.0133281302861005	-4.63280982536798E-07	-2.56069938359817E-06	1.12018533760967E-06	1.33349204335237E-05	0.963878185426313	-0.286505804863891
11.9	0.00930847006307808	-0.0137515136278037	3.35338568213496E-06	1.99022987396883E-06	3.14018542460496E-08	1.28172093533833E-05	0.963592019108027	-0.289723303530195
12	0.00943838379226313	-0.0155239223984631	2.02134983001874E-06	4.77311979970781E-07	-3.73191733033114E-06	-9.58475278342049E-07	0.962472849609338	-0.294230585609202
