# GHZ S RI R 50
0.2	0.000522025588798077	0.00378265954911937	6.30486565041167E-06	-1.00795428976751E-06	1.06684686050395E-05	1.04938768539443E-05	0.999514175581017	-0.0069240599805952
0.3	0.00120898401025859	0.00344041849908584	5.81692578370372E-06	5.03579880413248E-06	8.09592353894809E-06	2.95195823325523E-06	0.999307725955932	-0.00985582084084762
0.4	0.00170986713667461	0.00323928920333032	-2.70747921473291E-06	7.86894231482839E-06	-4.81532793474188E-07	-4.43014975736312E-06	0.999227857972541	-0.0125200400811023
0.5	0.00196056759201853	0.00327583314135218	2.30802043275779E-06	1.47889946457129E-06	7.51087450217154E-06	-1.0531547841502E-06	0.998881470061505	-0.0154437627696986
0.6	0.00253181523561535	0.00335333483592042	3.22946027057419E-07	3.53935112524628E-06	2.71642670335417E-07	-7.66024812281631E-06	0.999098866386882	-0.0183239673066216
0.7	0.00284519088754232	0.00325186457516466	4.16572689343035E-06	5.03110514792905E-07	-3.89443126889042E-06	-2.64493633021418E-09	0.998719554654625	-0.021318405192401
0.8	0.00315440044144356	0.00321667701754315	-2.88642533953588E-06	2.96403927217345E-06	-6.81944237975139E-06	1.32109431814305E-06	0.998471596470205	-0.0234852927834405
0.9	0.00336690849676331	0.00312117119176704	6.03460467015819E-06	8.97718022356267E-07	-7.33909976545883E-06	-1.83046639191381E-06	0.998324864110172	-0.0259229123220837
1	0.00328532521604558	0.00307323723425184	2.35908880106452E-06	2.94306859296378E-06	-9.03976273475286E-06	-2.6035654617852E-07	0.997867860241543	-0.027560444455755
1.1	0.00341248284267552	0.00338266148967798	6.43727892301147E-07	3.56846893669164E-08	-5.29962509776603E-06	1.40174442870957E-06	0.997626764526659	-0.0293018540542415
1.2	0.00360098077601478	0.00319988811779476	-5.29233166983182E-06	-3.28981240042301E-06	-1.11801387859447E-05	-1.26565077323874E-05	0.997285798277371	-0.0301197749649232
1.3	0.00354642344829887	0.0026428545754707	3.04961878851948E-06	3.10405502146043E-06	6.95874453937452E-06	-4.08386545332257E-06	0.997839405074197	-0.0308611081628041
1.4	0.00331835397043149	0.00174470745335244	-2.79948270603164E-06	-1.11380872568036E-06	5.71372339217461E-06	6.25448046195187E-08	0.997926140978448	-0.0330689520893472
1.5	0.00306062093221031	0.00130320872931316	1.24033456749386E-06	-2.53382347620895E-06	8.0210676559952E-07	2.51214610480453E-06	0.998145481655757	-0.0366162106390086
1.6	0.00315190114671675	0.00110573349934699	-9.33746022202749E-07	-6.41452984423895E-06	3.18454032943308E-06	-4.24340702167124E-06	0.997420348836089	-0.0401009197515349
1.7	0.0031751417786534	0.00104980017430062	3.40431714447743E-06	6.32759857500641E-07	2.23437863968865E-06	3.85089758298102E-06	0.997337468608717	-0.0426568427634041
1.8	0.00321338693194151	0.00119224623902433	-2.37614196558979E-06	2.89634373210965E-06	-1.01393680642821E-06	-3.99542989779053E-06	0.996946234229345	-0.0454127370815412
1.9	0.00325015944506442	0.0012320100747547	-3.72945894681168E-06	-1.75860991900396E-06	5.62531748958004E-06	3.02484894474825E-06	0.996474312049426	-0.0477816058573267
2	0.00326152683491276	0.00152278508887111	-6.1683184110058E-06	-5.74672197158757E-06	-2.07985166538122E-06	9.14408678365181E-06	0.995354564037107	-0.0500459131260511
2.1	0.00360519733991145	0.00154155149796705	1.16845498012876E-06	4.60289066196977E-06	4.47677922680453E-06	3.99051916903826E-06	0.995420017474053	-0.0518237889523284
2.2	0.00364682308598649	0.00140378323898361	6.55314059251015E-07	9.06543633292092E-07	-3.62056007543207E-06	-1.09327879464722E-05	0.99554412746128	-0.0542030759478821
2.3	0.00354337775657803	0.00125939695402531	-2.28552891170076E-06	3.55636744578168E-06	-5.3322380638146E-07	-2.79445822715539E-06	0.99521170455219	-0.0560028561077245
2.4	0.00326053118808407	0.00116821937435253	-1.55467569147231E-06	-1.45558490666211E-06	1.28386457077696E-06	-9.97230787982996E-07	0.99510423074702	-0.0590368015674892
2.5	0.00276709054880002	0.00141161525752967	7.78007288778161E-06	4.06259034336274E-06	-2.34082890134641E-06	-7.22526606708884E-06	0.994559278727964	-0.0611097158718929
2.6	0.00281316792750207	0.00188602071791886	4.84999847273158E-07	2.11621445564469E-06	-1.46936115728174E-06	4.68169874837835E-06	0.99448078497781	-0.0636284174451659
2.7	0.00303466919614794	0.00212865075607177	-7.8653952256634E-06	5.2310077994593E-06	2.52391452728236E-06	9.71630871748859E-06	0.994316728846585	-0.0663603295538162
2.8	0.00337566248825336	0.00228239832917735	-7.74679724561516E-06	7.94440885411577E-06	5.99502941921411E-06	1.99120389687251E-05	0.994636327245647	-0.0682547883298857
2.9	0.00375122674016122	0.00226053070029103	-1.19025658650456E-06	8.58650651230329E-07	-8.1140611231579E-06	-2.96829485020121E-06	0.994590198243265	-0.070314019939504
3	0.00418241877916564	0.00236226246688331	-6.06729673496308E-07	-4.47240103906239E-06	-2.18918896345737E-06	6.43674413061109E-06	0.994622663120342	-0.0728448799062923
3.1	0.00484742768604603	0.00207612213782008	-2.58840881387207E-06	8.72011932928193E-08	1.10182614338024E-05	-3.51842584187368E-06	0.994423742737119	-0.0748126146694653
3.2	0.00513117350809497	0.0016350665854538	-9.80150693322297E-06	2.54017084029125E-06	1.21598172479362E-05	4.27276504984255E-06	0.994449673172146	-0.076597866709347
3.3	0.00524381131239751	0.00112884034773237	-3.46948859264658E-06	9.31085129393145E-07	-5.01110417569362E-06	-1.47026169791132E-07	0.994505609868747	-0.0799236071466511
3.4	0.00509057924588199	0.000686081612392848	5.34882383693793E-06	4.90362637716486E-07	1.34909309659467E-06	4.47815204937588E-07	0.994652560555262	-0.082175702757625
3.5	0.00483410142233338	0.000526129995774611	2.76912280532768E-06	1.55932594540104E-06	1.31268372109335E-06	7.92966715900972E-07	0.994174948699248	-0.0852144234790823
3.6	0.00477120349386016	0.000304136239961206	-7.14857009990519E-06	-1.36285749201118E-07	1.86645061764379E-06	-3.4967814261331E-06	0.993831841306066	-0.0873802539209356
3.7	0.00444224732053484	9.95338356046153E-05	5.77893825565488E-06	-1.50963471135774E-06	-3.24223881655855E-07	-1.73308941081207E-06	0.993833125916646	-0.0899616121200596
3.8	0.00415020607461001	0.000146501627446475	-2.00332750508512E-06	8.76097256216708E-07	-5.19529018985822E-06	2.96058323441315E-07	0.993614878129375	-0.0920064605140595
3.9	0.0039784732318186	0.000351775546031429	-8.3692708238515E-06	1.77727661489639E-06	-4.11818987132549E-06	-1.50191908849226E-06	0.993517223746236	-0.0951941595606263
4	0.00411306652249686	0.000791284434867219	-5.82735622197142E-06	3.62994495026594E-07	-9.49405321618566E-06	-8.46103154379304E-06	0.993082691876805	-0.0961024385814558
4.1	0.00471310796203619	0.000733317904555772	-3.99370056436124E-06	4.06467729351913E-06	-1.88727487579658E-06	5.58340653486713E-06	0.993629304503629	-0.0978547986957993
4.2	0.00495171365900183	0.000341890104061982	4.62825963446772E-06	-4.38481614650484E-06	6.75918578762029E-06	7.61421401813709E-07	0.993394940643287	-0.100723104032304
4.3	0.00497383122816063	-1.31820392349238E-05	-3.80086643571315E-06	1.12480803233331E-06	3.55363887198347E-06	-1.20434898919107E-06	0.993425891180037	-0.102893810221391
4.4	0.00476043385942602	-0.000312092349275075	-3.14759101413306E-06	-4.94366348017154E-06	9.32033657187034E-07	-1.03659114017253E-06	0.99307680547238	-0.105277244115547
4.5	0.00448623095434075	-0.000194362555674151	-1.39500362963105E-06	2.0317575613091E-06	2.15396149311843E-06	-8.4832566798675E-06	0.993203528894217	-0.107423229275282
4.6	0.00456648195338755	-0.000308454786737603	5.39354808361124E-06	9.61239372075841E-06	-1.42279854307117E-05	9.81353275720817E-06	0.993028883207448	-0.110437927178387
4.7	0.00442232925830083	-0.000512705870976146	-7.59062062100833E-06	-9.58303549158948E-06	-1.14643239740791E-06	-1.36402439981729E-07	0.992906543118639	-0.112468149580767
4.8	0.00423135210817356	-0.000604207955293927	-8.75149101151215E-06	-2.70339118872567E-06	-4.39155600461591E-06	4.54337802201225E-06	0.992558522486759	-0.114963089678687
4.9	0.00407629502017324	-0.000657490178132845	5.76862897665999E-06	8.33751010570546E-06	-7.27189590534598E-06	3.27383721606042E-06	0.992341050729217	-0.116803024552034
5	0.00412207582787828	-0.000533840107182678	4.29985440525673E-06	-8.55218683116825E-06	-4.29119891591537E-06	-6.19780211146242E-06	0.992363112563627	-0.118570108413652
5.1	0.00447992859750448	-0.000825375643593253	1.52665584788754E-05	-1.0242768984967E-05	3.50959743154605E-06	-8.73710873775157E-06	0.992405267602129	-0.120031845181438
5.2	0.00448127925607193	-0.00117740217589636	-4.23474527857869E-06	-4.73385241936131E-06	-3.17186844039355E-06	5.19938266903202E-07	0.992312622784778	-0.122287176346319
5.3	0.00447440189439721	-0.00139019729359433	4.7834382134831E-06	3.39065265594232E-06	-9.31129774912615E-06	-4.77340725233598E-06	0.992423286718108	-0.124666067878142
5.4	0.00440967313852409	-0.00159953943341204	5.19272220805399E-06	1.21094870584721E-06	-4.91460082454571E-07	1.04842771502465E-05	0.992785619937999	-0.127900740140856
5.5	0.00439812208283868	-0.00152310938609005	-1.81530517376257E-06	-1.98757315212592E-06	8.90446273370633E-06	5.17851171782884E-07	0.992314079940131	-0.131201894209872
5.6	0.00451089640027839	-0.00204001174280295	4.24740358446892E-06	7.24978239342598E-06	-4.56920543945485E-07	-8.63285966091295E-06	0.992049110477272	-0.133733911888932
5.7	0.00393512536436189	-0.00240694309316603	2.06132541786439E-06	-7.21546447313387E-07	5.48234904844515E-06	2.4662017281414E-06	0.991877043412106	-0.136468945663863
5.8	0.00323759881440333	-0.00241681520552316	3.92070075350079E-06	1.96931237710358E-06	2.73256296835332E-06	7.85676420479461E-06	0.99171551455113	-0.138939761542922
5.9	0.0024451168816876	-0.00209245112626832	-3.79001872632649E-06	-3.0681855542603E-06	-4.70979439127983E-06	-1.78825325308982E-06	0.991149304124112	-0.141395762965878
6	0.00182543639754934	-0.00109138175207323	-2.0853129377004E-06	1.70637100310003E-06	1.04661912896645E-05	-2.65408465884678E-06	0.99084604443222	-0.142487586952064
6.1	0.00223165027688401	-0.000452214405518973	-7.35484309550587E-06	-1.11402915804821E-06	-7.26237242575811E-07	-2.49366663692827E-06	0.991703719001675	-0.144274097737858
6.2	0.00246048034092598	-0.0004378492837251	-1.06562521580079E-06	1.99668552989551E-06	-3.49675087767472E-06	-5.38292006679848E-06	0.99150729178108	-0.146407173958694
6.3	0.00255690829148475	-0.000746876260158056	1.5847322603103E-06	2.83971406212192E-06	1.15452040502989E-06	5.99300519362499E-06	0.991036098641969	-0.148960816057761
6.4	0.0022073484513151	-0.00116820085628086	2.07957764861547E-06	5.05187949704222E-06	-3.34237134144419E-07	2.28258727983853E-07	0.990273290722929	-0.151346832966913
6.5	0.00202351378168551	-0.00112508031026062	4.6834646988958E-06	-1.8892880221572E-06	-4.70831579062427E-06	-1.55009267940505E-06	0.990282077113447	-0.154077638982824
6.6	0.00186884355029951	-0.00156254853775577	3.25291233837773E-07	-1.0727737074417E-06	9.33044488127471E-06	3.33439126396018E-06	0.989630221811603	-0.157399727780557
6.7	0.00139450489846234	-0.0015709585079024	5.38055765942751E-07	5.62616957178732E-06	-1.78790431249137E-06	4.98898049769079E-06	0.988893671102704	-0.15976906572204
6.8	0.00102626782163107	-0.00140737846300211	1.74373462992476E-07	-1.59045774433106E-06	-3.4911244679665E-06	-5.12788634844441E-06	0.988257098706801	-0.162093462888118
6.9	0.000511023736112074	-0.00112239639888858	-6.65241284787504E-06	6.74072410185241E-06	2.29411404379365E-06	1.35474591567153E-06	0.987686580756124	-0.164349833344547
7	0.000402197309350156	-0.000219397879054098	8.1024832219802E-06	3.1635618505479E-06	4.58539834521566E-06	5.87219624756537E-06	0.987015959994459	-0.166049264778358
7.1	0.000653482321048875	-0.000199463192733321	1.40023789744079E-06	7.83633480551462E-07	-2.28394534775856E-06	-4.48374274520344E-06	0.986607808592764	-0.16813062568657
7.2	0.000250477385760249	-0.000131892909616671	-1.29510078641478E-07	4.40740342147696E-06	-5.02299536807042E-06	-6.52200840661162E-07	0.985697956642566	-0.170218619552113
7.3	-0.000336015129014815	0.000172397089550945	1.34459255080671E-06	-5.27673263534465E-06	-2.35807458248359E-06	-2.79041557505336E-06	0.984491482832346	-0.172287099904002
7.4	-0.00123125669878615	0.000620923423274718	1.85209922131451E-06	4.42363649012791E-06	-7.32105597312885E-07	-1.06905112778688E-06	0.983103644235942	-0.175215258234683
7.5	-0.00204984638516412	0.00202635268318917	-5.74778096459661E-06	-1.4719383977167E-06	-1.60908186372709E-06	-8.89720935718412E-06	0.980725024201996	-0.17737959096092
7.6	-0.00170592552566593	0.00307206369472815	5.61367358560295E-06	-3.40115523312217E-06	1.03097520483478E-06	3.18688490892792E-06	0.980174876896213	-0.179343059048311
7.7	-0.00166038960584214	0.00373335783028496	-6.50984666047908E-06	-2.84358324068393E-06	4.39146871864096E-06	5.65694421626315E-06	0.979816300058937	-0.182416052930753
7.8	-0.00121846628160172	0.00422934961069634	-1.09814280742479E-06	-5.35063737364226E-06	-2.09956819891738E-07	1.14358700614809E-06	0.979507016092388	-0.185557938498645
7.9	-0.000641530629952831	0.00457977095904982	-3.32501976732865E-06	7.21276802657198E-06	4.52501607047959E-07	-6.87554395968734E-06	0.978980185507349	-0.188544979660213
8	0.000574610008535677	0.00494357937206669	-2.22495202052408E-07	7.37967949998468E-06	1.76431504579043E-06	-4.45674516547412E-06	0.979060592612303	-0.19028641578073
8.1	0.00151002413618954	0.00417788634141133	-7.48391576456612E-07	-6.47011612958748E-06	-1.75104243273773E-06	-1.06156894261122E-06	0.979846849587822	-0.193727868703548
8.2	0.00170227657155153	0.00371789769361681	-3.82780595926657E-06	1.66141663225835E-06	-1.09864968755166E-05	-2.59614800425218E-06	0.979533384530761	-0.196919644610776
8.3	0.00177499596890039	0.00350894552029311	-5.57624970173506E-06	-9.85781312795095E-06	-7.78843144775718E-06	3.04127952024153E-06	0.978729873865527	-0.200001499498014
8.4	0.0016126891046127	0.00359663902849185	6.76345049765617E-07	-6.12465110787911E-07	-1.41674022754663E-06	4.44533356200375E-07	0.977776231737718	-0.202797555081124
8.5	0.00187964871390175	0.00435232943514925	-1.75536644380008E-06	-2.52140107165293E-07	-2.46963619010149E-09	1.80584989559979E-06	0.977098772789194	-0.205697506314314
8.6	0.00257171272702281	0.00420058918077323	2.41608223001437E-06	-3.9817500275199E-06	-4.58452755564281E-06	-5.91097644650314E-06	0.976254155889343	-0.208657120113474
8.7	0.00263742238785334	0.00410629905833699	-1.50492705755625E-06	-2.09056493312987E-06	-3.5484315005358E-06	3.64854473741108E-06	0.975424548647065	-0.21122719975852
8.8	0.00268427420089735	0.00427537472320194	-5.50353395461279E-06	-2.10708585409206E-06	-7.23802482235136E-06	-1.25098939849959E-06	0.974686434160954	-0.213444412734802
8.9	0.00272963624230526	0.00455655563656004	8.56959597771711E-06	4.07814375170997E-06	-1.41057308725981E-06	3.20456242185362E-06	0.974360867160243	-0.215359706133632
9	0.00327978312589153	0.00536687310817416	-4.8869505480345E-07	4.16587430058699E-06	-7.82098211410391E-06	1.25251363279697E-06	0.97389842893332	-0.217428015423843
9.1	0.00447838804514382	0.00528279349854679	-2.53739045416893E-06	6.64648572993481E-06	4.09744489440062E-06	-3.09559537259698E-06	0.973586764579638	-0.219316807683867
9.2	0.00532660872091105	0.00499580131059536	-1.16586047366541E-06	3.4298340485876E-06	-2.25358321961931E-06	-2.0513735476009E-06	0.97325623055337	-0.221796583747355
9.3	0.0062073664985087	0.00453112595838319	2.31088815171073E-06	-4.05041167951717E-06	-7.99821472810355E-07	-1.77834002507519E-06	0.972904852024555	-0.224518630055235
9.4	0.0067952176468811	0.00380785793523439	-1.78260645183693E-06	3.9029849711915E-06	-2.08291857755591E-06	-3.57033457008441E-06	0.972005467701892	-0.227904883727834
9.5	0.00744985706071771	0.00355082337066523	3.51763955541967E-06	6.26948350335346E-06	3.56488583157712E-07	-2.14816288488967E-06	0.97037925054628	-0.230398486673299
9.6	0.0078275567150334	0.00239353263324252	4.63562436714094E-06	7.04593418111602E-06	-8.16771892987114E-06	1.28032367933479E-05	0.969760339933944	-0.233076070171048
9.7	0.00750856339112055	0.00174620543166131	-2.88018536500555E-06	-1.52150842543151E-06	-1.39558255175726E-06	-3.95778878797297E-06	0.968945154282592	-0.23567127090698
9.8	0.00716086895682018	0.00145306594733905	1.196193822243E-07	-3.58799256102662E-06	3.0449999144332E-06	2.38597982969383E-06	0.968212894961958	-0.23781586163486
9.9	0.00669416647690439	0.00160623978090499	5.78222258416407E-06	-6.26437751255182E-07	-2.54512487084553E-06	6.71507206036864E-06	0.96676040657175	-0.239314483300607
10	0.00690054535352879	0.00241563152691184	-1.1395754878126E-06	-5.75881897839724E-07	1.35926167964607E-06	-1.18556720215888E-06	0.966576155345602	-0.239109355019207
10.1	0.00768647514700148	0.00221597673056707	6.96107189652736E-07	-8.40391952000474E-06	6.15069571040374E-06	3.58886789354897E-06	0.967040389801984	-0.241160545621494
10.2	0.0080149192097727	0.00196519826258696	7.4941499381577E-06	8.2843922303627E-06	5.21968375947206E-06	3.51142850082E-06	0.966318865077375	-0.242773177577178
10.3	0.00831622060304179	0.00171914800643873	1.73882297792355E-06	-6.93857768138538E-06	1.42678705180052E-06	2.85655486660348E-06	0.965310576822524	-0.244425623301258
10.4	0.00846798754855115	0.00160381606543559	-4.01679351000903E-06	-3.62214402258027E-06	1.94084968185475E-06	-5.5789798033239E-06	0.964052670115127	-0.245993494624989
10.5	0.00925829503799169	0.0020508566693961	3.66718375520405E-07	-7.04312195611244E-06	-5.706988699189E-06	4.06400976107987E-06	0.963420599391052	-0.247758562047357
10.6	0.0105491919604338	0.0014492371821931	5.47299496387987E-06	6.70524412918772E-06	2.42534882326275E-06	1.18751172028349E-06	0.962618231002413	-0.249763291468713
10.7	0.011527027013355	0.000595031871728023	-7.04918454473763E-06	-1.68178408383956E-06	-7.6978665628513E-07	1.55351401332757E-06	0.962420723484866	-0.251892134614123
10.8	0.0122302193736769	-0.000698583865815955	1.48063646140368E-06	4.42558073132003E-06	9.3778548230766E-06	-4.45129213675375E-06	0.962235864003414	-0.253992325226527
10.9	0.012216008123449	-0.0018999917787862	3.22095137070482E-07	7.39357947231119E-06	-5.1442456650928E-06	2.05656789885806E-07	0.961887544043741	-0.256109100009004
11	0.0126424648157083	-0.00243595323417856	-2.21786642233871E-06	-3.81258067298185E-06	1.20012108951587E-05	-3.54379389416423E-06	0.961333912266449	-0.257483609058825
11.1	0.0131390889065377	-0.00403567500828387	-6.09647141151845E-06	-4.91743357112841E-06	9.46844575852388E-07	5.55902516201841E-06	0.961086109037792	-0.259142310511672
11.2	0.0129226254166661	-0.0055079919165009	3.30360830029207E-06	4.29122001691066E-06	1.06081325314897E-06	-7.85218656394684E-06	0.96055522567659	-0.26109913450258
11.3	0.0125799504693988	-0.00689450184132164	7.10699545781753E-07	-2.64964053658964E-06	-4.82622085074317E-06	9.08715632185336E-06	0.960177315499682	-0.263461182840685
11.4	0.0117906937221586	-0.00808672724763961	1.47180382020386E-06	-2.19638152732638E-06	-3.00360019698492E-06	-7.41411593918565E-06	0.95879752147184	-0.266816721706121
11.5	0.0114136013485972	-0.00869515104878643	9.43827491920531E-07	-1.00590222958183E-06	-8.98385594403194E-07	-8.6767429692581E-07	0.956500335191527	-0.268793389224776
11.6	0.0110369982178869	-0.0104010305939772	1.11859627633034E-05	-3.25427456583956E-06	-5.39655332673363E-06	-6.81030519327175E-06	0.955911205729945	-0.271707330418452
11.7	0.00976773930124969	-0.0117439601310376	5.31071969889029E-06	-2.88259819157457E-06	-4.39620669156435E-06	1.64257221545641E-06	0.954678043096562	-0.275402146251772
11.8	0.00835639490840464	-0.0124859439134211	-4.47020077495763E-07	-2.5388764601908E-06	1.0476086569344E-06	1.32152597197474E-05	0.952989197742988	-0.278933173831334
11.9	0.00711354284067908	-0.0125309053111704	3.30757459912917E-06	1.98622125164961E-06	-3.4451734527376E-08	1.26811580950334E-05	0.951082146065073	-0.280338425165409
12	0.0070644133259224	-0.0120971749939089	1.99470247489262E-06	4.88588457436785E-07	-3.68208377891591E-06	-9.7842640273715E-07	0.951189082946484	-0.279736011862366
