# GHZ S RI R 50
0.2	0.00634641161180203	0.000802207215405146	0.00304832042472852	-0.000897964516615786	0.00305868912144384	-0.000891155763099538	-0.013604004487618	0.00445418545551503
0.3	0.00635617376775048	-0.000998458464398962	0.00290408800231226	-0.00132136451344703	0.00289684200311618	-0.00130842589912261	-0.0131152568170462	0.00480218031470453
0.4	0.0060103712055686	-0.00232836917374119	0.00267245801360388	-0.00169310706675745	0.00267772522545319	-0.00170166753206372	-0.0126959766077552	0.00566273499925104
0.5	0.00546468930375913	-0.00343801494530634	0.00241360828937378	-0.00204977644637133	0.00242514518282892	-0.00206201603690648	-0.0120195256464226	0.00655441929876989
0.6	0.004761479800649	-0.00442682285772844	0.00210108051750481	-0.00236421519759338	0.00210029401514696	-0.00237136435101226	-0.0112318387988241	0.00719116285101188
0.7	0.00372669868307695	-0.0053001824095417	0.00175394410367752	-0.00264192437741147	0.00175198822589664	-0.00264212317707435	-0.0106326685151294	0.00760580563489426
0.8	0.00241500688846951	-0.00595105429802281	0.0013685521296118	-0.00285925717399137	0.00135595314096079	-0.00286380583434427	-0.010273171557344	0.00803902153405846
0.9	0.000766623187385071	-0.00613135440371725	0.000951533290326729	-0.00302275695559881	0.000952568065403322	-0.00303345527908215	-0.0101039510891844	0.0086190974816005
1	-0.000915464472391991	-0.00575955188666102	0.000526751182357798	-0.00312612781131152	0.000516890305387141	-0.00312686770355454	-0.00990066023545284	0.00949770880715167
1.1	-0.00241962141267885	-0.00492070581709783	7.12034214456359E-05	-0.00315489111765538	6.76966052877976E-05	-0.00317253968103824	-0.00952028337317675	0.0106713820855476
1.2	-0.00356998688558778	-0.00406322728194458	-0.000370844874512416	-0.00314425788893145	-0.000371656543855041	-0.00314218171001669	-0.00845180253009649	0.0118435757302151
1.3	-0.00467873885197566	-0.00351624371559601	-0.000797876284516586	-0.00306105275511322	-0.000801115923748188	-0.00306305770381208	-0.00666769102924314	0.0125689048925967
1.4	-0.00572560332727453	-0.00297373646753845	-0.00121908844583113	-0.00291283226439582	-0.00121787554826572	-0.00291836472485745	-0.00484198003195247	0.0124101712152107
1.5	-0.00614172513596504	-0.00194129788527694	-0.00161986950773048	-0.00271701885807808	-0.00161825762328658	-0.00272551811833852	-0.00336999933112622	0.0118726292117519
1.6	-0.00596509611302353	-0.000642309331590532	-0.00198037174723982	-0.00246468117726468	-0.00198058256246943	-0.00246991485333005	-0.00268394114734914	0.0115377203300564
1.7	-0.005416845506367	0.000575178003197374	-0.00230878151325094	-0.00216791403527927	-0.00230974721048314	-0.00216165323878849	-0.00211742343998297	0.0114532694547718
1.8	-0.00470979394498241	0.00183373213590848	-0.00257983035187569	-0.001816514813607	-0.00259079497204807	-0.00182215122836103	-0.00164468396680129	0.011473970393313
1.9	-0.00372941592671975	0.00293975358499206	-0.00280521580290146	-0.00144587064078261	-0.00281765454605714	-0.00143971839085412	-0.00118928864792581	0.011668246792069
2	-0.00245658528639486	0.003838014449595	-0.00298095605820497	-0.00103825148734446	-0.00299057712317376	-0.00103354375414254	-0.000611726824957515	0.0120229527177785
2.1	-0.000929453540925122	0.00428105385596979	-0.00309448320918721	-0.00060983297578303	-0.00309040024638125	-0.000611824528031787	0.000269177180058627	0.0122320405172079
2.2	0.000600801527128532	0.00425960076791785	-0.00315188099428546	-0.00017150549778686	-0.00316318378306094	-0.000174340975133773	0.00133172709100553	0.0121576086613308
2.3	0.00193187708506915	0.00372335638566976	-0.0031471940423936	0.000271973268834355	-0.00314689202474165	0.000265090956734535	0.00221205325769138	0.0117432387014206
2.4	0.00293522227311795	0.00299496340264694	-0.00307465797394496	0.000710381748511131	-0.00307719929273147	0.000706125043025779	0.00286490634153304	0.0113737854838968
2.5	0.00372708370128001	0.00215868228061736	-0.00293742629160845	0.00112272146714038	-0.00294831349278812	0.00112910246675393	0.0035044925106541	0.0110768703173705
2.6	0.00448881059333168	0.00121746113883352	-0.00276326467853472	0.0015257679018166	-0.00275971033679834	0.00151344591294902	0.00429057157873237	0.0107740488524926
2.7	0.00522005037526985	3.97887599161285E-05	-0.00251707779049723	0.00189705446944152	-0.00252235719645112	0.00189706661184741	0.00503867148487487	0.0103016198311501
2.8	0.00581059015138141	-0.00141561243979768	-0.00223386831259878	0.00222438361656566	-0.00222605317740221	0.0022341700276609	0.00563563416277695	0.00986495483030994
2.9	0.0061894714520048	-0.00307694092523706	-0.00189923662670927	0.00252428369504333	-0.00189552833669933	0.00252385581153493	0.00637695729939427	0.00960935653710858
3	0.0062394802332793	-0.00490775416547715	-0.00151269684728416	0.00275933977366206	-0.00152747263477284	0.00276544209981681	0.00735736803768471	0.00935720294709223
3.1	0.00596082789974459	-0.00686952478700998	-0.00112227386467402	0.0029360456011494	-0.00111761583260247	0.00294438491786554	0.00838095254350909	0.00884005928444633
3.2	0.0050700898450475	-0.00889806741661657	-0.000701706010869187	0.0030727639417637	-0.000703450183971932	0.00307215390717224	0.00912786373174773	0.00820134067141061
3.3	0.00358641719658743	-0.0108472200108625	-0.00026332168525683	0.00314213297441942	-0.000261674308810144	0.00313839346808674	0.00982164670806744	0.00743552774616602
3.4	0.00149736137001947	-0.0123352412082649	0.000183357662289546	0.00313566707495807	0.000177158120953263	0.00315222814526474	0.0104086804435795	0.00652437124394384
3.5	-0.000886569068424654	-0.0133461563993987	0.000604903385993926	0.00309246939076847	0.000610497492833793	0.00309254374217598	0.010755453550444	0.00545632148344034
3.6	-0.00346819699218436	-0.0138079906125736	0.00103314089272302	0.00297300795418478	0.00104133029992515	0.00297268901328029	0.0109669204269005	0.00454238944985422
3.7	-0.00611097255517497	-0.0137777787842793	0.00144347968841411	0.0027918272697142	0.00143389861504635	0.00280550084130672	0.0112031995012126	0.0036085090288967
3.8	-0.00882138766555066	-0.0131943653889978	0.00182138563609348	0.00256453856520791	0.00182379073725097	0.00257368555410091	0.0112564017475372	0.00264337877672896
3.9	-0.0113386568966845	-0.0119940697178726	0.00216700114508659	0.00229130887753381	0.00215973730528025	0.00228953115461252	0.0111352214651559	0.00181066626887434
4	-0.0135114465123353	-0.0102702368479456	0.00245153908625184	0.00197003055623994	0.00245598647360345	0.00196759606931678	0.0110855074007176	0.00123925694914393
4.1	-0.0152202307601429	-0.00820921314514361	0.0027033496613539	0.00160999089099661	0.0027020974702417	0.00161072670779724	0.0113103500522545	0.000723237464785518
4.2	-0.0165602986500321	-0.00592504468630803	0.00290241174517432	0.00120864942961894	0.00290687534942063	0.00119993478927718	0.011606579936482	2.16564746750999E-05
4.3	-0.0175628908501316	-0.00351434566366275	0.00304520721641178	0.000796440606129246	0.00305162714485893	0.00078863841641977	0.0117796767119641	-0.000905109480292128
4.4	-0.0182904660170453	-0.000835248736698316	0.00312124677099986	0.000362257758168052	0.00312362022559983	0.000360001363698159	0.0116869985965502	-0.00178276722263022
4.5	-0.0185220906513416	0.00208917641362971	0.00314367431605307	-7.57398720156372E-05	0.003149032724661	-7.91132606935907E-05	0.0116020524076428	-0.00252656171057487
4.6	-0.0182024923393042	0.0050303215222947	0.0030992857658013	-0.000518458438993459	0.00310051670587048	-0.000505549326445558	0.0115247856857854	-0.00335358215722527
4.7	-0.0172382571392326	0.00786742205325585	0.00299375984678559	-0.000937070349582471	0.0030090381028849	-0.000946687008894582	0.0113259358587008	-0.00427854693997947
4.8	-0.015843132241591	0.0104491023742257	0.00283244355717609	-0.00135086486233736	0.00284091708479438	-0.00135695320273876	0.0109580887315736	-0.00514782053004448
4.9	-0.0138372544574134	0.0127576387326508	0.00261152054198309	-0.00173462856518947	0.00261568539196327	-0.00173172603563508	0.0105554515592309	-0.00580767783755873
5	-0.0113360339061246	0.014579098613928	0.00235171152944873	-0.00208932048829157	0.00235533182902168	-0.00208665859767636	0.0104611792694316	-0.00630922714105728
5.1	-0.00829314109042623	0.0158044846483122	0.00204095106116983	-0.00239943239591426	0.00204325046767282	-0.00239807602574014	0.0105613246651447	-0.00702656703131361
5.2	-0.0051930063527935	0.0162384697033801	0.00168352888608264	-0.00264883736148142	0.00168523994448317	-0.00265397657247489	0.0105340052650532	-0.00792551253342214
5.3	-0.00221881196989082	0.0160663497657288	0.00129712471054273	-0.00286379664605815	0.00130025490169875	-0.00286173606801305	0.0102911316679293	-0.0087672683389055
5.4	0.000533747711823623	0.0154735496462175	0.000872727907787444	-0.00301090488730848	0.000889877239421747	-0.0030221048597136	0.00997355870552111	-0.00963884267187691
5.5	0.00307322665990924	0.0145342834474232	0.000459649931548823	-0.00310847270033668	0.000469693630930745	-0.00311789265150378	0.0094828743698471	-0.0105375590425999
5.6	0.00540141464976431	0.013154150719132	2.17035728746257E-05	-0.00314442761138759	1.31856825676724E-05	-0.00314764354491708	0.00874739653898944	-0.0113048167496939
5.7	0.00730135963403596	0.0113505783140346	-0.000408793420532693	-0.00311388379503316	-0.000425390878885184	-0.00311754183665167	0.00784686464636791	-0.0118854131387705
5.8	0.0086856759419053	0.00922427063426256	-0.000854152495244355	-0.0030190464679679	-0.000857683766516003	-0.00303302329828143	0.00685427558477191	-0.0124966866163583
5.9	0.00946573002128517	0.00704645500670047	-0.00125855272815442	-0.00287925981770681	-0.00126677599982128	-0.00287917910240624	0.00560219573489166	-0.0129179017033573
6	0.00975308545809268	0.00486120282335175	-0.0016563640108333	-0.00267326771425231	-0.0016528058615216	-0.00267343379708533	0.00422038839771647	-0.0129372160933032
6.1	0.00967753701931569	0.00269609646007293	-0.00201110509768947	-0.00241904014989556	-0.00201274350593147	-0.00241503938946217	0.00320980995596973	-0.0125981647433092
6.2	0.00920401879579561	0.000449034543399518	-0.00232357609426571	-0.00210614418760635	-0.00232728122887176	-0.00211800535297214	0.00260228132126959	-0.012408666072335
6.3	0.00830695150200867	-0.0017903993392354	-0.00260104501492103	-0.00177196324275616	-0.00261016588437943	-0.00176622970574479	0.00211702466936017	-0.0125504039307914
6.4	0.00689719991674447	-0.00384676284474295	-0.00282704972595276	-0.00138164808166003	-0.0028173332042314	-0.00138654618650954	0.0016419505742923	-0.0127814947869476
6.5	0.00521985869983522	-0.00554970910102506	-0.00298340468492343	-0.000977042589746615	-0.00299125932849519	-0.00097256545643507	0.00128754358534228	-0.0131173721868501
6.6	0.00330711435553882	-0.0068416489350829	-0.00309145142327932	-0.000552496263781203	-0.00309308287470318	-0.00055646981092742	0.00092100009045972	-0.0136303809694716
6.7	0.00113763165041634	-0.00766475138705296	-0.00314205659902053	-0.000115189966943439	-0.00315090410312048	-0.000108917927179277	0.000102241153370168	-0.0141522217870127
6.8	-0.0012578631915668	-0.00785795391170303	-0.00312068444191901	0.000325791726073504	-0.00313176941009299	0.00033083317946891	-0.00103606023723967	-0.0143135323762688
6.9	-0.00365883532566999	-0.00734265106789367	-0.00304559660016619	0.000758681858104606	-0.00304858177844477	0.000761069749691993	-0.00212261078306075	-0.01409348648912
7	-0.00574082655634162	-0.00618052479699935	-0.00290931506100026	0.00117899381321388	-0.00292213369044735	0.00117679558924815	-0.00299394433100253	-0.0137333099731955
7.1	-0.00747485431529968	-0.00462738727602624	-0.00273206655266821	0.00156741311198471	-0.0027284082660768	0.00157607358045158	-0.00377151773789071	-0.0132818488448161
7.2	-0.00885618778139264	-0.00281844589375273	-0.00247626428749191	0.00193509830681154	-0.00248279011484934	0.00193717325871443	-0.00436773691902512	-0.0128219486061558
7.3	-0.0100377401721396	-0.000820387367365586	-0.0021816103993533	0.00225403905964585	-0.0021928187183128	0.00225908363589896	-0.00485399425124049	-0.012528238554986
7.4	-0.0109953843327565	0.00145001001070769	-0.0018409326628206	0.00253732556177833	-0.00184782013510305	0.00255092206331874	-0.00551435642700061	-0.0124052783421181
7.5	-0.0115171990683616	0.00402424627605342	-0.00147621354114262	0.00277696492827665	-0.0014692294192128	0.00278436198556568	-0.00611894403893939	-0.0122302496045602
7.6	-0.0112907091923777	0.00668588700285828	-0.00107073927045551	0.00295612402520454	-0.0010721100724702	0.00295142765649595	-0.00656932236272588	-0.0121439266979859
7.7	-0.0104650945857168	0.00910717939342486	-0.00064291380591362	0.00307826646207081	-0.000644252839110952	0.00307720399093065	-0.00718379105608176	-0.0125288063744976
7.8	-0.00889584096248429	0.0111501742544201	-0.000217451508640738	0.00312829237257824	-0.000225262869485289	0.00313474304892152	-0.00808065478501636	-0.0126763442850254
7.9	-0.00673205813916736	0.012733840950354	0.000223686537423905	0.00313631682877315	0.000231626846451891	0.00313782132577614	-0.00896156882821112	-0.0124324758727805
8	-0.00406967511338761	0.0137829878801409	0.000665744158211263	0.00306501254102195	0.000665822207559824	0.00306991281364071	-0.00974702620262913	-0.0120348344746513
8.1	-0.00114098407249831	0.0141543248336271	0.00107673467728298	0.00294793900256924	0.00109588528425505	0.00294903770334706	-0.0103967537569399	-0.0115734141410918
8.2	0.00168538804402629	0.0138386324252213	0.00148201192497647	0.00276749487399234	0.00149126527879912	0.00276030312435506	-0.0109803453149179	-0.0110664067694386
8.3	0.00425498853543005	0.012975333116392	0.00185909944109259	0.00252869730887416	0.00185744930523097	0.00254225140312403	-0.011569913111794	-0.0105563278773644
8.4	0.00651220589336555	0.0117936222081722	0.00219546907707604	0.00225104300706842	0.00219243762993157	0.00225081735105891	-0.012217100502165	-0.0100108348410973
8.5	0.0085524530334864	0.0102454526695752	0.00248180832591862	0.00192030196870839	0.00248091010174017	0.00192348663441163	-0.0128957124487959	-0.00930803763056856
8.6	0.0103185144162474	0.00832693659838999	0.0027283789220055	0.00155972760267231	0.00273788323865854	0.00155318553547506	-0.0134154318482281	-0.00855896373299563
8.7	0.011703549107712	0.00593197183650937	0.00291443237273097	0.00115679067567352	0.00291999426475781	0.00115751463170764	-0.0138531041395196	-0.00790940917338613
8.8	0.0124952080949664	0.00320526208297936	0.00305122975461956	0.000745694896106147	0.00305700123205856	0.000736932243944086	-0.0144378420992877	-0.00737457964299931
8.9	0.0127183986522824	0.000291858058691175	0.00312881579008096	0.000311517584125025	0.00312794464075986	0.000309269617393505	-0.0149411290011296	-0.00656591681745895
9	0.0123571026240464	-0.00270818394062777	0.00313873014787144	-0.000131924152225471	0.00314188799965342	-0.000127821415261826	-0.0151444097537081	-0.00554757220963827
9.1	0.0114614457310913	-0.0057502299037492	0.00309267473412257	-0.000573545999202463	0.00309555976190144	-0.000560644893510393	-0.0149887710997895	-0.00461666420644199
9.2	0.00979905037952233	-0.00870736464598789	0.00298332397089802	-0.000991377225276776	0.00299098395934555	-0.000994254537923612	-0.0147451164223805	-0.00393543522723702
9.3	0.00737729812191609	-0.0112587302219858	0.0028148754467178	-0.00139695499538335	0.00281414454306823	-0.00140194708984156	-0.0144965669673807	-0.0033106274549947
9.4	0.00435180765224924	-0.0131504452301014	0.0025925404015181	-0.00178758717023928	0.00259905395387712	-0.0017799868027992	-0.0142762908842462	-0.00273996333673616
9.5	0.000923587245213114	-0.0141557285494396	0.00231749252105735	-0.00212230861353979	0.00232490705872065	-0.00212365634088693	-0.0140520951486262	-0.00214337473719289
9.6	-0.00268544978173618	-0.0144378014351094	0.00200049436050729	-0.00242648960858083	0.00200082430347175	-0.00242550726717997	-0.0139840418830541	-0.00166744653116889
9.7	-0.00638620287327056	-0.0139274771461179	0.00163323650997412	-0.0026776168092368	0.00163877317087706	-0.00268492546145468	-0.0139879048640157	-0.00115143624301065
9.8	-0.0100822469142939	-0.012623335952844	0.00124808922548612	-0.00288709313846336	0.00125378902388054	-0.00287859199637524	-0.0141004923162693	-0.00057290762949338
9.9	-0.0135519866075875	-0.0103501260349136	0.000842494000823292	-0.00302691662330612	0.000835160328317926	-0.00302569003079133	-0.0143470361608877	0.000212048372160191
10	-0.0164910826157676	-0.00727627802282748	0.000411880862378488	-0.00311668929107443	0.000404389219611501	-0.00312913677729983	-0.0144218774363341	0.00118692874726555
10.1	-0.0186313712816737	-0.00358725985124736	-3.08742586215813E-05	-0.00314854996424915	-4.11094777033888E-05	-0.00314315517837187	-0.0141748375367576	0.00210104728928657
10.2	-0.0199507219883667	0.000430435277126754	-0.000477610556330363	-0.00311186823734003	-0.000481018530768765	-0.0031090880850246	-0.0137291977196643	0.00285536326312737
10.3	-0.0204875219612284	0.00469279537467795	-0.000910689435130124	-0.00300612363498523	-0.000902596450036086	-0.00301520064766942	-0.0132366244946109	0.00343977815248349
10.4	-0.0201458522899499	0.00909615613310408	-0.00130845464908304	-0.00285126431851302	-0.00130675906879038	-0.00285746254484267	-0.0126159310120044	0.00382755545995142
10.5	-0.0188584793553049	0.0135269902735883	-0.00170034329733753	-0.00265219683344471	-0.00169723662358359	-0.0026391918598404	-0.0119998732550785	0.00414360133658414
10.6	-0.0165684327128895	0.0176593880931033	-0.00205322733170868	-0.00238179889645318	-0.0020510408040468	-0.00238562341129198	-0.0113920363041112	0.0042920669048778
10.7	-0.01345685915321	0.0213506070242902	-0.00236849599277319	-0.00207941463096156	-0.00236499906272136	-0.00207413290476171	-0.0108731207138761	0.0044138208228852
10.8	-0.00961191919630347	0.0244379129279035	-0.00263752171734491	-0.00171901797083448	-0.00263232359943277	-0.00172794753980576	-0.0105219522972778	0.00451215082587253
10.9	-0.00519627344949972	0.026870859429436	-0.002845493891588	-0.0013446141841797	-0.00285068250558777	-0.00134388153726388	-0.0102848309027726	0.00470378431691163
11	-0.000102777885806874	0.0284902441500598	-0.00300445285848601	-0.000927986951112101	-0.00300929968898515	-0.000934726974865673	-0.00992806801405641	0.00505797332965882
11.1	0.00541515029360606	0.0290402798141237	-0.00311267048276896	-0.000502956811572	-0.00310180920161828	-0.000500099561618231	-0.00935524374558682	0.00531672939887427
11.2	0.0110569707302299	0.0283180870659827	-0.00314187676045111	-6.52586835384928E-05	-0.00314903117269432	-7.00939097294701E-05	-0.00863498912541521	0.00539253934120484
11.3	0.0165114880866458	0.0263480409058002	-0.00311501271481827	0.000383407393794421	-0.0031265568956128	0.000373372222681801	-0.0078266444569788	0.00529207837355406
11.4	0.0213383726600294	0.0233935114579591	-0.00304134729937394	0.000811152404556172	-0.00303643179576361	0.000818717568227936	-0.00718420241057908	0.00503238113047054
11.5	0.025548666375023	0.0195660340858124	-0.00289816306804751	0.00122670660169065	-0.00290093988696638	0.00123698312307309	-0.00672492665127151	0.00459307592651728
11.6	0.0290657492385349	0.0148714162003897	-0.00270392122092499	0.00161710120694964	-0.00270390188563692	0.00162004141088039	-0.00629096949517366	0.00401854533605605
11.7	0.031616635672948	0.00950623238780776	-0.00244276857137014	0.00197194848096638	-0.00244333140696682	0.00198055372858664	-0.00596281578416135	0.00328121964352251
11.8	0.033092905049219	0.00375891197347422	-0.00214753366656684	0.00230430440707738	-0.00215164884230487	0.00230600350468718	-0.00585622556420126	0.00260708229520103
11.9	0.0335695181567186	-0.00211177186148648	-0.00179826514622953	0.00258066270378548	-0.00181128693354511	0.00258497197710813	-0.00589312890311433	0.00235823054178122
12	0.0328913470963106	-0.00798222729416544	-0.00142478267471154	0.00280398435391394	-0.0014241864640731	0.00280539619128737	-0.00586161035587366	0.00225623216904939
