# GHZ S RI R 50
0.2	0.00590473244191703	0.0012409236178983	0.00304834347784047	-0.000897920295572973	0.00305871210109469	-0.000891111361789485	-0.0140457997691438	0.00489260486850794
0.3	0.00622015857198135	-0.000710483670420446	0.00290412967643	-0.00132133655147866	0.00289688344418471	-0.00130839792728851	-0.0132515114218622	0.00508994208745881
0.4	0.00597348852600918	-0.00236007608631566	0.00267250127329416	-0.00169309485462829	0.00267776862566374	-0.0017016553454098	-0.0127331204631344	0.00563090761913519
0.5	0.00526567712854707	-0.00375318576315689	0.00241364944135731	-0.00204976830396873	0.00242518655684524	-0.00206200787570512	-0.0122187862828425	0.00623914902850708
0.6	0.0042530886415833	-0.00481006932897131	0.00210112660399326	-0.00236420764198798	0.00210034018464065	-0.00237135686165208	-0.0117405008778694	0.00680780962345039
0.7	0.00297189913706916	-0.00549997819124807	0.00175399828875875	-0.00264192141481093	0.00175204239695661	-0.00264212024505216	-0.0113877846042325	0.00740591106167763
0.8	0.00164642481595618	-0.0058506321558059	0.00136861517176465	-0.00285926022785842	0.00135601614370318	-0.00286380915199694	-0.0110421294245337	0.00813935267244259
0.9	0.000227506105465351	-0.00583657689446665	0.000951610019721609	-0.00302277102820128	0.000952645039524504	-0.00303346945227419	-0.0106435272246397	0.00891379117321612
1	-0.00115159165715459	-0.00553546102737558	0.000526840899500174	-0.00312616613491486	0.000516979877770477	-0.00312690629484715	-0.0101373352604366	0.00972181881899455
1.1	-0.00252244881397975	-0.00499678864316062	7.12918111241089E-05	-0.00315496430906994	6.77853963973045E-05	-0.00317261338920131	-0.00962372400893206	0.0105954412250636
1.2	-0.0038198338349853	-0.00443162534858863	-0.000370774586369851	-0.00314436562294308	-0.000371586335082388	-0.00314228940039667	-0.00870236425515319	0.011475494751256
1.3	-0.0051772868457818	-0.00395373214885589	-0.000797833162738754	-0.00306118248498192	-0.00080107287220674	-0.00306318758259999	-0.00716680176400883	0.0121318670119298
1.4	-0.00635677566001322	-0.00335684624657727	-0.00121907634264178	-0.00291297617347933	-0.00121786327897136	-0.00291850883272213	-0.00547348961108746	0.0120275427502296
1.5	-0.00688841423680444	-0.00225757546409739	-0.00161989573818887	-0.00271716577825913	-0.00161828364098206	-0.00272566538683172	-0.00411677054206522	0.0115568316498199
1.6	-0.00681925318614144	-0.000777280447259009	-0.00198043107448285	-0.00246481848678396	-0.00198064183352401	-0.00247005240420851	-0.00353814650735763	0.0114033634162404
1.7	-0.00622291133351351	0.000685283095107374	-0.00230886618982988	-0.00216803573971572	-0.00230983199211842	-0.00216177466589995	-0.00292350000966176	0.0115638814081676
1.8	-0.00531799824785474	0.00207673063493462	-0.00257993609313315	-0.0018166201458012	-0.00259090117943546	-0.00182225691106134	-0.00225281198669672	0.0117173823147317
1.9	-0.00414244283988983	0.00313171298958816	-0.00280534447247976	-0.00144595772904367	-0.00281778385969689	-0.00143980525110034	-0.0016022594057835	0.0118606266559001
2	-0.00281624672087719	0.00388517725632523	-0.00298110459308061	-0.00103831177103621	-0.00299072615806075	-0.00103360382362791	-0.000971276241107494	0.0120704458658589
2.1	-0.00137536169441068	0.00425104911587803	-0.00309464327365813	-0.000609861806996088	-0.00309056010199723	-0.000611853465343273	-0.000176697183798558	0.0122024738715355
2.2	6.58956558457574E-05	0.0043025681821122	-0.00315204449071399	-0.000171501588320837	-0.00316334787476669	-0.000174337166326515	0.00079690109544142	0.0122008980150494
2.3	0.00144804220716063	0.00391111400550218	-0.00314735186301472	0.000272007782610741	-0.00314704987533995	0.000265125119483693	0.00172835266245905	0.0119312632358975
2.4	0.00264263916309614	0.0032304373684353	-0.00307480191309124	0.000710439614331318	-0.00307734338764517	0.000706182721405313	0.00257235392480997	0.0116094984080013
2.5	0.00361069860694561	0.00226167121680245	-0.0029375635781793	0.00112279352818679	-0.00294845127527004	0.00112917490357494	0.00338815156844999	0.0111802232260769
2.6	0.00438970912846295	0.0011156951029738	-0.0027634019683811	0.00152585993339262	-0.00275984749664267	0.00151353728572064	0.00419152035304595	0.0106727639459909
2.7	0.00502269858784006	-0.000179784109123687	-0.00251721042483442	0.00189717572898107	-0.00252249013034675	0.00189718790055831	0.00484131243280672	0.0100826159019779
2.8	0.00553586285761391	-0.00166538004143506	-0.00223398723751359	0.00222453736125717	-0.00222617154673102	0.00223432430865808	0.00536100265731246	0.00961588059940121
2.9	0.0058686978357701	-0.00337419884582403	-0.00189933161907744	0.00252446864652903	-0.00189562309329412	0.00252404069382161	0.00605627506401017	0.00931299189449689
3	0.00581233033006786	-0.00527051737045486	-0.00151275772667812	0.0027595556352488	-0.00152753444265791	0.00276565862178725	0.00693042641777936	0.00899559461322995
3.1	0.005363957056558	-0.0072130631336003	-0.00112229317126466	0.00293629242167201	-0.00111763460135014	0.00294463226447706	0.00778480211772207	0.00849777651638687
3.2	0.00435451930800324	-0.00910643213603943	-0.000701664713741226	0.00307301870306239	-0.000703409037965575	0.00307240867584236	0.00841303896822602	0.00799422820843181
3.3	0.00288010995855007	-0.0108978200043724	-0.000263222612142988	0.00314238925891911	-0.000261575249057801	0.00313864939675419	0.00911642404717673	0.00738633992492061
3.4	0.000876021125426047	-0.0123170970748376	0.000183519857307647	0.00313591209702093	0.000177320592803282	0.00315247479827934	0.00978880413951125	0.00654374607890873
3.5	-0.00146762954029684	-0.0133448438082129	0.000605136929715127	0.00309268831746764	0.000610731501995619	0.00309276234271381	0.0101768456262277	0.0054583371679475
3.6	-0.00408477098975812	-0.0138002754452725	0.00103343239339046	0.00297317495914434	0.00104162243767696	0.00297285541875129	0.0103527833357027	0.00455060956594812
3.7	-0.0067499915788727	-0.0136737839419827	0.00144381835611335	0.00279192234160503	0.00143423766997742	0.00280559774129551	0.0105668614674085	0.00371248239620062
3.8	-0.0093695751003846	-0.0129782539207258	0.00182175178712939	0.00256454929812084	0.00182415790710099	0.00257369670548938	0.010710991950658	0.00285877241641109
3.9	-0.0117249088720823	-0.0117769474347269	0.00216737159819733	0.00229122653983869	0.00216010712627999	0.00228944945738099	0.0107517389197151	0.0020263396650906
4	-0.01380345574585	-0.0101682109542697	0.00245188348227582	0.00196985670025623	0.00245633082335766	0.00196742159311783	0.0107960812412603	0.00133914130803889
4.1	-0.0155384416597999	-0.00821186830546109	0.00270364214489863	0.00160973709848374	0.00270238999145072	0.00161047309001982	0.010994227326011	0.000717775198874185
4.2	-0.0169302397111675	-0.00593615280490498	0.00290263462158299	0.00120833535683359	0.00290709730537565	0.00119961994758665	0.0112381776062358	7.47946746310226E-06
4.3	-0.0179072021345388	-0.00349643009025578	0.0030453546510503	0.000796085039998669	0.00305177374177383	0.000788281942033785	0.0114362825541498	-0.000890776960073518
4.4	-0.0185587309145291	-0.000860600465879931	0.00312130751025606	0.000361881312295588	0.00312368070410069	0.000359624617923883	0.0114188532065184	-0.00181172010882659
4.5	-0.0187747295675073	0.0019393495988529	0.00314364788923055	-7.61128571292042E-05	0.00314900586744259	-7.94868635726133E-05	0.0113488011491316	-0.00267989656335808
4.6	-0.0185505630324129	0.00477722203470596	0.00309918332606336	-0.000518801710692895	0.00310041570905237	-0.000505892919785857	0.0111752815278853	-0.00360993950503463
4.7	-0.0177117122659748	0.00761943879475167	0.00299359646830071	-0.000937375490452834	0.00300887336663416	-0.000946993607194872	0.0108504321532203	-0.00452927770460406
4.8	-0.0163654392962313	0.0102723625434131	0.00283223406527932	-0.00135112153847745	0.00284070675623247	-0.00135721059548197	0.0104336941754893	-0.00532674594792436
4.9	-0.0143437903475761	0.0126073283493569	0.00261128065377598	-0.00173483917382931	0.00261544567840703	-0.00173193713077433	0.0100465798472631	-0.00595980586220747
5	-0.0118667696527621	0.0144018093706471	0.00235144871377171	-0.00208949121399645	0.0023550691734347	-0.00208682974146071	0.00992779945080532	-0.00648805280103581
5.1	-0.00890910261811075	0.0156555570505999	0.00204066744889752	-0.00239956726337516	0.00204296692690536	-0.00239821114957358	0.00994263905437204	-0.00717670307384287
5.2	-0.00583855206236854	0.0162120326202996	0.00168322438377489	-0.00264893703726728	0.00168493489064376	-0.0026540762878136	0.00988573786542079	-0.00795292211535831
5.3	-0.00276767138410192	0.0161398166958983	0.00129679384439974	-0.00286385755212227	0.00129992416889034	-0.00286179735230431	0.00973946693984904	-0.00869450727421776
5.4	0.000112104018960618	0.0155152065455748	0.000872368539443101	-0.00301091493781523	0.000889516133395538	-0.00302211649082806	0.00954908248763423	-0.0095974888269702
5.5	0.00267252668675742	0.0144635484161139	0.000459265467259436	-0.00310841728644479	0.000469307695788048	-0.00311783809446327	0.00907888326798452	-0.0106083270565891
5.6	0.00490692271878819	0.0130342583392045	2.13104530122686E-05	-0.00314429038038068	1.27925406666386E-05	-0.0031475051085308	0.00824919854256524	-0.0114241505067691
5.7	0.00672548633350493	0.0113136424354351	-0.000409184136517224	-0.00311366536354033	-0.00042578120348764	-0.00311732101464122	0.00726766558888353	-0.0119212716431533
5.8	0.00815385412652159	0.009320255223735	-0.000854512103766667	-0.00301872783991173	-0.000858045068094187	-0.00303270325352623	0.00631964475712306	-0.0123992961652199
5.9	0.00909013952110387	0.00718423895515079	-0.00125885660101142	-0.00287884002982792	-0.00126707917322685	-0.00287875815266254	0.00522373869141654	-0.0127776380574737
6	0.00951244661894887	0.00489879961639034	-0.00165657086808264	-0.00267275238771131	-0.00165301311487591	-0.00267291895918954	0.00397776565406409	-0.01289712545461
6.1	0.00944883140813325	0.00258483461218012	-0.00201117900515211	-0.00241846038582371	-0.00201281666225734	-0.00241445990959339	0.00297954769635833	-0.0127065162043335
6.2	0.00891078151333187	0.000261066428858884	-0.00232349708280987	-0.00210554747254458	-0.00232720314631661	-0.00211740644108559	0.00230863138585702	-0.0125934730941126
6.3	0.00798415355309665	-0.0020005607065285	-0.00260080968919236	-0.00177138872705121	-0.00260992843404648	-0.00176565514153375	0.00179428211628707	-0.0127577056285375
6.4	0.00655502263284907	-0.00412999489693619	-0.00282666918906756	-0.00138114691833641	-0.00281695484341594	-0.00138604502282688	0.0013004043432281	-0.0130621676322387
6.5	0.00475602498347977	-0.00590747839657882	-0.00298290986509956	-0.000976654170373366	-0.00299076272283763	-0.000972177341797464	0.000824300623339605	-0.013472997749908
6.6	0.00267153692271737	-0.00713704037207928	-0.00309088292550672	-0.000552246665929247	-0.00309251424770014	-0.000556219373685581	0.000285755317295387	-0.0139239440978572
6.7	0.000445085096022331	-0.00778238764672579	-0.00314145932449866	-0.000115085209440355	-0.003150304973009	-0.000108814134936391	-0.000589933781346347	-0.014268049738888
6.8	-0.00185404257987338	-0.00784624880625477	-0.00312009662485075	0.000325759251809994	-0.00313117946942651	0.000330799861964987	-0.00163192020215225	-0.0143000674167908
6.9	-0.00413592955537241	-0.00734780102830272	-0.00304504655555833	0.000758523153055503	-0.00304803120567975	0.000760910589412326	-0.00259996464205387	-0.0140974303162705
7	-0.00620896636777322	-0.00628084888329957	-0.00290882980812231	0.00117872860306364	-0.00292164614981318	0.00117653050432151	-0.00346221401567505	-0.0138320688035756
7.1	-0.0080509352887154	-0.00475065013957348	-0.00273166236232336	0.00156706724507075	-0.00272800495461569	0.00157572639115818	-0.00434751988138068	-0.0134033198994918
7.2	-0.00952469427316765	-0.00281571928035123	-0.00247595523223604	0.00193470080631457	-0.00248248012679997	0.00193677518060664	-0.00503575893857475	-0.0128171363901859
7.3	-0.0106454311165265	-0.000622308961966682	-0.00218138972881032	0.00225362133894891	-0.00219259663911468	0.0022586647142462	-0.0054608918211592	-0.0123280596539756
7.4	-0.0113954053314732	0.00174992663750813	-0.00184078245386428	0.00253690580603129	-0.00184766952769823	0.00255050017691405	-0.00591541942693895	-0.012103972121276
7.5	-0.0116991144172154	0.0042501099927946	-0.00147611498250829	0.00277654149682598	-0.00146913205640823	0.0027839378140278	-0.00630197060585763	-0.0120031337475285
7.6	-0.0113730990303907	0.00674376020345688	-0.00107068784609265	0.00295568979047722	-0.00107205831379071	0.00295099401438664	-0.00664815227982687	-0.0120840996278405
7.7	-0.0105338153126173	0.0090510311774484	-0.000642919560543612	0.00307780775271379	-0.000644258369457516	0.00307674539055184	-0.00725275685109194	-0.012582289203587
7.8	-0.00895033630184425	0.0109757417098378	-0.000217527342845044	0.00312781293529509	-0.000225337749400131	0.0031342623673253	-0.00813371261025788	-0.0128482002679117
7.9	-0.00683264177240693	0.0123842222307756	0.000223518042500865	0.00313582118503899	0.000231457009225621	0.00313732577512978	-0.00906620338965727	-0.0127781311465926
8	-0.00435907754112997	0.0132981399960264	0.000665461957124932	0.00306452446830434	0.000665539724119727	0.00306942390646023	-0.0100321560974384	-0.0125177088907833
8.1	-0.00166021154712139	0.0136946797296279	0.00107633876011853	0.0029474849484394	0.00109548586012211	0.00294858477105477	-0.0109136674487755	-0.0120291552599625
8.2	0.00103711505675572	0.0135360480505552	0.00148149817972892	0.00276711216537325	0.00149075044787177	0.00275992254662329	-0.01162521554831	-0.011365355241275
8.3	0.00362867058990385	0.0128159791513268	0.00185848022645184	0.00252841931703604	0.00185682895780599	0.00254197068431902	-0.0121913764410106	-0.0107128356069426
8.4	0.0059584101542415	0.0116602948112758	0.002194763033515	0.00225090087017787	0.0021917321888807	0.00225067486523453	-0.0127650345331349	-0.0101423243992672
8.5	0.007991822717862	0.0100624101384315	0.00248105216139868	0.00192032971156849	0.00248015361165562	0.001923513648824	-0.01344994761555	-0.00949039414866847
8.6	0.00965488734309207	0.00815143049722704	0.002727620975397	0.00155994485919579	0.00273712480382202	0.00155340564531033	-0.0140723557683825	-0.00873562107759159
8.7	0.0109596878555452	0.00588858365041738	0.00291373197359223	0.00115719491247428	0.00291929282901892	0.00115791987741582	-0.0145904479136714	-0.00795551536965163
8.8	0.0118105016145191	0.00333848683945573	0.00305063273070377	0.000746268552914807	0.0030564053427512	0.000737508423108475	-0.0151165487174066	-0.00724538247081619
8.9	0.0122030185251369	0.000495078398158892	0.00312836876512906	0.00031223008993734	0.00312749825804537	0.000309982182055028	-0.0154514775065634	-0.00636808939358722
9	0.0119733227018991	-0.00256926471440344	0.00313846816524373	-0.000131119306115293	0.00314162468411704	-0.000127016157871175	-0.0155244266895236	-0.00541489965930359
9.1	0.0111104879949906	-0.00568787862748568	0.0030926195071085	-0.000572700416191777	0.00309550097488682	-0.000559799412279327	-0.0153384425504151	-0.0045613504993584
9.2	0.00946482389836366	-0.00867013746537113	0.00298347131793693	-0.000990550445733628	0.00299113177243238	-0.000993425622769005	-0.0150797060346091	-0.00390513484896918
9.3	0.00710557822420313	-0.0112646993730701	0.00281521066491983	-0.00139620254411464	0.0028144810766893	-0.00140119477561181	-0.0147700446402762	-0.00332264658917499
9.4	0.00411097770379002	-0.0132798189972573	0.00259303020461699	-0.00178694416210389	0.00259954188736855	-0.00177934203228746	-0.014519504151129	-0.00287334553095336
9.5	0.000605308645530228	-0.0144112226024454	0.00231807641992622	-0.0021218134277455	0.00232549151031755	-0.00212315940413129	-0.0143735779491857	-0.00240221319808006
9.6	-0.00315633324159789	-0.0147111477339457	0.00200113997446539	-0.00242613978279167	0.00200146970720949	-0.00242515732169386	-0.0144582245520532	-0.00194305222050635
9.7	-0.00695107039432395	-0.0140963236056475	0.00163390737141015	-0.00267740748643947	0.00163944592234793	-0.0026847153327898	-0.0145559619070976	-0.00132129709168227
9.8	-0.0106127758021408	-0.0126754321160889	0.00124876297616255	-0.00288700965694013	0.00125446135934221	-0.00287850681869403	-0.014633058494012	-0.000625801133166315
9.9	-0.0139787582734162	-0.0103835976432736	0.000843142570625209	-0.00302694332145294	0.000835808191158308	-0.00302571809278667	-0.0147761777994488	0.000178480994171863
10	-0.016877811792625	-0.00737398993686288	0.000412508030942224	-0.0031168097235771	0.000405018307233057	-0.00312925945201361	-0.0148109371955382	0.00109001412313006
10.1	-0.0190569835000399	-0.00371709792379845	-3.02690024411151E-05	-0.00314876031576586	-4.05059264402316E-05	-0.00314336715380415	-0.0146015543650948	0.00197255622610293
10.2	-0.0203924306207696	0.000347673486294888	-0.000477032517135853	-0.00311217116679249	-0.000480441265894177	-0.00310939149578476	-0.0141713105587088	0.00277407111582733
10.3	-0.0208515481061279	0.00464450510817727	-0.000910148137005879	-0.00300652266366907	-0.000902052740974836	-0.00301559869361456	-0.0136005358178858	0.00339327435642101
10.4	-0.0204150930735808	0.00897148920688678	-0.00130796010025562	-0.00285176328346756	-0.0013062630871781	-0.00285796164284817	-0.0128840208868804	0.00370466201103419
10.5	-0.0191391247728251	0.0132610890768161	-0.00169991619634474	-0.00265280773997399	-0.00169681208811446	-0.00263980091521457	-0.0122783871299815	0.0038783007535444
10.6	-0.0169641589725363	0.0173178455142412	-0.00205290211057566	-0.00238251838380555	-0.00205071448077312	-0.00238634280516857	-0.0117851441866144	0.00395104967372529
10.7	-0.0140093612603953	0.0210106405930637	-0.00236831705868337	-0.00208023953360071	-0.00236482091065348	-0.00207495630186415	-0.0113628270889085	0.00404719662218114
10.8	-0.0101292658646279	0.0241721582635546	-0.00263750682744097	-0.00171991593705995	-0.00263230576377261	-0.00172884560568817	-0.011035192362897	0.00424402419106792
10.9	-0.00571708189019898	0.0265839429435283	-0.00284569195526663	-0.00134555425095789	-0.00285088170479256	-0.00134482273050048	-0.0108009077460128	0.00441127525639287
11	-0.000709028194716659	0.0281639579572327	-0.0030048913579269	-0.000928894093437905	-0.00300973766637514	-0.000935636725481955	-0.0105313085679283	0.00472428906479878
11.1	0.00466119982241966	0.0287687289195375	-0.00311334101814098	-0.000503760191699002	-0.00310247763705991	-0.000500899862235042	-0.0101073001993081	0.00503611222223991
11.2	0.0102187006671888	0.0282241528213424	-0.00314274116785874	-6.58876803232221E-05	-0.00314989663736523	-7.07256471461455E-05	-0.0094739066657668	0.00528774843232722
11.3	0.0157410703455655	0.0264554179484795	-0.00311602074578703	0.000383000516839069	-0.00312756673879497	0.000372960367368457	-0.00859927660200581	0.00538974866068619
11.4	0.0207178130287851	0.0235877980206806	-0.00304243856951759	0.000811003882186431	-0.00303752249986534	0.000818572151337934	-0.00781054934434365	0.00521734442384341
11.5	0.0250369214079254	0.0197547064434811	-0.00289925311514273	0.00122683315955214	-0.00290203187017709	0.00123711284786119	-0.00724727560793898	0.00477255477213339
11.6	0.0286162966798864	0.0150631570976627	-0.00270494189818748	0.00161748281561614	-0.00270492273958353	0.0016204240210175	-0.00675250336689894	0.00420430530727167
11.7	0.0312673119956927	0.00973241721126289	-0.00244365446224188	0.0019725509397255	-0.00244421772960598	0.00198115909837317	-0.00632529428107597	0.00350382378465276
11.8	0.0329147757693157	0.00395265878705264	-0.00214824195089818	0.00230508790381934	-0.00215235849769785	0.00230678759202568	-0.00604849264532605	0.0028014296709018
11.9	0.0335374533583774	-0.00208905284488376	-0.00179875558004981	0.00258156571860495	-0.00181178143933388	0.00258587686256599	-0.00593878234709159	0.00238317151608336
12	0.0328460243215135	-0.00817296928073255	-0.00142505105731116	0.00280493367229658	-0.00142445457755644	0.00280634590798164	-0.00591904218376657	0.00207205138524879
