# GHZ S RI R 50
0.2	0.00590238710048381	0.00124321893561349	0.00304834082961647	-0.000897931946508877	0.00305870948087313	-0.00089112305002164	-0.0140481362060801	0.00489497388242362
0.3	0.00621780133698879	-0.000704614944698773	0.00290412312111477	-0.00132135448973688	0.00289687696277059	-0.00130841581636976	-0.0132538443341533	0.00509592785135335
0.4	0.00597362535134002	-0.0023511845084733	0.00267248825091121	-0.00169311869235057	0.00267775553286012	-0.00170167923301514	-0.0127329271711716	0.00563996195152482
0.5	0.00526948705141314	-0.00374410101572992	0.00241362647424389	-0.00204979681919234	0.00242516345172608	-0.00206203652796417	-0.0122148672474623	0.00624843662427083
0.6	0.00425873073400218	-0.00480388760317178	0.00210109048823287	-0.00236423760642927	0.00210030396326664	-0.00237138681082928	-0.011734678003113	0.00681421933921534
0.7	0.00297521950594584	-0.00549718303849201	0.00175394668287671	-0.00264194810115834	0.00175199079134599	-0.00264214689538266	-0.0113841976875881	0.00740893532047206
0.8	0.00164405301173602	-0.00584775510416255	0.00136854782466669	-0.00285927749681405	0.00135594875239172	-0.00286382613050515	-0.011044141072439	0.00814242899340159
0.9	0.000220262153055578	-0.00582806148322816	0.000951529083952831	-0.00302277206770711	0.000952563834464056	-0.00303347043839528	-0.0106503251486175	0.00892243582771203
1	-0.00115797086714881	-0.00551812839035252	0.000526751464233917	-0.00312614528628438	0.000516890532900862	-0.0031268851744046	-0.0101432121769303	0.00973917208529956
1.1	-0.00252103962349652	-0.00497368367328275	7.12020902784099E-05	-0.00315491751614677	6.76952340464477E-05	-0.00317256622482359	-0.00962180337754227	0.0106184523420721
1.2	-0.00380945747809568	-0.00441044694676592	-0.000370856673025856	-0.00314429241175499	-0.000371668346481391	-0.00314221620748437	-0.00869167778489047	0.0114964281488202
1.3	-0.00516354813117605	-0.00393897680741368	-0.000797898953880065	-0.00306108578399474	-0.000801138640320603	-0.00306309074264324	-0.00715284346105818	0.0121463695959229
1.4	-0.00634381886034796	-0.00334577599950536	-0.00121911806499964	-0.00291286150087157	-0.00121790518077553	-0.00291839403478771	-0.00546024348636677	0.0120382922353062
1.5	-0.00687651304644993	-0.00225037990939865	-0.00161990885515085	-0.00271704111743664	-0.00161829701087797	-0.00272554049463023	-0.00410477087503758	0.0115633227369167
1.6	-0.00681405195894802	-0.000774393105060214	-0.00198041457602382	-0.00246469324200406	-0.00198062543643277	-0.00246992697633619	-0.00353289317870666	0.0114060418245816
1.7	-0.00622807932201035	0.000689998784929247	-0.00230882199023236	-0.00216791813324486	-0.00230978764847456	-0.0021616572653532	-0.00292870515335019	0.0115682346064497
1.8	-0.00532976223331018	0.00208997395072335	-0.00257986914484748	-0.00181651771177136	-0.00259083391674887	-0.00182215411678306	-0.00226464274202481	0.0117303477113601
1.9	-0.0041529375784508	0.00315519614695915	-0.00280526150251967	-0.00144587415377311	-0.00281770037742625	-0.00143972175126849	-0.00161280244756675	0.0118838677193433
2	-0.0028201929924138	0.00391294020991086	-0.00298101257761804	-0.00103824827030327	-0.00299063376979061	-0.00103354039311119	-0.000975237329673466	0.0120979895929409
2.1	-0.00137531992778265	0.00427580172529722	-0.00309454830770175	-0.000609816269284073	-0.00309046528467502	-0.000611807897304923	-0.000176639985383186	0.0122269951754718
2.2	6.19302579851173E-05	0.00432334902107188	-0.00315194988693105	-0.000171469774818577	-0.00316325295046143	-0.000174305171072073	0.000792986466422409	0.0122214063547977
2.3	0.00143508241137902	0.00393544229997313	-0.0031472578435917	0.000272030302093247	-0.00314695593120398	0.000265147835902741	0.00171547333210889	0.0119552396453989
2.4	0.00262590497733361	0.00326786667691803	-0.00307470593005719	0.000710455882045264	-0.00307724738277365	0.000706199140494636	0.00255561454946057	0.0116468472972819
2.5	0.00360094148816342	0.00231242251318064	-0.00293746136873425	0.00112280345412619	-0.00294834865469585	0.00112918480141244	0.0033784282220864	0.0112308102840791
2.6	0.00439296762407567	0.00117049044981765	-0.00276328894920083	0.00152585967067214	-0.00275973480137494	0.00151353734846496	0.00419484258449524	0.0107273045963337
2.7	0.00503457577336648	-0.000129133409535808	-0.00251708579594612	0.00189715856728816	-0.00252236531721395	0.00189717084113189	0.00485325269383209	0.0101329388727144
2.8	0.00555069393761953	-0.0016183120852926	-0.00223385247567271	0.00222449584456329	-0.00222603689038426	0.00223428224178341	0.00537589440276278	0.00966259304769711
2.9	0.0058873582878988	-0.00332902396685754	-0.00189919260086815	0.00252439384538417	-0.00189548425231947	0.0025239658344836	0.00607509340595442	0.00935794534793739
3	0.00583696628216209	-0.00523156103860744	-0.00151262634182551	0.00275944189016774	-0.0015274021755262	0.00276554484502781	0.00695539560570041	0.00903411405877524
3.1	0.00539048407211348	-0.00718497672503913	-0.00112218251785837	0.00293613853525775	-0.0011175240910574	0.00294447782012863	0.00781075335699488	0.00852726926446132
3.2	0.00437083437846827	-0.00908858445399864	-0.000701589254450265	0.00307282881543963	-0.000703333472991593	0.00307221884461646	0.00842916985448108	0.00801156042882497
3.3	0.00288354942106077	-0.0108798415188791	-0.000263196982806517	0.00314217342285669	-0.000261549742122815	0.00313843381438256	0.00911951702179508	0.00740368520723342
3.4	0.000872941880770922	-0.0122917859236925	0.000183485278906354	0.0031356876683763	0.000177286347664254	0.00315224913543398	0.00978514122272103	0.00656838334540057
3.5	-0.00147020060833578	-0.0133147403912269	0.00060504008293273	0.0030924742547002	0.000610634247976948	0.00309254837033265	0.0101729238127803	0.00548724577527223
3.6	-0.00408714287230597	-0.0137730299220887	0.00103327711252963	0.00297299266595976	0.00104146658495417	0.00297267337413147	0.0103491828242751	0.00457743569159933
3.7	-0.00676126326406604	-0.0136487866113309	0.00144361719998238	0.00279179066321645	0.00143403663778462	0.00280546479173112	0.0105540298507284	0.0037373964946092
3.8	-0.00939277257459191	-0.0129449923416262	0.00182152320657919	0.00256448015579075	0.00182392875674156	0.00257362712622802	0.0106860381930408	0.00289239491893474
3.9	-0.0117504484315692	-0.0117271056406825	0.00216713727556335	0.00229122485115591	0.00215987327262733	0.0022894474707039	0.010724443767918	0.00207708336905941
4	-0.0138191921006549	-0.0101067468855708	0.00245166666451012	0.00196991788038491	0.00245611396283374	0.00196748313390431	0.0107788224782266	0.00140196806462043
4.1	-0.0155438849658411	-0.00815081905384068	0.00270346032229922	0.00160985028710742	0.00270220816347265	0.00161058617992808	0.0109876573076838	0.000780506720866926
4.2	-0.0169349512714895	-0.00587913303060946	0.00290250028471862	0.00120848411485648	0.00290696339742586	0.00119976915912456	0.0112328555562534	6.62300583391384E-05
4.3	-0.0179160128893389	-0.00343596739286275	0.00304527178747085	0.000796250397277073	0.0030516912485348	0.000788447763367896	0.0114267535524075	-0.000828659794973189
4.4	-0.0185643580187397	-0.000789620420633983	0.00312127353501831	0.000362044388921516	0.00312364683670825	0.000359787830601195	0.0114128434539684	-0.00173915259550015
4.5	-0.0187668799321829	0.00201549132683829	0.00314365248309154	-7.59658914732926E-05	0.00314901062082914	-7.93396484984213E-05	0.0113565218530347	-0.00260224419442574
4.6	-0.0185291213626379	0.00484735821137051	0.00309921227895863	-0.000518677988517586	0.00310044414421467	-0.000505769114484418	0.0111980327006752	-0.00353799371200617
4.7	-0.0176885644867475	0.00767631563220908	0.00299363625749146	-0.00093727453495215	0.00300891352568066	-0.000946892148524092	0.0108749587239251	-0.0044708874974263
4.8	-0.0163492496499874	0.0103222366679669	0.00283227459246484	-0.00135103663782289	0.00284074746602992	-0.00135712544085872	0.010450740866011	-0.00527621969827881
4.9	-0.014330497342188	0.0126596062073618	0.00261131801310241	-0.00173475978561507	0.00261548294036307	-0.00173185763910464	0.0100606102772773	-0.00590687161152932
5	-0.0118493839213462	0.0144522961056043	0.00235148607964923	-0.00208940624348852	0.00235510643176089	-0.00208674469340352	0.00994580827285596	-0.00643683861568534
5.1	-0.00889386429624459	0.0156954653097608	0.00204071440731719	-0.00239946976581647	0.0020430138107219	-0.00239811359867013	0.00995846976569202	-0.00713588880705593
5.2	-0.00583897123338174	0.0162467995525834	0.00168329415037557	-0.00264882700458019	0.00168500482007795	-0.0026539661000685	0.00988596296305416	-0.00791707775256604
5.3	-0.00278358615958205	0.0161864695000563	0.00129690092037943	-0.0028637422057627	0.00130003108912301	-0.00286168190135838	0.00972434797718906	-0.0086466816404303
5.4	9.74536666004828E-05	0.0155807102844053	0.000872522648960629	-0.00301081090314825	0.000889670563298279	-0.00302201128427042	0.00953545475793676	-0.00953083472279927
5.5	0.00267233000130506	0.0145353358162605	0.000459468853526024	-0.0031083436560656	0.000469511579783152	-0.00311776365739924	0.00908005998817131	-0.0105355938436066
5.6	0.00491510064846816	0.0130952180995091	2.15563332294639E-05	-0.00314427039593191	1.30387220259021E-05	-0.00314748577178744	0.0082590611845899	-0.0113626485013399
5.7	0.00672639220469436	0.0113647114355675	-0.000408911514485147	-0.0031137198359433	-0.000425508356247159	-0.00311737697459347	0.00727090529757728	-0.0118693576477557
5.8	0.00813441299458919	0.00937501407290615	-0.000854241048524627	-0.00301887173970407	-0.000857772749261354	-0.00303284777906937	0.0063026894469365	-0.0123443664820696
5.9	0.009060545294162	0.0072614544421757	-0.00125861772479552	-0.00287907438053775	-0.00126684061661055	-0.0028789933187592	0.00519640433602517	-0.0127009548740783
6	0.00949409230922043	0.00499932299287237	-0.001656399200155	-0.00267306767655175	-0.00165284122953553	-0.002673233904433	0.00396131334839535	-0.0127974823994098
6.1	0.00945235860229115	0.00269192573699565	-0.00201110082566372	-0.00241883166160361	-0.00201273898374911	-0.00241483104079044	0.00298445169167721	-0.0126004247950818
6.2	0.0089276776451183	0.000361417699430547	-0.00232352948316029	-0.00210594097193345	-0.00232723486685315	-0.00211780134954958	0.00232648543512952	-0.0124938115465499
6.3	0.00800206164530641	-0.0019029547356219	-0.00260095646585481	-0.00177177008057367	-0.00261007660809635	-0.0017660365568121	0.00181265819491799	-0.012662058796724
6.4	0.00658520567000237	-0.00403212115059763	-0.00282692218580966	-0.00138147773662398	-0.00281720639997753	-0.00138637584629465	0.0013306483435093	-0.01296607000909
6.5	0.00480182549169121	-0.00582587868195899	-0.00298324444198606	-0.000976905146628249	-0.00299109848236008	-0.000972428089424643	0.000869952203794739	-0.0133929099894137
6.6	0.00271218871748741	-0.00708409878683344	-0.00309126989003837	-0.000552399554823664	-0.00309290131981509	-0.000556372821414981	0.000326251576782286	-0.0138723474222764
6.7	0.000457982776852489	-0.0077429799183376	-0.00314186616501037	-0.000115133677130779	-0.00315071302946953	-0.00010886188240356	-0.000577195322773433	-0.014229942443311
6.8	-0.00186589529753091	-0.00779345633759799	-0.00312049105237517	0.000325810313291487	-0.00313157528583288	0.000330851597028712	-0.00164396215512066	-0.0142486787367263
6.9	-0.00414829162022515	-0.00727427409302477	-0.0030454037398076	0.000758658413309727	-0.00304838871650823	0.000761046180948776	-0.00261223526117715	-0.01402478991454
7	-0.00620554182109524	-0.00620167390003809	-0.00290913366651494	0.00117892613449536	-0.00292195150940902	0.00117672806815186	-0.00345869552004458	-0.0137537786875534
7.1	-0.00804039352224289	-0.00468853656391755	-0.00273191026227793	0.00156730272374533	-0.00272825224632077	0.00157596268931835	-0.00433689906819898	-0.0133421118096419
7.2	-0.00953386258402258	-0.00277317447336523	-0.00247615033547813	0.00193495485525078	-0.00248267582124517	0.00193702960054089	-0.00504486434858252	-0.0127754907477234
7.3	-0.0106924348521986	-0.000574513194208243	-0.00218154657043199	0.00225388203748422	-0.00219275442947727	0.00225892613458602	-0.0055077239457158	-0.0122813007124772
7.4	-0.0114667325743024	0.00183161956279182	-0.00184091473654928	0.00253717454412184	-0.00184780223885969	0.00255077030686571	-0.00598546388783152	-0.0120226138737073
7.5	-0.0117655268436146	0.00437534508652857	-0.00147623209470238	0.00277682853858002	-0.00146924840998769	0.00278422551164664	-0.00636729777726715	-0.0118777038143306
7.6	-0.0114141468884416	0.00689969306812486	-0.00107078819317551	0.00295600836482284	-0.00107215882749599	0.00295131209643579	-0.00669294961035814	-0.0119297388620834
7.7	-0.0105549139842649	0.00921306772850357	-0.00064299023258488	0.00307817096462685	-0.000644329200758302	0.00307710847962164	-0.00727309137566065	-0.0124214465686323
7.8	-0.00894985855146684	0.0111473199814635	-0.00021755061684896	0.00312822695971536	-0.000225362044976297	0.00313467725837751	-0.00813245205345255	-0.0126786649239582
7.9	-0.00679765098442476	0.0125576192133592	0.000223571035676817	0.00313628651134262	0.00023151119349308	0.00313779127543714	-0.00903222270516319	-0.0126088850774116
8	-0.00428967620349267	0.0134401674578782	0.000665620920726522	0.00306502199429078	0.00066569877836655	0.0030699222435208	-0.00996251403239033	-0.0123796109760068
8.1	-0.00158614131822992	0.0137941104161822	0.00107662439591794	0.00294799095905958	0.00109577502730927	0.00294909040453784	-0.0108410654867807	-0.0119343089447075
8.2	0.00108647292793216	0.0136044209102075	0.00148192691457054	0.00276758448811853	0.00149118065155393	0.00276039299502968	-0.0115788468242058	-0.0113015380553379
8.3	0.00364927022798697	0.0128836778348401	0.00185905158810026	0.002528810020463	0.00185740096457201	0.00254236432909952	-0.0121752250003555	-0.01064914137836
8.4	0.00597155608739526	0.0117424076644096	0.00219545837983199	0.00225116381166745	0.00219242686311439	0.00225093806128734	-0.0127576942734561	-0.0100632883693652
8.5	0.00801647426671997	0.0101457141503122	0.00248183149458576	0.00192042227271777	0.00248093316191415	0.00192360700855692	-0.0134322291892892	-0.00940880008244824
8.6	0.00968337814859148	0.00821281927045096	0.00272843531883525	0.00155984128200781	0.00273794010135419	0.00155329920926462	-0.0140513628453775	-0.00867416064834261
8.7	0.0109641374089806	0.005926717464495	0.00291451950789315	0.00115688667406633	0.0029200815932165	0.00115761075822506	-0.0145935909616157	-0.00791584404282901
8.8	0.0117739818023579	0.00338007202692651	0.00305133894489882	0.00074576917796973	0.00305711077862217	0.000737006265662832	-0.0151599589025304	-0.00720039899647954
8.9	0.0121417670057203	0.000569140245173371	0.00312894048200996	0.000311568982634629	0.00312806932463352	0.000309320912805876	-0.0155181143523601	-0.00628915892197452
9	0.0119173280076343	-0.00246316794051707	0.00313886621228811	-0.000131894726836565	0.00314202415362006	-0.000127791778650149	-0.0155838380130527	-0.00530336576636244
9.1	0.0110691625572243	-0.00556962314022011	0.00309282554048598	-0.000573536097652367	0.00309571054988908	-0.000560634357039657	-0.0153823255633339	-0.00443736827124436
9.2	0.00942641791158511	-0.00854571242899333	0.00298348951810014	-0.000991390669756831	0.00299114993576227	-0.000994268033948458	-0.0151192072853178	-0.00377518354963859
9.3	0.00707194817284732	-0.011122419187689	0.0028150576415576	-0.00139700099529872	0.00281432675838528	-0.00140199339073941	-0.0148035590848028	-0.00317540581678538
9.4	0.00410260291468618	-0.013122799675426	0.00259273118251332	-0.0017876691754266	0.00259924505757228	-0.00178006823214018	-0.0145259833547187	-0.00271174937988874
9.5	0.000629223016097714	-0.0142626062123489	0.00231767376901728	-0.00212244850164518	0.00232508885324539	-0.00212379628132437	-0.0143472110847816	-0.00224990189714617
9.6	-0.00312030297284399	-0.014595252657104	0.00200065893690272	-0.00242668110550457	0.00200098890483417	-0.00242569868456119	-0.0144192496190516	-0.00182449005347232
9.7	-0.0069346832914977	-0.0140068942988653	0.00163337051115613	-0.00267785831020192	0.00163890763291813	-0.00268516762541004	-0.0145364639653626	-0.00123024108749186
9.8	-0.0106268500072111	-0.0125831887150641	0.00124817957101741	-0.00288738333889818	0.00125388000440431	-0.00287888143836233	-0.0146438634737374	-0.000532716625619762
9.9	-0.0140025282462584	-0.0102638364283594	0.000842516954820539	-0.00302724974360828	0.000835182545265191	-0.00302602286660651	-0.0147986176425985	0.00029849016871771
10	-0.0168886741903825	-0.00723852557883343	0.000411828812086806	-0.00311704463436923	0.000404335957515018	-0.00312949325457471	-0.0148210492556782	0.00122516641099015
10.1	-0.0190574802933894	-0.00358679277277804	-3.10106405113023E-05	-0.00314891026873551	-4.12468074548651E-05	-0.00314351443151443	-0.0146019250549528	0.00210231069789863
10.2	-0.0204029323980295	0.000473282830097177	-0.00047783768402012	-0.00311221135146218	-0.000481245910581371	-0.00310943068262653	-0.0141823415494101	0.00289874294007852
10.3	-0.0208748117785866	0.00478904065982904	-0.000911005940235518	-0.00300642249282083	-0.000902912606746679	-0.00301550115449505	-0.0136252721594447	0.00353648897832334
10.4	-0.0204246285674825	0.0091463943161492	-0.00130884807788369	-0.00285149441610904	-0.00130715281279781	-0.00285769352124565	-0.0128961732736087	0.00387807335819971
10.5	-0.0191570555218342	0.0134044887324843	-0.00170080602108849	-0.00265233385559809	-0.00169769768462905	-0.00263932768609651	-0.0122432673496407	0.00401344688726314
10.6	-0.0169075113689808	0.0174780525002128	-0.00205371256124597	-0.00238183134334775	-0.00205152621748422	-0.00238565651415663	-0.0117338471467988	0.00411041743201498
10.7	-0.013896036330002	0.0211726956937019	-0.00236898337573352	-0.00207933767900104	-0.00236548545993711	-0.00207405584496079	-0.011314901954864	0.00423564745565266
10.8	-0.010136149650024	0.02428276490335	-0.00263799688829895	-0.00171884716629503	-0.00263279940888267	-0.00172777826441228	-0.0109998319224199	0.00431069519123746
10.9	-0.00566127995353994	0.0267092312524933	-0.00284591154926665	-0.00134435553323063	-0.00285110050766123	-0.00134362214429332	-0.0107541463704042	0.00453894044060147
11	-0.000635336571171015	0.0282678613390414	-0.00300481734489272	-0.000927649675395906	-0.00300966548001168	-0.000934389569684954	-0.0104665489559146	0.00483355477183136
11.1	0.0047320157131435	0.0288272494501242	-0.00311296850424298	-0.000502549276654849	-0.0031021060258914	-0.000499693368602692	-0.0100443312009341	0.00510340008478914
11.2	0.010248091416242	0.028244086121414	-0.00314209194864576	-6.47987615911273E-05	-0.00314924754330109	-6.96332470946063E-05	-0.00944974587914121	0.00531933920897522
11.3	0.0157115170367677	0.0264743744457223	-0.00311513420763908	0.000383896684559003	-0.00312668055711556	0.000373862668422572	-0.00863081640707644	0.00542447241865161
11.4	0.0206491907327254	0.0236377772287372	-0.00304138177041762	0.000811659838734027	-0.00303646485354605	0.000819224644949806	-0.00787628727534313	0.00528320537753884
11.5	0.0249540706006706	0.0198347421858206	-0.0028981042774348	0.00122721877996034	-0.0029008796097218	0.00123749621285801	-0.00732351540181197	0.00486460653550734
11.6	0.0285230681813458	0.0151619477882786	-0.00270377442526385	0.00161759848598126	-0.00270375462058729	0.00162053880745142	-0.00683767512660417	0.00431362587399604
11.7	0.0311519047235315	0.00985946415361228	-0.00244254115930054	0.00197241586288388	-0.00244310262740738	0.0019810215209948	-0.00643178052381722	0.00363920507041567
11.8	0.0327891598021531	0.00413621688973995	-0.00214722940480596	0.00230473857873263	-0.00215134444475017	0.00230643841329388	-0.00616738254057534	0.0029903656574004
11.9	0.0334572128027171	-0.00186055838846753	-0.00179788180450379	0.00258105669066765	-0.00181090328325108	0.00258536834117013	-0.00600613003984776	0.00261674064623913
12	0.0328121163963941	-0.00790337428071874	-0.00142432251130767	0.00280431037037552	-0.00142372603464205	0.00280572213888121	-0.00594727220059254	0.00234554969286422
