# GHZ S RI R 50
0.2	0.00590241115587825	0.0012433111659318	0.00304837312641247	-0.000897860709439689	0.00305874164710968	-0.000891051536964821	-0.0140482651413309	0.00489459216189908
0.3	0.00621789583992589	-0.000704449486166697	0.00290419236515383	-0.00132125944108201	0.00289694568593825	-0.00130832093336468	-0.0132540995514521	0.00509543299280101
0.4	0.00597382587256938	-0.00235098425851961	0.00267260301169537	-0.00169301402267483	0.0026778707672226	-0.00170157442461676	-0.0127333434546936	0.00563937885577914
0.5	0.00526981089731359	-0.00374391876370512	0.00241379346932923	-0.00204969766245857	0.00242533138667495	-0.00206193694592553	-0.0122154681038049	0.00624780279674781
0.6	0.00425917195137608	-0.0048037775462011	0.00210131054744902	-0.00236416192852812	0.00210052448562468	-0.0023713113888873	-0.0117354759867867	0.00681357195916575
0.7	0.00297574733238109	-0.00549719950230469	0.00175421665819678	-0.00264191383545813	0.00175226070746336	-0.00264211278766899	-0.0113852065226591	0.00740830642411739
0.8	0.00164462657975239	-0.00584793377931018	0.00136885775232975	-0.00285930170564452	0.00135625844759434	-0.00286385163224436	-0.0110453759087148	0.00814186189099594
0.9	0.000220817813076626	-0.00582843520979728	0.000951864722370668	-0.00302287001862962	0.000952900517818855	-0.00303356895002863	-0.0106517888025967	0.00892197365813677
1	-0.00115750361102546	-0.00551871992066239	0.000527095046223732	-0.00312632701819266	0.000517233451924857	-0.00312706792139092	-0.0101449092853954	0.00973885743042562
1.1	-0.00252077502205119	-0.00497453565072106	7.1528876291726E-05	-0.00315519031772848	6.80235014844157E-05	-0.00317284094913945	-0.00962380855113814	0.0106183143362974
1.2	-0.00380905051200974	-0.00441166159994766	-0.000370566996306106	-0.0031446574722278	-0.000371378970700183	-0.00314258113717665	-0.00869331246451635	0.0114963985875164
1.3	-0.00516323690077488	-0.00394041000830856	-0.000797671043608176	-0.00306153597941001	-0.000800910905574477	-0.0030635415198889	-0.00715432915785542	0.0121467710087977
1.4	-0.00634365569869868	-0.00334732397735692	-0.00121897719714896	-0.00291338554026158	-0.00121776356597733	-0.00291891869823483	-0.00546141148763481	0.0120391451503031
1.5	-0.00687692275518751	-0.00225164738485254	-0.00161987571472687	-0.00271762285635559	-0.00161826274757569	-0.00272612336420587	-0.00410596173402823	0.0115645634562742
1.6	-0.00681442410101897	-0.00077563410032512	-0.00198050551454782	-0.00246530806545631	-0.00198071589059414	-0.00247054270838353	-0.00353375540349892	0.0114073939461436
1.7	-0.00622870098950193	0.000689057864756954	-0.00230904973413662	-0.0021685395391796	-0.00231001616003951	-0.00216227759280092	-0.00292952587955007	0.0115697992126085
1.8	-0.00533068213206186	0.00208988714656477	-0.00258023800220572	-0.00181711090647585	-0.00259120452189464	-0.00182274940786795	-0.00226573041079878	0.01173257219091
1.9	-0.00415373895995918	0.00315551182409614	-0.00280576897324542	-0.0014464098839221	-0.00281821106851211	-0.00144025708412149	-0.00161368087999238	0.0118864108389496
2	-0.00282074334230588	0.00391358360432111	-0.00298165099293411	-0.00103869195062877	-0.00299127477919335	-0.0010339835936826	-0.000975841954546634	0.0121008333824026
2.1	-0.00137550543066573	0.00427666450859109	-0.00309529930870105	-0.000610135884050889	-0.00309121514550508	-0.000612127798386298	-0.000176877279299363	0.012230101924484
2.2	6.2175448174314E-05	0.00432431831243266	-0.00315278951874445	-0.00017163798874913	-0.00316409550716965	-0.000174474584416008	0.000793232678441094	0.0122247495827495
2.3	0.00143579660766137	0.00393639950090468	-0.00314815439050139	0.000272036759335403	-0.00314785223850549	0.000265152352654736	0.00171626404839162	0.0119587722447829
2.4	0.00262642231752677	0.00326801531228115	-0.00307562017334538	0.000710652892185829	-0.00307816236045003	0.000706394878072625	0.0025564415056103	0.0116493491682825
2.5	0.00360174908664212	0.00231220567485126	-0.00293835054631136	0.00112319484998948	-0.00294924109391362	0.00112957833286409	0.00337974221088792	0.0112332097186844
2.6	0.00439398403542128	0.00116978946534316	-0.00276411601937719	0.00152644797695332	-0.00276056118588304	0.00151412158853399	0.00419665014616616	0.0107295036506362
2.7	0.00503570825184094	-0.00013037705653202	-0.00251780140505054	0.00189793136635886	-0.0025230826619062	0.00189794395648383	0.00485548730988131	0.0101348920595421
2.8	0.00555184073933689	-0.00162013862942269	-0.00223441958667582	0.00222543056520032	-0.00222660055616173	0.00223521960739124	0.00537851327699298	0.00966434399857215
2.9	0.00588881557908918	-0.00333134581190634	-0.00189956977077845	0.00252546494022184	-0.00189586019771042	0.00252503638053188	0.00607829763137304	0.00935987283872478
3	0.00583805676121897	-0.00523460073870718	-0.00151277931800659	0.00276060291899491	-0.00152755945523816	0.00276670998156616	0.00695912869040795	0.00903583864841674
3.1	0.00538801695573261	-0.0071899644920527	-0.00112209863296643	0.00293734546567477	-0.00111743722866951	0.00294568690741644	0.00781305253670585	0.0085234123336331
3.2	0.00436983268622069	-0.00909245568238979	-0.000701249851885265	0.00307403509360745	-0.000702994795406423	0.00307342524151392	0.00843309979567726	0.00801234467274205
3.3	0.00288151574415259	-0.0108839054864347	-0.000262600484565505	0.00314332145635637	-0.000260953490860676	0.00313958018954988	0.00912378191090308	0.00740400897418421
3.4	0.0008697132116051	-0.0122957469841463	0.000184326220432061	0.00313671659597852	0.000178129274557052	0.00315328527605527	0.00978967574125548	0.00656805815949106
3.5	-0.00147470163383674	-0.0133188426080688	0.000606102104410325	0.00309334506569443	0.000611698169238633	0.003093417652733	0.0101783550255602	0.00548585574014186
3.6	-0.00409285181171944	-0.0137757958721751	0.00103452858760583	0.00297364652959452	0.00104272063792372	0.00297332461616012	0.0103536978895659	0.00457560081609138
3.7	-0.00676799878307811	-0.0136504280566901	0.00144501298446917	0.00279218423042554	0.00143543401002811	0.00280586589754325	0.010558442206557	0.00373477433288057
3.8	-0.00940022655625801	-0.0129452143378924	0.00182301117757859	0.00256458522049742	0.00182542080285374	0.00257373406443227	0.0106902566363646	0.00288899595096728
3.9	-0.0117581805190636	-0.0117257090778379	0.00216865964483772	0.00229102063566256	0.0021613928717279	0.00228924561993551	0.010728393868465	0.00207294193515848
4	-0.0138267603543827	-0.0101036717380808	0.00245315199911687	0.00196940283670015	0.00245759944751343	0.00196696556026816	0.0107825136725473	0.00139716465868189
4.1	-0.0155508496171233	-0.00814607944003228	0.00270484602541369	0.00160902438748547	0.00270359389271885	0.00160976102447029	0.0109910878207659	0.000774995810887839
4.2	-0.0169409120837806	-0.0058728579882912	0.00290371618558876	0.00120736536523861	0.00290817612298503	0.00119864636047521	0.0112358908598438	6.00103010484345E-05
4.3	-0.0179203698051024	-0.0034279737761488	0.0030462622449778	0.000794875396882689	0.00305267903226167	0.000787068025813292	0.0114299459098279	-0.000835403363002049
4.4	-0.0185669380318355	-0.000780429742344654	0.00312197991162024	0.000360462972651393	0.00312435241908608	0.000358204793321747	0.0114152272616833	-0.00174646595584759
4.5	-0.0187673744121394	0.0020255324381167	0.00314403358982147	-7.76981692237269E-05	0.00314939059994432	-8.10753150472637E-05	0.0113579680141106	-0.00261000459251917
4.6	-0.0185280236726398	0.00485456723158716	0.00309923240524792	-0.00052049061837538	0.00310047172621364	-0.000507581133217601	0.0111958623296213	-0.00354970501664154
4.7	-0.0176855349143237	0.0076833389387299	0.00299328620907125	-0.000939091064107357	0.00300855885803553	-0.000948718269510629	0.0108712593769572	-0.00448242519991813
4.8	-0.0163439823659531	0.0103314511629576	0.00283154528632914	-0.00135278119972121	0.00284001474609908	-0.00135887528226393	0.0104471859995786	-0.00528357497034528
4.9	-0.0143232910734393	0.0126675670645255	0.00261022679457804	-0.00173635094116784	0.0026143934698923	-0.0017334513839514	0.0100559974043398	-0.00591373642660751
5	-0.0118405780867277	0.0144583924258467	0.00235006118217657	-0.00209077581452132	0.00235368302240279	-0.002088116663553	0.00994040173272224	-0.00644334611564708
5.1	-0.00888392877001273	0.0156991481173226	0.00203900567963062	-0.00240054604606277	0.00204130573402854	-0.00239919146173677	0.00995229758850977	-0.00714212577939297
5.2	-0.0058285449414274	0.0162478082053063	0.00168137312013219	-0.00264954915381088	0.00168308027130655	-0.00265468865503516	0.00987908441436885	-0.0079230160476317
5.3	-0.00277332555436926	0.016184839976993	0.00129482999222786	-0.0028640653568555	0.00129796092714459	-0.00286200743053377	0.00971682454727626	-0.00865217365041515
5.4	0.000106918916573624	0.0155766590394534	0.000870395489909945	-0.00301069954583077	0.000887532390920815	-0.00302190843619522	0.00952717677391795	-0.00953570119951645
5.5	0.00268054587860945	0.0145293248418794	0.000457361993683038	-0.00310780217592899	0.000467396012155477	-0.0031172260561506	0.00907102087143881	-0.0105394191787149
5.6	0.0049216881175323	0.0130876874654421	1.95651945461288E-05	-0.00314329521160855	1.10482326679828E-05	-0.00314650420082105	0.00824954639780894	-0.0113650829822741
5.7	0.00672526943231679	0.0113517796887395	-0.000410697167041586	-0.00311234292435035	-0.000427290293248951	-0.00311598843989855	0.00725492274270051	-0.0118759962259364
5.8	0.00813081102316025	0.00936340913167832	-0.000855726409578774	-0.00301712519228968	-0.000859265158952459	-0.00303109340276048	0.00628608979757253	-0.0123475510139782
5.9	0.00905508037733842	0.00725144134887848	-0.00125974673446015	-0.0028770290157625	-0.00126796585746486	-0.00287694313944748	0.00518022148155059	-0.0127010055003727
6	0.00948718659821507	0.00499101478902129	-0.00165709670197694	-0.00267079403397691	-0.00165354059699163	-0.00267096220494104	0.00394638646130323	-0.0127951260142549
6.1	0.00944430525128798	0.0026853224144427	-0.00201132954720698	-0.00241642337723467	-0.0020129646352728	-0.00241242403217832	0.0029710230171287	-0.0125967698918385
6.2	0.00891853909374567	0.000356653785355198	-0.00232325960288654	-0.00210350425804135	-0.00232696895981427	-0.00211535577102164	0.00231398506190551	-0.0124896851954855
6.3	0.00799868193348044	-0.00190594634457898	-0.00260018720570199	-0.00176939118880397	-0.00260929883143099	-0.00176365682075436	0.00180798736553746	-0.0126550103876586
6.4	0.00658173493444816	-0.004033123072198	-0.00282565942603032	-0.00137927418239902	-0.00281595234993613	-0.00138417342114813	0.00132687218133026	-0.01295843273259
6.5	0.00479869265154551	-0.00582501325293603	-0.00298154212778964	-0.000974974687268963	-0.00298938875641734	-0.000970497529512339	0.000866793139284992	-0.0133848158198341
6.6	0.00270995416788768	-0.00708169192048192	-0.00308917928062759	-0.000550829200446836	-0.00309081098833576	-0.000554798901512898	0.000323624879745805	-0.0138636866270587
6.7	0.000457092127642951	-0.0077394583003694	-0.00313946120013741	-0.000114002259340509	-0.00314829910537271	-0.000107732407870355	-0.000578983585231168	-0.0142205646254184
6.8	-0.00186507240216296	-0.00778935572033195	-0.00311787264175419	0.000326436480854257	-0.00312894646683367	0.000331476845375625	-0.00164456429313964	-0.014238725170451
6.9	-0.00414689855555258	-0.007267559553458	-0.00304267176324868	0.000758741049012156	-0.00304565367421099	0.000761127519347872	-0.00261390292539676	-0.0140129317961658
7	-0.00620185895325485	-0.00619562762698107	-0.00290640245123893	0.00117844300767226	-0.00291920962154231	0.0011762492013408	-0.00345897015261939	-0.0137418957956693
7.1	-0.00803443296807719	-0.00468376285400485	-0.00272928369423839	0.00156626771589828	-0.00272562779716277	0.00157491952569748	-0.00433555093561985	-0.0133302740536805
7.2	-0.00952587090052324	-0.00277035478769642	-0.00247376431000238	0.00193338365222642	-0.00248028373024051	0.00193545699746701	-0.00504189740156677	-0.0127639300402318
7.3	-0.0106826859818359	-0.000574290268288557	-0.00217950156744668	0.00225183759892174	-0.00219069901921004	0.00225687721654697	-0.00550316466993706	-0.0122699641409246
7.4	-0.0114610842154488	0.00183110300848807	-0.0018393104923274	0.00253472276153093	-0.00184619217770848	0.00254830552040405	-0.00598705653559128	-0.0120122435184886
7.5	-0.0117603887004767	0.00437267016839307	-0.00147513870696538	0.00277405655361014	-0.0014681623871173	0.00278144730810012	-0.00636650759797782	-0.0118677660053036
7.6	-0.0114047301786952	0.00688598819167356	-0.00107027681411513	0.00295303273949622	-0.00107164535718938	0.0029483406781227	-0.00667709886645292	-0.0119211109120453
7.7	-0.0105487573349446	0.00920313112662373	-0.00064310123767663	0.00307511270414593	-0.000644438692828689	0.0030740509104167	-0.00726539504797556	-0.01241324323996
7.8	-0.00894672213943004	0.0111357627495106	-0.000218278231543905	0.00312522190006299	-0.000226084239608278	0.0031316638085474	-0.00812475588518152	-0.0126703963826008
7.9	-0.00679762458337888	0.0125420383819006	0.000222224804443181	0.00313344857829631	0.00023015702596788	0.00313495482329628	-0.00901442697074801	-0.0126038258623111
8	-0.00429139359690597	0.0134310086919355	0.000663698854414385	0.00306249692570315	0.000663774543356735	0.00306739271579767	-0.00995380144895877	-0.0123673400728687
8.1	-0.00159000806989543	0.0137823391151694	0.00107420436346292	0.00294587235039253	0.00109333724416929	0.00294698024400874	-0.0108248778601574	-0.0119295498878208
8.2	0.00107928412913472	0.0135938937119083	0.00147908767475858	0.00276598626513339	0.00148833731358472	0.0027588062239148	-0.011561939420003	-0.0112984546051588
8.3	0.00363947830362191	0.0128753436923683	0.00185590587661843	0.00252781829496706	0.00185424824451775	0.00254136008236382	-0.0121576623083733	-0.0106480472750836
8.4	0.0059598969461853	0.0117368275570041	0.00219212997008617	0.00225082498283626	0.0021891010816994	0.00225059734754307	-0.0127396574437287	-0.0100643625896055
8.5	0.00800378930176438	0.0101433588795822	0.00247846943125434	0.00192076969178199	0.00247756943195793	0.0019239512772227	-0.013413960220352	-0.00941229864516244
8.6	0.00967056417439198	0.00821392171823238	0.0027251692053995	0.00156087771576557	0.00273467221567328	0.00155434809801813	-0.014033296546246	-0.00868012104048245
8.7	0.010952360511364	0.00593153849255795	0.00291150611158276	0.00115858773199039	0.00291706372027219	0.00115931609075935	-0.0145757011667237	-0.00792319437969352
8.8	0.0117642584137068	0.00338861005900606	0.00304869510889121	0.00074807504692977	0.00305447122932058	0.000739323041278172	-0.0151430779093721	-0.00720992942588816
8.9	0.0121355089574665	0.000580982940115764	0.00312679567046717	0.000314402573290867	0.00312592719441746	0.000312154988535085	-0.0155026891794273	-0.00630038488604385
9	0.0119160515664211	-0.0024492843206484	0.00313733119970914	-0.000128646337400394	0.00314048330787453	-0.000124542372674238	-0.0155700262666698	-0.00531569107115468
9.1	0.011070830190453	-0.00555728276573925	0.0030919787582482	-0.000569996429026722	0.00309484877049389	-0.000557097700028662	-0.0153705000430776	-0.00445218643195024
9.2	0.00943251905467535	-0.00853406191212322	0.00298337152595835	-0.000987712393228249	0.00299103200520092	-0.000990580178807034	-0.0151092015007347	-0.00379060999322803
9.3	0.00708215253151973	-0.0111127029927973	0.00281569857257765	-0.00139333513266779	0.00281497360405163	-0.00139832668135205	-0.0147953590502807	-0.0031910994763856
9.4	0.00411566220937744	-0.0131145655529703	0.00259413554650341	-0.00178416808620583	0.00260063882164183	-0.00177656153840658	-0.0145206907186985	-0.00272761953551036
9.5	0.000643633611349421	-0.0142599348986569	0.00231977511442614	-0.0021192730537249	0.00232719040802615	-0.00212061170423055	-0.0143446050466185	-0.00226704910651761
9.6	-0.00310495307178947	-0.0145967040079178	0.0020033963653959	-0.00242396791166384	0.00200372509748256	-0.00242298519802926	-0.0144187489216566	-0.00184103481563686
9.7	-0.00691945551105458	-0.0140128311413672	0.0016366355187585	-0.00267574811937358	0.00164218151763296	-0.00268305033817203	-0.0145376993380534	-0.00124594504433585
9.8	-0.0106127729413189	-0.0125937478860817	0.00125185730879654	-0.00288596249354758	0.00125754737542943	-0.00287745303447866	-0.0146463681697938	-0.000547471392323551
9.9	-0.0139933272268066	-0.0102837652977828	0.000846444212092716	-0.00302658923585738	0.000839107283671104	-0.00302537144046048	-0.0148010439835568	0.000279863682491416
10	-0.0168853281721203	-0.00726243029277518	0.000415854905331534	-0.00311720130476251	0.000408376145866588	-0.00312966209098874	-0.0148255803948749	0.00120605179139604
10.1	-0.0190613022122253	-0.003612815304753	-2.70528271930448E-05	-0.00314990221691896	-3.72988896804817E-05	-0.00314451764305834	-0.0146088552987136	0.00208317716048083
10.2	-0.0204145054923515	0.000447380406671806	-0.00047412999919642	-0.00311401860853791	-0.000477543028900681	-0.00311124112276618	-0.0141916971682625	0.00288026885571996
10.3	-0.0208939397110312	0.00476573611014034	-0.000907721652601362	-0.00300897606055426	-0.000899613252984836	-0.0030180490266917	-0.013636735797088	0.00351932520817937
10.4	-0.020450317785004	0.0091279393633256	-0.00130611538294304	-0.00285468430164959	-0.00130441163121261	-0.002860884821506	-0.0129090536360202	0.00386280509576387
10.5	-0.019141941660101	0.0134323435656573	-0.00169874166306662	-0.00265607214688496	-0.00169564682452194	-0.00264305388227716	-0.0122680187833259	0.00404677396292647
10.6	-0.0169414881556898	0.0174742600184662	-0.00205245716311887	-0.0023859459126486	-0.00205026479856325	-0.00238977134763269	-0.0117482599237548	0.0040991020093478
10.7	-0.013982702064924	0.0211479704639623	-0.00236859565563826	-0.00208367986715865	-0.00236510078144957	-0.00207838981639341	-0.0113237305944425	0.00417541712160333
10.8	-0.0101138661106593	0.0243103114798064	-0.00263849309076458	-0.00172320809085475	-0.00263328139943719	-0.00173214153693794	-0.0110087259647731	0.00436249492442573
10.9	-0.00568789159177384	0.0267264929821685	-0.00284730179014902	-0.00134857739428719	-0.00285249654493866	-0.00134784860670713	-0.0107627672214357	0.00453529827539227
11	-0.000657913509026564	0.0282927045309836	-0.00300706825669563	-0.000931532289914554	-0.00301191494525322	-0.000938283944069043	-0.0104750854727732	0.00483014077567058
11.1	0.00471532861245873	0.0288587169404165	-0.00311600153286458	-0.000505937152146479	-0.00310512947117218	-0.00050306818688706	-0.010052971912458	0.00510011426261583
11.2	0.0102395258311845	0.0282808214024584	-0.00314577647716222	-6.75178014836653E-05	-0.0031529365218721	-7.23640564673046E-05	-0.00945850000928214	0.00531637241833576
11.3	0.0157090443877284	0.0265247110525538	-0.00311933988989809	0.000381983486576476	-0.00313089301904672	0.000371927996877213	-0.00865319490530614	0.00542492546632061
11.4	0.0206597583108371	0.023688940132631	-0.00304594678091531	0.000810623055607198	-0.00304102862823496	0.000818201222280767	-0.00789831941285805	0.0052875972402225
11.5	0.0249787745446263	0.0198759655747	-0.00290283205272308	0.0012271323813061	-0.00290561747432268	0.00123742222501137	-0.00733384198706889	0.00486775134273109
11.6	0.0285585272197839	0.0151959431973259	-0.0027084743492102	0.00161848141293916	-0.00270845606108782	0.00162142593173641	-0.00684532117830403	0.00431594344669497
11.7	0.0311970348613888	0.00988319216805304	-0.00244699082073649	0.00197425144451268	-0.00244755686251292	0.00198286950843598	-0.00643575232744735	0.00364024033684785
11.8	0.032844061495202	0.00414496144094263	-0.00215126088455253	0.0023074854798845	-0.00215538272140816	0.00230918647470976	-0.00616264120464775	0.00298841832609205
11.9	0.0334959044205993	-0.00184545660689693	-0.00180129170709687	0.0025845996817193	-0.00181433434860766	0.00258891478906648	-0.00603105701591379	0.00262609160178882
12	0.0328717667158788	-0.00793073484830391	-0.00142696993390127	0.00280851546364017	-0.00142637272362594	0.00280992953961082	-0.0059401845299592	0.00232693035209055
