# GHZ S RI R 50
0.2	0.000748903415464682	0.00248061800168421	4.79495342859128E-06	-2.98519364251504E-06	-1.37309579920592E-05	1.31212433097291E-05	0.999591349196115	-0.00685242651810222
0.3	0.00122194878609013	0.00175987716470688	2.86549192427466E-06	6.62829310925681E-06	-1.66258319622686E-06	-9.32325729056381E-06	0.99952991080042	-0.00969775187197695
0.4	0.00154136570065289	0.00130932737878084	-1.86283651729536E-06	-4.01741295765199E-06	-9.01890051221263E-06	4.40434927447466E-06	0.999586364413935	-0.0123512026470134
0.5	0.00170064909175412	0.000897676681215665	-5.36003074931637E-06	3.26407899395544E-06	-2.12697802309188E-06	6.75913345994831E-06	0.999328381581618	-0.0154937215360077
0.6	0.00181253606509851	0.000568643534603538	-1.40003269775264E-07	2.80643767267072E-06	-5.81590578698368E-07	-1.34202817758977E-07	0.999419938244335	-0.0183161342650927
0.7	0.00182042605930745	0.000311013769544553	8.75920364461017E-08	2.21977162474379E-06	4.90546180482004E-06	-3.40180029956407E-06	0.999157415736003	-0.021288928201131
0.8	0.00186214770885372	8.35235562355783E-05	4.52990967997083E-06	8.27084815296929E-07	2.74457774496608E-06	2.00173215341531E-06	0.998931272580071	-0.023491591155385
0.9	0.00182472189956899	-0.000123348617350781	-1.51063214582673E-07	-4.220133300048E-06	-3.4187756750716E-06	-3.11148910812651E-06	0.998821667862725	-0.0259079649389984
1	0.00176553564931039	-0.000334649037198023	1.06001686467983E-06	4.29385623087143E-06	3.32838375234316E-06	9.34324042491108E-07	0.998573021778886	-0.027518509117526
1.1	0.00157743061404068	-0.000560427190535609	9.04665697356273E-06	5.19223385302787E-07	-3.57956701486622E-06	-4.99746292274451E-07	0.998333458651617	-0.0294742053206827
1.2	0.0012917520276586	-0.00101347476576208	3.76251030342934E-06	-1.19988163643117E-06	-4.09818477412775E-06	-2.43915042175827E-06	0.997855721154013	-0.0303592944762525
1.3	0.000737759561113524	-0.00174150348926626	-7.62019344448121E-07	-1.42769831044491E-06	-2.58831674262707E-06	-8.71194185340718E-06	0.998241857505537	-0.0310553465765509
1.4	5.17694057289652E-05	-0.0025854682361834	1.43620900938284E-08	3.44998536689782E-06	-4.28478708891137E-06	-4.13007449157742E-06	0.998257447187999	-0.0330819893555295
1.5	-0.00041211144861228	-0.00310661276529467	-1.29887982966066E-06	4.432794883563E-06	6.55681737638435E-06	-7.41876506425937E-06	0.998798810734363	-0.0366086026169914
1.6	-0.000687930636528437	-0.00327660087883189	1.6305982578393E-06	-4.89392032405093E-07	4.24490157047824E-06	-5.39748097407076E-06	0.998226084109734	-0.0402412648200049
1.7	-0.000832553472281152	-0.00331162671644119	5.318078336215E-07	3.95962127956001E-06	-8.28933524121552E-06	3.13154555739542E-06	0.998330352716071	-0.0429302150233402
1.8	-0.000959649917465206	-0.00324733660399549	1.83341119841977E-06	1.07887273995265E-06	5.65661735316252E-07	-1.76281055883221E-06	0.9981309384228	-0.0457684027028194
1.9	-0.00109697824038862	-0.00326034136593061	3.23788011908536E-06	3.01921755984586E-06	-1.83224354963553E-07	-2.33148361891624E-06	0.997859739915475	-0.0480798139283383
2	-0.00129109369370643	-0.00328522550163562	-1.72855740084996E-07	2.00545435262918E-07	-1.21705250410902E-05	5.42093803876416E-06	0.997338229098304	-0.0508415598664944
2.1	-0.00151028051395802	-0.00334277499319149	6.67954152683261E-07	-1.38332677755711E-06	1.38179596010673E-05	4.96268412955225E-06	0.997033730163056	-0.0531461564311415
2.2	-0.00181938571279382	-0.00337694106262565	1.64433830718439E-06	-1.51838621369423E-06	2.68419014587351E-06	-6.21469481939087E-06	0.996958900005984	-0.0555773149791305
2.3	-0.00223071308872191	-0.00341087541769359	-1.69038166771393E-06	-3.42707793466535E-06	-1.79440134763919E-06	-4.59228435727903E-06	0.996605490218467	-0.0574150071036245
2.4	-0.00270963160517788	-0.00339896073523958	-1.20675623017714E-06	-4.40138022562582E-06	3.04796024177829E-06	1.08479915243926E-06	0.996555540622132	-0.060510286422104
2.5	-0.00325989735842993	-0.00328862837059184	5.3883009816756E-06	5.66669301229766E-06	-2.59687306401892E-06	1.61544034015103E-05	0.996150495907433	-0.0627681176380151
2.6	-0.0037559280851854	-0.00301471322986354	-2.27538315009927E-06	2.71416020230006E-06	4.3084823724677E-07	-4.31300569346673E-06	0.996138311372455	-0.0656257637379906
2.7	-0.00404721662788626	-0.00262493414068431	-2.41014879871592E-06	-3.63586440830032E-06	2.15333822744339E-06	-2.57303364072433E-06	0.995714750551694	-0.0686184230706315
2.8	-0.00413558247426128	-0.00222894438473049	4.00512787368277E-06	2.30888798734334E-06	9.83343959438083E-06	-6.96431448094801E-07	0.995846233483245	-0.0706154872726766
2.9	-0.00399668602680466	-0.00193208143137207	1.28835040195621E-05	6.97748226983958E-07	2.42927180749103E-06	-1.17204969246213E-05	0.995607173164182	-0.0726859116796147
3	-0.00378885701656323	-0.00181017456893184	-3.85301563100796E-06	1.05082918858767E-06	-4.14775932987146E-06	-1.59443028696487E-06	0.995504249700755	-0.0752322979625269
3.1	-0.00357996740865394	-0.00181150511963107	4.76986397491324E-06	-9.849096985466E-06	1.0686313753075E-05	2.39948630033704E-06	0.995239226804692	-0.0772658676342108
3.2	-0.003507824494117	-0.00193403721952152	-5.37810390912661E-06	-7.40368812887683E-06	1.5642619757588E-05	5.37077234017919E-06	0.99504157601007	-0.0791224830081369
3.3	-0.00356461324079425	-0.00210642544359743	-8.79008681119885E-06	2.55363348248555E-06	-8.56732566920543E-06	-1.73225626499072E-06	0.994851179334217	-0.0824261404388466
3.4	-0.00380106448854732	-0.00225742802255036	9.05268227938655E-06	-7.56978796567585E-06	-7.34117242822371E-06	4.24150554931377E-06	0.994804170919145	-0.0844329148384561
3.5	-0.00413797812019631	-0.00237206799346601	3.13602384288607E-07	-5.32125655230453E-06	-4.40661178208947E-06	-8.92431808868047E-06	0.994614844683759	-0.0872857365226235
3.6	-0.00453867704997906	-0.00232467355525651	4.07510592041116E-06	4.89562319019473E-06	-7.09885215950378E-06	8.99653198922495E-06	0.994249211501174	-0.0898290057762262
3.7	-0.00492274360661795	-0.00215558395063815	1.52413555898891E-06	-4.5262947458443E-06	-5.10617967217195E-06	-6.58026693856731E-06	0.99403912031559	-0.092494854364719
3.8	-0.00523021949708085	-0.00188445528485154	7.27252768111703E-06	-5.19854814046276E-06	-5.87879532494803E-06	-2.41346047167551E-06	0.993645929075528	-0.0945211329426683
3.9	-0.00537731034706249	-0.00155447472596628	-4.02801092506327E-06	-3.4780707440659E-07	-2.52887922603348E-06	1.13384358341629E-06	0.993550858842506	-0.0976150783443683
4	-0.00542374674296893	-0.00129639801491457	-3.38317724705261E-06	-8.03335704477949E-08	1.2085955470617E-06	8.66647833337928E-06	0.993275867750715	-0.0990837017503128
4.1	-0.00541556128511713	-0.00107814361814687	-2.90197843602836E-06	-3.85805431641126E-06	5.87938412826646E-06	3.03348968883398E-06	0.993095130556695	-0.100905529165204
4.2	-0.00542955495327904	-0.000955959817224826	-7.74473108655884E-07	-2.15594130101334E-06	5.69705997680519E-06	-1.84697852924789E-06	0.992552996616107	-0.103568116050071
4.3	-0.00548700827806428	-0.000853186717882129	-5.08583785699065E-07	3.2342739751574E-06	2.13004301439299E-06	1.77803862647352E-06	0.992371842432528	-0.105572757604884
4.4	-0.00567587486739945	-0.00076039532617984	2.57777170095772E-06	3.4388613558832E-06	7.18208435401273E-06	3.90539711271566E-06	0.991994247517376	-0.107913481537703
4.5	-0.00591787896630878	-0.000567883249769132	-6.46902492853999E-06	-2.25573910741313E-07	-8.57728591303416E-06	-2.10625814181871E-06	0.991845664088276	-0.109987115952811
4.6	-0.00625503623640293	-0.000316409078607492	-9.94456683987421E-06	-9.2154908074941E-06	3.23264651461692E-06	-2.73091245798508E-06	0.991619355682348	-0.112774864180351
4.7	-0.00649390507515967	6.72209083968267E-05	1.27025922071888E-07	1.86423480093604E-06	6.05445910435746E-06	-6.73421625413721E-06	0.991526021104456	-0.114836069452752
4.8	-0.00664956167785375	0.000519936674344477	-6.39026589433089E-06	2.08194495495925E-06	7.76643853411872E-07	-1.27425690495893E-05	0.991132513307947	-0.117329933121098
4.9	-0.00660025228282657	0.000974383466314295	-3.41948813117676E-06	8.14106507826741E-06	5.69005503868119E-07	9.3718642206685E-06	0.990695294073812	-0.119133008877017
5	-0.00636570694495263	0.00129643223933301	9.63641432718738E-06	-4.06495426861442E-06	-6.93081975944717E-06	3.5797014514302E-06	0.990575571229887	-0.120667104470727
5.1	-0.00601024133773878	0.00148942335259001	-3.68176157618487E-07	-3.25037963230683E-06	-3.87350650224751E-06	-1.78969219864357E-06	0.990598984466509	-0.122077438119464
5.2	-0.00566107160304249	0.00153111898735105	-1.06894250532799E-06	-4.4840497419493E-06	8.78475076906789E-06	5.5701112698616E-06	0.990416332402931	-0.124278797037448
5.3	-0.00539307642396925	0.00149491643779472	2.28814173403187E-06	6.78822296021242E-06	8.7908039204687E-06	3.12798529190341E-06	0.990243152248735	-0.126600040800484
5.4	-0.00523708769520235	0.0014571227271642	2.70370892708625E-06	-3.14084989425537E-06	-2.67304929192136E-06	1.54460246995892E-07	0.990238781702949	-0.129421689021767
5.5	-0.00523114280539766	0.0014836450068649	2.10904912270473E-06	9.31352846102065E-06	-3.9214331994062E-06	-5.03076669353274E-06	0.990038628911894	-0.132278204327834
5.6	-0.00527921725461545	0.0015953876058355	-5.85319367368168E-06	-1.13198865934866E-06	4.87071598533461E-06	1.9421492551235E-06	0.98976334794492	-0.134810004934931
5.7	-0.00543069891412008	0.00179981191631641	3.33532571465733E-06	-1.42287216384754E-06	-5.04655945474743E-06	-4.29023511362355E-06	0.989495343632873	-0.13732739415758
5.8	-0.00556531742878047	0.00209486812844973	-2.05410003175409E-06	-4.74433963579657E-06	9.46033071034242E-07	-5.82053806781497E-07	0.989297561065538	-0.13957879317242
5.9	-0.0056924190960121	0.00250515552683046	-3.87771907210444E-06	6.19999764194204E-07	3.86122580594523E-06	1.24803693510569E-06	0.989001170832774	-0.14189296723797
6	-0.00580210458006413	0.00290918670491207	-5.9319831112701E-06	5.04723925446683E-06	-1.48410371707369E-06	1.96844678347356E-07	0.988514300460104	-0.143663412930026
6.1	-0.00585407231896475	0.00332609489002087	-5.92764970397176E-06	-4.69370798893533E-06	-4.00492117332992E-06	4.33709123027757E-07	0.988344751165266	-0.144959809037792
6.2	-0.00583811227568438	0.00363348152887839	2.82033291526617E-06	3.12383648441791E-06	1.05260828212143E-06	7.22327120559559E-07	0.988093126050809	-0.146410202759505
6.3	-0.00569854852865937	0.00383578355301868	1.64075304076546E-06	-7.48314162635975E-07	-1.33002559053892E-07	1.37524433994422E-06	0.987732333084619	-0.14840462437197
6.4	-0.0056058101600594	0.00387004836197225	-5.18357944317475E-06	-5.61785365306385E-06	3.81566675426966E-06	6.90658471860018E-06	0.987274999751538	-0.150521764176306
6.5	-0.00549276759906683	0.00385565108004114	9.06510864291035E-06	-2.4869908763958E-07	-7.32189243818257E-06	-8.97344415645185E-07	0.98707327622457	-0.153155770929157
6.6	-0.00541657078132743	0.00390033826475967	-1.48798672167337E-06	4.65889690721771E-07	3.37484220379403E-06	-9.37663614290489E-06	0.986888608396642	-0.155838503590617
6.7	-0.00533681648104429	0.00405480610824008	4.44281628174182E-08	7.74831141351789E-06	-4.91325272670371E-07	-6.08366355834278E-06	0.986529471895413	-0.158251972491298
6.8	-0.00525883873671083	0.0042809190933567	4.24500791706417E-06	1.65841926269883E-06	2.17112091037044E-07	-5.2331504821587E-06	0.986076768799624	-0.16059302424646
6.9	-0.00518463325782424	0.00457706728566335	-7.55309369328064E-07	2.47351668367946E-07	5.75902111096666E-06	-2.67621862080672E-06	0.985653658606283	-0.162736223259861
7	-0.00504663840153918	0.00493902094654782	8.02249548729111E-06	-4.75080884797754E-06	4.36583818833234E-07	-3.01918585116406E-06	0.985003470264196	-0.164570724701695
7.1	-0.00491598443629357	0.00526283113114188	3.84432816591564E-06	2.0450898865734E-06	7.69211382849487E-07	7.22876103411643E-06	0.984485822480705	-0.166236994866345
7.2	-0.00479509364150185	0.00560113447278804	-2.45018984026919E-06	3.68988692217451E-06	-1.33032113836651E-06	-3.82765151353932E-06	0.983876911598474	-0.167961650442214
7.3	-0.00474441463035426	0.00592970807443198	3.43960534509787E-06	-4.92105602345997E-07	-2.44876366763055E-06	-1.91870240655198E-06	0.982881811395964	-0.169700632952565
7.4	-0.00481793224646675	0.00623742934334999	-6.18667949229398E-06	-2.70118131336603E-06	3.76971607698895E-06	2.48409812071468E-07	0.981964507455445	-0.171901802103595
7.5	-0.00491642482409341	0.00659133524742484	6.75538918270349E-06	-6.42998504982749E-06	-2.47783044643976E-06	7.98646350574658E-07	0.981095749211129	-0.174272455430114
7.6	-0.00491600154958267	0.00697824068271212	3.47723117053142E-06	5.20359215159177E-06	-1.0240227175454E-05	4.91493132362895E-06	0.980491473848108	-0.177211462387896
7.7	-0.00491348621734327	0.00729778521069402	6.01150614840163E-06	1.09370432673865E-05	3.44480805605617E-07	-1.1349672065178E-05	0.980032518773307	-0.180357573728992
7.8	-0.0046194481705803	0.00747494352920706	2.15338709170382E-06	9.8552986608376E-07	-3.11319998790491E-06	8.81091865321643E-06	0.979772598189516	-0.183511472401326
7.9	-0.00415361582206522	0.00748525428730712	2.55378029190805E-06	-2.30945196091032E-06	3.68529711848892E-06	3.46596178460507E-07	0.979632190805331	-0.186716136602729
8	-0.00363648205459325	0.00737480009212852	-2.81370611997911E-06	1.3260384119135E-06	6.8776719100743E-06	-1.85089438876765E-06	0.979245841043112	-0.189765769316855
8.1	-0.00316678106553138	0.00722214972850204	-1.79148297363777E-06	7.53896194141514E-07	-3.70647959914295E-06	-1.25640365099987E-06	0.978778888323837	-0.192431965990059
8.2	-0.002832608258626	0.00704398742512163	-7.98125063732492E-07	6.33162389791427E-06	4.87184311924152E-06	4.35585587256967E-06	0.978515888242633	-0.194844770792436
8.3	-0.00259213123795845	0.00691977314538413	-8.47995424268664E-07	-1.42094150891086E-05	6.82082719911055E-06	5.42831596814302E-06	0.978000303689219	-0.197645118096948
8.4	-0.00246030229794747	0.00692176623826948	3.75989120652418E-06	-3.42593106282066E-06	-6.96811906947093E-06	-1.22113413741734E-06	0.977287773803326	-0.200345125425635
8.5	-0.00233851344509368	0.00700750219146738	4.67140453084429E-06	5.88735323588644E-07	8.41443140814977E-06	-6.82443336064013E-06	0.976595949672221	-0.203052032404738
8.6	-0.002213977861607	0.00720094813365793	-3.27005534041667E-06	4.11324798858607E-06	1.00142142272164E-06	1.10931655172853E-05	0.976098988170749	-0.205684293339454
8.7	-0.00196812591562143	0.00741556354405933	2.68404052795571E-06	-1.99760222482895E-06	4.78823052069297E-07	-5.53475868255623E-07	0.975725076828914	-0.208281542071832
8.8	-0.00160826201226026	0.00763130700613059	1.22461579416268E-07	-1.25303492459628E-06	-9.75434308027169E-07	9.76762759694394E-06	0.975273178037645	-0.210565340208843
8.9	-0.0011082455654554	0.00770440238172227	-3.66495969798085E-06	2.29184418574808E-06	4.83455953301523E-06	-1.80181346012119E-06	0.975258754501518	-0.212602740088805
9	-0.000539511251263935	0.00755126835664101	-1.89077284064562E-06	4.96334129636768E-07	-3.20288882395567E-06	-1.05399822873363E-05	0.975138958189112	-0.215000599293954
9.1	7.7618092888094E-07	0.00714930266059858	5.25229012256265E-06	5.93533621157684E-07	9.12849720210548E-07	3.82563303416568E-07	0.974821997777057	-0.217226920010684
9.2	0.00036926296385455	0.00661733531592147	-8.72324402041096E-06	-4.58481006476512E-06	-8.77625146311878E-07	-6.13062179441907E-06	0.974329678929146	-0.219835867040449
9.3	0.000523211586891848	0.00609069259365409	1.83764205538132E-07	6.21949699028125E-06	4.64323168263686E-06	-2.19186519835439E-06	0.973890257314967	-0.222352892277567
9.4	0.000522602450076694	0.00563038194118858	-1.93426575553044E-06	5.88766352501892E-06	-1.05177519870071E-05	7.73994163560519E-06	0.973203406711013	-0.225279424665597
9.5	0.000359370112726375	0.00541506107565828	3.19570146632834E-06	-7.57145283602761E-06	3.68889611545547E-06	-2.74099883362346E-06	0.972410000069826	-0.228053614267599
9.6	0.000138777840286103	0.00532767074559441	4.50008955178979E-06	5.58779070272218E-06	-6.47842443984218E-07	7.08031218662218E-06	0.971676442621193	-0.231021765801096
9.7	-6.12958059888836E-05	0.00539524412896924	-2.6056934177537E-06	-3.9461999784873E-06	3.70367108956358E-06	-7.53136855144376E-06	0.970997647389845	-0.23352391598001
9.8	-0.000271622553967573	0.00557134068315579	-5.22644091247572E-07	-4.22203138899034E-06	6.28558367811364E-06	8.95345819812447E-07	0.970752519059916	-0.235611546020466
9.9	-0.000418221421828571	0.00591577700663024	-2.69336218312983E-06	-5.97600975672711E-07	-8.52436870439081E-06	5.49192511401549E-06	0.970291265231467	-0.237479645301097
10	-0.000471408484904508	0.00628974004012516	4.30738040951447E-07	-1.75479873417911E-06	-3.08548853250026E-06	-7.98891236670792E-06	0.969875652886535	-0.239073262377653
10.1	-0.000398729797146315	0.00671997847779293	2.24632232502822E-06	4.78098029404517E-06	-3.11422467031597E-06	9.86612134840612E-06	0.969427290873416	-0.2406449197374
10.2	-0.000168841592181237	0.00709651564079657	-5.38221229903842E-07	-1.05113897780909E-06	-1.21007409880604E-06	-3.12358536056938E-06	0.969034012380566	-0.24204782236168
10.3	0.000159661359429456	0.00742662598099432	1.13321567401378E-05	-2.93028198100484E-06	1.00802209435372E-05	-4.84815760685238E-06	0.968500887617254	-0.243839496401634
10.4	0.000598560916124025	0.00764272972905797	-6.3080913469671E-07	2.15222958755039E-06	3.03865185491779E-06	-2.18859456733112E-06	0.967715772044664	-0.24590239722206
10.5	0.00099211425175948	0.00772380182702182	-6.12559484040238E-06	4.65076568584583E-06	1.57288426349678E-06	4.31636284733456E-06	0.966916427853724	-0.248448044710905
10.6	0.00147681638114229	0.00781369500368984	-7.1233180989094E-06	1.07087325357872E-05	7.04161298141925E-06	4.28091898987407E-06	0.966340362811352	-0.250913809155726
10.7	0.00190472561220572	0.00787828958220982	-3.22252131770203E-06	1.57032993298699E-06	-5.38119610179568E-06	3.17723920773382E-06	0.965602039878282	-0.253648765161279
10.8	0.00236600961185142	0.00793176203877842	-1.93220968300447E-06	5.00338313048855E-06	8.52994428303489E-07	-3.2108502689652E-06	0.964882761753504	-0.255775419271821
10.9	0.00276958100460602	0.00796965772494747	-5.76681614363437E-06	-1.05508370276483E-05	4.94615205932987E-06	1.07302486548392E-05	0.964415200707628	-0.257815592712028
11	0.00329280690018107	0.00798275415674831	2.97359217663005E-06	2.62031513863364E-06	7.86760421429749E-07	-1.1261794246392E-05	0.963819079604165	-0.259575508041658
11.1	0.00384463227608563	0.00793628294666994	3.86694273451041E-06	1.45969591484106E-06	2.53683182535137E-07	-7.3900910407892E-06	0.963130005135073	-0.26123401121188
11.2	0.00444414276036056	0.00774401942016754	-4.42635329033858E-06	-1.97353898103541E-06	-7.34073533455794E-06	-4.85773738160819E-06	0.962342927043975	-0.263034627403395
11.3	0.00507702293460608	0.00737597730540387	6.60850820315155E-07	-6.39192321052434E-06	3.78268921763025E-06	1.41672855673894E-05	0.961778334179992	-0.264851213004539
11.4	0.00548895023744205	0.00688946521844238	-5.12189383456596E-06	8.16028048076463E-06	-1.45909372053964E-06	4.08501199774215E-06	0.960818500866911	-0.267383544958987
11.5	0.00571602051228956	0.00636085193695307	4.53403221967685E-06	8.10308669462189E-06	-9.30134119990834E-06	1.58751499438366E-06	0.959842360319398	-0.270159366799086
11.6	0.005884559255882	0.00578678749811566	-3.84660512253514E-06	1.40536622712325E-06	5.09102407133703E-06	8.14550770917192E-06	0.958609935285809	-0.273661541233435
11.7	0.00592936149277048	0.0052244722265845	2.25981354606182E-06	1.05414739039573E-05	5.38744751092437E-07	-3.65464483420959E-06	0.957403856562682	-0.277198560256464
11.8	0.00593787423836176	0.00479497066215655	1.43497975735978E-06	4.46612808585086E-06	2.25720401336045E-06	4.53947199073466E-06	0.95629762377258	-0.280715289495466
11.9	0.00600419441171987	0.00442913355664863	7.46355660120755E-06	1.05735329356485E-05	3.88763963813846E-06	4.02025699135182E-07	0.955760198740024	-0.283181967993335
12	0.00591892465936973	0.00408455749613786	2.35138731619969E-06	-5.16559721819889E-06	-4.02879202054789E-07	1.75420351135009E-06	0.955053865172457	-0.285728293370797
