# GHZ S RI R 50
0.2	0.000827589095258234	0.00241844566354388	4.79438878843163E-06	-2.98508945169384E-06	-1.37291710840427E-05	1.31205123006992E-05	0.999575149636139	-0.00695083263545137
0.3	0.00127735044547507	0.00167699353743717	2.86560802153962E-06	6.62755908685238E-06	-1.66295232893311E-06	-9.322355285444E-06	0.99949788950732	-0.00983461951489457
0.4	0.00156964463706498	0.0012135560771355	-1.862980398095E-06	-4.01696855276298E-06	-9.01788690205456E-06	4.40465507383944E-06	0.999536411855918	-0.0125174611111321
0.5	0.00170027968208222	0.000797252474979155	-5.3593917060666E-06	3.26432314141197E-06	-2.1262535043833E-06	6.75886570103209E-06	0.999260015244093	-0.0156790066311152
0.6	0.00178508367210267	0.000471553650855148	-1.39719549365932E-07	2.80629366450902E-06	-5.81571074496097E-07	-1.34138107691296E-07	0.999334534467099	-0.0185101881023454
0.7	0.00177081062894834	0.000223216394137115	8.78267185368336E-08	2.21965608641144E-06	4.90486123999179E-06	-3.40216555807637E-06	0.999057792859035	-0.0214829718939122
0.8	0.00179846861032211	6.35353530003524E-06	4.52980143508784E-06	8.2652947582775E-07	2.74468385758763E-06	2.00132847786292E-06	0.99882018597363	-0.0236816987224401
0.9	0.00175677791901057	-0.000197561014904223	-1.51559640889427E-07	-4.21988922747131E-06	-3.41896455785412E-06	-3.11091375516331E-06	0.99869718568331	-0.0260998526885171
1	0.00169968983866216	-0.000429793768395528	1.06046330275416E-06	4.29335617659362E-06	3.3282158054826E-06	9.33827715524639E-07	0.998418456559674	-0.0277358508743204
1.1	0.00150154534504759	-0.000724673779221653	9.04527157082792E-06	5.17929996384075E-07	-3.57905820036489E-06	-4.99187198000391E-07	0.998093465138213	-0.0297667488278942
1.2	0.00114748516703174	-0.00130446635364148	3.76121983361472E-06	-1.20007560490649E-06	-4.09732638410854E-06	-2.43782882133206E-06	0.99740922208973	-0.0307872357855144
1.3	0.000431781316451947	-0.00213459335962736	-7.61897451624311E-07	-1.42694264937144E-06	-2.58849530007676E-06	-8.70764702873717E-06	0.997481742827356	-0.031587090989188
1.4	-0.000387367702916086	-0.002924170424499	1.49198473319616E-08	3.44832819909734E-06	-4.28340780519703E-06	-4.1273921883273E-06	0.997332208266111	-0.0335672768530942
1.5	-0.000839884940241613	-0.003299299191453	-1.29756261998735E-06	4.43135678712217E-06	6.552951920037E-06	-7.41717397797594E-06	0.997987504639149	-0.0369746377598306
1.6	-0.00103930676807569	-0.00334666321190298	1.63008288675621E-06	-4.89571533232685E-07	4.24278467542577E-06	-5.3968776675257E-06	0.99760800104696	-0.0404874794363047
1.7	-0.00109855465733316	-0.00330010413971577	5.3240577889941E-07	3.95887360554186E-06	-8.28742036093309E-06	3.13246320639169E-06	0.99789217323631	-0.0430839360846437
1.8	-0.00114895587102251	-0.003189000243506	1.83338887355948E-06	1.07849318851418E-06	5.65343745395116E-07	-1.76271907505599E-06	0.997836178658775	-0.0458546854439061
1.9	-0.00122190358178569	-0.00318110769747859	3.23806546066933E-06	3.01866630950297E-06	-1.83493294858326E-07	-2.33133510521095E-06	0.997675407806069	-0.0481179825342732
2	-0.00136373079389439	-0.0032031003134494	-1.72833488564338E-07	2.00556574685371E-07	-1.21697510947708E-05	5.42192244299962E-06	0.9972384527037	-0.0508496443112101
2.1	-0.00154130687630236	-0.00326957813337764	6.67864066831716E-07	-1.3833698367711E-06	1.38182786046509E-05	4.96178470849029E-06	0.996999357738906	-0.0531380722746146
2.2	-0.00181631230838692	-0.00332097818973336	1.64430449048255E-06	-1.51848523024775E-06	2.68397521501578E-06	-6.21492711150236E-06	0.996978814607992	-0.0555652671312006
2.3	-0.00219681513470904	-0.00338193374891806	-1.69054052587086E-06	-3.42717001683026E-06	-1.79459538873741E-06	-4.59242027939566E-06	0.99667811491709	-0.0574150466500024
2.4	-0.0026498403012675	-0.0034154208758576	-1.20692853411527E-06	-4.40164683099869E-06	3.04818512725547E-06	1.08480719984109E-06	0.996681118760696	-0.0605499249672635
2.5	-0.00319465621908349	-0.0033772156026479	5.38900461412538E-06	5.66706601391226E-06	-2.59660142549793E-06	1.61560474879028E-05	0.996311734236797	-0.0628933449326355
2.6	-0.00373790308685109	-0.00317819806487967	-2.27547712538157E-06	2.71458305656895E-06	4.30651882607955E-07	-4.31349811159698E-06	0.99626325582952	-0.0658517508411206
2.7	-0.0041098064758216	-0.002805587959992	-2.41056048061379E-06	-3.63602914963448E-06	2.15336958244535E-06	-2.5733732587536E-06	0.995733576986178	-0.0688628486567051
2.8	-0.00424002169136676	-0.00237680842479432	4.00533945837295E-06	2.30896532443589E-06	9.83390583343777E-06	-6.96547139266893E-07	0.995790166072552	-0.070775933977093
2.9	-0.00410541920032979	-0.00205986161267901	1.28838658376691E-05	6.98587023842172E-07	2.43009144375575E-06	-1.17207123102634E-05	0.995532700352482	-0.0727533643682901
3	-0.00390731431677325	-0.00193292847986927	-3.85323791014902E-06	1.05037468213002E-06	-4.14765943627062E-06	-1.5949843000341E-06	0.995416556149405	-0.0752326455729202
3.1	-0.00372010662403041	-0.00192201149140833	4.77151951389981E-06	-9.84845464391492E-06	1.06860657749246E-05	2.40124617149209E-06	0.995124414566521	-0.0772164633433386
3.2	-0.00367296213023939	-0.00201814749432661	-5.37672955915743E-06	-7.4046610088354E-06	1.56415963489116E-05	5.37363841888005E-06	0.994888210693941	-0.0790230855994291
3.3	-0.00374230060969771	-0.00215234008616038	-8.79040434693744E-06	2.55189797594854E-06	-8.5668257461235E-06	-1.7338651322289E-06	0.994669147327468	-0.0822794053664459
3.4	-0.00397533302184281	-0.00226212154345191	9.0538013212968E-06	-7.56778648230853E-06	-7.34171765415498E-06	4.23995086570509E-06	0.994609445370784	-0.0842443224675845
3.5	-0.0042921001200094	-0.00234230478886983	3.1458631844836E-07	-5.32094573812245E-06	-4.4047280711751E-06	-8.92472264490525E-06	0.994429052627801	-0.0870639908109052
3.6	-0.00465932963202194	-0.00227350915869748	4.07397736611521E-06	4.8961017273919E-06	-7.10011487558544E-06	8.99472385033615E-06	0.994088868317615	-0.0895892722469636
3.7	-0.00500136841323021	-0.002107427918114	1.52491752835012E-06	-4.52574302282923E-06	-5.10462382102792E-06	-6.5808709026358E-06	0.993920234471854	-0.0922498638644496
3.8	-0.00527404474837085	-0.00187391292443839	7.27329370214302E-06	-5.1967066263222E-06	-5.87797617882932E-06	-2.41461774133775E-06	0.993571632905217	-0.0942887019052482
3.9	-0.00543117773496906	-0.00161059421895264	-4.02783234160436E-06	-3.48836905945429E-07	-2.52911540178932E-06	1.13316715483948E-06	0.993499247371395	-0.097411280619817
4	-0.00555631867625326	-0.00138632908765036	-3.38326174684813E-06	-8.12950453826343E-08	1.20617744092082E-06	8.66709568355418E-06	0.993202825785238	-0.0988929584985652
4.1	-0.00562533510529659	-0.00111058880737323	-2.90119047720425E-06	-3.85913926075023E-06	5.87905773563627E-06	3.03529803447279E-06	0.992993742606027	-0.100680602842177
4.2	-0.00563908290465146	-0.000895579514044854	-7.74072683658476E-07	-2.15631664538101E-06	5.69800793909882E-06	-1.8459014296347E-06	0.992461422430777	-0.103298016788114
4.3	-0.00564235851723752	-0.000735119305588982	-5.0918535304819E-07	3.23444918026424E-06	2.1299084628591E-06	1.77855228626862E-06	0.992316056863444	-0.105290355538373
4.4	-0.00576908369956437	-0.000626599167801167	2.57746966634272E-06	3.43940679067749E-06	7.18199405296777E-06	3.90657965590803E-06	0.991974626987678	-0.107653922846196
4.5	-0.00596136621053789	-0.00044572168787423	-6.46927298270593E-06	-2.26192642560241E-07	-8.57744458431618E-06	-2.10715375032639E-06	0.99185421565511	-0.109775438982429
4.6	-0.00626700892765236	-0.000219834278607025	-9.9443700698712E-06	-9.21636027882783E-06	3.2329084083969E-06	-2.73081847948669E-06	0.991646601720303	-0.112625265947598
4.7	-0.00649125547345377	0.000137389756871424	1.26992629770442E-07	1.86429773956316E-06	6.05479035837695E-06	-6.73431291448681E-06	0.991563228464267	-0.114749687602853
4.8	-0.00664265432004831	0.000570498110523351	-6.39047499785066E-06	2.0821247859946E-06	7.76471893410627E-07	-1.27430638947112E-05	0.991175561695646	-0.117299489465113
4.9	-0.0065881150632065	0.00101398042149044	-3.41922176745596E-06	8.14159894434717E-06	5.69510651814748E-07	9.37224800467481E-06	0.99074545794824	-0.119149747572571
5	-0.00633431911013778	0.00132655518564217	9.63647867619011E-06	-4.06598509244476E-06	-6.93080803226142E-06	3.58047170420919E-06	0.990640297495824	-0.120730609460777
5.1	-0.00594241269176179	0.00148958525911793	-3.68608672126616E-07	-3.25042795155627E-06	-3.87385315413066E-06	-1.7892426381583E-06	0.990680485557509	-0.122210503006335
5.2	-0.00556779240287938	0.0014549527381538	-1.06970088617066E-06	-4.48383891254687E-06	8.78564556305087E-06	5.56857693212691E-06	0.99048182464062	-0.124524656409829
5.3	-0.00534713804781869	0.00131701195242674	2.2893160195267E-06	6.78738330991354E-06	8.7908908103471E-06	3.12610696361795E-06	0.990205603729396	-0.12696277719478
5.4	-0.00531330565336138	0.00124521008900726	2.70286351721926E-06	-3.14104176293453E-06	-2.6727587933916E-06	1.54939109392725E-07	0.990040503277966	-0.129804838276242
5.5	-0.00540527646515098	0.00133260390504525	2.1103969686735E-06	9.31222852242301E-06	-3.92187859151964E-06	-5.02959787526489E-06	0.989740667217547	-0.132582526148729
5.6	-0.00548423115871781	0.00152859899637447	-5.85289775089344E-06	-1.13095133063236E-06	4.87063117112893E-06	1.94120425795806E-06	0.989454656650274	-0.135026075429684
5.7	-0.00562584158147558	0.00179895035858087	3.33490514532205E-06	-1.42333665892674E-06	-5.04697548248171E-06	-4.28916880403297E-06	0.989221338541991	-0.137482693329026
5.8	-0.00573935464538947	0.00214156616201576	-2.05482198688222E-06	-4.74384207915122E-06	9.45905161543708E-07	-5.82192103775022E-07	0.989067250929345	-0.139693033442537
5.9	-0.00583735911068101	0.00258470170390538	-3.87755463121405E-06	6.20630988743945E-07	3.8613704825419E-06	1.24737860213043E-06	0.988816279438151	-0.141975203043051
6	-0.00591137019998792	0.00300594552137445	-5.93112643062999E-06	5.04812461199706E-06	-1.48405764289351E-06	1.97076957786602E-07	0.988371913408816	-0.143721995181148
6.1	-0.00592648444777154	0.00341863508771565	-5.92820726624618E-06	-4.69276238894305E-06	-4.00477939858632E-06	4.34276535978466E-07	0.988231255884739	-0.145007113446003
6.2	-0.00588313818713777	0.00369943367055597	2.82058709625263E-06	3.12333733107786E-06	1.05264801108363E-06	7.22161920989684E-07	0.987982309449105	-0.146460191017017
6.3	-0.00573529649349082	0.00386396405980517	1.64053789035652E-06	-7.48415123427865E-07	-1.32853074965467E-07	1.37514036618254E-06	0.987595732478848	-0.148462941395803
6.4	-0.00564620727916407	0.00386165040908533	-5.18336021465349E-06	-5.61683453254867E-06	3.81569751719915E-06	6.90550909803839E-06	0.987107491975267	-0.150580436434044
6.5	-0.00553950561429033	0.00381604731389209	9.06404058881255E-06	-2.48944076444064E-07	-7.32106297526865E-06	-8.97018056298433E-07	0.986905950803527	-0.153206657303255
6.6	-0.00548389298623101	0.00382780912301097	-1.48788651930528E-06	4.65851360456255E-07	3.37465036433836E-06	-9.37597784167602E-06	0.986754155257388	-0.15589556481698
6.7	-0.00545695820648818	0.00397607759542772	4.43667984366396E-08	7.74836825767569E-06	-4.91280419831845E-07	-6.08371182409795E-06	0.986418096663131	-0.158323571726028
6.8	-0.00542223791998861	0.00425416361147699	4.24530581610512E-06	1.65845908507467E-06	2.17044116696147E-07	-5.23348913287668E-06	0.985974708108514	-0.160645123177413
6.9	-0.00533838874238673	0.00462037353060977	-7.55368898445077E-07	2.4739871155545E-07	5.75944897319996E-06	-2.67664811803212E-06	0.985583874012799	-0.162740478775138
7	-0.00515474863713705	0.00502668964410394	8.0231143279799E-06	-4.75152880315434E-06	4.36527438479153E-07	-3.01949131321206E-06	0.984985936816571	-0.164531851105928
7.1	-0.00497303001611848	0.00536530046948538	3.84475188726442E-06	2.0452210734194E-06	7.69426441516283E-07	7.22946963035096E-06	0.984525059173377	-0.166170815088016
7.2	-0.00480630778187726	0.00570055853146426	-2.45045135681936E-06	3.69027699467833E-06	-1.33046038894721E-06	-3.82805796832793E-06	0.983971252761128	-0.167880444927564
7.3	-0.00471216597201979	0.00601547513903481	3.44002425780702E-06	-4.92088649008348E-07	-2.44901220096714E-06	-1.91898371445997E-06	0.983035698627242	-0.169614409290638
7.4	-0.00474208208614195	0.0062991178846	-6.18743134317656E-06	-2.70181500461434E-06	3.77023214600965E-06	2.48600804224036E-07	0.982187269388021	-0.171823307089696
7.5	-0.00478743939748049	0.00660805440569397	6.75698824681903E-06	-6.43074695308709E-06	-2.47832488520527E-06	7.9864423669531E-07	0.981415314067465	-0.174229574955934
7.6	-0.00473320099474477	0.00689397101872419	3.47771495412229E-06	5.20519338555991E-06	-1.02432281177557E-05	4.91539043699853E-06	0.980943348387462	-0.177264988264377
7.7	-0.0047224279772892	0.00709369594655878	6.0127065833535E-06	1.09410459675744E-05	3.45390253628038E-07	-1.13533637127278E-05	0.980561087324738	-0.180553722810567
7.8	-0.00449544271247721	0.00713677627516815	2.15417502500043E-06	9.85968169898232E-07	-3.11464446881824E-06	8.81417002768862E-06	0.980279217477921	-0.183891875692895
7.9	-0.00416005297288955	0.00707537654014345	2.55462976218029E-06	-2.31037979016352E-06	3.68664948559919E-06	3.46595522008199E-07	0.979951662300526	-0.187239215453553
8	-0.00383845856291723	0.00699053668391561	-2.81422025195482E-06	1.32668176115858E-06	6.87909078990886E-06	-1.85213647293764E-06	0.979269869702151	-0.190313829768032
8.1	-0.00346458464399063	0.00696088647853524	-1.79158388696523E-06	7.54102869268084E-07	-3.70690768001051E-06	-1.25622697015624E-06	0.978545873045635	-0.192785501380274
8.2	-0.0031571344943497	0.00691908845840014	-7.98120460593917E-07	6.33153351890719E-06	4.87176962790814E-06	4.35579941810713E-06	0.978174718250208	-0.19496392831779
8.3	-0.00289362271539102	0.00690019975459175	-8.47050055043095E-07	-1.42086714655168E-05	6.82010154736216E-06	5.42844237918382E-06	0.977655015796763	-0.197589977875625
8.4	-0.00271942124483242	0.00697620656621695	3.75993956666086E-06	-3.42533666795363E-06	-6.96750632788376E-06	-1.22169310518435E-06	0.976976629476194	-0.200184017563134
8.5	-0.00254765347741956	0.00711168650215124	4.67097748892094E-06	5.89156365445064E-07	8.41445118411833E-06	-6.82305358200322E-06	0.976330037278688	-0.202832731540951
8.6	-0.00237032037320122	0.00733545502084795	-3.27018188094314E-06	4.11259080411577E-06	1.0002659109303E-06	1.10923425792465E-05	0.975881706412996	-0.205437201761099
8.7	-0.00206611659458062	0.00756180931920364	2.68398337090723E-06	-1.99718419594317E-06	4.78830601172883E-07	-5.53383888638023E-07	0.975560010046802	-0.208028797786092
8.8	-0.00164813076764169	0.00777358949810455	1.22562011084668E-07	-1.25290179966932E-06	-9.76215160596887E-07	9.76658799721049E-06	0.97515736096939	-0.210314370509743
8.9	-0.00108431930254476	0.00782045673277792	-3.66475713380453E-06	2.2912011280147E-06	4.83416860707597E-06	-1.80111005745347E-06	0.97518887685628	-0.212361701492199
9	-0.000451725258866968	0.00760318600231733	-1.89054418589934E-06	4.96004939218314E-07	-3.2009857887214E-06	-1.0538765748802E-05	0.975103959231427	-0.214783884082528
9.1	0.000120437190268319	0.00709344218699945	5.25113108721808E-06	5.94431218715168E-07	9.12594252195604E-07	3.82663754102188E-07	0.97479214387503	-0.217049450089658
9.2	0.000433206392204233	0.00642281667485721	-8.72009659868585E-06	-4.5863974979391E-06	-8.75657699608227E-07	-6.12960358241163E-06	0.97425871782552	-0.21969942795746
9.3	0.000428768849527119	0.0058388814078943	1.81400671233313E-07	6.21877222205705E-06	4.64346366747743E-06	-2.18983840061643E-06	0.973759816186569	-0.222209594249633
9.4	0.000290715842494405	0.00547025628984706	-1.93636483764765E-06	5.88702315690576E-06	-1.05205716470057E-05	7.73627633341044E-06	0.973060892770306	-0.225096728971892
9.5	0.000121332473333539	0.00538747479712675	3.19781799071825E-06	-7.57154180208344E-06	3.68994115577075E-06	-2.74044092933295E-06	0.972333572523931	-0.227880249318412
9.6	-4.5424836979439E-05	0.00536855912455328	4.50011478564309E-06	5.58901989549428E-06	-6.48671781739625E-07	7.08120472588358E-06	0.971648940264133	-0.230911044545497
9.7	-0.00019785744223696	0.00545736802874015	-2.60598459041416E-06	-3.94673725325373E-06	3.70423241708723E-06	-7.53229657723417E-06	0.970989084659717	-0.233481533310701
9.8	-0.000377029931103271	0.00564155658729411	-5.22919198838142E-07	-4.22250330824327E-06	6.28637084205847E-06	8.95133771493812E-07	0.970749802116265	-0.235619090514557
9.9	-0.00049755163921875	0.00599144124174822	-2.69370212381524E-06	-5.97415966721086E-07	-8.52476417036029E-06	5.49329156408269E-06	0.970292122179852	-0.23752008588265
10	-0.000520507476447021	0.00637258161454328	4.30557937199071E-07	-1.75502958004183E-06	-3.08681470624665E-06	-7.98932111225375E-06	0.969892689294899	-0.239139489761081
10.1	-0.000405837488041196	0.00680321803890736	2.24731664006604E-06	4.78107337752256E-06	-3.11291671251336E-06	9.86757565034369E-06	0.969472762009008	-0.240744770346367
10.2	-0.000120074219713633	0.00716166640085313	-5.38489165318566E-07	-1.05112537028227E-06	-1.21083403627164E-06	-3.12362559164884E-06	0.969120669193721	-0.242208169522176
10.3	0.000273255595364983	0.0074389272710946	1.13324173800104E-05	-2.93359569115685E-06	1.00798508845681E-05	-4.85131242848607E-06	0.968635058208427	-0.244111452565537
10.4	0.000764818346870514	0.00754721597398909	-6.301020297818E-07	2.15264327562476E-06	3.03814454686322E-06	-2.18986489033314E-06	0.967875319101661	-0.246363423758934
10.5	0.00118648470303525	0.00750061615000717	-6.12434772022359E-06	4.65410557116681E-06	1.57501026800914E-06	4.31624061778953E-06	0.967092028203398	-0.249077876374307
10.6	0.00140607602566037	0.00733526117532347	-7.11627960205254E-06	1.0711904054238E-05	7.04345972674629E-06	4.27633018202826E-06	0.96605535441654	-0.25200090103476
10.7	0.00153764470850587	0.00743673528338695	-3.22085543284334E-06	1.57189010411306E-06	-5.37808417361233E-06	3.17971845440448E-06	0.964893043473151	-0.254681727611286
10.8	0.00191374795047952	0.00773889716207717	-1.92958356885261E-06	5.00310187670381E-06	8.51396344037108E-07	-3.21050033832313E-06	0.964103091364025	-0.25632632931056
10.9	0.00234132097944212	0.00799029930715557	-5.76889902572174E-06	-1.05465839322847E-05	4.94847918575503E-06	1.07262187459412E-05	0.963681300010975	-0.258047187581723
11	0.00296110281348688	0.0081100150382069	2.97361641903887E-06	2.61913742022265E-06	7.84053189323028E-07	-1.12598120629076E-05	0.963239671241522	-0.259617160078776
11.1	0.00359870562429312	0.00810176241504679	3.86654312247138E-06	1.45883915852226E-06	2.52460859491099E-07	-7.3889221472456E-06	0.962681138887576	-0.261177861473612
11.2	0.00425806195923009	0.00792075940535965	-4.42588813975639E-06	-1.97275999143569E-06	-7.34013463626857E-06	-4.85620283746038E-06	0.96197890658076	-0.262918627256061
11.3	0.00491689201544057	0.0075497806299074	6.60230761410658E-07	-6.3910123971777E-06	3.78327164622043E-06	1.41648396460358E-05	0.961455802194045	-0.264716915464425
11.4	0.00536352984006763	0.00708343251905758	-5.12067903877302E-06	8.15911516538271E-06	-1.45867285233481E-06	4.08438169236629E-06	0.960522529670736	-0.26718622179168
11.5	0.00565450121140349	0.00658342736323975	4.53306586719408E-06	8.10154303983678E-06	-9.29953439386094E-06	1.58711430356521E-06	0.959595824447026	-0.269872777354325
11.6	0.0059094559233918	0.00602383733799314	-3.84590022284594E-06	1.40483910952112E-06	5.08947249092515E-06	8.14414579754088E-06	0.958455759783271	-0.27330832261223
11.7	0.00608039603505377	0.00542743179241038	2.25789885694742E-06	1.05396999023884E-05	5.39146602786889E-07	-3.65384580132298E-06	0.957405360257924	-0.276807991372038
11.8	0.00621519908729202	0.00486110801422416	1.43366298823663E-06	4.46581311878764E-06	2.25574598809489E-06	4.53934888534437E-06	0.95650291701191	-0.280372819635575
11.9	0.00628695661186533	0.004244541069342	7.45958762761028E-06	1.05758447213603E-05	3.88737730568725E-06	4.03387722861393E-07	0.956114035929847	-0.283023694028023
12	0.00598751247332542	0.00370316618138234	2.35372771445226E-06	-5.16549482671519E-06	-4.0361289161739E-07	1.75432018231262E-06	0.955380827669971	-0.285791885886715
