# GHZ S RI R 50
0.2	0.000903028696476004	0.00235432603029051	4.79428101833899E-06	-2.98477659067431E-06	-1.37290313805224E-05	1.31194084490884E-05	0.999605513374608	-0.00697761206041292
0.3	0.00137370587967468	0.001626123058084	2.86558034573364E-06	6.62710017473375E-06	-1.66305513346187E-06	-9.32176117217462E-06	0.999534263267718	-0.00990646174069162
0.4	0.0016526630589735	0.00113280093831991	-1.86291893702172E-06	-4.01659936876886E-06	-9.01705310285399E-06	4.40449897961806E-06	0.999537824287839	-0.0126195648904639
0.5	0.00173716775698179	0.000752312088707532	-5.35923209853177E-06	3.26434966177076E-06	-2.12609817184105E-06	6.75876954809098E-06	0.999277158290215	-0.0157404658918867
0.6	0.00185520385478852	0.000422576399263783	-1.39470775584501E-07	2.80620154449535E-06	-5.81561113487101E-07	-1.34082644966139E-07	0.999365960521136	-0.0186450854136849
0.7	0.00181593923661625	0.00016162380218632	8.79916082657724E-08	2.21952043336522E-06	4.90431579230933E-06	-3.40234358206475E-06	0.999043324859805	-0.0216197555708934
0.8	0.001829780512871	-4.57408074450926E-05	4.5295955475031E-06	8.26170944596051E-07	2.74466200205171E-06	2.0010242615843E-06	0.998791992376489	-0.0238008941013794
0.9	0.00178825410824116	-0.000261193230998041	-1.51797859955896E-07	-4.21958269617223E-06	-3.41890694346898E-06	-3.11049270453413E-06	0.99865661883561	-0.0262206316766123
1	0.00167007585320183	-0.000507035366068288	1.0604585902538E-06	4.29302511976203E-06	3.32798887317924E-06	9.33703309528766E-07	0.998315583762301	-0.0278281111319069
1.1	0.00147462480718739	-0.00077109756775822	9.04463540182869E-06	5.17691472583199E-07	-3.5788130321763E-06	-4.99071747834369E-07	0.997994079633681	-0.0298333373575985
1.2	0.00110470796519988	-0.00137723751923607	3.76078692985687E-06	-1.20003910195986E-06	-4.09694663365548E-06	-2.4374668350275E-06	0.997260138274218	-0.0308805310966141
1.3	0.000388572772969804	-0.00222889222695042	-7.61888312966172E-07	-1.42670274027918E-06	-2.58871463638937E-06	-8.70631671840113E-06	0.997306463086751	-0.0317426355335018
1.4	-0.000420911010592838	-0.00307739476837743	1.54267002338841E-08	3.44780831637561E-06	-4.28337410504013E-06	-4.12614018441107E-06	0.997147057047092	-0.033865999389996
1.5	-0.000914693936816664	-0.00344192810420914	-1.2965096831093E-06	4.43089661928667E-06	6.55048975280462E-06	-7.41723984583308E-06	0.99774445874948	-0.0373027031621966
1.6	-0.00109748448092495	-0.0034519128097713	1.62978133490834E-06	-4.89776254363776E-07	4.24131477671596E-06	-5.39685360118714E-06	0.997408560023543	-0.0407558391001235
1.7	-0.00114981583054347	-0.00336030756949736	5.32856113481201E-07	3.95846283950835E-06	-8.286307345523E-06	3.13323059099735E-06	0.997748854653044	-0.0432672140530442
1.8	-0.00117415113093744	-0.00321751431127158	1.83342637567692E-06	1.0782706379586E-06	5.65147623772852E-07	-1.76270838854216E-06	0.997768922196536	-0.0459799646945923
1.9	-0.00122987288694014	-0.00320738504366408	3.23834196917539E-06	3.01829248325803E-06	-1.83734407402544E-07	-2.33128822571935E-06	0.99765090183924	-0.0482474674800934
2	-0.00138352474720039	-0.00320109989586815	-1.7281173031647E-07	2.005581242509E-07	-1.21687938851352E-05	5.42245972888851E-06	0.997166341923636	-0.0509108707740204
2.1	-0.00152158128169805	-0.00325797743527828	6.67824669357681E-07	-1.38339123865422E-06	1.38184425498485E-05	4.96138878626748E-06	0.997019099450359	-0.0531553563675057
2.2	-0.00179395533303275	-0.00332012745714572	1.64423857076607E-06	-1.51854985289501E-06	2.68371370499539E-06	-6.21502493916721E-06	0.996997076441457	-0.0556052636420654
2.3	-0.00217715230003893	-0.00338113642157653	-1.69061166226527E-06	-3.42702402400864E-06	-1.79470296359176E-06	-4.59224046287726E-06	0.996669987695058	-0.057446252430545
2.4	-0.00263433024171485	-0.00341645535143475	-1.20689611030967E-06	-4.40140865357431E-06	3.04803353234747E-06	1.08472938645653E-06	0.996643693661725	-0.0605563716768527
2.5	-0.00320572205239935	-0.00334947730072029	5.38852987331635E-06	5.66696476961759E-06	-2.59703503532039E-06	1.61551289975693E-05	0.99625045790631	-0.0628291158057374
2.6	-0.00368910833131304	-0.00310151549814457	-2.27555607970632E-06	2.71426174750838E-06	4.30953154484085E-07	-4.31322756154171E-06	0.99625969512694	-0.065697271552699
2.7	-0.00397933610031756	-0.00276318261493991	-2.41000087243825E-06	-3.63631298516422E-06	2.15370136938869E-06	-2.57302276077449E-06	0.995855007366686	-0.0686762441350283
2.8	-0.00408114937333655	-0.00242604584939574	4.00512481810877E-06	2.30975407811466E-06	9.83446730999556E-06	-6.94896940359983E-07	0.99600467980901	-0.0706562857540059
2.9	-0.00399228127121362	-0.00218569539472163	1.28847525833808E-05	7.00905353173729E-07	2.43234108379089E-06	-1.1721203708497E-05	0.995738615391211	-0.072708556744243
3	-0.00386943371949949	-0.00206370969299549	-3.85375859788466E-06	1.04984184794838E-06	-4.14777561905143E-06	-1.59580504846813E-06	0.995559221425322	-0.0752074126717679
3.1	-0.00370606485752367	-0.00203715772367233	4.7734850972657E-06	-9.84830190722513E-06	1.06863656699415E-05	2.40319639015167E-06	0.995216504668365	-0.0771691385037438
3.2	-0.00368872315967717	-0.00211532338921866	-5.37573453386348E-06	-7.40606951978952E-06	1.56415863764197E-05	5.37675523857915E-06	0.994946827112186	-0.0789465536729001
3.3	-0.00376893377501012	-0.00222558363367379	-8.79138284838353E-06	2.55048310416166E-06	-8.56702699514834E-06	-1.73549544592332E-06	0.99471641723062	-0.0821793158544183
3.4	-0.00400652844663016	-0.00232703555410047	9.05576648301189E-06	-7.56682668660059E-06	-7.34299024473706E-06	4.23902914746898E-06	0.994667830068407	-0.0841464568680424
3.5	-0.00434703203536811	-0.00238728385954395	3.15220623903056E-07	-5.32133382516684E-06	-4.40405729786916E-06	-8.92593831758847E-06	0.99446369541828	-0.0870017438265517
3.6	-0.00470628133709877	-0.00230932039700484	4.0737002541352E-06	4.89689729881772E-06	-7.10161842406865E-06	8.99453247275617E-06	0.994120101280972	-0.0895177000184292
3.7	-0.00507529473817163	-0.00214037518863662	1.52548352486992E-06	-4.52605383137977E-06	-5.10452946474019E-06	-6.58199303347645E-06	0.993954305896798	-0.0922002817099696
3.8	-0.00538118806936515	-0.00187035157595948	7.27443215974134E-06	-5.19701684862617E-06	-5.87859328043273E-06	-2.41518589611938E-06	0.993592837056333	-0.0942509519606978
3.9	-0.00554256630199142	-0.0015390963926443	-4.02828787357998E-06	-3.48785584455039E-07	-2.52937118757289E-06	1.1333496895885E-06	0.993497198108324	-0.097373252339248
4	-0.00561601381588269	-0.00123582321256378	-3.38335538009425E-06	-8.11897408900546E-08	1.20648527077776E-06	8.66729061005037E-06	0.993166843260174	-0.0987775681599603
4.1	-0.00557100046521457	-0.000967007297119344	-2.90121920796164E-06	-3.85912516512277E-06	5.87908480160001E-06	3.0352635265978E-06	0.993048179573035	-0.100544122458923
4.2	-0.00554422347466885	-0.000817945738360384	-7.74015203227259E-07	-2.15625095200877E-06	5.69783156707556E-06	-1.84575661663751E-06	0.992521693317958	-0.103203096394924
4.3	-0.00555024386738654	-0.000700154594674547	-5.09287815808658E-07	3.23425415739041E-06	2.12972205630454E-06	1.77854186514758E-06	0.992358227858856	-0.105209578763891
4.4	-0.00568770269838351	-0.000620856030299814	2.57712036421502E-06	3.43934773423607E-06	7.18134317674213E-06	3.90675421025357E-06	0.992002355398786	-0.107585052431059
4.5	-0.005908361273582	-0.00044117668824727	-6.46908299350413E-06	-2.2655385922699E-07	-8.5770900430237E-06	-2.10758319180763E-06	0.991886008798372	-0.109711291422713
4.6	-0.00620034123989019	-0.000213733555834113	-9.94396025758122E-06	-9.21610238989528E-06	3.23281295058357E-06	-2.73070131114525E-06	0.991678917063468	-0.112608651251881
4.7	-0.00642460846140859	0.000128104207300538	1.26993274160277E-07	1.86419803612134E-06	6.05444144640121E-06	-6.7339786206228E-06	0.991576267276603	-0.114756773562127
4.8	-0.00657793309589475	0.000545010039631789	-6.39006924121215E-06	2.08201278837498E-06	7.76386892079004E-07	-1.27422688736205E-05	0.991177303166025	-0.117320652217393
4.9	-0.00653488272387293	0.000959657508513626	-3.41912626824906E-06	8.14101510916868E-06	5.69327065775093E-07	9.37164633974992E-06	0.990735332062226	-0.119180802487763
5	-0.00632320851819479	0.00126376012899648	9.63608932275574E-06	-4.06553937019937E-06	-6.93054426526996E-06	3.58011775629088E-06	0.990603438480658	-0.120762452515574
5.1	-0.00595907599814706	0.00142841377835556	-3.68425964245406E-07	-3.25023526710662E-06	-3.87351462726713E-06	-1.78931593322164E-06	0.990604916533226	-0.122214732745358
5.2	-0.00562990541037572	0.00143415268294924	-1.06927651117847E-06	-4.48372882345026E-06	8.78478597967655E-06	5.56906666236639E-06	0.990385679181371	-0.124455668696951
5.3	-0.00539130097344239	0.00137784424792646	2.28866983059548E-06	6.78759903219632E-06	8.79059090821017E-06	3.12694209785977E-06	0.99017352242528	-0.126806759654114
5.4	-0.00527079144544509	0.00132782034741315	2.7032382624127E-06	-3.14103866962939E-06	-2.67292563275878E-06	1.54763645737224E-07	0.990150536488256	-0.12966108216326
5.5	-0.00531320878720069	0.00137948927820536	2.1107061626316E-06	9.3129393939031E-06	-3.92226749975848E-06	-5.02993974042666E-06	0.989910320081446	-0.132561336863308
5.6	-0.00536867084289866	0.00150689137298622	-5.85326701055189E-06	-1.13081546069782E-06	4.87097259210164E-06	1.94114768853354E-06	0.989621806086646	-0.135089483349122
5.7	-0.00555163239831649	0.00173071867190223	3.33506643383187E-06	-1.42358808045525E-06	-5.04751797790616E-06	-4.28922728493469E-06	0.989356667596842	-0.137606636754366
5.8	-0.00570841670686463	0.00206441690108296	-2.05528117109865E-06	-4.74409605978046E-06	9.45945115344368E-07	-5.82297527274445E-07	0.989169201360168	-0.139843422927532
5.9	-0.00584374215917087	0.00250377265748506	-3.87779526090843E-06	6.20981827654022E-07	3.86175660830382E-06	1.24716843830968E-06	0.988872496796862	-0.142145129045374
6	-0.00598274579026965	0.00295068403016691	-5.93132202087157E-06	5.0485632466592E-06	-1.48413495027023E-06	1.97127411706805E-07	0.988351832242892	-0.143812071787455
6.1	-0.00600358609035932	0.00341538145166125	-5.92896673871113E-06	-4.69319809462681E-06	-4.00523059831661E-06	4.34395001765552E-07	0.988265362307821	-0.14504483344565
6.2	-0.00595675249212873	0.0037241153573437	2.82105698342513E-06	3.12358362876064E-06	1.0528040205043E-06	7.22201391275724E-07	0.988019509883967	-0.146497133098942
6.3	-0.00579389300981454	0.00390026602481671	1.64064225549944E-06	-7.48615694429683E-07	-1.32760076649461E-07	1.37528651614089E-06	0.987623375045969	-0.1485189101033
6.4	-0.00570320685354317	0.00388678474327547	-5.18428176242707E-06	-5.61655812361417E-06	3.81668937373974E-06	6.90545854591238E-06	0.987087464777406	-0.150676565161277
6.5	-0.00561601623061257	0.00387634590948612	9.06445107511122E-06	-2.50238888842935E-07	-7.32154990778535E-06	-8.96026228093759E-07	0.986855544304186	-0.153294954042366
6.6	-0.00552372699984686	0.00393023017308117	-1.48777184043932E-06	4.6617763904445E-07	3.37254593967363E-06	-9.37665410211443E-06	0.986670963232815	-0.156012382223461
6.7	-0.00542791588845195	0.004112248679337	4.60234099231977E-08	7.74767907617237E-06	-4.92541086929961E-07	-6.0830728882412E-06	0.98632502376876	-0.158386218987408
6.8	-0.0053020412200104	0.00436109323688182	4.24503121846631E-06	1.65756077452033E-06	2.16170321319403E-07	-5.23285518929998E-06	0.985941034528658	-0.160678127714277
6.9	-0.00517921457143011	0.0046407807108887	-7.55242229909297E-07	2.47442676436094E-07	5.75840242277749E-06	-2.67687725331111E-06	0.985592172140663	-0.162798929649925
7	-0.00502758928191913	0.00500370655584504	8.02188771240247E-06	-4.75143245878812E-06	4.36300171065844E-07	-3.01915903027372E-06	0.984985255836558	-0.164592118256388
7.1	-0.00484685392338151	0.00530286430708524	3.84439599320127E-06	2.04488630158327E-06	7.69556328754174E-07	7.22866433638897E-06	0.984538306526623	-0.166243543403108
7.2	-0.00471903654376359	0.00560189958215435	-2.45018314092781E-06	3.68992382772767E-06	-1.33035172446645E-06	-3.82766707163383E-06	0.983957697068873	-0.167967509565377
7.3	-0.00466511146219302	0.00590206238157226	3.43972428977483E-06	-4.92008098831055E-07	-2.448774315974E-06	-1.91883969632238E-06	0.982995993678126	-0.169700876997604
7.4	-0.00473439632278707	0.00616951892091475	-6.18704501745062E-06	-2.70170244711908E-06	3.77000739359515E-06	2.48614837622968E-07	0.982136357209014	-0.171935349931745
7.5	-0.00486120089019753	0.00648945806038446	6.75609299762454E-06	-6.43054326631257E-06	-2.47807506944773E-06	7.98701468451816E-07	0.981247418151732	-0.174382624235336
7.6	-0.00484045702919954	0.00681832216737199	3.47739391845092E-06	5.20454711292272E-06	-1.02419846946592E-05	4.9149791452937E-06	0.980717756956848	-0.177334611029239
7.7	-0.00484989242184427	0.00707729270305936	6.01177832353892E-06	1.09398341747217E-05	3.45557564222905E-07	-1.13519850030142E-05	0.980316355225267	-0.180529172828437
7.8	-0.00459172639559607	0.00719271351946832	2.15381789144833E-06	9.86055685293916E-07	-3.11511446726014E-06	8.81279733899918E-06	0.980078468055439	-0.183718332471981
7.9	-0.00419768263041365	0.00716810053309656	2.55481274329606E-06	-2.30966532376694E-06	3.68621613042995E-06	3.47259490076093E-07	0.979876723442754	-0.186933306586444
8	-0.00375989586800458	0.00709683818710469	-2.81458131120616E-06	1.32567520374486E-06	6.87949754211435E-06	-1.8497219143895E-06	0.97936877635453	-0.189862019516607
8.1	-0.00332551681035134	0.00698594668457231	-1.79207846612483E-06	7.53565424568471E-07	-3.70693523905071E-06	-1.25769736958176E-06	0.978887726510802	-0.192440788937891
8.2	-0.00302983473148411	0.00686826572975587	-7.99968892170365E-07	6.3325998140391E-06	4.87159300830314E-06	4.35797751038259E-06	0.97855709342435	-0.194796011092685
8.3	-0.00279661745206101	0.00681336102961162	-8.44509783594041E-07	-1.42116853605032E-05	6.82043517000959E-06	5.43083305023834E-06	0.977989629878578	-0.197532373323605
8.4	-0.00265382316271092	0.0068603907544025	3.76113973108113E-06	-3.42536366389484E-06	-6.96855723866214E-06	-1.22299042961066E-06	0.977249717737644	-0.200185986163574
8.5	-0.0025329743314335	0.0069997130141843	4.67182573632083E-06	5.89861730850141E-07	8.41697345486356E-06	-6.82334011443479E-06	0.976565048540266	-0.202863495621161
8.6	-0.0023649794154402	0.0072142906248701	-3.27110530215413E-06	4.11305768023847E-06	9.99532476662886E-07	1.10944096169072E-05	0.976079954938846	-0.205516470946959
8.7	-0.00210846443226978	0.00742072800658057	2.68461626394226E-06	-1.99732827172103E-06	4.78958958990476E-07	-5.53444569525867E-07	0.97570833518715	-0.208130832905077
8.8	-0.00175559697449359	0.00763336084911445	1.2268650224992E-07	-1.25313710312081E-06	-9.77189665029226E-07	9.76842055816638E-06	0.975258820251751	-0.210418641559948
8.9	-0.00127149934479374	0.0077011645765008	-3.66580056647411E-06	2.29137415089413E-06	4.83543015627575E-06	-1.8010623860524E-06	0.975243321650415	-0.212438863616105
9	-0.000735966373861961	0.0075761044996141	-1.89112132804189E-06	4.95996347680228E-07	-3.20106194594654E-06	-1.05420175329372E-05	0.975115238914832	-0.214797113876329
9.1	-0.00017731198218373	0.00721423105302046	5.25269155771013E-06	5.94795155811365E-07	9.12855608699835E-07	3.82811132622486E-07	0.974794996196887	-0.216961988262298
9.2	0.000223567367020926	0.00671455725834438	-8.72290576398139E-06	-4.58725267111176E-06	-8.76256705970988E-07	-6.13134904787545E-06	0.974320055027369	-0.219528559990479
9.3	0.000439208715398798	0.00620917591182819	1.82498411205505E-07	6.21993692013523E-06	4.64398221061451E-06	-2.19105307003079E-06	0.973916145904319	-0.222049085945446
9.4	0.00050777512547757	0.00572866892991138	-1.93522545908312E-06	5.88766734393846E-06	-1.05194037485226E-05	7.738774887521E-06	0.973269900168614	-0.225049323149607
9.5	0.000385268174406054	0.00549546409277775	3.1961339724018E-06	-7.57135614897872E-06	3.6890770618684E-06	-2.74082948193876E-06	0.972457573924569	-0.227923708176416
9.6	0.000209349323586758	0.00535434127263616	4.49981957666913E-06	5.58772858657714E-06	-6.47991839669244E-07	7.08008186349116E-06	0.971723125403408	-0.230964521555661
9.7	7.15649231260878E-06	0.0053717452094011	-2.60567699998868E-06	-3.94606476754141E-06	3.70347879542648E-06	-7.53122206375081E-06	0.971037999918774	-0.233553598832196
9.8	-0.000212538038682829	0.00551391831194179	-5.22871909823358E-07	-4.22192611589309E-06	6.28552097426163E-06	8.94976566086664E-07	0.970780536276315	-0.235719275077481
9.9	-0.000373433443174703	0.00581819926046406	-2.69332893228801E-06	-5.97289987625868E-07	-8.52347023220976E-06	5.49264222463461E-06	0.970274893428487	-0.237672919569297
10	-0.000463589435806922	0.0061784472381991	4.30535149083678E-07	-1.7547064212561E-06	-3.08602674857818E-06	-7.98800324244916E-06	0.969785589754363	-0.239259987695122
10.1	-0.0003929264956323	0.00658452790714798	2.24681795415241E-06	4.78040500338355E-06	-3.11274720150281E-06	9.86595119192356E-06	0.969343780510254	-0.240893364592735
10.2	-0.000191120850385001	0.0069246297301746	-5.38370482336901E-07	-1.05093367101776E-06	-1.21055544011256E-06	-3.12304991119129E-06	0.968869779746373	-0.242381622008857
10.3	9.96415276509939E-05	0.00722230729155257	1.13297602484282E-05	-2.93266193074525E-06	1.00775330400131E-05	-4.84994439539022E-06	0.968235691621585	-0.244247057505766
10.4	0.000477682523384348	0.00740673133486414	-6.3005561896026E-07	2.15199788974332E-06	3.03742142624036E-06	-2.18906218192437E-06	0.967333168514503	-0.246372845446809
10.5	0.000785556767309058	0.00751712212298673	-6.12299372838587E-06	4.65197699022579E-06	1.57403455222713E-06	4.31509229932986E-06	0.96645729157149	-0.248928387104093
10.6	0.00121141706406549	0.00765488985161428	-7.117714037106E-06	1.07094754395803E-05	7.04194235667687E-06	4.27731188052819E-06	0.965786118255598	-0.251403172474618
10.7	0.00160737023624954	0.00780521818396417	-3.22129496436402E-06	1.5713129715454E-06	-5.37892826541136E-06	3.17877674832959E-06	0.965020848427953	-0.254055118482813
10.8	0.00209127241916421	0.00794270885834581	-1.93002225336307E-06	5.00331907879809E-06	8.51651842481065E-07	-3.21066360491294E-06	0.964356147381659	-0.256085286496539
10.9	0.00254583369007668	0.00802843019910584	-5.7696299451715E-06	-1.05477211679934E-05	4.94911950180308E-06	1.07273826501169E-05	0.963994231383282	-0.25804381045917
11	0.0031030040600089	0.00808750119312105	2.97413504751332E-06	2.61923457266031E-06	7.83376006851642E-07	-1.12611538140326E-05	0.963475840971952	-0.259733802460399
11.1	0.00371815353055588	0.00804872597618635	3.86700697770708E-06	1.45860520593978E-06	2.51798190002643E-07	-7.38957382132775E-06	0.962861062151525	-0.261341875884243
11.2	0.00434920732034869	0.00784497277082723	-4.42639121058542E-06	-1.97249223262012E-06	-7.34111589667974E-06	-4.85587337516959E-06	0.962118021903455	-0.263103900063374
11.3	0.004983189089071	0.00747078926988006	6.59708553211731E-07	-6.39138947708465E-06	3.78469152089545E-06	1.41652195820675E-05	0.961542008979472	-0.264888348967019
11.4	0.00540327232530303	0.00697139258732561	-5.12022672436468E-06	8.16032165488693E-06	-1.45835681011961E-06	4.08486816565993E-06	0.960607398713191	-0.267418798566683
11.5	0.00563372563234278	0.00645084129458506	4.53487184820248E-06	8.10152625608773E-06	-9.30013224677636E-06	1.58884953325924E-06	0.959617818191118	-0.270194617215396
11.6	0.00583852506978935	0.00588075160051305	-3.84603886384372E-06	1.40569659109435E-06	5.09150750589996E-06	8.14404799267662E-06	0.95843220349824	-0.27365640352289
11.7	0.00591147981418983	0.00530804315490692	2.26079366038782E-06	1.05405853511963E-05	5.38323595970438E-07	-3.6544771554418E-06	0.957297402663523	-0.277198755357444
11.8	0.00595163927202842	0.00485481332825512	1.4353692258641E-06	4.46591265245112E-06	2.25758524155379E-06	4.53917866974863E-06	0.956267011294213	-0.280738786743093
11.9	0.00603023258428872	0.00444473013609716	7.46451307166442E-06	1.05729179664323E-05	3.88768969441503E-06	4.01685978421686E-07	0.955764298441985	-0.283250922220644
12	0.00592826572810247	0.00409105671536401	2.35128169568502E-06	-5.16557977804959E-06	-4.02847490811598E-07	1.75419139142163E-06	0.955048115882139	-0.285733543080918
