# GHZ S RI R 50
0.2	0.000829263982421104	0.00242089889072747	4.79440053524028E-06	-2.98509735809858E-06	-1.3729204314831E-05	1.3120546397987E-05	0.999579345439419	-0.00694849857744048
0.3	0.001280444440607	0.0016774451160279	2.86561347854237E-06	6.62757600179551E-06	-1.6629542032159E-06	-9.32237851923661E-06	0.999503447643939	-0.00983397195794608
0.4	0.001572588610079	0.0012118312786394	-1.86298261060603E-06	-4.01698047987731E-06	-9.01791382901285E-06	4.40466063091628E-06	0.999542026856974	-0.0125185620256894
0.5	0.00170205483255793	0.000793747293901399	-5.35941240858343E-06	3.26432689554737E-06	-2.12626830280053E-06	6.75888428540931E-06	0.999264943362628	-0.0156813877529207
0.6	0.0017848904556855	0.000466718203422641	-1.39725343040495E-07	2.8063045037102E-06	-5.81573124352847E-07	-1.34139724406763E-07	0.999338334121647	-0.0185132691326667
0.7	0.00176764752523514	0.000217619797166024	8.78210151945387E-08	2.21966819338344E-06	4.90489691474265E-06	-3.40217010050248E-06	0.999060035490288	-0.0214859572447937
0.8	0.00179077902768446	1.1760523596439E-06	4.5298332331559E-06	8.26554722234918E-07	2.74469689106261E-06	2.00135544576306E-06	0.998820372212214	-0.0236829851440436
0.9	0.00174233683649136	-0.000199263350658469	-1.51535211012276E-07	-4.21994241064546E-06	-3.41898748862585E-06	-3.11097357866019E-06	0.998695283274405	-0.026095766003695
1	0.00167692903415834	-0.000420366358996048	1.06044799023308E-06	4.29345869267491E-06	3.32827961311767E-06	9.33877644153864E-07	0.998417592303802	-0.0277183094228807
1.1	0.0014765875090623	-0.000688791812600796	9.04563304578977E-06	5.18036571705228E-07	-3.57919844524058E-06	-4.99241286583589E-07	0.998109134705684	-0.0297228994351008
1.2	0.00115001607185255	-0.00122892567251352	3.76148756215259E-06	-1.20017107069535E-06	-4.0976271131091E-06	-2.43799430471634E-06	0.997485841372854	-0.0307161884147663
1.3	0.000503840508697772	-0.00205645278208782	-7.62027215048259E-07	-1.42704245349391E-06	-2.58909712708088E-06	-8.70834200937638E-06	0.997647761997706	-0.0315543270417303
1.4	-0.000282875170246267	-0.00291198019362657	1.51861472448726E-08	3.44854129671303E-06	-4.28399156643301E-06	-4.12731898645578E-06	0.997498640598893	-0.0336359624891589
1.5	-0.000776025879598646	-0.00333486587016467	-1.29728991804321E-06	4.43149237808968E-06	6.55254622951251E-06	-7.41768540049602E-06	0.998059034012572	-0.0370755884046871
1.6	-0.00101171567949898	-0.00338365386868991	1.63004625277142E-06	-4.89630768457677E-07	4.24252638458149E-06	-5.39698813123897E-06	0.997623817551117	-0.0405654638295342
1.7	-0.00108834074578756	-0.00332866255212375	5.32476520220095E-07	3.9587934738825E-06	-8.28721180157004E-06	3.1325759384053E-06	0.99788404150737	-0.0431332640484964
1.8	-0.0011466985498826	-0.00321227697546818	1.8333626081716E-06	1.07845448132238E-06	5.65315900363005E-07	-1.76268937796922E-06	0.997817966776251	-0.0458860820682567
1.9	-0.0012241022048656	-0.00320239011136354	3.23800969839368E-06	3.01858882365232E-06	-1.83499237577321E-07	-2.33128502661623E-06	0.997651718985342	-0.048142181750235
2	-0.00137117923908317	-0.00322436634173733	-1.72829064542583E-07	2.00552032901787E-07	-1.21694522819101E-05	5.42181060012674E-06	0.997206907387814	-0.0508709293429421
2.1	-0.00155665014268985	-0.00329111736720774	6.67845117628377E-07	-1.3833294216617E-06	1.38178754676641E-05	4.96164509597972E-06	0.996954841706968	-0.0531575954793143
2.2	-0.00184393454061039	-0.0033404711312749	1.64424637977597E-06	-1.51842351637257E-06	2.68389023380959E-06	-6.21468521615239E-06	0.996913409986238	-0.0555799259177484
2.3	-0.00224184459165524	-0.00339166628734922	-1.69042578946483E-06	-3.42700687548223E-06	-1.7944659167385E-06	-4.59219788428029E-06	0.996581802842303	-0.0574137336413925
2.4	-0.00271130599886448	-0.0033981835305154	-1.20674689959287E-06	-4.40136769856643E-06	3.04794917403167E-06	1.08479949184024E-06	0.996550748786667	-0.0605080827850286
2.5	-0.00325269978678623	-0.0033099090658707	5.38823181261564E-06	5.66686813520941E-06	-2.59725223696848E-06	1.61545103924959E-05	0.99616911029888	-0.0627681698272864
2.6	-0.00374121673822216	-0.00306585009387316	-2.27557741039768E-06	2.71413526187104E-06	4.3106189130278E-07	-4.31311433844447E-06	0.996185745233656	-0.0656322126719827
2.7	-0.00403282406080908	-0.00271431017078826	-2.40999464555496E-06	-3.63624165743713E-06	2.15365013856204E-06	-2.57300255557882E-06	0.995786774389625	-0.0686340516710725
2.8	-0.00413715567085289	-0.0023577125542315	4.00515258111326E-06	2.30950125054718E-06	9.83421479719975E-06	-6.95376944049955E-07	0.995923276530872	-0.0706368300879645
2.9	-0.00403154142643666	-0.00208936324569774	1.28844138380903E-05	6.99696156096211E-07	2.4311849021624E-06	-1.17210609275669E-05	0.995661312959058	-0.0727019358306654
3	-0.00386767833608071	-0.00197580720696261	-3.85348300523901E-06	1.05023096145111E-06	-4.1477846377604E-06	-1.59527458465537E-06	0.995511673372654	-0.0752281299030328
3.1	-0.00370057566279373	-0.00196280779615171	4.77204401558913E-06	-9.84875475147848E-06	1.06864779526925E-05	2.40168875640033E-06	0.995191951972603	-0.0772291931725778
3.2	-0.00366496601232738	-0.00205553512928184	-5.37681247677055E-06	-7.40507139948637E-06	1.56421450493411E-05	5.3741595151101E-06	0.994939376553041	-0.0790443296235093
3.3	-0.00374155109151345	-0.00218852418702446	-8.7907861401388E-06	2.55190117112841E-06	-8.56715016026363E-06	-1.73403150422939E-06	0.994711069061654	-0.0823071945747672
3.4	-0.00398232984629176	-0.00230021736681593	9.0542212275473E-06	-7.56805881825721E-06	-7.34204845567843E-06	4.24009184076848E-06	0.994645071036318	-0.0842804495302372
3.5	-0.0043121403213213	-0.00238338548141481	3.14586640574621E-07	-5.32119947947008E-06	-4.40496194077289E-06	-8.92513468027676E-06	0.994456624929309	-0.087112218530916
3.6	-0.00469934311728998	-0.00231551898724133	4.07426938532265E-06	4.89633061587547E-06	-7.10040896358498E-06	8.99532311295983E-06	0.994104945713564	-0.0896481912850403
3.7	-0.00507191894028167	-0.00213660569578108	1.52488313765486E-06	-4.5260989153219E-06	-5.10517407128421E-06	-6.58116421242373E-06	0.993915620733817	-0.0923156108425333
3.8	-0.00537365177296515	-0.001860320618198	7.27351357222421E-06	-5.19754793477751E-06	-5.87856580440148E-06	-2.41443210635616E-06	0.993541479438231	-0.0943443227694633
3.9	-0.00551970814550082	-0.00152285825806254	-4.02810682470769E-06	-3.48437560221213E-07	-2.52914676279658E-06	1.13349784549957E-06	0.993460211639114	-0.0974338645897446
4	-0.00556401066817958	-0.00125061387032194	-3.38331016969819E-06	-8.08565185686479E-08	1.20731666988287E-06	8.66703601647509E-06	0.993193491368791	-0.0988887495716172
4.1	-0.005546011974174	-0.0010130041551179	-2.90150845972252E-06	-3.85865248724283E-06	5.87916030492644E-06	3.03450786676946E-06	0.993020331134025	-0.100692331850251
4.2	-0.00553930821584047	-0.000872340049111223	-7.74182124195149E-07	-2.15612112349868E-06	5.69750600452175E-06	-1.84620343202012E-06	0.992489090296713	-0.10334189745994
4.3	-0.00556730687931687	-0.000758750818910127	-5.09025767941679E-07	3.23426358381411E-06	2.12984301097043E-06	1.77835544672039E-06	0.992323349713155	-0.105346613262583
4.4	-0.00572372354000151	-0.000667777326851805	2.57739241090476E-06	3.43917258719809E-06	7.18167492744898E-06	3.90623581091779E-06	0.991963620696258	-0.107707617717822
4.5	-0.00593760291813692	-0.000489780643765602	-6.46897895488372E-06	-2.26148601257744E-07	-8.57706416019645E-06	-2.10701288836155E-06	0.99183169122654	-0.109819808815685
4.6	-0.00625696202809671	-0.000262685154414919	-9.94393747700557E-06	-9.21602670212239E-06	3.23278863707519E-06	-2.73069712787524E-06	0.991617071648301	-0.112659949772702
4.7	-0.00648998085219842	9.46648699533516E-05	1.26963568515682E-07	1.86423053844225E-06	6.05465474635558E-06	-6.73398502080341E-06	0.991529198467929	-0.114775057090955
4.8	-0.0066498719153474	0.000523924416780193	-6.39029387960991E-06	2.08189385142068E-06	7.76753660143872E-07	-1.27425828680322E-05	0.991134804074012	-0.117317631499763
4.9	-0.00660951303521242	0.000960725508485532	-3.41941903930966E-06	8.14116438575057E-06	5.69118106318426E-07	9.37192641644647E-06	0.990691954674673	-0.119159088913751
5	-0.00638272519886125	0.00126989712703823	9.63638389483094E-06	-4.06525341146938E-06	-6.9307798401779E-06	3.57992213896703E-06	0.990563615843329	-0.120722052596865
5.1	-0.00603211574880424	0.00145054059645833	-3.6831233611902E-07	-3.2503746154194E-06	-3.87359308911856E-06	-1.78953695899452E-06	0.990575128565726	-0.122158094300708
5.2	-0.00568856170814598	0.00147774148777614	-1.06918965377043E-06	-4.48396072198786E-06	8.78501040964766E-06	5.56957839266909E-06	0.990375372547156	-0.124387788136967
5.3	-0.00543222763235265	0.00142678962326197	2.28860981883693E-06	6.78794933216473E-06	8.79090105222613E-06	3.12728577224758E-06	0.990179241051259	-0.126739998359313
5.4	-0.00529624830843007	0.00137941000723973	2.7033627752931E-06	-3.14104087811684E-06	-2.67298257011941E-06	1.54706799361895E-07	0.990147963448265	-0.129589800254302
5.5	-0.00531631711638518	0.00140647230284393	2.11006042995296E-06	9.31313458358477E-06	-3.92193261605291E-06	-5.03024122288683E-06	0.989921625836619	-0.132464973161157
5.6	-0.00539112283206593	0.00153135151555478	-5.85329591271715E-06	-1.131225074482E-06	4.8709300940503E-06	1.94150635637785E-06	0.989626229670437	-0.135001311122296
5.7	-0.00556207192977729	0.0017602841341317	3.33514319570731E-06	-1.42335131400231E-06	-5.04719364520197E-06	-4.28954590417969E-06	0.989349795045603	-0.137508212736506
5.8	-0.00570757546978946	0.00208648623364717	-2.05484368547291E-06	-4.74413708101618E-06	9.45967231321305E-07	-5.82205748875868E-07	0.989155441513838	-0.139737147523296
5.9	-0.00583302345179273	0.00252710014692331	-3.87776030770099E-06	6.20592007692935E-07	3.86154157428845E-06	1.24751096942994E-06	0.988873042010211	-0.142022308001567
6	-0.00592989677276212	0.00295313265221475	-5.93150909622543E-06	5.04827011778604E-06	-1.48413461027518E-06	1.97060571787687E-07	0.988405141725554	-0.143764743286873
6.1	-0.00596411840549536	0.00337563734169935	-5.92844046843558E-06	-4.69309723043072E-06	-4.00499309527327E-06	4.34236580555028E-07	0.988247244015205	-0.145042625245257
6.2	-0.00593626912565957	0.00367012867193121	2.82071697734389E-06	3.12353780725092E-06	1.05270048418621E-06	7.22211887458584E-07	0.987986044636975	-0.14648935558383
6.3	-0.00580040747394997	0.00385107767774584	1.6406329950367E-06	-7.48469093056104E-07	-1.32853757684216E-07	1.37522414440126E-06	0.987589642350729	-0.148490721751666
6.4	-0.00572116354736546	0.00387065851265895	-5.1838600623846E-06	-5.6169977970268E-06	3.81615850279975E-06	6.90579566709676E-06	0.987086705875323	-0.150614457013973
6.5	-0.00561863436684777	0.00386041217967911	9.06441432563787E-06	-2.49622162782274E-07	-7.32144568832266E-06	-8.9651786108943E-07	0.98685786358823	-0.153242569596982
6.6	-0.00553808373019351	0.00392286012540514	-1.48783312581691E-06	4.6601016696912E-07	3.37363545656596E-06	-9.37631933032541E-06	0.986680246718849	-0.155907171927771
6.7	-0.00543829593266403	0.00409569114976546	4.51786180980699E-08	7.74787538623647E-06	-4.91889068801061E-07	-6.08327685315174E-06	0.986356918587159	-0.158298481846373
6.8	-0.00533204554003136	0.00433155826581992	4.24499445316401E-06	1.6579971821797E-06	2.16658371558492E-07	-5.23297821472903E-06	0.985953366023619	-0.160620855256461
6.9	-0.00522884075127191	0.00462531437532516	-7.55278112033688E-07	2.47398017209302E-07	5.75872931566554E-06	-2.67655682491683E-06	0.985579106368132	-0.162751806429428
7	-0.00506863920710419	0.00497664017060222	8.02221503900689E-06	-4.75117049994972E-06	4.3643410739701E-07	-3.01918864535153E-06	0.984967160506357	-0.164580292094112
7.1	-0.00492421693935959	0.00528448883161121	3.84439651433391E-06	2.04498264224297E-06	7.69423611687184E-07	7.22875519535538E-06	0.984474857857393	-0.166244541924789
7.2	-0.00479738926544529	0.0056055121899284	-2.45016905043969E-06	3.68994009767432E-06	-1.33037137572397E-06	-3.82766581996178E-06	0.983880106076173	-0.167968990384719
7.3	-0.00474524103206816	0.00591773582933315	3.4396507222323E-06	-4.92091280290934E-07	-2.44878251770944E-06	-1.91874061232436E-06	0.982894216008336	-0.169708917221322
7.4	-0.00481882293351215	0.00621117842016899	-6.18674434906357E-06	-2.70135646422856E-06	3.76978345345666E-06	2.48489723118445E-07	0.981986080394444	-0.171911704644984
7.5	-0.00491277455898894	0.00654708796381614	6.75583512013569E-06	-6.42998704566571E-06	-2.47794283393022E-06	7.98592829120834E-07	0.981139706308832	-0.174290444546116
7.6	-0.00490264222890391	0.00688998846598571	3.47720330556699E-06	5.2041710238077E-06	-1.0241260131435E-05	4.91473298888152E-06	0.980588295492408	-0.177258931352619
7.7	-0.00490323420541184	0.00717128576084733	6.01133649697832E-06	1.09386818664748E-05	3.45371171141774E-07	-1.13508777550959E-05	0.980163819885036	-0.180430359410393
7.8	-0.00463129642070241	0.00730660226495779	2.15358459860308E-06	9.85892215324853E-07	-3.11455435273407E-06	8.81182277238414E-06	0.97991801533563	-0.18360367381352
7.9	-0.00420663696425352	0.00729558686558435	2.5544777586807E-06	-2.30946276549062E-06	3.68581227796684E-06	3.47141118568994E-07	0.979754988132109	-0.186803976060175
8	-0.00373492613142958	0.00719062805809039	-2.81432699011351E-06	1.32579760529026E-06	6.87897384936093E-06	-1.85010061524059E-06	0.979323094883084	-0.189826503100728
8.1	-0.00330507322557676	0.00706503379807687	-1.79184271268735E-06	7.53695082227074E-07	-3.70675312615386E-06	-1.25718713912876E-06	0.978802039749526	-0.19245101449941
8.2	-0.0029961138929976	0.00692688896690443	-7.99291644949222E-07	6.33217181162798E-06	4.8716262657243E-06	4.35715776765984E-06	0.978492863822942	-0.194816199192073
8.3	-0.00276525025638333	0.00684507066760876	-8.45702931798804E-07	-1.42107879921682E-05	6.82051457906833E-06	5.42992223737269E-06	0.977946281258551	-0.197574314589511
8.4	-0.00263031207089261	0.0068835684611642	3.76069373525344E-06	-3.4255830048001E-06	-6.96841903937634E-06	-1.22231315588868E-06	0.977219371100904	-0.200244305161028
8.5	-0.00249838268258013	0.00699509241058249	4.67161037830966E-06	5.8944529289862E-07	8.41593871548196E-06	-6.8236452056697E-06	0.976527239948926	-0.202936399056649
8.6	-0.00236398342319899	0.0072024952267999	-3.27080382009861E-06	4.11307857923837E-06	1.00002549452781E-06	1.10940006286333E-05	0.976039050907764	-0.205567541457201
8.7	-0.00211154884012012	0.00742160910397906	2.68447378472041E-06	-1.99742338585944E-06	4.7892403461316E-07	-5.53458149442455E-07	0.975677925527119	-0.208173477502377
8.8	-0.00175596303719719	0.00764003965743601	1.22616585005906E-07	-1.25313022875454E-06	-9.76644422162964E-07	9.7683681112109E-06	0.975235887321765	-0.210463136145456
8.9	-0.00126479266293821	0.00772156196285492	-3.66559720864928E-06	2.29165382690686E-06	4.83525937363292E-06	-1.80143813498209E-06	0.975226965778694	-0.212495198526719
9	-0.000699230634005664	0.0075861891729155	-1.89103417514616E-06	4.96164031759443E-07	-3.2019873814286E-06	-1.05414905853357E-05	0.975110116017561	-0.214874328528645
9.1	-0.000147243469586746	0.00720755036625875	5.25273994004051E-06	5.94210080934917E-07	9.12895036629009E-07	3.82708514922478E-07	0.974796833774668	-0.217076222253175
9.2	0.000251372084006345	0.00669210204297517	-8.72342686620246E-06	-4.58610996011963E-06	-8.77030520766354E-07	-6.1311936028301E-06	0.974312012297334	-0.219673430619827
9.3	0.000444834922982359	0.00616715435207976	1.83222394081007E-07	6.21982856154988E-06	4.64366129111712E-06	-2.19156486163374E-06	0.97388143160924	-0.222201742898988
9.4	0.000482011249897509	0.00569142007824758	-1.93466868532371E-06	5.88768967105316E-06	-1.05184754811289E-05	7.73949389989816E-06	0.973200395598715	-0.225165158332251
9.5	0.000343871084996004	0.00545290149646325	3.19595983679778E-06	-7.57139221363708E-06	3.68900339643397E-06	-2.74089628661507E-06	0.972407231639253	-0.227986056177877
9.6	0.000134801492319902	0.00533749901012375	4.50004552550548E-06	5.58776664750588E-06	-6.4785720758764E-07	7.08026471201183E-06	0.971666828901121	-0.231007800495359
9.7	-6.55136428575812E-05	0.00538007687487672	-2.60575090266528E-06	-3.94609067558421E-06	3.70345213821898E-06	-7.5313584721296E-06	0.970975756781802	-0.233558294621837
9.8	-0.000282782558711003	0.00553718511840831	-5.2282001965537E-07	-4.22194042847955E-06	6.28552133386682E-06	8.95056897784205E-07	0.970715156485436	-0.23568434502302
9.9	-0.000436727469986019	0.00586592445492882	-2.6933362825384E-06	-5.97423506391391E-07	-8.52383807547529E-06	5.49231624804337E-06	0.970235512907263	-0.23758286403988
10	-0.000497734127698181	0.00622484777335522	4.30590605109396E-07	-1.75477207192184E-06	-3.08598927080535E-06	-7.9884088327268E-06	0.969797965546114	-0.239203281346892
10.1	-0.000434412205276018	0.00663659081577404	2.24664761898042E-06	4.78053121665811E-06	-3.11316003056632E-06	9.86590672949694E-06	0.969319757094486	-0.240804876408503
10.2	-0.000220152323235904	0.00699062464905979	-5.38300162634552E-07	-1.05100247870227E-06	-1.21033685141342E-06	-3.12322340838328E-06	0.968884662381196	-0.242244451024143
10.3	8.16185565292818E-05	0.00729901810557279	1.13306875204289E-05	-2.93156705986219E-06	1.00786053291989E-05	-4.84908991636955E-06	0.968297216780857	-0.24407673750776
10.4	0.000481929087902893	0.00750422902418244	-6.30381035561748E-07	2.15209971261012E-06	3.0379546106429E-06	-2.18886255579885E-06	0.967451284121826	-0.246174423494357
10.5	0.000878107151795774	0.0076382060359063	-6.12453385898083E-06	4.65167261268286E-06	1.57358904900361E-06	4.31591745710074E-06	0.966689481299547	-0.248640159343231
10.6	0.00123629163769798	0.00767714338627537	-7.11948423053944E-06	1.07085459222525E-05	7.04139347045214E-06	4.27846941435827E-06	0.965895125128887	-0.251298252246667
10.7	0.0016885294019022	0.00782050350341624	-3.22187828781255E-06	1.57091603092267E-06	-5.37999714501303E-06	3.17816817173251E-06	0.965240758209744	-0.253900594984296
10.8	0.00215031403542082	0.00792175727927371	-1.93095809953893E-06	5.00346609674133E-06	8.52218189164034E-07	-3.21081711730879E-06	0.964540957789439	-0.255982072995829
10.9	0.00257740498060114	0.0080018222006029	-5.76872160073598E-06	-1.05491619894188E-05	4.94813239636327E-06	1.07287342706124E-05	0.964124392236493	-0.257969617615033
11	0.00313009333294826	0.00804123002233413	2.97397401533011E-06	2.61967570126179E-06	7.84652857664405E-07	-1.1261552381521E-05	0.963573703989373	-0.259685581262316
11.1	0.00371183058530287	0.00800431108263839	3.86705651399202E-06	1.45903075951502E-06	2.52490821351903E-07	-7.38990202708779E-06	0.962924578398169	-0.261311067517888
11.2	0.00433505269938335	0.00780980345255665	-4.42646339633976E-06	-1.97286632691061E-06	-7.34113349497503E-06	-4.85656515360849E-06	0.962163511036449	-0.263089540966826
11.3	0.00496885191570036	0.00743754884588464	6.6002669392358E-07	-6.39164802202647E-06	3.78422310611504E-06	1.41660293320635E-05	0.961583605183913	-0.264891947880389
11.4	0.00538606039416475	0.00694941763209327	-5.12064661004797E-06	8.1602953162781E-06	-1.45854396267871E-06	4.08489737169441E-06	0.96062076455686	-0.267410689415815
11.5	0.00562361012765305	0.00641862134619665	4.53448225084256E-06	8.10207931645906E-06	-9.30052945323564E-06	1.58828842199456E-06	0.959655634180746	-0.270172846510337
11.6	0.00580309626725346	0.00585027605663671	-3.84621585853805E-06	1.40560738448827E-06	5.09138865258662E-06	8.14449743632146E-06	0.958438037227862	-0.27366248252652
11.7	0.00586739540473402	0.00528998366704591	2.26049184090727E-06	1.05406844521601E-05	5.38432359412536E-07	-3.65447277181302E-06	0.957264629506996	-0.277189736805199
11.8	0.00590000826794441	0.00485281568126866	1.43518506797146E-06	4.46585419043631E-06	2.25737899207475E-06	4.53914605345586E-06	0.956202594841397	-0.280701998441644
11.9	0.00598766638469832	0.00446838004454227	7.46375130728782E-06	1.05730045422071E-05	3.88755810267002E-06	4.01876466190208E-07	0.95570993899013	-0.283169657430796
12	0.00591389276996043	0.00409769478633168	2.35132061933892E-06	-5.16555970032539E-06	-4.02860858738879E-07	1.75418762249167E-06	0.955036171943743	-0.285719544054268
