# GHZ S RI R 50
0.2	0.000851518554917912	0.00244176650124248	4.7941754499829E-06	-2.98511692143636E-06	-1.3728450000102E-05	1.31204560948107E-05	0.999470378592745	-0.00703678254563358
0.3	0.00129966150919268	0.00169817521689165	2.8656229176186E-06	6.62723567790277E-06	-1.66306868859422E-06	-9.32194695058246E-06	0.999379637433018	-0.00991140175117433
0.4	0.00158095721881671	0.0012297107147758	-1.86291175360529E-06	-4.01675578437529E-06	-9.01740787982771E-06	4.40448982719245E-06	0.99942197067239	-0.0125597705759066
0.5	0.00167170228867111	0.00082191755909753	-5.35926450974165E-06	3.26408417392004E-06	-2.12632313033826E-06	6.75856807584456E-06	0.999254945186642	-0.0156819409278279
0.6	0.00173930004258161	0.000553612394565795	-1.39761825938715E-07	2.80628145034645E-06	-5.81566939866255E-07	-1.34146491039074E-07	0.999435704111756	-0.0186465093020667
0.7	0.00174701078918966	0.000348205086535617	8.78402871534161E-08	2.21966840370445E-06	4.9048695810892E-06	-3.40221409040615E-06	0.999131894621203	-0.0217542643642443
0.8	0.00180901762444201	0.000154711485561906	4.52984414235368E-06	8.26412362837688E-07	2.74474977711239E-06	2.00126435776796E-06	0.998812528865287	-0.0240470627891742
0.9	0.00181335738379194	-5.66677496540419E-05	-1.51793487035176E-07	-4.21982340654433E-06	-3.41909200459376E-06	-3.11068034639833E-06	0.998530137048001	-0.0265059390750892
1	0.00175748787630355	-0.000354295590606178	1.06064079508066E-06	4.29294850074875E-06	3.32800700627094E-06	9.3354987794894E-07	0.998062430545762	-0.027966640205855
1.1	0.00148444176261031	-0.000646532478854302	9.04427262150409E-06	5.17905654828641E-07	-3.57866186791E-06	-4.99145130707108E-07	0.997821799420057	-0.0297493534362855
1.2	0.00110758870804399	-0.0011680276630979	3.76093380626651E-06	-1.19980042553253E-06	-4.09684858597E-06	-2.4377907539223E-06	0.997310646902316	-0.0306451518628151
1.3	0.000418689072749352	-0.00195069104394496	-7.61764702769016E-07	-1.42689742431561E-06	-2.58781570834113E-06	-8.70724900065229E-06	0.997621178033752	-0.0314425111065909
1.4	-0.00036853871174994	-0.00274183673429796	1.46796869119872E-08	3.44814909779367E-06	-4.28289752321981E-06	-4.12747392948966E-06	0.997615800223301	-0.0335745129507139
1.5	-0.000866091226282773	-0.00310520092375585	-1.29805800942035E-06	4.4309588122457E-06	6.55355079596105E-06	-7.41595064315741E-06	0.998347692135951	-0.0370610088608363
1.6	-0.00103911372505209	-0.00306348117960113	1.63019648303673E-06	-4.89292536954392E-07	4.24380671485066E-06	-5.39622063509666E-06	0.99804304385703	-0.0407625548516462
1.7	-0.00102630675339942	-0.00300809183143888	5.31783583083637E-07	3.95925412123958E-06	-8.28855405986126E-06	3.13130933405992E-06	0.998252341599959	-0.0434770075026705
1.8	-0.00103437892196637	-0.00293355897601894	1.83343186716968E-06	1.07886675518498E-06	5.65652704338934E-07	-1.76282696389335E-06	0.998120484623772	-0.0462785194411587
1.9	-0.00110260501791217	-0.00299215309309242	3.23818782372041E-06	3.01934647197135E-06	-1.83298168334339E-07	-2.33164365252413E-06	0.997900280086819	-0.0485304633045717
2	-0.00133518460100694	-0.00306178288994641	-1.72854259667109E-07	2.00566675294262E-07	-1.21709132834003E-05	5.42193665686953E-06	0.997459900705971	-0.0511955411424902
2.1	-0.00157644339946458	-0.00304513138941779	6.67969908952323E-07	-1.38335916301474E-06	1.38182832161549E-05	4.96280143960741E-06	0.997303442150641	-0.0534966572466674
2.2	-0.00182408805418229	-0.00303247150507905	1.64450380837553E-06	-1.5183633882709E-06	2.68467572261984E-06	-6.2148346802471E-06	0.997296995212293	-0.0560057870979131
2.3	-0.00215327627025309	-0.00307214614111917	-1.69020803936557E-06	-3.42754152628515E-06	-1.79412693218136E-06	-4.59286112753007E-06	0.996937144972489	-0.0579122899525217
2.4	-0.00254954272429902	-0.00313943227059602	-1.20640299840229E-06	-4.40220414915735E-06	3.04829578128081E-06	1.08533883368025E-06	0.996845452264036	-0.0610024450052435
2.5	-0.00312667769708226	-0.00318748205215023	5.389103170396E-06	5.66871499844254E-06	-2.59922073948957E-06	1.6158302885765E-05	0.996522846530376	-0.0631632454320508
2.6	-0.0037434613198803	-0.00295276721291269	-2.27615618121508E-06	2.71489513255257E-06	4.31123594537676E-07	-4.31428168394187E-06	0.996675462243279	-0.0660755408362244
2.7	-0.00410139125239622	-0.00254670150920623	-2.4107921029893E-06	-3.63694473859421E-06	2.15399399433224E-06	-2.57374447087753E-06	0.996318485310539	-0.069147838700081
2.8	-0.00422755510134443	-0.00212784012457007	4.00611069560588E-06	2.3096137785526E-06	9.83604254590696E-06	-6.96320931618657E-07	0.996452536292695	-0.0712051439604336
2.9	-0.00412179865782094	-0.00183100149679855	1.28864119192543E-05	6.98535554847482E-07	2.43039783374036E-06	-1.17230548527979E-05	0.996134633852185	-0.0732830199706039
3	-0.00402608233125392	-0.00169037400501736	-3.85363357814442E-06	1.05081518248707E-06	-4.14830435924191E-06	-1.59484972477559E-06	0.99596658551281	-0.0757440757450802
3.1	-0.00387957922436022	-0.0015394864972722	4.7708616632233E-06	-9.84905999387411E-06	1.06865054717557E-05	2.40046693619162E-06	0.995691057627997	-0.077773592324471
3.2	-0.00377546538977232	-0.00154226462015609	-5.37689184609499E-06	-7.40416595572417E-06	1.56413225407491E-05	5.37273751935482E-06	0.995407752135513	-0.0796420304735933
3.3	-0.00376896970479832	-0.00163828515784538	-8.7897971377245E-06	2.55184679972278E-06	-8.56628938062496E-06	-1.73363952814761E-06	0.995114207916845	-0.0829271306069552
3.4	-0.00393465535486134	-0.00177306407043846	9.05339116748636E-06	-7.56691922794564E-06	-7.34132038390394E-06	4.23938759818299E-06	0.994982473935313	-0.0848453475037039
3.5	-0.00428978878064058	-0.00189994755876213	3.14954963016191E-07	-5.32084329594763E-06	-4.40403525321135E-06	-8.92489694890628E-06	0.994904428283807	-0.0875845721367279
3.6	-0.00467938890148574	-0.00174648952802441	4.07400485330164E-06	4.89636105216707E-06	-7.10056108283815E-06	8.9948688388827E-06	0.994650849277954	-0.090292307133361
3.7	-0.00494539880612202	-0.00153332255129399	1.52487685395052E-06	-4.5259269096272E-06	-5.10493022395556E-06	-6.58098917461265E-06	0.99433712918653	-0.0931001787685911
3.8	-0.00513816752538611	-0.00131564021632176	7.27319184956378E-06	-5.19730625491507E-06	-5.87829869005468E-06	-2.4143297643231E-06	0.993769570212114	-0.0951475692301182
3.9	-0.0052376109709068	-0.00112540320439789	-4.02791170172547E-06	-3.48323955165823E-07	-2.52899201913643E-06	1.1335008826272E-06	0.993470056129616	-0.0981212754209762
4	-0.00541910602750232	-0.000996958871329077	-3.3829899798183E-06	-8.06322629877798E-08	1.20775512268224E-06	8.66612528221358E-06	0.993131411462961	-0.0992589421442416
4.1	-0.00554328111629863	-0.00068526353246061	-2.90129108995386E-06	-3.85797585074478E-06	5.87848905000058E-06	3.03380219065199E-06	0.993165680035208	-0.100922468268414
4.2	-0.00554593263645087	-0.000466182739014593	-7.74155152923019E-07	-2.15578351134905E-06	5.69662159850607E-06	-1.84616063369736E-06	0.99273511828455	-0.103613089608033
4.3	-0.00554722980107109	-0.000331170626419151	-5.08860806231395E-07	3.23383267518898E-06	2.12960154502572E-06	1.77804788401417E-06	0.992585262838387	-0.10564531838865
4.4	-0.00568969846557258	-0.000290214174614616	2.57709645246078E-06	3.4388542111963E-06	7.18091089391062E-06	3.90591963351657E-06	0.992240965180651	-0.107966377954549
4.5	-0.00603533515563843	-0.000187090944809724	-6.46916136996518E-06	-2.26328548649352E-07	-8.57725759071495E-06	-2.10730412863227E-06	0.992269061339996	-0.109996932522706
4.6	-0.00649819733339709	0.000174060233379917	-9.94584476722507E-06	-9.2165802163263E-06	3.2330325478043E-06	-2.73126699522861E-06	0.992273436186558	-0.11297208599314
4.7	-0.00673156654043119	0.000676167097693851	1.27256844184462E-07	1.86451584171944E-06	6.05465703015596E-06	-6.73596794131076E-06	0.992248616802996	-0.115272233907757
4.8	-0.00683373608155339	0.00120293046451646	-6.39100119868139E-06	2.08360375709522E-06	7.74225543787507E-07	-1.27450247772037E-05	0.991831664193723	-0.117975531247062
4.9	-0.00671304538720795	0.00166252743910622	-3.41778347470319E-06	8.1435062185019E-06	5.71779430667589E-07	9.37339014707169E-06	0.991265593578028	-0.119910462938797
5	-0.00651832937686601	0.00196598431821613	9.63609358639217E-06	-4.0689293334606E-06	-6.9303515080839E-06	3.58263882224094E-06	0.99104226763556	-0.121374053962207
5.1	-0.00612762675126321	0.00229329134652277	-3.69413647277201E-07	-3.25033660903184E-06	-3.87429620149167E-06	-1.78828323268334E-06	0.99110710458696	-0.122820332359872
5.2	-0.00561982181910592	0.00234526107409379	-1.0705727626115E-06	-4.48341605333713E-06	8.78639027428969E-06	5.56652108146271E-06	0.990800300145775	-0.125097259533316
5.3	-0.00525181902259945	0.00220089562239268	2.29019583315864E-06	6.7864779400785E-06	8.79067316860273E-06	3.12447704543554E-06	0.990456945253259	-0.127359134313558
5.4	-0.00511055518958624	0.00200041096321506	2.70236302978362E-06	-3.14091009366165E-06	-2.67247289130535E-06	1.55112468186562E-07	0.990371268621546	-0.129991237966924
5.5	-0.00533210010367965	0.00195528753727039	2.11008822958199E-06	9.31226814787316E-06	-3.92170321731186E-06	-5.02970955933663E-06	0.990355837770174	-0.132659286982245
5.6	-0.00548125656491759	0.00229734881019114	-5.8534988262E-06	-1.13081032274516E-06	4.87117372755675E-06	1.94118143290242E-06	0.990266427678338	-0.135336879809488
5.7	-0.00550332124324686	0.00264234824189502	3.33497580624794E-06	-1.42381054939981E-06	-5.04780763107271E-06	-4.28889766899001E-06	0.989946355950463	-0.138003202468095
5.8	-0.00546271716366125	0.00293813006515174	-2.05558090430551E-06	-4.74352356876723E-06	9.4581419587019E-07	-5.82343742033915E-07	0.989579994362868	-0.140300635381681
5.9	-0.00543196774615815	0.00317233441255842	-3.87689256860334E-06	6.21339278854523E-07	3.86109312294063E-06	1.2464158945064E-06	0.988991840121912	-0.142494331137801
6	-0.00566519796114385	0.00324887437430746	-5.92817950198558E-06	5.04681999585952E-06	-1.48344572720882E-06	1.97173419953995E-07	0.988318521232196	-0.143745627087345
6.1	-0.00602628458326885	0.00365236870092741	-5.92470207345298E-06	-4.69119546239634E-06	-4.00286293431557E-06	4.33561220387659E-07	0.988438252550659	-0.144637635434592
6.2	-0.00616950838784262	0.00406800727564582	2.81839355715222E-06	3.12263716341218E-06	1.05195147797234E-06	7.22110296034016E-07	0.98843663791545	-0.145989852032626
6.3	-0.00609277408460688	0.00439787132126072	1.64011589481814E-06	-7.47512400623414E-07	-1.33289944448539E-07	1.3745142347491E-06	0.988224917116034	-0.148026174641418
6.4	-0.0060002763684297	0.00449312206255345	-5.17923042651929E-06	-5.61692975389404E-06	3.81153377213759E-06	6.90458925320942E-06	0.98780683279778	-0.150226171361421
6.5	-0.00602420750230079	0.00458361361359169	9.06205566765344E-06	-2.44394298482829E-07	-7.31891556426848E-06	-9.00437515389271E-07	0.987744677438218	-0.15288845035971
6.6	-0.00585994035696444	0.00494243669436254	-1.48807757199421E-06	4.65140377503726E-07	3.37900878011383E-06	-9.37420459678155E-06	0.987720300507346	-0.155838027883803
6.7	-0.00554090099041039	0.00519706646900993	4.1360452931065E-08	7.74913274004138E-06	-4.88963975384134E-07	-6.08448941693834E-06	0.987314950822323	-0.158480834036306
6.8	-0.00527381987867821	0.00539434958349269	4.24552210714938E-06	1.66007019027814E-06	2.18714404810262E-07	-5.23432591129258E-06	0.986755629257844	-0.160941253741402
6.9	-0.00508936722025501	0.0055481911979294	-7.55564533418095E-07	2.47317699623178E-07	5.76107772008779E-06	-2.67619021194404E-06	0.986159402608097	-0.16309746486736
7	-0.00513469245317952	0.00579431725544699	8.02356662739531E-06	-4.75104694222702E-06	4.36743054966444E-07	-3.01950762367307E-06	0.985412531306159	-0.164697138101891
7.1	-0.00506956963637357	0.00638737676316408	3.84385989041298E-06	2.04600829822175E-06	7.67503419391872E-07	7.22897286296065E-06	0.985098926743394	-0.166280137163612
7.2	-0.00472715612704479	0.00689058376522262	-2.4518972291959E-06	3.68922509397488E-06	-1.3288936807767E-06	-3.8285284157054E-06	0.984575338768765	-0.168128055177737
7.3	-0.00437072229021126	0.00721504941382541	3.44068856787177E-06	-4.90398895771824E-07	-2.44833136204459E-06	-1.92045986492182E-06	0.983557354576216	-0.170017112449567
7.4	-0.00411324842622856	0.00729012925935406	-6.18798124733076E-06	-2.70648907082894E-06	3.77140843598197E-06	2.50957340018959E-07	0.982528048088215	-0.172370091505173
7.5	-0.00420284224201451	0.00714366157039156	6.76483174515695E-06	-6.43182842759469E-06	-2.48042840797616E-06	7.97966003648926E-07	0.981445816213593	-0.174787756969204
7.6	-0.00441744413558248	0.00732788800507852	3.4790124395035E-06	5.21036835209432E-06	-1.02528586072674E-05	4.91639622525199E-06	0.980764022666111	-0.177671045907463
7.7	-0.00453450839550127	0.00752004991710466	6.01556146614288E-06	1.09509555985185E-05	3.47733556761383E-07	-1.1362449141949E-05	0.980260966159063	-0.18076061487399
7.8	-0.00442596333794679	0.00757888747714154	2.15571822482102E-06	9.86937427017885E-07	-3.11790908417076E-06	8.82057709348001E-06	0.979956116025947	-0.183838453353743
7.9	-0.00424761792216181	0.00751093528244105	2.55630670637028E-06	-2.31203823882687E-06	3.68918194138947E-06	3.46720016408897E-07	0.979745515947006	-0.186933575786503
8	-0.00420327986912525	0.00757802247824551	-2.81530959828619E-06	1.32790580122212E-06	6.88204088046262E-06	-1.85445472413988E-06	0.979308218024545	-0.189833936539155
8.1	-0.00384749699617635	0.00794218822003915	-1.79175358611293E-06	7.54679498507002E-07	-3.70793348267935E-06	-1.25558465025722E-06	0.978831050290098	-0.192414838070469
8.2	-0.00334935945888325	0.00806142853662943	-7.96839986751615E-07	6.33190296663563E-06	4.87282586291246E-06	4.3549351825832E-06	0.978523926128147	-0.194791328336381
8.3	-0.00292210493550066	0.00805986972617947	-8.49169402617622E-07	-1.42072629707269E-05	6.82032709881525E-06	5.42690043030175E-06	0.977950481618329	-0.197566397923244
8.4	-0.00264890572483457	0.00801154448400154	3.75934800470839E-06	-3.42503032552573E-06	-6.96666596555072E-06	-1.22130299565246E-06	0.977184772411599	-0.200249387238024
8.5	-0.00270223257927546	0.00803045540339993	4.67124803918273E-06	5.89169346609015E-07	8.41490343158097E-06	-6.82348244171175E-06	0.976457092235738	-0.202955989726024
8.6	-0.00264012178058214	0.00857385119375267	-3.26956363132246E-06	4.11372300248421E-06	1.00287056596255E-06	1.10931748094957E-05	0.975919298652958	-0.205611876739693
8.7	-0.00212578640202736	0.00902054740847936	2.68323845789642E-06	-1.99810908222093E-06	4.78627799912907E-07	-5.53546211724195E-07	0.975495755288975	-0.208226596339076
8.8	-0.001409297564637	0.00925201794898216	1.22010010243787E-07	-1.25277541778603E-06	-9.71909248332742E-07	9.76561171201623E-06	0.975000714565024	-0.210505224533138
8.9	-0.000585058732805955	0.00906950561164363	-3.66252946765178E-06	2.29226290149434E-06	4.83181815847113E-06	-1.8028853103131E-06	0.974982618336669	-0.212522129497562
9	-8.10315726528582E-05	0.00851021797065838	-1.88936226320007E-06	4.96584852903939E-07	-3.20399628824064E-06	-1.05319851195245E-05	0.974887784836334	-0.214967283224223
9.1	0.00029343987868092	0.00804999289198921	5.248300848826E-06	5.92327153248393E-07	9.12196075307451E-07	3.82136915430278E-07	0.974511561840797	-0.217248758830318
9.2	0.000598589870579265	0.0074521365628822	-8.71638317712911E-06	-4.58113873607319E-06	-8.76968181690521E-07	-6.12577597930158E-06	0.973971023100657	-0.219879786875417
9.3	0.000643848461709628	0.00686720702158485	1.82954621120759E-07	6.21498205763574E-06	4.64008420102737E-06	-2.18976264611383E-06	0.973492730186979	-0.222436277370805
9.4	0.000493464326667691	0.00635084324623286	-1.93445708752131E-06	5.88359333776536E-06	-1.05131042826255E-05	7.73272225390649E-06	0.972763703943787	-0.225415851617442
9.5	-7.93575843888686E-06	0.00621888975533188	3.19694252036675E-06	-7.5682684818643E-06	3.68859021145196E-06	-2.73911227242471E-06	0.971949544046582	-0.228277142403107
9.6	-0.00027588068966455	0.00656815097252187	4.49924271637682E-06	5.5878429670186E-06	-6.48481389970467E-07	7.07976565916008E-06	0.971089088955896	-0.231337738906913
9.7	-0.000229322171087734	0.00685844093802526	-2.60587899232763E-06	-3.94595785039727E-06	3.70313380433622E-06	-7.53143538875813E-06	0.970279520139567	-0.233841622934963
9.8	-0.000153156037347971	0.00704817508720414	-5.23335125852222E-07	-4.22184691121726E-06	6.285587713785E-06	8.94278414762548E-07	0.969955649370825	-0.23587478346369
9.9	-6.81400586161739E-05	0.00715469354294855	-2.69322817604595E-06	-5.9678953169831E-07	-8.52190222362086E-06	5.49367278830971E-06	0.969534829008686	-0.237703576017285
10	-0.000297229089737432	0.00723472998279421	4.30133868866565E-07	-1.75432920523148E-06	-3.08656329698622E-06	-7.98544864576655E-06	0.969162460101853	-0.239499405465434
10.1	-0.000372043225786695	0.00779681654692805	2.24585072569499E-06	4.77901041215711E-06	-3.11228797522745E-06	9.86265902141619E-06	0.968459809124674	-0.241186254027417
10.2	-3.61687554474054E-05	0.00822074996203617	-5.38076995648812E-07	-1.05082240269262E-06	-1.20976005668812E-06	-3.12264986168019E-06	0.967899390427102	-0.242504727594642
10.3	0.000419922934402169	0.00843843500480641	1.13298735743582E-05	-2.92986570236897E-06	1.00781577327548E-05	-4.8473440339079E-06	0.967320765995326	-0.244156812690226
10.4	0.000880452915943418	0.00834928062378597	-6.3073031533168E-07	2.15210254065218E-06	3.03841769625715E-06	-2.18850802508211E-06	0.966671514484249	-0.246043133687104
10.5	0.000905521143367629	0.00820647242074051	-6.12694172373537E-06	4.65231187795497E-06	1.57352889368424E-06	4.31740432647869E-06	0.966337079278666	-0.248551183286039
10.6	0.000965604279091856	0.0084695095529496	-7.12291886961529E-06	1.07144324417501E-05	7.04525164746648E-06	4.28051466949288E-06	0.965803588828411	-0.251429096397771
10.7	0.00123407502570349	0.00880580640957806	-3.22314075093907E-06	1.5722042149345E-06	-5.38201163356185E-06	3.18058233939579E-06	0.965024039575795	-0.254408449173881
10.8	0.0016767173492702	0.00913942611081179	-1.93077413354978E-06	5.00619091460989E-06	8.51921519601669E-07	-3.21248252574971E-06	0.964174412241989	-0.256676344832303
10.9	0.0021616188081307	0.0093126028275019	-5.77406178914294E-06	-1.05517192239603E-05	4.95319624293037E-06	1.07315993179001E-05	0.963675190732488	-0.258790495465441
11	0.002509330695873	0.00944296434304991	2.97517225014148E-06	2.61938113936674E-06	7.81913699763652E-07	-1.12637546224945E-05	0.962976102398748	-0.260907790057778
11.1	0.00310892622640749	0.00989809303824498	3.86747070823883E-06	1.45914715255088E-06	2.52450289454601E-07	-7.39067065529311E-06	0.961674168535623	-0.262701742815607
11.2	0.00409653555074183	0.0100018832544607	-4.4268756400297E-06	-1.97384269648253E-06	-7.34158045623199E-06	-4.85843751804899E-06	0.960382762951321	-0.264235675816886
11.3	0.00519256173375376	0.00965936732188338	6.61928924778043E-07	-6.39307324965E-06	3.78132434094091E-06	1.41706136809791E-05	0.959477816872571	-0.265551066853695
11.4	0.00598594730847618	0.00892629020112818	-5.12583669673834E-06	8.16113800826193E-06	-1.4607438242154E-06	4.08577197903226E-06	0.958468694073138	-0.267452185906764
11.5	0.00618396371359783	0.00810878909102118	4.53338173959768E-06	8.10868311757558E-06	-9.30647957195475E-06	1.58498960164012E-06	0.957899768227225	-0.269938805358653
11.6	0.00643063383373693	0.0076133621647201	-3.84918958271405E-06	1.4051679415664E-06	5.09182275201855E-06	8.15153475250303E-06	0.956691467930709	-0.273472617741313
11.7	0.00678500314032076	0.00690553272738522	2.25861930269325E-06	1.05480286527914E-05	5.3991411626049E-07	-3.65660559791291E-06	0.955452974345823	-0.27670742066139
11.8	0.00700826575429296	0.00607072207533122	1.43486094872782E-06	4.46895135414073E-06	2.25753469540441E-06	4.54250791906419E-06	0.95461700255731	-0.27983934550912
11.9	0.00699398741187075	0.00506600468297131	7.46637361565579E-06	1.05793693252547E-05	3.88952681907055E-06	4.02543967087011E-07	0.954796190153504	-0.282162246836066
12	0.00621669988505829	0.00431988529884991	2.35182159284755E-06	-5.16681141235923E-06	-4.02937103763003E-07	1.75460833036225E-06	0.954834973118	-0.285442507061599
