# GHZ S RI R 50
0.2	0.000947853085051805	0.00268548515599653	4.79009626956238E-06	-2.98593029544479E-06	-1.37144643430935E-05	1.31203297911856E-05	0.999124783145676	-0.00720610418214396
0.3	0.00136365619432303	0.00183081246447535	2.86662631616948E-06	6.62199483361842E-06	-1.66592696970107E-06	-9.3155592439691E-06	0.998929051072127	-0.0101078745902063
0.4	0.00163603098187585	0.0012183850453286	-1.86262601609335E-06	-4.01293622269335E-06	-9.00876547832365E-06	4.40366831823329E-06	0.998740591773028	-0.0128108318067661
0.5	0.00146524380433489	0.000840503325307679	-5.35546476759625E-06	3.26137050176129E-06	-2.12511257314804E-06	6.75343684952727E-06	0.998248890541223	-0.0155469982277669
0.6	0.00175645978826708	0.000805021609740572	-1.3915677476858E-07	2.80473928993831E-06	-5.81267096588517E-07	-1.33962316171397E-07	0.998741460041882	-0.0183382427803321
0.7	0.00193343864437617	0.00046313419310066	8.8432157357587E-08	2.21790328540247E-06	4.90001424594425E-06	-3.40100860846625E-06	0.998438228096952	-0.0215289093815984
0.8	0.00205392835031321	0.000146635759455997	4.52563069999811E-06	8.24374469866027E-07	2.74260362723889E-06	1.99855960391883E-06	0.998096275443649	-0.0238153950223921
0.9	0.00213575059255564	-0.000244910854878746	-1.52474705154725E-07	-4.21477231160071E-06	-3.41565977900459E-06	-3.10628147072927E-06	0.99786932312077	-0.0263757060246253
1	0.00177805892526631	-0.000857920537601689	1.0587739292631E-06	4.28730143410645E-06	3.32344743989326E-06	9.32642590617326E-07	0.997082750693083	-0.028083160679664
1.1	0.00131723397235069	-0.000750130422974451	9.03407635493569E-06	5.1922412321877E-07	-3.57456569932194E-06	-4.99338663665913E-07	0.996698598161643	-0.0295445006906253
1.2	0.00115415618367547	-0.00115641363279994	3.75714999698339E-06	-1.19781811381815E-06	-4.09202623933042E-06	-2.43595909238468E-06	0.996274619024385	-0.0303721010680348
1.3	0.000614198775238554	-0.00192553949180562	-7.60636498194899E-07	-1.4257036677586E-06	-2.58294963554612E-06	-8.69941273134589E-06	0.996639976833439	-0.0310216526134975
1.4	-6.55950784238469E-05	-0.00282685827298666	1.35246428489854E-08	3.4452654190473E-06	-4.27794182272791E-06	-4.12543569931934E-06	0.996784046521488	-0.033048630409804
1.5	-0.00077475173932929	-0.0031943159940708	-1.29799133648232E-06	4.42698160917743E-06	6.54979983901297E-06	-7.40829389022551E-06	0.997183367712526	-0.0364846374108919
1.6	-0.000735178875046369	-0.00311786046258687	1.62855705243164E-06	-4.88452410390705E-07	4.24034631649704E-06	-5.3896454050792E-06	0.996882697667633	-0.0398583510912601
1.7	-0.000758391463226128	-0.00327577227206457	5.29943115888304E-07	3.95447763522138E-06	-8.2791549226459E-06	3.12494117494112E-06	0.997078994498391	-0.0425543004068794
1.8	-0.000859454734020562	-0.00329932413592277	1.83061785958364E-06	1.07812547385753E-06	5.65561056152718E-07	-1.76029609436393E-06	0.996938773242144	-0.0454044267776405
1.9	-0.00103397800393754	-0.00348845265531086	3.23294276005863E-06	3.01592651061706E-06	-1.82476341996789E-07	-2.32843966491776E-06	0.996611526857783	-0.0480344864462144
2	-0.00164790284800096	-0.00347200202587695	-1.72550995980385E-07	2.00098158791571E-07	-1.21470581002395E-05	5.40711494814637E-06	0.994962555927391	-0.0507035844056651
2.1	-0.00170060932188293	-0.00312153789993351	6.68105693035053E-07	-1.37984795038721E-06	1.37850450317831E-05	4.9676107178026E-06	0.994901635481209	-0.0517551188987339
2.2	-0.0017894823479594	-0.00318552816460629	1.64345146581812E-06	-1.51375397868538E-06	2.68741911230104E-06	-6.20079982834516E-06	0.995359487135585	-0.0540488394971547
2.3	-0.00207094313129893	-0.00330402857020213	-1.68311635599898E-06	-3.42385456808795E-06	-1.78541781451155E-06	-4.58733806461152E-06	0.995239494149174	-0.055893073515245
2.4	-0.00243270894718424	-0.00351086194083199	-1.19825492766734E-06	-4.3961796047476E-06	3.04148740342431E-06	1.08762982468488E-06	0.995325466083066	-0.0590349481885634
2.5	-0.00332414150417123	-0.00368648744882671	5.37078547243917E-06	5.66880066897711E-06	-2.62259530990098E-06	1.61279264381574E-05	0.994844749241237	-0.061275626210791
2.6	-0.00396304883913818	-0.0030915096124841	-2.27739618736621E-06	2.7073458942187E-06	4.37580020971268E-07	-4.3075012003251E-06	0.994924747722089	-0.0639616256998028
2.7	-0.0041514151205981	-0.0026189941577131	-2.40111904001055E-06	-3.63567204424595E-06	2.15517301762431E-06	-2.56633339050791E-06	0.994539779806647	-0.0668336436240605
2.8	-0.0041359286449182	-0.0022270975743803	3.99592230660383E-06	2.31369521986902E-06	9.8229025592762E-06	-6.76953540266639E-07	0.994766396613846	-0.0686346304071155
2.9	-0.00395484861165359	-0.00208420041498856	1.28674900678128E-05	7.25001372485742E-07	2.45204574973308E-06	-1.17020232009612E-05	0.994676202108844	-0.0705832313930419
3	-0.00405249820483946	-0.00195829413671032	-3.85242278670505E-06	1.04115948060208E-06	-4.14086076081458E-06	-1.6027129304958E-06	0.99462871043769	-0.0730294116648562
3.1	-0.00369062492032532	-0.00169259218197278	4.78792495447482E-06	-9.83050508060389E-06	1.06723201812517E-05	2.42133010063452E-06	0.994488699383295	-0.0748510311760765
3.2	-0.00349895296607505	-0.00186757146470296	-5.35603966554167E-06	-7.41113052354632E-06	1.56177016380414E-05	5.40468810484025E-06	0.994478664639079	-0.0765719698419158
3.3	-0.0034949042405459	-0.00210234936198078	-8.79176881691538E-06	2.52898145288745E-06	-8.55783163183966E-06	-1.75385688661311E-06	0.994557717840657	-0.079742701382021
3.4	-0.00370777775884242	-0.00241794185997316	9.07247746912589E-06	-7.54300226388487E-06	-7.35188018241326E-06	4.22010498855491E-06	0.994959380784158	-0.0817671282913863
3.5	-0.00439058408591582	-0.00256288336418601	3.26296179773274E-07	-5.32215694653461E-06	-4.38684570883936E-06	-8.93750495916449E-06	0.994867910133367	-0.0851384075334293
3.6	-0.00465562520104725	-0.00218188367384936	4.06412913607794E-06	4.90460226861237E-06	-7.11874579567226E-06	8.98055635661625E-06	0.994306835290304	-0.0874599705676527
3.7	-0.00483831343383251	-0.00209073385049561	1.53522078527968E-06	-4.52295745185303E-06	-5.09063863416534E-06	-6.5931537530043E-06	0.994419982389241	-0.0900159272508483
3.8	-0.00507198856257602	-0.00197766771458651	7.2875653559064E-06	-5.18248045174944E-06	-5.87480580127147E-06	-2.42858750328179E-06	0.994352492340698	-0.0922054421268517
3.9	-0.00527477585456842	-0.00190818858555478	-4.02920606446736E-06	-3.56737411401353E-07	-2.53257090699389E-06	1.12889209490697E-06	0.994346067845183	-0.0958412508348158
4	-0.00582550837772765	-0.00167490620330013	-3.38273385205099E-06	-8.76227813183446E-08	1.1898102771535E-06	8.66839254654216E-06	0.993005419401714	-0.0973000481778201
4.1	-0.00576801127266878	-0.00100980792513602	-2.89167747986466E-06	-3.86709376739459E-06	5.87205372301881E-06	3.05078122391895E-06	0.993238109353582	-0.0980314760785454
4.2	-0.00559246447569168	-0.000833248768004488	-7.68907138326539E-07	-2.15946425398578E-06	5.70580928191923E-06	-1.83214558838328E-06	0.993300685972778	-0.100708552844324
4.3	-0.00552224281032026	-0.000766106537791431	-5.17796052506954E-07	3.23546267760973E-06	2.12689605039595E-06	1.7852540258119E-06	0.993413834886145	-0.102848624330827
4.4	-0.00563550712687748	-0.000864915884218221	2.57031886156674E-06	3.44894756976789E-06	7.17718460819038E-06	3.92874413294798E-06	0.993168727326752	-0.105315320300194
4.5	-0.00628028076084484	-0.000764395242339551	-6.47706417626503E-06	-2.46457434336148E-07	-8.58219649481576E-06	-2.13639390211201E-06	0.993181478840554	-0.107155198138784
4.6	-0.00655072422611815	-9.64186673377293E-05	-9.93957549932073E-06	-9.26023127988653E-06	3.24631776800607E-06	-2.72766709428067E-06	0.993595703918275	-0.110110160381124
4.7	-0.0065853698391326	0.000313449957668697	1.22967867385368E-07	1.86833087829252E-06	6.08240135023489E-06	-6.73392935626725E-06	0.993738783803929	-0.112511584036028
4.8	-0.00660951096849307	0.000716731335632501	-6.40806213297238E-06	2.07255571082012E-06	8.05641283061535E-07	-1.27674673325468E-05	0.993505342407798	-0.115234333788261
4.9	-0.00647680335542189	0.000981050580889506	-3.44454045844263E-06	8.15159912724738E-06	5.50071382694082E-07	9.39369472926735E-06	0.993269670867631	-0.117242059228344
5	-0.00657258892614578	0.00128011929330358	9.67071907191392E-06	-4.05675311425788E-06	-6.95680319847546E-06	3.5755856602129E-06	0.993321522073011	-0.119023321374202
5.1	-0.00597120425092216	0.00174961124280308	-3.64320840021641E-07	-3.25969689205039E-06	-3.88128585225489E-06	-1.80029797394566E-06	0.993510958679103	-0.120664513932034
5.2	-0.00542952879005323	0.00160588222229511	-1.06548039211327E-06	-4.49737345751828E-06	8.80011709107894E-06	5.59710786926747E-06	0.993450540319233	-0.123141142304051
5.3	-0.00515695365812343	0.00136171246086107	2.28486204704849E-06	6.80995589507248E-06	8.81040289665298E-06	3.14885328955904E-06	0.993374641851516	-0.125686389805549
5.4	-0.00513632051146945	0.00106040409911015	2.71666616068534E-06	-3.14672034301815E-06	-2.68159454109489E-06	1.51077498072417E-07	0.993627331209093	-0.128787704705914
5.5	-0.00573092248917383	0.00123210300430481	2.11037563338162E-06	9.34940984777623E-06	-3.93243102689411E-06	-5.05208020768298E-06	0.993309201279955	-0.132332720852554
5.6	-0.00547929289147659	0.00186023093933091	-5.87177854437379E-06	-1.13678778066735E-06	4.88598286513248E-06	1.94935691253743E-06	0.992787674407913	-0.134784914082114
5.7	-0.00533474863345392	0.00196890765894995	3.34608653830472E-06	-1.42686277124797E-06	-5.06186060543668E-06	-4.30456630966505E-06	0.992758323964223	-0.137443592089106
5.8	-0.00533008409939118	0.0021021842527382	-2.06118153887115E-06	-4.75946585283575E-06	9.490329753065E-07	-5.84022786602645E-07	0.99273236901833	-0.140120526767431
5.9	-0.00537445456820952	0.00214737417739435	-3.88909179773852E-06	6.24343432250294E-07	3.8737346927153E-06	1.24937205100678E-06	0.992246434109213	-0.143317447985935
6	-0.00616365807339478	0.00219898600566394	-5.94197020871682E-06	5.05968427837434E-06	-1.48701380539432E-06	1.97813612604161E-07	0.990097456041098	-0.145050116245481
6.1	-0.0064350842040883	0.00320433462329354	-5.94096028175054E-06	-4.70766057263779E-06	-4.01518993364414E-06	4.33387323223276E-07	0.990327713499254	-0.145101993107293
6.2	-0.00628239255966827	0.00369326504688998	2.82822155569708E-06	3.13324051343696E-06	1.05559956094618E-06	7.24544118424956E-07	0.990563097686397	-0.146679475701614
6.3	-0.00600152996627679	0.003964237142101	1.64540106766408E-06	-7.50884570198946E-07	-1.33080519730169E-07	1.37931302321162E-06	0.9903119302183	-0.148950533575714
6.4	-0.00584023827803143	0.00381146613867262	-5.19943549797715E-06	-5.63060005849613E-06	3.82842959617993E-06	6.92326189048455E-06	0.989593067293126	-0.15137857152639
6.5	-0.00614064024165014	0.00401482752429239	9.09175142637902E-06	-2.47550518385278E-07	-7.34318429959924E-06	-9.01493590170826E-07	0.989366783466825	-0.153252226838939
6.6	-0.00558181451291825	0.00437968245861181	-1.49323621978846E-06	4.68460509909072E-07	3.38202687650827E-06	-9.41329740959436E-06	0.990306428805804	-0.156515863384046
6.7	-0.00528696336711234	0.0043511843442731	5.4106438909363E-08	7.77585634790833E-06	-5.00550115998474E-07	-6.10472992575005E-06	0.989910233762706	-0.159753714037922
6.8	-0.00509733393140997	0.00444295786274053	4.26188649521681E-06	1.65723755811213E-06	2.09524105377388E-07	-5.25105401540329E-06	0.989300021680746	-0.162560381555378
6.9	-0.00500791707725268	0.00438967562097961	-7.57251427441442E-07	2.49493977284133E-07	5.77240543934355E-06	-2.69505108734937E-06	0.988659203319035	-0.165236449045274
7	-0.00556950428824494	0.00483015659140585	8.03809850490308E-06	-4.78097520509758E-06	4.32101506064726E-07	-3.02935390480472E-06	0.987210815960018	-0.16711322702241
7.1	-0.00506760562878118	0.00577415761435304	3.86018239563247E-06	2.04294584756459E-06	7.87009389678077E-07	7.24867574788355E-06	0.986919353860246	-0.168359087512295
7.2	-0.00456071520582239	0.00600620394625527	-2.44894782064186E-06	3.70600947667718E-06	-1.34275008172092E-06	-3.83567505602929E-06	0.986567027095652	-0.170278096232519
7.3	-0.00427382156886082	0.0061477008223499	3.44850335168043E-06	-5.01356625427111E-07	-2.46025580886304E-06	-1.91872403826713E-06	0.985829956666931	-0.172239065171007
7.4	-0.0041330550683928	0.00600050681923997	-6.21432595061189E-06	-2.69538130397414E-06	3.78317136584055E-06	2.40111028864252E-07	0.985595029898946	-0.175145197566859
7.5	-0.00489460100325226	0.00584992269028424	6.75452762526433E-06	-6.47886494862096E-06	-2.48353536549737E-06	8.1104319039141E-07	0.983931493817846	-0.17946861818415
7.6	-0.00499925476254739	0.0067417032182941	3.50646742938196E-06	5.20192677441404E-06	-1.02447232606123E-05	4.96788835452158E-06	0.982002742092147	-0.181865581168698
7.7	-0.00488483786239376	0.00701105474867631	6.0675101297961E-06	1.09370193159982E-05	3.00581517769938E-07	-1.13755402352116E-05	0.981459921383971	-0.184922181992365
7.8	-0.00459177112601298	0.00706952140321303	2.16181309905357E-06	9.786599182719E-07	-3.08322625804971E-06	8.84160908551743E-06	0.981018712481321	-0.188358498022698
7.9	-0.00431935677311879	0.00686542394509655	2.54726518340001E-06	-2.3253357329538E-06	3.69315387659125E-06	3.29895553995972E-07	0.980191126764449	-0.192271705157187
8	-0.00447139246803601	0.00718372138142736	-2.80742008663684E-06	1.33973298722275E-06	6.86904189074912E-06	-1.88430077349339E-06	0.977518955954142	-0.194741401068484
8.1	-0.00347661783306077	0.00752747040343793	-1.78833714227069E-06	7.60367191324061E-07	-3.71038086968481E-06	-1.24245102046844E-06	0.977536354126754	-0.195709997559073
8.2	-0.00287407697160941	0.00724742771268074	-7.75505699967079E-07	6.33379116348419E-06	4.8868277156242E-06	4.33805360272149E-06	0.97765458177373	-0.19810999698863
8.3	-0.00248987976278894	0.00700771846144937	-8.9843135104933E-07	-1.42017916340721E-05	6.83799293521847E-06	5.40221772300817E-06	0.977057837018656	-0.20098985500173
8.4	-0.00231484847237499	0.00666749154369544	3.74583840414608E-06	-3.43592417549973E-06	-6.96715499980112E-06	-1.1971716377019E-06	0.976044884617095	-0.203695302046327
8.5	-0.00290957311247424	0.00678201442100784	4.67171914219783E-06	5.75416918416774E-07	8.39280346559775E-06	-6.84615717337651E-06	0.975155271142979	-0.205972452113186
8.6	-0.00248051467021455	0.00762062349616799	-3.25498495907993E-06	4.12388841184441E-06	1.0401040552061E-06	1.10874400722464E-05	0.974892659651917	-0.208652460598304
8.7	-0.00185917642151357	0.0077661854218589	2.67473493369911E-06	-2.00615658226197E-06	4.76431377173008E-07	-5.54863036865004E-07	0.974343979657753	-0.211407922822034
8.8	-0.00128394076475768	0.00779286963285311	1.17746281173299E-07	-1.25200561545221E-06	-9.38653197896325E-07	9.75967991937054E-06	0.973650619389847	-0.213710456485038
8.9	-0.000684829649424298	0.00744068305836131	-3.65164293825376E-06	2.30021342196378E-06	4.82099324432146E-06	-1.81479015769698E-06	0.973412789076539	-0.215715162388175
9	-0.000750890739242125	0.0070765604041037	-1.8868309699958E-06	5.01375779469401E-07	-3.23042814406882E-06	-1.05166974245353E-05	0.972995389453023	-0.218122309901592
9.1	-0.000167250862111709	0.00707046455680419	5.24558711158469E-06	5.75224764601893E-07	9.12606645852993E-07	3.78920456707173E-07	0.972305407900829	-0.220154123478881
9.2	0.000260883913483902	0.00650165579207691	-8.71966419946462E-06	-4.54910430094801E-06	-8.94489685206856E-07	-6.11564989729207E-06	0.971577357143822	-0.222458709967079
9.3	0.000400079493180182	0.00597754366718627	2.00387532318153E-07	6.20609982246786E-06	4.62761233403018E-06	-2.20001560809059E-06	0.971123021175076	-0.224656894949073
9.4	0.00034619118249784	0.00536786081077766	-1.91589281629081E-06	5.88207260224209E-06	-1.04793841214888E-05	7.75280836161547E-06	0.970707850410253	-0.227593346112731
9.5	-0.000295227845032279	0.00548439087973494	3.16501108524613E-06	-7.57039182043872E-06	3.67380765619197E-06	-2.74919900016497E-06	0.969436347742692	-0.230915811909512
9.6	1.49739727476961E-05	0.00585058401864976	4.50815113410848E-06	5.55775504540341E-06	-6.21398772795958E-07	7.06448476738615E-06	0.968244140452482	-0.233296839524158
9.7	0.000159802798820855	0.00574280313184226	-2.61073593540271E-06	-3.92652782365162E-06	3.66902441585132E-06	-7.52143397869947E-06	0.96766026513147	-0.235577120428427
9.8	0.000132819376477811	0.00569592875875206	-5.34203428381276E-07	-4.20763129685921E-06	6.26935378984276E-06	8.73073910529748E-07	0.967470387230117	-0.237779392361296
9.9	3.83530813049963E-05	0.00560338063383312	-2.68613843448467E-06	-5.86215715130781E-07	-8.47594748754011E-06	5.50248563444234E-06	0.966557875892357	-0.240310406967248
10	-0.00071881041152275	0.00587792907603758	4.23713431728877E-07	-1.74742311008943E-06	-3.09278638630896E-06	-7.94119120824564E-06	0.964196613794358	-0.241002343452124
10.1	-0.000453590269119856	0.00679468724221547	2.24402024660521E-06	4.75600821290726E-06	-3.08438028602803E-06	9.82711121830932E-06	0.964645124744866	-0.241028622337026
10.2	1.10585918901063E-05	0.00706412359699267	-5.37567624419383E-07	-1.04589747389812E-06	-1.20976810328285E-06	-3.10860535559184E-06	0.9647627691239	-0.242510223420879
10.3	0.00044446998211413	0.00719527704453854	1.12787540999896E-05	-2.93432241256124E-06	1.00294085583553E-05	-4.84204391154526E-06	0.964227136167651	-0.244405559633522
10.4	0.000816704036974338	0.00698113415446737	-6.25413953927724E-07	2.14275402234302E-06	3.02182446797729E-06	-2.18164411754803E-06	0.963083048678361	-0.246440457909503
10.5	0.000486615608530141	0.00712572646506399	-6.0989065226727E-06	4.63203743213552E-06	1.56690707172314E-06	4.29782789522888E-06	0.962258854582869	-0.248048653141876
10.6	0.000993425376924994	0.00764196332642508	-7.08988960963849E-06	1.06715209555229E-05	7.01691782181957E-06	4.26048904937707E-06	0.962013237287708	-0.250620857480956
10.7	0.00146797904917243	0.00782396710056284	-3.20837807823691E-06	1.56569203697552E-06	-5.3572650010138E-06	3.16721160633741E-06	0.961072205742465	-0.25316475520201
10.8	0.00199043643244255	0.00801474016737981	-1.92231682898419E-06	4.98185015910209E-06	8.48352236871654E-07	-3.19692563375757E-06	0.960196644809705	-0.254892803176344
10.9	0.00257674630549801	0.00786575370810337	-5.73806105666343E-06	-1.05062087162199E-05	4.92095393032592E-06	1.06845689783119E-05	0.960059152250275	-0.256457337487819
11	0.00255282534724269	0.00805402936443279	2.96006956636085E-06	2.61210615670057E-06	7.91572082528022E-07	-1.1216992445891E-05	0.959474012848535	-0.257790584413297
11.1	0.00354826389035848	0.00852962208228106	3.85068526905795E-06	1.45657754376916E-06	2.577312545809E-07	-7.36075413968536E-06	0.959209596875795	-0.258928217085583
11.2	0.00451458362555075	0.00822842862348907	-4.40657423513741E-06	-1.97030179064937E-06	-7.30626643811077E-06	-4.84603043016532E-06	0.958845201829879	-0.260460293795895
11.3	0.00533876673943899	0.00763290553791981	6.6788789226238E-07	-6.36658684520289E-06	3.74710316364061E-06	1.4118972816499E-05	0.958834299909505	-0.262140040302981
11.4	0.00581145270315119	0.00674077539187738	-5.12058102150696E-06	8.12508712466313E-06	-1.46193504803034E-06	4.06941243751164E-06	0.958645070634993	-0.264938475009899
11.5	0.00544325725247992	0.00624244302913018	4.51279390754754E-06	8.08350943113479E-06	-9.27537298320198E-06	1.57383091815316E-06	0.957005139622497	-0.268537984241923
11.6	0.00594663105019748	0.00607919263669547	-3.83404009715996E-06	1.39506764307834E-06	5.06129550078895E-06	8.12166910398722E-06	0.955463775923443	-0.271075592603577
11.7	0.00627433958794658	0.00531671522099185	2.23201550793421E-06	1.05073930553885E-05	5.43580597851346E-07	-3.64037191965093E-06	0.954808684682805	-0.274310601079604
11.8	0.00637931072525033	0.00457003139213338	1.42110457579611E-06	4.45416641764646E-06	2.24043944992971E-06	4.52893997046461E-06	0.954138055659162	-0.278050989632056
11.9	0.00624763519262218	0.0036690962265486	7.42110926159026E-06	1.05506358850458E-05	3.87400072126611E-06	4.07134675402543E-07	0.953318258840432	-0.28140799311473
12	0.00520169566368874	0.00351731489513065	2.35232930309049E-06	-5.13650121858909E-06	-4.05017870822337E-07	1.74522275441747E-06	0.950625350217651	-0.282798248153352
