# GHZ S RI R 50
0.2	0.000837094982726021	0.00240985502604941	4.79430139372376E-06	-2.9850450873341E-06	-1.37289139145301E-05	1.31203062107744E-05	0.999567397010008	-0.00696078129225647
0.3	0.00128364412455527	0.00166289534418807	2.86554589620986E-06	6.62744348685269E-06	-1.66290782379868E-06	-9.32218902708847E-06	0.999486139256981	-0.00984698003498597
0.4	0.00157876584688149	0.00118688628817419	-1.86290727178042E-06	-4.01683948808369E-06	-9.01759776300611E-06	4.40448348428367E-06	0.999512266236808	-0.0125409758832058
0.5	0.00167266694504189	0.000752432647875437	-5.35933108634443E-06	3.2639084258543E-06	-2.12651038607322E-06	6.75846825745526E-06	0.999190737959733	-0.0156718752543484
0.6	0.00174964139591442	0.000472335761704062	-1.39863594818692E-07	2.80631714003731E-06	-5.81570597592862E-07	-1.34169105254226E-07	0.999310923915842	-0.0184589976658254
0.7	0.00175689908689116	0.000233799390739109	8.7767761894675E-08	2.2196929869979E-06	4.90502996505969E-06	-3.40208516237284E-06	0.999059985563553	-0.0214456783736114
0.8	0.00180073737066786	2.10926130165743E-05	4.52984425663795E-06	8.2660767167227E-07	2.74468724056477E-06	2.00139415993182E-06	0.998834971094518	-0.0236523445187049
0.9	0.00179590965403545	-0.000184937661308494	-1.51570173393246E-07	-4.21989008793384E-06	-3.41897329202873E-06	-3.11090616973017E-06	0.998736441836784	-0.0260899028550127
1	0.00175123824845351	-0.000499756238080804	1.06036700317522E-06	4.29316614762352E-06	3.32804946739664E-06	9.33819949112755E-07	0.998423301348609	-0.027794116395933
1.1	0.00148002022912161	-0.000781312243753997	9.0449485295144E-06	5.18391149258877E-07	-3.57891482600032E-06	-4.99360049945614E-07	0.99804117393383	-0.0297701109631914
1.2	0.00113155614270626	-0.00134244683312723	3.76117574314773E-06	-1.19981614104388E-06	-4.09705658323156E-06	-2.43799680983038E-06	0.997365928801529	-0.0307653352740132
1.3	0.000407840910497176	-0.00217532089666092	-7.61739638887641E-07	-1.42694810251731E-06	-2.58762084638436E-06	-8.7074996770279E-06	0.997419820495615	-0.0315394950360441
1.4	-0.000413855478152005	-0.00296362038963685	1.44533782667805E-08	3.44823635844313E-06	-4.28273337601424E-06	-4.12785877745948E-06	0.997285035067191	-0.0334730839811744
1.5	-0.000920908946032526	-0.00334098897125437	-1.2982435510679E-06	4.43127114254026E-06	6.5541952290374E-06	-7.41638774517684E-06	0.997933515559509	-0.0368717170739559
1.6	-0.00107789167781165	-0.00330361661725781	1.63024267201215E-06	-4.89397714936213E-07	4.24371512138409E-06	-5.3966748238837E-06	0.997635952645528	-0.0403255710882326
1.7	-0.00107598707042997	-0.00327302320016	5.32004593925123E-07	3.95926321015566E-06	-8.2884630449265E-06	3.1317914250895E-06	0.998002600460738	-0.0429497326694507
1.8	-0.00109187147238882	-0.00319194410508299	1.83349425340033E-06	1.07881501247067E-06	5.6559685100764E-07	-1.76287004498589E-06	0.998016787699435	-0.0457574063207828
1.9	-0.00113374778644599	-0.00324621149394227	3.23853109186645E-06	3.01941078048362E-06	-1.83408890583628E-07	-2.33179122204516E-06	0.997957162328931	-0.0481403288645062
2	-0.0013652501922289	-0.00335933816776096	-1.72831733145722E-07	2.00597418223062E-07	-1.21705473447919E-05	5.42381932515165E-06	0.997344044630095	-0.0511168996663302
2.1	-0.00160183412289622	-0.00333859910989106	6.67886729840699E-07	-1.38339059965584E-06	1.38184986678841E-05	4.96197931469968E-06	0.996957383946292	-0.0532005074599861
2.2	-0.00185574620414396	-0.00335820503803631	1.64448172654581E-06	-1.51853635937644E-06	2.68440253947694E-06	-6.21528583619443E-06	0.997014650420671	-0.0555693916134347
2.3	-0.00221510654200143	-0.00339772425134487	-1.69064514112888E-06	-3.4275272244716E-06	-1.79469041074654E-06	-4.59289103050731E-06	0.996756408500459	-0.0574193315606457
2.4	-0.0026091071160888	-0.00343003642327167	-1.20702408072398E-06	-4.40199970724366E-06	3.04842900585182E-06	1.08489487224619E-06	0.996801181653206	-0.0605695954825186
2.5	-0.0031565373796023	-0.00349617386674608	5.38907566504592E-06	5.66787247332665E-06	-2.59785345735442E-06	1.61571885512987E-05	0.996433826441143	-0.0629529492066452
2.6	-0.00376660875747716	-0.00325533026750903	-2.27597980781014E-06	2.7149820520549E-06	4.30885319546193E-07	-4.3142480483131E-06	0.99641333846321	-0.0659042565130505
2.7	-0.00411512791775339	-0.00286859221319844	-2.41111444035327E-06	-3.63665146791075E-06	2.15370718937273E-06	-2.57391795056019E-06	0.995914222135091	-0.0689657003842574
2.8	-0.00423183437565853	-0.00245100412077675	4.00620981876284E-06	2.30909589876945E-06	9.83559999856317E-06	-6.97354551438335E-07	0.995969411120964	-0.070931618513285
2.9	-0.00408471768754787	-0.00216994943940328	1.28857393379853E-05	6.97586525241482E-07	2.42943392780686E-06	-1.17225697286217E-05	0.995688819318665	-0.0729571303312415
3	-0.00398008977311872	-0.00209860515170518	-3.85381504187892E-06	1.05080574707446E-06	-4.14846090581032E-06	-1.59497766893279E-06	0.995508596023859	-0.0754752957686493
3.1	-0.00382800449745104	-0.00197723932585922	4.77084334953636E-06	-9.85047917235727E-06	1.06878842001663E-05	2.40012510249285E-06	0.995146228332728	-0.0774178974815899
3.2	-0.00374178195955228	-0.0020340662670343	-5.37797728375321E-06	-7.40463745681076E-06	1.56434179067499E-05	5.37230831873973E-06	0.994888535213221	-0.0791565210353602
3.3	-0.00377058715659757	-0.00214636421086036	-8.79072695347017E-06	2.55252828516654E-06	-8.56737780221427E-06	-1.73347475175737E-06	0.994689021315205	-0.0823335555475625
3.4	-0.00393601871016205	-0.00227393806290145	9.05486225915628E-06	-7.56805146006154E-06	-7.34250127729081E-06	4.24000757378266E-06	0.99473502414477	-0.0842223698768505
3.5	-0.00430100506296208	-0.0024419564572146	3.1468137933364E-07	-5.32242898025959E-06	-4.40594395648741E-06	-8.92721726556234E-06	0.994699023165749	-0.0871874020827947
3.6	-0.00468976226417281	-0.00227621082789375	4.0756002328874E-06	4.89648337359016E-06	-7.10018205197448E-06	8.99772249464558E-06	0.994253171177466	-0.0897673997525064
3.7	-0.00496053461009205	-0.00209860108239759	1.52447784621163E-06	-4.5267222652235E-06	-5.10647066477279E-06	-6.58117661408603E-06	0.994111763192533	-0.0924082829657576
3.8	-0.00517976437823016	-0.00188797080870031	7.27375383173473E-06	-5.19891870706E-06	-5.87948190470308E-06	-2.41405861292256E-06	0.993835280814695	-0.0944910659779419
3.9	-0.00527374862866378	-0.00169231204293892	-4.02888907434601E-06	-3.47767351613142E-07	-2.52939204604661E-06	1.13415999281202E-06	0.993866219521816	-0.0978015531242958
4	-0.00548222852810989	-0.00160670504597793	-3.38336582805188E-06	-7.95540422004253E-08	1.21066347727948E-06	8.66663383056834E-06	0.99324489181207	-0.0996295997470303
4.1	-0.00561840312637368	-0.00125105400793518	-2.90194212606909E-06	-3.85752169961405E-06	5.87902211467305E-06	3.0328539375448E-06	0.992794121251128	-0.101129161034231
4.2	-0.00560934586781476	-0.00103342296143171	-7.74489157435279E-07	-2.155752379298E-06	5.69656763212456E-06	-1.84703595392168E-06	0.992294870186394	-0.103672615333974
4.3	-0.00560921691295693	-0.000883872641404368	-5.08344834805268E-07	3.23391539685788E-06	2.12988635293218E-06	1.77770876379709E-06	0.992124598955924	-0.105645822919142
4.4	-0.00570381881408501	-0.000815921510757632	2.57737684122742E-06	3.43797087541131E-06	7.18069610204351E-06	3.90416985747385E-06	0.991740606380289	-0.107995396671785
4.5	-0.00601144408956442	-0.000769436963557451	-6.46735197135596E-06	-2.26536643925182E-07	-8.57478284094542E-06	-2.10707721207044E-06	0.991517159933094	-0.110002871716286
4.6	-0.00644639966469116	-0.000409512637096905	-9.94338655303792E-06	-9.21670852606182E-06	3.23297894781297E-06	-2.73050055682092E-06	0.99143950190792	-0.11274268571521
4.7	-0.00666095682436976	3.31687465508733E-05	1.27083798100332E-07	1.86432594026679E-06	6.0545807057014E-06	-6.73472515650054E-06	0.991406569319574	-0.114903239821996
4.8	-0.00678301405006338	0.000533258182422356	-6.39022827558653E-06	2.08289367013633E-06	7.74941328062413E-07	-1.27431640198886E-05	0.991021655759385	-0.11745584109849
4.9	-0.00664762812248134	0.000991708045722241	-3.41802465612097E-06	8.14150228464845E-06	5.70606733508782E-07	9.37159267483472E-06	0.990609058560906	-0.119284438308131
5	-0.00646085911348204	0.00123167148357398	9.63659025492985E-06	-4.06637984005875E-06	-6.93086818863593E-06	3.5807716923649E-06	0.990534481045857	-0.120858542070146
5.1	-0.00606000915039323	0.0015507227447894	-3.69165206504258E-07	-3.25055388878923E-06	-3.87437030324575E-06	-1.78870733186628E-06	0.990600003659806	-0.122320447932899
5.2	-0.00557550294503097	0.00153200747324939	-1.07047475509812E-06	-4.48353067660661E-06	8.78641213115886E-06	5.56686068512504E-06	0.990425722081014	-0.124622376440142
5.3	-0.00527489246663413	0.00137037482670009	2.28998362367216E-06	6.78646465463139E-06	8.79048858210841E-06	3.12468351705027E-06	0.990169915297866	-0.127026327199416
5.4	-0.00514836415502769	0.0012089400547619	2.70264231296869E-06	-3.14068926493127E-06	-2.6724957229285E-06	1.54883575701892E-07	0.990108572747271	-0.12981329407794
5.5	-0.00539237308752094	0.00115076082126445	2.11082812351511E-06	9.31383294074662E-06	-3.92259513312594E-06	-5.03044523729364E-06	0.989925577913434	-0.132794917448819
5.6	-0.00547326757201763	0.00154811842561485	-5.85348890566519E-06	-1.12951122599526E-06	4.8713791368954E-06	1.94005737657098E-06	0.98948179617538	-0.13526806698939
5.7	-0.0054588299394322	0.00181896450220755	3.33433046121502E-06	-1.42404699401924E-06	-5.04766756420644E-06	-4.28765005139169E-06	0.989285448396526	-0.13769394522516
5.8	-0.0054467386745943	0.00208312479424411	-2.05578318968605E-06	-4.74285491901073E-06	9.45665810735307E-07	-5.82366290269221E-07	0.989223360997731	-0.13998215952346
5.9	-0.00539249511629545	0.00233445393166802	-3.87680108221854E-06	6.22097242023053E-07	3.86136442072066E-06	1.24567508758307E-06	0.989072654842728	-0.142602576163946
6	-0.00561831769913835	0.00229314266219995	-5.92452739983069E-06	5.0479378386542E-06	-1.48297241901787E-06	1.97734614647629E-07	0.987929304151679	-0.144864858725785
6.1	-0.00604945953475297	0.00270881937631159	-5.92318479949345E-06	-4.68891352459199E-06	-4.00143392841728E-06	4.33860426570942E-07	0.987277353941924	-0.145578289276527
6.2	-0.00625198417437234	0.00312146229619754	2.81792581526242E-06	3.12183742346715E-06	1.0517570139881E-06	7.21907411514146E-07	0.986963965269371	-0.146703713556635
6.3	-0.00621915811458917	0.00353343042588679	1.63982748332444E-06	-7.4753729095406E-07	-1.33162814235844E-07	1.37433249352968E-06	0.986598585772739	-0.148430365996555
6.4	-0.00602932379032865	0.00369255166328671	-5.17935151328008E-06	-5.61461307929436E-06	3.81222472313774E-06	6.90229643150756E-06	0.986189644856081	-0.150474971188698
6.5	-0.0060101672718501	0.00368967098844338	9.0580859565436E-06	-2.44454811041656E-07	-7.31572973631765E-06	-8.99908279847974E-07	0.985845812335679	-0.152754395350031
6.6	-0.0057894932031503	0.00397552844458035	-1.4877624646704E-06	4.65045829473608E-07	3.37827315719416E-06	-9.37223481292888E-06	0.986294475012169	-0.155245678402801
6.7	-0.0055611838813325	0.00411219117489691	4.24224832955136E-08	7.74723799140657E-06	-4.89686584559237E-07	-6.08293853562609E-06	0.986207952982109	-0.157915873135282
6.8	-0.00539766822180288	0.00435409696826186	4.24437959176072E-06	1.65880298968498E-06	2.17763813148728E-07	-5.232610882719E-06	0.985862155307913	-0.160375985847473
6.9	-0.00515744808491225	0.00458831820492535	-7.5524105065569E-07	2.47270930659491E-07	5.75855534879377E-06	-2.67551348092201E-06	0.985579987199226	-0.162637133448873
7	-0.00520104151139502	0.0047545468851505	8.02203691028228E-06	-4.74933522388989E-06	4.36865111725405E-07	-3.01876649801005E-06	0.984745578850264	-0.164624099065957
7.1	-0.00507765754186164	0.00538771257529344	3.84361776537277E-06	2.04541894884953E-06	7.68091741005849E-07	7.22808668241459E-06	0.984241336549338	-0.165951465176344
7.2	-0.00474100158774228	0.00577805629398996	-2.4507760000905E-06	3.68888226248947E-06	-1.32926490820238E-06	-3.82752204020568E-06	0.983856933454514	-0.167531157409821
7.3	-0.00449993290908538	0.00608430306734222	3.43954488998436E-06	-4.90624498537209E-07	-2.44776875899603E-06	-1.91958078573958E-06	0.983121102600853	-0.169116193906233
7.4	-0.00427995549955574	0.00626688235503486	-6.18585416703379E-06	-2.70624307225427E-06	3.77024187148265E-06	2.51231375528117E-07	0.982821556461429	-0.171182916447292
7.5	-0.00436586527381049	0.00610180186358476	6.76421672119698E-06	-6.4323283349281E-06	-2.48033430147123E-06	7.9816622933698E-07	0.982581734835189	-0.174462775649523
7.6	-0.00459523279786391	0.00641506734440925	3.47908987919991E-06	5.20768177623474E-06	-1.02480513162499E-05	4.91722348579126E-06	0.98153718598956	-0.177787907850727
7.7	-0.00466397659579676	0.00661662008658741	6.01464980776975E-06	1.09455663099782E-05	3.45956877219005E-07	-1.13578043595174E-05	0.981013104824957	-0.181068230853804
7.8	-0.00450529987341044	0.00670956793918615	2.15507013796502E-06	9.863794379778E-07	-3.11594486632513E-06	8.81783308870391E-06	0.98067931779757	-0.184397148865461
7.9	-0.00416633094777278	0.00662611236868999	2.5555600473055E-06	-2.31205932619035E-06	3.68865632815935E-06	3.46112923907068E-07	0.980429225608007	-0.187981156972186
8	-0.004147883152534	0.00650408012802622	-2.813587251822E-06	1.32866650912422E-06	6.87846666921893E-06	-1.85686562245384E-06	0.978921424347011	-0.191466381406299
8.1	-0.00370959881383961	0.00681623203980658	-1.79086846909407E-06	7.54276200314809E-07	-3.70606106343744E-06	-1.25501034535063E-06	0.977957532177217	-0.193090785733572
8.2	-0.00327177615642579	0.00678986637436787	-7.97576511950204E-07	6.33016051198132E-06	4.8709289181862E-06	4.35454229017835E-06	0.977829182380081	-0.195104603500745
8.3	-0.00295100181696546	0.00677553902613339	-8.47595905287981E-07	-1.42055131651919E-05	6.81888599247295E-06	5.42690127512638E-06	0.977372499174396	-0.197720569832319
8.4	-0.00265665820647962	0.00678147375754174	3.75845124727215E-06	-3.42411959268385E-06	-6.96490102723012E-06	-1.22109141419793E-06	0.976665536671466	-0.200320232340202
8.5	-0.00273943513961441	0.00670091140405123	4.66920725837015E-06	5.90836693096813E-07	8.41442511254939E-06	-6.81743746135883E-06	0.975901525521169	-0.202780883763707
8.6	-0.00264992525726365	0.00729076875889976	-3.27134357154904E-06	4.11193510225732E-06	9.97524748326173E-07	1.10930362612333E-05	0.97569409746927	-0.205244943065564
8.7	-0.00216267044898877	0.00762405521441117	2.68416920536893E-06	-1.99707823426128E-06	4.78875297579291E-07	-5.53370040990647E-07	0.975500947995453	-0.207914235777309
8.8	-0.00158410571801297	0.00784334156322651	1.22484670949207E-07	-1.25283571145454E-06	-9.75611068245315E-07	9.7660739948148E-06	0.975152698226465	-0.210286085234027
8.9	-0.000807987667519684	0.00776904126572311	-3.66366252860102E-06	2.29085606557877E-06	4.83280600357917E-06	-1.80096882141913E-06	0.975200366683069	-0.212420994451728
9	-0.000324640987781876	0.00720617287088482	-1.890250563266E-06	4.95578574077078E-07	-3.19852153649433E-06	-1.05372043397836E-05	0.97507542749214	-0.214967763599334
9.1	8.90537886407613E-05	0.00682395940695475	5.25010089211508E-06	5.94441584131869E-07	9.12408544529354E-07	3.8261150470148E-07	0.974577820555816	-0.217252449654427
9.2	0.000387603747368473	0.00618068107128376	-8.71641860327935E-06	-4.58587430439772E-06	-8.74569682637556E-07	-6.12753792706992E-06	0.973895860005104	-0.219738197053926
9.3	0.000377591461169938	0.00564954623250228	1.79204249812668E-07	6.21634111924675E-06	4.64234996986884E-06	-2.18737477924798E-06	0.973396063439483	-0.221975461556372
9.4	0.000320505136765754	0.00523917372015531	-1.93972947996574E-06	5.88413701454475E-06	-1.05228177165327E-05	7.72720948501002E-06	0.972977792894715	-0.224620961296486
9.5	-0.000113611647286788	0.0050708602871559	3.20264319500324E-06	-7.57165549375048E-06	3.69229831537309E-06	-2.73912608647178E-06	0.972457470204483	-0.227733037875392
9.6	-0.000214676552525142	0.00540307844506112	4.49895381726208E-06	5.5902341559821E-06	-6.50335363654427E-07	7.08126896469851E-06	0.971564253805447	-0.230658524257023
9.7	-0.000148723400592658	0.00552661073137492	-2.60454351820997E-06	-3.94734347937321E-06	3.70645398180995E-06	-7.53063415256333E-06	0.971057048598345	-0.233082213766973
9.8	-0.000149727941719509	0.00566958246789821	-5.21352412242888E-07	-4.22280611201025E-06	6.28619537504243E-06	8.97508830830814E-07	0.971092059151615	-0.235233859094497
9.9	-4.1541731163334E-05	0.0058204083018237	-2.69411429065086E-06	-5.97901095458048E-07	-8.52709721039661E-06	5.49311423967135E-06	0.970960604159866	-0.237600238091895
10	-0.000296140008033818	0.00579190776167145	4.30130041402575E-07	-1.75432713878166E-06	-3.08657256861115E-06	-7.98543023202671E-06	0.969662617192107	-0.239747539820981
10.1	-0.000357664232147536	0.00638612599593549	2.24373985143754E-06	4.7798611320058E-06	-3.11645670411804E-06	9.86108094750476E-06	0.969166764302899	-0.240539896174168
10.2	-7.66736320268146E-05	0.00674224845385261	-5.37732658365056E-07	-1.05125141458972E-06	-1.20866266539723E-06	-3.12375921977856E-06	0.969126220628152	-0.241978411571762
10.3	0.000292121795255507	0.00703557029164131	1.13334097400342E-05	-2.92743863283949E-06	1.0081922779974E-05	-4.84572438124859E-06	0.968738194088043	-0.243988056687978
10.4	0.00085950127910993	0.00706381834736268	-6.3091774649734E-07	2.15206420213496E-06	3.0386253175479E-06	-2.1882652647281E-06	0.967935433048227	-0.246402226791299
10.5	0.000962566853296571	0.00681908816426158	-6.12745742025994E-06	4.64803599986471E-06	1.57099785021679E-06	4.31694397985097E-06	0.966940578593872	-0.248875924657076
10.6	0.00105632834320215	0.00695135409167862	-7.12717248553903E-06	1.07110423778173E-05	7.04319231972633E-06	4.28332629698344E-06	0.966296195736011	-0.2517762720982
10.7	0.00120388441796693	0.00717191687001657	-3.22317831687138E-06	1.57126083605949E-06	-5.38220820506978E-06	3.17894826632518E-06	0.965161628168587	-0.254653241300687
10.8	0.00163249695992306	0.00761839355998864	-1.9318899918582E-06	5.00487573668883E-06	8.52697120695443E-07	-3.2117478153243E-06	0.964341169802904	-0.256296399410839
10.9	0.00225017743508529	0.00786037279827186	-5.7683260160592E-06	-1.05515930382773E-05	4.94758158781351E-06	1.07310910475262E-05	0.963985035719126	-0.258036247329297
11	0.0026335758820792	0.00782676493162901	2.97399780268775E-06	2.62160015265051E-06	7.88966950652605E-07	-1.12649348517744E-05	0.963485019076273	-0.259644178036978
11.1	0.00329802106976267	0.00820038984497177	3.8684721123961E-06	1.46054053458128E-06	2.54236447844647E-07	-7.39316726301532E-06	0.962998971335907	-0.261026019447691
11.2	0.00418543749458027	0.00809338408011102	-4.4277575542444E-06	-1.97466848489686E-06	-7.34291384229717E-06	-4.86018037778083E-06	0.962453473626813	-0.262692360225327
11.3	0.00504126150017361	0.00772571566601753	6.62672784780909E-07	-6.39383920133056E-06	3.78036024614871E-06	1.41728512501523E-05	0.962124712477661	-0.264347903447244
11.4	0.0057285103065098	0.00710631788542301	-5.129178632718E-06	8.16164539164823E-06	-1.4621637539018E-06	4.08631965611061E-06	0.961713905198366	-0.266767267808835
11.5	0.00579222250622427	0.00631115567796564	4.53739497219977E-06	8.11257429368021E-06	-9.31157027423833E-06	1.58751016432987E-06	0.960984401910322	-0.270330717629973
11.6	0.00604805910101488	0.00600447074371102	-3.84899214586492E-06	1.40677879342265E-06	5.09542358211417E-06	8.15030025509733E-06	0.959373595733393	-0.273749822372618
11.7	0.00640912823367906	0.00537570258050302	2.26099159471047E-06	1.05476773369618E-05	5.39110517521546E-07	-3.6567773109522E-06	0.95844476472776	-0.277201125259921
11.8	0.00668734138393706	0.0046922351953336	1.43580311103817E-06	4.46956000577562E-06	2.25864005621512E-06	4.54300554803129E-06	0.957775520254004	-0.280978573357025
11.9	0.0069450922875507	0.00374961511511867	7.47513567282259E-06	1.05824274994536E-05	3.89196267291545E-06	4.0115804209207E-07	0.957621259353966	-0.284490016831459
12	0.00615777644142925	0.00285014218990664	2.34787903892196E-06	-5.16968388039027E-06	-4.0152985663334E-07	1.75525071176252E-06	0.955415691429022	-0.287891238117251
