# GHZ S RI R 50
0.2	-0.0138610232913003	0.00553218433498967	0.00304314346628743	-0.000885622927329529	0.00305359914995496	-0.000885473122765612	0.00595502503888084	0.00106152477186495
0.3	-0.0130715063202286	0.00592517792974302	0.00289655896485988	-0.00130148885812432	0.00289027349073191	-0.00131312332742882	0.00624116940255133	-0.00130574634635686
0.4	-0.0123508386757816	0.00648944847370601	0.00268188876454415	-0.0016952816100564	0.0026797841845783	-0.00169719170425202	0.00578245323858391	-0.0032812488707128
0.5	-0.0119688933567144	0.00723802130620049	0.00241207129698595	-0.00205121385845094	0.00241488215786664	-0.0020549371509215	0.00459564450932967	-0.00477998758273064
0.6	-0.0110761993363569	0.00830207093185025	0.00209992302218169	-0.00237102562193794	0.00209917976000377	-0.00237386548252732	0.00356202913788368	-0.00575283043118221
0.7	-0.0102325071171349	0.00895686567591452	0.00174932721489129	-0.00264061871429483	0.00175552684556807	-0.00264470964988787	0.00217928764318224	-0.00668875044455429
0.8	-0.00936739010879417	0.00959101595615616	0.00135608166821786	-0.00285987367013911	0.0013643461416373	-0.00285828052934686	0.000536974405667265	-0.00714015219636308
0.9	-0.00852097946371334	0.0100795971443191	0.000952306873164006	-0.00301121631051227	0.000952287125977366	-0.00302062129949095	-0.00107636750615938	-0.00724421971095101
1	-0.00803395096229336	0.010309191150998	0.000520332481844166	-0.00311961710091076	0.000520184470786674	-0.00312496847388361	-0.00300836487888514	-0.00709477930124159
1.1	-0.00762412503572111	0.0111565121275428	7.28684526331723E-05	-0.00315927492095143	7.37547355632255E-05	-0.00316399650553703	-0.00478438360767485	-0.00574630112234734
1.2	-0.00684331466445424	0.011453586262129	-0.000365231789465212	-0.0031317260214299	-0.000364008289505793	-0.0031485007367604	-0.00552736753972418	-0.0042981652619009
1.3	-0.00640650925038877	0.0112907054960192	-0.000795466980707047	-0.00305746066419587	-0.000800398621475338	-0.0030651069011798	-0.00550619725429173	-0.0029381062208856
1.4	-0.00607914518305568	0.0109374710439417	-0.00122070568019846	-0.00291278420383021	-0.00122311747631217	-0.00291990615696641	-0.00508988398169754	-0.00217252306513586
1.5	-0.00575553317114158	0.0110361411925029	-0.00161243368399153	-0.00271449456244239	-0.00161046440466699	-0.00272002981819705	-0.00500876910422689	-0.00149343558506556
1.6	-0.00467130222946712	0.0114914755609497	-0.00197410652620278	-0.00245800224721933	-0.00197757183093887	-0.0024588806303376	-0.00488198894001851	-0.000400756650046096
1.7	-0.00363229097913668	0.0116399757023867	-0.00229815179550841	-0.00216445626808105	-0.00230019566586475	-0.00217303239039041	-0.0046182695391988	0.000675742338674933
1.8	-0.00267423048656815	0.0118718375972048	-0.00257464126142978	-0.00181609903603566	-0.00257980895466536	-0.00182155376147482	-0.00413753824234948	0.00174164300898299
1.9	-0.00177506432928135	0.0118538112812605	-0.00280013254425941	-0.00144745928535051	-0.00279662816986828	-0.00144127748953912	-0.00341349441716141	0.00262443614171288
2	-0.00131109516110045	0.0119868540839235	-0.00297451655134334	-0.00103627291740293	-0.00297725451458461	-0.00102944133394234	-0.00283074014849323	0.00357252059186664
2.1	-0.000283898289306193	0.0123676971538491	-0.00308962055629781	-0.000606002713238245	-0.0030917136651392	-0.000612689097920144	-0.00135794203553868	0.00452203712641627
2.2	0.000720931963321436	0.0122998309494186	-0.00314379480629494	-0.000176054143490552	-0.00314561344308029	-0.000166344518503295	0.000438255886280203	0.00463092625079592
2.3	0.00152798942250909	0.0120530713401597	-0.00313604269301168	0.000265380533155762	-0.00314278614153815	0.000262469171829101	0.00211352814706436	0.00414256795674342
2.4	0.00223370076017454	0.011693264331038	-0.00307616890229352	0.000699139008261458	-0.00307501210384042	0.00071423598848609	0.00368972405815973	0.00316230265999277
2.5	0.00239901500938491	0.0112719815677696	-0.00294206370766358	0.00112954366943454	-0.0029550503634797	0.00113082374755117	0.00461262981761154	0.00168975676457461
2.6	0.00281086224491517	0.0115710367459159	-0.00275378658624918	0.00152497232838422	-0.00277469329862718	0.00152885540954452	0.00548715368466383	0.000500234808103201
2.7	0.0036155594819316	0.0116643825357246	-0.00252247018463887	0.00189425844349801	-0.00252275477140744	0.00189933986799248	0.00620453614887851	-0.00118836125328334
2.8	0.00461565651126449	0.0116266802483254	-0.00222828223646042	0.00221927378314235	-0.00223812202560805	0.00223044864945307	0.00651846078294263	-0.00299903507857075
2.9	0.00575764034400879	0.01126418925601	-0.00189314223409271	0.00251235951567506	-0.001891227525937	0.00252126586512085	0.00655073524810777	-0.00489085286689256
3	0.00660853218255074	0.0108090413512451	-0.00152365101564015	0.00275698932459277	-0.00153871337917199	0.00274393234907255	0.00599873893766975	-0.00663324926810699
3.1	0.00783856592355734	0.010453493337103	-0.00112440377072814	0.00294132676524861	-0.00114135218170614	0.00294671401666506	0.00552924336048839	-0.00815473810552347
3.2	0.00886397553277223	0.00961817150686595	-0.000705416269938558	0.00306676956172928	-0.000701159471587513	0.00307758057697364	0.00446000982391185	-0.00988586107035215
3.3	0.00964772547071415	0.00863365843761484	-0.000276484876055916	0.00313917521304347	-0.000273180857830118	0.00313479875005698	0.00299718351079134	-0.0114906775038497
3.4	0.0102026773190103	0.00752375867696688	0.000169161540203433	0.00314881452176094	0.000159728660259824	0.0031498837536183	0.00115522354107798	-0.0130552615412124
3.5	0.0102104050209631	0.00656018134677587	0.000604297033179451	0.00309286145733484	0.000609308127114961	0.0030915342693468	-0.0015304392083463	-0.014249304196779
3.6	0.0105810816584276	0.00606207812265904	0.00102404998725467	0.00297247093876392	0.0010306466195546	0.00297596856983555	-0.00403795042944815	-0.0144736793258586
3.7	0.0109706970001505	0.0052466569617682	0.00144050977381522	0.00279705937212138	0.00143874891007943	0.00281343112380954	-0.00655544076750167	-0.0145375991305639
3.8	0.0112749418959254	0.00441200089927063	0.00180941853798851	0.00257129725531161	0.00182001679756177	0.00257766115138985	-0.00922949550815042	-0.0141769997065125
3.9	0.0115248569517997	0.0034819431008898	0.00215783971228691	0.00229332548474787	0.00215323988106339	0.00229322587418451	-0.0119598655029668	-0.0133332250103108
4	0.011358992550344	0.00273235134815324	0.00244854190917095	0.00197368211860374	0.00245997812281744	0.00197983272542202	-0.0148098857934248	-0.0116726123403134
4.1	0.0117451899163685	0.00236816846626502	0.00270062223187687	0.00160906543515464	0.00271717863814129	0.00161886666860163	-0.0166569674435028	-0.00909131123026667
4.2	0.0122008187458637	0.00150479146402684	0.00290390577054344	0.00121284960968885	0.00290513667894133	0.00121513823180536	-0.0179477744521585	-0.00661434291465013
4.3	0.0124493749269912	0.000517187415583971	0.00304786567886562	0.000804703148534109	0.0030490420237096	0.000813293558415572	-0.0188548547443756	-0.00411133099476228
4.4	0.0124666347442166	-0.000659482889333588	0.00312736333309937	0.000369287424956635	0.00313529370838139	0.000364658521180311	-0.0194403104029933	-0.00156458128161942
4.5	0.0118648164094419	-0.0016187413815022	0.00315210260574867	-7.41094975037232E-05	0.00314890645562387	-7.18514244579405E-05	-0.0199876411064915	0.00116046358905123
4.6	0.011618589063801	-0.00203425790910577	0.00310120002893839	-0.000521321394817641	0.00311422909979405	-0.000509307191230151	-0.0196172319808022	0.00435609526088748
4.7	0.0115141414107103	-0.00267137905724302	0.00299995146177381	-0.000935831529949098	0.00299986885984424	-0.000945277973510675	-0.0186789709042125	0.00702017475276979
4.8	0.0113232880397003	-0.00336655141779727	0.00285150932886712	-0.00133947068538113	0.00284387662416131	-0.00135968577535155	-0.0173133346707844	0.00953688711555335
4.9	0.0112644751761745	-0.00413110519192223	0.00263680768158121	-0.00173774954914227	0.0026307148858574	-0.00172930453893768	-0.0154619642669998	0.0116652563688095
5	0.0109032387003915	-0.00485458205057869	0.00236225226062277	-0.00207247698855152	0.00236502186373255	-0.00208492074250364	-0.0133798328554439	0.0136125804341579
5.1	0.0111693156982321	-0.00540134948528388	0.0020391275481508	-0.0023982068349912	0.00205237703658205	-0.00239570980874099	-0.0102846088907122	0.0152918731396369
5.2	0.0113061240293599	-0.00652256331426635	0.00169575711198499	-0.0026560437017213	0.00169626299659328	-0.00266021219273817	-0.00704459432665369	0.0158569255816492
5.3	0.0111395606225131	-0.00773057841842429	0.00130536519298025	-0.00286853656162778	0.00130161562331095	-0.00287111706763329	-0.00394848636920028	0.01581390120894
5.4	0.0106570296767897	-0.00898041288746493	0.000893336124801886	-0.00302930599642918	0.000892447734043534	-0.00303177080035779	-0.00105158160619769	0.0150179919015984
5.5	0.00947241828480492	-0.00969368101299992	0.000451501319280504	-0.0031243621454157	0.000464105466069946	-0.00312434149529731	0.0010215021714799	0.0139629464950672
5.6	0.00909619137093274	-0.00992178939876259	1.71728926710758E-05	-0.00315321108157965	1.38693585167962E-05	-0.00314974771481736	0.0034525282589179	0.0128943544835418
5.7	0.00855814642422328	-0.0106200607771163	-0.000416478630913248	-0.00312739018136056	-0.000420201363328803	-0.00313108664863237	0.00539435126991252	0.0109960682947931
5.8	0.00786405629121094	-0.0112605141086067	-0.000852703528510791	-0.00303729660527802	-0.000851972019948125	-0.00304499489918089	0.00678327940787025	0.00869672823237986
5.9	0.0070487497566076	-0.0119423251590024	-0.00127138164737629	-0.00288372308466983	-0.00126977954331525	-0.00288788298897317	0.00752538165360553	0.00606693423817661
6	0.00545147923404151	-0.0125552521205722	-0.00165969966359891	-0.0026763470985129	-0.0016537024216736	-0.00267970272522881	0.00690120875072703	0.00348470862969099
6.1	0.00436886882672026	-0.0121680229944785	-0.00201763440419682	-0.00242610898251286	-0.00201348554566773	-0.00243088269190066	0.00647285737853296	0.00204641003011199
6.2	0.0036602298055196	-0.0122586311216061	-0.00233892246697562	-0.00210988835628817	-0.0023353417367693	-0.00211856904109944	0.00617974054565115	0.0001620410996887
6.3	0.00304662813223518	-0.0125137438268748	-0.00260705389412315	-0.00176955137265707	-0.00261688911058504	-0.00177731916955902	0.00561027545792041	-0.0019154710445482
6.4	0.00228660342037815	-0.0131152980089566	-0.00283394088326341	-0.0013832796881273	-0.00283195080117503	-0.00138908504420255	0.00462767715422797	-0.00418936934702742
6.5	0.00107182639441608	-0.0133202662786286	-0.00299905834783483	-0.00098190591848755	-0.00299946287224479	-0.00098078156316496	0.00281482566481891	-0.00589250113203226
6.6	0.000675639632759263	-0.0133084931680999	-0.00310531118061504	-0.000554833875999132	-0.00311600404899959	-0.000557839515835191	0.00146723266824547	-0.00716219464449636
6.7	6.33416226682732E-06	-0.0136415884640068	-0.00314998657952827	-0.000118511152375516	-0.00314893638703803	-0.000112260419094689	-0.000626302069855523	-0.00831929995893596
6.8	-0.000774131433585769	-0.0137496637344007	-0.00313466984809742	0.000331048052893562	-0.00313375738699728	0.000335816865101559	-0.00305744987830057	-0.0086673797334734
6.9	-0.00163234467747588	-0.0139707864024227	-0.00305210536198016	0.000761748227420758	-0.00305252484518775	0.000766742573100965	-0.00545434420964421	-0.0084855443814044
7	-0.00316322256040113	-0.0136641809236974	-0.00292260257097291	0.00118184347627951	-0.00292401689759142	0.00118506944472101	-0.00830809575594854	-0.00733434396970024
7.1	-0.0036396914715545	-0.0127563564283749	-0.00272252202944835	0.0015821519779541	-0.00272493063231372	0.00159319761715469	-0.00978610344243579	-0.00507232477051707
7.2	-0.00408720324565078	-0.0125157025066141	-0.0024803425283494	0.00194379509575949	-0.0024805150093147	0.00194970174254751	-0.0107441919218509	-0.00307025095930774
7.3	-0.00474530794840022	-0.0123108113008875	-0.00218859269002808	0.00226897194005526	-0.00218582290333234	0.00227044346475028	-0.0112099511844296	-0.000950109900102924
7.4	-0.00552339081984723	-0.012333937138101	-0.00184502047882234	0.00255371530581439	-0.00183777725401391	0.00256023543631946	-0.011184974408439	0.000810543817089467
7.5	-0.00723654626431602	-0.0122968348271095	-0.00146412471429586	0.00278909932264644	-0.00146517095806683	0.00278708429177878	-0.0114559988074272	0.00247728859541616
7.6	-0.008228874899122	-0.0111666127291594	-0.00106893229191448	0.00296344885696382	-0.00105823963465187	0.00297378170012608	-0.0106355877649165	0.00491982699017539
7.7	-0.00899066431836146	-0.0105988070148188	-0.000638986010557455	0.003086073879436	-0.000633417873225308	0.00308571161475198	-0.00934569990820828	0.00619620091432079
7.8	-0.00952854369657632	-0.0102172592118856	-0.000191750698210926	0.00314604620229482	-0.000205423966363074	0.00313899671738376	-0.00795300340322801	0.00733596886362437
7.9	-0.0100781024060147	-0.0100465408241753	0.000233634592313189	0.00313075943467137	0.00024472964913701	0.00313042080734609	-0.00643429725103022	0.00831073238138045
8	-0.0109828671685933	-0.0092933130563888	0.000668576284615346	0.00307151670549539	0.000676860241933322	0.00306941814818084	-0.00509313605775351	0.00955229063329146
8.1	-0.0107121499347379	-0.00851514531505615	0.00109865202523902	0.00294729022334079	0.0010963635859118	0.00294404283955221	-0.00231879895733144	0.0106013502846644
8.2	-0.0108001810071543	-0.00830147600066969	0.00149042141910044	0.00276427236448476	0.00148962885754938	0.0027758594044704	0.000400481913371687	0.0105557905172004
8.3	-0.0110892632681922	-0.00803168495804398	0.00186277367403596	0.00253010089980282	0.00186784135409672	0.00252750291173349	0.00300545022924412	0.0099296421724966
8.4	-0.0115282380977669	-0.0078143200992189	0.00220782216022377	0.00224742416477246	0.00219666806559116	0.00224785241387042	0.00531012740709873	0.00849206819082859
8.5	-0.0126917083401236	-0.00713803852926521	0.00250171340776781	0.00191256337000237	0.00250172525742499	0.00191391307932413	0.00648345499250143	0.0069460148557536
8.6	-0.0128024796869324	-0.00571399968068134	0.00273361217742642	0.00155203475460983	0.0027293978888704	0.00154973668870954	0.00829359173133277	0.00560631868842482
8.7	-0.0126949905433489	-0.00493313995288239	0.00292225188878273	0.00115174705459763	0.00292108891960318	0.00115133915009703	0.00966913274670997	0.0032113061865762
8.8	-0.0125751552750721	-0.00427884164400827	0.0030494276985841	0.000732903833132858	0.0030603915833033	0.000730773548485265	0.0103050038405621	0.000448024659976315
8.9	-0.0123806940959261	-0.00399135368721061	0.00312162808679478	0.000303267483444871	0.00313095579146367	0.000296117053754493	0.0103887030011056	-0.00253334807545655
9	-0.0128071693211597	-0.00373161520839871	0.00313479976724654	-0.000144989816922942	0.0031415819830267	-0.000139405875176833	0.00930803449562765	-0.0053102446944722
9.1	-0.0125440137198848	-0.0030772419509283	0.00308495789028515	-0.000578111197571913	0.0030851749126902	-0.000578303916294275	0.00840683799683189	-0.00742934223662014
9.2	-0.0123944109433537	-0.00300923466127904	0.00296807370631925	-0.000997734227825157	0.00297188833022025	-0.00099751935571626	0.00698750346480534	-0.00984852834694525
9.3	-0.0124819489128829	-0.00290749578603769	0.00279520769088047	-0.00140500829845751	0.00281322292437473	-0.00140547841832677	0.00493389281756929	-0.0119262500007629
9.4	-0.0127385914018214	-0.00289560594866929	0.00257758715495865	-0.00177649955233472	0.00258088324523162	-0.00178751472017917	0.00229329686281833	-0.013748162753699
9.5	-0.0135216827149993	-0.0021350604215575	0.00230410703251453	-0.00213204575046754	0.00231887484547885	-0.00213273952015399	-0.00129451059929013	-0.0144168662860874
9.6	-0.0133024323076179	-0.0011821036590205	0.0019848134908995	-0.00243017516612188	0.00198514647036272	-0.00242317755264102	-0.00426802257513929	-0.0142700062586532
9.7	-0.013246195869596	-0.000704373493461902	0.0016241673095558	-0.00268227228578938	0.0016324414655104	-0.00268386691215837	-0.00757259879510858	-0.0138876914396759
9.8	-0.0132922174391478	-0.000182958490668418	0.00124108875305587	-0.00287705900648171	0.00123925791061301	-0.00288568423182952	-0.0109487937019329	-0.0127091587457282
9.9	-0.0133904679195951	0.000283924090442123	0.000831485165788721	-0.0030216513342361	0.00081963334701977	-0.00302424969754744	-0.0143122206215283	-0.0108531575462217
10	-0.0141039962831948	0.00107299338871078	0.000399265414624591	-0.00309732559990773	0.000398448408417909	-0.00310461990678825	-0.0178275224029377	-0.0078950752312952
10.1	-0.0137590730592194	0.0024700106997728	-3.14812983036055E-05	-0.00313380336895538	-3.61115464164134E-05	-0.00313656350221543	-0.0197325769379182	-0.00379149022664305
10.2	-0.0131999484186242	0.00321568419580378	-0.000469909709373863	-0.00309435852301515	-0.000482475598640529	-0.00309810752120793	-0.0207328040165032	9.24158946370523E-05
10.3	-0.0126348810952305	0.00377496885360071	-0.000900471213495006	-0.00299178731696361	-0.000900255440035013	-0.00300513615754077	-0.0209672977499652	0.00410544852748974
10.4	-0.0121159886228098	0.00395235805161866	-0.00130711840865783	-0.00284372801797319	-0.00131027790902071	-0.0028416059383234	-0.0203704714719324	0.00774918751772942
10.5	-0.0122743686933216	0.00445242134774511	-0.00168715977574754	-0.00262725252004654	-0.00169330426122627	-0.00263448994048682	-0.019720597897305	0.011647752923529
10.6	-0.0115705443787613	0.00531772845210175	-0.00204639097685162	-0.00237286574270845	-0.00204788368407312	-0.00237796450140934	-0.0175208608964397	0.0157187349892153
10.7	-0.0108930641004487	0.00580708027499112	-0.0023525664623399	-0.00206119524038177	-0.00235575824169831	-0.00207718247080767	-0.0146321238722529	0.0191433177669965
10.8	-0.0101562424249101	0.00625537772230785	-0.00261825899290104	-0.00171502930790996	-0.00261532810253151	-0.0017171872918515	-0.0111066628232133	0.0220340029784683
10.9	-0.00934777258182746	0.0063369264266788	-0.00283461222023409	-0.00133992239436384	-0.00283388865607736	-0.00134503294989272	-0.00704059529563885	0.0241221193368129
11	-0.00915102160629263	0.0067341643262654	-0.0030000942911767	-0.00092617743509524	-0.00299308188721617	-0.000930452883760878	-0.00310459330578768	0.0259183505548883
11.1	-0.00790689431623467	0.00737882627458058	-0.00309510473983529	-0.000508648082766975	-0.00308738399729374	-0.00050036430196022	0.0022764397073491	0.0271692320220005
11.2	-0.00671880068703469	0.00719901801911286	-0.00313483636358248	-6.86567275292375E-05	-0.003141421729175	-6.54598739405239E-05	0.00787880030667664	0.026806325669205
11.3	-0.00566282334164097	0.00669613705828601	-0.0031127667643758	0.000370335320966538	-0.00311592220761158	0.000368172132161457	0.0134951406955723	0.02530596496973
11.4	-0.00498502048897436	0.00585774705186457	-0.00302798259569469	0.000800226537879436	-0.0030326042925614	0.000800374154712867	0.0186539152295055	0.0224121369351022
11.5	-0.00513841558006937	0.00540292963722985	-0.0028949184843385	0.00120972319396619	-0.0028874202665091	0.00121447252481762	0.0224678944197278	0.0187862325294568
11.6	-0.00443630365212766	0.00523667389680659	-0.00269234659437405	0.00160097118279655	-0.00270045390069499	0.0016106412246321	0.0264933633529118	0.0146149297981427
11.7	-0.00394259097621585	0.00443151978190046	-0.00244075701874069	0.00196682938327871	-0.00244250865474817	0.00197051026520928	0.0295754616801339	0.00909800586988897
11.8	-0.00370928274880466	0.00362143285093532	-0.00214384029573143	0.0022909893306482	-0.00215304408269233	0.00230075541025554	0.0314462079109301	0.0030344441951103
11.9	-0.00369687469835642	0.00263440015097777	-0.00180470046228731	0.00256382970488906	-0.00180474104713263	0.00257037740182989	0.0318711913675274	-0.00325098565270432
12	-0.00465805246882854	0.00237625084166169	-0.00142616641970034	0.00278624606865195	-0.00143065276219304	0.00278901826407479	0.03037182602826	-0.00882755798076462
