# GHZ S RI R 50
0.2	-0.0139877888810105	0.00526436022979086	0.00304492109231909	-0.000885102733398506	0.00305538188007978	-0.000884949568629753	0.00583939742483748	0.000797846541927815
0.3	-0.0131652803743782	0.00576869649978753	0.00289886742100817	-0.00130116180003274	0.00289258260375763	-0.00131280595615883	0.00616221056931717	-0.00145910080961748
0.4	-0.0124278335639569	0.00648107109433831	0.00268478199705456	-0.00169548491615829	0.00268267655002194	-0.00169739745951445	0.00572424706753046	-0.00328957615986595
0.5	-0.0117470170033417	0.00719393176990219	0.00241498953598356	-0.00205257418634966	0.00241780415717252	-0.00205630037090618	0.0048370622472579	-0.0048312786719001
0.6	-0.0110611574301341	0.00796757632777534	0.00210238371000067	-0.0023726792824729	0.00210164044305336	-0.00237552189086334	0.00359371111263444	-0.00609657833305101
0.7	-0.0104128099615662	0.00871651676095644	0.00175180798059986	-0.00264277989383091	0.00175801494875543	-0.00264687321412549	0.00201579287913435	-0.006941333794397
0.8	-0.009645611016189	0.00945364359941113	0.00135827097095693	-0.00286280179993911	0.00136654443778302	-0.00286120496578505	0.00027392360523678	-0.00729415266322622
0.9	-0.00892829155836498	0.0101371267242065	0.00095370974900649	-0.00301485235759028	0.000953690695721528	-0.00302426893175503	-0.00147280463484255	-0.00720737554265061
1	-0.00814514947442709	0.0107591138404818	0.000520754918945458	-0.00312297738725197	0.000520606519103497	-0.00312833447962561	-0.00311533503026525	-0.0066634701746952
1.1	-0.00747663703070011	0.011230455260029	7.33603262476883E-05	-0.00316290062715181	7.42482387400002E-05	-0.0031676275299852	-0.00463379808032967	-0.00569024998146585
1.2	-0.00685849531876764	0.0113972911786498	-0.000365575658260777	-0.00313585372781903	-0.000364349825172189	-0.00315265041493943	-0.00554139950041472	-0.00437583151065315
1.3	-0.00652521923098608	0.011178524995477	-0.000796842983730275	-0.00306156739941116	-0.000801782089846018	-0.00306922362949204	-0.00562696790648207	-0.0030686694425841
1.4	-0.00630149707398782	0.0108714827882829	-0.00122288077961257	-0.00291633156270728	-0.00122529714799348	-0.00292346230453759	-0.00531449539347424	-0.00225029903462789
1.5	-0.00576318400561947	0.0109141512104328	-0.00161455568907844	-0.00271802044027142	-0.00161258388465704	-0.00272356292530351	-0.00501735586953753	-0.00163071407233634
1.6	-0.00495215135285896	0.0112502544003196	-0.00197770803384631	-0.00246174845364633	-0.00198117915679443	-0.00246262777085763	-0.00516368260903815	-0.000654518200577207
1.7	-0.0039612067132299	0.0116129947162187	-0.00230281931689475	-0.00216715818463083	-0.00230486993650999	-0.00217574777126949	-0.0049513544282907	0.000634406112561457
1.8	-0.0029565759825869	0.0119843342503338	-0.00257974385271181	-0.00181770105530072	-0.00258492272496034	-0.00182316192130766	-0.00442722049412258	0.00184069447454433
1.9	-0.00195861508085617	0.0121648177082224	-0.00280534982198502	-0.00144835317761082	-0.0028018366974681	-0.00144216326818509	-0.00360373005531615	0.00292351315332555
2	-0.00102468959117263	0.0122642903313291	-0.00298088560789668	-0.00103654622650318	-0.00298362489259489	-0.00102969980637818	-0.00255027889538851	0.00383621541179918
2.1	-0.000120839010809758	0.0122257938712272	-0.00309608488254587	-0.000603872408161765	-0.00309818901771424	-0.000610569176617005	-0.00120367915177451	0.00436720005475685
2.2	0.000689156312774342	0.0121684997386707	-0.00314940439724851	-0.000172629445492572	-0.0031512146470241	-0.000162900983785031	0.000398371925123759	0.0044874209704762
2.3	0.00138240159730182	0.0119866677300591	-0.00314097010413859	0.000269762405596105	-0.00314772851909976	0.000266854625744927	0.00196087190692132	0.00406263935088366
2.4	0.00198432773934149	0.0118265273003068	-0.00308067154388842	0.000704625480958148	-0.00307949186153625	0.00071974769663458	0.00343231531567441	0.00327673072740939
2.5	0.00250890221076965	0.0116638086274969	-0.00294504417200375	0.00113711352362651	-0.00295805103803541	0.00113842055357053	0.00470925812244266	0.0020584842133336
2.6	0.00307025970431436	0.0116021918017445	-0.00275431525613444	0.0015323400530042	-0.00277524111117931	0.00153626921469527	0.00573058223264082	0.00051193917337741
2.7	0.00377118389794617	0.0115712630585561	-0.00252184937647367	0.00190141947346254	-0.00252212448193736	0.00190650757534524	0.00634173130381525	-0.0013021132921157
2.8	0.00465318083865917	0.0114943901714117	-0.0022263538717451	0.00222645727013217	-0.00223618232549171	0.00223766547655713	0.00653177915044192	-0.00315341454802437
2.9	0.00572249962244528	0.0112506351310317	-0.00188931617403791	0.00251946928131434	-0.00188737864623579	0.00252838072377474	0.00647982171045668	-0.0049230808218881
3	0.00683031586236152	0.0107717883964377	-0.00151764824395403	0.00276217412745191	-0.00153275059549992	0.0027491474915047	0.00617755344841728	-0.00667638855479292
3.1	0.00785984562749399	0.0101641987580079	-0.00111862324278925	0.00294509629367179	-0.00113556795511625	0.00295052234370015	0.00550887885918022	-0.00845559766003506
3.2	0.00872962099479517	0.0094079902284032	-0.000698874180149351	0.00306983114503385	-0.000694591068351512	0.00308063781972884	0.00428028744831545	-0.0100953625686274
3.3	0.00943097456701881	0.00851955676375153	-0.000269066536391339	0.00314085861352228	-0.000265771910136112	0.00313647282294813	0.00273048546330169	-0.011595181191617
3.4	0.00995219150255621	0.00760717608101407	0.000176884128772064	0.00314833037866265	0.000167454079329094	0.00314942273268239	0.000854837568395823	-0.0129484220102481
3.5	0.0103042797698317	0.00670827985307279	0.000610416753805936	0.00309099626172824	0.000615424122778794	0.00308965923106949	-0.00147270653981277	-0.014074631148176
3.6	0.0105561990261838	0.00589666379567071	0.00103046836549016	0.00297054186740064	0.00103707300758882	0.00297402574411522	-0.00410726046168941	-0.0146103157513852
3.7	0.0107527352249082	0.00516332300972038	0.00144689239548971	0.00279345630816368	0.00144516980051365	0.00280983069725778	-0.0068176334860179	-0.0145792684861377
3.8	0.0109828052337316	0.00448907928517555	0.00181482816087523	0.00256622718783431	0.0018254377981103	0.00257256424492387	-0.00955819980773826	-0.014046957718881
3.9	0.0112832311138828	0.00382876061961484	0.00216169087046423	0.00228759821608814	0.00215709306435098	0.00228750848420855	-0.0122263013504971	-0.0129289850537274
4	0.0116275750554484	0.00311967591591789	0.00245240848218218	0.00196822880654162	0.00246385624673352	0.00197435434485491	-0.0145691894574856	-0.0112284401699604
4.1	0.01196907209636	0.00231820275929518	0.00270373163384484	0.00160141899525337	0.00272030693829404	0.00161117337653121	-0.0164517199600218	-0.00906349321985033
4.2	0.012246651537797	0.00141840221032173	0.00290483392370449	0.00120450909228751	0.00290606976693272	0.00120679284942909	-0.0178993812826404	-0.00661817358235797
4.3	0.0123910715311	0.000479418057751569	0.00304705278221447	0.000796517870214343	0.00304824905536928	0.000805097568272397	-0.0188954823887595	-0.00407104289959849
4.4	0.0123632540956171	-0.000506205815139423	0.00312555123283578	0.000361431892207722	0.00313346360135931	0.000356787876783985	-0.0195191439632597	-0.00133679018692065
4.5	0.0121861174135454	-0.0013962410546392	0.00314862819664092	-8.32340333852365E-05	0.00314544194154876	-8.09689646144167E-05	-0.0196269093614783	0.00147086480683045
4.6	0.0118755775014841	-0.00224689227543734	0.00309440760253651	-0.00052892030881275	0.0031074470713609	-0.000516962596804214	-0.0192909188739878	0.00421792343253615
4.7	0.0115679043688909	-0.00292890459508857	0.00299196698716256	-0.000941431810673909	0.00299186132360012	-0.000950860152048005	-0.018546305450056	0.00681862339114284
4.8	0.0112377925679386	-0.00359346367068619	0.00284270538823227	-0.00134353669900525	0.00283504016831494	-0.00136369376568686	-0.0173120075913979	0.00935112747740991
4.9	0.0110810703317561	-0.00418414922444889	0.00262685295043297	-0.00174051893876924	0.00262079408428573	-0.00173207705105616	-0.0155493612821795	0.0116439928090935
5	0.011028469242933	-0.00488784354043752	0.00235060704172123	-0.00207200369235627	0.00235333965227043	-0.00208441800199806	-0.0131426327413085	0.0135829811677481
5.1	0.0110467844682344	-0.00570817124421718	0.00202922342924849	-0.00239462924889126	0.00204243859000908	-0.00239216147755143	-0.0103112991618082	0.0149613679331433
5.2	0.010987131995341	-0.00665331154027624	0.00168687602096038	-0.0026511003981941	0.00168737408630347	-0.00265525783032291	-0.00727733675932911	0.0156913304690814
5.3	0.0108024485152434	-0.00766224772468621	0.00129729454714991	-0.00286189853580414	0.00129355237929647	-0.00286446588916342	-0.00420620460740859	0.0158344693635912
5.4	0.0104315560656503	-0.00864791694326723	0.000886513402096096	-0.00302032990863122	0.00088562485020695	-0.00302278536075088	-0.0012077210778068	0.0152860093997447
5.5	0.00982980870745326	-0.00948891028443522	0.000448485818517347	-0.00311387102321208	0.000461046795966361	-0.00311385636902404	0.00141904757390723	0.0140901698090405
5.6	0.00913649632692677	-0.0102217559268081	1.58352662540414E-05	-0.00314389110925725	1.25429170906217E-05	-0.00314043663867545	0.00351789272147789	0.0125280407196101
5.7	0.00828327680716093	-0.0107962055174474	-0.000416525675958387	-0.00311769674089083	-0.000420238631905421	-0.00312138039285486	0.00513647494323421	0.0107539242677003
5.8	0.00744153304493453	-0.0112363808529776	-0.000850634929917661	-0.00302741159375094	-0.000849907417817676	-0.00303508545696633	0.00636675407976342	0.00865631544172481
5.9	0.00655342565381629	-0.0115141910635078	-0.00126659263316072	-0.0028747315711699	-0.00126499469749615	-0.00287887768192971	0.00702167979150456	0.00643612363218111
6	0.00566080756571773	-0.0117576836337327	-0.00165427880189454	-0.00267003420125128	-0.00164829585398258	-0.00267337862961504	0.00709796883296988	0.00424029448561381
6.1	0.0048101142114765	-0.011952997041902	-0.00201188501241841	-0.0024193717099379	-0.00200774762801517	-0.00242413187294397	0.00690524293055399	0.00222078740489676
6.2	0.00398068939781186	-0.0122302279036167	-0.00233120179558514	-0.00210412367068035	-0.0023276295160801	-0.00211277690300435	0.00648540209108526	0.000152583505775278
6.3	0.00323029457912085	-0.0125713780697194	-0.00259807050356577	-0.00176574620559568	-0.0026078711723835	-0.00177349633036882	0.00577981729544429	-0.0020031964785551
6.4	0.00239714150037876	-0.0130029334148741	-0.00282501859142963	-0.00138176746529857	-0.0028230292847742	-0.00138755522736955	0.00472495888800969	-0.00409980689702982
6.5	0.00158029981090722	-0.0134242592814782	-0.00299041013847363	-0.00098027933392991	-0.002990813952435	-0.000979158234069321	0.00331806622336761	-0.00601730387948709
6.6	0.000712269512874846	-0.013702229561965	-0.00309462409400249	-0.000555390415683023	-0.00310527931957504	-0.000558394353561272	0.00150008952582943	-0.0075767062159056
6.7	-0.000140058756544605	-0.0138332498393643	-0.0031397765028337	-0.000121978379112166	-0.00313873729781277	-0.000115746337025853	-0.000774125257950385	-0.00853072515609045
6.8	-0.00099612882246054	-0.0138005240825369	-0.00312575524075331	0.000325608067869403	-0.00312485227953142	0.000330363898435291	-0.00327725034321701	-0.00873980108657213
6.9	-0.00183875434139722	-0.0136771729110646	-0.00304424460638444	0.000755473130104594	-0.00304466951404552	0.000760452396486468	-0.00565632407306047	-0.00821365176341987
7	-0.00264182761815396	-0.0134489710972248	-0.00291419995282027	0.00117313537562869	-0.00291561435775226	0.00117634782358997	-0.00778060178335578	-0.0071512777141181
7.1	-0.00345705531625735	-0.0131830907701884	-0.00271750466809375	0.00157062655582763	-0.00271993163518012	0.00158163097035895	-0.00960446413721408	-0.0055385202010807
7.2	-0.00427855693496048	-0.0128622978402521	-0.00247815508475699	0.00193198329347585	-0.00247834196972187	0.00193787262160086	-0.0109423317003358	-0.00346064836288522
7.3	-0.005167518885455	-0.0124915131681335	-0.00218850664268377	0.00225707270941101	-0.00218574826029828	0.0022585474122261	-0.01164611699497	-0.00117972906039467
7.4	-0.00615347974445642	-0.0120744405676038	-0.00184689772374474	0.00254117290703644	-0.00183969369575091	0.0025476946579801	-0.0118453716328674	0.00103092543890265
7.5	-0.00718082452878411	-0.0115606052996242	-0.00147066322196162	0.00277629263632819	-0.00147169919789718	0.0027742790150659	-0.0114512735382758	0.00317254488294505
7.6	-0.00806045709168973	-0.0109980041163017	-0.0010779470531398	0.00295415612895562	-0.00106731183900051	0.00296450981751805	-0.0105131400052514	0.0050481362104369
7.7	-0.00893901796089759	-0.0104245551973881	-0.000649024217946697	0.00307874748694991	-0.000643463859432698	0.00307840580465803	-0.00936407576239426	0.00634503304538201
7.8	-0.00949594968055333	-0.00997223271508145	-0.000203190199497059	0.00314053717802766	-0.000216816344442296	0.00313344744721053	-0.00799739705409028	0.00756557142920701
7.9	-0.00988812082819538	-0.00961858166723327	0.000220371980607171	0.00312773950177334	0.000231454308656898	0.00312744725239352	-0.00630289260523909	0.00871437172108719
8	-0.0101762096998847	-0.00930884204531948	0.000655673131258221	0.00307340457399228	0.000663963402711806	0.00307134090135299	-0.00437397173908266	0.00957978169594516
8.1	-0.0104811812426865	-0.0089990638771308	0.00108779938897573	0.00295042346914167	0.00108552320024099	0.00294716877310668	-0.00216490134638524	0.0101380814098718
8.2	-0.0108625896242714	-0.00864670391634005	0.00147979669766612	0.00276897502545069	0.00147896162459297	0.00278055581029712	0.000259705228841069	0.0102445641709589
8.3	-0.0113061867444451	-0.00822703424592566	0.00185293029791078	0.00253722477889199	0.00185800786494174	0.00253464647087379	0.0027144168966938	0.00978752597141239
8.4	-0.0117924805987085	-0.00764185943743715	0.00220030792099597	0.00225721877888673	0.00218914607084728	0.00225760398190545	0.00498811309809433	0.00873751062008776
8.5	-0.0122440654910531	-0.00696529692960664	0.0024975270812733	0.00192170719624819	0.00249753473605012	0.00192305789729103	0.00689500497039914	0.00718837383685798
8.6	-0.0126444289180078	-0.00617093920974009	0.00272925761106271	0.00156170245964417	0.00272504971791487	0.00155938951917166	0.00841690524910807	0.00522601593754194
8.7	-0.0129084894069838	-0.00532451694134328	0.00291993555362241	0.00116296703332259	0.00291877332495035	0.0011625546950771	0.00944061890978297	0.00290593375647062
8.8	-0.0130158185531594	-0.0044837529144734	0.00304991430560907	0.000744438809060319	0.00306089680849211	0.000742345182510647	0.00987013233432746	0.000329112587035895
8.9	-0.0129390161911547	-0.00376132007193453	0.00312453242342047	0.000313470741149976	0.00313389417250581	0.00030634083958301	0.00985222513065121	-0.00222954778846674
9	-0.0127291235604861	-0.00326779228259553	0.00313741534434609	-0.000135101881879023	0.0031441844289979	-0.000129492495632259	0.00940196980152512	-0.00477437019125714
9.1	-0.0125005640506964	-0.00299884088792566	0.0030908221990925	-0.000567228247039385	0.00309104020455492	-0.00056742038228878	0.00848924272306935	-0.00727386874264369
9.2	-0.012391224415906	-0.00288032726278487	0.00297667245472672	-0.000988802801255372	0.00298049277200856	-0.000988573913945894	0.00704678613074111	-0.00965814297952804
9.3	-0.0124320542844964	-0.0027775692796084	0.00280515054374776	-0.00139839318680547	0.00282320138552725	-0.00139880444577433	0.00504706417359917	-0.0117505953370847
9.4	-0.0125989781504951	-0.00262869138459073	0.00258777431506926	-0.00177128795611638	0.00259111156387334	-0.00178231162690604	0.00249593983378851	-0.0134514738626609
9.5	-0.0128804240818424	-0.00223403082320996	0.00231722785632209	-0.00212745108678161	0.00233202900853574	-0.00212808850855974	-0.000580857676549741	-0.0144933223153393
9.6	-0.0131973994612993	-0.00176225179922952	0.0019991527328874	-0.00243041469178949	0.00199946226470929	-0.00242339527311724	-0.00409449336185392	-0.0148599483771129
9.7	-0.0134930748202643	-0.00112801790413728	0.00163741489393657	-0.0026855657270817	0.00164571948529263	-0.00268713987485725	-0.00776692131843591	-0.0143376334600462
9.8	-0.0137327434175032	-0.00039930670463079	0.00125339903304615	-0.0028824723958483	0.00125158765017665	-0.00289113007813471	-0.0113516583315852	-0.0129607677299675
9.9	-0.0138943701580392	0.000486892947804323	0.00084364061299575	-0.00302928205782573	0.000831756813449334	-0.00303192586001156	-0.014782837350105	-0.0106919243405685
10	-0.0139286662387331	0.00136179063023381	0.000409541093047578	-0.00310985094745322	0.000408740556724081	-0.00311717958558208	-0.0176424033052183	-0.00765770766886473
10.1	-0.0137889458602176	0.00226864910124364	-2.57884262195772E-05	-0.00314727043193907	-3.04333529618403E-05	-0.00315005098515289	-0.0197733977102382	-0.00403543555401075
10.2	-0.0134800001362549	0.00310370679473095	-0.000466621711562543	-0.00310809626086113	-0.000479233784501386	-0.00311188226881106	-0.0210368338545139	-5.30248846513322E-05
10.3	-0.0130496190153953	0.00384306850306872	-0.000899663090351611	-0.00300630331424173	-0.000899425192136525	-0.00301971020530438	-0.0214189665004127	0.00415201380690605
10.4	-0.0125104645071065	0.00444450983144042	-0.00130996658219479	-0.00285931431295421	-0.00131314423884334	-0.00285718578347549	-0.0208125804305209	0.00823800527769929
10.5	-0.0119446439141906	0.00495142365509906	-0.00169523534295147	-0.00264007871984928	-0.0017014093402243	-0.00264735153831922	-0.0194307807767984	0.0121664544726634
10.6	-0.0113804598087924	0.00534213415159467	-0.00205495366505334	-0.00238288577209897	-0.00205645255423063	-0.0023880060063314	-0.0173111182965855	0.0157594055022155
10.7	-0.0107255036559045	0.00579501639617104	-0.00236265999282619	-0.00207000082338293	-0.00236586558643558	-0.0020860564893784	-0.0144942643581761	0.0191768289512159
10.8	-0.0100502398972387	0.00615903947855729	-0.00263036936203734	-0.00172177611633425	-0.00262742620768038	-0.00172394456245667	-0.0110561609113887	0.0220699756041306
10.9	-0.00940041130698792	0.0064780444732146	-0.00284827391233412	-0.00134295745711696	-0.00284755224252432	-0.00134809097320603	-0.00706722227895963	0.0243576672087544
11	-0.00861534683027869	0.00672925701749512	-0.00301140496156957	-0.000926188717344571	-0.00300437294150505	-0.000930486314149062	-0.00252395511436773	0.025992421514072
11.1	-0.00778682390303613	0.00685660441215408	-0.00310704099648564	-0.000508550573658228	-0.00309928593470009	-0.00050024072971345	0.0024577227589005	0.0267317157201281
11.2	-0.00694377688207063	0.00678751937065364	-0.00314735177592267	-6.57773503835891E-05	-0.00315396007334146	-6.256118283923E-05	0.0077447906154385	0.0264708497917791
11.3	-0.00607656546618837	0.00651303128627936	-0.00312423939725552	0.000376239743603601	-0.00312741012090028	0.000374072749408233	0.0131559063785117	0.0251716711066094
11.4	-0.00544818504809921	0.0060810939085656	-0.00303685800898419	0.000807874854649828	-0.00304149501036443	0.000808030533377978	0.0182713004096175	0.0226634297571123
11.5	-0.00499563894392312	0.00558650538345683	-0.00290377460913245	0.00121678291968856	-0.00289624566629598	0.00122154133338202	0.0227262515179903	0.0189926745439338
11.6	-0.00462333289710883	0.00502069174508236	-0.00270073549410629	0.00161171739545822	-0.00270886040007883	0.00162143946154105	0.0264506605050466	0.0143918315089418
11.7	-0.00439069223897224	0.00442280808504083	-0.0024460032954678	0.00197951838207625	-0.00244775392664507	0.00198321709198067	0.0292739213672675	0.00904134349643192
11.8	-0.00422644813580471	0.0039239915206715	-0.00214615763533011	0.00230402039225626	-0.00215537153053895	0.00231384217029835	0.0310636821160563	0.00326181871364184
11.9	-0.00399337989627728	0.00345108991447397	-0.00180555005660913	0.00257643814254482	-0.00180557707580625	0.00258300847739659	0.0316831310103065	-0.00253500352157446
12	-0.00399031936926785	0.00297692188881356	-0.00142510170381029	0.00280166092193102	-0.00142959995860472	0.00280445626627712	0.0311661676892641	-0.00836351887314884
