# GHZ S RI R 50
0.2	-0.0139853309904832	0.00525600603704628	0.00304492684428768	-0.000885099937318995	0.00305538764748764	-0.000884946758167101	0.00584189236161029	0.000789508913540505
0.3	-0.0131677120939133	0.00576100438732696	0.00289887626854134	-0.00130116184131221	0.00289259144843098	-0.00131280603417117	0.00615983516157442	-0.00146679285126947
0.4	-0.0124334311402844	0.00647614180412836	0.00268479170194312	-0.00169548922777482	0.00268268624886867	-0.00169740177847871	0.00571871373452177	-0.0032945331454064
0.5	-0.011753823522656	0.00719235278108491	0.00241499796264279	-0.00205258251857766	0.00241781259327777	-0.00205630871781874	0.00483031164669144	-0.00483291182094863
0.6	-0.0110676884713099	0.00796904536501371	0.00210238954824096	-0.00237269057239443	0.00210164627560932	-0.00237553319110279	0.00358722008613392	-0.00609518510777734
0.7	-0.010418140553319	0.00872038192057684	0.00175181072069893	-0.00264279287757943	0.00175801770669151	-0.00264688622337203	0.00201048177211809	-0.00693755837177335
0.8	-0.00964926678752158	0.00945918661178949	0.0013582706336541	-0.00286281535584928	0.00136654413516292	-0.00286121853156414	0.000270264877881765	-0.00728870929106296
0.9	-0.00893019903901192	0.0101436843497273	0.000953706872519441	-0.00301486564132102	0.000953687799065649	-0.003024282250578	-0.0014747385239175	-0.00720092447175667
1	-0.00814576819390722	0.0107662143289049	0.000520750140814758	-0.00312298995380093	0.000520601728957149	-0.00312834706550071	-0.00311600360330431	-0.00665649262171135
1.1	-0.00747732674048277	0.0112382739694653	7.33545005961167E-05	-0.00316291235332283	7.42424072329313E-05	-0.00316763927518091	-0.00463458184042142	-0.00568256660963996
1.2	-0.00686186657271298	0.0114080823474184	-0.000365582277645102	-0.00313586520071508	-0.000364356467746251	-0.00315266195457988	-0.00554495785162242	-0.00436518126379511
1.3	-0.00653296357257796	0.0111974747856413	-0.000796849278247627	-0.00306157933435936	-0.000801788412338477	-0.00306923559141407	-0.00563500427601157	-0.00304984734831567
1.4	-0.00630883470923395	0.0109028518254732	-0.0012228864453049	-0.00291634585471421	-0.0012253028247516	-0.00292347663143745	-0.00532206427469413	-0.00221899212330209
1.5	-0.00576014215733209	0.0109539003231072	-0.00161456137020684	-0.00271804027331912	-0.0016125895441497	-0.00272358279006511	-0.00501441031112196	-0.00159112953048464
1.6	-0.00493273525963221	0.0112887931415432	-0.00197771781585495	-0.00246177674315397	-0.00198118896697734	-0.00246265607931001	-0.00514446291906367	-0.000615983106142932
1.7	-0.00392555238333565	0.011640174404909	-0.00230283995158623	-0.00216719686646649	-0.00230489056004362	-0.00217578657503147	-0.00491577709259319	0.000661530528838715
1.8	-0.00291022269489641	0.0119909264395995	-0.00257978568579438	-0.00181774708138557	-0.00258496463426804	-0.00182320807464206	-0.00438091890387733	0.00184711715892419
1.9	-0.00191430330824	0.0121456172010264	-0.00280542229325225	-0.00144839393262595	-0.00280190908210325	-0.00144220385698358	-0.00355949719674986	0.00290410392309056
2	-0.000997803294075239	0.0122238228980099	-0.00298098794547673	-0.00103656056430544	-0.00298372727462944	-0.00102971390684468	-0.0025235440083448	0.00379548170630829
2.1	-0.000120106054728301	0.0121788059750973	-0.00309619959846425	-0.000603842892284763	-0.0030983039130946	-0.000610539853796365	-0.00120313448627775	0.00431992999157076
2.2	0.000667824036927384	0.0121306034730335	-0.00314950627232809	-0.000172555501028203	-0.0031513163332331	-0.000162826692472551	0.000376775582466712	0.00444918337593133
2.3	0.00135047458773257	0.0119642954042702	-0.00314104117474554	0.000269866449283802	-0.00314779985059562	0.000266958805106288	0.00192861228332821	0.00403985405427886
2.4	0.00195153697863467	0.0118175659629946	-0.00308070768183034	0.000704740602830693	-0.00307952747828766	0.000719863071024702	0.00339918640198804	0.00326769078751277
2.5	0.00247739401703274	0.0116624021730241	-0.00294505006535407	0.0011372275741866	-0.00295805708011478	0.00113853505302418	0.00467741809020146	0.00205696440221425
2.6	0.00303886125047961	0.0116055868734337	-0.00275429857563035	0.00153244645926116	-0.00277522455132118	0.00153637633844848	0.00569877823749157	0.000515180993994801
2.7	0.00373861167814736	0.0115800573374763	-0.00252181635830071	0.00190151659129414	-0.00252209130960563	0.00190660475337531	0.00630868195740814	-0.00129342578614325
2.8	0.00462055620434967	0.0115107889057817	-0.0022263089691961	0.00222654463427703	-0.00223613718374233	0.00223775323952457	0.00649858493445644	-0.00313702287038423
2.9	0.00569276940806458	0.0112758563641097	-0.00188926179961167	0.0025195481896403	-0.00188732399597385	0.00252845966253434	0.00644957625723181	-0.00489765305078249
3	0.00680764779880622	0.0108057232701867	-0.00151758615843518	0.00276224588408275	-0.0015326890358025	0.00274921953808344	0.00615446492146716	-0.00664229047207762
3.1	0.00784877762704268	0.0102061955025437	-0.00111855424997486	0.00294516198518032	-0.00113549900958357	0.00295058857114694	0.00549716729759687	-0.00841222731906735
3.2	0.00873134958532117	0.00945285873451651	-0.000698797445588039	0.00306989277872242	-0.000694513971429429	0.00308069948082745	0.00428135916683163	-0.0100502823815096
3.3	0.00944764495843868	0.00856416048258873	-0.000268980159798392	0.00314091713885866	-0.000265685606989714	0.00313653118224791	0.00274647103384934	-0.0115503610173873
3.4	0.00998445697738541	0.00764681766868594	0.000176983656289255	0.0031483856558529	0.000167553458451454	0.00314947831882461	0.00088630456783694	-0.0129085240221922
3.5	0.0103507460313745	0.00673785917543126	0.000610534441366482	0.00309104632856239	0.000615541879760203	0.00308970909930419	-0.0014272922772649	-0.0140452777808682
3.6	0.0106151409184877	0.005910408038117	0.00103061037617812	0.0029705827472908	0.0010372153309875	0.00297406646468407	-0.00404954032101987	-0.0145961730827904
3.7	0.0108183903417067	0.00515686710613978	0.0014470658068451	0.00279347538544666	0.00144534391471998	0.00280985035734787	-0.00675350344839807	-0.0145850726704474
3.8	0.01104842961477	0.00445977294191563	0.00181503372664464	0.00256620573498978	0.00182564406877118	0.00257254238772341	-0.00949436852104145	-0.0140752137262259
3.9	0.0113414420949925	0.00377540068613588	0.00216191572983152	0.00228750982621093	0.00215731778556896	0.00228742041919399	-0.0121699649004176	-0.0129806021353277
4	0.0116686573028206	0.00304192452054977	0.0024526178997833	0.00196805674476086	0.00246406638357864	0.00197418142572765	-0.0145296509083845	-0.0113036428902447
4.1	0.0119788256285574	0.00222080483657801	0.00270387846119556	0.0016011726443332	0.00272045466000959	0.00161092551533387	-0.0164426741107224	-0.00915771298828378
4.2	0.0122121774969432	0.00131817669463686	0.00290488816105222	0.00120423014848757	0.0029061241841965	0.00120651375499182	-0.017933462359042	-0.00671530942887846
4.3	0.0123134211381651	0.000400793456011891	0.00304702040837972	0.000796253858615048	0.00304821731781049	0.000804833195539376	-0.0189726703473153	-0.00414699141036363
4.4	0.0122590297267889	-0.000543653900966522	0.00312546067010338	0.000361211527197075	0.00313337244098794	0.000356567157585967	-0.0196223984211451	-0.00137202423432704
4.5	0.0120780995149533	-0.00138758139120121	0.00314850872938893	-8.34073654196139E-05	0.00314532271735273	-8.11422007643891E-05	-0.0197337888089396	0.00148129228292483
4.6	0.0117823414461737	-0.00219720650220629	0.00309427999668256	-0.000529055220757599	0.00310731962590825	-0.000517098542945237	-0.0193819851793364	0.00426924994828513
4.7	0.0115009958394028	-0.00285194690947091	0.0029918374159188	-0.000941539894802901	0.00299173132861763	-0.00095096795738781	-0.018611170725157	0.00689701164171327
4.8	0.0112018964224615	-0.00350408100054409	0.0028425745014503	-0.00134362640482092	0.00283490859808371	-0.0013637826245432	-0.0173462583618607	0.00944126617605017
4.9	0.0110740967234687	-0.00409371261397243	0.0026267186685474	-0.00174059480038485	0.00262066030518435	-0.00173215283610161	-0.015554816514522	0.0117351559747462
5	0.0110441891151466	-0.00480568876450282	0.00235046783855479	-0.00207206816596043	0.00235319983891694	-0.00208448235324497	-0.0131254903298594	0.013665882837361
5.1	0.0110770724745951	-0.0056386823714694	0.00202907464240647	-0.00239468153445788	0.00204228968194551	-0.00239221442761782	-0.0102795800402016	0.0150315602536735
5.2	0.0110250894366017	-0.00659592766319117	0.00168671526226038	-0.00265113978588016	0.00168721311176815	-0.00265529717264556	-0.00723790603955065	0.0157492759174155
5.3	0.0108452526559101	-0.00761337726935015	0.00129711915548428	-0.00286192052075649	0.00129337691208478	-0.00286448763025693	-0.00416187240358242	0.0158837506814912
5.4	0.0104811827119707	-0.00860391000466342	0.000886321126965707	-0.00302032860565664	0.000885432447083699	-0.00302278396258901	-0.00115654113032654	0.0153301982055496
5.5	0.00989252773055432	-0.00944945176285228	0.000448276696333977	-0.00311383697167449	0.000460837421122347	-0.00311382312484024	0.00148326731821547	0.0141296458782311
5.6	0.0092207989251448	-0.0101927487580407	1.56122633308678E-05	-0.00314381261582899	1.23202421223803E-05	-0.00314035799962969	0.00360359891371718	0.0125568890725502
5.7	0.00839858068544356	-0.0107893741746101	-0.000416758095114056	-0.00311755638801167	-0.000420471214761732	-0.00312123961924093	0.0052531720320389	0.0107613098470217
5.8	0.00758254225650933	-0.0112836219218626	-0.000850846094369946	-0.00302719304636404	-0.000850119258137134	-0.00303486659626575	0.00650943841002091	0.00860911418697261
5.9	0.00669146574782761	-0.0116487387684659	-0.00126674199176242	-0.00287443206554495	-0.00126514450472954	-0.0028785780250069	0.00716119482465176	0.00630161245773914
6	0.00573198236031057	-0.011990442209493	-0.00165431862800321	-0.00266968056700456	-0.00164833644718449	-0.00267302511686188	0.00717048588398334	0.00400712816800851
6.1	0.00474155438335272	-0.0122341458653155	-0.00201178862022559	-0.00241902772382242	-0.00200765188528803	-0.00242378758518128	0.00683752523678427	0.00193961686247962
6.2	0.00376078815776448	-0.0124514907072219	-0.00233099570603936	-0.00210386556954653	-0.00232742394476085	-0.00211251796462404	0.00626685661436719	-6.81246593389052E-05
6.3	0.00294190702992987	-0.0126482879343705	-0.00259782392478441	-0.00176560551702316	-0.00260762365572369	-0.00177335501292024	0.00549183498499751	-0.00208114243668005
6.4	0.00215259010715342	-0.0129559098698777	-0.00282479549031368	-0.00138172500985412	-0.00282280621200919	-0.00138751233086084	0.004480660372564	-0.00405369609282054
6.5	0.00142034959294705	-0.0133258051682725	-0.00299023807735967	-0.000980290176800848	-0.00299064189353163	-0.000979169142176468	0.00315810452760306	-0.00591946139110168
6.6	0.000618267928444192	-0.0136027927780242	-0.00309450003103666	-0.000555417973415068	-0.00310515481240618	-0.000558421965466201	0.00140598424200614	-0.00747762197921512
6.7	-0.000197463373285756	-0.0137459246856389	-0.00313968491621535	-0.000122002375850642	-0.00313864579575146	-0.000115770504322526	-0.000831548840840472	-0.00844366207290269
6.8	-0.00103404499181292	-0.0137205470123512	-0.00312568000910867	0.000325594314971601	-0.00312477707868553	0.00033035003183365	-0.00331510469410171	-0.00866002425888746
6.9	-0.00186245462876746	-0.0135974921114408	-0.00304417336976122	0.000755468343256187	-0.00304459824802251	0.000760447499739847	-0.00568005135012542	-0.00813390389557513
7	-0.00264971377253468	-0.0133645505730379	-0.00291412347962121	0.00117313616517132	-0.00291553782278157	0.00117634855407083	-0.00778836894045949	-0.00706674360929675
7.1	-0.00344413225253748	-0.0130925699890648	-0.00271741787287156	0.00157062577692678	-0.00271984463163339	0.0015816299596821	-0.00959130897665247	-0.00544781045640452
7.2	-0.00423801418768522	-0.0127680747423607	-0.00247805564288381	0.00193197315929421	-0.00247824242319681	0.00193786233191015	-0.0109014481837997	-0.00336609019527922
7.3	-0.00509201925764065	-0.0124003611369133	-0.00218839539870581	0.00225704440510394	-0.00218563707387052	0.00225851900927494	-0.0115701006113064	-0.00108798441976214
7.4	-0.00603805296006424	-0.0119972736007916	-0.00184677875654272	0.0025411168773746	-0.00183957486147866	0.00254763824387013	-0.0117296432064962	0.00110823685388146
7.5	-0.0070264690060569	-0.0115157419372267	-0.00147054612212755	0.0027761995807428	-0.00147158209127636	0.00277418606707339	-0.011296948023886	0.00321745183110446
7.6	-0.00788186178377249	-0.0110045635608303	-0.00107784725438118	0.00295401989624726	-0.00106721243383582	0.00296437289167812	-0.0103336384896759	0.00504077362792636
7.7	-0.00876327020351709	-0.0104853051177639	-0.000648964015434212	0.00307856394316095	-0.000643403998535292	0.00307822224452558	-0.00918847558114462	0.00628483803012335
7.8	-0.00935003952007152	-0.0100754713704822	-0.000203201280193854	0.00314031775016574	-0.000216826423327096	0.00313322840181146	-0.00784973873990494	0.00746334657042363
7.9	-0.00978433733399629	-0.00973722603427606	0.000220265058005	0.00312753264204562	0.000231346638746819	0.00312724073819343	-0.00620679378037226	0.00858754984827367
8	-0.0100998827494773	-0.00945406939969439	0.00065546036880249	0.00307326739138123	0.000663750287064765	0.00307120430941646	-0.00429073376722067	0.00943492167658515
8.1	-0.0104457614334178	-0.00915530348289821	0.00108751352341115	0.00295039950541626	0.00108523769156155	0.00294714474685865	-0.00213251361314183	0.00998124128521836
8.2	-0.0108836082866976	-0.00881679133988002	0.00147953059234895	0.00276910864418769	0.00147869442328956	0.00278068932190322	0.000236256509753656	0.0100753079375748
8.3	-0.0114002256955231	-0.00838174363585095	0.0018527755544932	0.00253747551481501	0.00185785352518616	0.00253489755647199	0.002618827310841	0.00963452808475639
8.4	-0.0119479228796194	-0.00774090175843233	0.00220030044131503	0.00225749829003126	0.00218913787642809	0.00225788280704563	0.00483223350354433	0.00864052493861982
8.5	-0.0124239567028023	-0.00698602974076014	0.0024976389756954	0.00192193788986722	0.00249764658191014	0.00192328868949784	0.00671562318650152	0.00716960412138329
8.6	-0.012809544172318	-0.00611767775118312	0.00272943351305816	0.00156185165678387	0.0027252253474388	0.00155953849312408	0.00825285830579082	0.00528066167450111
8.7	-0.0130357821800706	-0.00521790584137854	0.00292012963433274	0.00116303499515142	0.00291896732854995	0.00116262263316025	0.00931453131648865	0.00301305535081198
8.8	-0.0130931592821865	-0.00435155326840111	0.00305009741177869	0.000744443229074394	0.00306108051451404	0.000742349346331961	0.00979443384544835	0.000461342415128776
8.9	-0.0129708948435039	-0.0036275732226255	0.00312469090988753	0.000313431308265315	0.00313405299235712	0.000306300893450458	0.00982208781733684	-0.00209638590833345
9	-0.0127290681253697	-0.00314779369874102	0.00313754454378703	-0.000135167712447252	0.00314431402033215	-0.000129558220360976	0.00940373481077842	-0.00465596444196288
9.1	-0.0124813092755378	-0.00290132925385946	0.00309092671491472	-0.000567312672328861	0.00309114472464249	-0.000567504819247193	0.00850900580491854	-0.00717750561247181
9.2	-0.0123679134806482	-0.00279749321271774	0.00297675439114236	-0.000988891319918165	0.00298057484136629	-0.00098866249575363	0.00707030643313987	-0.0095766696367363
9.3	-0.0124078439659987	-0.00270003412710231	0.00280521729235245	-0.00139847940771283	0.0028232686934757	-0.00139889095245421	0.00507121350024743	-0.0116743545065764
9.4	-0.0125696018709173	-0.00254668560313042	0.00258783666645266	-0.00177136905947724	0.00259117390731259	-0.00178239310592122	0.00252592165199964	-0.0133703620913779
9.5	-0.0128343680703086	-0.00214641590676871	0.00231729553856992	-0.00212752711904638	0.00233209716525612	-0.00212816460951479	-0.000534589233460639	-0.0144064323336455
9.6	-0.013120153414122	-0.00167249575395537	0.00199923775157705	-0.00243049443205224	0.00199954726132735	-0.0024234747541074	-0.00401673900492255	-0.0147707751246542
9.7	-0.0133714783386034	-0.00105124354837626	0.00163752685974731	-0.0026856656439705	0.00164583185206914	-0.00268723974859125	-0.00764426892724054	-0.0142615208766955
9.8	-0.0135608134065226	-0.000363200915800295	0.00125354051013207	-0.00288261946733727	0.00125172921285371	-0.00289127771754186	-0.0111785933721103	-0.0129259677249052
9.9	-0.0136860492973139	0.000444231768973051	0.000843793609101592	-0.00302951257165977	0.000831908887129639	-0.00303215691838223	-0.0145748548854452	-0.0107367065012567
10	-0.0137310823669811	0.0012105606626453	0.000409658715155317	-0.00311019831559398	0.000408858253493975	-0.00311752781246077	-0.0174461202913706	-0.00781131539848796
10.1	-0.0136731597683115	0.0020180261223779	-2.57874516686836E-05	-0.00314773581164157	-3.04330609718172E-05	-0.00315051678304459	-0.0196606378966404	-0.00428827341571549
10.2	-0.0134985826443338	0.00282061328292779	-0.000466820330727686	-0.00310860822400131	-0.000479434698708136	-0.0031123943941746	-0.0210597914548187	-0.000336620324276337
10.3	-0.0131872115449793	0.00361484430597269	-0.000900076610017458	-0.00300673667282841	-0.000899839833082634	-0.00302014586476768	-0.0215607355454298	0.00392561174936825
10.4	-0.0126989538197551	0.00431072731018858	-0.00131051859755004	-0.00285956869642437	-0.00131369645222342	-0.00285743945482272	-0.0210039164720836	0.00810757217594874
10.5	-0.0121302775578742	0.00489383124443979	-0.00169581154572594	-0.00264012932280937	-0.00170198729995617	-0.00264740206135652	-0.0196178049749536	0.0121129336961893
10.6	-0.0115517412110006	0.00533255208598083	-0.00205547762706858	-0.00238277343362526	-0.00205697740376745	-0.00238789386227083	-0.0174828987669402	0.0157494605944934
10.7	-0.0109369266504449	0.00579133208990966	-0.00236310800495863	-0.00206978652846172	-0.00236631613119385	-0.00208584272926543	-0.0146472865282413	0.0191477069762952
10.8	-0.0101923637614591	0.00621525033884211	-0.00263071326842954	-0.00172150786727814	-0.00262777026692943	-0.0017236767969865	-0.0111960662318852	0.0221290107586694
10.9	-0.0095262898023451	0.00656973551500035	-0.00284854222382679	-0.00134266142844825	-0.00284782115034834	-0.0013477952219534	-0.00719276404148588	0.0244488229557281
11	-0.00871386205922594	0.00685282932837614	-0.00301161142108458	-0.00092588212470427	-0.00300457964424079	-0.000930180657281445	-0.00262179734408029	0.0261155856227982
11.1	-0.00784862177724984	0.00700566189795687	-0.00310720097786291	-0.000508241730181363	-0.00309944477740097	-0.000499932415605584	0.00239699178288723	0.0268802238144817
11.2	-0.00696173823882759	0.00695144987296991	-0.00314747475965271	-6.54663665306898E-05	-0.0031540829812689	-6.22494219474424E-05	0.00772827916126876	0.0266340474027061
11.3	-0.00604342900620052	0.00667684361871374	-0.00312433457125825	0.000376554696329025	-0.00312750563554954	0.000374387914735843	0.0131917847628179	0.0253364406917877
11.4	-0.00537087194988639	0.00623132839103857	-0.00303692983109409	0.00080819999292095	-0.00304156704358114	0.000808356115627609	0.018352353383647	0.0228138933229103
11.5	-0.00488404237721931	0.00571350919539632	-0.00290382329296965	0.00121712855322249	-0.00289629346996991	0.00122188651935022	0.0228406354195373	0.0191170228970962
11.6	-0.00448553311443599	0.00511587525706532	-0.00270075662976834	0.00161209390229811	-0.00270888111513161	0.0016218174281564	0.0265907324561152	0.0144840165695264
11.7	-0.00423801068488555	0.00448629550273543	-0.0024459826300918	0.00197993937369059	-0.00244773299972813	0.00198363856531532	0.029428539320364	0.00910045959759
11.8	-0.00406395294175672	0.00396135850403776	-0.00214606624816153	0.00230449391525697	-0.00215527975967027	0.00231431771992517	0.0312241681082925	0.00329237762708544
11.9	-0.00380181724543418	0.00344034410832171	-0.00180537110297586	0.00257698764303011	-0.00180539716051282	0.00258355870714727	0.0318780661678588	-0.00255224115996399
12	-0.00378221908912422	0.00294628141939422	-0.001424753591671	0.0028022370555515	-0.00142925184726312	0.00280503353405216	0.0313680837547866	-0.00840354449443743
