# GHZ S RI R 50
0.2	-0.0139894725821739	0.00526190562558374	0.00304492288913264	-0.000885102571868665	0.00305538368240487	-0.000884949404852498	0.00583771529189222	0.000795397723426749
0.3	-0.0131683851469202	0.00576824826547202	0.0028988695168755	-0.00130116275763641	0.00289258469501103	-0.00131280692217605	0.0061591122754165	-0.00145954741085234
0.4	-0.0124307876066081	0.00648280356921432	0.00268478372801743	-0.00169548683996586	0.00268267827891029	-0.00169739938435655	0.0057212998381721	-0.00328784464534387
0.5	-0.011748800432734	0.00719744752081813	0.00241499065742077	-0.00205257667789063	0.00241780527942348	-0.0020563028663898	0.00483528420926112	-0.00482776338774614
0.6	-0.0110609707878437	0.00797242387991157	0.00210238427837325	-0.00237268200135103	0.00210164100962519	-0.00237552461158127	0.00359390153801907	-0.00609172969675851
0.7	-0.010409652674108	0.00872212596026841	0.00175180826024673	-0.00264278263593874	0.00175801523152425	-0.00264687596189321	0.0020189528513247	-0.00693571756787862
0.8	-0.00963792823796111	0.00945883371710946	0.00135827138844679	-0.00286280459505128	0.00136654486274761	-0.00286120776167826	0.000281609954636252	-0.0072889454262634
0.9	-0.00891386127241815	0.0101388425155897	0.000953710890803323	-0.00301485567027981	0.000953691837763869	-0.0030242722548767	-0.0014583646989896	-0.00720562567396051
1	-0.0081224074013283	0.0107497046456953	0.000520757174869157	-0.00312298257669418	0.000520608777090676	-0.00312833967842146	-0.00309256524590667	-0.00667281376684933
1.1	-0.00745170819571889	0.0111946059670882	7.33627873562087E-05	-0.00316291028608538	7.42507059159031E-05	-0.00316763720280401	-0.00460877615040577	-0.00572602184707228
1.2	-0.00686107692038265	0.0113218225786114	-0.000365577492574159	-0.00313587010894316	-0.000364351652686931	-0.00315266688373082	-0.00554520251145884	-0.00445092880035198
1.3	-0.00659730787478953	0.0111005042056149	-0.00079685616639334	-0.00306158661388665	-0.000801795325885791	-0.00306924288464428	-0.00570052673193143	-0.00314542067666519
1.4	-0.00640596389147355	0.0108594304885922	-0.00122290461708665	-0.00291634337341482	-0.00122532104010347	-0.00292347414728525	-0.00541959994175685	-0.00226053377224429
1.5	-0.00582696059689218	0.0109498113498219	-0.00161458297671835	-0.0027180215721452	-0.00161261120311564	-0.00272356409759077	-0.00508022138575265	-0.00159528841973672
1.6	-0.0049796488389004	0.0112873269371537	-0.00197773021839782	-0.00246174149843366	-0.0019812013566887	-0.00246262079420632	-0.00519080435115325	-0.000616326048035693
1.7	-0.00397132576097828	0.011641608904402	-0.00230283715635679	-0.0021671475372101	-0.00230488783393651	-0.00217573712636001	-0.00496109095329435	0.000663678039916531
1.8	-0.00295875044984208	0.0120076436677388	-0.00257975824275052	-0.00181768903424302	-0.00258493715428713	-0.00182314987889576	-0.00442943596763049	0.00186370501853424
1.9	-0.00195633557039151	0.0121861289564669	-0.00280536219028343	-0.00144834052827427	-0.00280184902683291	-0.00144215062749941	-0.00360146725836942	0.00294459346598584
2	-0.00101716007678577	0.0122855855061239	-0.00298089696488936	-0.00103653305679681	-0.00298363622006625	-0.00102968660875058	-0.00254275804405919	0.00385729289237094
2.1	-0.000105410673976478	0.0122473663367123	-0.00309609628810682	-0.000603858355765035	-0.00309820046286394	-0.000610555131618943	-0.00118823725766519	0.00438856694285761
2.2	0.000716873769279222	0.0121880336085842	-0.00314941698588908	-0.000172613483270961	-0.00315122719109267	-0.00016288497594594	0.000426099801118452	0.00450672445083073
2.3	0.00142754751550931	0.0119964507395456	-0.00314098463945283	0.000269782746194999	-0.00314774310673729	0.000266874992160514	0.00200601493241378	0.00407214003645731
2.4	0.00204596729274353	0.0118093526905074	-0.00308068698323369	0.000704654750253806	-0.00307950717276695	0.000719777059813458	0.00349515170011873	0.00326008868473274
2.5	0.00256718547755869	0.0115965381971843	-0.00294505385837529	0.00113715709241165	-0.00295806081090893	0.00113846428567852	0.0047692837095352	0.00199133933631413
2.6	0.00307386704092735	0.011489793690413	-0.00275430516881085	0.00153239561741952	-0.00277523107802985	0.00153632515672662	0.00573604687105777	0.000398812769332002
2.7	0.00369447103301588	0.0114798180730186	-0.00252181143953896	0.00190146863763149	-0.0025220864448999	0.0019065567437984	0.00626613181827709	-0.00139499194573927
2.8	0.0045504934102139	0.0114750634405832	-0.00222630211852509	0.0022264829861976	-0.00223613031980478	0.00223769129807357	0.00642932421020356	-0.00317411698920615
2.9	0.00564870796528506	0.0112799248446435	-0.00188926659930539	0.00251947351318681	-0.00188732896830321	0.00252838485509426	0.00640461348382444	-0.00489359033078762
3	0.00679072201150418	0.0108144841751372	-0.00151760756847512	0.00276216691064641	-0.00153270992883942	0.0027491405359712	0.0061366098462076	-0.00663293895513639
3.1	0.00784035730652392	0.0102048211102653	-0.00111858960896047	0.00294508810533948	-0.00113553416673544	0.00295051427509114	0.00548902696496536	-0.00841514323678113
3.2	0.00872166700403425	0.00944521424415885	-0.000698844016916798	0.00306982155066178	-0.000694560833314101	0.00308062813315008	0.00427197009730388	-0.0100583144640429
3.3	0.00943027002341131	0.00855557621129598	-0.000269037333541795	0.00314084753869356	-0.000265742760589745	0.00313646173751765	0.00272938213954054	-0.0115593014213925
3.4	0.00995923613343467	0.00764509489181292	0.000176913838833932	0.00314831665107944	0.000167483835937801	0.00314940909194056	0.000861470988371741	-0.0129106107605424
3.5	0.0103243693677152	0.00674916575881336	0.000610448027613087	0.00309097810114707	0.00061545536338687	0.00308964102112446	-0.00145298786745946	-0.0140328698165106
3.6	0.010596248202337	0.0059384358405924	0.00103050069831238	0.00297051625454691	0.00103710535498809	0.00297400003439111	-0.00406782867746441	-0.0145685180617785
3.7	0.0108232863298804	0.00519221348897212	0.00144692343317488	0.00279341860217835	0.00144520108242803	0.00280979291589138	-0.00674784012162892	-0.0145500809726743
3.8	0.0110823313239033	0.0044751538870688	0.00181485016631451	0.00256617363563811	0.0018254597974156	0.00257251046516979	-0.00945938776773998	-0.0140601359092127
3.9	0.0113715463417247	0.00374070273206054	0.00216168946305755	0.00228753275156957	0.00215709172661212	0.0022874430852625	-0.0121382743667641	-0.0130158192299493
4	0.0116349386541866	0.00298375929374975	0.00245237634702314	0.00196817194735518	0.00246382393797403	0.00197429727931209	-0.014561231694155	-0.0113631619074687
4.1	0.0118894302406949	0.0022205813598411	0.00270368515144928	0.00160138991683016	0.00272026017091006	0.00161114412094368	-0.0165303959558001	-0.00916058238109991
4.2	0.0121466560264749	0.00139521145542724	0.0029047949197839	0.00120450265065866	0.00290603074135443	0.00120678638337554	-0.0179985300484986	-0.0066413251782647
4.3	0.0123158877282232	0.000503088083435298	0.003047027083218	0.000796517936129962	0.00304822332905497	0.000805097568993071	-0.0189702983677682	-0.00404766988024632
4.4	0.0123178062035693	-0.000465018744251898	0.00312553331586878	0.000361431055919515	0.00313344564120307	0.000356787069993959	-0.0195642591104029	-0.00129577465369409
4.5	0.0121622784439441	-0.00135220514241316	0.0031486125796106	-8.32377193204989E-05	0.0031454263431579	-8.09726575623199E-05	-0.0196503360423364	0.00151476785624562
4.6	0.0118654517719692	-0.00220407338313576	0.00309439161702996	-0.000528924142387317	0.00310743104773913	-0.000516966514821489	-0.0193008523488105	0.0042607506753252
4.7	0.011566531383645	-0.00288622392609796	0.00299194783346311	-0.000941435338681787	0.00299184214308176	-0.000950863628012841	-0.0185474648388137	0.00686126558883397
4.8	0.0112448803020859	-0.00354693380913735	0.00284268178320416	-0.00134353685724886	0.00283501654956739	-0.0013636937626089	-0.0173044265743508	0.00939769720040219
4.9	0.0111023015004952	-0.00413091636785642	0.00262682579409092	-0.00174051136178274	0.00262076700277817	-0.00173206952923241	-0.015527589151084	0.0116971235755403
5	0.0110766713589574	-0.00483115369162556	0.00235058017020306	-0.00207198378167853	0.00235331274046706	-0.00208439796176476	-0.0130939317238315	0.013639282165413
5.1	0.0111362730461698	-0.0056689945767705	0.0020292061263961	-0.00239459314613466	0.00204242111612065	-0.00239212536255171	-0.010221487679326	0.0149998832081017
5.2	0.0111077601904566	-0.006675836614358	0.00168688355125482	-0.00265105392421638	0.00168738165243773	-0.00265521130485142	-0.007156810463831	0.0156679568484304
5.3	0.0108875896957583	-0.00777169792026762	0.00129733512202622	-0.00286186600773042	0.00129359301067632	-0.00286443341056785	-0.00412169592840448	0.0157244376467312
5.4	0.0104147480986782	-0.00878190001968909	0.000886565270458447	-0.00302033544427831	0.00088567675056764	-0.00302279092553756	-0.00122520291474558	0.0151520526552327
5.5	0.00974114761818545	-0.00956275658184031	0.000448517772065225	-0.00311390633067428	0.000461078907134798	-0.00311389157012276	0.0013299729751291	0.0140166977860727
5.6	0.00904361960572513	-0.0102246205958776	1.58407878913241E-05	-0.00314393217526859	1.25483898830226E-05	-0.00314047766511545	0.00342487977565911	0.0125256027010915
5.7	0.0082196489624161	-0.0107577018689075	-0.000416537476794003	-0.00311772979091908	-0.000420250481804234	-0.00312141347446412	0.00507293350347661	0.010792816455888
5.8	0.00740983182047533	-0.0111814684886128	-0.00085065448274858	-0.00302743446084732	-0.000849926995156644	-0.00303510839365115	0.00633513104751086	0.00871149158090183
5.9	0.00654913000585578	-0.0114567439541753	-0.00126661382930223	-0.00287474589619278	-0.00126501590059306	-0.00287889204250068	0.00701757245755794	0.00649389398077814
6	0.0056793577419779	-0.0117050032138056	-0.00165429815103282	-0.00267004310798444	-0.00164831518180878	-0.00267338757769215	0.00711663326431671	0.00429324766437193
6.1	0.00484777857493632	-0.0119101113304973	-0.00201190082702137	-0.00241937907573547	-0.0020077634331561	-0.00242413927243198	0.00694305765690264	0.00226411669073088
6.2	0.00403387889795032	-0.0122010219794718	-0.00233121422235421	-0.00210413442605245	-0.0023276419251161	-0.00211278770406386	0.00653884540002672	0.000182231878604444
6.3	0.00329551501040126	-0.0125585965975077	-0.00259808402277436	-0.001765766087819	-0.00260788473954145	-0.00177351629535861	0.00584494167324647	-0.00198995446433581
6.4	0.00247228499202536	-0.0130121045908585	-0.00282504356754688	-0.00138180153246422	-0.00282305420112771	-0.00138758935096252	0.00479994742931026	-0.00410855414600162
6.5	0.00165967601845677	-0.0134689388033471	-0.00299046613245239	-0.000980321607790868	-0.00299086996305394	-0.000979200487192838	0.00339718027072893	-0.00606150913521987
6.6	0.000766636904958826	-0.0137978270656094	-0.00309472422818902	-0.000555409695528458	-0.00310537979811502	-0.000558413735164656	0.00155402173536718	-0.00767159448763332
6.7	-0.000158807332057643	-0.0139535516376235	-0.00313989325002611	-0.000121936232534749	-0.00313885391444913	-0.00011570397769611	-0.00079340484339137	-0.00864982375681478
6.8	-0.00108668246350787	-0.0138785210437756	-0.00312583725981397	0.000325704291916823	-0.00312493414029125	0.000330460236005347	-0.0033678546307402	-0.00881595137890847
6.9	-0.00194879906823929	-0.0136825511190923	-0.00304427702322993	0.000755583054607065	-0.00304470178173398	0.000760562426379002	-0.00576487005767521	-0.00821895696298534
7	-0.00272843799943879	-0.0133991989653262	-0.00291419792378377	0.00117323509530093	-0.00291561224923658	0.00117644762140995	-0.00786602961501904	-0.007101702213674
7.1	-0.00350633129885689	-0.013102463692541	-0.00271748394976605	0.00157071129898917	-0.00271991064217157	0.00158171586404792	-0.00965278130166484	-0.00545812511545938
7.2	-0.00428790105401247	-0.0127673914432391	-0.00247812490317381	0.00193205607340816	-0.0024783116470191	0.00193794544530203	-0.0109507405828832	-0.0033659884199436
7.3	-0.00513484298188757	-0.0123938960224978	-0.00218847083450387	0.00225713751897074	-0.00218571239994115	0.00225861216977712	-0.0116126841568062	-0.00108225245050004
7.4	-0.00607713917479365	-0.0119866291993773	-0.00184685710975178	0.00254123335197719	-0.00183965288240502	0.00254775499802286	-0.0117669920692073	0.00111914930119842
7.5	-0.00705591250284428	-0.0114997804286456	-0.00147061651662238	0.00277635206529659	-0.00147165254694753	0.00277433844717008	-0.0113242396445822	0.00323306361004911
7.6	-0.00789148493742007	-0.0109941821327939	-0.00107789069785761	0.00295421795247552	-0.00106725510855335	0.00296457151793777	-0.0103411427243694	0.00505211011149842
7.7	-0.00875877506010352	-0.0105023172635982	-0.000648949610388268	0.00307881228533557	-0.000643389176400616	0.0030784704451972	-0.009181671828248	0.0062665423402597
7.8	-0.0093608211380045	-0.0101421963889473	-0.000203084157903864	0.00314059776989031	-0.000216710782207982	0.00313350839339432	-0.0078581607097691	0.00739491122022591
7.9	-0.00984222354487923	-0.00983864358255326	0.000220509793933723	0.0031277506608048	0.000231592182821918	0.00312745792636291	-0.00628308352495973	0.00849100702065021
8	-0.0102807614041481	-0.00950852227532203	0.000655837797336793	0.00307337253574385	0.000664127966622362	0.00307130841864655	-0.00446486337237121	0.00936955444485825
8.1	-0.0106413265093534	-0.00910265933767062	0.00108792710279277	0.0029503313702737	0.00108565078762711	0.00294707682775002	-0.00233071194464915	0.0100380981548017
8.2	-0.0110240124998709	-0.00865391701748236	0.00147987154643099	0.00276886428102398	0.00147903692598941	0.00278044486716867	9.65028866341875E-05	0.0102393384287082
8.3	-0.0114348205509546	-0.00817139339136591	0.00185296879570453	0.00253712270508042	0.00185804619129145	0.00253454429854072	0.00258481953380548	0.00984408613385952
8.4	-0.0118817982777612	-0.00754879335740296	0.00220032878489064	0.00225712926152661	0.00218916711961519	0.00225751473265194	0.00489825965402615	0.00883101375350428
8.5	-0.0122935384177788	-0.00684833182802555	0.00249754000704141	0.00192162573483302	0.00249754769277336	0.00192297641879845	0.00684530452070712	0.00730553764277038
8.6	-0.0126509827567484	-0.00603763550511178	0.00272926618615554	0.00156162361178496	0.00272505828197958	0.00155931079192119	0.00841021238575112	0.00535933990662622
8.7	-0.0128632960992684	-0.00518395419616161	0.00291993896476223	0.00116288577400569	0.00291877673596699	0.00116247346767129	0.00948491485917772	0.00304515024140174
8.8	-0.0129082490923792	-0.00434982058047325	0.00304990986474725	0.000744351850770406	0.00306089222477078	0.000742257949008905	0.00997683653145258	0.000462401287808942
8.9	-0.0127588237610851	-0.00366199170835242	0.00312451458055183	0.000313375182143217	0.00313387603642978	0.000306245064393545	0.0100317057670689	-0.00213021382299311
9	-0.0124818932986268	-0.00325027250458891	0.00313737374907906	-0.000135205901397041	0.00314414294262707	-0.000129596809254322	0.00964895592075518	-0.00475585620907545
9.1	-0.0122330929237875	-0.00311227028742106	0.00309074594261464	-0.000567328653226259	0.00309096393724792	-0.000567520792800214	0.00875638877560088	-0.00738785270434843
9.2	-0.0122093978523854	-0.00314881086348895	0.00297655215289999	-0.000988877216678127	0.00298037236762121	-0.000988648468180374	0.00722887370853291	-0.00992653252876206
9.3	-0.0124478316644117	-0.00310508606782664	0.00280500828966435	-0.00139840702041874	0.00282305842386941	-0.00139881870026797	0.00503296356718329	-0.0120784638548619
9.4	-0.0127897005967237	-0.00284933349066522	0.00258764985380435	-0.00177123099722546	0.0025909868772252	-0.00178225421866247	0.00230441898176364	-0.0136714028402807
9.5	-0.0131024318595681	-0.00229924239140521	0.00231715992821561	-0.00212737375144828	0.00233196060119236	-0.00212801110062641	-0.000803304201089217	-0.0145583922042567
9.6	-0.0133772458986842	-0.00173112966355334	0.00199912120082809	-0.0024303517719811	0.00199943069109697	-0.00242333250488678	-0.00427468360724163	-0.0148285144370973
9.7	-0.0136251687432527	-0.00105069389163465	0.00163739481406451	-0.00268552064581994	0.00164569927937	-0.00268709475245433	-0.00789920053886165	-0.0142600057267864
9.8	-0.013826817109845	-0.000294878869671503	0.00125337823215682	-0.00288243634999282	0.00125156686015803	-0.00289109391571631	-0.0114459416274895	-0.0128563810613567
9.9	-0.013955049376136	0.000612486419444574	0.00084361891254175	-0.003029245129673	0.000831735260172844	-0.003031888855525	-0.0148437394524351	-0.0105671607879094
10	-0.0139512943962252	0.00150963497633055	0.000409517632351573	-0.00310980708476479	0.000408717066918496	-0.00311713560967788	-0.0176652413108126	-0.00751080767418156
10.1	-0.0137602018566037	0.00243541011213578	-2.58076949508241E-05	-0.00314721395713655	-3.04525560420787E-05	-0.00314999443148668	-0.0197451749298125	-0.00387016979618559
10.2	-0.0133797029896131	0.00327488678033985	-0.000466627171417287	-0.00310802471577674	-0.000479238983017641	-0.00311181057517671	-0.0209376408486955	0.000116482681021262
10.3	-0.012857691041836	0.00398308536165196	-0.000899640534618678	-0.00300621949543733	-0.000899402653350634	-0.00301962601596374	-0.0212287823320764	0.00429056331795169
10.4	-0.012227205451255	0.00448751738099744	-0.00130989931338801	-0.00285923290176555	-0.00131307688540377	-0.00285710446883187	-0.0205320156621806	0.00827976548807875
10.5	-0.0116358580518794	0.00481368404884662	-0.00169511653664787	-0.00264003726085105	-0.00170129015912798	-0.00264731000223014	-0.0191267036802778	0.0120287316883579
10.6	-0.0112103507333595	0.00499982338778045	-0.00205481698530034	-0.00238293621652006	-0.00205631562802229	-0.00238805643258385	-0.0171388239460846	0.0154191186923125
10.7	-0.0108765058451048	0.00541002594449871	-0.00236260660903216	-0.00207013548228545	-0.00236581155453426	-0.00208619153589719	-0.0145830926186665	0.0187671434195553
10.8	-0.0102870409043901	0.00597579764378712	-0.00263039748697025	-0.00172190275549944	-0.00262745418310118	-0.00172407118099572	-0.0112887683537589	0.0218925118586091
10.9	-0.00963687824931726	0.00646635438768883	-0.00284836661917449	-0.00134302866520219	-0.00284764488262503	-0.00134816236187999	-0.00730429814287551	0.0243439200502672
11	-0.00878468324899548	0.00679803551946786	-0.00301150017310996	-0.000926200742288585	-0.0030044679645507	-0.000930498504910673	-0.00269399725780344	0.0260592891672507
11.1	-0.00790022413147123	0.00695413642216921	-0.00310711624893764	-0.00050852776596674	-0.0030993609218228	-0.000500217821130326	0.00234241128287293	0.0268277157314829
11.2	-0.0070209759279293	0.00689858820633142	-0.00314740357000196	-6.57389026841996E-05	-0.00315401193406764	-6.25226000970208E-05	0.00766533461768781	0.0265814002340032
11.3	-0.00612870152430831	0.00662538356535448	-0.00312427895969164	0.000376288184621376	-0.00312744975861324	0.000374121203082884	0.0131071912064823	0.0252809496742948
11.4	-0.00547085059722818	0.00621519384869654	-0.00303687947210276	0.000807912986761932	-0.00304151651700332	0.000808068713239064	0.0182516615913162	0.0227949081888145
11.5	-0.00496485707229836	0.00575135497355264	-0.00290378749457567	0.00121680594844483	-0.00289625847746226	0.00122156435467182	0.0227563073199057	0.0191578032690406
11.6	-0.00451709088684338	0.00519424194833513	-0.00270075554574587	0.00161172598614221	-0.0027088805165318	0.00162144811157577	0.0265567112978316	0.0145652184120723
11.7	-0.0041778529671144	0.00456018118196035	-0.00244604866323961	0.0019795186078334	-0.00244779934745381	0.00198321734358588	0.0294864101945985	0.00917851196022241
11.8	-0.00391152154732743	0.0039321524410653	-0.00214624618043923	0.00230403800582076	-0.00215546045461337	0.00231385985787363	0.0313786335338631	0.00327032723969571
11.9	-0.00369454885496149	0.00322714686440737	-0.00180567099671194	0.00257652402916051	-0.00180569812099792	0.00258309465544874	0.0319832470971705	-0.00276068848119754
12	-0.00391729330123465	0.002582463821899	-0.00142518344127109	0.00280184621578547	-0.00142968197550605	0.00280464175596583	0.0312416328289571	-0.00875910695120936
