# GHZ S RI R 50
0.2	-0.0140681018832328	0.00532406192839861	0.00304491333824161	-0.000885098585619899	0.00305537409753175	-0.000884945415267092	0.00575904484386431	0.000857565345649789
0.3	-0.0132237262384251	0.00585109648607885	0.00289885988266557	-0.00130115443889472	0.00289257509827823	-0.00131279856594798	0.00610371313335123	-0.00137666176529665
0.4	-0.01245900992241	0.00657851773008235	0.00268477624107708	-0.00169547398465096	0.00268267080485857	-0.00169738652564694	0.00569303665145947	-0.00319205311812083
0.5	-0.0117483859369451	0.00729779492911181	0.00241498714205511	-0.00205256034910131	0.00241780176424171	-0.00205628651298385	0.00483566510975564	-0.00472732742005501
0.6	-0.0110334901264888	0.00806942147964809	0.00210238583500278	-0.00237266385391539	0.00210164258103958	-0.00237550645597422	0.00362138406309531	-0.00599462999937477
0.7	-0.0103600288737109	0.00880982196838332	0.00175181506420368	-0.00264276469488526	0.00175802203369551	-0.00264685797586225	0.00206860381906099	-0.00684792883516073
0.8	-0.00957426140147874	0.00953589931011358	0.0013582827662087	-0.00286278865214757	0.00136655620702893	-0.00286119177886934	0.000345355009055899	-0.00721183168675511
0.9	-0.00884594853367903	0.0102129530503747	0.000953725236933193	-0.00301484282405637	0.000953706236238281	-0.00302425938514716	-0.00139036545739423	-0.00713150771759133
1	-0.00805660761887927	0.0108447514046106	0.00052077275818771	-0.00312297214229236	0.000520624389715434	-0.00312832923172191	-0.00302671708412091	-0.00657777939540483
1.1	-0.00737588078959259	0.0113587510705364	7.33792178633674E-05	-0.00316289931213229	7.42671584056349E-05	-0.00316762620833511	-0.00453296571038563	-0.00556197570257956
1.2	-0.00671687793986647	0.0116126892525163	-0.000365554587020775	-0.00313585714298071	-0.000364328640077747	-0.00315265382688278	-0.00539963277968575	-0.00416040647694891
1.3	-0.00629143404234167	0.0114934361836228	-0.000796820902541575	-0.00306157308727118	-0.000801759953359865	-0.00306922935281429	-0.00539303393419889	-0.00275387244259508
1.4	-0.00596698404262303	0.0111979809925622	-0.00122286026053464	-0.00291634122722793	-0.0012252765785401	-0.00292347198858447	-0.00497991517300069	-0.00192378988784086
1.5	-0.00539938627292382	0.0111424194916841	-0.00161454073856841	-0.00271803489669804	-0.00161256889564379	-0.00272357737752524	-0.00465327226747186	-0.00140238588854984
1.6	-0.0046284608869372	0.0113573467054908	-0.00197770064826663	-0.00246176383252166	-0.00198117177498236	-0.0024626431687228	-0.0048398829210864	-0.000547538962542568
1.7	-0.00370548633703752	0.0116300884423185	-0.00230281885270201	-0.00216717239778889	-0.00230486944939435	-0.0021757620169168	-0.0046956451674313	0.000651447598916454
1.8	-0.00276956579259451	0.0119493406743397	-0.00257974873340047	-0.00181771197820752	-0.00258492761189961	-0.00182317287207943	-0.00424022671350554	0.00180573505101969
1.9	-0.00183150382924986	0.0121069351258962	-0.00280535862414694	-0.00144836006752196	-0.00280184549147041	-0.00144217013427843	-0.00347663303925729	0.00286559591812471
2	-0.000944594209526651	0.0122034983203866	-0.00298089666585456	-0.00103654869022256	-0.00298363595747374	-0.00102970224457952	-0.00247019885102304	0.00377539416414024
2.1	-7.4440870291847E-05	0.0121741985963149	-0.00309609682871284	-0.000603870629732334	-0.00309820098002805	-0.000610567419688497	-0.0011572794895792	0.0043155632708759
2.2	0.000713748695724761	0.012132085381668	-0.0031494160637718	-0.000172623853972843	-0.00315122630086423	-0.000162895353721863	0.000422950690988379	0.00445098422162073
2.3	0.00139358797939335	0.0119675064583137	-0.00314098070299472	0.000269771366108045	-0.00314773914963552	0.00026686359299783	0.00197203883098873	0.00404344939442568
2.4	0.00198606628583785	0.0118257906760608	-0.00308068046997103	0.000704637537857363	-0.00307950073664854	0.000719759804390314	0.00343403556519909	0.00327595902234703
2.5	0.00250177716010499	0.0116851215845105	-0.00294505029340398	0.00113712850050031	-0.00295805720031533	0.00113843558352745	0.0047021126789277	0.00207975300162132
2.6	0.00305563007741354	0.011653352379326	-0.00275431756589239	0.00153235767474378	-0.00277524347341138	0.00153628694442433	0.00571593141178799	0.000563043892445777
2.7	0.00375688355771907	0.0116606543222547	-0.00252184692699518	0.00190143919758887	-0.00252212200555834	0.00190652731696606	0.0063273761092644	-0.00121277120521431
2.8	0.00465485886799253	0.0116231657165222	-0.00222634628219705	0.00222647825189161	-0.0022361746935663	0.00223768655510698	0.00653331797304433	-0.00302468920908642
2.9	0.00575747514156803	0.0114079152014264	-0.00188930328331896	0.00251949078635137	-0.00188736568397382	0.00252840224134364	0.00651464641467551	-0.00476580668514742
3	0.00690927055322875	0.0109374100546607	-0.00151763068067138	0.00276219522987269	-0.00153273318592111	0.00274916867490395	0.0062563975071127	-0.00651086333378667
3.1	0.00798058240969617	0.0103154709934161	-0.00111860101530806	0.0029451121471592	-0.00113554571940297	0.00295053835116684	0.00562935680110842	-0.00830406862457149
3.2	0.00888691418752494	0.00952945952313599	-0.000698849644558625	0.00306984820778665	-0.000694566422415313	0.00308065488319871	0.00443742943758986	-0.009973911883765
3.3	0.00960806729073951	0.0086016135912639	-0.000269039320628087	0.00314087209582083	-0.000265744722087708	0.00313648626024885	0.00290740380631841	-0.0115131174814024
3.4	0.0101336111193036	0.0076499074031683	0.000176913248796125	0.00314833914175911	0.000167483178203954	0.00314943158485398	0.0010360538292865	-0.0129056374947392
3.5	0.0104785794275943	0.00671952172323708	0.000610445125356971	0.00309099829014803	0.000615452494582601	0.00308966121270064	-0.00129872179335756	-0.0140634130215966
3.6	0.0107169990335413	0.00588740824363703	0.00103049731738083	0.00297053826612745	0.00103710200387895	0.00297402208964973	-0.00394668348868901	-0.0146194684332424
3.7	0.0109020254414883	0.00514421982173774	0.00144691904975149	0.00279344594599286	0.00144519660109617	0.00280982036657218	-0.00666855103072083	-0.0145982319836573
3.8	0.011126328411984	0.00446479658600532	0.00181485098509301	0.00256621073498024	0.00182546067819446	0.00257254769658719	-0.00941481942119121	-0.014071044257938
3.9	0.011425691989116	0.00379697824062636	0.00216170861510485	0.0022875768256269	0.00215711081311393	0.00228748713414604	-0.0120839705208665	-0.0129605336826548
4	0.0117678743862517	0.00307371468044996	0.00245242073468675	0.00196820437143851	0.00246386853040854	0.00197432980127783	-0.014428961855019	-0.0112741639854941
4.1	0.0120995319009175	0.00225288280898864	0.0027037383890851	0.00160139309841952	0.00272031373443098	0.00161114732108473	-0.0163213106724409	-0.00912858495939574
4.2	0.0123563918178484	0.00133460533072351	0.00290483561853289	0.00120448321855646	0.00290607147630996	0.00120676695999008	-0.0177896096015714	-0.00670170858242408
4.3	0.0124713395006284	0.000384813226443076	0.00304705033752317	0.000796492901853945	0.00304824667150289	0.000805072567325181	-0.0188151660477896	-0.00416541387594773
4.4	0.0124110547349427	-0.000598977540252763	0.00312554452949302	0.000361409127176867	0.00313345684245097	0.000356765070506823	-0.0194712599542672	-0.00142934355788572
4.5	0.0122057783109746	-0.001474479023564	0.00314861767610679	-8.32540063632063E-05	0.00314543144567614	-8.09889243001829E-05	-0.0196071387750127	0.00139282622796989
4.6	0.0118774239106243	-0.00230073608666811	0.00309439314536036	-0.000528937644481577	0.00310743264149068	-0.000516980056726862	-0.0192889087025543	0.0041642869816595
4.7	0.0115638896785949	-0.00295644881545752	0.00299194971109792	-0.000941445420933814	0.0029918439933406	-0.000950873724442024	-0.0185501094746833	0.00679122402155404
4.8	0.0112380024527698	-0.00359753134489505	0.00284268573118824	-0.00134354622219006	0.0028350204356312	-0.00136370315955846	-0.0173116025647105	0.0093471547752201
4.9	0.0110902220083193	-0.00417055630056183	0.00262683111987122	-0.00174052429259731	0.00262077232728938	-0.00173208241394755	-0.0155399920305955	0.0116576480044006
5	0.0110453717873329	-0.00486135941902552	0.00235058410831582	-0.00207200441939777	0.00235331664204222	-0.00208441867648222	-0.0131255204680669	0.0136094768254834
5.1	0.0110685384721486	-0.00566932664110045	0.00202920043200966	-0.00239462474231146	0.00204241552720517	-0.00239215704696215	-0.0102893304558256	0.0150001728761852
5.2	0.0110144984385717	-0.00659995836117946	0.00168685440356231	-0.00265109053972536	0.00168735244862677	-0.00265524794754277	-0.00724975251930003	0.0157446088399009
5.3	0.0108414715230446	-0.00759412818629046	0.00129727564610574	-0.0028618829238991	0.00129353349569606	-0.00286445024643045	-0.00416699190095728	0.0159024766140046
5.4	0.0104905842729424	-0.00857019036802562	0.000886498700380159	-0.00302030867760364	0.000885610149101488	-0.00302276410829433	-0.00114855636226465	0.0153636194562237
5.5	0.00991484334320615	-0.00941169866926347	0.000448476644089505	-0.00311384448599293	0.000461037511528218	-0.00311382985306162	0.00150421268331421	0.0141671445122048
5.6	0.00924825572328676	-0.0101576519296284	1.5832709730547E-05	-0.00314386025047868	1.25403956342148E-05	-0.00314040581127329	0.0036298147434029	0.0125917614513222
5.7	0.00841453954598347	-0.0107565730100798	-0.000416516436240682	-0.00311766721795006	-0.000420229349898109	-0.00312135084037557	0.00526784263713933	0.0107932358478089
5.8	0.00758368614726045	-0.0112278649322991	-0.000850617973996757	-0.00302738208093343	-0.000849890448967514	-0.0030350558616763	0.00650900092167986	0.00866477054486661
5.9	0.00669392954373943	-0.0115359736537206	-0.00126656854664078	-0.00287470417206258	-0.00126497061391058	-0.00287885023133257	0.00716226183691135	0.00641396044708574
6	0.00578851673838672	-0.0118014461597251	-0.00165424894180236	-0.00267001105166307	-0.00164826604702504	-0.00267335541725235	0.00722565133462266	0.0041965377380811
6.1	0.00492009214292773	-0.0120023457896701	-0.00201185163222652	-0.00241935448447756	-0.00200771427090468	-0.00242411457597386	0.00701533527998779	0.00217140197039032
6.2	0.00407879566071829	-0.0122666734510278	-0.0023311676846064	-0.00210411362153002	-0.0023275953989637	-0.00211276674811056	0.00658338499972628	0.000115958811599129
6.3	0.00333208573023386	-0.0125864565771213	-0.00259803579948947	-0.00176573619891639	-0.00260783633338428	-0.00177348627413127	0.00588155545877557	-0.00201835037238236
6.4	0.00251244984755323	-0.0130033306966585	-0.00282498596804197	-0.00138176403976775	-0.00282299666008419	-0.00138755173809979	0.00484027938182266	-0.00410040449716727
6.5	0.00170614814960818	-0.0134288124776218	-0.00299037979923766	-0.000980281681064254	-0.00299078361370347	-0.000979160592794087	0.00344400124340475	-0.00602193062606288
6.6	0.000833791085891108	-0.0137245480942704	-0.00309459576755125	-0.000555398288326442	-0.00310525089112609	-0.00055840224419515	0.00162169293459233	-0.00759895738023276
6.7	-3.85471634873645E-05	-0.013873937838904	-0.00313975030274144	-0.000121991349958092	-0.00313871113391006	-0.000115759354250662	-0.000672481641539943	-0.00857144769609522
6.8	-0.000922869466700831	-0.0138509750387076	-0.00312573172190968	0.000325590445682168	-0.00312482879075322	0.000330346242357667	-0.00320389601278318	-0.00879029395810923
6.9	-0.00179447391146182	-0.0137252513470972	-0.00304422621823361	0.000755451755261745	-0.00304465114867272	0.00076043098288001	-0.00561207448763014	-0.00826176752137554
7	-0.00261974348082618	-0.0134864337941033	-0.00291418510540781	0.00117311142595685	-0.00291559951715712	0.0011763238431513	-0.00775851281491732	-0.0071887994092543
7.1	-0.00344873214194755	-0.0132046046760202	-0.00271749378742815	0.00157060086888496	-0.0027199207961731	0.0015816051923236	-0.00959612659472346	-0.00556011394057764
7.2	-0.00427616451860892	-0.0128665436826466	-0.0024781483683174	0.00193195646794618	-0.00247833528389723	0.0019378457542165	-0.0109399446194545	-0.00346499809354487
7.3	-0.00516658882336463	-0.0124794204362235	-0.00218850455593001	0.00225704524878439	-0.00218574620037986	0.00225851995713104	-0.0116452018016945	-0.0011677572941744
7.4	-0.00615247474694128	-0.0120480773657919	-0.00184690096612749	0.00254114510623776	-0.00183969702471026	0.0025476668579518	-0.0118444744957469	0.00105706978409198
7.5	-0.00718434271154166	-0.0115162513192054	-0.00147067268400882	0.00277626412834343	-0.00147170863918521	0.00277425051323325	-0.0114550332620381	0.00321650511704213
7.6	-0.00807367721455285	-0.0109096841146796	-0.0010779640452424	0.00295413453120592	-0.00106732895695229	0.00296448825116827	-0.0105266037789948	0.00513617805474404
7.7	-0.00894911040545915	-0.0102979943872282	-0.00064904667854744	0.0030787271467851	-0.000643486344173632	0.00307838551240508	-0.00937442005139943	0.006471509325293
7.8	-0.00948392527404673	-0.00980385073846151	-0.000203217977713525	0.00314052154348103	-0.000216843998146779	0.00313343171937886	-0.00798546235731369	0.00773398479921668
7.9	-0.00983491208508576	-0.00942888546664379	0.000220341149058006	0.00312772837537302	0.000231423433017883	0.00312743623316927	-0.00624993594858816	0.00890401986821854
8	-0.010077565686171	-0.00912465378899143	0.000655639594476101	0.00307339776195095	0.000663929850504954	0.00307133418105686	-0.00427562654068714	0.00976387198736255
8.1	-0.0103426818360098	-0.00884196086287821	0.0010877650109086	0.0029504244931271	0.00108548886384176	0.00294716978480255	-0.00202663979593801	0.0102953420973216
8.2	-0.0106988745709855	-0.00852964183417613	0.00147976266895666	0.00276898245745202	0.00147892747478454	0.00278056319840104	0.000423163652772556	0.0103616743966159
8.3	-0.0111328587371928	-0.0081523943727755	0.00185289787084	0.00253723903488307	0.00185797545396058	0.00253466078902184	0.00288744893201759	0.00986231018252351
8.4	-0.0116222672202992	-0.00760375175849504	0.00220027849672006	0.00225723986594562	0.0021891166614573	0.00225762494157075	0.00515805441716199	0.00877577282450332
8.5	-0.0120840030256699	-0.00695300758863755	0.00249750233455774	0.0019217346208195	0.00249750997354411	0.00192308532071273	0.00705491847858923	0.00720087935157975
8.6	-0.0124942463134699	-0.00617263382577547	0.0027292385538135	0.00156173482945134	0.00272503068891602	0.0015594218390573	0.00856693224492859	0.0052245993574793
8.7	-0.0127649083184823	-0.00533072753033001	0.00291992207046237	0.00116300254201308	0.00291875984654779	0.00116259018964353	0.0095841359898576	0.0028999376646288
8.8	-0.0128679843689301	-0.00449267075572009	0.00304990787335288	0.000744476826221377	0.00306089041156022	0.000742383332362043	0.0100179622008004	0.000320441648232465
8.9	-0.0127823639759893	-0.00377868051349519	0.0031245337195051	0.000313509790974195	0.00313389557198448	0.000306379993077996	0.0100088703504297	-0.00224660768875309
9	-0.0125693279774965	-0.00330292407618414	0.00313742468076376	-0.000135063705871915	0.00314419371313791	-0.000129454222818122	0.00956185761459343	-0.00480920022588145
9.1	-0.01235249532143	-0.00305730546796307	0.0030908395411233	-0.000567192440745827	0.00309105754966897	-0.000567384573983551	0.00863740870014025	-0.00733211146213405
9.2	-0.0122733081927185	-0.00295530665686879	0.00297669645624092	-0.000988772129265532	0.00298051678681863	-0.000988543196333594	0.00716487088126311	-0.0097329064377782
9.3	-0.0123536720977872	-0.00285423465249694	0.00280517980743001	-0.00139836923600912	0.00282323074303444	-0.001398780298387	0.00512566746221853	-0.0118271298303469
9.4	-0.0125584013831644	-0.00268991540028517	0.0025878063312559	-0.00177127270393393	0.00259114370683714	-0.00178229640468781	0.00253676416326751	-0.0135126642844002
9.5	-0.0128649413455215	-0.00227205152086846	0.00231726240129163	-0.00212744116173248	0.0023320636478811	-0.00212807844299706	-0.000565187722990752	-0.0145313326558865
9.6	-0.0131934473589023	-0.00177224089095716	0.00199918609638405	-0.00243041245199669	0.00199949556947908	-0.0024233929872403	-0.00409037942480305	-0.014869948854483
9.7	-0.0134888859970646	-0.00111299174487893	0.0016374451674014	-0.00268557006127857	0.00164574982194382	-0.00268714415648809	-0.00776263740964385	-0.0143226745674537
9.8	-0.0137216132070743	-0.000365273987307159	0.00125342474027046	-0.0028824817234999	0.00125161340125616	-0.0028911394689771	-0.0113404936574361	-0.0129266175629014
9.9	-0.0138758920905758	0.000536621963695816	0.000843664522461652	-0.00302929445007072	0.000831780670144428	-0.00303193834209782	-0.0147642841517419	-0.0106422456549089
10	-0.0139023699168381	0.00142656513927226	0.000409560841628273	-0.00310986579884416	0.00040876034213919	-0.00311719448183329	-0.017616067029087	-0.0075931033913501
10.1	-0.013753294205266	0.00235192303141742	-2.57728247456785E-05	-0.00314728664367358	-3.04177612757608E-05	-0.00315006723426785	-0.01973790177017	-0.00395229053918823
10.2	-0.0134287238163013	0.00320948647447764	-0.000466610310737139	-0.00310811264795207	-0.000479222425350908	-0.00311189872836644	-0.020985738460852	5.26767197909145E-05
10.3	-0.0129716168498775	0.00397056810356911	-0.00089965559438835	-0.00300631877507672	-0.000899417645547149	-0.00301972571935351	-0.0213409805732516	0.00427924702143644
10.4	-0.0123938787927055	0.00458290606773412	-0.00130996209462427	-0.00285932844014533	-0.0013131397690579	-0.00285719991331654	-0.0206960852356168	0.00837606552873565
10.5	-0.0118307053558409	0.00503624641412378	-0.00169524588430518	-0.00264008984360685	-0.00170141991776852	-0.00264736269138094	-0.0192609615009854	0.0122472813390168
10.6	-0.0111399574410116	0.00547923619630825	-0.00205494038793962	-0.00238290008108689	-0.0020564392465367	-0.00238802032811946	-0.0171240433471412	0.0159090415320827
10.7	-0.0105093701979282	0.00585272460873353	-0.00236266176054934	-0.00207001153833816	-0.0023658673274144	-0.00208606725431679	-0.0142784754180946	0.0192343799967022
10.8	-0.00983461209735752	0.00616897481632484	-0.00263037376765006	-0.00172178622416709	-0.00262743060042259	-0.00172395467106775	-0.0108404278149333	0.0220801543766039
10.9	-0.00920832093087977	0.00644583459657797	-0.00284828503768583	-0.00134296680693966	-0.00284756335855014	-0.00134810034517216	-0.00687606806461396	0.0243256715283867
11	-0.00845272877324423	0.00667074371233583	-0.00301142074598572	-0.000926196495463174	-0.00300438868330505	-0.00093049410980547	-0.00236143433392233	0.0259344643971103
11.1	-0.00765413506036563	0.00678855207328501	-0.00310706192181949	-0.000508556130357189	-0.00309930681250655	-0.000500246224406604	0.00259023104905842	0.0266634436578233
11.2	-0.00683481139095773	0.00672172489098938	-0.00314737802079654	-6.57798855867965E-05	-0.00315398637544547	-6.25636953767549E-05	0.00785308513628294	0.02640495597193
11.3	-0.00596850515180071	0.0064514624548227	-0.00312426295793376	0.000376241473218575	-0.00312743370460625	0.000374074461657984	0.0132639781898807	0.0251097903700633
11.4	-0.00534540329242442	0.00602115343057787	-0.00303688303427429	0.000807881324296781	-0.00304152007380914	0.000808037004036607	0.01837441787442	0.0226038008520892
11.5	-0.00490334693251181	0.00552875736675856	-0.00290380330205225	0.00121679727747533	-0.00289627427941426	0.00122155573440373	0.0228190748515869	0.0189351581387644
11.6	-0.00454198449637701	0.00495723258279751	-0.00270076185090422	0.00161173786632044	-0.00270888682986455	0.00162146004531426	0.0265324262625874	0.0143284290566285
11.7	-0.00432883569478567	0.00435733321703473	-0.00244602488814202	0.00197954481429397	-0.00244777552973016	0.00198324356734761	0.0293360936646626	0.00897588858044244
11.8	-0.00418868721194323	0.00386618916806918	-0.00214617216604967	0.00230405175731394	-0.00215538612388679	0.00231387366928265	0.0311018455807558	0.00320396143727221
11.9	-0.00397695414049121	0.00341189303085504	-0.00180555569758577	0.00257647272485719	-0.00180558268525808	0.002583043125743	0.0316998873196381	-0.00257445099041186
12	-0.00398538831879772	0.0029638403632692	-0.0014250976350308	0.00280169667311221	-0.0014295959151488	0.00280449207254078	0.0311713824593559	-0.00837693263020228
