# GHZ S RI R 50
0.2	-0.0139886073145665	0.00525984431304922	0.00304492427048375	-0.000885102084705779	0.00305538506764204	-0.000884948914816877	0.00583860046830327	0.000793335793557342
0.3	-0.0131687397025614	0.00576614479879119	0.00289887147797745	-0.00130116307880996	0.0028925866541832	-0.00131280725139682	0.00615878049557228	-0.00146165960236939
0.4	-0.0124320153199315	0.00648119221024947	0.00268478564333554	-0.00169548814809737	0.00268268019264129	-0.0016974006938289	0.00572009282080087	-0.00328947451775504
0.5	-0.0117505352918756	0.00719643833522819	0.00241499208420848	-0.00205257875203265	0.00241780670759784	-0.0020563049439721	0.00483356586801224	-0.00482880071443681
0.6	-0.0110630951921556	0.00797194409294389	0.00210238502747019	-0.00237268452606189	0.002101641757164	-0.00237552713817089	0.00359178898700892	-0.00609224354468255
0.7	-0.0104123662779048	0.00872219022064473	0.00175180829943642	-0.00264278531197473	0.00175801527325626	-0.00264687864366715	0.00201624798901749	-0.0069356950513314
0.8	-0.00964178951698288	0.0094598776371154	0.0013582707586751	-0.00286280713710582	0.00136654423910361	-0.00286121030704217	0.000277757717958065	-0.00728795366367121
0.9	-0.0089196991945729	0.010142513720322	0.000953709731608206	-0.00301485773653601	0.000953690673411978	-0.00302427432594796	-0.00146419084035578	-0.00720202683877195
1	-0.00813011396257719	0.0107605905528744	0.000520755869977693	-0.00312298360355998	0.000520607469698346	-0.00312834070656969	-0.00310025621920667	-0.00666204321503165
1.1	-0.00745461975894805	0.0112217540961863	7.33627560806775E-05	-0.00316290954167522	7.42506744104957E-05	-0.00316763645728493	-0.00461168795280032	-0.00569906361716949
1.2	-0.00683504056948339	0.0113692285691125	-0.000365572398733427	-0.00313586869940079	-0.000364346533569005	-0.0031526654617007	-0.0055169919916758	-0.00440402432329582
1.3	-0.00651678396495255	0.0111294165171929	-0.00079684377408141	-0.00306159185260747	-0.000801782904399375	-0.00306924814886396	-0.00561689321505303	-0.00311867654879466
1.4	-0.00631880325001113	0.0108234872326914	-0.00122289458476503	-0.00291636409534572	-0.00122531098048975	-0.00292349491674915	-0.00533071481926009	-0.00230037388935695
1.5	-0.00579374109704435	0.0108850964561003	-0.0016145894532037	-0.00271804964731869	-0.00161261764710763	-0.00272359221540724	-0.00504882737856884	-0.00165987913415185
1.6	-0.00497847240348892	0.0112384586276657	-0.0019777565206074	-0.00246176036248338	-0.00198122769559066	-0.00246263965738119	-0.00519057070776413	-0.000669210517284744
1.7	-0.00398462378500928	0.0116094602300699	-0.00230286838663153	-0.00216714971018062	-0.00230491913376285	-0.00217573935229526	-0.00497560065615627	0.00062942281300756
1.8	-0.00297858111450989	0.0119890311205811	-0.00257978416601768	-0.00181767888160037	-0.00258496314293029	-0.00182313971467753	-0.00444945599520876	0.00184535664084669
1.9	-0.00197652980399626	0.0121766399355158	-0.00280538062696363	-0.0014483244061136	-0.00280186740884235	-0.00144213451307118	-0.00362184272657097	0.00293530672025153
2	-0.00103695563846618	0.0122818425202353	-0.00298090859494623	-0.00103651485672865	-0.00298364780888843	-0.00102966837958307	-0.00256272551514651	0.003853741749674
2.1	-0.00012613086158138	0.0122475526529275	-0.00309610231822652	-0.000603840160506153	-0.00309820653497085	-0.000610536928847716	-0.00120914206275464	0.00438893562356377
2.2	0.000692201829944378	0.0121929077996924	-0.00314941829647787	-0.00017259665925132	-0.00315122844986811	-0.000162868141047966	0.000401238538140622	0.00451178982844571
2.3	0.00139549558368137	0.0120116661008045	-0.00314098183636555	0.000269796341661775	-0.00314774031287115	0.000266888618682745	0.00197374890808115	0.00408758451473326
2.4	0.00200982456747009	0.0118485232832382	-0.00308068207220724	0.000704662053399158	-0.00307950222361273	0.000719784344774449	0.0034566600936138	0.00329816614866911
2.5	0.00254709046898773	0.0116777035267786	-0.00294505396522547	0.00113715515569682	-0.00295806091606164	0.00113846234111175	0.00474602475486902	0.00207193492014147
2.6	0.00311885969490899	0.0116008904856943	-0.0027543232820051	0.00153239078760982	-0.00277524929696804	0.00153632025723621	0.00577751569986016	0.000510430338069927
2.7	0.00382241748553322	0.0115482338861387	-0.002521850457863	0.00190148495729332	-0.00252212548364921	0.0019065731285763	0.00639113006738746	-0.00132498427967496
2.8	0.00469429899842686	0.0114484444454751	-0.00222633534012056	0.00222654026121233	-0.00223616368060942	0.00223774885397711	0.00657106533329178	-0.00319885805868309
2.9	0.00574042291404858	0.0111901642833413	-0.00188926011048933	0.00251955548981563	-0.00188732228766561	0.00252846697285125	0.00649802811041119	-0.00498367084395022
3	0.00681957431544118	0.0107091896131907	-0.00151755076284973	0.00276223746004319	-0.0015326536346183	0.00274921134422926	0.00616700111292404	-0.00673928026302103
3.1	0.0078235966854313	0.0101132563986794	-0.00111850817331201	0.00294511326867988	-0.00113545255557435	0.00295053988667288	0.00547228558677481	-0.00850650685547603
3.2	0.00867626770142248	0.00937973997114244	-0.000698776842045733	0.00306981044647844	-0.000694493477096317	0.00308061685486814	0.00422622223899742	-0.0101234139464621
3.3	0.00937409275685425	0.00851590131826557	-0.000268990943765835	0.00314081864031269	-0.000265696465917833	0.00313643283897603	0.00267302340183266	-0.0115984540896153
3.4	0.00990062109524264	0.00762478154379128	0.000176941255501755	0.00314828498115255	0.000167511352665391	0.00314937749876699	0.00080273423706313	-0.0129302950192177
3.5	0.0102637295149915	0.006742522165859	0.00061046215111119	0.00309094989511365	0.0006154694390566	0.00308961279496661	-0.00151346939336577	-0.0140399262112124
3.6	0.0105299050973956	0.00594288222566867	0.00103050794106153	0.00297049674224072	0.00103711257866772	0.00297398047648218	-0.00413378391169812	-0.0145635907442181
3.7	0.0107431879510351	0.00521679799880263	0.00144692866151913	0.00279340928925727	0.00144520636044182	0.00280978357733159	-0.00682725984621437	-0.0145253733647691
3.8	0.0109914801678734	0.00454473338299488	0.00181486257410375	0.00256617602901027	0.00182547225362266	0.00257251284739518	-0.00954953175473706	-0.0139909396013413
3.9	0.0113107435338605	0.00388119951265385	0.00216172307973428	0.00228753957962511	0.00215712530174736	0.00228744994136073	-0.0121987596011917	-0.0128762823785885
4	0.011673296176658	0.00316300497849006	0.00245243671524914	0.00196815924110598	0.00246388454155279	0.00197428447564905	-0.0145235622467913	-0.0111849534634775
4.1	0.0120311959288611	0.00234615810350259	0.00270375061666311	0.00160133431272327	0.00272032603582803	0.00161108817539158	-0.0163899082743244	-0.00903533896493351
4.2	0.0123218035991226	0.00142374387298881	0.00290483341950299	0.00120440677143195	0.00290606931564713	0.00120669046270344	-0.0178248378279091	-0.00661225206386616
4.3	0.012471297568172	0.000453884485804565	0.0030470163237139	0.000796402250124715	0.00304821285197745	0.000804981733445827	-0.0188153159074266	-0.00409493621487292
4.4	0.0124354529305146	-0.000571324980985609	0.00312546371330757	0.000361327155575207	0.0031333756942147	0.000356683049871079	-0.0194463661577046	-0.0014001463079452
4.5	0.012225290871018	-0.00150117662066697	0.00314849973295728	-8.3289889620517E-05	0.00314531364887527	-8.10248522199087E-05	-0.0195865729460958	0.00136736529334752
4.6	0.0118558883473417	-0.00237021900285168	0.00309428227506816	-0.000528910449447655	0.00310732126728167	-0.000516953261661302	-0.0193098414494446	0.00409456787484779
4.7	0.0114868024909001	-0.00303097247463643	0.00299188086495916	-0.000941383972255303	0.00299177526411536	-0.00095081202419353	-0.0186269187712045	0.00671635987129911
4.8	0.0111189728288018	-0.003646954964066	0.00284265729309182	-0.00134348639051341	0.0028349923914304	-0.00136364310139953	-0.017430429943225	0.0092978184536674
4.9	0.0109550140806471	-0.00418337830789357	0.00262682679131631	-0.00174047995843073	0.00262076796015104	-0.00173203822151476	-0.0156752277202632	0.0116448115948922
5	0.0109182402353957	-0.00484206256574026	0.00235058840509451	-0.00207197744367537	0.0023533210175031	-0.00208439162273774	-0.013252755087718	0.0136288773169143
5.1	0.0109655551897553	-0.0056324273208161	0.00202920404605885	-0.00239461069504568	0.00204241909665834	-0.00239214295644527	-0.0103924427488851	0.0150372521634052
5.2	0.0109393333039665	-0.00656268272172178	0.00168685229285377	-0.00265108400851114	0.00168735033913951	-0.00265524140727031	-0.00732501089323114	0.0157821231400287
5.3	0.0107868958277177	-0.00756852131205988	0.00129726649619839	-0.00286187860778413	0.00129352434959902	-0.0028644459162228	-0.00422152539548275	0.0159283755525082
5.4	0.0104447765203752	-0.00855876569728272	0.000886483013053325	-0.00302030142720163	0.000885594454801793	-0.00302275684535951	-0.00119409976438121	0.0153752994314729
5.5	0.00986888185602705	-0.00940906488109075	0.000448458051516025	-0.00311382961902154	0.000461018849628237	-0.00311381505120623	0.00145861928243005	0.0141700881833359
5.6	0.00920060008485483	-0.0101548661770417	1.58181715569335E-05	-0.00314383418613944	1.25259005496481E-05	-0.00314037976058911	0.0035825095044475	0.0125948396652723
5.7	0.00837541357425784	-0.0107497012438045	-0.000416519859333335	-0.0031176276450254	-0.000420232737504426	-0.00312131121186952	0.00522876775527167	0.0107998498407136
5.8	0.00756442383411124	-0.0112228128900424	-0.000850591208216885	-0.00302734193597199	-0.0008498636576436	-0.00303501560127215	0.00648939582971583	0.00866926400229246
5.9	0.00670247841348793	-0.0115616149053101	-0.00126650658704613	-0.0028746917908859	-0.00126490860478566	-0.00287883777587979	0.00717020847715258	0.00638826787738336
6	0.00579923857964005	-0.011901444695914	-0.00165417845528719	-0.00267005720014482	-0.00164819546705729	-0.00267340140746733	0.00723540008733343	0.00409653443899936
6.1	0.00486099982955022	-0.0121880395380923	-0.00201182198003907	-0.00241945276211477	-0.00200768441493441	-0.00242421282655156	0.0069553042969325	0.00198648166702423
6.2	0.00389249067982456	-0.0124772788165455	-0.00233119991133507	-0.00210421791688558	-0.00232762736529557	-0.00211287123834565	0.00639671526574623	-9.36741476347764E-05
6.3	0.00303559167391196	-0.0127433832150905	-0.00259811349739862	-0.00176582063382712	-0.00260791431541635	-0.0017735710662212	0.00558621946262013	-0.00217465017569115
6.4	0.00217192654804111	-0.013062717575012	-0.00282507995160696	-0.00138180923679396	-0.00282309057902502	-0.0013875971274292	0.00450058811119505	-0.00415962992776653
6.5	0.00138681107346655	-0.0133938456064383	-0.00299047276032853	-0.000980294319643182	-0.00299087658064896	-0.000979173196272555	0.0031253041773809	-0.00598702049276247
6.6	0.000574474272917698	-0.0136207495298826	-0.00309468015251559	-0.000555387275482647	-0.00310533557562616	-0.000558391221542613	0.00136304902771831	-0.00749535521319287
6.7	-0.000223529085270719	-0.0137309454790831	-0.0031398240286699	-0.000121965120407218	-0.00313878477819246	-0.000115732990169496	-0.00085686905444537	-0.00842870433242188
6.8	-0.00103480581527156	-0.0136944581268326	-0.00312579550133354	0.000325625138127403	-0.00312489250873739	0.000330381028267011	-0.00331522090726316	-0.00863409851860183
6.9	-0.00184040536030701	-0.0135739639471441	-0.00304428180778522	0.000755490535753291	-0.00304470670833564	0.000760469867166212	-0.00565800738551644	-0.00811016347525673
7	-0.00261235383064083	-0.0133537610320892	-0.00291424022658041	0.00117314975282684	-0.00291565465251457	0.00117636224370629	-0.00775112104995241	-0.0070557867814872
7.1	-0.00339733019457728	-0.0130984305999907	-0.00271755729154535	0.00157063982386832	-0.00271998435106206	0.00158164440993166	-0.00954474638551778	-0.00545345336727423
7.2	-0.00418464957625505	-0.0127932776198145	-0.00247823114845964	0.00193200562512681	-0.00247841809246679	0.00193789508968379	-0.0108481873430552	-0.00339061713227429
7.3	-0.0050303873631695	-0.0124521001417894	-0.00218861133678721	0.00225712855339103	-0.00218585287231355	0.00225860334104036	-0.0115080535618301	-0.00113804025812896
7.4	-0.00596217316821039	-0.0120932242030348	-0.00184700546900194	0.00254129801941547	-0.00183980109189655	0.00254782014317156	-0.0116575789925102	0.00100917863338703
7.5	-0.00697517666802165	-0.0117014946025032	-0.00147071755207276	0.00277649592277522	-0.00147175362584847	0.00277448218562856	-0.0112530054119738	0.00302794655860913
7.6	-0.00796324500197134	-0.0112597000519254	-0.00107789400715249	0.00295438167389902	-0.00106725771931557	0.00296473557019674	-0.0104041016786414	0.00477857682143301
7.7	-0.00900059025918666	-0.0107121016407283	-0.000648880346448098	0.00307892935250944	-0.000643319745255905	0.00307858733903655	-0.00942862430276313	0.00605854919219716
7.8	-0.00967761661046077	-0.0101627395219516	-0.000203008826720498	0.00314064420774089	-0.000216635806713156	0.00313355507626778	-0.0081798692807851	0.00737647511024809
7.9	-0.0100937268762807	-0.009683043627952	0.000220550813191562	0.00312778811474226	0.000231633340754439	0.00312749524122633	-0.00650900649998868	0.00865168743363517
8	-0.0103467488330686	-0.00928627686782586	0.00065583769692573	0.00307341510179844	0.000664127981873029	0.00307135098106229	-0.00454384662767138	0.00960227150570756
8.1	-0.0106000279161634	-0.00892538912116844	0.00108794769455934	0.00295041071671381	0.00108567132876125	0.00294715608387725	-0.00228279700924309	0.0102116012831221
8.2	-0.0109317547848169	-0.00855225785474977	0.00147993273452372	0.00276894861506944	0.00147909813906386	0.00278052958573045	0.000191252708864064	0.0103387413695877
8.3	-0.0113331786226359	-0.00812724815258901	0.00185305930630529	0.00253718878530971	0.00185813684640447	0.0025346102360239	0.00268793925925493	0.00988684858144824
8.4	-0.0117835495715219	-0.00754560235483455	0.00220043579462343	0.00225717425465694	0.00218927375629613	0.00225755989897264	0.00499736829598838	0.00883316441867362
8.5	-0.0122030673706207	-0.00687877962620124	0.00249765988880678	0.00192165230556244	0.00249766759711719	0.00192300303706959	0.00693618209141521	0.00727421864910879
8.6	-0.0125730667492551	-0.0061000372429147	0.00272940270572423	0.00156163104221956	0.00272519459291669	0.00155931821458449	0.00848818911507958	0.00529591792707349
8.7	-0.0128087580327775	-0.00527772859321518	0.00292009668289801	0.00116286125920114	0.00291893439263099	0.00116244896483465	0.00954113266020696	0.00295331444766454
8.8	-0.012887262825141	-0.00447404499963195	0.0030500834509555	0.00074427252153982	0.00306106625625501	0.000742178106274624	0.00999969823814668	0.000339436961345775
8.9	-0.0127904208364172	-0.00381277734087962	0.0031246709551614	0.000313216842106494	0.00313403243461843	0.000306085890737323	0.0100022802465667	-0.00228050251829763
9	-0.0125995568827887	-0.00340780390757977	0.00313745180645135	-0.000135429090077297	0.00314422158109612	-0.000129820314891109	0.00953346389690134	-0.00491410074195923
9.1	-0.0124610193005132	-0.00320880091396667	0.0030907194853016	-0.000567546524055285	0.00309093746745989	-0.000567738679637888	0.00852882152291389	-0.0074848771156642
9.2	-0.0124752198478276	-0.00307596642466362	0.0029764778616755	-0.000989031289709921	0.00298029806206173	-0.000988802749421125	0.00696218837144711	-0.00985452672533296
9.3	-0.0125918858076482	-0.00288699819799093	0.00280493871364155	-0.00139852552901833	0.00282298877574598	-0.00139893799719172	0.0048865078577139	-0.0118605020685852
9.4	-0.0127722535497514	-0.00264146150934057	0.00258759097163089	-0.00177136584173886	0.00259092751632006	-0.00178238931390081	0.00232469481097451	-0.0134627683564341
9.5	-0.0130184750153041	-0.0021846726503297	0.00231705830822553	-0.00212749179519702	0.00233185897309022	-0.00212812987784034	-0.000719117809276328	-0.0144434705490809
9.6	-0.013291173523766	-0.00167194422954688	0.00199899854027948	-0.00243044216210932	0.00199930836917598	-0.00242342292803504	-0.00418841265224556	-0.0147695692791167
9.7	-0.0135408643498277	-0.0010179821712908	0.00163726582405041	-0.00268558578782015	0.00164557018688943	-0.00268716026897603	-0.00781492937571709	-0.0142276120353552
9.8	-0.0137369621301909	-0.000283567185178786	0.00125324647384089	-0.00288248555713298	0.00125143471931787	-0.0028911430214889	-0.0113556811997727	-0.0128453155813927
9.9	-0.0138525123665644	0.00059715718764688	0.000843476424817368	-0.00302928542306118	0.000831592645779312	-0.00303192858982402	-0.0147415696165194	-0.0105814818752113
10	-0.0138473018685963	0.00145434613219888	0.000409360299114616	-0.00310983507797417	0.000408559358887611	-0.00311716357900879	-0.0175616448324717	-0.0075645806103281
10.1	-0.013672362342345	0.00233149264003103	-2.59907562242753E-05	-0.0031472217741865	-3.06357927053793E-05	-0.0031500019867248	-0.0196569957143982	-0.00397160005087618
10.2	-0.0133354180465954	0.0031233941726226	-0.000466841392956323	-0.00310799233614202	-0.000479453464660145	-0.00311177732590027	-0.0208919943347838	-3.21396417055294E-05
10.3	-0.0128901860811052	0.00380401850886612	-0.000899877684007504	-0.00300611438944502	-0.000899640904614325	-0.00301952078977921	-0.0212587723261627	0.00411439361771701
10.4	-0.0123617813675457	0.0043312016752032	-0.00131011968028138	-0.00285902266750563	-0.00131329695707867	-0.00285689401095111	-0.0206622664390101	0.0081259355538104
10.5	-0.0118529028900755	0.00476110612769916	-0.00169524645392528	-0.00263972798385712	-0.00170142034322548	-0.00264699974078003	-0.0193368851124645	0.0119762037081749
10.6	-0.0113548094906483	0.00515068076907839	-0.00205479204166693	-0.00238259064956616	-0.00205629088857993	-0.0023877103148049	-0.0173374232877998	0.0155799886470389
10.7	-0.0108628949187282	0.00561244751931816	-0.00236243967588225	-0.00206983793478445	-0.00236564487494665	-0.00208589222819364	-0.0146304729643762	0.0189926546531603
10.8	-0.0102492639878718	0.00607675265932454	-0.00263017306404186	-0.00172172582788607	-0.00262723004404984	-0.00172389408043835	-0.0112551025850645	0.0219861654524976
10.9	-0.0095954443819759	0.00649448821055109	-0.0028481342311224	-0.00134295826266035	-0.00284741249184614	-0.00134809155952318	-0.0072632774922033	0.0243738498530946
11	-0.00877211625628602	0.00681968366900718	-0.00301131023691945	-0.000926200055886362	-0.00300427835870437	-0.000930497447404436	-0.00268155327570154	0.0260829196479506
11.1	-0.00788964461981467	0.00699319937314221	-0.00310697104501451	-0.000508554652887045	-0.00309921619208703	-0.000500244951667746	0.00235431916174481	0.0268681858643551
11.2	-0.00698795833036252	0.00694710406260563	-0.00314728964543765	-6.57718406006987E-05	-0.00315389780791732	-6.25557278003859E-05	0.00769998470382108	0.0266302413579339
11.3	-0.00606112090441385	0.00667674856459216	-0.00312417362876918	0.000376250436128355	-0.00312734430063471	0.000374083504636939	0.0131717000439742	0.0253347278084144
11.4	-0.00537731355536328	0.00623209757944943	-0.00303678129093141	0.000807883432991683	-0.00304141818477876	0.000808039149491514	0.0183423670430538	0.0228134788083478
11.5	-0.00487452523482793	0.00570958882790391	-0.00290368258086252	0.00121677929560393	-0.00289615379564462	0.0012215375018395	0.0228460468431297	0.0191153885085273
11.6	-0.00446060913948272	0.00509963962433935	-0.00270063102494052	0.0016116869424231	-0.00270875557419303	0.00162140875370363	0.0266121440689085	0.0144708991027483
11.7	-0.0041987786219829	0.0044425253880643	-0.00244589768323518	0.00197944419930184	-0.00244764823246006	0.00198314276273343	0.0294643300424136	0.00906141183151789
11.8	-0.00402615850049707	0.00386759355412667	-0.00214607930388455	0.00230388894652128	-0.00215529286208213	0.00231371016355736	0.0312624382277343	0.00320735860572016
11.9	-0.00376531508529626	0.00329824952139533	-0.0018055402085047	0.00257624982989423	-0.00180556743518276	0.00258281983002222	0.0319069702267291	-0.00268720976031267
12	-0.00389622602728646	0.00274475102565723	-0.00142521385394658	0.00280150927278903	-0.00142971213811228	0.00280430430070272	0.031257195861833	-0.00859243414234451
