# GHZ S RI R 50
0.2	-0.01396645479591	0.00528472775528117	0.0030449185481429	-0.000885103129862491	0.00305537932826187	-0.000884949968805072	0.00581679957938379	0.000776849944397655
0.3	-0.0131470955900462	0.00578912637054913	0.00289886449850345	-0.00130116081035172	0.00289257968625128	-0.00131280495464084	0.00614256948417846	-0.00147982100502433
0.4	-0.0124203737551744	0.00649900115701473	0.0026847798560709	-0.0016954821740992	0.00268267441191729	-0.00169739471626244	0.00571554188942193	-0.00330725749226963
0.5	-0.0117773357832106	0.00722218060826613	0.00241499016731478	-0.00205257130198223	0.00241780479033669	-0.00205629748259342	0.00486744206918364	-0.00485942719984298
0.6	-0.0111064155255466	0.00805325944713462	0.00210238463731887	-0.00237267882695257	0.00210164137120058	-0.00237552143582251	0.00363899373942839	-0.00618399022145609
0.7	-0.0104338777251678	0.00884508282239271	0.00175180749461521	-0.00264277987887586	0.00175801446170841	-0.00264687319958483	0.00203546850887401	-0.00707235153332476
0.8	-0.0096288521389841	0.00960494553573982	0.00135826939564	-0.00286280080557604	0.00136654285885947	-0.00286120397481859	0.000254257926032286	-0.00744755541003085
0.9	-0.00886006574943496	0.0102781265057884	0.000953708034740532	-0.00301484869108566	0.000953688979905158	-0.00302426525329757	-0.00154519675952496	-0.00734882255953179
1	-0.0080675772989899	0.0108258644669053	0.000520757873322073	-0.00312297065407719	0.000520609480572986	-0.00312832773622424	-0.00319586336703735	-0.00672784786264309
1.1	-0.00746978981802732	0.0112743473087303	7.3368642415839E-05	-0.00316289783740348	7.42565666975142E-05	-0.00316762473400702	-0.00464086256596189	-0.00573193135366096
1.2	-0.00690042978251145	0.0114595446579648	-0.000365566646241328	-0.00313585558819958	-0.0003643407640707	-0.00315265227604043	-0.00549835852338507	-0.00443701141445829
1.3	-0.00660864540673957	0.0112845733804834	-0.000796835634338988	-0.00306157326908742	-0.000801774725642409	-0.00306922952184832	-0.00554192145669268	-0.00317516367744363
1.4	-0.00638518023382345	0.0110402351786111	-0.00122287746311487	-0.00291633981847151	-0.00122529382223742	-0.00292347057935439	-0.00522964684525207	-0.00242080553574834
1.5	-0.00585117883353698	0.0111405066730291	-0.00161455738210807	-0.002718028004193	-0.00161258556886925	-0.00272357050064182	-0.00492850106067458	-0.0018602492278311
1.6	-0.00497929001436265	0.0115648950639974	-0.00197771402663852	-0.00246175323439031	-0.00198118515827515	-0.0024626325518429	-0.00513782422825652	-0.000973517747783133
1.7	-0.00390107967300085	0.0119279757238109	-0.00230282574569776	-0.00216715934731406	-0.00230487637853381	-0.00217574894652815	-0.00501422954937494	0.000315753423963416
1.8	-0.00284745177921746	0.012258189454792	-0.00257974940787387	-0.00181769984724417	-0.0025849282936795	-0.00182316071303409	-0.00453966733974431	0.001564202998235
1.9	-0.00184089713899829	0.0123713286709816	-0.00280535363839898	-0.00144835028725118	-0.00280184050311662	-0.00144216037858126	-0.0037245753861753	0.00271537677413534
2	-0.000991586137066995	0.0124239638878553	-0.002980886981757	-0.00103654354809331	-0.00298362626034939	-0.00102969712447221	-0.00258534693477434	0.00367521647640705
2.1	-0.000143210301575193	0.0124676399135348	-0.00309608594022706	-0.000603871268603902	-0.00309819007874419	-0.000610568037918549	-0.00118302405490945	0.00412315789950732
2.2	0.000705143250741736	0.0124716903419313	-0.00314940626954828	-0.000172628675377341	-0.00315121651768249	-0.000162900207534221	0.000380469767636689	0.00418147261868626
2.3	0.00146560933866847	0.0123017482361276	-0.00314097308537569	0.000269763771914236	-0.00314773150797387	0.000266855991585841	0.0018752974108662	0.00374445273055305
2.4	0.00213965068950179	0.0120820794072136	-0.0030806753285068	0.000704629101899705	-0.00307949563162215	0.000719751338089631	0.0032740484305554	0.00301801742913075
2.5	0.00262869812157413	0.011784388362523	-0.00294504610178284	0.00113712182966842	-0.0029580529846362	0.00113842889065785	0.00458655302647545	0.00193498373149377
2.6	0.00306225315256024	0.011713684350705	-0.00275431221524531	0.00153234883490101	-0.00277523806957695	0.0015362780593695	0.00573574443207812	0.000397048227550765
2.7	0.0036971115485979	0.011737208801639	-0.00252184326547265	0.00190142647216383	-0.00252211835593585	0.00190651457377943	0.00641292229516671	-0.00147206534345186
2.8	0.00455731461449117	0.0117224581638683	-0.00222634626351536	0.00222646165414149	-0.00223617467994476	0.00223766987891358	0.00662440859924195	-0.00338602736326674
2.9	0.00562713934610001	0.0115074595755976	-0.00188930664854987	0.00251947186604293	-0.00188736909702789	0.00252838329252939	0.00657168976390899	-0.00518422954490611
3	0.00666836685488071	0.0110549702053936	-0.00151763857074801	0.00276216888912555	-0.00153274090258311	0.00274914231993583	0.00633768346609692	-0.00696383146797249
3.1	0.00767691913758176	0.0105831245628984	-0.001118622519646	0.00294508903438711	-0.00113556719736431	0.00295051506205106	0.00569071147144124	-0.0088812834530086
3.2	0.00861377117282008	0.00991613839592219	-0.000698877520323006	0.00306982417366719	-0.000694594433254369	0.00308063083410845	0.00439392317654675	-0.0106125676459872
3.3	0.00939699582207655	0.00906481011672444	-0.000269074037043852	0.00314085542323502	-0.000265779402665636	0.00313646964428694	0.00276020014873786	-0.0121507480268389
3.4	0.00999252469932271	0.00812985894766865	0.00017687568802119	0.00314833341256783	0.000167445627957081	0.00314942574176126	0.000808335455966011	-0.0134816966799049
3.5	0.0103187229096209	0.00718723299359803	0.000610416455969906	0.00309100327245709	0.000615423836482437	0.00308966624152717	-0.00149430920185258	-0.0145646053668631
3.6	0.0105666403438078	0.00646173844030017	0.00103046949105809	0.00297054483354758	0.00103707413991924	0.00297402871358424	-0.00412861946885678	-0.0151873138256909
3.7	0.0108688061310183	0.00576448038399302	0.00144689153139978	0.00279345815403159	0.00144516892733139	0.00280983254870337	-0.00694815688391707	-0.0151902699146915
3.8	0.0112082605046348	0.00503391095885931	0.00181482630952095	0.00256622998639935	0.00182543594455496	0.00257256705649728	-0.00979984082047224	-0.0145975114956898
3.9	0.0115578682066078	0.00422822412212951	0.00216168726725081	0.00228760262161835	0.00215708946023603	0.00228751288147208	-0.0125146856123347	-0.0133288788624859
4	0.0117690340276987	0.0033732838186383	0.00245240474613597	0.00196823935133228	0.00246385250353282	0.00197436493527856	-0.0147166551484441	-0.0114835751499926
4.1	0.011967514588794	0.0026422504543448	0.00270373369744731	0.00160143228411381	0.00272030901475605	0.0016111867466876	-0.0164567245558536	-0.00939557464929776
4.2	0.0122339814653414	0.00182024020669514	0.00290483985746029	0.00120452174781014	0.00290607569790794	0.00120680551615373	-0.017896932243402	-0.00702932095010502
4.3	0.012404151501227	0.000903164755373356	0.00304706306470166	0.000796527420318884	0.00304825932446553	0.000805107154579009	-0.0189211772114726	-0.00450290735077976
4.4	0.0123901499594905	-0.00013124495833197	0.00312556241716219	0.000361433571553536	0.00313347481467541	0.000356789540410023	-0.0195597865721699	-0.00171677398397772
4.5	0.0120829219303327	-0.00109574239015977	0.00314862546865992	-8.3238789693198E-05	0.00314543921966931	-8.0973717911655E-05	-0.0195342145881448	0.00116684465190797
4.6	0.0116290030854314	-0.0018138621482341	0.00309439688606993	-0.000528910266405789	0.00310743627316153	-0.000516952567463827	-0.019054863537409	0.0037788975934202
4.7	0.0113199978551364	-0.0023515704458152	0.00299196105210233	-0.000941411126374914	0.00299185544289268	-0.00095083943267713	-0.0183109675435615	0.00623512382590764
4.8	0.0110468734698037	-0.00291823147487769	0.00284270859508003	-0.00134351082963482	0.00283504355376725	-0.0013636679044	-0.0171350868256764	0.00867128838822779
4.9	0.0109708069105726	-0.0034856882558655	0.00262686747140448	-0.00174049372622968	0.00262080853096333	-0.00173205189922981	-0.0154527150420396	0.0109424898617999
5	0.0108864158716191	-0.00419759290116253	0.0023506328146097	-0.00207198558038969	0.00235336555292232	-0.00208439989247006	-0.0130144186403676	0.01288637762793
5.1	0.0109407249285323	-0.00487229210810696	0.00202925420883803	-0.00239462710064953	0.00204246942692228	-0.00239215921024078	-0.0102258171175199	0.0141209325651013
5.2	0.0110430220173013	-0.00579052462155886	0.00168690205595809	-0.00265111234604627	0.00168740014568669	-0.00265526980753923	-0.00735498496260691	0.0148297396969049
5.3	0.0109694754716591	-0.00689097996837155	0.00129730916333274	-0.00286192057188963	0.00129356696782934	-0.00286448795159726	-0.00439354057518346	0.0150681157888931
5.4	0.0106042113351799	-0.00802816844581057	0.000886511234237021	-0.00302035123553228	0.000885622670430304	-0.0030228067008561	-0.00139832648103642	0.014673710166512
5.5	0.00980248235092998	-0.0089416875328646	0.0004484786264296	-0.00311387737075425	0.000461039624901616	-0.00311386274857788	0.00143181175248853	0.0135486667875621
5.6	0.00903285178136434	-0.00945863970510673	1.5835504089703E-05	-0.00314389455025491	1.25431510741137E-05	-0.00314044007612649	0.00360466813575249	0.0117707207319629
5.7	0.00832631602916606	-0.00991518751301399	-0.000416527446874273	-0.00311770452890714	-0.000420240413066533	-0.00312138818934041	0.00507758569861588	0.00988256676460629
5.8	0.00767018894367656	-0.010383104979191	-0.000850640605943394	-0.00302741986832351	-0.000849913099530453	-0.00303509375548067	0.00612506061652498	0.00781500835805951
5.9	0.00693959216305037	-0.0108653069307326	-0.00126660564786032	-0.00287473809403279	-0.00126500771875151	-0.00287888422431986	0.00662540289682512	0.00579880506165905
6	0.00591193664490201	-0.0114590752303067	-0.00165430111476685	-0.00267002809096004	-0.00164831817799012	-0.00267337256856441	0.00683980494003727	0.00395172233397696
6.1	0.00473281650273665	-0.0116739337227157	-0.00201189761873806	-0.0024193499975442	-0.00200776028134931	-0.00242411017849171	0.00697518374083657	0.00194997105320222
6.2	0.0037309329138801	-0.0118292140963075	-0.0023312018950052	-0.00210410131728782	-0.00232762967835637	-0.00211275452750409	0.00672790798190279	-0.000240637910178216
6.3	0.00292049673539501	-0.0120198737689883	-0.0025980617077985	-0.00176572832869541	-0.00260786234684488	-0.00177347838003292	0.00608260300512765	-0.00254781434017822
6.4	0.00210167143142484	-0.0123737611673021	-0.00282500794920597	-0.00138175717915797	-0.00282301865985392	-0.00138754491821079	0.00501399270120971	-0.00472181651591248
6.5	0.00116056560035131	-0.0126949931591534	-0.00299039843117821	-0.000980272676913622	-0.00299080224248647	-0.00097915158141496	0.00373274298477509	-0.00674142426857979
6.6	0.000376189753235345	-0.012676545985617	-0.00309461259324528	-0.00055539081115729	-0.00310526777836712	-0.000558394746496386	0.00183127661777715	-0.00859839017590747
6.7	-0.000255338412885997	-0.0127250247301985	-0.00313976850751805	-0.000121980583655465	-0.00313872931008078	-0.00011574855642154	-0.000663072061782297	-0.00963674441778623
6.8	-0.00094871456285218	-0.0127315030391463	-0.00312574812014716	0.00032560688789984	-0.00312484516163634	0.000330362707680261	-0.00332976539180151	-0.00980883134473036
6.9	-0.00170897921846645	-0.0127502920317305	-0.00304423982722782	0.000755469012554049	-0.00304466473862014	0.000760448269604162	-0.00579166474344998	-0.00914117359428586
7	-0.00272046527430935	-0.0126303213003927	-0.00291419526924838	0.00117313192662933	-0.00291560967310039	0.00117634436816659	-0.00770758182704094	-0.00797296414944958
7.1	-0.00361877964396181	-0.0120760490174497	-0.00271749769162432	0.00157062633571812	-0.00271992464236065	0.00158163073121833	-0.00945243974535097	-0.00664910819243085
7.2	-0.00422374357666573	-0.0115686919700594	-0.00247814137355845	0.00193197964166134	-0.00247832824733329	0.00193786894562101	-0.0110089912219339	-0.00475609826818003
7.3	-0.00480423103328391	-0.0111823319347943	-0.00218848936439674	0.00225705897647735	-0.00218573099987849	0.00225853366651645	-0.0120220468793293	-0.00248802769020945
7.4	-0.00545067142830684	-0.0109832082773493	-0.00184688375185616	0.00254114352502395	-0.00183967980960452	0.00254766522326161	-0.0125592075285526	-5.43542573378236E-05
7.5	-0.00646589701658895	-0.0109617825556533	-0.00147066608828	0.00277624867272386	-0.00147170203703449	0.00277423506787938	-0.0121662917752613	0.00257814386892943
7.6	-0.00757311825456673	-0.0105666279768286	-0.00107796907008507	0.00295411920666895	-0.00106733405749382	0.00296447291863284	-0.0109999290912292	0.00461281590322646
7.7	-0.00857096698654282	-0.0100860948217443	-0.000649070664948431	0.00307871094169048	-0.000643510346939932	0.00307836935587802	-0.00973332165083557	0.00599805613249991
7.8	-0.00929496494431385	-0.0097130517637303	-0.000203252117212154	0.00314052229991948	-0.000216878073816227	0.00313343232185257	-0.00820309778103282	0.00729488082237743
7.9	-0.00993889965181825	-0.00941810661245682	0.000220316041274591	0.00312775968525795	0.000231398431930308	0.00312746763660308	-0.00626353994093487	0.0084990493701266
8	-0.0106641793790731	-0.00893530764951587	0.000655648342933364	0.00307345010133156	0.000663938740368142	0.00307138649185347	-0.0039087899294928	0.00919001356805487
8.1	-0.0110501255906822	-0.00812629272852863	0.00108781101852257	0.00295045115897395	0.00108553480669163	0.00294719643284009	-0.00162911815137698	0.00926355571678476
8.2	-0.0112419919716213	-0.00750794454737248	0.00147981692274088	0.0027689820721899	0.00147898189902113	0.00278056291898059	0.000606765278677694	0.00911501674024156
8.3	-0.0114859367089649	-0.00700254331038273	0.00185294748353252	0.00253721646909892	0.00185802504068484	0.00253463812792001	0.00286605005498947	0.00858034047272939
8.4	-0.011828423856844	-0.00650318637084779	0.00220031432604665	0.00225720550209871	0.00218915249542436	0.00225759075355936	0.00500271381786925	0.00761890180835413
8.5	-0.0124655234907271	-0.00592584301867371	0.00249753147802947	0.00192170166405756	0.00249753913583565	0.00192305236513041	0.00709336979240063	0.00616241341666995
8.6	-0.0129466250454149	-0.00479268421324476	0.00272927313316784	0.00156169353947121	0.00272506521655505	0.00155938061302282	0.00868789363721054	0.00387374673830062
8.7	-0.0129501749723249	-0.00371006446762338	0.00291995177152675	0.00116294326892772	0.00291878953685039	0.00116253094023923	0.00946034233557484	0.00133158859065068
8.8	-0.0126925701018703	-0.00284797091092864	0.0030499177047003	0.000744399134002063	0.00306090015997864	0.000742305373869536	0.00954080400178967	-0.00126146885403579
8.9	-0.0122732956885119	-0.00238368344502147	0.00312451026625145	0.000313420922586194	0.0031338718272567	0.000306290941187455	0.00919758978192787	-0.00356601564019827
9	-0.0121136488173851	-0.00231705155866959	0.00313735933321516	-0.000135132443685627	0.00314412835892856	-0.000129523226057546	0.00880749650663044	-0.00569869901107327
9.1	-0.0120587750841394	-0.00213552861252968	0.00309076648315251	-0.000567232370177827	0.00309098448400578	-0.000567424503104475	0.00806668298974076	-0.00812123177375857
9.2	-0.0120408357775166	-0.00210462980526452	0.00297662437705732	-0.000988786912673877	0.0029804446326743	-0.00098855802916078	0.00671347993174044	-0.0104260116354319
9.3	-0.0122302262215442	-0.00206789422315632	0.00280511968685071	-0.00139836522316298	0.00282317029921621	-0.00139877641203088	0.00485495336284925	-0.0124589406555111
9.4	-0.0125867514015925	-0.00196633752313666	0.00258776197476094	-0.00177125090212576	0.00259109927343479	-0.00178227443840481	0.00248319559644853	-0.0141136526032019
9.5	-0.0132400853647767	-0.00147231854615151	0.00231723722319048	-0.00212742998398186	0.00233203834518844	-0.00212806730127188	-0.000232438174502463	-0.0152478171906377
9.6	-0.0136266775269883	-0.000532146971896186	0.00199915665165651	-0.00243040857587674	0.00199946616794923	-0.00242338916149077	-0.00367368686542448	-0.0160676081962844
9.7	-0.0136782040649161	0.000356449571806997	0.00163741609787401	-0.00268555864044325	0.00164572067739598	-0.00268713277308671	-0.00757840940922248	-0.0157981578885405
9.8	-0.0136228974773329	0.00112302849884749	0.00125340236108069	-0.00288246312523751	0.00125159100103799	-0.00289112079172809	-0.0114496666326796	-0.0144642007874212
9.9	-0.0135395386969672	0.00178995596904214	0.000843647969926037	-0.00302927274489831	0.000831764204939228	-0.0030319165774912	-0.0151251433823893	-0.0119882978097794
10	-0.0137358882402149	0.00238067529530602	0.000409554052536518	-0.00310984849032639	0.000408753547217141	-0.0031171771301082	-0.0178296186872709	-0.00867677445027904
10.1	-0.0137373706475728	0.00343337985758763	-2.57759463467403E-05	-0.00314727366048158	-3.04208666020824E-05	-0.00315005423495192	-0.0198223814778232	-0.00519736891364734
10.2	-0.0133089480548904	0.00433922851489201	-0.000466612827806603	-0.00310810351149995	-0.000479224912320133	-0.0031118895661225	-0.0212031475713476	-0.00128873931924175
10.3	-0.0127240486222328	0.00498951563637324	-0.000899657994431322	-0.00300631158970435	-0.000899420064731239	-0.00301971850789436	-0.0217420531389169	0.00299936113487061
10.4	-0.0121226224787552	0.00529658268412713	-0.00130996661650768	-0.00285932211632157	-0.00131314428253889	-0.00285719358532121	-0.0212032103509358	0.00737903918459885
10.5	-0.0119284214373408	0.00552305035676881	-0.00169523328314906	-0.00264007367840507	-0.00170140727222227	-0.00264734648253147	-0.0194476594278763	0.0115881949490415
10.6	-0.0116657191085063	0.00613805322369352	-0.00205492378688253	-0.00238289379109264	-0.0020564226243852	-0.00238801401671371	-0.0169923280803739	0.0150360623419903
10.7	-0.011196439860242	0.00678341096383737	-0.00236264989644053	-0.0020700203811341	-0.00236585538630385	-0.00208607609594813	-0.0140289028672825	0.0181719820015095
10.8	-0.0105420038908864	0.00738035516084094	-0.00263037340560546	-0.00172179684572723	-0.00262743022704021	-0.00172396528778158	-0.0105780780368248	0.020826721304037
10.9	-0.00983337378267104	0.00779312578972657	-0.00284828331705913	-0.00134298046567206	-0.00284756161565658	-0.00134811400769163	-0.00665464782781592	0.0230234319093107
11	-0.0092526726497456	0.00813037305420448	-0.00301141781240778	-0.000926197184572062	-0.00300438575343319	-0.000930494791810689	-0.00190502312550599	0.0245686172915005
11.1	-0.00841299018696369	0.00874792347100583	-0.00310704357188466	-0.000508549974275342	-0.00309928850133662	-0.000500240126345169	0.00305370096670146	0.0248097821632242
11.2	-0.00720962680594515	0.00898054944161009	-0.00314734245819221	-6.57846679407088E-05	-0.00315395074400953	-6.25685255530687E-05	0.00796566955382901	0.0242470815936233
11.3	-0.00588111977967581	0.00874039786918782	-0.0031242218045667	0.000376210465319508	-0.0031273924885159	0.000374043458373803	0.0128979330227706	0.0229232932048893
11.4	-0.00487516579384802	0.00806696178445569	-0.00303685455954395	0.000807819086852325	-0.00304149153748281	0.00080797468648458	0.017623071755929	0.0206699857295481
11.5	-0.00446024672055869	0.00728617999211125	-0.00290381072788351	0.00121673274895185	-0.0028962818427883	0.00122149132771935	0.0221165178086653	0.0172953105166064
11.6	-0.00402058620568975	0.00679460917703135	-0.00270078508150651	0.00161168683125825	-0.00270891021670716	0.00162140884709479	0.0257636700305464	0.0126395202559284
11.7	-0.00349582545896044	0.00605146124497113	-0.00244606150378661	0.00197949776341706	-0.00244781221481788	0.00198319648196446	0.0283025443323631	0.0074570501520714
11.8	-0.00313656017477777	0.00515654416834492	-0.00214622218405117	0.00230401645157338	-0.00215543635529257	0.00231383821178525	0.0299145225881559	0.00208872429682618
11.9	-0.00299742377170846	0.00406227083718412	-0.00180560488790324	0.00257645430300213	-0.00180563198190284	0.00258302473090691	0.0306594017186509	-0.00308580513669815
12	-0.00369086240547578	0.00320390322394184	-0.00142512151368999	0.00280167064349704	-0.00142961980552175	0.00280446598457131	0.0308582248073756	-0.0085666887060424
