# GHZ S RI R 50
0.2	-0.0139788911015532	0.00527518160851671	0.00304491446642888	-0.000885095746949227	0.00305537522653192	-0.000884942566551482	0.00584825261926179	0.000808708932059722
0.3	-0.0131510733651689	0.00577236842255812	0.00289886075684136	-0.0013011557174692	0.0028925759668778	-0.00131279984776603	0.00617637368921363	-0.00145539348425206
0.4	-0.0124083445636456	0.00646832711235492	0.00268475517340086	-0.00169548061298622	0.00268264973649463	-0.00169739313421375	0.00574356352193019	-0.00330230722684491
0.5	-0.011762328350692	0.00716140716116111	0.00241494454492395	-0.00205250179518595	0.00241775912462929	-0.00205622786121186	0.00482142333436794	-0.00486337333171186
0.6	-0.0110872666362924	0.00797565419309487	0.00210241735990963	-0.00237259759581942	0.00210167417322506	-0.00237544018800503	0.00356776422540399	-0.0060879738435318
0.7	-0.0104213244498504	0.00873506467517512	0.00175185306356972	-0.00264272393175777	0.00175806007760226	-0.00264681708990076	0.00200751989183912	-0.00692242106192385
0.8	-0.00964059558097749	0.00947634116849551	0.00135831641082281	-0.00286274039284234	0.001366589749695	-0.00286114340091158	0.000279158510965788	-0.00727106978767998
0.9	-0.0088927414926502	0.0101561056764517	0.000953790054313077	-0.00301475155491713	0.000953771320006704	-0.00302416791564762	-0.00143692905373202	-0.00718778098511593
1	-0.00810764121071527	0.0107037450276258	0.000520969194320265	-0.00312294483127818	0.000520821161012024	-0.00312830193910573	-0.00307679893811095	-0.00671857657214265
1.1	-0.00751644726938273	0.0111966617739338	7.34894411097931E-05	-0.00316298521194995	7.43775681020621E-05	-0.00316771220992304	-0.00467276760613962	-0.00572453693721964
1.2	-0.00689291634178621	0.011403828609348	-0.000365482674103287	-0.00313591715985045	-0.00036425629027653	-0.00315271408618205	-0.00557530590305013	-0.00436973581195411
1.3	-0.00653839838303811	0.0111993770262132	-0.000796729477971113	-0.00306163707873227	-0.000801668336413176	-0.00306929360171677	-0.00563975119109321	-0.00304824612795406
1.4	-0.00628674666382185	0.0108730874513019	-0.00122274367804275	-0.00291648811157777	-0.00122515969462405	-0.00292361920226739	-0.00529932887971741	-0.00224958418983277
1.5	-0.00580250504210892	0.010886228844118	-0.00161461523573901	-0.00271826655708451	-0.00161264314976292	-0.00272380941993793	-0.00505658896491139	-0.0016599480938218
1.6	-0.00497880338473249	0.0112901996144706	-0.00197780111505532	-0.00246180043665164	-0.00198127235777322	-0.00246267973740486	-0.0051905243305308	-0.000615046389529096
1.7	-0.00395010105416871	0.0116476715808729	-0.00230284437304885	-0.00216720649648171	-0.00230489497704792	-0.00217579623430046	-0.00494022740713111	0.000668877715292281
1.8	-0.00292494036460672	0.0120053783591205	-0.00257978486690545	-0.00181778347749076	-0.00258496379637419	-0.001823244555464	-0.00439544714544015	0.00186146381582699
1.9	-0.00190319328434345	0.0121475906861175	-0.00280549694957448	-0.00144840614390821	-0.00280198361249265	-0.00144221595325945	-0.00354836208022127	0.00290581738789339
2	-0.00104326412068481	0.0121831474328417	-0.00298095473773001	-0.00103633764706178	-0.00298369354299502	-0.00102949104319491	-0.00256952735492496	0.00375504486714351
2.1	-0.000178234328934261	0.0122327011826339	-0.00309592896397959	-0.000603820011065207	-0.00309803303618655	-0.000610516418947362	-0.00126122721801988	0.0043745663521548
2.2	0.000667852269244349	0.0122016508843522	-0.00314930652922586	-0.000172671830291175	-0.00315111687130405	-0.00016294369020319	0.000377119960228211	0.00452086933091056
2.3	0.00138792388174849	0.0120259902049078	-0.00314090190808127	0.000269740247958982	-0.00314766015833848	0.00026683249770829	0.00196638771234111	0.00410218081805467
2.4	0.00203633588531291	0.011852574964423	-0.0030804987354733	0.000704655662108392	-0.00307931878833792	0.000719777078522124	0.00348408918539424	0.00330328819120757
2.5	0.00253950716285483	0.0115938811599969	-0.0029447159296574	0.00113682623488099	-0.00295772116974164	0.00113813247813583	0.00474018746482441	0.00199043611638889
2.6	0.00302723115657065	0.0115873098474709	-0.00275434308197315	0.00153196371556355	-0.00277526831055833	0.00153589040625101	0.00568867995046751	0.000498129370209704
2.7	0.00375411383602825	0.011590795364954	-0.00252194018729229	0.00190116191037228	-0.00252221570495315	0.00190624985658344	0.00632569299397842	-0.00128199357902215
2.8	0.00466320651444209	0.0115162803445057	-0.00222642732117876	0.00222620210263619	-0.00223625620096694	0.00223740912630426	0.00654285888687264	-0.00313081446886785
2.9	0.00576182210995345	0.0112421233934995	-0.00188945401759687	0.00251907052261647	-0.0018875176242419	0.00252798151136281	0.00652087129093535	-0.00493025534513839
3	0.00680095111788618	0.0107099389433433	-0.00151823051791457	0.00276188059848566	-0.00153333028679971	0.00274885074421093	0.00615223424723394	-0.0067385870174248
3.1	0.00781163052792046	0.0101884914802013	-0.00111903887399797	0.00294519544390472	-0.00113598548722242	0.00295062000726818	0.00546272951480098	-0.00843307906893468
3.2	0.00872323501799982	0.00944740510812194	-0.000699167151306669	0.00306990162452367	-0.000694884784368637	0.00308070912566142	0.00427551520288398	-0.0100571700619236
3.3	0.00945441010847461	0.00855470572307904	-0.000269404226671031	0.00314092694659031	-0.000266109039146116	0.0031365413667387	0.00275592109649766	-0.0115613461720386
3.4	0.010016405907548	0.00760627161174512	0.000176432927738427	0.0031485870256744	0.000167002026637554	0.00314967806943029	0.000921511322990403	-0.0129523151164192
3.5	0.0102965105346964	0.00662050897431024	0.000610372912098307	0.00309159143586134	0.000615381262739633	0.00309025441264098	-0.00148206978962536	-0.0141677546220633
3.6	0.0104958960964023	0.00590351396649579	0.00103062511826413	0.00297071950679604	0.00103723032039975	0.00297420343760112	-0.00416928416623076	-0.0146047614252103
3.7	0.010735316178819	0.0052010599791205	0.00144691154807891	0.00279357594824844	0.00144518869222379	0.00280995091532243	-0.00683552049742379	-0.0145425665672576
3.8	0.0110009334639508	0.00452797379387223	0.0018148592343707	0.0025664221818736	0.00182546929372086	0.00257275989053299	-0.00954082141133043	-0.0140097332772349
3.9	0.0113494753222474	0.00382963646076491	0.00216195705316049	0.00228778985774368	0.0021573587747341	0.00228770020702572	-0.0121629471038966	-0.0129294376793813
4	0.011613477785575	0.00302507322759522	0.00245265232611947	0.00196785787537819	0.00246410079860403	0.00197398172309561	-0.0145849918995491	-0.0113192218543198
4.1	0.011902786700375	0.00233255544766858	0.00270347163919782	0.00160123513413745	0.00272004534922584	0.00161098839462929	-0.0165152356615092	-0.0090476719691532
4.2	0.0122298609473314	0.00146424817766989	0.00290463503551483	0.00120452800180296	0.00290587074137776	0.00120681166758456	-0.0179142253524564	-0.00657269285085486
4.3	0.0124138899532734	0.000526232822084519	0.00304692353165596	0.000796511213152703	0.00304811968516879	0.000805090575936681	-0.0188713457005654	-0.00402425609702748
4.4	0.0124440492796318	-0.000499664344982766	0.00312526402429225	0.000361262633014391	0.00313317542696888	0.000356618727538447	-0.0194351538761841	-0.00132861817832344
4.5	0.0121865490660914	-0.00150985466190704	0.00314789228439615	-8.2924637221142E-05	0.00314470657332783	-8.06603965653206E-05	-0.0196188080239465	0.00135377308260675
4.6	0.0117988328808395	-0.00224696710437676	0.00309423881591635	-0.000528283503494354	0.00310727486540343	-0.000516324344766019	-0.0193661143167519	0.00421150923443877
4.7	0.0115394946735335	-0.00288572015180983	0.00299196183759338	-0.000940961171015694	0.00299185752378868	-0.000950389088078658	-0.0185746700430735	0.00685711380247962
4.8	0.0112518547223559	-0.00354480843333738	0.00284267251973013	-0.00134307895607683	0.00283501041217921	-0.00136323555299032	-0.0172973952141852	0.00939525229850723
4.9	0.0111516090600858	-0.00417794729187622	0.0026268483587292	-0.0017397875646118	0.00262078865012629	-0.0017313479367741	-0.015478359974006	0.0116429745368138
5	0.0110001951795219	-0.00498025474059394	0.00235137305322733	-0.0020712377326925	0.00235411000645503	-0.00208365136947971	-0.0131776463589647	0.0134824930547428
5.1	0.0109818503339281	-0.0056695147304506	0.00202991214824775	-0.00239456313012442	0.0020431285245687	-0.00239209265618481	-0.0103823914269421	0.0149984451827884
5.2	0.0109906184446263	-0.00659040035730102	0.00168736187726867	-0.00265105162091897	0.00168786055441517	-0.00265520927456503	-0.00727812247463831	0.0157530028838259
5.3	0.0108601604404488	-0.00761301310121769	0.00129784374822417	-0.00286182477336355	0.0012941018239227	-0.0028643928890822	-0.00415322075923899	0.0158820830280019
5.4	0.010552589590365	-0.0086850291076871	0.000887327214713892	-0.0030204901106412	0.00088643912866645	-0.00302294606915253	-0.00109371443909688	0.0152485696009987
5.5	0.00977095273039106	-0.0096624618302482	0.000448826426842585	-0.00311472610444072	0.000461390976347538	-0.00311471058672791	0.00135574249081724	0.0139221487207778
5.6	0.00901343608594788	-0.0101919716976853	1.57088873596569E-05	-0.00314421994036864	1.24163351954927E-05	-0.00314076497509783	0.00339501307756859	0.0125604641119298
5.7	0.00824443924061039	-0.0107147446569544	-0.000416486600791747	-0.00311788442178773	-0.000420199695759808	-0.00312156836061135	0.00509686435800989	0.0108365634647238
5.8	0.00746710089866957	-0.0111435142738436	-0.000850584530499161	-0.00302771857225441	-0.000849856632143976	-0.00303539309295367	0.00639124388711035	0.00875091377399163
5.9	0.00669282023094803	-0.0114651436335792	-0.00126690392295131	-0.00287513933163184	-0.00126530589262848	-0.00287928616179257	0.00716178338232343	0.00648823096976676
6	0.00571815652972006	-0.0119425838997626	-0.00165479175609026	-0.00266958947365997	-0.00164880972733123	-0.00267293506386309	0.00715867563199371	0.00405466521310421
6.1	0.00470027053757981	-0.0119901337444456	-0.00201159907613696	-0.00241899277562183	-0.00200746234913499	-0.00242375225080915	0.00679508055681296	0.0021814718065612
6.2	0.00393304215135764	-0.0121849697783244	-0.00233091743119678	-0.00210405399401272	-0.00232734506244092	-0.00211270635815176	0.00643696225594364	0.000197073329881878
6.3	0.00325117554188874	-0.0125195108931256	-0.00259789168792324	-0.00176566907693182	-0.00260769166947574	-0.00177341884445645	0.00580060296253255	-0.00195178767066996
6.4	0.00248427896427327	-0.0130417456414923	-0.00282468259761777	-0.00138138807621209	-0.00282269394287915	-0.00138717509821993	0.00481296523844794	-0.00413981887313782
6.5	0.00145676620513248	-0.0135438547167385	-0.00298925720301339	-0.000980397091136852	-0.00298966104890837	-0.000979276428920241	0.00319355412192365	-0.00613851005235102
6.6	0.000617719517529697	-0.0135946294549306	-0.00309411178439069	-0.000556167855150392	-0.00310476494888813	-0.000559174342460729	0.00140364234254795	-0.00746936877184678
6.7	-0.000118481096697273	-0.0137213716827974	-0.00313954842998435	-0.000122599072228506	-0.00313851054006461	-0.000116367226309466	-0.000753675678659681	-0.00841921570779047
6.8	-0.000896434873657273	-0.0137195927377437	-0.00312548741349064	0.000325017998036947	-0.00312458539253499	0.000329773493618326	-0.00317842244063748	-0.00865980055518505
6.9	-0.00164141990040844	-0.0137272173342135	-0.00304388230097007	0.00075449033838078	-0.00304430850462619	0.000759468553380307	-0.00546047537498164	-0.00826592734186651
7	-0.00270456015280009	-0.0137160600453203	-0.00291488486979452	0.00117177031000258	-0.00291630088773037	0.00117498220110245	-0.00784688433850677	-0.00741989798173382
7.1	-0.00363542247564918	-0.0131658133674825	-0.00271836929246102	0.00157021817781297	-0.00272079943688145	0.00158122389247732	-0.00978531335675581	-0.00552118165474891
7.2	-0.00434907704369212	-0.0127602134946664	-0.002478771181482	0.00193168726793625	-0.00247895923204465	0.00193757712917951	-0.011015117774861	-0.00335898032997142
7.3	-0.00515160606793092	-0.0123627934739326	-0.00218920187239107	0.00225671882415506	-0.00218644363798151	0.00225819428886978	-0.0116335287973606	-0.00105137447538171
7.4	-0.00597879539463494	-0.0119897247647089	-0.00184805276577134	0.00254103537244528	-0.00184084954325131	0.00254756063027843	-0.0116766179010497	0.00111470704681783
7.5	-0.00710492440016832	-0.0117792842252194	-0.00147143485420451	0.00277726660283852	-0.0014724710882235	0.00277525212394815	-0.0113790074094152	0.00295481523692818
7.6	-0.00817669494207452	-0.0110272425338948	-0.00107791304540149	0.00295461514837504	-0.00106727578911491	0.00296496957810894	-0.0106276060507223	0.00501927283265366
7.7	-0.00896447471458333	-0.0103658801080932	-0.000649162004670825	0.00307896102487388	-0.000643601216822432	0.00307861947722461	-0.00938984806570559	0.0064045003240707
7.8	-0.00943286236758104	-0.0099264958835263	-0.000203392464712438	0.00314090653558593	-0.000217019861101324	0.00313381517432776	-0.00793572781887651	0.0076125821409836
7.9	-0.00976890681733384	-0.00970685459327908	0.000220593031099776	0.00312840012828334	0.000231677727031214	0.00312810720077589	-0.00618255799334312	0.00862797238319212
8	-0.0103549720123319	-0.00948334910355085	0.000656462365833579	0.00307302997337823	0.000664751547025257	0.003070964190775	-0.00454797016328893	0.00940151539189933
8.1	-0.0106130413275861	-0.00888666534640597	0.00108759740901726	0.00294984578828423	0.00108532165250563	0.00294659173303952	-0.00229859254492079	0.010247381568277
8.2	-0.0108609255323825	-0.0085184175642967	0.00147948277489338	0.0027687670732963	0.0014786471302437	0.00278034658828137	0.000258861224071505	0.0103720269051508
8.3	-0.0112140876280286	-0.00812087054646342	0.0018527609117294	0.00253704046135971	0.00185783809979812	0.00253446240286895	0.00280510849060182	0.0098927780987165
8.4	-0.0115731483131774	-0.00766527603159238	0.00220005219648673	0.00225655943507635	0.00218889268410306	0.00225694553985304	0.00520521668068064	0.0087101287162553
8.5	-0.0122796259864538	-0.00725134995924283	0.00249601547968438	0.00192138549301241	0.00249602284525692	0.00192273559809936	0.00684898819652691	0.00690184204509746
8.6	-0.0128232317052907	-0.00617048405049648	0.00272829880616111	0.00156243440960026	0.00272409235774613	0.00156012032649039	0.00823173913112071	0.00523267698665272
8.7	-0.0129802605923861	-0.00523006117247869	0.00291937937321532	0.00116362559975997	0.0029182173527688	0.00116321299499116	0.00936501027941284	0.0030057685769531
8.8	-0.012995718553651	-0.0043678457016868	0.00304931342860562	0.00074504792246953	0.00306029488434077	0.000742957157356697	0.00988615758062809	0.000449742116027586
8.9	-0.0127778392081482	-0.00372029780049169	0.00312365265644954	0.000314559998554966	0.00313301478022094	0.000307435330586388	0.0100072589781161	-0.0021805052418552
9	-0.0127376382392704	-0.0034607002943742	0.00313774260807741	-0.000133161509061802	0.00314450872964067	-0.000127547478869627	0.00939572014796051	-0.0049548785851057
9.1	-0.0126134924704858	-0.00297044184985264	0.00309168158328277	-0.000566389612400843	0.00309189969680311	-0.000566581722087995	0.00838249072926643	-0.00724076345962624
9.2	-0.0123988609486943	-0.00279632427372758	0.00297727852252265	-0.000988184041817501	0.00298109924597081	-0.000987954178856029	0.00704303770207644	-0.00957081774495596
9.3	-0.0123515509810859	-0.00271308497133912	0.00280583847616591	-0.00139766797891931	0.00282389112570704	-0.00139807377092512	0.0051315341217138	-0.0116822451335679
9.4	-0.0124317789000702	-0.00271324237523383	0.0025891416142183	-0.00177063683004163	0.00259248427601809	-0.00178166178056731	0.0026701662260276	-0.0135335664780843
9.5	-0.0130228039295314	-0.00246031935585706	0.00231851679316995	-0.00212833417505156	0.00233332526772007	-0.00212897086944754	-0.000717500822845338	-0.0147262611571376
9.6	-0.0133595014246725	-0.00168534844453887	0.00199930441800332	-0.0024309476788411	0.00199961449374039	-0.00242392714893384	-0.00425636771077066	-0.0147860267212626
9.7	-0.0135235605177503	-0.00100461932158113	0.00163767448001341	-0.00268576036653421	0.00164597992712647	-0.00268733434751378	-0.00779642463851659	-0.0142153133113235
9.8	-0.0136653844179524	-0.000281788625912858	0.00125379624070564	-0.00288283527677324	0.00125198517946198	-0.00289149443853614	-0.0112836484873879	-0.0128451196082904
9.9	-0.0136878183021043	0.000483864576226692	0.00084360702617761	-0.00303015841465117	0.000831719845210191	-0.00303280190820488	-0.0145775923454879	-0.0106974600898481
10	-0.0139665398148209	0.00110460053098188	0.000408443185485745	-0.00310969323213723	0.000407640230623412	-0.00311702089732703	-0.0176825277159419	-0.00791314283831658
10.1	-0.0139463785612007	0.00228684572208788	-2.57739525568224E-05	-0.00314651977280822	-3.04177639260709E-05	-0.00314929967507878	-0.0199295393064395	-0.00401617159879976
10.2	-0.0135242591046325	0.00320009362189609	-0.000466344569839826	-0.00310773123472485	-0.000478954764236888	-0.00311151764062035	-0.0210801030879103	4.32432241231455E-05
10.3	-0.0129959367111523	0.00394115850839408	-0.000899556393063163	-0.00300601595962631	-0.000899318433305836	-0.00301942154235594	-0.0213644757535603	0.00424991787072488
10.4	-0.0123339534256374	0.00441794880674527	-0.00130994557610925	-0.00285840161778096	-0.00131312214124183	-0.00285627329099752	-0.0206331289970744	0.00821104502715092
10.5	-0.0120338873372961	0.00473335303731454	-0.00169357698160905	-0.00263910735183734	-0.00169974558911965	-0.00264637791172558	-0.0195179255217459	0.0119426316220696
10.6	-0.0114766090541614	0.00544142444169553	-0.00205353368251546	-0.00238334565000147	-0.00205503005729588	-0.00238846559721848	-0.0174649298825551	0.0158678368189143
10.7	-0.0107408166929068	0.00590848166017646	-0.00236173376019988	-0.00207052863863554	-0.00236493384879247	-0.00208658354958179	-0.0145138273757917	0.01928839734535
10.8	-0.0100182648924138	0.0062435767172172	-0.00262941621682448	-0.00172224941924771	-0.00262647293316046	-0.00172441663465186	-0.0109772256313969	0.022109262473692
10.9	-0.00918495142028722	0.00642540737151182	-0.00284678797336089	-0.00134392427943762	-0.00284606405838067	-0.00134905593096532	-0.00685914856372224	0.0243012943055099
11	-0.00871766747426087	0.0064512034749906	-0.00301109818489025	-0.000928561212802196	-0.00300406204634699	-0.000932854098411199	-0.0026381277045387	0.0257206868435795
11.1	-0.0079709808597052	0.00690295529774338	-0.00310768578596481	-0.00050981886554655	-0.00309993168086282	-0.00050150397492435	0.00227011495333518	0.0267858392752038
11.2	-0.00699457920101607	0.00690811880943243	-0.00314778297199991	-6.67234558449372E-05	-0.00315439317305039	-6.35087943721268E-05	0.00769093809498221	0.0265974640542362
11.3	-0.00601488470873302	0.0066327239905699	-0.00312472185054087	0.000375100214762776	-0.00312789210073131	0.000372931786470016	0.0132141596339117	0.0253027119751151
11.4	-0.00524380401307109	0.0060628183181986	-0.00303819042526536	0.000806577585977148	-0.00304282891362111	0.000806730956631824	0.0184762960230054	0.0226636203905191
11.5	-0.00508306293138983	0.00534310197384251	-0.00290555158744142	0.0012172931057161	-0.00289801858066937	0.00122205481145388	0.0226506343347667	0.0187568700857241
11.6	-0.00478120494288844	0.00508084544667405	-0.00270112621604957	0.00161222640480221	-0.00270925193044529	0.00162195092625968	0.0262991263236265	0.014450592261675
11.7	-0.00441243642801669	0.00454424841329366	-0.00244640178411505	0.00197962971393472	-0.00244815281953324	0.00198332877894598	0.0292550776886865	0.0091646894596745
11.8	-0.00413389450535454	0.00402992813383271	-0.00214678603123999	0.00230429941640659	-0.00215600261830269	0.00231412237832393	0.0311633273368405	0.00337107942883867
11.9	-0.00379993834328261	0.0033918000485469	-0.00180584552235783	0.00257753286693653	-0.00180587174397256	0.00258410543147447	0.031886344721662	-0.00260139784766409
12	-0.00413411652890989	0.00271015428690833	-0.00142374490913521	0.00280183285330684	-0.00142824135812602	0.00280462962906847	0.03101426788781	-0.0086431248609075
