# GHZ S RI R 50
0.2	0.00592501187342921	0.00126431579499321	0.00304834132005622	-0.000897934495804278	0.00305870998014083	-0.000891125604292372	-0.0140694290930391	0.00487472450464989
0.3	0.00623747771685627	-0.000683813737083444	0.00290412172170816	-0.00132135889610182	0.00289687558072714	-0.0013084202100749	-0.0132719631230036	0.00507560252260647
0.4	0.00598238470581707	-0.00233344299226303	0.00267248349698669	-0.0016931243154573	0.00267775075752249	-0.00170168486554281	-0.0127402853205875	0.00562211548932292
0.5	0.00523916274302764	-0.00371599326929921	0.00241361618389298	-0.00204980109172414	0.00242515310454025	-0.00206204081700288	-0.0121844327715001	0.00622017016598852
0.6	0.00421333484539421	-0.00471658566400657	0.00210107725254418	-0.00236423664292441	0.00210029070902801	-0.00237138582352256	-0.0116894463170958	0.00672844787645826
0.7	0.0029552620246865	-0.00536619831660403	0.00175393287114544	-0.00264194253307868	0.0017519769866592	-0.00264214132133598	-0.0113633003385811	0.00728034227482067
0.8	0.00166334137988697	-0.00569419928152178	0.00136853433125247	-0.00285926762667694	0.00135593530616614	-0.00286381620779576	-0.0110611471592425	0.00799126662354924
0.9	0.00029235467029862	-0.00568619115373115	0.000951516623436081	-0.00302275866941346	0.000952551342008655	-0.00303345698689359	-0.0107187019043713	0.00878181929059909
1	-0.00107727352260996	-0.00545334108755354	0.000526737793631515	-0.00312612855588644	0.000516876918182581	-0.00312686840634184	-0.010220479260715	0.00967277825360615
1.1	-0.00251375111208295	-0.00493208607721925	7.11885201005302E-05	-0.00315489207583393	6.76816198091444E-05	-0.00317254062611902	-0.00962830026039195	0.0105744436408895
1.2	-0.00385207921913805	-0.00434977089163529	-0.000370864959847156	-0.00314425729425053	-0.000371676616516924	-0.00314218110904976	-0.00864901758014714	0.0114336837301162
1.3	-0.00524817982284852	-0.00383302580806025	-0.000797897220249603	-0.00306104236760731	-0.000801136869093952	-0.00306304728985397	-0.00706869935572294	0.0120397450390502
1.4	-0.00642803160353747	-0.00317557821939196	-0.00121910175875303	-0.00291281435257463	-0.00121788889919056	-0.00291834680047227	-0.00537580380477968	0.0118691380280681
1.5	-0.00696471629572229	-0.00202102230691337	-0.00161987712667786	-0.00271699347258953	-0.00161826530386732	-0.0027254926947174	-0.00401607521075469	0.0113368706281185
1.6	-0.00683910574123058	-0.000455938374391336	-0.0019803667437443	-0.00246465234768854	-0.00198057758070703	-0.0024698859804385	-0.00350492805843306	0.0110904746554447
1.7	-0.0061646649949068	0.00100783776269334	-0.00230876184945975	-0.00216788813993371	-0.00230972752623149	-0.00216162740518573	-0.00298833385565717	0.0112522061951287
1.8	-0.00521739557848065	0.00236614794628588	-0.00257980036458832	-0.00181650045621256	-0.00259076486100139	-0.00182213683159336	-0.00237392317121614	0.0114559793294422
1.9	-0.00403223089333423	0.00336323170750706	-0.0028051865920652	-0.00144587065812148	-0.00281762525906402	-0.00143971851156559	-0.00173077774484841	0.0116770798823979
2	-0.00278500951575224	0.0040738609732828	-0.00298093403512342	-0.00103825870656537	-0.00299055506491199	-0.00103355104365124	-0.00100836175984528	0.0119380741983974
2.1	-0.00139598352902171	0.00451960450997507	-0.00309446598206068	-0.000609842585560063	-0.00309038303065212	-0.000611834111760545	-0.00015444688463048	0.0119847589289813
2.2	7.98950203035894E-05	0.00462894681058948	-0.00315186775830597	-0.000171515800254851	-0.00316317049184961	-0.000174351305630011	0.000776861295178316	0.0119177585766562
2.3	0.00152066323909527	0.0042531930407164	-0.00314718124063304	0.000271963644843729	-0.00314687920577191	0.000265081363148503	0.00163205988358574	0.0116396596204681
2.4	0.00278363416502077	0.00352560891264457	-0.00307463961666888	0.000710369098014728	-0.00307718090769552	0.000706112413897333	0.00239956601451595	0.0113900150740193
2.5	0.00372322403451953	0.00243499344059395	-0.00293741084704742	0.00112269835392387	-0.00294829800232193	0.00112907925187118	0.00325801448950765	0.0111090303311728
2.6	0.00438728922436052	0.00128419359476872	-0.00276325978257633	0.00152573863452949	-0.00275970537078789	0.00151341674381767	0.00420210431258727	0.0106143365151883
2.7	0.00496267862723609	3.94650414609875E-05	-0.00251708145185058	0.00189702804528488	-0.00252236083610226	0.00189704014860075	0.00492636730183399	0.0099653132110612
2.8	0.00545691954662505	-0.00138693812819786	-0.00223387420957397	0.00222436084428092	-0.00222605916681435	0.00223414726876255	0.00547032991167	0.00943286157121354
2.9	0.00579441359388575	-0.00306823975054628	-0.00189924118248185	0.00252426150715694	-0.00189553290773839	0.00252383364558376	0.00616903063138197	0.00909997848062877
3	0.00567622005265621	-0.00494413152726821	-0.00151269996769263	0.00275931691536891	-0.00152747569470579	0.00276541914109834	0.00711604497525873	0.00875003685376949
3.1	0.00520656402736207	-0.00676055297719965	-0.00112228052075141	0.00293602645668815	-0.001117622546282	0.00294436575159517	0.00799143766019581	0.0081043122749053
3.2	0.00425599267976079	-0.00857225823957867	-0.000701708164984729	0.00307272938870068	-0.000703452317814466	0.00307211935511148	0.00854299652732949	0.00750153927020005
3.3	0.00285250747645247	-0.0103249177562327	-0.00026333768939276	0.00314209278904245	-0.000261690310275051	0.00313835333870053	0.00915106572500352	0.00685687895523415
3.4	0.00091832760935539	-0.0117589187651154	0.000183324683463222	0.00313563060076978	0.000177125055436218	0.0031521914081657	0.00974233294766384	0.00604458798765425
3.5	-0.00144835022529285	-0.0128251057297467	0.000604862012959282	0.00309244768537979	0.000610456067022879	0.00309252210078382	0.0101575343045369	0.00500809567503488
3.6	-0.00406635086380012	-0.0131968499414438	0.00103309095270041	0.00297300500324958	0.00104128031467838	0.00297268618451018	0.010336579371898	0.00401133186665872
3.7	-0.00663136554363328	-0.0130388422604146	0.00144343246354425	0.00279183936983927	0.00143385121684683	0.00280551274900921	0.0104357460628367	0.00313526237203821
3.8	-0.00915189465515736	-0.0123955951433594	0.00182134567433639	0.00256456513941898	0.00182375063487821	0.002573712160704	0.0104582986892389	0.00234684231124148
3.9	-0.011462713219889	-0.0113279454443255	0.00216697553747431	0.00229134567310736	0.00215971170136025	0.00228956784394938	0.010447795646265	0.00167762740063189
4	-0.0136713990147842	-0.00985260785521818	0.00245152949925546	0.0019700655810538	0.00245597693284584	0.00196763113003229	0.0106366021849948	0.00114843103140954
4.1	-0.0155385934916091	-0.00782054870071689	0.00270334655706756	0.00161002266393655	0.00270209435379048	0.0016107584724195	0.0109886991290785	0.000455876801129136
4.2	-0.0169374338760809	-0.00547021050199065	0.00290241796964346	0.00120868087603456	0.00290688167304322	0.00119996622407394	0.0112448524126816	-0.000336322166828238
4.3	-0.0178906772836223	-0.00300615163907389	0.00304522767974561	0.000796465267499337	0.00305164770760487	0.000788663051350839	0.0114135984045308	-0.00125258877207253
4.4	-0.0185246151678268	-0.000411536069423931	0.00312127475705965	0.000362272667015128	0.00312364824227546	0.000360016260097144	0.0113857652023169	-0.00211408252024668
4.5	-0.0188601151544693	0.00231769989678819	0.00314370947277747	-7.57384925435932E-05	0.00314906794361025	-7.91119150962006E-05	0.0114603648579738	-0.00290265898004805
4.6	-0.0187662117624868	0.00528223166521111	0.0030993202146211	-0.000518472012517754	0.00310055120053215	-0.00050556275420646	0.011444049917378	-0.00397403251498515
4.7	-0.0179255263236807	0.00825536377300003	0.00299378100134479	-0.00093709895014486	0.00300905933308818	-0.000946715799695961	0.0111221654395536	-0.0050516806861233
4.8	-0.0165288685058984	0.0109987068908068	0.00283244828527366	-0.00135089618322247	0.00284092180993139	-0.00135698462890698	0.0106405699837017	-0.00595342656070073
4.9	-0.0144308569735484	0.0133583020422558	0.00261150956627608	-0.00173465689980785	0.00261567445241499	-0.00173175440363058	0.0101691025108394	-0.00660712089988754
5	-0.0119810295067322	0.0151464126685598	0.00235168707038178	-0.00208933326869656	0.00235530738051395	-0.00208667141606651	0.0100866884540174	-0.0071288253855788
5.1	-0.00898307055409571	0.016533576884122	0.00204092906990379	-0.0023994266655076	0.00204322846843614	-0.00239807031287012	0.0100634468451108	-0.00797381612579341
5.2	-0.00576490227327487	0.0171063946619294	0.00168351721753505	-0.00264881867998513	0.00168522826421246	-0.00265395785482605	0.00982924448312667	-0.00878210660610514
5.3	-0.00259982195036924	0.0169509619182496	0.00129713073185308	-0.00286377274435179	0.00130026089374656	-0.00286171216368457	0.00955644632404201	-0.00942042342725295
5.4	0.000284269506943163	0.0161916039416983	0.000872753216649103	-0.0030108892898884	0.000889902607226563	-0.00302208907723825	0.0093616375684693	-0.0101528759727631
5.5	0.00265688631661307	0.0150751417464287	0.000459681066705529	-0.00310847930097487	0.000469724890928685	-0.00311789919005011	0.00910720434723002	-0.011085614521553
5.6	0.00482543271949922	0.0138504826843022	2.17282424875755E-05	-0.00314444183300846	1.32103382838654E-05	-0.00314765784786405	0.00836215107875029	-0.0121290674460402
5.7	0.00677932034440623	0.0122322402869232	-0.000408776194006459	-0.00311391608873163	-0.000425373784993421	-0.00311757427757502	0.00722350100628579	-0.0127565110049844
5.8	0.00836983684206859	0.0102139030767783	-0.000854141848969514	-0.00301908745094696	-0.000857673066119873	-0.00303306446817811	0.00606894649821335	-0.0132022439303597
5.9	0.00945014486826203	0.00789734858910707	-0.0012585516413986	-0.00287930616533581	-0.00126677502369281	-0.00287922550018786	0.00480442556275625	-0.0133533870688529
6	0.00974802670327812	0.00528802503927332	-0.00165637458473015	-0.00267332132120118	-0.00165281637667038	-0.00267348738495769	0.00370644777357029	-0.0130980289121837
6.1	0.0093786952120313	0.00296158492397777	-0.00201113437433951	-0.00241909166351107	-0.00201277282629803	-0.00241509083429293	0.00305823967231959	-0.0128826394251881
6.2	0.00868106776208062	0.000753059336400348	-0.00232361912217553	-0.0021061857227503	-0.00232732432035166	-0.00211804711638141	0.00257200134641738	-0.012898450590835
6.3	0.00769740335087451	-0.00136083101609507	-0.00260109299454323	-0.00177198611771409	-0.00261021400149686	-0.00176625246147896	0.00212039463697446	-0.0132165437008127
6.4	0.00629338672792548	-0.00341141051243728	-0.00282709899757881	-0.00138165532570748	-0.00281738235290513	-0.00138655355109096	0.00162310245500352	-0.0135967453889538
6.5	0.00438523524737953	-0.00510307006707682	-0.00298345014230209	-0.000977033092868775	-0.00299130485351498	-0.000972555844136487	0.00128751074861547	-0.0141235005915841
6.6	0.00237937689888494	-0.00606391312282655	-0.0030914882659556	-0.00055247698777519	-0.00309311976663843	-0.000556450563247192	0.000660541166453492	-0.0148993118460281
6.7	0.000345772071010697	-0.00663916431713552	-0.00314208875621322	-0.000115161569679292	-0.00315093628880641	-0.000108889384678558	-0.000463204298875886	-0.0153401062765677
6.8	-0.00181533556220489	-0.00672759320593938	-0.00312070674223554	0.000325831749528989	-0.00313179174315659	0.00033087337772465	-0.0016935468754446	-0.0153205367118046
6.9	-0.004015100388843	-0.00634826608009525	-0.00304560363046592	0.000758722726109597	-0.00304858879568844	0.000761110666532736	-0.00274435672664512	-0.0149532528355988
7	-0.00627943126495765	-0.00538154364148294	-0.0029093038002925	0.00117902378502038	-0.00292212245543149	0.00117682569119883	-0.00338145027068587	-0.0145741174199873
7.1	-0.00819410417027328	-0.00357965183477618	-0.00273205814980872	0.00156742704468734	-0.00272839981883881	0.00157608749327845	-0.00417757181711211	-0.0144509201202342
7.2	-0.00946885294138154	-0.00147940144028468	-0.00247626799765234	0.001935106232791	-0.0024827938385586	0.00193718119805171	-0.00510221324788723	-0.0140708637597123
7.3	-0.0103186323216224	0.000731876489410784	-0.00218163035612192	0.00225405635988521	-0.00219283877278616	0.0022591009701842	-0.00587433453639869	-0.0135926209347645
7.4	-0.0107592590505628	0.00291613238135196	-0.00184095826365046	0.00253737294000837	-0.00184784582241382	0.00255096968867549	-0.00669470380002502	-0.0131148679609745
7.5	-0.0110553248267088	0.00497217406115256	-0.00147621019758143	0.00277704579983898	-0.00146922582432801	0.00278444293053446	-0.00708662608425708	-0.0124753948610989
7.6	-0.0109309648325439	0.00733721554941482	-0.00107069345826225	0.00295621594794107	-0.00107206440225741	0.00295151950586616	-0.00718390244128771	-0.0123595536187623
7.7	-0.0101895650228358	0.00956359432142623	-0.000642845348677172	0.00307833220321368	-0.000644184430495376	0.00307726974931516	-0.00764598737947068	-0.0127581817317827
7.8	-0.00874725772228114	0.0114241120271105	-0.000217370296188323	0.00312833519130128	-0.000225181576637053	0.00313478615313476	-0.0083387746359048	-0.0129332742895135
7.9	-0.00684148055561863	0.012776129803997	0.000223771505514368	0.003136330055877	0.000231711903234696	0.00313783435042796	-0.00898129987921144	-0.0128072007836332
8	-0.00475157714404603	0.0138385929829571	0.000665798626193613	0.00306499124822455	0.000665876765538677	0.00306989150495165	-0.00947721373935896	-0.0127432286575835
8.1	-0.00211786208221757	0.0146743203054417	0.00107675756747599	0.00294791533943412	0.00109590809710997	0.00294901385443361	-0.0102699230429032	-0.0128012777900142
8.2	0.000745529506713794	0.0147356829709033	0.00148202043139908	0.00276749189208984	0.00149127376890301	0.00276030011301777	-0.0111951568542313	-0.0124378850655287
8.3	0.00350282747977232	0.0140897651180201	0.00185911540440297	0.00252871012891406	0.00185746528088511	0.00254226431137468	-0.0119917838261767	-0.0118736757210684
8.4	0.0059595000059989	0.0128594756095375	0.00219550750321637	0.00225105724550229	0.00219247601911767	0.00225083160377316	-0.012720218623795	-0.0112023387793221
8.5	0.00782031669014065	0.0111709522325799	0.00248185885548324	0.00192027894904421	0.00248096067375648	0.00192346365507146	-0.0132091695137373	-0.0104478749346535
8.6	0.00941620211614516	0.00956598018154865	0.00272839861418581	0.00155969014192403	0.00273790283827234	0.00155314794993064	-0.0137456242030793	-0.0100505699575501
8.7	0.010952067489661	0.0074998616716838	0.00291443722641326	0.00115675969891191	0.00291999911323113	0.00115748359909988	-0.0145442411775508	-0.00953024515160508
8.8	0.0121110556737594	0.00496466699602887	0.0030512257683124	0.000745671280915962	0.00305699716697341	0.000736908614782929	-0.0154753420571434	-0.00884138901112748
8.9	0.0127997692113739	0.00189652471829478	0.00312880825900766	0.000311504051383317	0.00312793710303752	0.000309256094496825	-0.01618062232024	-0.00767529090408893
9	0.0125114511277713	-0.00154602520215183	0.00313872907641131	-0.000131925441115813	0.00314188692891471	-0.000127822706819333	-0.0162003647388466	-0.00626032261810732
9.1	0.011487291563549	-0.00472787780899026	0.00309268934288453	-0.000573556402737534	0.00309557441660694	-0.000560655237291292	-0.0158275422622781	-0.00530479368182362
9.2	0.00975601797960537	-0.00778112685559121	0.00298333051142238	-0.000991397083672012	0.00299099051488482	-0.000994274448623881	-0.0154719882267245	-0.00455276213174458
9.3	0.007260133874863	-0.0104167104542982	0.00281486961160735	-0.00139697632314643	0.00281413867247751	-0.00140196841929942	-0.0150077901246909	-0.00388648783972054
9.4	0.00411202138619419	-0.0124606747631156	0.00259251533773977	-0.00178758800718479	0.00259902888437891	-0.00177998771917422	-0.0145409595659481	-0.00337476239900366
9.5	0.000277039884957315	-0.0135058423502282	0.00231745354852648	-0.00212229111117715	0.00232486798478169	-0.00212363885262264	-0.0139901005316862	-0.00300996958907632
9.6	-0.00354476609371469	-0.013381961368723	0.0020004738958055	-0.00242644838188938	0.00200080383101031	-0.00242546605323643	-0.0139929898923541	-0.00304995075498411
9.7	-0.00712346082898926	-0.0125402099092827	0.00163324299784824	-0.00267757306195058	0.00163877966509462	-0.00268488158495405	-0.0143517550570057	-0.00270954487203135
9.8	-0.0105262151782028	-0.01107332519748	0.00124811608104153	-0.00288706260000773	0.00125381574889012	-0.00287856143833211	-0.0147519091516047	-0.00204920968223836
9.9	-0.0136603211598925	-0.00896660560030981	0.000842517646480054	-0.00302691392549518	0.000835183956260312	-0.00302568738651666	-0.0151526606500681	-0.00100420863978027
10	-0.0167022842638411	-0.0062208183058277	0.000411889748635858	-0.00311670071303475	0.000404398105181181	-0.00312914826623328	-0.0150135584562342	0.000204495620380894
10.1	-0.0190112305727854	-0.00242444625230659	-3.08705172304854E-05	-0.00314855713977716	-4.11057659586755E-05	-0.00314316235415785	-0.014655024815395	0.000937415331084528
10.2	-0.0202379759863446	0.00170892841107371	-0.000477610880137605	-0.00311188174777882	-0.000481018870577326	-0.00310910158561137	-0.0143535953754701	0.00166252440861718
10.3	-0.0205538339015056	0.00593925448374797	-0.00091070347913391	-0.0030061409548506	-0.00090261046519676	-0.00301521804899717	-0.0139518112853186	0.00238706613150472
10.4	-0.0200382872310683	0.010003887714751	-0.00130848946605908	-0.00285127743196322	-0.00130679392327313	-0.00285747572473977	-0.0132870622452011	0.00302424928427364
10.5	-0.019096914116795	0.0140220303314583	-0.00170040173205695	-0.00265218297560612	-0.0016972948048787	-0.00263917797585634	-0.0122715578963809	0.00348790929993711
10.6	-0.0172390729626172	0.0182499465131487	-0.00205328545109082	-0.00238174883276368	-0.00205109901682145	-0.00238557340091319	-0.0114057135153582	0.00335031960527926
10.7	-0.0143650665988709	0.0221782507495981	-0.00236853810208351	-0.00207933086267107	-0.00236504104629935	-0.00207404927660431	-0.0108453025430091	0.00324768524478864
10.8	-0.0105638508045651	0.025539585344335	-0.0026375331411617	-0.00171890909477677	-0.00263233538207361	-0.00172783868301093	-0.010505022109344	0.00314872099376298
10.9	-0.00607903650079752	0.0280442424263373	-0.00284545496841315	-0.00134451229229455	-0.00285064343504233	-0.00134377953905152	-0.0103220928678772	0.00322741291434118
11	-0.00126151032303258	0.0296928726588882	-0.00300437593649179	-0.00092791543913636	-0.00300922271888722	-0.000934655189643972	-0.00983087105883161	0.00343554508119833
11.1	0.00412714901978465	0.0307587532082858	-0.00311259745375777	-0.000502909103329987	-0.0031017364149287	-0.000500052047678622	-0.00942070238445903	0.00322194112046616
11.2	0.0100251440462129	0.0304803081403749	-0.00314179823731802	-6.52209940236738E-05	-0.00314895252446535	-7.00560161744836E-05	-0.00917957807556844	0.00313750000053946
11.3	0.0159671854543837	0.0287365480634625	-0.00311491679817546	0.000383424676292888	-0.00312646072888342	0.000373389908989715	-0.00882325267114611	0.00320504589014625
11.4	0.0212956099680189	0.0256416960451633	-0.00304125359684265	0.000811156836268791	-0.00303633816451465	0.000818721740683459	-0.00844762217571747	0.00330166243664239
11.5	0.0255693312477245	0.0215368472605035	-0.00289805477584223	0.00122671969500072	-0.00290083133406227	0.00123699595528086	-0.0078493566527707	0.00316621277519871
11.6	0.029210922500821	0.0169208387418369	-0.00270379250101921	0.00161707339414375	-0.0027037731271208	0.00162001348138955	-0.00743463448158814	0.00254188988359417
11.7	0.0321273874024531	0.0114496777870392	-0.0024426606689057	0.00197187597110052	-0.00244322345016938	0.00198048086576418	-0.00731675996866644	0.00201080552792449
11.8	0.0339420372560855	0.00530880164414909	-0.00214746465621416	0.00230420545855525	-0.00215157968509122	0.00230590446955692	-0.0072450838448785	0.00175042701038995
11.9	0.0344645789341041	-0.00129337002199195	-0.0017982556444409	0.00258055285807055	-0.00181127711153187	0.00258486177276803	-0.0070167491321507	0.00201350472951701
12	0.0331216801769134	-0.0077088838318474	-0.00142482636103286	0.00280390642011784	-0.0014242301931424	0.00280531824925593	-0.00623808480865018	0.00209855459339145
