# GHZ S RI R 50
0.2	0.00597624080684572	0.00117659428864247	0.00304836443988544	-0.000898013892770716	0.00305873339471811	-0.000891205132856807	-0.0139744975709545	0.00482887380986223
0.3	0.00631105683228504	-0.000756050522998578	0.00290408192830842	-0.00132144462150979	0.00289683617221346	-0.00130850572375776	-0.0131604016054233	0.00504510890334588
0.4	0.00605357819680792	-0.00243026378879299	0.00267238111348373	-0.00169316002238511	0.00267764803195766	-0.00170172053160016	-0.0126523333306952	0.00556125021861685
0.5	0.00530459920814489	-0.00378550188983036	0.00241357972545755	-0.00204976604238778	0.00242511647423644	-0.00206200556121167	-0.0121794245830811	0.00620689082952435
0.6	0.00432893802169831	-0.00484808577773202	0.00210100884638258	-0.00236425846780774	0.00210022216176302	-0.00237140756625337	-0.0116639980675014	0.00677025518220088
0.7	0.0030233804949803	-0.0055531046289912	0.00175383618854255	-0.00264190293097484	0.00175188035370776	-0.00264210167764748	-0.011335329034104	0.0073529062840108
0.8	0.00168301337987445	-0.00589451542985533	0.00136846467111733	-0.00285917189487352	0.00135586607790838	-0.00286372022347198	-0.0110045911965782	0.00809521439691553
0.9	0.000266304978346705	-0.005889867959916	0.000951523855100315	-0.00302263502823348	0.000952558684484506	-0.00303333294053395	-0.0106041341612346	0.00885992359075013
1	-0.00116474002636933	-0.00560485426074579	0.000526762359384013	-0.00312608837934551	0.000516901601674502	-0.00312682831763146	-0.0101499855462364	0.00965223514117459
1.1	-0.00252284197435676	-0.00505603287843687	7.12063197614258E-05	-0.00315478888234932	6.76996462039904E-05	-0.00317243688027765	-0.0096235140974303	0.0105357787236917
1.2	-0.00385419596011361	-0.00455920506169732	-0.000370778182241174	-0.00314417759142106	-0.000371589866413571	-0.0031421014844982	-0.00873679410494292	0.0113478265818707
1.3	-0.00527812972128748	-0.00411208718269655	-0.000797785289881741	-0.00306102048070501	-0.000801024822982772	-0.00306302547690847	-0.00726755947807202	0.0119733637454792
1.4	-0.00648118779816338	-0.00351191056281263	-0.00121901486665557	-0.00291286413331568	-0.00121780182824386	-0.00291839656472378	-0.00559785258432734	0.0118716067434911
1.5	-0.00701489062852698	-0.00235789115268404	-0.0016198500729367	-0.00271699729696286	-0.00161823818783698	-0.00272549647784977	-0.0042434270137571	0.0114558944615175
1.6	-0.00689936820771289	-0.000843214927350232	-0.00198026905050486	-0.00246469898809922	-0.00198047971142033	-0.00246993258675739	-0.00361889625007574	0.0113368053348902
1.7	-0.00628931856866015	0.000657824028233321	-0.002308716439838	-0.00216799103111664	-0.0023096823377438	-0.00216173025491358	-0.00299032311627203	0.011536153612719
1.8	-0.00535730213477817	0.00208477302035511	-0.00257981883388114	-0.00181660379887948	-0.00259078345760346	-0.00182224056419272	-0.0022921660082294	0.0117252633367406
1.9	-0.00415862563928201	0.0031503525717928	-0.00280525188261368	-0.00144591461259582	-0.00281769087559416	-0.0014397623497255	-0.00161834435576099	0.0118790686832013
2	-0.00283238763542172	0.00393615038608724	-0.00298092281989643	-0.00103828421865671	-0.00299054388442729	-0.00103357664369035	-0.000987476505111781	0.0121210429174445
2.1	-0.00134011059325955	0.0043090152053572	-0.00309452722177152	-0.000609900027857907	-0.00309044415010618	-0.000611891541372183	-0.000141440531304187	0.0122601964386463
2.2	0.00011222156628583	0.00434368718621212	-0.00315193450729899	-0.000171509363716411	-0.00316323748728763	-0.000174344892642333	0.000843365973332025	0.0122416524189001
2.3	0.00150015108068539	0.00394583409421758	-0.00314721373196234	0.000272003828543039	-0.00314691177480949	0.000265121465227915	0.0017806121121871	0.0119654817421081
2.4	0.00270272680281818	0.00324880773375405	-0.00307461218561283	0.000710398797519198	-0.00307715350786865	0.00070614216871449	0.00263277653019567	0.0116272772211407
2.5	0.00364762200951306	0.0022722819789183	-0.00293743346907924	0.00112266447229799	-0.002948320736246	0.00112904525104002	0.00342507118845101	0.0111900582035828
2.6	0.00444489050515717	0.00113408871802918	-0.00276326008887391	0.00152578510844044	-0.00275970580974501	0.00151346308333615	0.00424664289854702	0.010690241209696
2.7	0.00508758674956643	-0.000178745369470148	-0.00251703292424463	0.00189703526388301	-0.00252231225075639	0.00189704742564081	0.00490594659314361	0.0100827294729375
2.8	0.00560592741935978	-0.00168712685457971	-0.00223382802227873	0.0022243174914928	-0.00222601313071944	0.00223410371478012	0.00543079533416737	0.0095932220873139
2.9	0.00592607083794507	-0.00342497772507805	-0.00189925333113822	0.00252417335469524	-0.00189554512204436	0.00252374557529486	0.00611344252395586	0.00926078531229984
3	0.00583503657824188	-0.00531889254771414	-0.00151274402046619	0.00275930935021025	-0.00152751989774618	0.00276541140569011	0.00695262729642954	0.00894575442676924
3.1	0.00538322469082467	-0.00725977277731178	-0.00112229355244841	0.00293595895327928	-0.0011176357607742	0.00294429814700307	0.0078028703920005	0.00844920153535725
3.2	0.00434640705314114	-0.00914801619624077	-0.000701792754402672	0.0030726654914074	-0.000703536864470204	0.00307205541272486	0.00840341092779862	0.00795112252968241
3.3	0.00285594362995178	-0.0109162880363973	-0.000263460278301603	0.00314208063468387	-0.000261812754082184	0.00313834125091908	0.00909017598170068	0.00736661773327539
3.4	0.000848983752806287	-0.012318126137961	0.000183216222481395	0.00313570464803491	0.000177015867373896	0.00315226558955792	0.00975941885507509	0.00654198883115534
3.5	-0.00150422505012053	-0.0133184120019311	0.000604847188408095	0.00309249419014796	0.000610441317889944	0.00309256864823925	0.0101376558060484	0.00548435204813709
3.6	-0.00409323269570103	-0.0137665842082048	0.00103301202831062	0.00297306075535553	0.00104120146931511	0.00297274217550159	0.0103410491034022	0.00458445254593955
3.7	-0.00676364413507094	-0.013652857111076	0.00144339698751091	0.00279194958150577	0.00143381513471917	0.00280562306533984	0.0105500436123767	0.00373456768038945
3.8	-0.00939941980213539	-0.0129557452825223	0.00182137125010545	0.00256467912414088	0.0018237761617339	0.00257382649325254	0.0106783805923699	0.00288317811260247
3.9	-0.0117726387875957	-0.0117441997973787	0.0021670548528542	0.00229140619513307	0.00215979078089438	0.00228962834741146	0.0107018541685082	0.00206123970222515
4	-0.0138702649707576	-0.0100928736436951	0.00245152991182857	0.00197009517511891	0.00245597738974499	0.00196766074175507	0.0107268436280707	0.0014171187646428
4.1	-0.0155681810894073	-0.00810617415607827	0.00270341604172054	0.00161010714129526	0.00270216378882376	0.00161084295911256	0.0109631781459801	0.000826947517534877
4.2	-0.0169393027990819	-0.00582611261093554	0.00290251828196533	0.001208702579973	0.0029069820773293	0.00119998762190193	0.0112284592098922	0.000120832665006828
4.3	-0.017898489323409	-0.00337836246717272	0.00304530835250329	0.000796436839039896	0.00305172840610745	0.000788634349533088	0.0114450174209342	-0.000769258198928493
4.4	-0.0185277296224329	-0.000743810864417957	0.00312129013833791	0.000362225445655861	0.00312366359602697	0.000359968994907769	0.011450170127309	-0.00169149153403201
4.5	-0.0187374344407264	0.00206255283460781	0.00314374799687653	-7.57122009589292E-05	0.00314910656144904	-7.90856177744823E-05	0.0113876477047218	-0.00255287248322193
4.6	-0.0184729513354499	0.00489321755063766	0.00309935773615578	-0.00051853003010214	0.0031005889499569	-0.000505620600421923	0.0112548057773744	-0.00349156461756427
4.7	-0.0176239535862198	0.00770660080302065	0.00299375895927019	-0.000937141896831122	0.00300903710521321	-0.000946758952902219	0.0109399493992493	-0.00444008539612073
4.8	-0.0162788889070413	0.0103411599502185	0.00283240517540501	-0.00135089392414621	0.00284087856031949	-0.00135698233705102	0.010521943908008	-0.00525592535604136
4.9	-0.0142583338415904	0.0126565713094277	0.00261150643833612	-0.00173459696635184	0.00261567123234428	-0.0017316944392634	0.0101342650021617	-0.00590839020164186
5	-0.011792735691051	0.0144450551984121	0.00235173337245646	-0.00208935480545758	0.0023553537264882	-0.00208669289457139	0.0100045376036608	-0.00644367076626848
5.1	-0.00882360301287047	0.0156724169079212	0.00204091250969244	-0.0023994071002174	0.00204321188948647	-0.00239805075857136	0.0100302963352524	-0.00715837585647788
5.2	-0.00578315906649665	0.0162026849384552	0.00168354992665553	-0.0026487802478017	0.00168526104417267	-0.00265391937197303	0.00994389152514642	-0.00796070782221023
5.3	-0.00274527260678877	0.0161375162928867	0.0012971977507978	-0.00286376423052743	0.0013003278901829	-0.00286170357254179	0.00976523719081734	-0.00869567352455745
5.4	0.000120811394061687	0.0155296200465381	0.000872815568341748	-0.00301094727895034	0.000889965514844704	-0.00302214708801499	0.00956154757698309	-0.00958291913282005
5.5	0.00267392629205509	0.0145087332628082	0.000459651556244029	-0.00310850259747861	0.000469695342578538	-0.00311792264691294	0.00908355118091862	-0.0105633029533543
5.6	0.00493599657860099	0.0130715640524321	2.17857846843917E-05	-0.00314445184232141	1.3267911026348E-05	-0.00314766802351146	0.00828220141227659	-0.0113874763367476
5.7	0.00673247628659346	0.0113340896243765	-0.000408732323801413	-0.00311398753757634	-0.000425330197562545	-0.00311764608131279	0.00727820452811878	-0.011902650015377
5.8	0.00812975862156903	0.00935308572710302	-0.000854149995793238	-0.00301918928074296	-0.000857681237238545	-0.00303316676672485	0.00629851439331536	-0.012369211162658
5.9	0.00904672050512718	0.0072388815623868	-0.00125863682298448	-0.00287938021895486	-0.0012668604709967	-0.00287929942455361	0.00518234782556926	-0.0127260494571931
6	0.00943842000609074	0.00499824946824706	-0.00165640594549298	-0.00267333092007694	-0.00165284771077533	-0.00267349700957891	0.00390551391224487	-0.0128009445363357
6.1	0.009411014121128	0.00273319902660827	-0.00201121364896508	-0.00241915608062692	-0.00201285212808451	-0.0024151551136452	0.0029424966710593	-0.0125620457713024
6.2	0.00890541132798634	0.000416521620205566	-0.00232373865046086	-0.00210619028803311	-0.0023274442478116	-0.00211805193734653	0.0023030819942784	-0.01244158379379
6.3	0.0080095998141238	-0.00185326446220534	-0.00260120600916883	-0.00177193312295388	-0.00261032700470097	-0.00176619903956737	0.00181879606085052	-0.0126136708241461
6.4	0.00660383643771622	-0.00401591016208937	-0.0028271427553564	-0.00138155849908954	-0.00281742628595121	-0.00138645704741448	0.00134799115896445	-0.0129504131411401
6.5	0.00480515607325251	-0.00581028003619833	-0.00298348922521782	-0.000977011859382842	-0.00299134396674658	-0.000972534486147367	0.000872221807176912	-0.0133778917574578
6.6	0.00272660973093348	-0.00707770528939226	-0.00309153697832732	-0.000552367971022314	-0.00309316864063373	-0.000556341522656462	0.000339700887411342	-0.0138663990479943
6.7	0.000467971635644861	-0.00772727998714767	-0.00314205666401017	-0.000115051640021868	-0.00315090387827116	-0.000108779221167415	-0.000568033203050437	-0.0142144133002178
6.8	-0.00183640725738971	-0.00776455056182339	-0.00312062640627856	0.00032589227428208	-0.00313171103703251	0.000330934026371221	-0.0016151698088419	-0.0142197536705104
6.9	-0.00409900405906142	-0.00725856072771497	-0.00304553425050858	0.00075870503378629	-0.00304851934797638	0.000761092919391075	-0.00256327653938396	-0.0140094495275882
7	-0.00616519255045963	-0.0061745040516225	-0.00290930025427493	0.00117906158198674	-0.00292211897946652	0.00117686362903277	-0.00341873031085431	-0.0137272145795242
7.1	-0.00796375003578488	-0.00466951241430204	-0.00273197348325386	0.00156742846238671	-0.00272831511756596	0.00157608866065696	-0.00426095543590381	-0.0133235334690759
7.2	-0.00945600348391502	-0.00277587794990318	-0.00247621988411309	0.00193505327229352	-0.00248274558659042	0.00193712816588067	-0.00496776730588361	-0.0127784979039216
7.3	-0.0106125370766821	-0.000588913550511331	-0.00218162877000832	0.00225399493193425	-0.00219283709189182	0.00225903932091612	-0.00542883658236411	-0.0122959365352239
7.4	-0.0113838549508516	0.00179122575923561	-0.00184098926552488	0.00253735214235239	-0.00184787698911118	0.00255094881500965	-0.00590265079306846	-0.0120640605984578
7.5	-0.0117152120404107	0.00431944791650313	-0.0014761739216875	0.00277700177639071	-0.0014691896458381	0.00278439875036394	-0.0063169317471036	-0.0119346035123827
7.6	-0.0113516961846149	0.00682861884451497	-0.00107076583480664	0.00295612207967284	-0.00107213660167131	0.00295142568900455	-0.006630142044503	-0.0120001001131198
7.7	-0.0105016513736559	0.00912002563195174	-0.000642946570138234	0.00307831834569301	-0.000644285620562824	0.00307725584599082	-0.0072198837280784	-0.0125157830518725
7.8	-0.00891000915849888	0.0110347904345845	-0.000217452597828243	0.00312838269613375	-0.000225264172667622	0.0031348335708843	-0.00809394449407908	-0.0127924267743752
7.9	-0.00679047694425217	0.0124276628040085	0.000223755078454551	0.00313640202997338	0.00023169564422128	0.00313790641263262	-0.0090216164385445	-0.0127407705688153
8	-0.00431232343422008	0.0133499821482803	0.000665764453450061	0.00306503842200021	0.000665842525936222	0.00306993874050704	-0.00998931526418638	-0.0124678621867752
8.1	-0.00160584403280197	0.0137148656179671	0.00107680157627892	0.00294804702188274	0.00109595295145231	0.00294914560891144	-0.0108616298529946	-0.0120143252097201
8.2	0.0010538335052492	0.0135454815567946	0.00148216057691942	0.00276756208702273	0.00149141408471942	0.00276036974814778	-0.0116131507291182	-0.0113605019045901
8.3	0.00361903860689026	0.0128512382453959	0.00185928228353065	0.00252868107068482	0.00185763277532689	0.00254223565866738	-0.0122073040003336	-0.0106806617924917
8.4	0.00594884548171498	0.0117180473170883	0.00219560255291843	0.00225093348038319	0.00219257107917226	0.00225070798915988	-0.0127816100668152	-0.0100857060960429
8.5	0.00798240722340536	0.0101491513166786	0.00248190763129053	0.00192023726854878	0.00248100950956849	0.00192342200582024	-0.0134668759651702	-0.00940393209323464
8.6	0.0096825057869409	0.00822298627092153	0.00272849199823687	0.00155956247131502	0.0027379959486769	0.00155301976710011	-0.0140527807268473	-0.00866176919192784
8.7	0.0109672306978945	0.00592420126188663	0.00291445077959916	0.00115658693028162	0.00292001261393353	0.00115731052495815	-0.0145899843970896	-0.00791540984886144
8.8	0.0117739414688677	0.00337248797047647	0.00305115994742791	0.000745508852409252	0.00305693076116675	0.000736746211016771	-0.0151589359102035	-0.00720553907251199
8.9	0.0121350435861411	0.000548830156787259	0.00312869584239403	0.00031141219331659	0.00312782466255046	0.000309164345145067	-0.0155237702358007	-0.00630783647713771
9	0.0118816316504766	-0.00247322858944111	0.00313864173534534	-0.000132043725250354	0.00314179966424685	-0.000127941220913621	-0.0156195141443536	-0.00531111951225554
9.1	0.0110377911657835	-0.0055636130809315	0.00309248301990925	-0.00057360184919752	0.0030953682527401	-0.000560701557311587	-0.0154109501747637	-0.00442912569692841
9.2	0.00939770382338417	-0.00852319424949273	0.00298316001329766	-0.000991327873693369	0.0029908195802407	-0.000994205041550852	-0.0151451748356411	-0.00375135744795864
9.3	0.00706590481531439	-0.0110798622065156	0.00281478429995974	-0.00139685389246776	0.00281405350523382	-0.00140184579744471	-0.0148073268886687	-0.00313217714811531
9.4	0.0041297921566397	-0.0130847971030864	0.0025925327911776	-0.0017875059416234	0.00259904608420046	-0.00177990557114788	-0.0144987269166782	-0.00267454607186491
9.5	0.000670416609670465	-0.01421744776789	0.00231741967786846	-0.00212225732736865	0.00232483400217249	-0.00212360504355444	-0.01430474781335	-0.00220518012755286
9.6	-0.00304459763088036	-0.014575436301524	0.002000508138085	-0.00242638626825131	0.00200083804982083	-0.00242540394086995	-0.0143432210787554	-0.00180549210525025
9.7	-0.00685991226190397	-0.0140125103863162	0.00163329629994431	-0.00267757463911793	0.00163883312254306	-0.00268488315103818	-0.014462022144006	-0.00123626477951153
9.8	-0.0105535638820134	-0.0126042054455607	0.00124814404557053	-0.00288711327573295	0.00125384380266529	-0.00287861194822319	-0.0145713283420774	-0.000553678406267863
9.9	-0.0139386262613427	-0.0103119714187668	0.000842470822426494	-0.00302696940909425	0.00083513706008803	-0.00302574271410314	-0.0147332368398965	0.000250074116244085
10	-0.0168532522074997	-0.00728575539162742	0.000411881555610079	-0.00311667427944667	0.000404389958645193	-0.00312912171353931	-0.0147842948812411	0.00117731508574491
10.1	-0.0190152311220147	-0.00364048158863326	-3.08947004627398E-05	-0.00314861720920976	-4.11301048754374E-05	-0.00314322224356249	-0.0145582758914153	0.00204804302078867
10.2	-0.0203732829922108	0.000405528625280572	-0.000477705306800091	-0.00311190634329432	-0.00048111325999095	-0.00310912604997508	-0.0141513440831562	0.00283022124369915
10.3	-0.0208560182035047	0.00471033786201637	-0.000910811784561685	-0.00300609150425061	-0.000902719152651423	-0.00301516885633622	-0.013605412507977	0.00345716349612086
10.4	-0.0204277664615824	0.00904624769679961	-0.00130852714637756	-0.00285114708830596	-0.00130683183419734	-0.00285734522592407	-0.0128984038700654	0.00377784849277741
10.5	-0.0192039287083187	0.0133185260555225	-0.00170036617417894	-0.00265214526828232	-0.00169725933675599	-0.00263914046931074	-0.0122896880097652	0.00393135556109987
10.6	-0.0169774479515995	0.0174171441154864	-0.00205328902310306	-0.00238168697017406	-0.00205110267217909	-0.00238551151413342	-0.0118023002134517	0.0040500738675716
10.7	-0.013977757483561	0.0211536977000615	-0.00236848971532265	-0.00207925592897897	-0.00236499271385159	-0.00207397451377688	-0.0113942392493259	0.00421729700768405
10.8	-0.0101398282045987	0.0243130050282093	-0.00263743025761087	-0.00171886568486278	-0.00263223262380512	-0.00172779492872857	-0.0110508216176287	0.00438764004364304
10.9	-0.00569372205423452	0.0267294662718994	-0.0028453433700886	-0.00134455159058984	-0.00285053171746334	-0.00134381899415869	-0.0107807107054884	0.0045632146473289
11	-0.000664656509532246	0.0283086311452176	-0.00300436027549587	-0.000927924605993776	-0.00300920701039473	-0.000934664350904972	-0.0104898254953561	0.00487686162807423
11.1	0.00473441759549158	0.0288664686591005	-0.00311247744634659	-0.000502920490018955	-0.00310161683698144	-0.000500063435407819	-0.0100344284713707	0.00514485979856334
11.2	0.0102567203337493	0.0282756347879771	-0.00314168367396908	-6.53187709439476E-05	-0.00314883755094858	-7.01538479145884E-05	-0.00943253094866334	0.00535101696877728
11.3	0.0157163582447155	0.0265080082954618	-0.00311486987891028	0.000383272349886094	-0.00312641310480719	0.00037323725599019	-0.00861993537188349	0.00545324919493252
11.4	0.020658473209548	0.0236630300287481	-0.00304129577090592	0.000811012427619964	-0.0030363806945221	0.000818577575407417	-0.00786319823473635	0.00530240668660626
11.5	0.0249601830780624	0.0198696821967485	-0.00289806477514717	0.00122659126704758	-0.0029008416962432	0.00123686728613953	-0.0073123340663285	0.00489609108002776
11.6	0.0285550946310298	0.0151960353043155	-0.00270391039236127	0.00161690380463715	-0.00270389121066479	0.00161984390634455	-0.00680004433563978	0.00434175826672873
11.7	0.031194615684559	0.00988083708896848	-0.00244284429348559	0.00197179511225426	-0.0024434075798562	0.00198040022739037	-0.00638394761746106	0.00365322026763443
11.8	0.0328427856684064	0.00413809293252627	-0.00214764915132539	0.0023042247318603	-0.0021517644286492	0.0023059236591582	-0.00610712550109636	0.0029841918481192
11.9	0.033486561970093	-0.0018692930222352	-0.00179833570936299	0.00258065443626748	-0.00181135772139777	0.00258496349632229	-0.00597675406014978	0.0025999824696995
12	0.0328322310886507	-0.00792018115926071	-0.00142486574743745	0.00280391852425965	-0.00142426958741792	0.00280533037187274	-0.0059208731900599	0.00231704339812599
