# GHZ S RI R 50
0.2	0.00591027716312183	0.00123228047748368	0.00304835147502499	-0.000897912885441941	0.00305872009640572	-0.000891103909142602	-0.0140402999142557	0.00488390623135554
0.3	0.00622110729350796	-0.000719108084733748	0.00290414388524151	-0.00132134236328734	0.00289689761574712	-0.00130840367823987	-0.013250657647892	0.00508134187312795
0.4	0.00597988955850971	-0.0023761320616899	0.00267249320902717	-0.00169311966452835	0.00267776050377354	-0.00170168021488333	-0.0127266903688151	0.00561501871038029
0.5	0.00524016935970607	-0.00378533566766152	0.00241361098494748	-0.00204973625349331	0.00242514791625875	-0.00206197563342905	-0.0122440156764231	0.0062068360126219
0.6	0.00422368390389313	-0.00479826655903536	0.00210115535141838	-0.00236417928974064	0.00210036902372755	-0.00237132851469357	-0.0117700470347251	0.00681939646055942
0.7	0.00296463639548945	-0.00548109235979512	0.0017540149643996	-0.00264192444153746	0.00175205906611989	-0.00264212328005155	-0.0113951498504028	0.00742478770816054
0.8	0.00165414115949305	-0.00582793883570703	0.00136860778329487	-0.00285925211165796	0.00135600879247403	-0.00286380100815359	-0.0110343640577294	0.00816200462000431
0.9	0.000274034450725292	-0.0058138177303666	0.000951616768336241	-0.0030227048617346	0.000952651856995024	-0.00303340307099261	-0.0105969861191003	0.00893615664431037
1	-0.00108333311988701	-0.00559790841796908	0.000526980434116279	-0.00312614807065633	0.00051711942849268	-0.00312688866916619	-0.0100699236821388	0.00965896968212837
1.1	-0.00251760135094795	-0.00506675862106261	7.13359659592196E-05	-0.00315504565631303	6.78296963636148E-05	-0.0031726952438601	-0.00961911353302652	0.0105257429345164
1.2	-0.00382765348711826	-0.00452471894387029	-0.000370758807829913	-0.00314440549869319	-0.000371570579559301	-0.00314232925660539	-0.00871089895991278	0.0113828839287178
1.3	-0.00525918948554212	-0.00405872270330455	-0.00079778845082437	-0.00306121672517688	-0.000801028149778214	-0.00306322188980363	-0.0072492060393312	0.0120278595681051
1.4	-0.00647452895060636	-0.00339837009645989	-0.00121899435789702	-0.00291308814899699	-0.00121778105845856	-0.00291862088811042	-0.00559143956690264	0.0119864511385637
1.5	-0.00702192612061971	-0.00225691361936819	-0.00162001170883613	-0.00271736766726485	-0.00161839948286742	-0.00272586789941292	-0.00425020270446731	0.0115579977568182
1.6	-0.00688015827362565	-0.000694398041503172	-0.00198055679190742	-0.00246480764689423	-0.00198076772910743	-0.00247004167369386	-0.00359836074226797	0.0114849459626264
1.7	-0.00621566298054955	0.000745489371731906	-0.00230890059797371	-0.00216803920505385	-0.00230986636707798	-0.00216177807054977	-0.00291630746210758	0.0116235196407106
1.8	-0.00527523576360898	0.00211071000573338	-0.00257998476112198	-0.00181668910707667	-0.00259095007301718	-0.00182232611291833	-0.00221010941241263	0.0117515257424837
1.9	-0.00406271990874926	0.00311218026334086	-0.00280553233295333	-0.00144602558782646	-0.00281797245067377	-0.00143987262224739	-0.00152224809162321	0.0118415561276601
2	-0.00281357202659134	0.00377862792204158	-0.00298125795607079	-0.00103809574007043	-0.00299087936641122	-0.00103338690706277	-0.000967998938349915	0.0119637446260108
2.1	-0.00142006134361087	0.0042285115216227	-0.00309459821146079	-0.000609786364172118	-0.00309051515715021	-0.000611778069927467	-0.000221346006390009	0.0121797626261898
2.2	5.06397244753006E-05	0.00430595166710431	-0.00315208430701442	-0.000171470748102213	-0.00316338785703112	-0.000174306242297227	0.000781751969582998	0.0122042675395919
2.3	0.00146267976741199	0.00392964183447434	-0.0031474203671964	0.000272116788343187	-0.00314711859585408	0.000265233946257175	0.00174329951304759	0.0119496629080709
2.4	0.00272877101230475	0.00323523508269505	-0.00307474321675713	0.000710664571182609	-0.00307728499951975	0.000706407874248391	0.00265943814412207	0.0116146765480822
2.5	0.00369681586209914	0.00212511710672904	-0.00293729268673013	0.00112273836857662	-0.00294817934788575	0.0011291193470187	0.00347534966215814	0.0110433885588513
2.6	0.00436763244159368	0.000980728093443977	-0.00276344744089758	0.00152576355076987	-0.00275989256160032	0.00151344104932286	0.00416993122057287	0.0105371533943153
2.7	0.00495256712566875	-0.000284059239701088	-0.00251722518047898	0.00189722619638001	-0.0025225049564731	0.00189723842073398	0.00477120687017415	0.00997724472637489
2.8	0.00545593763017449	-0.00171245511205755	-0.0022338910995887	0.00222457657496222	-0.00222607521224739	0.00223436315970449	0.00528048683294543	0.00956782959857082
2.9	0.00583380548619274	-0.0034096238704828	-0.00189920263213913	0.00252430754131447	-0.00189549434935939	0.00252387960924498	0.00602122938921916	0.00927733899407312
3	0.00572528629712865	-0.00535337684457263	-0.00151303256834361	0.00275941702892036	-0.00152780993057089	0.00276551859147258	0.00684263451586005	0.00891329950317272
3.1	0.00526247782599919	-0.00720098001283232	-0.00112234966299702	0.00293645857374386	-0.00111769081580463	0.00294479887210957	0.00768367348106312	0.00851061422186358
3.2	0.00429365727444026	-0.00906809805493809	-0.000701624578715475	0.00307304609352594	-0.000703368921525797	0.00307243608789358	0.00835225647414602	0.00803254593024307
3.3	0.00285427985701208	-0.0108381347779	-0.000263282543698406	0.00314234136342317	-0.000261635127362542	0.00313860158521809	0.00908997291051924	0.00744600910319927
3.4	0.000919899177484313	-0.0122660773240151	0.000183269572691045	0.00313601789563139	0.000177068778621293	0.00315258057138672	0.00983126807503401	0.00659613313271559
3.5	-0.00145848954448341	-0.0133758635985602	0.00060525898587632	0.00309315796809185	0.000610854418716779	0.00309323195216684	0.0101873624899893	0.00542935011451144
3.6	-0.00407889368996484	-0.0137349373845756	0.00103372057222814	0.00297320764201356	0.00104191091647719	0.00297288740853993	0.0103604202820022	0.00461529481802806
3.7	-0.00665081475841854	-0.0136116620533077	0.00144394542098851	0.00279192650157823	0.00143436502842681	0.00280560250949694	0.0106665372032188	0.00377438197635191
3.8	-0.0091999421006439	-0.0129737778147665	0.00182190444331407	0.00256464375784177	0.00182431089262821	0.00257379159286166	0.0108814333397829	0.00286395709545324
3.9	-0.0115066139346257	-0.0118976599169706	0.00216779188784073	0.00229131257916419	0.00216052646798301	0.00228953586582952	0.0109731841777736	0.00190606399246337
4	-0.0137398079201319	-0.010461181491375	0.00245229367218466	0.00196930259083042	0.0024567404413484	0.0019668665307214	0.0108623966002672	0.00104130556091708
4.1	-0.0156161688590047	-0.00838736934549113	0.00270350480730987	0.00160935934746108	0.00270225283720907	0.00161009536739647	0.0109152261899625	0.000539432250445473
4.2	-0.0170046043118731	-0.00603935343471469	0.00290255126178258	0.00120813005707248	0.00290701328777498	0.00119941485631497	0.0111631031070482	-9.78025007980649E-05
4.3	-0.0179573807688125	-0.00355960761620929	0.00304531222010149	0.000795815162691672	0.00305173046724536	0.000788011825110796	0.0113846909686206	-0.000956291836547712
4.4	-0.0185425791478464	-0.000935647723742234	0.00312106018561193	0.000361406683759252	0.00312343283447552	0.000359149870515874	0.0114316807253644	-0.00189027395863337
4.5	-0.0188366023045001	0.00173523870986723	0.00314285883082558	-7.60871844657162E-05	0.00314821547095755	-7.94603326736933E-05	0.0112796607238264	-0.00288189028579668
4.6	-0.0187175019324724	0.00469666498272629	0.00309897757503663	-0.000518431488924284	0.00310020849399797	-0.000505523652879177	0.0110067675313224	-0.00368649891979295
4.7	-0.0178592344268636	0.0076116166404362	0.00299352599747622	-0.000937206025686635	0.00300880275297047	-0.000946823095931227	0.0107024328075938	-0.00453510413316044
4.8	-0.0164824213685009	0.0103293253433232	0.00283207166610776	-0.00135100035622752	0.00284054389697608	-0.00135708892105399	0.0103158126562303	-0.00526807348932063
4.9	-0.0143694196859172	0.0126871021900755	0.00261103373783287	-0.00173443776223712	0.00261519801109918	-0.00173153585251197	0.0100192792752455	-0.00587582774380713
5	-0.011931938538934	0.0144118344074712	0.00235192664225472	-0.00208899030891588	0.00235554654476624	-0.00208632801929062	0.00986789186044451	-0.00647349811734207
5.1	-0.00892405546166753	0.0157960751549677	0.00204095574119788	-0.00239971800674569	0.00204325538687046	-0.002398361674071	0.009930832607643	-0.00703805593214372
5.2	-0.00572719086226164	0.0163006142007619	0.00168326708500339	-0.0026489716563663	0.00168497764889124	-0.00265411098273442	0.009997504827205	-0.00786510260085696
5.3	-0.00262783125146388	0.0161292945860356	0.0012969211495419	-0.0028637536845645	0.00130005132803265	-0.0028616933542008	0.00988006268231273	-0.00870429358531641
5.4	0.000243313952793353	0.0154108666803708	0.00087281774958673	-0.00301096644346559	0.000889967788546637	-0.00302216633818021	0.00968397294494676	-0.00970212258086633
5.5	0.00259832322859382	0.0142811877351765	0.000459257492064183	-0.00310915330394578	0.000469301697703553	-0.00311857666051912	0.00900480886425281	-0.0107968720651481
5.6	0.0048345422582624	0.013109461303891	2.08620767740868E-05	-0.00314438129376808	1.23434673666837E-05	-0.00314759489550155	0.00817338449297954	-0.0113496675271132
5.7	0.00682609414671019	0.0114185766568029	-0.000409377885010231	-0.00311356190813344	-0.000425974782617214	-0.00311721638277968	0.00736641364757843	-0.0118153140337314
5.8	0.00839128084625935	0.00936858174341335	-0.000854591618702576	-0.00301871830025346	-0.000858124949510776	-0.00303269368038783	0.00655621266557696	-0.0123506534663493
5.9	0.00949835285431081	0.00706613351027995	-0.00125919900347474	-0.00287897193684147	-0.00126742224423994	-0.00287888937024702	0.00562981743832971	-0.0128959432105254
6	0.00980008620429322	0.00433413122717834	-0.00165705150478853	-0.0026720434281958	-0.00165349418834139	-0.00267221086590511	0.00426144909842015	-0.0134574859543558
6.1	0.00935923792750088	0.00202466000744359	-0.00201077187217904	-0.00241796274064748	-0.00201240918798351	-0.00241396307943336	0.00289123453918312	-0.0132618942434743
6.2	0.00860573966018515	-0.000185985166337448	-0.00232315657828046	-0.00210548446613546	-0.0023268616053782	-0.00211734253544735	0.00200627719488428	-0.0130379741121003
6.3	0.00758073792232885	-0.00221962806343323	-0.00260069217518194	-0.00177138442497863	-0.00260981074561975	-0.00176565120224861	0.0013931699296347	-0.0129767821554236
6.4	0.00627313251797682	-0.00420968622269178	-0.00282654157519298	-0.00138080019748189	-0.00281682845140302	-0.00138569867541437	0.00101984135073434	-0.0131416233925886
6.5	0.00440649515780789	-0.00599177578292717	-0.00298201817978148	-0.000976730184696677	-0.00298986947532393	-0.000972255405976739	0.000477562312442085	-0.0135561187546623
6.6	0.00246104898582823	-0.00702836698542168	-0.00309075799097979	-0.000552842405740456	-0.00309238853390719	-0.000556815406553137	7.61705544077483E-05	-0.0138159560246271
6.7	0.000334738131933206	-0.00772500176779146	-0.00314157804440124	-0.000115291593602213	-0.00315042445077938	-0.000109020835438247	-0.00070051444727077	-0.014210857291269
6.8	-0.00193244559787977	-0.00776894809471385	-0.00312000644694682	0.000325754846506092	-0.00313108896501131	0.000330795329444584	-0.00171071932216453	-0.0142218541814375
6.9	-0.00407641983274058	-0.00730701184781895	-0.00304461442509388	0.00075817136021674	-0.00304759877573376	0.000760558187560953	-0.00254011668320672	-0.0140558600056768
7	-0.00633467223198647	-0.00642257421323543	-0.00290930656149492	0.00117791035878309	-0.00292212279608891	0.00117570833794896	-0.00358548378348628	-0.0139729908767461
7.1	-0.00819357414632681	-0.00458499889121595	-0.00273214048302289	0.00156715674147537	-0.00272848298266811	0.00157581733646845	-0.00448869781904226	-0.0132386444838764
7.2	-0.00947704903155177	-0.00259910881108171	-0.00247607319494823	0.00193473039115988	-0.00248259835292169	0.0019368047364208	-0.00498777017551324	-0.0126000875289938
7.3	-0.0104457442186959	-0.000406410231501595	-0.00218157203232342	0.00225342481723952	-0.00219277932154317	0.00225846721293722	-0.00526061547308321	-0.0121087748128546
7.4	-0.0109279652241047	0.0018873082997606	-0.0018414894449676	0.00253679146669643	-0.00184838000085766	0.00255038583215297	-0.0054455592467164	-0.0119714731195559
7.5	-0.0112210935776241	0.00393133649713475	-0.00147646827251339	0.00277755177541907	-0.00146948261545001	0.00278495022049831	-0.00582741662710483	-0.0123364314326528
7.6	-0.0111059622605477	0.00642635656728875	-0.00107021099922758	0.00295604070450818	-0.00107158238818191	0.0029513449257359	-0.0063727004810989	-0.0124093665272456
7.7	-0.0103146740517483	0.00865915615711863	-0.000642700791199183	0.00307781454540989	-0.000644039656718179	0.00307675228788856	-0.00703595364451063	-0.0129736790929219
7.8	-0.00882310869400991	0.0105509198271989	-0.000217499757501169	0.00312791668594894	-0.000225310345700851	0.00313436641342095	-0.00800391543222021	-0.0132721571543936
7.9	-0.00675896381894717	0.0118854749394197	0.00022384120038706	0.00313625294801343	0.000231781452281642	0.00313775701872956	-0.0090196331243634	-0.0132936045936108
8	-0.00469863168177516	0.012755584430943	0.000666298316197472	0.0030639546648342	0.000666377539620653	0.00306885348704852	-0.0103619867485814	-0.0130624496749678
8.1	-0.00199134734792554	0.0135424734478238	0.00107602365242408	0.0029468668300331	0.0010951665205539	0.0029479669236074	-0.0112470340555236	-0.0121730164851091
8.2	0.000809359017716801	0.0134661124038335	0.00148113893721235	0.00276709507414814	0.00149039136807833	0.0027599067881097	-0.0118510916470893	-0.0114330589754817
8.3	0.00346249131633354	0.0128134969619178	0.00185848721859147	0.00252856619305294	0.00185683553416069	0.00254211804648556	-0.0123581362674845	-0.0107158541663495
8.4	0.00594382706804038	0.0116383523144839	0.00219498274394725	0.00225051454395077	0.00219195198740469	0.00225028895953385	-0.0127823964863621	-0.010160099087636
8.5	0.0077700045837385	0.00985210414188473	0.0024801398442517	0.00192009642253188	0.00247924116256133	0.00192327937562702	-0.0136629279660967	-0.00969616950731785
8.6	0.00939555321231115	0.00830464603862903	0.00272743114120406	0.00156056164028896	0.00273693670771254	0.00155402403653665	-0.0143293060309431	-0.00858791017719127
8.7	0.0109128317481239	0.00613153326190895	0.00291394258436816	0.00115741427794655	0.00291950390143377	0.00115813953060722	-0.0146399889831817	-0.00771456138886394
8.8	0.0119450705802631	0.00358596756613522	0.00305067249362947	0.000746144683988403	0.00305644476059866	0.000737384290020488	-0.0149830474075443	-0.00699609705225768
8.9	0.0125976529211673	0.000622585703568348	0.00312784646707192	0.000312344950048685	0.00312697621953656	0.000310097359595865	-0.015052155092185	-0.00623962703414635
9	0.0122992835871638	-0.00283640073253703	0.0031388588868242	-0.000130211205866975	0.00314201455341366	-0.000126106669081839	-0.0152000050319662	-0.00568948628673141
9.1	0.0113089399936075	-0.00595331097467861	0.00309313588917388	-0.000572932070960141	0.00309601840940126	-0.000560028933856478	-0.0151436702456039	-0.00482548167609357
9.2	0.00956468088591101	-0.00905528340428763	0.00298338496246703	-0.000990731712813898	0.00299104517421339	-0.000993607352613883	-0.0149783386472979	-0.00428830905237937
9.3	0.00700911939946905	-0.0116363472276937	0.00281505920277274	-0.00139590819911948	0.00281432998847647	-0.00140090005283796	-0.0148633213923287	-0.00369668719682893
9.4	0.00395221181306451	-0.0135738650906458	0.00259363958965992	-0.00178635384044113	0.00260014960925872	-0.00177874958780335	-0.0146811444146452	-0.00317196385705469
9.5	0.000175783451893767	-0.0146497346348821	0.00231877856254844	-0.00212263025641609	0.00232619612151893	-0.00212397699397787	-0.0148084024331392	-0.00263715717091932
9.6	-0.00346731982731088	-0.0145284890216762	0.00200084266606266	-0.00242642960862488	0.00200117253177079	-0.0024254471802663	-0.0147676103233918	-0.00175839077217084
9.7	-0.00701174080888503	-0.0138600366689022	0.00163396354380176	-0.00267733132947648	0.0016395022358095	-0.00268463893793199	-0.0146164261888841	-0.00108452226348507
9.8	-0.0104870725443211	-0.0124542711703649	0.00124916493065919	-0.00288719131870946	0.00125486310266007	-0.00287868706082487	-0.0145083588196427	-0.000403251264940278
9.9	-0.0136087815451638	-0.0103174625269227	0.000843249091471301	-0.00302787028303565	0.000835912617825128	-0.00302664435401142	-0.0144060247552125	0.000247188058970258
10	-0.0166885419626676	-0.00767050776659324	0.000411454129888891	-0.00311689157751413	0.000403960362562642	-0.00312933856512225	-0.0146185804025062	0.000790871657064975
10.1	-0.0189769754126233	-0.00384201767952705	-3.0274262229512E-05	-0.00314847825443365	-4.0510255807077E-05	-0.00314308554957326	-0.0145233618583253	0.00184474275883292
10.2	-0.0202599846520755	0.000217989136610075	-0.000477110033542333	-0.00311241822494409	-0.000480519024829639	-0.00310963828555833	-0.0140410821069988	0.0026429643184835
10.3	-0.0206672789891485	0.00452151134499874	-0.000910770915722775	-0.00300673408168519	-0.000902676078441631	-0.00301581259589601	-0.0134188384840364	0.0032685091293599
10.4	-0.0200459212276933	0.00870604017977169	-0.00130893048817101	-0.00285100057848064	-0.00130723600207983	-0.00285719901651596	-0.0125206944302319	0.00343696877837282
10.5	-0.0190206311581333	0.0126143772569496	-0.00169910635332205	-0.00265159493974068	-0.00169600379522484	-0.00263859410696032	-0.0121677831881665	0.00323800403827272
10.6	-0.0171379999146068	0.0167047420348624	-0.00205226751799003	-0.00238264197094657	-0.00205007942839167	-0.00238646561172517	-0.0119018447362159	0.00332899111906342
10.7	-0.0143888036100752	0.0205162193016166	-0.00236809838445175	-0.00208031891869713	-0.00236460270213402	-0.00207503564819246	-0.0117382980603488	0.0035547691799699
10.8	-0.0106043455345567	0.0239868576429106	-0.00263720107835635	-0.00171975190243107	-0.00263200050156803	-0.00172868054176228	-0.0115053277730453	0.00406694341580862
10.9	-0.00599679177936081	0.0265575455068203	-0.00284470708110277	-0.0013456668547082	-0.00284989556340831	-0.00134493639195013	-0.0110752364072365	0.00438819431958024
11	-0.00114955453149682	0.0280532900632077	-0.00300490050341832	-0.000930370143883694	-0.00300974447954646	-0.000937115898095568	-0.0109624465902292	0.00460387021391392
11.1	0.00430953041644499	0.0290297192893844	-0.00311404092112206	-0.000503984930180786	-0.00310317513636018	-0.000501123562493201	-0.0104625133199028	0.00528913033597136
11.2	0.0100917979802564	0.0285330828201573	-0.00314290538814963	-6.58741576186931E-05	-0.00315006125686462	-7.07123380927357E-05	-0.00960313278513134	0.0055949604330279
11.3	0.0157733835589966	0.0267719782516617	-0.00311601091380913	0.000382646220582285	-0.00312755559121848	0.000372604951701596	-0.00856355808636076	0.00570417013014136
11.4	0.0209846819298188	0.0238127137246221	-0.00304317697678684	0.000810195582673293	-0.00303826245265835	0.000817766582760428	-0.0075414549994337	0.00543253089629527
11.5	0.0251353519907988	0.0197408361563406	-0.00290046631786213	0.00122771538956011	-0.0029032452533337	0.00123800014864943	-0.00716864612989597	0.00475439991588248
11.6	0.0287760526838583	0.0153196040162997	-0.00270475802121937	0.0016180987486889	-0.00270473828025496	0.00162104009802632	-0.00659599522950033	0.00446696024155023
11.7	0.03170178776177	0.00994942667781068	-0.00244368095726511	0.00197260653345887	-0.00244424416162802	0.00198121484911313	-0.00589157145813571	0.00371989005970345
11.8	0.0335915565740938	0.00397583502298843	-0.00214874201204476	0.00230529170214946	-0.00215285932141172	0.00230699135829498	-0.00537929610719384	0.00281998558920894
11.9	0.0344199990353477	-0.00257378749141195	-0.00179916113302313	0.00258279816167031	-0.00181219162887259	0.00258711254812112	-0.00507468060983514	0.0019006569999839
12	0.0330631610996772	-0.00917999572238493	-0.00142373258340282	0.00280555579284594	-0.00142313545756377	0.00280696773318459	-0.00570166858809625	0.00107957557887516
