# GHZ S RI R 50
0.2	0.00589566175025004	0.00125117620019148	0.00304836742184812	-0.0008978435819619	0.00305873587715196	-0.000891034383233965	-0.0140549656572783	0.00490234883152333
0.3	0.00620407948395676	-0.000702856562449911	0.00290420049911372	-0.00132124085885355	0.0028969537383112	-0.00130830239838366	-0.0132679520952878	0.00509689988710676
0.4	0.00595966110689568	-0.00234508487685559	0.00267262495469938	-0.00169300648887303	0.00267789278337191	-0.00170156689991421	-0.0127476408563422	0.0056452086779671
0.5	0.00526194671781598	-0.0037472891512757	0.00241380075308906	-0.00204970579047503	0.00242533870410934	-0.00206194512113154	-0.0122233867704846	0.00624447706065246
0.6	0.00423994118336686	-0.00480611662199121	0.00210132488255173	-0.00236415780945994	0.0021005388495297	-0.00237130728772854	-0.0117547887912966	0.00681118981297799
0.7	0.00295851446487881	-0.00549589899701242	0.0017542364908074	-0.00264192344373796	0.0017522805290742	-0.00264212240405133	-0.0114025671722019	0.00740963737581183
0.8	0.00162724512234552	-0.00584739850637234	0.00136887085139337	-0.00285932319410012	0.00135627145078562	-0.00286387316671578	-0.0110628557514344	0.00814250150094619
0.9	0.000200563800291313	-0.00582382002448006	0.000951860406999962	-0.00302289651653394	0.000952896169522228	-0.0030335955328281	-0.0106720388217613	0.00892674334139247
1	-0.00116675696212819	-0.00550990561998134	0.000527087868225113	-0.00312633379998216	0.000517226254919925	-0.0031270746789407	-0.0101541191844521	0.00974771080967572
1.1	-0.00253278783540656	-0.00497174784316276	7.15240432732605E-05	-0.0031552114095375	6.80186154712123E-05	-0.00317286215236821	-0.00963579395404448	0.0106211716877582
1.2	-0.00381620951076014	-0.0044045269099245	-0.000370587029523378	-0.00314467370473557	-0.000371398996851601	-0.00314259735296102	-0.00870030315085511	0.0115034997457285
1.3	-0.00516582692842873	-0.00393994561916491	-0.000797696862056589	-0.00306154005966138	-0.000800936749917812	-0.00306354558223756	-0.0071568039523247	0.0121472115267904
1.4	-0.00635335528533037	-0.0033498875201577	-0.00121899793135075	-0.00291337370840585	-0.00121778434281068	-0.00291890687038265	-0.00547100672503683	0.0120366728423524
1.5	-0.00689019223452976	-0.0022553357456746	-0.0016198833703349	-0.00271762091584975	-0.00161827042237215	-0.0027261214336124	-0.004119159782504	0.0115608546517409
1.6	-0.00683454395932748	-0.000773133757516797	-0.00198052848538834	-0.00246529529888237	-0.001980738904607	-0.00247052994742582	-0.00355370051943185	0.0114098862718378
1.7	-0.00624590430831634	0.000694173320916218	-0.00230905968271598	-0.00216851362157952	-0.00231002605460707	-0.00216225168809792	-0.00294663182137628	0.011574817546651
1.8	-0.00534716125187374	0.00209530321498961	-0.00258023227598244	-0.00181708507169789	-0.00259119875955813	-0.00182272347620586	-0.00228221531808904	0.0117378862115732
1.9	-0.00416785207521399	0.00316353281537043	-0.00280575156049864	-0.00144639791738215	-0.00281819356796792	-0.00144024514796183	-0.001627843276955	0.01189436210077
2	-0.00282788073044754	0.00391562514101222	-0.00298164935022515	-0.0010386851951678	-0.00299127311627454	-0.00103397682605109	-0.00098299267429328	0.0121028566733736
2.1	-0.00138914818799061	0.00427554120540469	-0.00309528132259152	-0.000610123988590966	-0.00309119719038999	-0.000612115900937749	-0.000190548908136283	0.0122289376008284
2.2	4.79087825376132E-05	0.00432422467303774	-0.0031527709307749	-0.000171641405084549	-0.00316407684943203	-0.000174478000076637	0.000778915425275788	0.0122246411180082
2.3	0.0014199024420882	0.00393639983929118	-0.00314814393907425	0.000272025173518737	-0.00314784176498069	0.000265140792714952	0.00170032308663432	0.0119587827056676
2.4	0.00260899790079107	0.00327217908025095	-0.0030756235622703	0.000710643118355363	-0.00307816573638653	0.000706385094472475	0.00253891948927667	0.0116535437287712
2.5	0.00359201392535374	0.00231827472137643	-0.00293834335056023	0.00112319839982172	-0.0029492338673378	0.00112958189200358	0.00336998341394501	0.011239336889325
2.6	0.00438388163375653	0.00117154863814416	-0.00276411489439408	0.00152643343823632	-0.00276056002235986	0.0015141070948142	0.00418653015764791	0.0107313361080572
2.7	0.00502534427631461	-0.000130241137683676	-0.00251781185204777	0.00189792536392785	-0.00252309311686742	0.00189793793550972	0.00484514592102284	0.0101350813313785
2.8	0.00553903626767052	-0.00162042751188986	-0.00223443039494931	0.00222543539502815	-0.00222661135004886	0.00223522448199541	0.00536573378579091	0.00966407907260428
2.9	0.00587576133939279	-0.00332891117226829	-0.00189956909031621	0.00252547893464957	-0.00189585950581333	0.00252505036298453	0.00606524771354272	0.00936239443435315
3	0.00582867250399179	-0.00523506503728184	-0.00151277377382537	0.00276059936021536	-0.00152755387777897	0.00276670642636107	0.00694975710143428	0.00903542536459044
3.1	0.00537451138615162	-0.00719160377225578	-0.00112210091131433	0.0029373562539843	-0.00111743948630465	0.00294569772206557	0.00779964348812971	0.00852189021340936
3.2	0.00435602379003977	-0.00909379150800008	-0.000701237763293414	0.00307404600526234	-0.000702982713963052	0.00307343615949676	0.00841938630530984	0.00801105483113996
3.3	0.00286610721352564	-0.0108855827537582	-0.00026258079701747	0.00314332254186879	-0.000260933826981031	0.00313958126543202	0.00910849248223943	0.00740231808770591
3.4	0.000853060226534294	-0.0122949697720429	0.000184342804542609	0.00313670081116318	0.000178145980007756	0.00315326944775607	0.00977309465180388	0.00656874047173057
3.5	-0.00148818770268135	-0.0133194168102694	0.000606099414970846	0.0030933369553643	0.000611695464726559	0.00309340954412465	0.0101648697376217	0.00548522292842608
3.6	-0.00411097754413533	-0.0137759760508317	0.0010345404375425	0.00297363593149461	0.00104273247044675	0.00297331398050411	0.0103356626319153	0.00457532872753018
3.7	-0.00678538584317797	-0.0136471507138817	0.00144501505266904	0.00279216302733681	0.00143543618310822	0.0028058446519326	0.0105410588637831	0.0037378894085771
3.8	-0.00941587118227748	-0.0129399759781828	0.00182300045532825	0.00256456476066975	0.00182541007213171	0.00257371353566903	0.0106745074057385	0.00289408514137603
3.9	-0.0117702058424857	-0.0117183559058247	0.00216863796873699	0.00229101313561992	0.00216137124845524	0.00228923810695692	0.0107161754073487	0.00208027059247385
4	-0.0138322947478376	-0.0101016803071068	0.0024531482754227	0.00196940353525756	0.00245759572256047	0.00196696626480218	0.010776934787711	0.00139918179992188
4.1	-0.0155612317515307	-0.0081484753485558	0.00270482898212898	0.00160901488533422	0.00270357685706642	0.00160975151753604	0.0109805465787308	0.000772577156941691
4.2	-0.0169531805611583	-0.0058749169451365	0.00290369493360719	0.00120736995755509	0.00290815488005296	0.00119865101989587	0.0112234745955696	5.80462523734671E-05
4.3	-0.0179339527226242	-0.00342972521814691	0.00304624717465984	0.000794890445178973	0.00305266398551167	0.000787083138282515	0.0114162475621455	-0.000837018742024628
4.4	-0.0185808635034658	-0.000779886778890128	0.00312198005420714	0.000360480223271547	0.00312435257557544	0.000358222055342917	0.0114013024015189	-0.00174578511058682
4.5	-0.0187765433764911	0.0020239217265658	0.0031440271243386	-7.76973012871453E-05	0.00314938412417573	-8.10744389412417E-05	0.0113487038611652	-0.00261159309091042
4.6	-0.0185412125098652	0.0048500625254171	0.00309922689502047	-0.000520469485549702	0.00310046613060054	-0.000507560029233542	0.0111826630797072	-0.0035539989962388
4.7	-0.0176999433165185	0.0076791859828902	0.0029932959194328	-0.00093907252714646	0.00300856864968645	-0.000948699643696836	0.0108569786800337	-0.00448640150481732
4.8	-0.016360326944838	0.0103272680004979	0.00283156225249813	-0.00135277262043307	0.00284003177284036	-0.00135886668489071	0.0104310204443406	-0.00528768483117809
4.9	-0.0143412312584665	0.0126661884182551	0.00261023840961254	-0.00173635603795888	0.00261440509950729	-0.00173345646627722	0.0100381755626088	-0.00591516969326965
5	-0.0118562314146857	0.014456497490048	0.00235006607999259	-0.00209076720488042	0.00235368790965299	-0.00208810804450151	0.00992480641479599	-0.00644515500543945
5.1	-0.00890310716262852	0.0156996174986797	0.00203902406574422	-0.00240055242941415	0.00204132412813788	-0.00239919783066113	0.00993331693917472	-0.00714172708399988
5.2	-0.0058449647183563	0.0162512509185472	0.00168137869136308	-0.00264956390874834	0.00168308584569514	-0.00265470343700798	0.00986274506811188	-0.00791972774170133
5.3	-0.00278712238521738	0.0161875244727499	0.00129482469832392	-0.00286407696056112	0.00129795564788885	-0.00286201903831129	0.00970299865086673	-0.00864961691055652
5.4	9.40742325872108E-05	0.015578552695336	0.000870386575597641	-0.00301069774693643	0.000887523424780702	-0.0030219066663602	0.00951425135126819	-0.00953380576571507
5.5	0.0026691735750201	0.0145258769122214	0.000457370359919406	-0.00310780617974415	0.000467404418019586	-0.00311723005092663	0.0090597042941106	-0.0105429093933678
5.6	0.00490293861340988	0.0130855343123526	1.95543521424692E-05	-0.00314330235077887	1.10373599925592E-05	-0.00314651131771326	0.00823070110051312	-0.0113673065629319
5.7	0.00670698544685728	0.0113536778253219	-0.000410707206787058	-0.00311233727864487	-0.000427300322764638	-0.00311598273270578	0.00723658065951448	-0.0118740823079007
5.8	0.00811378839474832	0.00936732630389202	-0.000855728631619265	-0.00301711342157952	-0.00085926739272132	-0.00303108157827923	0.00626905927886522	-0.0123435703991175
5.9	0.0090405385415552	0.00725918744386028	-0.00125973672240063	-0.00287702206968523	-0.00126795581841563	-0.00287693621036617	0.00516574008020985	-0.0126932242966602
6	0.00948341599210387	0.00499644963940072	-0.00165710157322404	-0.00267079528886201	-0.00165354546430941	-0.002670963463956	0.0039425994812015	-0.0127897154956097
6.1	0.00943940519844136	0.00268223409724702	-0.00201132160516714	-0.0024164087029339	-0.00201295668054417	-0.00241240937698066	0.00296614284294428	-0.0125997770472601
6.2	0.00891086619888951	0.000348968281415949	-0.00232324111591179	-0.00210350118347512	-0.00232695041587117	-0.00211535264881693	0.00230639553313774	-0.0124973116235584
6.3	0.00798459171891319	-0.00191505387881145	-0.00260016939766147	-0.0017694008995191	-0.00260928102946599	-0.00176366660063504	0.00179401725274726	-0.0126640900992278
6.4	0.00656355414897812	-0.00403667864458181	-0.0028256554814293	-0.00137929263579625	-0.00281594836275136	-0.00138419182509827	0.00130878396377468	-0.0129620397034613
6.5	0.00478240412970528	-0.00582794493248007	-0.00298153761785343	-0.000974977735713278	-0.00298938424426306	-0.000970500593477309	0.000850578901426642	-0.0133877621600105
6.6	0.00269189973825917	-0.00708029440447	-0.00308917417110595	-0.000550851851306838	-0.00309080584891932	-0.000554821563102304	0.000305661940997141	-0.01386232344952
6.7	0.00044253302790249	-0.00773807740382673	-0.00313947415486551	-0.000114023808530296	-0.00314831214076127	-0.000107753988922708	-0.000593467032090172	-0.0142192475176149
6.8	-0.00188057904568047	-0.00778984523969914	-0.00311789580224012	0.000326426710257297	-0.00312896972459297	0.000331467067333087	-0.0016600091360256	-0.0142392954179469
6.9	-0.00416335183955726	-0.00726537060649553	-0.00304269155559962	0.000758749599302866	-0.00304567348411925	0.000761136089163321	-0.00263031785167045	-0.014010811741101
7	-0.00621405385996443	-0.00619727472639742	-0.00290640880166427	0.00117844146970228	-0.00291921599097155	0.00117624764409423	-0.00347112586561528	-0.0137435970747677
7.1	-0.00805297532527285	-0.00468508101115584	-0.002729304451147	0.00156627700190976	-0.00272564853404548	0.00157492887656044	-0.00435401627837241	-0.0133317165752861
7.2	-0.00954372930213058	-0.0027688319534209	-0.00247377322538916	0.00193340438493019	-0.00248029267956065	0.00193547776576056	-0.00505972283486722	-0.0127625960215563
7.3	-0.0107006181634766	-0.000572094084563953	-0.00217949701501123	0.00225185798898572	-0.00219069447974677	0.00225689768743731	-0.00552113001452379	-0.0122680036254754
7.4	-0.0114798217689152	0.00183720562793278	-0.00183929671591429	0.00253472969193304	-0.00184617832982906	0.00254831247348723	-0.00600585396888378	-0.0120061441502976
7.5	-0.0117715107282178	0.00437979885130995	-0.00147514258437074	0.00277406349830771	-0.00146816624724862	0.00278145427186545	-0.00637762409444148	-0.0118607198583775
7.6	-0.0114171230427274	0.00689121729700772	-0.00107026178926835	0.00295304664681405	-0.00107163036398879	0.00294835458177596	-0.00668958331463714	-0.0119160836242512
7.7	-0.0105594672723344	0.00920867814754264	-0.000643082491926916	0.003075112256427	-0.000644419951429185	0.00307405047191516	-0.00727629087418094	-0.012407725066528
7.8	-0.00895702892435668	0.0111406061398112	-0.000218264962999219	0.003125211054318	-0.000226070916138253	0.00313165296975164	-0.00813525914738901	-0.0126655075504195
7.9	-0.00680617719903495	0.0125472083683921	0.000222223879407829	0.00313343669361519	0.00023015607079296	0.00313494293310629	-0.00902265496587785	-0.0125982794997238
8	-0.00429824493529234	0.0134295115711362	0.000663708692146496	0.00306249523163482	0.00066378439668121	0.00306739102215707	-0.00996088822819671	-0.0123688307220186
8.1	-0.00160246439046253	0.0137810868033412	0.001074204779755	0.00294585112016971	0.00109333754233597	0.00294695896002367	-0.0108373705324589	-0.0119305658228128
8.2	0.00106686494402622	0.0135928913827716	0.00147907217253925	0.00276597240741734	0.00148832177010634	0.00275879243194856	-0.0115742484379266	-0.0112992676981399
8.3	0.00362543847851158	0.0128734334154551	0.0018558852022963	0.00252781855063333	0.00185422750393738	0.00254136027719607	-0.0121715163719512	-0.0106498996165443
8.4	0.00594455483782292	0.0117372962689788	0.00219212016791997	0.00225083947295376	0.00218909127736035	0.00225061182088834	-0.0127548938008989	-0.0100639887342524
8.5	0.0079917776993348	0.0101406417624794	0.00247846382652433	0.00192076921485906	0.00247756382548228	0.0019239507946311	-0.0134259167995018	-0.00941495995725541
8.6	0.00965234350238123	0.00821174175900568	0.00272515773670389	0.0015608953073323	0.00273466078690985	0.0015543657555367	-0.0140513782435304	-0.00868241186671549
8.7	0.0109343196384882	0.00593273685640205	0.00291151075108861	0.00115860917174489	0.00291706837725117	0.00115933756564653	-0.0145937575491764	-0.00792218008733982
8.8	0.0117464943858898	0.00339129026491431	0.00304871202533767	0.000748089863753143	0.00305448821137454	0.000739337821512685	-0.0151609510150552	-0.00720740876816585
8.9	0.0121183262087843	0.000587458210924234	0.00312681542955363	0.000314400106647417	0.00312594694496984	0.000312152509231772	-0.0155200118611888	-0.00629394667933065
9	0.0119048823277452	-0.00244307619905339	0.00313733740976264	-0.000128642221706236	0.00314048951828034	-0.000124538244707175	-0.0155812127489779	-0.00530960099494253
9.1	0.0110596344710918	-0.00555191765880362	0.00309200237610654	-0.000570001454165102	0.00309487241309395	-0.000557102626744362	-0.0153818983464655	-0.0044468365740064
9.2	0.00942440628043431	-0.00853032359970144	0.00298338582792914	-0.00098773324769234	0.0029910463422804	-0.000990601088943855	-0.0151174518538638	-0.0037867535199135
9.3	0.00707372877298325	-0.0111131417655543	0.00281569749435467	-0.00139336017429603	0.00281497248706832	-0.00139835173380087	-0.0148038046234994	-0.00319136700757476
9.4	0.00410469214958325	-0.0131157632747108	0.00259411871701119	-0.00178418145407616	0.00260062202880662	-0.00177657496392367	-0.0145314698164816	-0.00272873613087715
9.5	0.000631985427221174	-0.0142650118012893	0.00231977383989835	-0.00211927904664081	0.00232718913856822	-0.00212061771093544	-0.0143562305348477	-0.0022721118452434
9.6	-0.00312249750301125	-0.0145990484754847	0.00200337889508243	-0.00242398158673772	0.00200370763404285	-0.00242299887560372	-0.0144361983145779	-0.00184333096623119
9.7	-0.00693634323104805	-0.0140125235589202	0.00163661261005775	-0.00267574639177013	0.00164215854179701	-0.00268304861226852	-0.0145544920109367	-0.00124566446567001
9.8	-0.0106297426528465	-0.0125924709453043	0.00125183979776467	-0.00288594752442235	0.00125752985430071	-0.00287743813963307	-0.014663269929724	-0.00054626772511718
9.9	-0.014009471208199	-0.0102792220505302	0.000846444244181416	-0.0030265698003249	0.000839107357400646	-0.00302535202447108	-0.0148172349814624	0.000284398036027844
10	-0.016896342988628	-0.00726014747721994	0.000415850526017742	-0.00311719691947081	0.00040837176336701	-0.0031296576772342	-0.0148365971053025	0.00120839967131095
10.1	-0.0190749105138301	-0.00361121291334225	-2.70510080613033E-05	-0.00314988098580732	-3.72970042370778E-05	-0.00314449645358798	-0.0146224696622198	0.00208481626852041
10.2	-0.0204270784672926	0.000449206270013878	-0.00047411277380623	-0.00311400527498437	-0.00047752579966282	-0.00311122781939978	-0.014204274708061	0.00288217824511575
10.3	-0.0209073127354492	0.00476715926563856	-0.000907700479288137	-0.00300897752777722	-0.00089959203208149	-0.00301805042692688	-0.0136500710955752	0.00352084932249138
10.4	-0.0204635211196385	0.00913252372784924	-0.00130610652943934	-0.00285470123308582	-0.00130440274153665	-0.00286090176788557	-0.0129221623300893	0.00386744432279319
10.5	-0.0191498585144223	0.0134347658229043	-0.00169874389763608	-0.00265607021418553	-0.00169564904743578	-0.00264305195420007	-0.0122758867592055	0.00404919832680864
10.6	-0.0169498823448738	0.017474613372789	-0.00205244695807688	-0.00238595421913845	-0.00205025457778334	-0.00238977964452478	-0.0117565816306386	0.00409948936894269
10.7	-0.0139398834359472	0.0211740659954522	-0.00236858331568433	-0.00208369214313041	-0.00236508847191935	-0.00207840207505532	-0.0113383677002327	0.00422238285657293
10.8	-0.0101271581865864	0.0243044090727333	-0.00263850348067674	-0.00172322127872529	-0.00263329174783981	-0.00173215476104592	-0.01102192728081	0.00435657823502306
10.9	-0.00570430350033046	0.0267244337847708	-0.00284731799632028	-0.00134857576637563	-0.00285251277216394	-0.00134784696170557	-0.0107793051257788	0.00453310982109429
11	-0.000672095999164439	0.028289388175985	-0.00300706845572738	-0.000931535804177992	-0.00301191513910378	-0.000938287466048716	-0.010489277102793	0.00482677282686087
11.1	0.00469754265710736	0.0288574352085404	-0.0031160205781243	-0.000505938577394336	-0.00310514844940494	-0.00050306960051059	-0.0100709044427082	0.00509863689717816
11.2	0.0102232084854662	0.0282812473033657	-0.00314579233704424	-6.75038959320607E-05	-0.00315295243909336	-7.23501424684587E-05	-0.00947509824173903	0.00531672118737585
11.3	0.0156929339996769	0.0265248571695371	-0.00311934430861883	0.000382005294315638	-0.00313089753117816	0.000371949859702792	-0.0086693075631931	0.00542500306422591
11.4	0.0206436169438305	0.0236910924546122	-0.00304593431331758	0.000810638854914953	-0.0030410161286795	0.000818216973564201	-0.00791442830920698	0.00528978900379848
11.5	0.024965175152668	0.0198756146979671	-0.00290283314745787	0.00122713860145457	-0.002905618554775	0.00123742846104665	-0.00734756080587755	0.00486741264431326
11.6	0.028540744153742	0.0151967794261606	-0.00270846125992739	0.00161849991965336	-0.0027084429507237	0.00162144443669293	-0.0068631882935701	0.004317055656796
11.7	0.0311797193576236	0.00988695185618731	-0.00244696729483716	0.0019742570401698	-0.00244753328152158	0.00198287506698016	-0.00645291882713569	0.00364429337284895
11.8	0.0328279594727054	0.00415129397963588	-0.00215123783290586	0.00230747602007059	-0.00215535963457056	0.00230917701629032	-0.00617842690771072	0.00299493901990137
11.9	0.0334843866340393	-0.00183578180015964	-0.00180128488156911	0.00258457949477069	-0.00181432744649696	0.00258889454948478	-0.00604228575834313	0.00263571629214424
12	0.0328675124033542	-0.00792816847837006	-0.00142696319885304	0.00280851120352044	-0.00142636598804696	0.00280992527564424	-0.00594426381410892	0.00232958708238649
