# GHZ S RI R 50
0.2	0.00582206481056827	0.00130301197573193	0.00304833101680716	-0.000897930748016605	0.00305869963972417	-0.000891121877718611	-0.0141283837569721	0.00495476169661468
0.3	0.00615936699698923	-0.000622141451507055	0.00290411121967718	-0.00132135060515046	0.00289686509523875	-0.00130841197907194	-0.0133121985054988	0.00517838385896688
0.4	0.00594247118060736	-0.00225367710953748	0.00267247544123468	-0.00169311084110978	0.00267774269756924	-0.00170167134149249	-0.0127639818728667	0.00573744355877781
0.5	0.0052681465450332	-0.00364018646251441	0.00241361410665057	-0.00204978435600867	0.00242515102617108	-0.00206202399170934	-0.0122161194720062	0.0063522911656041
0.6	0.00428643117659761	-0.00470199727950523	0.002101080059301	-0.00236422061703748	0.0021002935471106	-0.00237136977792982	-0.0117068890954772	0.0069160281287062
0.7	0.00302804022335962	-0.00540383803250657	0.00175393935380962	-0.00264192711957484	0.00175198347591637	-0.00264212591582302	-0.0113313069179805	0.00750217648629432
0.8	0.00171545381116209	-0.00576546631994779	0.00136854449191482	-0.00285925334321535	0.00135594552261914	-0.00286380197305502	-0.0109726617042274	0.00822457933242818
0.9	0.000302678041659805	-0.00575222043289209	0.000951530405242278	-0.00302274565276249	0.000952565178713086	-0.00303344393670535	-0.0105678537604328	0.00899813724680146
1	-0.00106932808510641	-0.00543252231146107	0.00052675770794804	-0.00312611697649823	0.000516896862788049	-0.00312685689210745	-0.0100545545923931	0.00982469346482862
1.1	-0.00242017192039935	-0.00484551957852916	7.12140979385025E-05	-0.00315488736684486	6.77073458748457E-05	-0.00317253592255118	-0.00952091859284728	0.0107465059738034
1.2	-0.0036673801741088	-0.00419546353728119	-0.000370835834613762	-0.0031442617691893	-0.000371647510829864	-0.00314218559085613	-0.00854935514761221	0.0117114279634942
1.3	-0.00492914044828544	-0.00362458230706637	-0.000797868790658571	-0.00306105355657174	-0.000801108423997899	-0.00306305851220163	-0.00691818026825703	0.0124606100055912
1.4	-0.00600857080595114	-0.00301980203767753	-0.00121907952012703	-0.00291283143445637	-0.00121786661028611	-0.00291836388451233	-0.00512497199910247	0.0123641971229768
1.5	-0.00651239647857839	-0.00202251208110934	-0.00161986481232808	-0.00271701651717931	-0.00161825292248432	-0.00272551576415561	-0.00374043099418625	0.0117913926726772
1.6	-0.00648984446951106	-0.000667653765592485	-0.00198036656988168	-0.00246467298374741	-0.00198057738624932	-0.00246990664383667	-0.00320858252913361	0.0115123313660334
1.7	-0.0059719129655025	0.000706680353932576	-0.00230876951195123	-0.00216790314952415	-0.00230973520477974	-0.00216164238518817	-0.00267256797976488	0.011584661245826
1.8	-0.00514260935387965	0.00205497904885772	-0.00257981183860165	-0.00181650911337804	-0.00259077638405683	-0.00182214551609833	-0.0020775404985572	0.011695214224269
1.9	-0.00402565211857327	0.00309730323894226	-0.00280519949851757	-0.00144587382051218	-0.00281763821037037	-0.00143972163657494	-0.00148558664261595	0.0118257881024431
2	-0.00273988926314021	0.00385209289859162	-0.00298094665042959	-0.00103825865553918	-0.00299056771020322	-0.00103355096211849	-0.000895008678917088	0.0120369851370893
2.1	-0.0013286912406003	0.00422409091255438	-0.00309448039780905	-0.000609839586286766	-0.00309039743245426	-0.000611831128490943	-0.000130074231164505	0.012175142575583
2.2	8.67591730142471E-05	0.00428676001156231	-0.0031518825006674	-0.000171507858989818	-0.00316318529321812	-0.000174343345951339	0.000817739080550865	0.01218473768087
2.3	0.00144650875206792	0.00391608299779791	-0.00314719447765416	0.000271976402783533	-0.00314689246663757	0.000265094088851333	0.00172682186568087	0.0119358502910121
2.4	0.00262743892859968	0.00326641650119125	-0.00307465051256006	0.000710386429117746	-0.00307719183474848	0.000706129737041668	0.00255712828926526	0.0116450980739229
2.5	0.00359355988264191	0.0023330225362721	-0.00293741724604795	0.00112272012781538	-0.00294830441229438	0.00112910111617646	0.00337100577980043	0.0112511319669098
2.6	0.00437801467763286	0.00122093113553528	-0.00276325907780658	0.00152576405726317	-0.00275970474108173	0.00151344209555489	0.00417983256228171	0.0107774744926541
2.7	0.00501981367857149	-4.04191174207528E-05	-0.0025170732839233	0.00189705402400633	-0.00252235268333661	0.00189706617035806	0.00483842104738293	0.0102213761708414
2.8	0.00555170419644704	-0.00149006199174479	-0.00223385957600739	0.0022243859145073	-0.00222604442789058	0.00223417229209903	0.00537677322026927	0.00979048289304065
2.9	0.00592183558721472	-0.00317163721775424	-0.00189922186006857	0.00252428284384024	-0.00189551358276418	0.00252385494837201	0.00610938489993491	0.00951466675803893
3	0.00591550797369089	-0.0050655167931545	-0.00151267916104246	0.00275933543710911	-0.00152745486469286	0.00276543780243379	0.00703346019588285	0.00919934779209997
3.1	0.00550939336244969	-0.00703434144682433	-0.00112225790919993	0.00293603725792478	-0.00111759986546557	0.00294437652117795	0.00792960765203488	0.00867556849287905
3.2	0.00452718590633044	-0.00896709613605065	-0.00070168855851721	0.00307274490444297	-0.000703432721665789	0.00307213488126683	0.00858500002676996	0.00813229302208054
3.3	0.00305991422434301	-0.0107974203678417	-0.000263316686589095	0.00314210819432523	-0.000261669326713306	0.00313836871625335	0.00929509698668224	0.00748543677585563
3.4	0.0010539659019104	-0.012248514694196	0.000183349157579068	0.00313564573051744	0.000177149621083754	0.00315220667156258	0.00996513849079335	0.00661116314738137
3.5	-0.00129532717043358	-0.0133030998273762	0.000604889700504916	0.00309245636373254	0.000610483779725498	0.00309253073418117	0.0103467587400644	0.00549912863863932
3.6	-0.00392602952667472	-0.0137818694648602	0.00103312060256535	0.00297300426573063	0.00104130998519117	0.00297268537257283	0.0105090163558318	0.00456856780540326
3.7	-0.00661140246869479	-0.0136677193647506	0.00144345902504142	0.0027918326611714	0.00143387787537581	0.00280550614880843	0.010702620432967	0.00371868832405419
3.8	-0.00924851963636993	-0.0129693972636615	0.00182136899621978	0.00256455302511239	0.00182377403522621	0.00257370003704473	0.0108291210213005	0.0028684980693529
3.9	-0.0116071705311987	-0.0117592644968627	0.00216699316526809	0.00229132866606895	0.00215972931590991	0.00228955089346297	0.0108666336975659	0.00204564303403364
4	-0.0136780213180118	-0.0101533165724956	0.0024515398817938	0.00197005045042588	0.00245598729926309	0.00196761597460087	0.0109190175908763	0.00135631775251535
4.1	-0.0154125153904876	-0.00821695455157294	0.00270335763265745	0.00161000954974444	0.00270210543222479	0.00161074536562309	0.0111181496715704	0.000715503498198147
4.2	-0.0168242602394784	-0.00596401851928846	0.00290242854141645	0.00120866562322918	0.00290689220005303	0.00119995093471019	0.0113428118523095	-1.71694603354365E-05
4.3	-0.0178349481152542	-0.00353149807304627	0.00304523559378828	0.000796447829040078	0.00305165558148112	0.000788645566355957	0.0115078992816444	-0.000922318773630139
4.4	-0.0185158508618058	-0.000883503098082239	0.00312127622915941	0.00036225041863579	0.00312364969754983	0.000359993995687299	0.0114618342935165	-0.00183105552988683
4.5	-0.0187467099752762	0.00193596863646709	0.00314369567248241	-7.57589040250601E-05	0.00314905409839654	-7.91323476444875E-05	0.0113776417466126	-0.00267981478870991
4.6	-0.018527441175941	0.00479025578314822	0.00309929561323944	-0.000518479683605379	0.00310052663789783	-0.000505570524330238	0.0111998667849797	-0.00359391845237771
4.7	-0.0176933049872156	0.00764550064551028	0.00299375733788946	-0.000937092320829598	0.00300903554772662	-0.000946709098694152	0.0108707419806756	-0.00450066557368895
4.8	-0.0163506404057967	0.0103160579442652	0.00283243060889521	-0.00135087824916578	0.00284090408627031	-0.0013569666257522	0.0104504774726626	-0.00528088884954526
4.9	-0.0143236128856517	0.0126714399440392	0.00261150296344795	-0.00173463285282212	0.00261566780944631	-0.00173173035229451	0.0100689734520398	-0.00589386051988081
5	-0.0118351328286345	0.0144774847575108	0.00235169402026483	-0.00208931554093843	0.00235531430770969	-0.00208665367330639	0.00996179105668276	-0.00641084328612801
5.1	-0.00887482002254418	0.0157335218836599	0.00204093752157095	-0.00239941940586556	0.0020432369152727	-0.00239806304511293	0.00997941526842713	-0.00709745229948881
5.2	-0.00581409957242874	0.0162997170992688	0.00168352335714794	-0.00264881905087923	0.00168523441396092	-0.00265395822890356	0.00991284852402957	-0.00786413198045265
5.3	-0.00274672516681396	0.0162544166551445	0.00129712892902582	-0.00286377714035258	0.00130025909645028	-0.00286171656098063	0.00976324754141155	-0.00857901324501755
5.4	0.000154644441725648	0.0156584280651707	0.000872739978913606	-0.00301088749489725	0.00088988929629513	-0.00302208732972817	0.00959465543748511	-0.00945362383544151
5.5	0.00275579801845274	0.0146127202785964	0.000459669346085192	-0.00310845724185039	0.00046971307005888	-0.00311787708708951	0.0091654846338206	-0.0104590698728284
5.6	0.00502553548461783	0.013159687064069	2.17321147772481E-05	-0.00314441728946176	1.32142812227159E-05	-0.00314763329015774	0.00837134049968466	-0.0112994019397787
5.7	0.00685319927140876	0.0114026904241059	-0.000408762289140059	-0.00311389760994841	-0.000425359760316483	-0.00311755583545194	0.00739887029677516	-0.0118336508248914
5.8	0.00827234794844587	0.0093831384745687	-0.000854129045196434	-0.003019071761122	-0.000857660205353904	-0.00303304870460729	0.00644138987826303	-0.0123381613754462
5.9	0.00919736913789197	0.00724023956188184	-0.00125854498701425	-0.00287928868740286	-0.00126676832013857	-0.00287920802038236	0.00533370124688267	-0.0127243617189387
6	0.00961875561199737	0.0049567141723549	-0.00165636987483516	-0.00267328873034003	-0.00165281170135828	-0.00267345480744517	0.00408611286753599	-0.012841954878601
6.1	0.00955979738778791	0.00264394410936217	-0.00201111561098975	-0.00241905079484639	-0.00201275402522797	-0.0024150500148332	0.00309192300745141	-0.0126504714525672
6.2	0.00902342817952239	0.000326343987942522	-0.00232358835608508	-0.00210614883816862	-0.0023272935231016	-0.00211801004410712	0.00242165501810412	-0.0125313718530425
6.3	0.00810458991077351	-0.00191709603113331	-0.00260105468558777	-0.00177195260782512	-0.0026101755348428	-0.00176621902597027	0.00191455267026743	-0.0126771230991277
6.4	0.00670127789432191	-0.00403210449278135	-0.00282705618767525	-0.00138163228595716	-0.00281733969589853	-0.00138653044167533	0.00144612388565123	-0.0129668685836684
6.5	0.00492824025685076	-0.00583057822406561	-0.00298340482840214	-0.000977025559995786	-0.00299125943586103	-0.000972548393474114	0.000995962970562501	-0.0133981518531312
6.6	0.00283400837784982	-0.00710698213419867	-0.00309144763097993	-0.000552481849218213	-0.00309307909619955	-0.000556455381435358	0.000447784712995224	-0.0138955345802158
6.7	0.000559519225868418	-0.00778444824078584	-0.00314205166332571	-0.000115175517347269	-0.00315089912355358	-0.000108903448384524	-0.000475831434367143	-0.0142717306105301
6.8	-0.00179283385524989	-0.00784474380825736	-0.00312067412786558	0.00032580919846679	-0.0031317590365125	0.000330850703448273	-0.00157109728006686	-0.014300169759971
6.9	-0.00410433944842061	-0.00732238844645367	-0.00304557758802016	0.000758695885069195	-0.00304856273807699	0.000761083782506045	-0.00256843884215736	-0.0140734160461129
7	-0.00618403396841834	-0.00623906779818804	-0.00290928788052267	0.00117899877637818	-0.00292210642503709	0.00117680062921636	-0.00343736434138068	-0.0137918291545245
7.1	-0.00803275787762523	-0.00470973242318573	-0.00273203857015325	0.00156740434701607	-0.0027283802993914	0.00157606472941092	-0.00432955750660609	-0.0133640904527346
7.2	-0.00953212870401046	-0.00277672867911784	-0.00247624587983695	0.00193507824590218	-0.00248277165434883	0.00193715317078541	-0.00504368509585493	-0.0127799624912994
7.3	-0.0106919155937268	-0.000561205594574405	-0.00218160666025619	0.00225401803394356	-0.00219281493512126	0.00225906253907002	-0.00550827371278037	-0.0122690315987288
7.4	-0.0114672977200754	0.00185926357176944	-0.00184093816600154	0.00253731386124593	-0.0018478256736931	0.00255091031084425	-0.00598635478128659	-0.0119958453516262
7.5	-0.0117703720320413	0.00442121401314538	-0.00147622078512325	0.00277696127420346	-0.00146923668188488	0.00278435834991568	-0.00637212490798145	-0.0118331983857143
7.6	-0.0114272521133331	0.00698860294960899	-0.00107074625113367	0.0029561320967677	-0.00107211705179488	0.00295143571150944	-0.00670599837763902	-0.0118410064212359
7.7	-0.0105651434440385	0.00934053793674637	-0.000642920555996244	0.00307827140321669	-0.000644259589947582	0.00307720892759265	-0.00728399181553805	-0.0122951010392194
7.8	-0.00893762868498058	0.0113169315039066	-0.000217461042013959	0.00312830055969454	-0.000225272443243216	0.00313475123192209	-0.00812180664763136	-0.0125096788575848
7.9	-0.00674644934787161	0.0127446550151017	0.000223674505158957	0.00313632771660129	0.0002316148333413	0.00313783225065529	-0.00897555601418772	-0.0124219808267524
8	-0.00418894371606608	0.013627931875351	0.000665728810727615	0.00306502776097963	0.000665806831890375	0.00306992805219928	-0.00986647199109096	-0.0121899067737113
8.1	-0.00144720957365893	0.0139508953779004	0.00107672826499614	0.00294796353003129	0.00109587899407515	0.00294906232620491	-0.0107025218975738	-0.011777138339089
8.2	0.00125075200476272	0.0137211457738518	0.00148201767543003	0.00276752429459388	0.00149127113390777	0.0027603325053183	-0.0114151257081176	-0.0111842232332549
8.3	0.00382315890612648	0.0129578477707757	0.00185912060687664	0.00252872150008903	0.00185747046593818	0.00254227573408562	-0.0120018164881174	-0.0105740770121386
8.4	0.00614222274665526	0.0117798624743277	0.00219549883236924	0.00225105328150595	0.00219246735709054	0.00225082763709765	-0.0125872699278315	-0.0100248002359436
8.5	0.00817677060199171	0.010157195850843	0.00248183781116539	0.00192029806183434	0.0024809396024444	0.00192348275482672	-0.0132717752960499	-0.00939618373613882
8.6	0.00983348870710983	0.00821026596025497	0.00272840386895558	0.0015597117091148	0.00273790817275678	0.00155316953408193	-0.013900798649804	-0.00867556185263688
8.7	0.0111079377085266	0.00591963265450217	0.00291444745157263	0.00115676140519465	0.00292000935687209	0.00115748530384675	-0.0144489822258138	-0.00792158299899481
8.8	0.0119219056269369	0.00337078039264014	0.00305122814738992	0.000745658494959922	0.00305699950850024	0.000736895806989217	-0.0150112360659024	-0.00720876889747866
8.9	0.0122988778675617	0.000552006290735851	0.00312879427055891	0.000311483160981079	0.00312792310515082	0.000309235220895964	-0.015360594937414	-0.0063055448733878
9	0.012078558581802	-0.00249790338565688	0.00313869067895942	-0.000131946504930568	0.00314184852337633	-0.000127843842356969	-0.0154227299909709	-0.00533697287809042
9.1	0.0112166351215359	-0.00562887894761136	0.00309262863258829	-0.000573546158070138	0.00309551365393618	-0.000560645246030961	-0.0152333005470732	-0.0044951817892507
9.2	0.00954375852112864	-0.00862104574164219	0.00298328054190383	-0.000991354794768611	0.00299094041964183	-0.000994232044722197	-0.0150001028786092	-0.00384922661051709
9.3	0.00714987877624376	-0.0111989083447531	0.0028148471039926	-0.00139691526436652	0.00281411624687283	-0.0014019072957688	-0.0147238496967334	-0.00325090121570901
9.4	0.00414445188837138	-0.0131832169745528	0.00259252976002018	-0.00178753257234362	0.00259904313624397	-0.00177993222032635	-0.0144835926259916	-0.00277295339397656
9.5	0.000644809150307807	-0.0142982123670642	0.00231749507802336	-0.00212225965578689	0.002324909558371	-0.00212360728040605	-0.0143307497448895	-0.00228611695705312
9.6	-0.0031154364255666	-0.0146023853655722	0.00200051276846909	-0.00242644558090063	0.00200084269601391	-0.00242546324188793	-0.0144141039703033	-0.0018322690550262
9.7	-0.00692850905494487	-0.0139889084335402	0.00163326872100307	-0.00267758261449506	0.00163880546574733	-0.00268489115767651	-0.0145306212613786	-0.00121275508546773
9.8	-0.0106124734384668	-0.0125465658424661	0.00124813084673762	-0.00288707465057905	0.00125383052143977	-0.00287857342715068	-0.0146302933049663	-0.000495961261470067
9.9	-0.0139828796389073	-0.01021456316665	0.000842532154065816	-0.0030269195936803	0.000835198437119288	-0.00302569307999242	-0.0147778569226015	0.000347632475385491
10	-0.0168611206996151	-0.00717478693970212	0.00041191324287129	-0.00311670614035173	0.000404421668655382	-0.00312915378075207	-0.0147922341869922	0.00128860087309516
10.1	-0.0190206469592409	-0.00350518245872776	-3.08533051199142E-05	-0.00314857807196647	-4.10886511828977E-05	-0.00314318330730194	-0.0145639312211746	0.0021835415101812
10.2	-0.0203506678985988	0.000576783764815352	-0.000477607507469941	-0.00311190205755615	-0.00048101552472635	-0.00310912188498329	-0.0141289019832601	0.00300188127569574
10.3	-0.0207960914597893	0.00491377939723498	-0.0009107075861946	-0.00300615230318635	-0.000902614543009848	-0.0030152294337571	-0.0135451628982278	0.00366070968021526
10.4	-0.020307626842157	0.00928162865150842	-0.00130848971397119	-0.00285127638423074	-0.00130679417288452	-0.00285747467566114	-0.0127777636107051	0.00401292797100349
10.5	-0.0189977032680381	0.0135252310212843	-0.00170039647295652	-0.00265218370906431	-0.00169728956777127	-0.00263917871373858	-0.0120831233054474	0.00413725659412872
10.6	-0.0167125394242409	0.0175755833543231	-0.0020532642018335	-0.00238176018170275	-0.0020510777425359	-0.00238558472713937	-0.0115363884509732	0.00420818014991661
10.7	-0.0136811168988274	0.0212267457803343	-0.00236851327973245	-0.00207935418058703	-0.00236501628426861	-0.00207407256249113	-0.0110976803332946	0.00428984554873298
10.8	-0.00986574649297914	0.0243024591943332	-0.00263751035567343	-0.00171895042255277	-0.00263231245726167	-0.00172787994308439	-0.0107761520024922	0.00437704527769227
10.9	-0.00547007709192961	0.0266714066692258	-0.00284546243548717	-0.0013445611126891	-0.00285065095711995	-0.00134382842070358	-0.0105591282554745	0.00450447552048773
11	-0.000475042348664356	0.0282041699455652	-0.00300440874662709	-0.000927947401591542	-0.00300925554720303	-0.000934687271818974	-0.0103006212119948	0.00477252926791223
11.1	0.00486094668895786	0.0287549387977235	-0.0031126181900654	-0.00050293162081416	-0.00310175708557262	-0.000500074478243449	-0.00990917112919787	0.00503154019706755
11.2	0.0103523116717009	0.0281754317095855	-0.00314181970657971	-6.5251738987979E-05	-0.00314897399748777	-7.00868641084524E-05	-0.00933975285247981	0.00524960995122522
11.3	0.0158110799504545	0.0264134327372262	-0.00311494792259729	0.000383387030723978	-0.0031264918183979	0.000373352027948289	-0.00852600106721275	0.00535737767262501
11.4	0.0207447322286951	0.0235808206375866	-0.00304129501149651	0.000811111185130295	-0.00303637966671244	0.000818676242998217	-0.00777725834944853	0.00522043629501302
11.5	0.0250431161235815	0.0197798933701543	-0.00289812914218545	0.00122665629854329	-0.00290090602432738	0.00123693262467324	-0.00723030360405608	0.00480630908214507
11.6	0.0286019575548128	0.0151014786386994	-0.00270390863094205	0.00161704064839417	-0.00270388933838741	0.00161998081351259	-0.00675434941358974	0.0042483660313599
11.7	0.0312127253996127	0.00979643452424142	-0.00244278190576807	0.00197188777436125	-0.00244334488883059	0.00198049293592697	-0.00636619119346235	0.0035703656175879
11.8	0.0328287502909273	0.00407761964046273	-0.00214757143709378	0.00230425867502285	-0.00215168663449743	0.00230595769163952	-0.00612058277272994	0.0029250709370193
11.9	0.0334603003521563	-0.0018849197325953	-0.00179831307776507	0.00258064368145674	-0.00181133498269714	0.00258495276310834	-0.00600254279414584	0.00258468357103931
12	0.0328229961328598	-0.00792738517095035	-0.00142482599601142	0.00280398648032216	-0.00142422979819646	0.0028053983344913	-0.00593002506876509	0.00231106515404755
