# GHZ S RI R 50
0.2	0.00601813645899172	0.00150684588901493	0.0030465554718693	-0.000898449935352956	0.00305692115831612	-0.000891647661931902	-0.0139213733702312	0.00516296984777521
0.3	0.00629707599976109	-0.000551673169124299	0.00290179915246423	-0.00132167464744367	0.00289456258178847	-0.00130874116685158	-0.0131601792675046	0.00525287118932006
0.4	0.00603205948725758	-0.00234366266546084	0.00266959882290742	-0.00169291506254007	0.00267485814085639	-0.00170147099191195	-0.0126559021050072	0.00564910945633971
0.5	0.00502805195911514	-0.00369390497481144	0.00241070027428934	-0.00204844009243164	0.00242222260152243	-0.00206067091901242	-0.0124364803917189	0.00629346294007519
0.6	0.00422686259620576	-0.00446148286142103	0.00209862053460942	-0.00236258960832671	0.00209783302535647	-0.00236973213291946	-0.0117493276859936	0.00714984361743016
0.7	0.00313823079024412	-0.00524636691138283	0.00175144970843144	-0.0026397825632096	0.00174949572615816	-0.00263998061344017	-0.0112032298987377	0.00765078727014521
0.8	0.00190601554007467	-0.00569571686657683	0.00136633271804302	-0.00285634477442549	0.00135374691059734	-0.00286088533103059	-0.0107646610946545	0.00828146499910219
0.9	0.000615100937257546	-0.00586671925299003	0.000950114166434904	-0.00301910940137664	0.00095114679394366	-0.00302979462499934	-0.0102412605637447	0.00886634477770223
1	-0.00105355068256801	-0.00595042429842777	0.000526311028810494	-0.0031227584646619	0.000516460743371248	-0.00312349795574386	-0.0100293249883133	0.00928992643801545
1.1	-0.00267632379560627	-0.00502976600125844	7.07067777678173E-05	-0.00315127169833135	6.72016750919837E-05	-0.00316889950122129	-0.00976443410469704	0.0105441548973619
1.2	-0.00379862817286944	-0.00433399167798853	-0.000370506721170064	-0.00314011932360283	-0.000371317229000854	-0.00313804582773628	-0.00867218708918758	0.0115530035141947
1.3	-0.00504479430314571	-0.00380654006079264	-0.00079651368475412	-0.00305694178852537	-0.000799748719478086	-0.00305894428652827	-0.0070306091585802	0.0122554694065187
1.4	-0.00611795516195002	-0.00326179415392039	-0.00121693060524521	-0.00290927789836972	-0.00121571820381501	-0.00291480291702817	-0.00523754113541344	0.0120968808619831
1.5	-0.00686709997638619	-0.00211162497632316	-0.00161775091633144	-0.00271347731685067	-0.0016161411182932	-0.00272196548568892	-0.00409715304320201	0.0116831593186037
1.6	-0.00652791467625157	-0.00051399628695648	-0.00197676729726865	-0.00246090666128141	-0.00197697702817283	-0.00246613175935504	-0.00325505438498521	0.0116395991349318
1.7	-0.00589072143006201	0.000733884750178749	-0.00230409192723672	-0.00216518790476199	-0.00230505843028717	-0.00215893792831629	-0.00260276858855644	0.0115915705260181
1.8	-0.00503833819907376	0.00199227054054	-0.00257470461943462	-0.00181489807158116	-0.00258564853061455	-0.00182053099794854	-0.00198342961535717	0.0116162510921034
1.9	-0.00396113243548349	0.00285750844566955	-0.00279997462777713	-0.00144497693564358	-0.00281239652748514	-0.00143884089901647	-0.0014301622636178	0.011571291080894
2	-0.00309804574772321	0.00365059245462036	-0.00297456527367331	-0.00103797983156203	-0.00298417042377228	-0.00103328685741093	-0.00126339842127889	0.0118190167263157
2.1	-0.00152737746998444	0.00443125407954073	-0.00308800094009228	-0.000611958757773064	-0.00308392356997327	-0.000613942231169933	-0.000340969675001362	0.012367879259891
2.2	0.000104312842167298	0.00446725684427471	-0.00314625833294911	-0.000174942943134825	-0.00315753832921503	-0.000177786929314016	0.000823220053266999	0.0123518445794732
2.3	0.00159092376553601	0.00401523894119225	-0.00314224877838285	0.000267574143993224	-0.00314193864687325	0.00026070376957909	0.00185883768176111	0.0120214039754412
2.4	0.00288571981218835	0.00314999887715191	-0.00307015747441921	0.000704886185426419	-0.00307268840944988	0.000700633567487601	0.00280284205594012	0.0115153322436869
2.5	0.00350666503199353	0.00193830320796218	-0.0029344162096764	0.00111517501046165	-0.00294529647155538	0.00112152415354712	0.00326642118087946	0.010842572838134
2.6	0.00415205650053655	0.00115464086327579	-0.00276270326927334	0.00151836940366232	-0.00275912928403971	0.00150607028110562	0.00393295624002057	0.0106985106084303
2.7	0.0048995926226487	-2.00730525543789E-05	-0.00251769357363863	0.00188988756104393	-0.00252296660150631	0.00188988948121248	0.0046952693647356	0.0102290583974922
2.8	0.00553835612594181	-0.00146919233552893	-0.00223578217437071	0.00221716825224973	-0.00222799636282617	0.00222695909139446	0.00533697699375294	0.00979859628983175
2.9	0.00595584707032635	-0.00329924979386677	-0.00190306128126983	0.00251712317792518	-0.00189935601168352	0.00251670439927324	0.00611258111369106	0.00937322554390051
3	0.00565480800777237	-0.0051879059482555	-0.00151869530848202	0.00275414320491448	-0.00153347828381308	0.00276020585848155	0.0067365867264457	0.0090705754170966
3.1	0.00540573380839654	-0.00689347884244985	-0.00112803966576744	0.00293224799080865	-0.00112340172616355	0.00294059334865546	0.00779185404565332	0.00882187983572409
3.2	0.00454800199131902	-0.00887913309401639	-0.000708260536896608	0.0030696588416188	-0.000710002471774277	0.00306904519184715	0.00856477964494302	0.00822079209915686
3.3	0.00314829935740974	-0.0107746005265832	-0.000270767301325535	0.00314042509283401	-0.000269111520688436	0.00313669081841204	0.00933714976879979	0.00751683739283997
3.4	0.00117192765391728	-0.0123972769482468	0.000175628778347898	0.0031361373776893	0.000169388374980365	0.00315268326169481	0.010036357520144	0.00648377897880117
3.5	-0.00152522262257841	-0.0134903928478404	0.000598737772965308	0.00309430890392231	0.000604332832410438	0.00309439463914704	0.0100777386100679	0.00534080243769413
3.6	-0.00401855657015285	-0.0136367290611533	0.00102666802795197	0.00297494232171524	0.00103485734488181	0.00297464097198887	0.0103753786121063	0.00474351293352959
3.7	-0.0065002232017545	-0.0136077836251169	0.00143705334027862	0.00279543795965379	0.00142743943702417	0.00280909018696017	0.0107743484284952	0.00382143417227498
3.8	-0.00906561069757858	-0.0130756255596974	0.00181594265886339	0.00256965438465015	0.00181832702079492	0.00257880999541621	0.0109812482991249	0.00281549781918929
3.9	-0.011485739176502	-0.0121312947759745	0.00216311881984455	0.00229709050789133	0.00215585527861469	0.00229529627400963	0.0109695814660743	0.00172949525066425
4	-0.0140620012521186	-0.0105505901741597	0.00244765688769237	0.00197552694067622	0.00245211006329101	0.00197310162867741	0.0105144203853371	0.00101350370891878
4.1	-0.0157503390067628	-0.00817746709726458	0.00270021916954576	0.00161768476099754	0.0026989645616178	0.00161841760126467	0.0107675620094654	0.000828134503391476
4.2	-0.0169828569115323	-0.00587432257767757	0.00290148661117785	0.00121702924141098	0.00290597600466041	0.00120831952670666	0.0111891748224334	0.000150054221596126
4.3	-0.0178749012949702	-0.00347714457580539	0.00304604976113313	0.000804653909363698	0.00305249475858459	0.000796860319775452	0.0114877954537343	-0.000790792736498308
4.4	-0.0184862921590777	-0.001019124922488	0.0031230900680479	0.000370119247640437	0.00312547104534038	0.000367866625550211	0.0115203680176365	-0.00189174853214239
4.5	-0.0191295986293415	0.00170448070396069	0.00314715425410702	-6.66218682986491E-05	0.00315252808513669	-6.99830779498237E-05	0.0110409072063388	-0.00282554241781501
4.6	-0.0188583593864475	0.00498521354995014	0.00310608191176644	-0.000510832186719166	0.00310727947817796	-0.000497897320879121	0.0109456503389075	-0.00333143133090241
4.7	-0.0178247275497897	0.00787836477855368	0.00300175135339322	-0.000931465861969059	0.00301708231479876	-0.000941063092944847	0.0108256164513837	-0.00422032685763224
4.8	-0.0163530994555557	0.0105092340180163	0.00284125069325605	-0.00134684187400275	0.00284975541020797	-0.00135292223520613	0.0105384471471423	-0.00505432877270838
4.9	-0.0142459127677026	0.0126840836745035	0.002621431053305	-0.00173188354315949	0.00262559765895389	-0.00172896445482116	0.0102456767240263	-0.00586042496534201
5	-0.0120888991694241	0.0144865092497794	0.0023634052736622	-0.0020898350862983	0.00236702978089042	-0.00208715701361575	0.00982129277353685	-0.0064113699967433
5.1	-0.00886803469556711	0.0160305120729262	0.00205090650654172	-0.00240299530239304	0.00205321033129417	-0.00240163113587677	0.0100802423639993	-0.00683619416600422
5.2	-0.00560581471112874	0.0164164265743192	0.00169241279825255	-0.00265377033589533	0.00169413666854756	-0.00265892152192164	0.0102033841196068	-0.00779259742281508
5.3	-0.00252436439937016	0.0161693428489032	0.00130522078364553	-0.00287043608770074	0.00130835728409268	-0.00286836474095703	0.0100594205315043	-0.00872031888051939
5.4	0.000255418180271603	0.0153162648189064	0.000879519621919215	-0.00301987053959391	0.000896740793592864	-0.00303108600189549	0.00975941196060176	-0.00986874383679626
5.5	0.0022772682733479	0.0144101333134584	0.000462730118757993	-0.00311895185822244	0.000472812931923546	-0.0031283993970371	0.00872085367621144	-0.0107444954304546
5.6	0.0048513001647447	0.0134632502231362	2.3089242875036E-05	-0.00315376746888546	1.45473784623054E-05	-0.0031569965428976	0.00821797359849735	-0.0110659333899862
5.7	0.00698272284068109	0.0116064454575066	-0.000408702846452862	-0.00312360542014815	-0.000425349603800597	-0.00312728183715323	0.00754146511802525	-0.0116991693654519
5.8	0.00855055408205751	0.00941693171458542	-0.000856228151350804	-0.0030289597443216	-0.000859767669616308	-0.00304298237416375	0.00671998889542494	-0.0123736958102661
5.9	0.00956495928681263	0.00689423673046352	-0.00126333338080519	-0.00288832328238136	-0.00127158337719738	-0.00288824034093325	0.00568625781900162	-0.0131330067314938
6	0.00929874037874775	0.00424537801453084	-0.00166182632027752	-0.00267963144600278	-0.00165825886354961	-0.00267979942780167	0.00374642505689158	-0.013597271643609
6.1	0.00902229049608918	0.00251947464391616	-0.00201689503606515	-0.00242580455712288	-0.00201853791865821	-0.00242179240765167	0.00253777578721042	-0.012817170406005
6.2	0.00862368412540807	0.000371576351549368	-0.00233131942783539	-0.00211193237797857	-0.00233503938189653	-0.00212382886793098	0.00200161490607134	-0.0125228295610738
6.3	0.00784020139069075	-0.00181467188108098	-0.00261008497305897	-0.00177578542288476	-0.00261923021280001	-0.00177002875963926	0.00162463474243208	-0.0126044105298956
6.4	0.00649435311461504	-0.00412265169482922	-0.00283601580564486	-0.00138314645398962	-0.00282627641030434	-0.00138806612235434	0.00121684999903538	-0.0130776146175325
6.5	0.00430566134336358	-0.00570207780232743	-0.00299206208846787	-0.000978644618633835	-0.00299993689336759	-0.000974152108370024	0.000357244368592706	-0.0132883295499076
6.6	0.00268763550238123	-0.0066704922172705	-0.00310215080522327	-0.000551911282051452	-0.00310379078510519	-0.000555896748550507	0.000284502001240143	-0.0134787809815868
6.7	0.000613809436263256	-0.00753327665013725	-0.00315228777020457	-0.000111671140875264	-0.00316115591968002	-0.000105368012757949	-0.000436069220651581	-0.0140381420846268
6.8	-0.00163813275658955	-0.00772411973003859	-0.00312959786749128	0.000331260036318337	-0.00314070890983823	0.000336332591211039	-0.00142765278424346	-0.0141961822382479
6.9	-0.003940361622455	-0.00754609979502556	-0.00305345762730099	0.000765004466316409	-0.00305644829202184	0.000767403351784443	-0.00240962839405327	-0.0143182506773925
7	-0.00672863902196713	-0.00638563588928621	-0.00291767804880656	0.00118774548217682	-0.00293054523084974	0.00118555982380132	-0.00398214877869315	-0.0139674445381197
7.1	-0.00821826467370962	-0.00422312352163173	-0.00273712044648554	0.00157897945179617	-0.00273342971339818	0.0015876590680725	-0.0045211480875287	-0.0129140512641239
7.2	-0.00933260119271163	-0.00238359778011807	-0.00247842640977078	0.00194692012249403	-0.00248496561898719	0.001949017583378	-0.00485471747258862	-0.0124269085739369
7.3	-0.0102545846706138	-0.000345420573206842	-0.00218168409669093	0.00226591718944995	-0.00219290989578899	0.00227100490114182	-0.00508530715904023	-0.0120979137101491
7.4	-0.0108139496772452	0.00162861678524875	-0.00183905290995685	0.00254985395689542	-0.00184592172672652	0.0025635091602295	-0.00534683524700322	-0.0122966158601505
7.5	-0.0117746933586778	0.00369974685054099	-0.00146968850590221	0.0027898184543462	-0.00146265823924697	0.00279720880907651	-0.00641604829099734	-0.0126312230808681
7.6	-0.0115221667313917	0.0067761282656095	-0.00106169672508409	0.00296542467610573	-0.00106308742800527	0.00296072493301847	-0.00687128068534035	-0.012102255826104
7.7	-0.0105383684349627	0.00907751046459216	-0.000632853427971359	0.00308559602998329	-0.000634198473952281	0.00308453666104698	-0.00731957003875188	-0.0126084260231369
7.8	-0.00890216123515958	0.0109335401324018	-0.000206062882522048	0.00313386113018232	-0.000213861949217609	0.00314035087241575	-0.00816538704480507	-0.0129378562687601
7.9	-0.00689371400762812	0.0121422963607283	0.000237009379142385	0.00313935749814963	0.000244965995991147	0.00314083088701616	-0.00925234631053458	-0.0130307050180929
8	-0.00499794108264206	0.0134409279516117	0.000678633423951857	0.00306310461421133	0.000678731806334727	0.00306800592474702	-0.0107763970912566	-0.0123844174814715
8.1	-0.00173232749228642	0.0142518134226028	0.00108760449754457	0.00294486738034629	0.00110676419810936	0.0029458976444758	-0.0110761640167501	-0.0114456603059329
8.2	0.00123516892320636	0.0139112742703726	0.00149267210564029	0.00276280462561919	0.00150190150481398	0.00275557659320185	-0.0115207830545324	-0.0109522238239009
8.3	0.00394893611881589	0.0130209540318757	0.00186896369135399	0.00252155815246386	0.0018673660918899	0.00253511904188943	-0.0119633398443208	-0.0104493775569048
8.4	0.00630164233569958	0.0114893849333253	0.00220302064819801	0.00224125867752678	0.00219998999248543	0.00224104494383287	-0.0124983705178001	-0.0102290105291579
8.5	0.00760798141939739	0.00989674754021338	0.00248605468271651	0.00191117670765351	0.00248516705737491	0.00191436192407995	-0.0138804798725054	-0.00957564937623235
8.6	0.00956650236424699	0.00858904727111805	0.00273277088872592	0.00155001542750386	0.00274225007023703	0.00154344336588151	-0.014213602359286	-0.00821362927012128
8.7	0.0112031953847479	0.00622408108146195	0.00291675844158844	0.0011455296236386	0.00292231941417209	0.00114623303186875	-0.0143876426197168	-0.0075167863604354
8.8	0.0122172827690155	0.00348868089002261	0.00305075101162204	0.000734079573593244	0.00305648540746737	0.000725305388059052	-0.0147252613745365	-0.00698476884118669
8.9	0.012682980729167	0.00025483723259316	0.00312587731850433	0.00030122981083839	0.00312500015089999	0.000298987418918984	-0.0149619076702896	-0.0065072549798487
9	0.0118260982985463	-0.00300591283343032	0.00313607530167357	-0.00014187955430459	0.003139244043076	-0.000137789845912799	-0.0156607320542368	-0.00575787942786261
9.1	0.010986883054796	-0.00573423197325386	0.00308672078246258	-0.000584464760061992	0.00308965075304567	-0.000571590342176841	-0.0154242108691321	-0.00450623450495706
9.2	0.00936513346386669	-0.00874336513457869	0.00297463704338399	-0.00100033691456089	0.00298227354057471	-0.00100323666016618	-0.0151185354364101	-0.0038955872410321
9.3	0.00695683827683175	-0.0113009647164148	0.00280486095472864	-0.00140358990043648	0.00280411493784239	-0.00140857001202837	-0.0148494278921139	-0.0033005444376503
9.4	0.00390127024612812	-0.0134243038259597	0.0025822495301619	-0.00179274640622241	0.0025887759666109	-0.00178518028624378	-0.0146628254385048	-0.00297250053119066
9.5	-8.70984572474923E-05	-0.0141888176819717	0.00230435854233429	-0.00212687582526545	0.00231175225517294	-0.0021282495978868	-0.0149833938549642	-0.00214343984100968
9.6	-0.00329882251783748	-0.0140093200788373	0.00198614982754157	-0.00242622427496155	0.00198648219635908	-0.00242524599141887	-0.0145157664852865	-0.00123497440648175
9.7	-0.00674542690938348	-0.0135605446183859	0.00162002827884538	-0.00267429645245664	0.00162552554711721	-0.00268159932515888	-0.0142794923496344	-0.000797631527004702
9.8	-0.0102282708261891	-0.0123350031157231	0.00123579837364109	-0.00288162182291828	0.00124150485753603	-0.00287316394652051	-0.0141919990614571	-0.000308085769130867
9.9	-0.0135302178869598	-0.010430553857396	0.000830364179630294	-0.00301928141559752	0.000823059030113133	-0.00301803646753287	-0.0142919315710729	9.96447089312648E-05
10	-0.0170732531146417	-0.00748246186942045	0.000401588457653411	-0.00310414283395311	0.000394095776966043	-0.00311651533472652	-0.0149918272742966	0.000939939646460245
10.1	-0.019014748750154	-0.00335232244936673	-3.65428039224931E-05	-0.00313507987238246	-4.67244816865365E-05	-0.00312968921439924	-0.014569331153435	0.00230861423220208
10.2	-0.0200974180343986	0.000605661544403551	-0.000480867605584875	-0.00309811343444167	-0.000484256712417894	-0.00309533910801632	-0.0138995548955435	0.00301775850043691
10.3	-0.0204236901986331	0.00472638381341826	-0.0009114748196015	-0.00299160398234332	-0.000903431388727335	-0.00300065427943543	-0.0132064099636633	0.00347730182791977
10.4	-0.0199851831934358	0.00863791142577862	-0.00130564311185171	-0.00283571690980871	-0.00130396356593618	-0.00284188702457775	-0.0124962252077272	0.00339746585779204
10.5	-0.0194057817011926	0.0129008790170167	-0.0016922876366153	-0.00263928733145073	-0.00168919520000192	-0.00262634535061486	-0.0125772592215398	0.00357686301844985
10.6	-0.0171194732501342	0.0173634520661893	-0.0020447219130802	-0.00237173100232074	-0.00204254470893866	-0.00237553958013679	-0.0119569006794011	0.00406666865342402
10.7	-0.01405141323629	0.0211154030203064	-0.00235839322468279	-0.00207049813285086	-0.0023549111859811	-0.00206523902651301	-0.0114648284086866	0.00426249391023688
10.8	-0.010193789019615	0.0243097275112564	-0.00262536458711055	-0.00171221248214985	-0.00262018676438541	-0.0017211010770691	-0.0110379886836458	0.00440948966795575
10.9	-0.00564543106640292	0.0264787356772781	-0.00283180188859698	-0.00134150756310179	-0.00283696861287827	-0.00134078312055461	-0.0106882207960922	0.00438367719402672
11	-0.0012231474199328	0.028202272932156	-0.0029931062840842	-0.000927914421910637	-0.00299792934251705	-0.000934636216982237	-0.0109940103992457	0.00482113763382704
11.1	0.00454759275009538	0.029271250970115	-0.00310064489624817	-0.000503047157265067	-0.00308982627869879	-0.000500193737104386	-0.0101619336582007	0.00561049374314593
11.2	0.0103792088553309	0.0285849314112271	-0.00312930125568832	-6.81239318527008E-05	-0.00313642237047636	-7.29470209290499E-05	-0.00922440799078839	0.00571781247932851
11.3	0.0160040774959838	0.0266122841822952	-0.00310349583455005	0.00037746507725381	-0.00311498094157906	0.000367452257259283	-0.00818303571069713	0.00559853680305692
11.4	0.02098853552879	0.0234009120352781	-0.00303238351971716	0.000803436194987082	-0.00302749701388375	0.000810983799001606	-0.0073817947586961	0.00504485288872175
11.5	0.0246903147560035	0.0196340231435619	-0.00288927373041439	0.00121955402265465	-0.00289205106036745	0.00122979195414264	-0.00746311185861334	0.00467695708986617
11.6	0.0285575938925422	0.0153917466591393	-0.00269548867842675	0.00160624759340623	-0.00269547407545302	0.00160917587533065	-0.00664256271621193	0.00452344737389141
11.7	0.0314511999691296	0.00992374357180689	-0.00243750997764727	0.00195920847813924	-0.00243808876334518	0.00196777938979942	-0.00597812515063562	0.00363853402451102
11.8	0.0331768848392781	0.00391637293034059	-0.0021452339554621	0.00229119194113946	-0.00214933846546304	0.00229287553704413	-0.00564352342255706	0.0026711188751889
11.9	0.0336221833237072	-0.00256590890972557	-0.00179749288570481	0.00256800159137409	-0.00181047888889026	0.00257226868434046	-0.00571223568472093	0.00181203916229626
12	0.0320223023066363	-0.00837600328142522	-0.00142590169334068	0.00278852631930762	-0.0014253115900608	0.00278993371464178	-0.00659981464417766	0.00172108073913386
