# GHZ S RI R 50
0.2	-0.000182255153328027	-0.000388420874721963	0.950493985570449	-0.307450133894294	0.95026759220194	-0.307592408077891	5.81448725744907E-05	-0.000319735351378762
0.3	-0.000599687942410956	-0.000128155342797999	0.891008066113458	-0.451316931911424	0.890870480556067	-0.451370376444632	-0.000306489430937064	-0.000554989222226226
0.4	-0.00075391773679727	0.000200944622535679	0.809987371609602	-0.584088161096864	0.810027726684986	-0.584228006072766	-0.000516429322876113	-0.000475272373257148
0.5	-0.000722600588250209	0.000978722751273604	0.709195763336357	-0.703314161909801	0.709084971895368	-0.703410338826417	-0.000284396383006791	-1.54780804064549E-06
0.6	-0.000308261348164303	0.000792613490338504	0.590923756206898	-0.804611499418284	0.59073377868429	-0.804614548170221	0.000122584382351647	-0.00057945403656608
0.7	-0.000521599566233938	0.00105528933453453	0.458807423428001	-0.886426260597823	0.458733242726098	-0.886460784427818	-9.96888369691982E-05	-0.00107581624165205
0.8	-0.00042537805564494	0.00113143818132988	0.315468240473577	-0.947095832579938	0.315349320635766	-0.94700896059074	-0.000488820888754555	-0.0013974970205852
0.9	-0.000694278753621807	0.00148063260637051	0.164189968182564	-0.984618416280723	0.16404052376417	-0.984575490963454	-0.00138977430615571	-0.00168173072249163
1	-0.000585224577554378	0.00264628429904485	0.00896077399790316	-0.997455746766386	0.00884241170879464	-0.997426004932711	-0.00215626208896405	-0.000495909803225176
1.1	0.00104093217445476	0.00237332585003265	-0.14496331879142	-0.986875486735203	-0.145612530036647	-0.986840589699286	-0.00128162244525786	-0.000383819226888299
1.2	0.00146375362131611	0.000668212816820322	-0.297469256018597	-0.952383606584105	-0.297462250682563	-0.952439447917595	-0.00109215204997046	-0.000809011745202764
1.3	0.00157566598063476	-0.00148111273955164	-0.441932562048202	-0.894384949464526	-0.4420249443353	-0.894409481660854	-8.98700772586804E-05	-0.000859717984424307
1.4	0.00109944981100341	-0.00366858899864331	-0.575276893328285	-0.814567489808083	-0.575350868007303	-0.814467610748475	0.00105233964118242	-0.00160311420017364
1.5	0.00136621406887333	-0.00471315385739822	-0.694440808565946	-0.715491481813344	-0.694465491449808	-0.71541923244739	0.0029116124828326	-0.00303296794710693
1.6	-0.00016294627246337	-0.00548870434687061	-0.797441445703834	-0.599489589340633	-0.797872425745819	-0.598987130571103	0.00123782362581597	-0.00503823249086915
1.7	-0.000718776484595973	-0.00433164304105515	-0.880931556619324	-0.467799648645626	-0.881236654204715	-0.467307691575581	-0.00029349399514896	-0.00471683023834992
1.8	-0.000925019576641728	-0.00362459524066409	-0.942886475299069	-0.324586706635381	-0.942901971130028	-0.324577190690651	-0.00152870311819227	-0.00437314060196619
1.9	-0.000889412726736194	-0.00254037523524776	-0.981787311694242	-0.174170914902724	-0.981832044295482	-0.174223805553049	-0.00240846258281417	-0.00327247203567477
2	0.000646951514785413	-0.0024127100273171	-0.997440806078727	-0.0199637595897352	-0.997535076291225	-0.0193111980191593	-0.00123918677435051	-0.0025513160674097
2.1	-0.000169839653335696	-0.00401261059784842	-0.987854438502295	0.137412356482188	-0.9879557068667	0.136926312416676	-0.00203779869656629	-0.00409120900051289
2.2	-0.00162052726967292	-0.00389130387524924	-0.95414666488312	0.288517134073555	-0.954185194821453	0.288651536398322	-0.00354930280673169	-0.00380433096782276
2.3	-0.00257652482568075	-0.00338893367968368	-0.897546218857923	0.43316300325244	-0.897381466932208	0.433251278469949	-0.00470587668054088	-0.00313323158856474
2.4	-0.00374882789547046	-0.00252358224809663	-0.818787916853127	0.568115488476185	-0.819082123781869	0.567652711494553	-0.00580267403946725	-0.00186263867347575
2.5	-0.00317876756642835	-0.000949920801710653	-0.719883553018718	0.688971809411673	-0.720188889587656	0.688591106081291	-0.00456713270539577	-7.70085391323197E-05
2.6	-0.00320948675379277	-0.00180205785935746	-0.603782076963829	0.791197213434559	-0.60370290861108	0.791137254415561	-0.00334801071105546	-0.00123284572874707
2.7	-0.00401069617483476	-0.00151298854169573	-0.473462110670171	0.874951199628573	-0.473432485363547	0.874965182261334	-0.00376174912575499	-0.00189942105611697
2.8	-0.00445583416434831	-0.00087662480303862	-0.331755706611166	0.937698232895841	-0.331636766152649	0.937782323935609	-0.00417213522149213	-0.00187570162944393
2.9	-0.00383753665772156	-6.52681620020726E-05	-0.181466102293471	0.977526396421978	-0.181461311734828	0.977581283520273	-0.00405295029032868	-0.00110234169364151
3	-0.00293734967065343	5.30545816270448E-06	-0.0269642762390882	0.99242173117908	-0.0270281994895816	0.992493641983153	-0.00306985876757083	-0.000788604364320626
3.1	-0.00236527686239492	0.000302430946598385	0.125832375760073	0.984470111584639	0.126481388031373	0.984547806049791	-0.00275789348757822	-0.000400927931651635
3.2	-0.00147534790663091	0.00036727599284213	0.277905910828137	0.952692807445508	0.277896175626382	0.952732486870509	-0.00201415004021444	0.000110398849545893
3.3	-0.000353405253391716	0.000106579434133586	0.423204238137521	0.897164265557391	0.422583095698949	0.897449707818725	-0.000867261245648093	0.000312006767150989
3.4	0.00053382999026505	-0.000276168254045356	0.556430825336353	0.820101163853256	0.556346651473858	0.820216942398105	0.000650308436913883	0.000227894264250207
3.5	0.00195405195616989	-0.00172672664409228	0.675810365668473	0.724207299976277	0.67582472096246	0.724233402068749	0.00259017631161582	-0.00148387060118694
3.6	0.00105716347153397	-0.00307301372946076	0.780207009633431	0.611041984987682	0.780626829801029	0.610645644059993	0.00192313178825998	-0.00344475400536782
3.7	0.000884890083623571	-0.00353065571747505	0.865757984665729	0.481293297456979	0.865765753293489	0.481419712318962	0.00143081408642262	-0.00410549334198419
3.8	0.000459067169138565	-0.0041436701367543	0.929295186419345	0.340760059296859	0.929324670269499	0.340942966068018	0.000743221673586228	-0.00483598225091124
3.9	0.000337691744562897	-0.00445061962489391	0.970498165019888	0.192155279039508	0.970403315818022	0.192742875045489	-0.000300194154932923	-0.00514217503395824
4	0.000924020541517769	-0.00530803808537565	0.989213222501064	0.0398982743928924	0.989295408114303	0.0399407582715765	0.00027119293973626	-0.00568588691168622
4.1	-0.000498504655232711	-0.00736328673955406	0.982617095560036	-0.115117959235717	0.982555516643411	-0.115053593396881	-0.00141289959582502	-0.00797275930351342
4.2	-0.00268048862866102	-0.00765118877120716	0.951587283091293	-0.266513205232507	0.951784290448996	-0.265946630630379	-0.00392289513001508	-0.00832557237153167
4.3	-0.00435124043337889	-0.00772175224028973	0.898601453936482	-0.409942205923296	0.898602448075128	-0.409923736345426	-0.0062940979150117	-0.00814676551830711
4.4	-0.00635386413548846	-0.00704284216027909	0.824159792095117	-0.544253237330349	0.82408022000817	-0.544236823092353	-0.00890667329641809	-0.00685794022056599
4.5	-0.00673003950441468	-0.00592162919656171	0.728632804997974	-0.666179572059772	0.728510865556714	-0.666033043794627	-0.00956032717575261	-0.00446592521289438
4.6	-0.00790738866160217	-0.00636814263880594	0.615652377582133	-0.769626530229958	0.615639585146564	-0.769398139814015	-0.0100985233924274	-0.00428517244674372
4.7	-0.0097457769983191	-0.00606735879431632	0.488940594510223	-0.855186730635727	0.489058689418335	-0.85494416307371	-0.0118231318573369	-0.00354159735181842
4.8	-0.0114171673775528	-0.00487493577205946	0.350113789565342	-0.920228990406405	0.350407095156716	-0.920043448440963	-0.0131395590120414	-0.00201490932900779
4.9	-0.0122566797623407	-0.00355755953698682	0.202633771206847	-0.962597999014857	0.202892344202328	-0.96254907741976	-0.0137270072224029	0.000248538955334855
5	-0.0124378263929556	-0.00245123334528675	0.0514147129789658	-0.980367666185493	0.0515725469787799	-0.980241808018801	-0.0129185756094363	0.00238936802500731
5.1	-0.0128358673719176	-0.00152955683201753	-0.0995953938491524	-0.976561302370911	-0.0992764924245749	-0.976500607303695	-0.0124458834583296	0.00432921172862348
5.2	-0.0126784525404462	-2.058096061263E-05	-0.249730856503272	-0.949440669809437	-0.249307279577288	-0.94956370510346	-0.0113205742429132	0.00710803808144687
5.3	-0.0121432284780382	0.000994862907153066	-0.393680230846499	-0.898936698652676	-0.393395075787917	-0.899279700749458	-0.00899967289569347	0.00987427042590493
5.4	-0.0111388326130812	0.00241407125811492	-0.527624385883983	-0.826496435867839	-0.527490739522311	-0.826783919351483	-0.00534068598738083	0.0123053935353969
5.5	-0.00964630119422453	0.00157940309425073	-0.6479656906812	-0.735556761028634	-0.647916847269333	-0.735867868751196	-0.00030440848823076	0.0112494765971636
5.6	-0.0114602153303512	0.00206592920550851	-0.754782286206764	-0.626711521821194	-0.754795964600886	-0.626880491726969	0.00036300114540967	0.00961419802808747
5.7	-0.0118723803430104	0.00398108280072634	-0.842678308212475	-0.501784491430955	-0.842655072609279	-0.501958195587976	0.00163710418234949	0.01003541746988
5.8	-0.0116606734337956	0.00601786597790827	-0.909576161649725	-0.365095645128648	-0.909621011357065	-0.365385192252206	0.00343814748671805	0.0103510438287657
5.9	-0.011014405149063	0.00815738958811834	-0.954779327287596	-0.22065497260319	-0.954898676109351	-0.22070245594336	0.00556830379041128	0.0111416494565527
6	-0.00830191681247775	0.00924739393417544	-0.978706241142705	-0.0703498158615383	-0.978703184323762	-0.0704179919599201	0.0104549130661717	0.0103817834149722
6.1	-0.008773215930788	0.00863059370891087	-0.977069129126664	0.0829896563174343	-0.977072344931412	0.0828871446981368	0.0118525230705075	0.00610396893329023
6.2	-0.00901699504435345	0.0104791786054815	-0.951844409578672	0.232894973358647	-0.951892033877613	0.232714805472206	0.0118951478783631	0.00361799939229219
6.3	-0.00826565623866165	0.012155006324681	-0.904472716782336	0.37699765071022	-0.904496702086724	0.376870042786306	0.011848691381836	0.00120001877725547
6.4	-0.00681412553874588	0.0134949316118655	-0.835783821917833	0.512663786455818	-0.83577479597853	0.512451902914905	0.0113224869790348	-0.00117108095837379
6.5	-0.00490751023911948	0.0136835415089427	-0.745368338301111	0.636821858063647	-0.745467934358297	0.63665080112019	0.010838637155651	-0.00387514165471299
6.6	-0.00335118333000594	0.0136397396409393	-0.637386642271909	0.743181196548055	-0.637533521555427	0.743036282485145	0.00929474882902405	-0.00615647187356398
6.7	-0.00170653703151605	0.0131877316393265	-0.515259322843697	0.83268524660212	-0.515378981523578	0.83252909982307	0.00763986765934032	-0.00777937990478006
6.8	-0.000226078085212581	0.0124973407194553	-0.380275940781489	0.902651110848168	-0.380485022220587	0.902576001150334	0.00576023103516151	-0.00902985717708763
6.9	0.00102124563267871	0.0114820496568103	-0.235455863966595	0.950767474937848	-0.235704468028954	0.950762925171427	0.004068378875806	-0.00977440526867546
7	0.00194991652326552	0.0100558772595765	-0.0855852132673315	0.974308262572715	-0.0858408608184001	0.974277498863469	0.00211197170738607	-0.0110207009386347
7.1	0.00210847893009569	0.00925580762710091	0.0648052068692521	0.976504268808361	0.0646005104830524	0.976491116986393	-0.000660697354508229	-0.0109190723814421
7.2	0.00273694859111675	0.00851431578438201	0.215322830576164	0.955357334237643	0.215069408525452	0.955399462599838	-0.0025557191060402	-0.00993690534804677
7.3	0.00288920675491518	0.00748234597326124	0.360772760745056	0.910595342231246	0.360533966203966	0.910683810488543	-0.00414640054967297	-0.00868739028192034
7.4	0.00307340612823823	0.0067438990888086	0.496949910922615	0.843416771390016	0.496732426903495	0.843575754568699	-0.00536067713302042	-0.00701274429841915
7.5	0.00325433959200767	0.00541372451353627	0.620461033647777	0.757836991366287	0.620300735635851	0.758005992342095	-0.00556133769637167	-0.0057169155200922
7.6	0.00246942568470404	0.00445086514803368	0.731861181922704	0.653529665433093	0.731645678423312	0.653687537010511	-0.0065242322511215	-0.0048492336052728
7.7	0.00188158893799435	0.00424920370660427	0.82459714272791	0.532132033816302	0.82444521034303	0.532324400969838	-0.00716230474157506	-0.00285576844700165
7.8	0.00168480610862104	0.00428839785812102	0.897225439065136	0.398163114311945	0.897103100214755	0.398382263294148	-0.0068722730692834	-0.000618594381613832
7.9	0.00147624164873859	0.00477822514563515	0.948342790290249	0.255374137206705	0.948300097753596	0.255597985601046	-0.00562727503174732	0.00222754007513006
8	0.00342682362831537	0.00424448594560022	0.978670240292995	0.105447262382256	0.978737325957416	0.105739267292361	-0.00142904617243241	0.0037218170020232
8.1	0.00186806778580935	0.00244944237203513	0.983176345833488	-0.0487329219123225	0.983297475762428	-0.048461179769383	1.90650350076379E-05	0.00157543702486308
8.2	0.000277679842637477	0.00290742239555307	0.963831288779949	-0.200361280423694	0.963893965679413	-0.200065388265825	-3.65219575463858E-05	0.000972672958907855
8.3	-0.0010202462954001	0.0040681646030174	0.921827680497038	-0.347340960498296	0.921962274407731	-0.347083935497803	-0.000114431704718953	0.000748168987514397
8.4	-0.00176166940706118	0.00612451190540172	0.857952822173006	-0.486886902378551	0.858162350376634	-0.486684845909591	-0.000544621087908642	0.00137544655070167
8.5	3.69470047710499E-05	0.0086963827161569	0.771269244095452	-0.61568396174425	0.771383916230089	-0.615556991006461	0.00190115639617324	0.0030754742228003
8.6	0.00137876360625111	0.0081307154558621	0.66608784338085	-0.726899050002569	0.666283285891362	-0.726711884936345	0.00402087798993735	0.000462433186925082
8.7	0.00181422986613224	0.00883893084898105	0.545958061498611	-0.821642065866487	0.546238700830592	-0.821529904970338	0.00386282543192818	-0.00136219385689444
8.8	0.00331229007609182	0.00939504780425262	0.412173518378641	-0.897227222730755	0.412379199513686	-0.897170655338278	0.00310213705774895	-0.00265354218144664
8.9	0.00507676714596269	0.00950794615758454	0.267216269422772	-0.951054454369214	0.267457091440243	-0.950911616324249	0.00211879654066119	-0.0029089111980042
9	0.00803557926817986	0.00861880435192095	0.116336303470685	-0.979591578448616	0.116698202259446	-0.979558350260334	0.00265681028586989	-0.00233795444933066
9.1	0.0100539995626539	0.00621654628349554	-0.0357290888087085	-0.986974130884096	-0.0353759460508379	-0.98698489810554	0.00334845379288	-0.00291545584998686
9.2	0.0117146162290771	0.00331089801850625	-0.189098121522716	-0.970407084273306	-0.188740588535063	-0.970474221000484	0.00449906003757623	-0.00315950568061586
9.3	0.0122403522995098	7.27933335280041E-05	-0.338063641821558	-0.929530109705766	-0.337704723320237	-0.929591117612242	0.00600137954970119	-0.00383448945922806
9.4	0.0121292188760995	-0.00283041963791252	-0.478047092275058	-0.86545297047195	-0.477721389916843	-0.865598066253071	0.00771427942900055	-0.00453702189743767
9.5	0.011503125964335	-0.00716752825194507	-0.605686679497803	-0.782430577855066	-0.605478100377676	-0.782566039733612	0.0100423206388495	-0.00822068850173365
9.6	0.0072351434527776	-0.00958987545852955	-0.721836221151883	-0.679610212152776	-0.721559810486386	-0.679793200624789	0.0068924395553354	-0.0113779049283462
9.7	0.00429626988034094	-0.00970589997290035	-0.819267193111999	-0.558894881587361	-0.819016612179245	-0.559163465905446	0.00448602258518994	-0.0115697497613717
9.8	0.00167704191935208	-0.00975964190252066	-0.896392590820948	-0.424856565504911	-0.896179442001251	-0.425131336613278	0.00251070497352079	-0.0110375381048237
9.9	-0.00086705753984629	-0.00848894909317155	-0.951966617542889	-0.281234570234949	-0.951849994629479	-0.28156522771611	0.0014157491650956	-0.00897044928165388
10	-0.00118853879175278	-0.00853708684964659	-0.986714348037303	-0.129558673069054	-0.986629843913526	-0.129940417967374	0.00408328322414444	-0.00838294012580431
10.1	-0.0052304679033341	-0.00884943663587025	-0.99454493211886	0.027200805009722	-0.994521568162484	0.0267180938103652	0.00287370124628695	-0.010780298437267
10.2	-0.00819399203423631	-0.00652650157871628	-0.978151084652324	0.181679429532533	-0.978133084460386	0.181225048610042	0.00110309444345413	-0.0105990406774832
10.3	-0.0101821543935663	-0.00366901119190781	-0.938418126247425	0.331912918151009	-0.938551697707133	0.331365945590953	-0.000201510283139219	-0.0101139366706822
10.4	-0.0112615231011181	-0.000772115276044163	-0.876046800721417	0.47488924358617	-0.876312480937743	0.474345867304974	-0.00106690590284433	-0.00914000763464801
10.5	-0.0106808757267935	0.00198691652176222	-0.789872178729926	0.607114489733583	-0.790157442144415	0.606722610998227	0.000543480576622231	-0.0084874061861956
10.6	-0.0107468436795425	0.00298995887572682	-0.684936776792819	0.721246315994005	-0.685366733015615	0.720898348593508	0.00128460964972405	-0.010763111034395
10.7	-0.0112281175282344	0.00527324957947894	-0.56475996473462	0.818992565932098	-0.565175310523633	0.818700887883504	0.000574620478129542	-0.0126280951119332
10.8	-0.0108169746661479	0.00783215726466246	-0.430193075794451	0.897270432173471	-0.430708807461191	0.897038729380124	-0.000832501424233623	-0.013978692502291
10.9	-0.00951679561148069	0.0106699855247788	-0.284216763599823	0.953408112239222	-0.284709810730374	0.953357215714019	-0.00234802858074906	-0.0146271222431541
11	-0.00708401313660832	0.0123479332961644	-0.132284708030051	0.983894229537968	-0.132835641707036	0.983890975523092	-0.00349581749832957	-0.0154648994972441
11.1	-0.00462757102298554	0.0142213244451829	0.0212657647219479	0.993134017209528	0.0206308851238375	0.993218440773815	-0.00542482077084735	-0.0158008889201926
11.2	-0.00115044744159318	0.0150347240999871	0.175976242416232	0.978080455638246	0.175452458079712	0.978286579897428	-0.00681493303345493	-0.0156000253315843
11.3	0.00251625669808578	0.0150816827836247	0.326349662098313	0.938352764773046	0.325916896697016	0.93861917988498	-0.00786360301814105	-0.0148007639731611
11.4	0.00631211228170498	0.0142130664806614	0.467952835571368	0.87519039456713	0.467485681760083	0.875454263895584	-0.00805967953050274	-0.0133420930096441
11.5	0.0101042765649851	0.0112463584651228	0.597156271590729	0.792986230817813	0.596796131092885	0.793408920697825	-0.00692905088546657	-0.0143330734092128
11.6	0.0108973914130096	0.00828786077452152	0.714769027431079	0.690529946792366	0.714501550156282	0.691016551662997	-0.0096495927512912	-0.0151029459647188
11.7	0.0123898921064577	0.00633686510620492	0.813619778996996	0.570029938406085	0.813380734066621	0.570457548960188	-0.0116661767315644	-0.0136912583122223
11.8	0.013345494234362	0.00349967581127295	0.891891215629408	0.43595151791721	0.891708847972682	0.436510180884877	-0.013299171338551	-0.011755802772272
11.9	0.0143698021053594	0.0013498318334883	0.948510148861723	0.292579320513249	0.948474913971838	0.293128858209688	-0.0137377281237544	-0.00808474164254405
12	0.0154862177236063	-0.00301772266229371	0.984295439000043	0.141013029800013	0.984286713979377	0.141498223645949	-0.0103873859420958	-0.00656519423799793
12.1	0.0123580711494605	-0.00794021797405272	0.992949531056915	-0.0156195462329461	0.992929268353176	-0.0151414305291117	-0.0107383240493766	-0.00848625518246833
12.2	0.00829426511704099	-0.0102760543678258	0.977285062128806	-0.169924358825885	0.97739728659173	-0.169484146553217	-0.0122380456554614	-0.00821646729599079
12.3	0.00408268991591355	-0.0110545823969345	0.938365634978428	-0.31958686086293	0.938556815634957	-0.319227534225485	-0.013754321757045	-0.00721898982069123
12.4	-0.000290807957017187	-0.0101272820498775	0.877432221254417	-0.462143765043709	0.87757060455646	-0.4617669322228	-0.0153258426227922	-0.00476943769150157
12.5	-0.00192614265296947	-0.00793635736669963	0.792310521479204	-0.594035091350439	0.792778131692129	-0.593646008927295	-0.0136740177657365	-0.00149958621114156
12.6	-0.00413920030090916	-0.0073448941243758	0.689215914027693	-0.707734069886567	0.689568739135853	-0.7074276262133	-0.0124228465668714	-0.00180825065328755
