# GHZ S RI R 50
0.2	-8.12528728670828E-05	-0.000580649072308476	0.951007646388849	-0.30731920391136	0.950781191650609	-0.307461606018512	7.3351975245473E-05	-0.000415760154050963
0.3	-0.000582630268658194	-0.000407141864821682	0.891669151391323	-0.451254629453813	0.891531507430948	-0.451308152842655	-0.000398210974059107	-0.000624867578692457
0.4	-0.000891778539279564	-9.48418772579192E-05	0.81080967916752	-0.58419336422832	0.810850119086203	-0.584333295234592	-0.000729533797404862	-0.00045201380950361
0.5	-0.000853541171292549	0.000899469423312604	0.71000770667124	-0.703769576191736	0.709896839627643	-0.703865867048326	-0.00046701711480976	0.00025585578643356
0.6	-0.000242450393812644	0.00054133113831553	0.591582220074225	-0.805153727990904	0.591392085855533	-0.805156819182097	3.89311525684274E-05	-0.00038922439179252
0.7	-0.000557498457674469	0.000626482990407983	0.45944820781498	-0.887122745077405	0.459373967868326	-0.887157318988523	-0.00027184832178184	-0.000845077807753869
0.8	-0.000619261437495869	0.000581886881922724	0.315991785843532	-0.948013809179332	0.315872724571748	-0.94792687161331	-0.00067334082049363	-0.0010698515713023
0.9	-0.00126027031021257	0.000849284448602367	0.164439446787191	-0.985727294952357	0.164289829744845	-0.985684330369829	-0.00159544638234106	-0.00129024300427402
1	-0.001564134603129	0.00269406352830077	0.00890968477096051	-0.998435340512469	0.00879120810927613	-0.998405562368468	-0.00226357581669519	0.000235837134660462
1.1	0.000735868371286956	0.00273848509917475	-0.145010467727442	-0.98793014376176	-0.145660366280253	-0.98789527939983	-0.000839204022619346	1.97899398960567E-05
1.2	0.00149138791672894	0.000879870156913442	-0.2978071373671	-0.953537812559713	-0.297800122374378	-0.953593721063327	-0.000740120028302306	-0.000925558893322971
1.3	0.0020370473141684	-0.00157349524386861	-0.442586268018027	-0.895456825398392	-0.442678768857127	-0.895481378060855	4.32910033140345E-05	-0.00133254975917492
1.4	0.00182492022309644	-0.00425751188797925	-0.57613511032849	-0.815403514927801	-0.576209150496721	-0.815303501656292	0.000889205194510372	-0.00213389115742421
1.5	0.00256767527442567	-0.00590826454568091	-0.695265231096482	-0.716303895966062	-0.695289940773452	-0.716231562105952	0.00275206328482405	-0.00346793779280134
1.6	0.000283378254159102	-0.00769207977835857	-0.798710806594138	-0.600272252273387	-0.799142359049795	-0.599768986356445	0.000557406004100425	-0.00525451501830223
1.7	-0.00114787429703544	-0.00633796201960316	-0.88244008119379	-0.468182489826033	-0.882745459055736	-0.467689674067049	-0.000949367916224875	-0.00427588172590118
1.8	-0.00188114674499897	-0.00518336666211128	-0.94443199857203	-0.324597002575535	-0.944447512459605	-0.324587464981226	-0.00193552364522559	-0.0036040641188373
1.9	-0.00213685180776867	-0.00326408188812143	-0.983285333378223	-0.173949849587665	-0.983330155848357	-0.1740027949258	-0.00258353537865128	-0.00225017907146057
2	0.000432773994181101	-0.00245383497051834	-0.999206783644982	-0.0194757181852117	-0.999300877502897	-0.0188219586626568	-0.000787098149937264	-0.0015720729199265
2.1	-0.000200316870764859	-0.00497852553186907	-0.989422744860586	0.138610402065218	-0.989524660698239	0.138123619125421	-0.00184041647048201	-0.00359583519546034
2.2	-0.00217610961197741	-0.00494458577083392	-0.955328516984056	0.290002985277848	-0.955366961635022	0.290137639880187	-0.00348080663290807	-0.00309847317818765
2.3	-0.00354453973986421	-0.00418559598332066	-0.898430912760999	0.434848711759601	-0.898265807586861	0.434936935045938	-0.00449735659811515	-0.00236183879145885
2.4	-0.00509307860159988	-0.00262483550039091	-0.819431688676882	0.570060117396327	-0.819726950530104	0.569596943345219	-0.00550758384661642	-0.00115168824011238
2.5	-0.00369277940866304	0.000220065972695407	-0.719887068178055	0.691368571573873	-0.720193573947079	0.690987763976567	-0.00393352757177091	0.000537242789854968
2.6	-0.00241719362790257	-0.00118398332671346	-0.603065126113051	0.793263097170354	-0.602985971567511	0.793202920387095	-0.0028828432978982	-0.00133147097619326
2.7	-0.00289622881886359	-0.00168641283755405	-0.472431460319546	0.876794772054749	-0.472401776276379	0.876808717470677	-0.00380678803177419	-0.00209676852819787
2.8	-0.00344563669468296	-0.00171793237240163	-0.330348183825976	0.939375543496095	-0.3302289509515	0.939459502975761	-0.00455413698497715	-0.00192514361793487
2.9	-0.00307968294444758	-0.0012646631592051	-0.179543128237946	0.978944815917016	-0.179538213987245	0.978999750287995	-0.00458821854030326	-0.000912866773672044
3	-0.00232638566372772	-0.00165909573993452	-0.0246568641305256	0.992994345772961	-0.0247206520045043	0.993066443024236	-0.00367341840290518	-0.000469883429727438
3.1	-0.0024665633528412	-0.00162523361240207	0.127858957734813	0.984657730027512	0.128508415232584	0.984734160187779	-0.00354256324819853	0.000264163676902536
3.2	-0.00203328416579067	-0.00128374091611543	0.280042870793	0.952575847376265	0.280033214156831	0.952615566686133	-0.00262714976243813	0.00109045104273983
3.3	-0.00112157289704278	-0.00120248049823661	0.425379734624763	0.896524669220662	0.424759017932349	0.896811615000233	-0.00130840486014236	0.00142234135347068
3.4	-0.000140550357036298	-0.00109234802224285	0.558365599163546	0.818807261497412	0.55828169588701	0.818923239546238	0.000360562135117657	0.001427214493681
3.5	0.00199635780811756	-0.00270956093929222	0.677061108326067	0.722762069669169	0.677075510757372	0.722788138856698	0.0024476318820565	-0.000460644851205879
3.6	0.000657407260722623	-0.00466081105737049	0.781502660882196	0.609538926070395	0.781921727796946	0.609141708112118	0.0014423222264986	-0.0023284120234498
3.7	9.12625673841326E-07	-0.00491407409759325	0.866754901844475	0.4793605410479	0.866762947346585	0.479486930214735	0.00105622933773894	-0.00265914151039003
3.8	-0.000718195821599483	-0.00509861288432286	0.929762367592428	0.338615380887986	0.929792244327243	0.338798167501409	0.000574680040837535	-0.00327469638117502
3.9	-0.000883827631977628	-0.00456358396156803	0.970426808104609	0.19013829878329	0.970333170068573	0.190725808903438	-0.00029061288373079	-0.0035250452265071
4	0.000995230228139036	-0.004741997672651	0.98919660766386	0.0380061075429902	0.98927886667098	0.0380484305432924	0.000661654536990388	-0.00426308466689841
4.1	0.000210450685910911	-0.00774498239620834	0.98206837157584	-0.117426135794212	0.9820069631638	-0.117361641275559	-0.00137562431139812	-0.00689316067192346
4.2	-0.00206473092021916	-0.00850357804839971	0.950388990589287	-0.268606828544333	0.950587221634131	-0.268041058121544	-0.00402720348283783	-0.00706332454731486
4.3	-0.00395960007232832	-0.00886675536853022	0.897010062607932	-0.411681105654006	0.897011097952109	-0.41166265190399	-0.00638178168993374	-0.00684387977050103
4.4	-0.00648172105357089	-0.00803271523668563	0.822395841650979	-0.545731290667139	0.822316359190975	-0.545714709662956	-0.0090578391635323	-0.00553770390685216
4.5	-0.00642472897799985	-0.00593149971848696	0.726256233538704	-0.667703533389841	0.726134788666051	-0.667556775828766	-0.00955357504514321	-0.00307488205311512
4.6	-0.00659312504646292	-0.00688587423846296	0.612697552806242	-0.77016465670928	0.612685391487933	-0.769936562321908	-0.0102913540695257	-0.00322487317430803
4.7	-0.00818946431428256	-0.00728073861135935	0.486072784117448	-0.854975788591543	0.48619127370194	-0.854733902529792	-0.0123363547862313	-0.00231849322566004
4.8	-0.00989754532486687	-0.0067666032429083	0.347371499848012	-0.919460977461959	0.347664732646001	-0.919276436707446	-0.013771259520831	-0.000553275498552167
4.9	-0.0110640725004513	-0.00594639788100569	0.199904412573721	-0.961308895478368	0.200162625816883	-0.961260696828249	-0.0143428593947288	0.00197708523323888
5	-0.0114153297917056	-0.00533894975812998	0.0489228033920275	-0.97794950755893	0.0490805309610112	-0.977824355434433	-0.0133805317816245	0.00428912279607672
5.1	-0.0128121138093769	-0.00500100807977836	-0.10099721794334	-0.973789315623524	-0.100679062583971	-0.973729326701218	-0.0128472316038286	0.00654322508847319
5.2	-0.0137355576418005	-0.00312360202076297	-0.250580214302883	-0.946598316427675	-0.250157923728176	-0.94672170066464	-0.0112230970083969	0.00952338422562953
5.3	-0.0137907230751943	-0.00113801733230736	-0.393978735821801	-0.895911579332257	-0.39369487087506	-0.896254086833441	-0.00843445643534964	0.0120899927611861
5.4	-0.0123915052240196	0.0016188266455223	-0.527139110431361	-0.823254852525729	-0.527006263532388	-0.82354164037244	-0.00454014277579142	0.0141517115788081
5.5	-0.00903134038911214	0.000471342851415732	-0.646318996937854	-0.732856061441452	-0.646270483161948	-0.73316620792272	0.000433945013457435	0.0123577130740588
5.6	-0.0115557820637884	-0.000434771685838275	-0.753074241294829	-0.624665085581824	-0.753087966393659	-0.62483359725315	0.000166966196940182	0.0108699851416466
5.7	-0.0129375454172122	0.00169924565984718	-0.840638496626318	-0.499965653388272	-0.840615416542749	-0.500138894610912	0.00146265905956575	0.0118073650908964
5.8	-0.0133126764486616	0.0045480084432673	-0.907092882756546	-0.363718399207598	-0.90713770784799	-0.36400709779105	0.00347334429897704	0.0122570605159877
5.9	-0.012613460017743	0.008361376521798	-0.951971743365435	-0.220072431618083	-0.952090739933588	-0.220119783928932	0.00575376353193557	0.0130653440824212
6	-0.0071873725023874	0.0106077180305319	-0.976455168125519	-0.0704652860884814	-0.976452099092473	-0.0705333059230282	0.0109998592811123	0.011918155139386
6.1	-0.00611404267551171	0.00793336315321465	-0.974714231429049	0.0829749093713993	-0.974717458908555	0.0828726437974	0.0116149255278351	0.00725225181447616
6.2	-0.00647346432236113	0.00816867382318003	-0.94929928168171	0.23230770186068	-0.949346785449995	0.23212801589331	0.0112883567517828	0.00517711048655999
6.3	-0.00662792517261966	0.00871815763476963	-0.902109376368985	0.375764652466749	-0.902133266893642	0.375637384870798	0.0112087119079373	0.00309658588234639
6.4	-0.00643660042606294	0.00991980820233978	-0.833933760999593	0.511022047989035	-0.833924664079669	0.510810694760819	0.0107938785135235	0.00104817953554968
6.5	-0.00520707454514203	0.0104890817089104	-0.74351681983028	0.635277268983024	-0.743616175899624	0.635106635626167	0.0106223992678204	-0.00151852151021961
6.6	-0.00432435091674872	0.0109823677980883	-0.635637738643115	0.740686917593313	-0.635784119238899	0.740542407880849	0.00937323243039834	-0.00375599535612943
6.7	-0.00270620142993343	0.0113757096400735	-0.514344419684677	0.829738776811751	-0.514463590182158	0.829583011993979	0.00803953753745279	-0.00560044959153482
6.8	-0.000770309445764796	0.0111685731168327	-0.380109653566032	0.899678807444943	-0.380318059781268	0.89960369916955	0.00616443069646941	-0.00721128947454549
6.9	0.00111584392822211	0.0102329334778596	-0.235706521850331	0.94793896835811	-0.235954440064026	0.947934196774299	0.00424769057950094	-0.00814881168675335
7	0.00250914918875788	0.00816454743268928	-0.0863373675452248	0.970943931063744	-0.0865921234847109	0.970912997958065	0.00193156476345487	-0.00947294359024443
7.1	0.00232933651026044	0.00699276887203899	0.0627433346569188	0.973564531076165	0.0625393054382738	0.97355103095865	-0.00114019426990778	-0.00903616489845707
7.2	0.00282607571998624	0.00616920861784398	0.212755826506189	0.953142001625168	0.212503023012635	0.953183490765219	-0.00304686699772871	-0.00776417403715137
7.3	0.00289143366930331	0.00502151183085512	0.357881615233893	0.908924064090181	0.357643271962506	0.909011790576375	-0.00458923123286168	-0.00626044711608277
7.4	0.00302396059163687	0.00422164637634641	0.493597166127492	0.842134497052654	0.493379942265231	0.84229252728111	-0.00563811380805589	-0.00434498414041763
7.5	0.00345144677356078	0.00241084471120687	0.616334697606652	0.757804270950595	0.61617428422242	0.757972297373647	-0.00560239029010213	-0.00304758807201915
7.6	0.00178545812657237	0.000620770025046422	0.728370020028859	0.654730005863887	0.728154394669532	0.654886879718598	-0.00658704464998283	-0.00201865614552427
7.7	-2.69327085653059E-05	0.000722240064301076	0.821559556771954	0.533859855534091	0.821407267058918	0.53405142630222	-0.00689977810953039	0.000161816481102274
7.8	-0.00109886188010194	0.00180327169844775	0.894543434520134	0.400464232629955	0.894420572414718	0.400682644974195	-0.00626344191173982	0.00225922368135491
7.9	-0.00142107107843146	0.0042049777973212	0.946128696590634	0.258476429660966	0.946085247947631	0.258699819391497	-0.00482282327487703	0.00475162067493855
8	0.00306721878190571	0.00540663236582824	0.977911747840867	0.109000888002251	0.977977735829676	0.109293028469336	-0.000683113397166029	0.00563718945650903
8.1	0.00338341796442678	0.00206972523124961	0.982971437573733	-0.0457129032305484	0.983091694063297	-0.0454408889410409	-0.000252954133548967	0.00315426857881626
8.2	0.002105502573122	0.00132033513278306	0.964001726152645	-0.197260716774985	0.964063450644328	-0.196964768656016	-0.000825944662622773	0.00322028035341021
8.3	0.00064160178971508	0.00143299234399586	0.922685797582613	-0.344162377008984	0.922819493061273	-0.343904987177253	-0.000882672558889436	0.00351847873546009
8.4	-0.00102736469116377	0.00306168411878337	0.859791797722642	-0.484022139135261	0.860000669079015	-0.483819322702489	-0.00117086377911508	0.00448134972439589
8.5	0.00125431950812995	0.00663236041380732	0.773275118482948	-0.61385847877633	0.773389495819934	-0.61373114169746	0.00176673374326967	0.00632121566367891
8.6	0.00357000279636697	0.0043391415262598	0.66819049760262	-0.724891175485358	0.668385376491734	-0.724703445547545	0.00354020367129144	0.00336644139458902
8.7	0.00298218902931404	0.00351530239259671	0.548773645304282	-0.820039564032898	0.549053980769862	-0.819926458298901	0.00320896233834638	0.00225086024042502
8.8	0.00280659385151825	0.00331491543621258	0.415396798915854	-0.896435688525724	0.415602423772201	-0.896378406280294	0.00302143623148444	0.00156200513511542
8.9	0.00244377934792514	0.00372494704966066	0.27027882471496	-0.95116868202876	0.270519453641758	-0.951024997091352	0.00291808545331523	0.0014079171586211
9	0.00423640932732133	0.00451592729295305	0.119217890433553	-0.979613431136177	0.119579825546728	-0.979579141953084	0.00425960638487958	0.00154979565123381
9.1	0.00579253684997048	0.00353817201089102	-0.0322229996236055	-0.987966217715845	-0.0318695091197182	-0.987975728691766	0.0051631074861469	0.000379883788043585
9.2	0.00787497662284394	0.00251351535202103	-0.186060884189208	-0.972460897817996	-0.185702603167277	-0.972526911854468	0.00651903924589058	-0.000387651003415651
9.3	0.00989778050492363	0.000506972196465767	-0.335753621147601	-0.932147805127587	-0.335393907431435	-0.932207803632441	0.00788848617526286	-0.00178088673324589
9.4	0.0117338475537017	-0.00174878647068191	-0.476261093048202	-0.868148814992282	-0.475934477168514	-0.868293185900255	0.00901700671956532	-0.00299387909893604
9.5	0.0141238855084482	-0.00783896062962871	-0.603864881832907	-0.785978902834877	-0.60365545179601	-0.786113834326835	0.0105013438016504	-0.00713788441426917
9.6	0.00891493822304636	-0.013078924880562	-0.721509848922658	-0.683782046726581	-0.721232105072061	-0.683964609834209	0.00607383529354373	-0.00935471584789164
9.7	0.00454023805453852	-0.0137077849054852	-0.819963817930204	-0.562776355175563	-0.819711776751439	-0.563044976733559	0.0039472060317631	-0.00850763008475533
9.8	0.000746553898394736	-0.0134817225392389	-0.897768916510297	-0.428436565068848	-0.897554438131144	-0.428711536915435	0.00253778683775018	-0.00769658151267363
9.9	-0.00259476907725768	-0.0106764740480325	-0.953948720009803	-0.284793478613173	-0.953830805426484	-0.285124770143161	0.00187258425288293	-0.00578126322301244
10	-0.000564758972582756	-0.00960599786770343	-0.990291279303149	-0.13269016072065	-0.990205427092989	-0.13307319831362	0.00486031873960368	-0.00592338139943567
10.1	-0.0042390624362278	-0.0120744762021516	-0.998422400134763	0.0255762001816283	-0.998398106840982	0.0250916707197561	0.00263791672862677	-0.00855550164688785
10.2	-0.0084198498337324	-0.0103818726427791	-0.982058739300737	0.180736565781987	-0.982039923368593	0.180280538529165	0.000758093740399495	-0.00784118913594159
10.3	-0.0117099003019618	-0.00718441946296137	-0.942604590777572	0.331632661454942	-0.942737766998038	0.331083348630405	-0.000299550812536825	-0.00729104227987836
10.4	-0.0138892843488543	-0.00272241877180122	-0.880682433548126	0.475704742941539	-0.880948490228196	0.475158534591672	-0.00107924758278283	-0.00654329605969357
10.5	-0.0121840449936311	0.00246821213347971	-0.793733072630928	0.609719746650183	-0.794019554182571	0.60932595700199	0.000529973983336115	-0.00622337132753801
10.6	-0.00996617735441394	0.00362755441389852	-0.687803490346918	0.72402854951407	-0.688235115031725	0.723679115323176	0.000646517748524911	-0.00877202238019774
10.7	-0.00894047684272383	0.0049893018058815	-0.567200608914307	0.822272426809594	-0.567617617319461	0.821979489376624	-0.000514505144092375	-0.010337481599788
10.8	-0.00788796756862464	0.00616220117230949	-0.431902447818257	0.901181549057351	-0.432420425235832	0.900948930490742	-0.00204236886912467	-0.0114047074340574
10.9	-0.00645730857524774	0.00797677373566416	-0.284645032345014	0.95778312888122	-0.285140260958628	0.957732427645993	-0.00371612455032349	-0.0115671503312825
11	-0.00398524425808008	0.00838341877250311	-0.131644685010392	0.987329216141222	-0.132197464369231	0.987326557205272	-0.00489880979306527	-0.0120786002032823
11.1	-0.00242777827905503	0.00916116859771915	0.0219070769333339	0.996697869960966	0.0212699592677365	0.996782958745632	-0.00678157249276082	-0.0117982324829499
11.2	9.05414487993081E-05	0.00949147213205466	0.177552174164415	0.981707035499905	0.177026550101925	0.981914437068983	-0.00772356562418024	-0.0111764088747788
11.3	0.00274952365356121	0.00955247074564246	0.328874481409929	0.941471217310279	0.328440436530904	0.941739237222797	-0.00825293329217202	-0.010249418377016
11.4	0.00603887641186414	0.00944540095274952	0.470936867638232	0.877277629082867	0.470468623098304	0.877543137312039	-0.00803269021277195	-0.00887731877995465
11.5	0.0108866798115061	0.00589804593948119	0.599784463003019	0.795065554661928	0.59942350766929	0.795489932899548	-0.00682365246349497	-0.0103761224435929
11.6	0.0100759802377345	0.0014764644132636	0.718613668796946	0.692268394231435	0.718345818021568	0.692757326765307	-0.0100344261229206	-0.0107047683104364
11.7	0.00959457694406483	6.51995999641788E-05	0.817867233758104	0.570562869209655	0.817628139377527	0.570992590135528	-0.0114881744451993	-0.00886841869164161
11.8	0.00899714195599131	-0.00118963857960575	0.895982440799951	0.435454698882436	0.895800700228161	0.436015719569201	-0.0125076361546799	-0.00714612179131765
11.9	0.00925942864064912	4.14587768710959E-05	0.952239427117448	0.291577092223938	0.952205214996564	0.292128512297393	-0.0127253683928151	-0.00412019139640204
12	0.0141426472626925	-0.00166447600342831	0.988667064834914	0.139217034852222	0.988659474096006	0.139704237043202	-0.00927805492016812	-0.00355494296648112
12.1	0.0131153591309236	-0.00773368948517922	0.996456244046403	-0.0189663786417685	0.996437493313633	-0.0184864823401569	-0.0110309153310668	-0.00561136148603182
12.2	0.010286567584916	-0.0109426318643794	0.979757124576284	-0.173748619218519	0.979871182839664	-0.173307413727851	-0.0128117122519972	-0.00469265246684697
12.3	0.00686970548612104	-0.012922487585069	0.940131549871757	-0.3236886924072	0.940324509039571	-0.323328919537824	-0.014186042047512	-0.00342907095512627
12.4	0.00237395125433803	-0.0129377921749974	0.878741488229339	-0.46679906044508	0.878881669192354	-0.46642145271409	-0.0156399864922413	-0.000996088887474961
12.5	0.00159265282692629	-0.0108210140580304	0.791921592441802	-0.599722558249919	0.792392546352327	-0.599334516545138	-0.0138761658312318	0.00200890817869402
12.6	-0.000180075068241802	-0.0126731977359986	0.687245556397869	-0.712494452319102	0.687600576704285	-0.712189067474182	-0.013353864799965	0.00155985468790927
