# GHZ S RI R 50
0.2	0.000111271691770646	-0.000813095991522087	0.951990278370824	-0.307145528399438	0.951763690470838	-0.307288162035043	0.000253493602353752	-0.00063409728724205
0.3	-0.000548672455525529	-0.000693183746964327	0.892878437409817	-0.451235345517856	0.892740676198399	-0.451289003812626	-0.000379773086823113	-0.000880526516183961
0.4	-0.00107144963348909	-0.00032221308839422	0.812247635886338	-0.584477603111749	0.81228821513674	-0.584617696061977	-0.000919714483396811	-0.000633243431270166
0.5	-0.00102221642654147	0.00102733731756934	0.71141951285552	-0.704635129605924	0.711308503540757	-0.704731617762558	-0.000642273149281497	0.000432211271047141
0.6	-0.000141428066307183	0.000506616939633284	0.592693527350942	-0.806203394502162	0.592503107781432	-0.80620654247753	0.000118821933018358	-0.000360835882269931
0.7	-0.000589006087851628	0.000464484249397786	0.460478224261499	-0.888414956609126	0.460403874928332	-0.888449610402368	-0.000322489828038084	-0.000912917966168532
0.8	-0.000775678932128669	0.00040765723309936	0.316788969494751	-0.949645576432715	0.316669672843873	-0.94955851085043	-0.000828303591703924	-0.001118491025723
0.9	-0.00166831498023811	0.000691816280794597	0.164771794296516	-0.987625877315188	0.164621888031903	-0.987582832133726	-0.00195142733265163	-0.00130108833070901
1	-0.00207064788036117	0.00327298681910706	0.00877254665037837	-1.00012541883748	0.00865387412936448	-1.00009557213487	-0.00264405215830952	0.000911951777586636
1.1	0.00130172886337487	0.00312489903475716	-0.145180113779059	-0.989737676174427	-0.145831195505818	-0.989702810053696	-0.000171262042568621	0.00040613841341891
1.2	0.00221602683900135	0.000365401950325489	-0.298466762788916	-0.955482380445602	-0.298459736085998	-0.955538404222454	2.68603112935981E-05	-0.00149085982070952
1.3	0.00256157553263269	-0.00293716708022568	-0.443761408646485	-0.897248336019607	-0.443854112805874	-0.897272916961305	0.000515974189372834	-0.00274640954546169
1.4	0.00190845878126303	-0.00594697384768012	-0.577641666647093	-0.816824367456991	-0.577715816243843	-0.816724120429613	0.00084312362911	-0.0038047137798923
1.5	0.00288472413459908	-0.0077098542754629	-0.696817354650341	-0.717673882580476	-0.696842103887663	-0.717601395213891	0.00286766335833773	-0.00515600707272721
1.6	-0.00027507930163076	-0.00975752955653598	-0.800983426713627	-0.601479327289358	-0.801415875444009	-0.600974608017385	-0.000159144743225575	-0.00700971984774266
1.7	-0.00217678569613088	-0.00759173748339918	-0.885069444476158	-0.46869195298568	-0.885375219486873	-0.468197634408207	-0.00200205988290582	-0.00515963563467862
1.8	-0.00295017133934312	-0.00575666966732786	-0.947107470208832	-0.324472473120985	-0.947123013367387	-0.324462896400413	-0.00291806128194238	-0.00382815281231823
1.9	-0.00300894194236091	-0.00301595354233623	-0.985908264310321	-0.173383186736642	-0.985953252113194	-0.173436218229809	-0.0032930949910599	-0.00173996671889414
2	0.00091038331899512	-0.00197364578801201	-1.00216158245374	-0.0183101228475353	-1.00225515233042	-0.0176543305441656	-0.000207577779153959	-0.000936642941193453
2.1	0.000147707772827122	-0.00559527494715991	-0.991910601330131	0.140898434293125	-0.992013736778083	0.140410492214486	-0.00145467754773499	-0.00399258464709158
2.2	-0.00232152242437603	-0.00550212594169645	-0.95710567391679	0.292755827457109	-0.957143929193914	0.292890900848185	-0.00352762761575165	-0.00339316827980043
2.3	-0.00389010694802137	-0.00451859425664435	-0.899615487996114	0.437916745201514	-0.899449786869732	0.438004809441503	-0.0046615492088068	-0.00246309203534365
2.4	-0.00556999067026156	-0.00251698046277381	-0.820058422328873	0.573506953650006	-0.820355565427184	0.573043358594083	-0.0057364492401082	-0.000925911248439985
2.5	-0.00324659508851296	0.000882789432803983	-0.719342618310118	0.695291719125091	-0.719651061425446	0.694911009286592	-0.00331150938087025	0.00110867127104964
2.6	-0.00147706873642517	-0.0016434084053725	-0.601446745880187	0.796531534431474	-0.601367659714264	0.79647100020096	-0.00198524198422924	-0.00190419802315165
2.7	-0.0024037541303679	-0.00271567566335321	-0.470288474468906	0.879610581009058	-0.470258701729279	0.879624450869259	-0.0034812123256506	-0.00313341080978635
2.8	-0.00342898290168015	-0.00291606528706168	-0.327597170717822	0.941772515151123	-0.327477490504357	0.941856182375449	-0.00473647036252822	-0.00300675117428816
2.9	-0.00336127829073035	-0.00236899347999557	-0.176041568115163	0.980698440230147	-0.176036440913147	0.980753416376802	-0.00504880333710126	-0.0018071774021509
3	-0.00273164993057186	-0.00286229806819721	-0.0208332593350933	0.993319627356211	-0.020896783967241	0.993391987313574	-0.00424190590069903	-0.00137644756390144
3.1	-0.00337682395790707	-0.00262701580205622	0.131186608659686	0.984383052959454	0.131836425002216	0.984457313555761	-0.00454978286579457	-0.00037077357385787
3.2	-0.00305056670911659	-0.00187412920255812	0.283369839452946	0.951737263159394	0.283360318665058	0.951777021167616	-0.00363153890580561	0.000881985670950181
3.3	-0.00208699212273479	-0.00142517761258668	0.428537072483942	0.894882494531648	0.427917465636151	0.895171627314722	-0.0022059561771988	0.00154598159781832
3.4	-0.000785790857049477	-0.000907594216391944	0.560925098682571	0.816313588893761	0.560841659613542	0.816429792561498	-0.000211517257255787	0.00189262046820833
3.5	0.00195525769542225	-0.00289318132335322	0.678652626953973	0.720247106493628	0.678667094398272	0.720273114069375	0.00238980558767745	-0.000366841421341798
3.6	0.000104213150465403	-0.0051173822402348	0.783090990124794	0.606859571937405	0.783508651557219	0.606461206095521	0.00088373003609462	-0.0024020936416768
3.7	-0.000690762364435964	-0.00501709341100845	0.867765775448208	0.476141116652591	0.867774237390954	0.476267393028927	0.000443984058455294	-0.00236126568658587
3.8	-0.00136409936943055	-0.00488246631271076	0.929941675504114	0.335213969736355	0.929972123905815	0.335396474105179	7.77984249943572E-05	-0.00270340735599628
3.9	-0.00128602689563997	-0.00384312050838094	0.969867003290897	0.187003016325274	0.969775238378124	0.187590123054176	-0.000514348876068596	-0.00256015808815206
4	0.00170661250485481	-0.00408020699965299	0.988589681686873	0.0349101991263486	0.988672011690053	0.0349522359881432	0.00141824672233823	-0.00347969148164801
4.1	0.000774174504535179	-0.00797655820645679	0.98044373301644	-0.120871809110232	0.980382635015384	-0.120807168727389	-0.000910986554466503	-0.00691278038199162
4.2	-0.00181367539559485	-0.00877146481591613	0.947815925599021	-0.271506192087108	0.948015817143247	-0.270942088839231	-0.0038803883588945	-0.0070227619350334
4.3	-0.00384429291303481	-0.00907594745216874	0.893890644606596	-0.413885277349377	0.893891739730554	-0.413866862863434	-0.00633608284387006	-0.00669434332291614
4.4	-0.00647668194580569	-0.00796415118386921	0.818998294488972	-0.547404646275804	0.818919020490197	-0.547387833709832	-0.00905616377268305	-0.00512661489994798
4.5	-0.00567125280056119	-0.00553774613016235	0.721966467443244	-0.668978642346243	0.721845876625777	-0.668831753206212	-0.00883151607712701	-0.00246535933581976
4.6	-0.00562036800832705	-0.00747609224046671	0.608054566201556	-0.769791029108034	0.608043232446489	-0.769563630396208	-0.00951574745244089	-0.00357717184390053
4.7	-0.00771684037990875	-0.00824060262631746	0.481846521864286	-0.853526763224353	0.48196533551843	-0.853286057066837	-0.0121366300449984	-0.0029189729464536
4.8	-0.00984744017227151	-0.00774210661230415	0.343544602850876	-0.917210952028156	0.343837327042269	-0.917027891185426	-0.0140041517909378	-0.00104428897159205
4.9	-0.0112655221453932	-0.00669642041152254	0.196349905487304	-0.958225103521692	0.196607274439619	-0.958177838676535	-0.0147711070129723	0.00181137243450254
5	-0.0115119140847695	-0.00608587717106366	0.0462525115617327	-0.973399375984328	0.0464097974247837	-0.973275214736694	-0.0136648433642412	0.00419980212007834
5.1	-0.0133438891215669	-0.00569700049271501	-0.102031946521421	-0.969104303618682	-0.101715178186052	-0.96904508523449	-0.0134284149102053	0.00663250833002391
5.2	-0.0143344901957578	-0.00338771678066556	-0.250705212959697	-0.941960920700826	-0.250285006678349	-0.942084307986954	-0.0116473668980839	0.0100157404355573
5.3	-0.0141670982294139	-0.00100551573183117	-0.393140382478096	-0.891238611097321	-0.3928582458321	-0.891579826514844	-0.00849246500536702	0.0128013893285383
5.4	-0.012085860155799	0.00212439063599416	-0.52502424226167	-0.81866933353928	-0.524892278047592	-0.818954747899372	-0.00395330243773645	0.014982071226594
5.5	-0.00772479415609369	-0.000147531403998264	-0.642855476179621	-0.729494697221144	-0.642807082507926	-0.729803297807066	0.00171354993159097	0.0120058975743894
5.6	-0.0113760906260447	-0.0016552466014089	-0.749614669708881	-0.622201850308305	-0.749628281539442	-0.622369636940982	0.000281123885367652	0.0101577661603686
5.7	-0.0131281662318561	0.000889299578720131	-0.836713159451261	-0.498055404277206	-0.83669011746857	-0.498227866370571	0.00135018864820369	0.011552773793552
5.8	-0.0135229709631674	0.00408349506075108	-0.902673146547845	-0.362725117870167	-0.902717553018206	-0.363012528576745	0.0034444100325638	0.0122604671878571
5.9	-0.0125124652265344	0.00844765331324134	-0.947443922420727	-0.220419968290331	-0.947562325471589	-0.220467276039556	0.00604483678511942	0.0134001142195152
6	-0.00569342150087567	0.0101208428669151	-0.972863242685978	-0.0716153050118733	-0.972860087042273	-0.0716830773545148	0.0123577472644573	0.0114623002214406
6.1	-0.00553568560382323	0.00602620052873233	-0.971026541435366	0.0816218104840607	-0.971029648386204	0.0815199376267389	0.0117043290048176	0.00561653974239287
6.2	-0.00694021077869716	0.00643520666436642	-0.945775699662007	0.230010414173705	-0.945822754392292	0.229831390221371	0.0102907907199318	0.00403207066993506
6.3	-0.00761865439053936	0.00755382796620649	-0.899250125481703	0.372655262887507	-0.899273691675343	0.372528451542261	0.00983395032405629	0.00274978296256457
6.4	-0.00749051080644488	0.00945095815135751	-0.832004012322519	0.507604406000357	-0.831994535487439	0.507393811975385	0.00956503822555889	0.00146960755790557
6.5	-0.00586037215663377	0.0102819433680623	-0.7416748796122	0.631886719292366	-0.741773628660438	0.631716574254352	0.00993645978652868	-0.000872254476673941
6.6	-0.00484968025296039	0.0108973524009637	-0.63446904763536	0.736227167667383	-0.634614507845215	0.736082969187999	0.00896909270115871	-0.00303216561635201
6.7	-0.00294174849655032	0.0113826262281127	-0.514445654038348	0.825071945981256	-0.51456394079878	0.82491649493561	0.00800193695428355	-0.00493181999641748
6.8	-0.000748370578008049	0.0111255087992398	-0.381216786095477	0.895245720280015	-0.381424201789984	0.895170307176612	0.0063411375593611	-0.00672052469107413
6.9	0.00143259583248105	0.0100598215836234	-0.237415466304034	0.943762732484284	-0.237662447535455	0.943757302015365	0.0046089773225119	-0.00783663064003997
7	0.00287161335689069	0.00749353772927358	-0.0891809842120051	0.966372570324783	-0.0894345132556418	0.966340927684872	0.00223388335891562	-0.00958137911761755
7.1	0.00240528931250671	0.00631158816219751	0.0583357145920264	0.970178500141659	0.0581325092083992	0.970164176403571	-0.00109839646778197	-0.00907191257580737
7.2	0.002885099064752	0.00549362699786193	0.207844505465935	0.950983621121259	0.20759234058582	0.951023856217764	-0.00299838234912791	-0.00775994382469659
7.3	0.00289659587341257	0.00431227791842807	0.352642185574216	0.907780103197221	0.352404170185559	0.907866474470403	-0.00457693758443056	-0.00625599876846627
7.4	0.00301997702634495	0.00358908622119604	0.487861243121367	0.841972703014751	0.487643907902604	0.842129158045539	-0.00561752782129872	-0.0042367069066682
7.5	0.00358675291096641	0.00153148363181136	0.610371420732129	0.759750510162563	0.610210370290819	0.759917187639316	-0.00547610199953652	-0.00314806567730706
7.6	0.0014358981781701	-0.000304395317372574	0.723684807159103	0.658001631506295	0.723468575993537	0.658157072313444	-0.00681643081268089	-0.00203834886316489
7.7	-0.000501440852608345	0.000156749425708348	0.817682770770422	0.537796515369777	0.817529594490301	0.537987028531181	-0.00705914189377829	0.000520225843836224
7.8	-0.00152399991020613	0.00161216632986015	0.891438345480944	0.40520431437945	0.89131434899956	0.405421825382653	-0.00619368266797801	0.00283515408291323
7.9	-0.00149089889200866	0.00460072744930099	0.94420332081281	0.264205539217538	0.944158513246132	0.264428582503245	-0.00432865131120992	0.00554164433979783
8	0.00448772078660338	0.00541082324657306	0.97813995604853	0.114717131733616	0.978204322509581	0.115009906839137	0.000938141330234905	0.00575194313489831
8.1	0.00440532549617734	0.000749600538212851	0.983910818244823	-0.0406775917097436	0.98402975836372	-0.040404762667289	0.000466670807959378	0.0020866896121941
8.2	0.00243590897854477	-0.000135626933651883	0.965843341854415	-0.19230862214608	0.96590354701618	-0.192012102467796	-0.000913069049080943	0.00231228564589524
8.3	0.000454992344566506	7.17016923577429E-05	0.925739407685534	-0.339612658626085	0.92587188263114	-0.339354212982266	-0.00145361350680452	0.00294911795459473
8.4	-0.00171925066172151	0.00233199610482425	0.864050155497494	-0.480585731862395	0.864258410599019	-0.480381423044224	-0.00207613052832598	0.00466854928845952
8.5	0.00165812795095039	0.00666169221118028	0.77734915928868	-0.61187086952411	0.777463235390957	-0.611742806596967	0.00198481940725212	0.00712532605631113
8.6	0.00421726249833674	0.00315925471243205	0.672588253488282	-0.723013563305649	0.672782590671584	-0.722824637846252	0.00379017935455911	0.00314744773014279
8.7	0.00297607021223389	0.00202148945551859	0.553805282481217	-0.819200223861084	0.554085681989937	-0.819085556635691	0.00293135397671248	0.00206299667567668
8.8	0.00222723383705479	0.00192143141237617	0.420466813062487	-0.896915148722041	0.420672717082497	-0.896856802238377	0.00250660698489037	0.00168435713282321
8.9	0.00144066483348528	0.00289952249232221	0.274663154058159	-0.952694750805009	0.274903879626527	-0.952549753638896	0.00244305356575471	0.00207336376759172
9	0.00377207225076403	0.00428569428165015	0.123508775679046	-0.981073779268712	0.123871290762813	-0.981037924124455	0.00461698490113817	0.00248216896441255
9.1	0.00561021675631904	0.00312780050958441	-0.0277595065694712	-0.990926116798457	-0.027404966441913	-0.990934025083447	0.00589411142665197	0.000823950882777592
9.2	0.00787707734731647	0.00195089401100257	-0.182547914247237	-0.976490912691443	-0.182188159323641	-0.976555623909336	0.00739675881771089	-0.000452869008691429
9.3	0.00987938034427643	-0.000162785172549598	-0.333237456440624	-0.936689743438125	-0.332876264243765	-0.936748530632497	0.00850580122737186	-0.00223518181561775
9.4	0.0120495245285623	-0.00202468466609042	-0.474339098952645	-0.872915021380321	-0.474010829648898	-0.873058554707812	0.00962473523934057	-0.00323876928868441
9.5	0.015243418531902	-0.00946679869815227	-0.602625580926779	-0.792115900779127	-0.602414638991232	-0.792250394224505	0.0112712810600053	-0.00855831807544648
9.6	0.00864651770257239	-0.0150712786854595	-0.722522937729231	-0.690070636457361	-0.722243069427595	-0.690253048805991	0.00538564258238749	-0.0105457617895441
9.7	0.0038333573014418	-0.0151814753597033	-0.822341642569282	-0.568443853906879	-0.822087393203777	-0.568713028155432	0.00307996708634572	-0.00891849338023741
9.8	-0.00018168500678904	-0.0144414453387296	-0.901209942696158	-0.433539403077322	-0.900993457655724	-0.433815167427002	0.00172097114720764	-0.00756833496080931
9.9	-0.0032973532159255	-0.0106327836822922	-0.958624342634362	-0.289507688655435	-0.958504679587866	-0.289840543230125	0.00153387856794657	-0.00489087032520452
10	0.000399274918509668	-0.010042955297544	-0.996909875888491	-0.135752440707848	-0.996822598443415	-0.136137963893842	0.00591528870619303	-0.00581859502258995
10.1	-0.00411092394197086	-0.0136135507503356	-1.00494816132934	0.0246134855981622	-1.00492316208979	0.0241258307805538	0.00265435291755994	-0.00929583087540549
10.2	-0.00892588949719619	-0.0116479721830881	-0.988500747195954	0.181051975741986	-0.988481419999371	0.180593045190179	0.000306281825735191	-0.00814978943432369
10.3	-0.012457300742942	-0.00799491018610648	-0.948991971753396	0.333356423895296	-0.949125755795033	0.332803418491431	-0.000755476475248518	-0.00720758324776583
10.4	-0.014502771048792	-0.00286134040185918	-0.886721406766792	0.479287008105916	-0.886989482050895	0.478737046175507	-0.00122149350563791	-0.00609172421076799
10.5	-0.0115854004469992	0.00240917764998437	-0.797744940602672	0.614905407433837	-0.798033893408655	0.614509600686204	0.00133912761757155	-0.00624047563157286
10.6	-0.00941682457034312	0.00239216856075126	-0.690616744851336	0.729010959069134	-0.691051255306638	0.728660184541877	0.000982133216246871	-0.00994607129285925
10.7	-0.00911179444450934	0.00347864209608729	-0.569199713603545	0.82778719624494	-0.569619526636806	0.827493214966724	-0.00120845458956939	-0.0115891734032544
10.8	-0.00855266217607588	0.00504177122498493	-0.432591209224374	0.907233842312423	-0.433112634154764	0.90700091789656	-0.003457114422579	-0.0119359010605069
10.9	-0.00696399537435649	0.00716894949782209	-0.283436233104252	0.96369689166408	-0.283934244929536	0.963647329543698	-0.00493838631641697	-0.0116598296883676
11	-0.00435551378434549	0.00746612263994906	-0.129708667409808	0.991783825194787	-0.130263762175891	0.991782546719765	-0.00599982910949806	-0.0120098684973201
11.1	-0.0029689024203278	0.0084075602628473	0.024252513746091	1.00138401288268	0.0236125604574759	1.00147093900097	-0.00792707887866221	-0.0113126424357804
11.2	-0.000391407337386202	0.00889699316523076	0.181166649081999	0.985909743407935	0.18063909122237	0.986119618406124	-0.00862866582650525	-0.0103714860816321
11.3	0.00236556648773316	0.00921606698248432	0.333402961909967	0.944550890948918	0.33296787767401	0.944821512232591	-0.00884283011442461	-0.00911528192952372
11.4	0.0062064094430332	0.00947271281734127	0.475517771544403	0.879013292364731	0.475048646300422	0.879281298163993	-0.00790563286247827	-0.00748948274229214
11.5	0.011803800459843	0.00483481021184998	0.604356608060479	0.796945846284768	0.603995183536816	0.797372949930612	-0.00611976024582659	-0.0101163660251665
11.6	0.0100186044366293	9.19195185719492E-05	0.724392507350204	0.692878099915622	0.724125175217685	0.693370237387948	-0.0101575829486454	-0.0103883992972742
11.7	0.00933218859280468	-0.000900447068342081	0.823534155717006	0.569580623301421	0.823295826078703	0.570013075369471	-0.0114094679858401	-0.0081187261147343
11.8	0.00876283405229223	-0.00179675665918785	0.901086691114992	0.433369538285821	0.900906591978435	0.433933380200584	-0.0120376574142242	-0.00625679400154281
11.9	0.0101736636518009	0.000201188300949512	0.957066487268048	0.288917732267576	0.957034333829695	0.289471412736197	-0.0109711036003031	-0.00315807073934541
12	0.0163601064411679	-0.00278944649547496	0.993755944864828	0.134936674009442	0.993750734900968	0.135426081551496	-0.00679076957451256	-0.00435755714842779
12.1	0.0140496864567881	-0.0103350445866061	0.999792209337098	-0.0247384925559773	0.999776142080827	-0.0242568299501919	-0.0102551283396639	-0.0077225101692542
12.2	0.010142881117349	-0.0135021298207633	0.981610315007704	-0.179936587081715	0.981727264417686	-0.179494754723285	-0.013328467120915	-0.00654424079984229
12.3	0.00600180359600355	-0.0150173139169974	0.940728907168434	-0.330153999813865	0.940924525996403	-0.329794409601767	-0.015521722522479	-0.00459433448991644
12.4	0.00116833750991792	-0.0140899188226223	0.878035928448843	-0.473782416433033	0.878178949187568	-0.473404717398578	-0.0172625400305042	-0.0010589858031066
12.5	0.00146404676830253	-0.0113918686152399	0.788461463105203	-0.606607906478241	0.788936040102908	-0.60622291117488	-0.0144518338752157	0.00251272210898269
12.6	-0.000273447150147557	-0.013969822721764	0.682487172556336	-0.717519525699118	0.682844437958791	-0.717216523588951	-0.0140369385527529	0.00162234715936243
