# GHZ S RI R 50
0.2	-0.000220867483598475	0.00020271243845349	0.94837044013586	-0.308096693572776	0.948144278870176	-0.308238420817706	-4.87141587030849E-05	0.000346775968565897
0.3	-0.000222771234716186	0.000464833041452477	0.888208437690849	-0.451680041722243	0.888071088546577	-0.451733142510446	-1.67956459671437E-05	0.000203680873562292
0.4	0.000128659724862271	0.00049636792253179	0.806479775778071	-0.583712167711938	0.806519762407178	-0.583851654057977	0.000305227798696949	7.35927393244505E-05
0.5	-9.4887812097628E-05	0.000335360867393344	0.705782162052617	-0.701497579369907	0.705671674109797	-0.701593276165971	0.000299582888133037	-0.000376650597448368
0.6	-0.000254399227205183	0.000660782175086973	0.588040667624728	-0.802459542178991	0.587851341742569	-0.802462380617787	5.53392639674929E-05	-0.000358523280766047
0.7	-0.000155230636634881	0.00110396897622924	0.455973831876258	-0.883566181598126	0.455899895193855	-0.883600483198463	0.000154684474676054	-0.000498757921687346
0.8	0.000164266995391418	0.00118246814521051	0.313128608985023	-0.943286526154197	0.313010296190159	-0.943199911990586	0.000105565079401341	-0.000643655943464452
0.9	0.000541157486601852	0.00149271417541637	0.162982052528693	-0.980028191724762	0.162833334493352	-0.979985404305099	0.000130220360619005	-0.000849380637916429
1	0.000870639799003791	0.000725737336873345	0.00889063750683771	-0.993342155035165	0.00877276439672631	-0.993312531929266	-5.59181109600502E-06	-0.00186340739932856
1.1	0.000212687039593512	0.00089390841893605	-0.144971136483988	-0.98235413885435	-0.145617413664893	-0.982318965562578	-0.00149653159889466	-0.00180970025781605
1.2	0.000456493342003874	0.000581977926044774	-0.296274353257568	-0.947449400863215	-0.296267401965836	-0.947504960988056	-0.00182983071213862	-0.0011297412060558
1.3	0.000795972178273014	-0.000289332863977095	-0.439455936265752	-0.889744723255322	-0.439547827647682	-0.889769141444516	-0.00110382604014239	4.12908808431591E-05
1.4	0.0012153949591797	-0.0018976064629887	-0.571966862946244	-0.810781126742551	-0.572040518576305	-0.81068178725208	0.0005000037706468	0.000200269619451511
1.5	0.000948380559097972	-0.00260393211008383	-0.69107695741834	-0.71168365124822	-0.691101497389182	-0.711611763767863	0.00143465255856199	-0.000331326373827974
1.6	0.00156371325198819	-0.00281736614389761	-0.792192282484299	-0.595921352873696	-0.792620675826029	-0.595422217696524	0.00209154281488374	-0.000862128288095645
1.7	0.00170777053378436	-0.00344219734806917	-0.874694707493998	-0.465806306646832	-0.874998408589581	-0.465317883782417	0.00195227572159649	-0.00193226566932405
1.8	0.00133469308665332	-0.0039792260024265	-0.936373888036734	-0.324037032557508	-0.936389300645174	-0.324027601976259	0.00116850427435881	-0.00291184104991924
1.9	0.000870477831911144	-0.00447085191101233	-0.975221541627257	-0.174581435348335	-0.975265905111416	-0.174634056496827	0.000202073328543661	-0.00384517612829127
2	-0.000817499040721713	-0.00457911313917073	-0.989655989874787	-0.0217680065587675	-0.989750809829944	-0.021120697673945	-0.00217510459368237	-0.00393468739769677
2.1	-0.00101117973439401	-0.00342274576584996	-0.980926330840544	0.132661631386135	-0.981025008098677	0.132178869440206	-0.00269876635098802	-0.00236865051128504
2.2	-0.00132230049306463	-0.00350633260415894	-0.94872994500631	0.28244191591659	-0.948768779275705	0.282575217861335	-0.00276509139546284	-0.00205125127578639
2.3	-0.00186347210115122	-0.00338916349213437	-0.893384298684045	0.426096472011415	-0.893221077648931	0.426184896208804	-0.00307617425047043	-0.00191135988466555
2.4	-0.00259853158355433	-0.00339817377282226	-0.815754508357927	0.559844209252584	-0.816044234861851	0.55938328348247	-0.00336249795176936	-0.00210724158606996
2.5	-0.00408935150720426	-0.003129074066889	-0.719641040040426	0.679002328112353	-0.719941522964904	0.678622169691429	-0.00458050676618187	-0.00268852807276423
2.6	-0.00496394374378176	-0.00131191970614473	-0.606291307730995	0.78248342707889	-0.606212130669308	0.782424372808165	-0.00538037367481909	-0.00130835071539635
2.7	-0.00447098606382076	4.404766624924E-05	-0.477373701690544	0.866981115899737	-0.477344331372485	0.866995241552086	-0.00515707724227457	-0.00035915348244828
2.8	-0.0036773281939331	0.000696479832517004	-0.33736470772995	0.93036335447238	-0.337247024338689	0.930447943930924	-0.00450956901454859	0.000325922475774811
2.9	-0.00240898134780602	0.000875264377780284	-0.189309484028212	0.971354245915551	-0.189305203740525	0.971408919629704	-0.00364810796197574	0.000908365209461907
3	-0.0014145162804275	0.000841452108788633	-0.0362156744505154	0.989619013915306	-0.0362801088546069	0.989690139633199	-0.00251741412319783	0.00158119443399716
3.1	7.46372570352724E-05	0.0003782493410668	0.117400175119443	0.983155380056649	0.11804699375865	0.983238249313014	-0.000864959577466128	0.00176161989555609
3.2	0.000710208424834982	-0.000572636179489731	0.26895766848488	0.952792718674437	0.268947612341695	0.952832217202301	9.45597231332549E-05	0.00123306780370827
3.3	0.00139117513387338	-0.00152665988030013	0.414126302872587	0.899443876987682	0.413503652143093	0.899723048035697	0.00110043331212318	0.000579024684635357
3.4	0.00138124810427913	-0.00266497758358377	0.548356034607088	0.824948983592386	0.548270806494633	0.825063902451206	0.00176637170377631	-0.000568484668758692
3.5	0.00117173602135919	-0.00309179829026125	0.67012742296356	0.729611625046743	0.670141572685207	0.729637842738652	0.00163656426862995	-0.00125060643204308
3.6	0.00142656171266018	-0.00366386851473037	0.774288454259185	0.617038153223478	0.774711214188386	0.616645742995172	0.00220744048952823	-0.00188839150453953
3.7	0.00132925348356784	-0.00469115980185689	0.861050347293754	0.489123506958126	0.861056948159018	0.489249953872999	0.00225873526060126	-0.0030176627846851
3.8	0.000665946527449535	-0.00550557223517881	0.926646995459726	0.34961492476678	0.926674791305814	0.349798210220079	0.00173467166481135	-0.004194447870495
3.9	0.000211980710378469	-0.00631917771089371	0.969939639820489	0.200811178755414	0.969839574454301	0.201398623417534	0.000542154653096737	-0.00563813469143403
4	-0.00135280632394427	-0.00653422410519162	0.988777074236424	0.0486465027058842	0.988858877085992	0.0486897101108202	-0.00175860886184184	-0.00624077894291505
4.1	-0.00149241663241295	-0.0061162705727866	0.984902993696161	-0.104799300155761	0.984840664127784	-0.104735519179408	-0.00295027557267808	-0.0055852834402084
4.2	-0.00205803144499031	-0.00657222253636997	0.956765778363278	-0.257184327830645	0.956957327128116	-0.256614267397692	-0.00389604043931456	-0.00558528623181756
4.3	-0.00275513473634371	-0.00728526493341081	0.90561013918553	-0.402202584253331	0.905610950431113	-0.402184045490709	-0.00509516895761802	-0.0057875596030122
4.4	-0.00401273553905032	-0.00795833421504307	0.832128542201974	-0.53774402879549	0.832048560100613	-0.537728355060929	-0.00660225108401832	-0.00596026354103485
4.5	-0.00609930842315208	-0.00860634963078047	0.739276971012161	-0.660154795961136	0.739152837482773	-0.660009141431884	-0.0092038205362349	-0.00606919864018848
4.6	-0.00815271987262593	-0.00746984669643207	0.628101484232764	-0.767722241800952	0.628086081705087	-0.767492535509963	-0.0116103051686703	-0.00416807719958516
4.7	-0.00940953374803073	-0.00683868903729307	0.500973953140348	-0.856246576226407	0.501090431553187	-0.856001122111425	-0.0132139635561377	-0.00240430986611815
4.8	-0.010755378714358	-0.0057545028059255	0.361671710093643	-0.923577815694467	0.361965361146851	-0.923388046071121	-0.0142690470790072	-0.000233893102213574
4.9	-0.0114911312948094	-0.0048532341376591	0.214135371303819	-0.968291985366581	0.214395530294496	-0.96824001868178	-0.014502767994026	0.00223769936295866
5	-0.0121966965698554	-0.00361898692775969	0.0615118855102556	-0.990557825376872	0.061670216319455	-0.990429059478254	-0.0139617627483327	0.00509712146144042
5.1	-0.0118555496729816	-0.00271891863310309	-0.0935569960662981	-0.988050384982422	-0.0932350239788965	-0.987986690816841	-0.0118789189433874	0.00775754681019847
5.2	-0.0118085097277683	-0.00199633950650789	-0.245934851102435	-0.961521315141478	-0.245505804757232	-0.961642783794244	-0.00960145776990678	0.0096458320270995
5.3	-0.011881029623306	-0.00157203805606535	-0.392309715306013	-0.911938972551825	-0.392018997391183	-0.912284064918368	-0.00702406977712657	0.0109380837271115
5.4	-0.0123387130421565	-0.000706864905448096	-0.529703393528496	-0.840339674266136	-0.529566334190431	-0.840630130296962	-0.00489692243317529	0.0114995181126999
5.5	-0.0130569055478131	0.00132808158228741	-0.654505516617558	-0.747178448935665	-0.654455142580565	-0.747493558091588	-0.00350226388178298	0.0129746215777442
5.6	-0.0117379042471741	0.00328546972424046	-0.761954151812244	-0.63615611985166	-0.761967528793956	-0.636327116741936	0.000148604498817221	0.0139878239928535
5.7	-0.0112049027705412	0.00410642986058427	-0.85165442168364	-0.510261465342844	-0.851630423927204	-0.510437239921128	0.00318556923823439	0.0135501798577391
5.8	-0.0107844074230657	0.00547190971069113	-0.920725622422332	-0.3715896387671	-0.920770502758524	-0.371883043128878	0.005881733777695	0.0126250051601601
5.9	-0.0103433802788724	0.00635445286344984	-0.967444463929469	-0.223686495548415	-0.967565393717097	-0.223734622500555	0.00793194621972708	0.0107752905981762
6	-0.0106635264247588	0.00831820671550516	-0.989718448590668	-0.0705628353976838	-0.989715397543983	-0.0706317778488837	0.00787888303204019	0.00960641681974897
6.1	-0.00868921633719559	0.0106439972932386	-0.988936375244673	0.0835220918683343	-0.988939580522555	0.0834183375269168	0.00991208324377073	0.00959253607198945
6.2	-0.00676581021203616	0.0113514168974503	-0.964037627905456	0.236578887372295	-0.964085995624678	0.236396413789411	0.0119445313331638	0.00748898905973852
6.3	-0.00552694341296503	0.011428585737331	-0.915317057363579	0.3837261333642	-0.915341616653581	0.383596934649844	0.0130344451538043	0.00455366361597762
6.4	-0.00461160462048902	0.0114108227344549	-0.844051192105503	0.521083975985416	-0.8440426777663	0.520869591904473	0.013009830396949	0.0011394963524131
6.5	-0.00402457753818802	0.0114758504621284	-0.753288230630119	0.645283757321802	-0.753389221731049	0.645110821609361	0.0119888301371398	-0.00187437873435389
6.6	-0.00277318091670459	0.0116497590425374	-0.64393035918077	0.755153616157068	-0.644079659392868	0.755007150548951	0.0108676706133897	-0.00443105607036961
6.7	-0.00166178550208539	0.0113943102298116	-0.518309936299822	0.846012349169766	-0.518431880635777	0.845854679215319	0.00885453961593852	-0.0067396516670048
6.8	-0.000390436462137884	0.0111538381589562	-0.38033667306753	0.915946922940961	-0.380548766624865	0.915871961796667	0.00632070820228804	-0.00819311348948808
6.9	0.000736525502281532	0.0104487752862143	-0.233693638182693	0.963707783642441	-0.233945345210209	0.963704401176917	0.00379322719283267	-0.00882924117338594
7	0.00210218194798107	0.00989496808607576	-0.0809362584438516	0.98910047071126	-0.0811958376818887	0.989070805110784	0.00156584527388524	-0.008769191414913
7.1	0.0032288100949449	0.00852892941925845	0.0744671011104347	0.989094004894817	0.0742595249826761	0.989082517783433	-0.000310833430881279	-0.00860372417878593
7.2	0.00389057966401901	0.00715686096100975	0.227164667051904	0.965022789790031	0.22690853681199	0.965067875247177	-0.00210494684166342	-0.00787705932752163
7.3	0.00393792005358178	0.00561932994117096	0.374227506524134	0.917843773363552	0.373986749485851	0.917935696696173	-0.00369111923367643	-0.00677056460625659
7.4	0.00367388317928713	0.00427530254825503	0.512507417208475	0.848504087402277	0.512288962286132	0.848667469128314	-0.0051887759195933	-0.00543981837810287
7.5	0.00284373039952149	0.00328015080470533	0.638573073337303	0.757507574452252	0.638413393361176	0.757680839014426	-0.00636490648367517	-0.0032763836673636
7.6	0.00267855582621874	0.00249596176901653	0.74756242794438	0.648572565900424	0.747347354959112	0.648734899658091	-0.00595819771565535	-0.00138529663838464
7.7	0.00180874641302117	0.00173644710672624	0.838838251722595	0.524619767592285	0.838687848323542	0.524815854448726	-0.00557795324407497	-6.63453228902607E-05
7.8	0.00111239308607333	0.00156803101873362	0.910115383805093	0.387658465417563	0.909995418519855	0.387881141809846	-0.00479192864630265	0.000996339981729135
7.9	0.000175598188455386	0.00157537415619455	0.95887824836034	0.240993009978909	0.958839065572197	0.241219047473628	-0.00418530349793925	0.00162402235260187
8	-0.00130190574591245	0.00272628427554088	0.98321305798104	0.0891009831559698	0.983285297748145	0.0893926676733248	-0.0052985193909713	0.00276872799527439
8.1	-0.000650069278159483	0.00486550953193432	0.985068574035755	-0.0639896244732189	0.985194210101288	-0.0637190156440516	-0.00386115417750438	0.00567537793012904
8.2	0.000600867103826301	0.00567388322886142	0.962880112608572	-0.216252326689226	0.96294767072402	-0.215956745211226	-0.00171539768437823	0.00683811946177991
8.3	0.00159132435142509	0.00607130839309642	0.916949924208761	-0.363043676648891	0.917088933623159	-0.362788640644947	0.000634738430594069	0.00704031301716518
8.4	0.00279603148520351	0.00575719996562332	0.848710085764851	-0.500344365540517	0.848922649051301	-0.500146049990428	0.00296779354541862	0.00586378825326484
8.5	0.00234152019521582	0.00522294246092799	0.761379961699476	-0.624987241812147	0.761496139439253	-0.624862080454943	0.00311774934295867	0.00378708003337694
8.6	0.00300792032293784	0.00622905954776179	0.655034262884949	-0.736047486445822	0.655232282473022	-0.735863299294022	0.00352111664408772	0.00385692656269759
8.7	0.00408462855949689	0.00628288663108816	0.532344622098536	-0.828357396905645	0.532626420958792	-0.828249739581349	0.00466270878272567	0.00313905885582819
8.8	0.00536543487605923	0.00591237841265571	0.397344015508988	-0.900356307089465	0.397549846266901	-0.900303010681761	0.00545051723520765	0.00199143806657088
8.9	0.0066205931997832	0.00503237549082262	0.253251681259179	-0.950750478709358	0.253493443091889	-0.950611486431223	0.00631511525989055	0.000580877041859729
9	0.00766716794922034	0.00348400603978534	0.102473544439808	-0.979069429080572	0.102835114870336	-0.979041301047286	0.00648245322842709	-0.00116568801417908
9.1	0.00870340769773302	0.00196875314204364	-0.0511987850712602	-0.982271453378701	-0.0508472930206572	-0.98228776416034	0.00672986636963366	-0.00240396564360264
9.2	0.00948833383273806	-0.000220948817636067	-0.202750269412555	-0.961778201405369	-0.202395877025296	-0.961850383106262	0.00684426396353784	-0.00380261145057781
9.3	0.00964793760523272	-0.00231876763788172	-0.349219197199048	-0.91850729374581	-0.348863533139885	-0.918573069341418	0.00670937648021984	-0.0048821149291084
9.4	0.0092806160666041	-0.00490089821113905	-0.487491867900914	-0.853306613366435	-0.487170238831055	-0.853455477203818	0.00613138258747082	-0.00618429049583444
9.5	0.00771569778511867	-0.00584894416002653	-0.614243844246073	-0.76618483756779	-0.61403915696838	-0.766322780655999	0.00459724420071025	-0.00539279335106756
9.6	0.00762503672232615	-0.00762855320067421	-0.724471093923204	-0.661120487536198	-0.724200500400868	-0.661305747317392	0.00542537571389895	-0.00500337589555297
9.7	0.00579219939399824	-0.0094784924588729	-0.817696515710092	-0.540900441736132	-0.817452610852602	-0.541169460292177	0.0054830296323561	-0.0057759156441027
9.8	0.00348081459516565	-0.0106751047314651	-0.891430114424803	-0.407422203191665	-0.891223308605774	-0.407696592104058	0.00517917229992601	-0.00644977058447975
9.9	0.000671608908339861	-0.0112158185917732	-0.943275869089896	-0.263741582386109	-0.943165575478731	-0.26406949418633	0.00464558085868014	-0.00758460469146769
10	-0.00316626481775722	-0.0102800187692591	-0.971216687008033	-0.114638327576795	-0.971138553170939	-0.115014518212428	0.00211804959763574	-0.0074546044271297
10.1	-0.00474452968163733	-0.00813791375262322	-0.977163592488295	0.0363334420907636	-0.977145290609314	0.0358588140385396	0.00223853465965328	-0.00583754014546745
10.2	-0.00631386158880164	-0.00702811809124169	-0.959643772415087	0.187146919096748	-0.959630082080606	0.186700234306983	0.00270503583766083	-0.00592990793142796
10.3	-0.00822146697643178	-0.00524315938907182	-0.918686906379388	0.333334771876455	-0.918822397250859	0.332798823493773	0.00264639329078005	-0.00668951996396479
10.4	-0.00966960169571661	-0.00342664207731655	-0.85549606784639	0.470832014294879	-0.855759811005957	0.470301204337087	0.00228278390287025	-0.00811866945673085
10.5	-0.0115855659324215	-0.000661016555147763	-0.773304637859724	0.596685855011118	-0.773585039273182	0.596302166537733	0.000533297465692457	-0.00962372644812193
10.6	-0.0114024504461392	0.0026896966648918	-0.671786295131746	0.709929494451123	-0.672209399424312	0.709588319132241	-0.000653802473601868	-0.00961791804664361
10.7	-0.0103631681853696	0.00572782166083431	-0.553548884403188	0.805364374371004	-0.553957326783208	0.805078474948214	-0.00130453152859632	-0.00974294223855323
10.8	-0.00849404572006679	0.00779109414065344	-0.422139973214649	0.88102650254719	-0.422646364619498	0.880799144971051	-0.00184787840131521	-0.0101963592828676
10.9	-0.00659117234631844	0.00957387802002698	-0.2812615110926	0.935692469866818	-0.281745612113419	0.935641380436028	-0.00294207641606029	-0.0107321689371262
11	-0.00418114956237248	0.0108093676287578	-0.132758688769318	0.969052244048549	-0.133301486355143	0.969047679775349	-0.00408932334408662	-0.0108191244007933
11.1	-0.00122901331441627	0.0114511013446218	0.0197251161098145	0.977317471548101	0.0191002616877065	0.977399780470032	-0.00474827939020678	-0.0109839866919582
11.2	0.00169037606361914	0.0110370578601251	0.170501198816594	0.962188420326359	0.169985635174365	0.962389742612752	-0.00545670455483647	-0.0112941797174903
11.3	0.00440680324871778	0.0101069978136274	0.317103246015232	0.924400967440966	0.31667643099942	0.924661226458999	-0.0060640588616599	-0.0115598701092069
11.4	0.00654961144792569	0.00825232298174884	0.456869401902609	0.864657508109764	0.456407802026277	0.864915255311052	-0.00719156273722279	-0.0118579175105071
11.5	0.00810270592706289	0.00736607320965603	0.585865428645426	0.782403453275171	0.585509689484237	0.782818688757748	-0.00909593047488457	-0.0105529023354525
11.6	0.0105569835314909	0.00504965624738704	0.698862942012616	0.682126369098908	0.698597663032164	0.682603166331267	-0.00910499019523946	-0.00933795303479807
11.7	0.0116257701859046	0.00229552408616494	0.796052496553717	0.566162820811232	0.795814472003858	0.566581619892841	-0.0095530457840674	-0.00898209140569777
11.8	0.011714155040259	-0.000640093511798895	0.874417059203717	0.436000804575698	0.87423322826848	0.436549227216535	-0.01037905972902	-0.00871586372831692
11.9	0.0109049696820845	-0.00316179855016721	0.931354935143664	0.294871811537176	0.93131624585351	0.295412390384101	-0.0119457141534486	-0.0084704257350738
12	0.00829006961264401	-0.00439580168637326	0.964651289565444	0.147674517564355	0.9646381498603	0.148150601505773	-0.0151229171367776	-0.00680295728479411
12.1	0.00798740838376019	-0.00429849318283974	0.976559490728621	-0.00254509217175152	0.976533396774575	-0.00207522699096929	-0.0155337461669421	-0.00310597386414957
12.2	0.00740577023479285	-0.00540573705199068	0.964881656930971	-0.153876092537078	0.964986114061834	-0.153440974984974	-0.014877712098531	-0.000463043246313554
12.3	0.00675683435050829	-0.00635063539184006	0.929509347282537	-0.301452784076308	0.92969259626345	-0.30109585553414	-0.0134287514881786	0.00151597724791598
12.4	0.00564984332798953	-0.00803895103858732	0.87179245107802	-0.44143606671051	0.871922828141201	-0.441062607027602	-0.0116052061281018	0.0020338669454009
12.5	0.00314130915005933	-0.00936960010069418	0.794201173726362	-0.570761437040023	0.79465514367313	-0.570367917162623	-0.0116181640585255	0.0016144203256752
12.6	0.000814452789835759	-0.00911921643585014	0.696645413976765	-0.688088213605141	0.696989160672008	-0.687777731742493	-0.0114757174867794	0.00285614410707537
