# GHZ S RI R 50
0.2	-6.53453423623114E-05	-9.32467865736776E-05	0.949689242068293	-0.307773658674812	0.949462920544586	-0.307915712102919	0.000146957029841671	6.51064537313473E-06
0.3	-0.000294539583569902	0.000139596398509566	0.88989911063914	-0.451543576119306	0.889761609617987	-0.451596876317933	-3.7422305076069E-05	-0.000218991406401962
0.4	-0.000263969108825476	0.000309393493209618	0.808582239392407	-0.584016333578933	0.808622439779247	-0.584156043925263	-5.18754827778893E-05	-0.000262247314834378
0.5	-0.000388601536414547	0.000773636140633922	0.707831484290362	-0.702738188511947	0.707720792162771	-0.702834171898416	3.14369013995954E-05	-9.58310252998716E-05
0.6	-9.0840465754322E-05	0.000783884254639218	0.589638532083896	-0.803901445497792	0.589448806363283	-0.803904373030079	0.000289758450143317	-0.000442622823009022
0.7	-0.000193541465197239	0.00102741957016542	0.457508831622375	-0.885369461905879	0.457434741945301	-0.885403883011647	0.00018167603455535	-0.000885592585711192
0.8	-6.36226582045895E-05	0.00104541499626063	0.314354980006146	-0.945633724692151	0.314236319034322	-0.945546933246161	-0.000125658490833414	-0.00119323074479205
0.9	-0.000203825739547127	0.00128668371417501	0.163486886281228	-0.982852498586524	0.163337737285179	-0.982809592794463	-0.000782450488369518	-0.00153647925619347
1	-0.000407245123406323	0.0018514890998729	0.0085607641079529	-0.995768910768442	0.00844261386490283	-0.995739173655744	-0.00169164202227261	-0.00106082542972528
1.1	0.000397002809008107	0.00217225557159169	-0.145220226896191	-0.984855185335596	-0.145868142298115	-0.984820000362595	-0.00167434933771886	-0.000562678409007065
1.2	0.000785679548915635	0.00131903765741972	-0.297190359022327	-0.950193955429398	-0.297183390567044	-0.950249677834602	-0.00165839916244022	-0.000255466248469722
1.3	0.00131692556320251	0.000120118745980154	-0.441135932509161	-0.892264834138831	-0.441228111619443	-0.892289290078998	-0.000445329810012649	0.000618230429599288
1.4	0.00175021474261197	-0.00186407994816152	-0.574120922693668	-0.81266293577056	-0.574194717022969	-0.81256326786051	0.00142386358620766	0.000211234591867912
1.5	0.0022948418693637	-0.00313008524182282	-0.692981386285021	-0.713490761967796	-0.693005983364399	-0.713418681721196	0.00339860315165187	-0.00120140596409921
1.6	0.0014614088176824	-0.00459296014443143	-0.795186535984043	-0.597805906578184	-0.795616304935502	-0.597304869106986	0.00249488418009554	-0.00350904906280278
1.7	0.000657624565461029	-0.00433671937913414	-0.878314071280562	-0.46672562700463	-0.87861844527015	-0.466235143960777	0.00100797324974794	-0.00393150655552752
1.8	4.84064429507645E-05	-0.00410197529069102	-0.940077245951925	-0.32405078572875	-0.940092701669385	-0.324041303154222	-0.000371836448857634	-0.0040974469273229
1.9	-0.000476634092176329	-0.00343734209959382	-0.978780247699037	-0.17408488806019	-0.978824823415727	-0.174137640645094	-0.00164146531877571	-0.00360697429792853
2	3.38545041547217E-05	-0.00280181575967079	-0.994025308775758	-0.020722992073402	-0.994119798952756	-0.0200727324159555	-0.00163146109600454	-0.00261512979789361
2.1	-0.000233302498440119	-0.00378401422779396	-0.984883977417482	0.135653776257858	-0.984984273055333	0.135169148709761	-0.00202382585175435	-0.00339351930356871
2.2	-0.0015406160872484	-0.00385795560677096	-0.951623158401352	0.286202889692344	-0.951661769294022	0.286336818602892	-0.00326486005660996	-0.00320500062167127
2.3	-0.00256074975139869	-0.00341958228018811	-0.895474797454243	0.43030362128667	-0.895310707747623	0.430391898052981	-0.00430733295006184	-0.00265890198536652
2.4	-0.00387079477082611	-0.00266650048794038	-0.817291767192513	0.56463052137583	-0.81758409120182	0.564168644270923	-0.00539273233676238	-0.0017466907216627
2.5	-0.00404036988540321	-0.000696978711329508	-0.71958775792697	0.68505582700732	-0.719891196596102	0.684675435553677	-0.00506209585813325	-5.60492626487223E-06
2.6	-0.00347786244154846	-0.00046136867000949	-0.604265892572223	0.787606603826446	-0.604186773531371	0.787547002949085	-0.00373560342118022	-0.000123544857427076
2.7	-0.00338954914178632	-0.000162655222981536	-0.47461998988535	0.871415868403535	-0.474590478731506	0.871429895511889	-0.0035270118353337	-0.000548774920631405
2.8	-0.00333222659774841	4.66323097229341E-05	-0.333750243384949	0.934363559286536	-0.333631852308007	0.934447798652868	-0.00350459342210199	-0.000686589941830466
2.9	-0.00264892646026096	0.000416872943103005	-0.18439327363666	0.974749618933036	-0.184388680515091	0.974804401133737	-0.00328647089547164	-0.000173406581333122
3	-0.00172542356311029	0.00032111549208244	-0.0302229750972177	0.990727239885156	-0.0302870342575134	0.990798821707339	-0.00225751639971986	0.00016607506391901
3.1	-0.00111265090686782	0.000153698948713854	0.122406669747329	0.983144686391554	0.123054285404478	0.983224356142333	-0.00173382569323947	0.00032570335665432
3.2	-0.000505945657556532	-1.74776212514289E-05	0.27408674506929	0.952120935174217	0.274076885557023	0.952160515491676	-0.00106958378566408	0.000582906295550248
3.3	0.000395531809165877	-0.0004306443598937	0.419302624694983	0.897537641513745	0.418681251857087	0.897820392643595	-1.72355851737846E-05	0.000562979931974218
3.4	0.000908256496159331	-0.000910568517484121	0.552878426071433	0.821373985558565	0.55279390524638	0.821489343771529	0.0011452475441677	0.00025174413181058
3.5	0.00218379379188153	-0.00189229138657505	0.672597389862199	0.725720878506788	0.672611640314323	0.725747001005442	0.00275253586141959	-0.000987345037270866
3.6	0.00158303313021308	-0.0035005516460949	0.776933212675648	0.613425300568344	0.777354121236423	0.613031052737653	0.00242082028634679	-0.00298531110388137
3.7	0.00109469956883404	-0.00417205263642774	0.863118141133633	0.48451122937358	0.863125381291649	0.484637581436611	0.00180634613890993	-0.00382023543413784
3.8	0.000347801086517769	-0.00475081354072662	0.927441126264359	0.344482672873681	0.927469832630171	0.344665617923612	0.000962172484271738	-0.00461903123874876
3.9	-0.000178200199336425	-0.00493542147815202	0.96933864150713	0.196096859492128	0.969241397764911	0.196683842344895	-0.000411620197929869	-0.00506367659455322
4	6.10019590840814E-05	-0.00484192947301418	0.988585459091763	0.0444998047306564	0.988667409639871	0.0445426534342921	-0.000485434370900295	-0.00494403613701335
4.1	-0.000357494251772306	-0.00650589739855138	0.983523633477977	-0.110284507935248	0.983461714337588	-0.110220425477601	-0.00149082527548296	-0.00664510680982371
4.2	-0.00206063462636886	-0.00715049763601596	0.953614439129231	-0.262119497256501	0.953808860222447	-0.261551530398573	-0.00354078729861735	-0.00713989297412593
4.3	-0.00354658000915992	-0.00765251229572535	0.901501178777563	-0.406072382471202	0.901502085605301	-0.406053888839704	-0.00564830596059859	-0.00728433559361122
4.4	-0.00576298824932164	-0.00751279740494104	0.827865659889556	-0.54084918214821	0.827785908629259	-0.540833141073286	-0.00832815232446964	-0.00658071624500637
4.5	-0.00698649442425028	-0.00614464092776868	0.73362851438944	-0.663716599921697	0.733505554727978	-0.663570411965385	-0.0099270552724816	-0.00424119849011912
4.6	-0.00769139907451495	-0.00585487816331071	0.620817011305437	-0.76875143262051	0.620803124590081	-0.768522512378026	-0.0103935510949811	-0.003265206069134
4.7	-0.0089328438547034	-0.00566274952530683	0.494072878564877	-0.855324727139892	0.494190212970818	-0.855080976885542	-0.011708636382756	-0.00234789861027352
4.8	-0.0102459659017365	-0.00487898240415507	0.35523766509958	-0.921395644206914	0.355531014015956	-0.921208250348114	-0.0126994087656264	-0.000922627988081276
4.9	-0.011081678569522	-0.00411987953872362	0.207668988087581	-0.96505042233591	0.207928244625971	-0.96500016743643	-0.0131767783252717	0.00103867715860088
5	-0.0114656881119467	-0.0032737174647643	0.0553721168012675	-0.984287716566979	0.0555301331674802	-0.984160727593052	-0.012463529851194	0.00315445288231662
5.1	-0.0121010321371704	-0.0028887697004354	-0.0966105901821587	-0.98079283770583	-0.0962906296790359	-0.980730796926012	-0.0118791390545968	0.0048614152643908
5.2	-0.0127304157841403	-0.00155148212155203	-0.247525115487387	-0.954316893001662	-0.247099323176951	-0.954438993429183	-0.0110239294251604	0.00742767797029851
5.3	-0.0129330470961216	-0.000181440218528646	-0.392604613411887	-0.904369747143285	-0.392317031497505	-0.904713418284047	-0.00908557226173713	0.010187181737567
5.4	-0.0124833648482812	0.00198984734073579	-0.528049410203056	-0.832097618234804	-0.527914310578082	-0.832386190989615	-0.00600925932948536	0.0128271047773286
5.5	-0.010385478845263	0.00255748937448343	-0.649447541798618	-0.74037627422121	-0.649397811192075	-0.740688737251376	-0.000972047705534104	0.0130338026129986
5.6	-0.0112336266370644	0.00234003880676732	-0.756906781985269	-0.631568664000192	-0.756920116533084	-0.631738483016134	0.000602672701445847	0.0111930078424715
5.7	-0.0120050560405792	0.00388226178050943	-0.846034819738462	-0.506280214590005	-0.846011081267264	-0.506454786104032	0.00186282680010379	0.0113427791296324
5.8	-0.0122039170909316	0.00604624482180689	-0.914018042247184	-0.368706218895273	-0.914062640980248	-0.368997458824005	0.00353934589340751	0.0115516567245311
5.9	-0.0120678229602332	0.00869192709396013	-0.959794975984681	-0.223006255284688	-0.95991492811778	-0.223054142651764	0.00520876117302927	0.0122829112719211
6	-0.00900588040496718	0.0117422624126886	-0.983881800177708	-0.0721341387446026	-0.983878628935752	-0.0722026781252344	0.00968056812753175	0.0129677429096428
6.1	-0.00691513015968549	0.0110631705056784	-0.983180915439903	0.0824477680611359	-0.983184040496694	0.0823446209614359	0.0129069710506765	0.00914915020078847
6.2	-0.0060645919274296	0.011336054232638	-0.957919961014584	0.233987051825808	-0.957967814322612	0.233805732413802	0.0139644945077229	0.0057055881608545
6.3	-0.00548520140514954	0.0113713585648126	-0.910018646089396	0.379412259193589	-0.910042791870542	0.379283865923312	0.0140154460042267	0.00208799511970606
6.4	-0.00511774084185454	0.011768779042267	-0.840682809461528	0.515912296023905	-0.840673774317968	0.515699141076196	0.012832447306293	-0.00109821244052832
6.5	-0.00431393930745306	0.0121341542008947	-0.750135257580399	0.641279967610683	-0.750235567173449	0.641107802748509	0.0115603068985628	-0.00372914587228015
6.6	-0.0034093810712444	0.0125091939179027	-0.640658159433181	0.748955452569489	-0.640806204639747	0.748809765894108	0.00964208346942798	-0.00578627114675695
6.7	-0.00199766834737586	0.0127648845719875	-0.517165914187662	0.838846845491025	-0.517286594262629	0.838689901285356	0.00782995974344598	-0.00705502905901703
6.8	-0.000267835284486677	0.012517250330614	-0.381023506238275	0.909072437086417	-0.381234051201347	0.908997236466475	0.00601921541742187	-0.00813673586473438
6.9	0.0012375201873342	0.0116215668066007	-0.235064328155523	0.957597888968657	-0.235314600542987	0.957593822060301	0.0042895869189606	-0.00885147319899904
7	0.00259969475910832	0.0101353587451855	-0.0830060080899566	0.981344018991417	-0.0832635288312222	0.981313874433474	0.0024505453703151	-0.00997107043787538
7.1	0.00271179036884517	0.00888379945428966	0.0688273524724717	0.982292218854942	0.0686213436178082	0.982279745153805	-0.000385602280013169	-0.0100521649062885
7.2	0.00315512344949648	0.00803535470200738	0.220370839701175	0.960301611631385	0.2201160473981	0.96034498826381	-0.00244059473035869	-0.00902721782000248
7.3	0.00320670773313751	0.00693246387420243	0.366930631461133	0.914532507271294	0.366690777658668	0.914622553192294	-0.00409547267758649	-0.00769720030833968
7.4	0.00322252222357333	0.00609968804691334	0.504294072795609	0.845872642244602	0.50407611554635	0.846033703286548	-0.00539432673324929	-0.00600675793393286
7.5	0.00346430379636575	0.00481148218552263	0.627841124477139	0.75791700487555	0.627681027744915	0.758087749522427	-0.00552020586329596	-0.00445788027838761
7.6	0.00257434190587959	0.00312061386305286	0.738792717637134	0.65258884770013	0.738577071963126	0.652748618486531	-0.00630961014193127	-0.00392076178642083
7.7	0.0010273389250537	0.00276724934751414	0.831511635963811	0.529830356240207	0.831360111337293	0.530024497398563	-0.00737035792405909	-0.00217580660581503
7.8	-6.52254152376195E-05	0.00323944623368409	0.90370341747499	0.394212230996136	0.903581933265175	0.39443312168488	-0.00756677661450006	0.000105620763752756
7.9	-0.00113455064679246	0.00467993246511471	0.953584481809282	0.249775220490335	0.953543175413012	0.250000184931582	-0.00700513793210493	0.00332929431276725
8	0.00110110056283416	0.00679917732883974	0.982366727237386	0.0995038720767109	0.982435890433102	0.0997963486566277	-0.00350370169579224	0.00647328900060799
8.1	0.0020317372462979	0.00541560596369188	0.98617212185073	-0.0556528626608738	0.98629552910929	-0.0553810321838872	-0.000354266065935057	0.00521808439974819
8.2	0.00182082033729665	0.00507712401478434	0.965050609232508	-0.208134425413722	0.965115675747037	-0.207838167658309	0.000681710275744777	0.00440126116115957
8.3	0.0013537423240668	0.00513071888470754	0.921025175581631	-0.35514776555799	0.921162022896902	-0.354891255094654	0.00148365849606294	0.00356438205340779
8.4	0.000581430842768338	0.00565701575178345	0.855498748708669	-0.493857595121003	0.855710044178721	-0.49365681606478	0.00136043837998282	0.00290345740098323
8.5	0.00123348584699174	0.00813146082799139	0.768163533917527	-0.622333289931347	0.768279323936938	-0.622206926742617	0.0026496005234081	0.00420907262878034
8.6	0.00325818546481088	0.00738413651913458	0.661015945784883	-0.733072455423738	0.661213112907099	-0.732886644834671	0.00499765345691896	0.00186256769176848
8.7	0.00345554799061158	0.00708327571359707	0.539622346625501	-0.826321729763353	0.539903991697778	-0.826211762364264	0.00486641925619409	-0.0002231268713583
8.8	0.00422612446467536	0.00692534181480927	0.405196753373094	-0.900381860392431	0.405402863626423	-0.900326890601735	0.00409941318090863	-0.00177307463258852
8.9	0.00479552930873672	0.00652727687755627	0.260009679910253	-0.953075351127628	0.260251583201671	-0.952934338197547	0.00290129424940854	-0.00259671287605723
9	0.00612225178395319	0.00625397913570788	0.107939281564715	-0.980363378740769	0.108301382184523	-0.980333250521844	0.00244651588669842	-0.00208683810571641
9.1	0.00729007886267364	0.00513071317367141	-0.0438799698239959	-0.985320621664817	-0.0435274019374424	-0.985334308068431	0.0025249906459043	-0.00200652893744055
9.2	0.00890516359853245	0.0040896998103579	-0.196598011983481	-0.967306195899781	-0.196241601069926	-0.967376099994285	0.00357238709770851	-0.00116786096596633
9.3	0.0107389658072484	0.00216436803608763	-0.345023665903176	-0.92510693409864	-0.344665889274619	-0.925170754533192	0.00586152234563761	-0.00117013253113881
9.4	0.011876596248784	-0.000645976138100149	-0.484578863900743	-0.859406480764513	-0.484255132986241	-0.859554109925324	0.00800430047110308	-0.00216406778023726
9.5	0.0129583236156098	-0.0047654200297341	-0.610311053715932	-0.774104318711544	-0.610104464598914	-0.774241111814612	0.0108146934808531	-0.00521517306157145
9.6	0.00934031293519829	-0.00938606233541802	-0.724243508307866	-0.671042964021341	-0.723969702107027	-0.67122739066365	0.00820583191959523	-0.00936899241841549
9.7	0.00554003542982427	-0.0103655739695577	-0.820037867277161	-0.549931789747135	-0.819790524250312	-0.550201158844429	0.00549380809118557	-0.0099345812093589
9.8	0.00221648860240534	-0.0107174547355367	-0.895213567519993	-0.415580936483911	-0.895003682765004	-0.415856004627379	0.00338103339528955	-0.00971499441543194
9.9	-0.00142389615458304	-0.0093378873990359	-0.948223194531906	-0.272091299195218	-0.948109865320724	-0.272420803623674	0.00155362818133598	-0.00809505431923048
10	-0.0017037788119808	-0.00741725420516907	-0.980763318606709	-0.122448939020932	-0.980681800911625	-0.122828598325825	0.00357948678753537	-0.00614928059467366
10.1	-0.00421929319207914	-0.00843301201828303	-0.987760990930088	0.0331462498048502	-0.987740755849577	0.0326666059945442	0.00341840797183217	-0.00861743483896055
10.2	-0.00748718430437998	-0.00699327022098519	-0.969936423050897	0.186096050403747	-0.969921222730655	0.185644884036379	0.00168007870277539	-0.00892535131633242
10.3	-0.0102459067756606	-0.00445236489603149	-0.929271509183473	0.33410987805581	-0.929406835991328	0.333567928545178	8.87774542515475E-05	-0.0088167896393834
10.4	-0.0125136013654752	-0.00118907305270905	-0.867012844248753	0.474428464812178	-0.867278475298145	0.473890578985248	-0.00158544047062938	-0.00801838498438478
10.5	-0.0125526841955235	0.00382321231742298	-0.782230730437917	0.605465509696174	-0.782515288725013	0.605077368564831	-0.000962377716581833	-0.00599922357064771
10.6	-0.0105482573392286	0.00635643511029602	-0.677028168042966	0.718484577693017	-0.67745624537167	0.718140872954873	0.000918814785740195	-0.00684750446314193
10.7	-0.00877156606737395	0.00814942065461339	-0.557457768940932	0.814321836576967	-0.557870763822354	0.814033904063336	0.00183601220267849	-0.00877551595771823
10.8	-0.00731851816670906	0.00900731166545068	-0.424255297833862	0.891009190686905	-0.424767389339024	0.890780772372531	0.00127551409472583	-0.0112546557160963
10.9	-0.00616313687174049	0.0104977451831813	-0.280023337209516	0.946503556654592	-0.280512616141385	0.946454073994053	-0.000516239499674427	-0.0127276892916548
11	-0.00392361282072223	0.0113773903351482	-0.128505705918891	0.976378211024451	-0.129052235336344	0.976376505701966	-0.00187025119841363	-0.0138243020781177
11.1	-0.00208626966071215	0.0122362369256826	0.0229083118633338	0.984148250028759	0.0222793072547433	0.984233085664165	-0.00405838634561651	-0.0145669008768912
11.2	0.000563314083721919	0.0125999713904765	0.175374716841288	0.969168885916635	0.174855815861857	0.969373688692611	-0.00575141591948921	-0.0145153017158314
11.3	0.00334199607872268	0.0123713141857022	0.323999975111213	0.930001361031313	0.323571122528978	0.930265682194708	-0.00707964080274696	-0.0139931457917006
11.4	0.00601627451176118	0.011776880818077	0.464453259503586	0.867282117141428	0.463990336025057	0.867543996050795	-0.00808180239285572	-0.0125742817833643
11.5	0.0101464419476272	0.0097895816281926	0.591177605160479	0.78504941628472	0.590821069003417	0.785467874534185	-0.00687889272244763	-0.0125088531871438
11.6	0.0107502674040662	0.0057181506596139	0.706964625816519	0.684971402370872	0.706699000948737	0.685452984617829	-0.00938422074480101	-0.0138803979986632
11.7	0.0108410916630587	0.00367723747073254	0.805133319227173	0.56626424360669	0.80489569814455	0.566687502779866	-0.0119615707872293	-0.0126527152647971
11.8	0.0104154717048523	0.00149209285219991	0.882788402387769	0.433768885040432	0.882606567063436	0.434322032296909	-0.0142646663062419	-0.0107323359675012
11.9	0.0093665848074242	0.00101781915488621	0.938367619014265	0.292165891747309	0.938331296116706	0.292709904242351	-0.0163834199189611	-0.00668167872627397
12	0.0114632825756617	0.000800481477767736	0.974141751966218	0.144113187312974	0.97413091124805	0.144593651675524	-0.013292447252751	-0.00226804645466359
12.1	0.0113909459082461	-0.00310685978506449	0.984381360818846	-0.0106623433847299	0.984358953047377	-0.0101884882450961	-0.0117908053967823	-0.00294491884161127
12.2	0.00958491211283151	-0.00562855730328573	0.969812173727414	-0.163216355250001	0.969921070432851	-0.162779317408204	-0.0115992956018605	-0.00240081461046643
12.3	0.00741583324205094	-0.00752695652605462	0.932522113048706	-0.311082454447956	0.932709462915657	-0.310724937481923	-0.0113453132556775	-0.00205762317798657
12.4	0.00389196386088884	-0.00872077495057012	0.874108026489586	-0.452002897544943	0.874242519155022	-0.451627942201889	-0.0120456174018028	-0.00142527351769479
12.5	0.00181591380297209	-0.00734001080151577	0.792339097142469	-0.58448854233508	0.792801006162932	-0.584098086118089	-0.011143438416486	0.000949415727828446
12.6	0.000185473331312474	-0.00830298377270544	0.690359115522423	-0.698762985941923	0.690707734464641	-0.69845576065232	-0.00972941210339702	-0.00010671179403081
