# GHZ S RI R 50
0.2	-0.000193709306017713	1.28088894167172E-05	0.949189562624302	-0.307855144670784	0.948963310216877	-0.307997081539259	3.34236265228787E-05	9.56699008533224E-05
0.3	-0.000348394160968024	0.000292634411563869	0.889282153379692	-0.451548773923964	0.889144712685828	-0.451602005756071	-7.26547105370113E-05	-0.000102258775266479
0.4	-0.000176873486481595	0.00045109751190191	0.807822271449686	-0.583862678341535	0.807862398501261	-0.58400230270542	4.79040161438122E-05	-0.000175704914670159
0.5	-0.000298662168897243	0.000652892148157824	0.70709029213712	-0.702203900676485	0.706979686394803	-0.702299781345118	0.000129912765620326	-0.000274384409911795
0.6	-0.000236366748213353	0.000796328478389563	0.589134299309874	-0.803295708158762	0.588944723155749	-0.803298624180613	0.000169827403626479	-0.000506150117706312
0.7	-0.00025024131302144	0.00118765492553973	0.45704552533008	-0.884666224051952	0.456971494851214	-0.884700609632142	0.000148043436306902	-0.000838560774235851
0.8	9.19430677617754E-07	0.0012853893598384	0.314012117075671	-0.944746664511751	0.313893573189558	-0.944659950375958	-6.30326496689056E-05	-0.0011037262345792
0.9	0.000168933665832363	0.0016197687620205	0.163432160503361	-0.981788744674027	0.163283164746801	-0.981745902501489	-0.000471828448821269	-0.00137864935492299
1	0.00043917261414992	0.00154552971097089	0.00888985812597571	-0.994917325917519	0.00877179854614648	-0.994887654059547	-0.000993757807385988	-0.00148401350368148
1.1	0.000602201492690824	0.00151173723137391	-0.14498636017315	-0.984062280501565	-0.145633746913223	-0.984027199762428	-0.0015934317177548	-0.00122759853160452
1.2	0.000818590095628628	0.000697939135754436	-0.29673772954758	-0.94931824983196	-0.296730758331956	-0.949373916708406	-0.00168151121375505	-0.000816808041740218
1.3	0.000979397993578595	-0.000528921132158392	-0.44040703282225	-0.891501839797062	-0.440499110923674	-0.891526300197431	-0.000724688527878216	3.87940959356592E-05
1.4	0.00105433365992243	-0.0022192299370303	-0.573235530984967	-0.812206863682505	-0.573309305875708	-0.812107318382685	0.000887834970890963	-0.000152645280540452
1.5	0.00102133343678418	-0.00297900222516331	-0.692342658416091	-0.71310817971935	-0.692367251592347	-0.713036156361098	0.00236551789294453	-0.00118507363591051
1.6	0.000886465213240161	-0.00336539305370272	-0.7941712063078	-0.597284465760233	-0.794600586673259	-0.596784078363569	0.00212255073076203	-0.00263385933916451
1.7	0.000867084119845516	-0.00331852819715859	-0.877063309209229	-0.46657556524227	-0.877367547738642	-0.466085800653054	0.0012623247469889	-0.00334220333849582
1.8	0.000651234424952158	-0.00344057986339968	-0.938852973481275	-0.324254232678931	-0.938868417878723	-0.324244769698052	0.000138282057385339	-0.00384302262053283
1.9	0.00042241659822802	-0.00344212966619123	-0.97771807935047	-0.174434992188962	-0.977762582757476	-0.174487716325664	-0.000925596125491729	-0.00391836699295203
2	-9.26267675074648E-05	-0.00354291236694424	-0.992635437949641	-0.0211090585810461	-0.992730068205114	-0.0204597419176158	-0.0018727896689938	-0.00353780276997392
2.1	-0.000570491313535902	-0.00343146345072527	-0.983599721331436	0.134474192552989	-0.983699388176915	0.133990163414929	-0.00239975010082536	-0.00329697603190853
2.2	-0.00130069465170735	-0.00341803681915799	-0.950812660998443	0.284774557151627	-0.950851378637665	0.284908281933197	-0.00313196736859091	-0.00307290658163574
2.3	-0.00195540337655346	-0.00318115309575253	-0.894979189370864	0.428805577715373	-0.894815381513183	0.428893944694191	-0.00390504287115635	-0.00269645848470282
2.4	-0.00283098644621679	-0.00294829686228231	-0.816924967612864	0.563008786375032	-0.817216408097708	0.562547146903803	-0.00463460343412605	-0.00217247443666443
2.5	-0.00362848038543233	-0.00230094257254417	-0.719749375690962	0.682845514257434	-0.720051729043765	0.682465138527602	-0.00484530191194766	-0.00151501793754404
2.6	-0.00434881645736216	-0.0014952062097737	-0.605309933905396	0.785842335812636	-0.60523076155524	0.78578293241716	-0.00455209301652172	-0.00103972863082524
2.7	-0.00445265460383125	-0.000438780092267538	-0.475855976858712	0.870034791026214	-0.475826508870737	0.870048861255393	-0.00439778616825843	-0.000826215224973907
2.8	-0.00415701129875701	0.000333450622709627	-0.335205944918219	0.933170906414779	-0.335087779886325	0.933255303425715	-0.00409893359789623	-0.000534561358487582
2.9	-0.00311938152971905	0.000856071165140604	-0.186292666342751	0.973726704305641	-0.186288189807179	0.973781460008741	-0.00353167653926528	2.17265685339963E-05
3	-0.00212338085745417	0.00096305588070864	-0.0326315647817397	0.990687055759718	-0.0326958000466579	0.990758484309482	-0.00244227576300929	0.000459280365931855
3.1	-0.000894020033948433	0.000870090339110526	0.120639464750814	0.983624423889351	0.1212871030842	0.983705299427873	-0.00139199691364865	0.000603285803394928
3.2	-5.1952309442324E-05	0.000328873670204436	0.272382120043022	0.952734707400374	0.272372187130939	0.952774274451013	-0.00060161817231478	0.000468546066805672
3.3	0.000884753309093261	-0.000393103102006546	0.417605966711074	0.898556284234071	0.41698390363071	0.898837859195773	0.000417680812978975	0.000174930905747016
3.4	0.00125350157736684	-0.00131003394733652	0.55145575660573	0.823061387780186	0.551370936813985	0.8231766353473	0.001425560574418	-0.000504485709858721
3.5	0.00165177436381525	-0.00215015841833597	0.672260907023539	0.727498271441788	0.672275134544267	0.727524443272543	0.00225322146218683	-0.00159824691635206
3.6	0.00148710276960448	-0.00300161272058542	0.776514518133622	0.614756979879459	0.77693615744083	0.61436308899823	0.00233863940197886	-0.0029563161139247
3.7	0.00142591565889134	-0.00383737000714853	0.862839504820201	0.486141973374548	0.862846550104836	0.48626840771963	0.00204994129655733	-0.00397856066589214
3.8	0.00090581587678984	-0.00466385914211127	0.927650785135062	0.346232481475886	0.927679225063617	0.346415621006714	0.00134546353010877	-0.00497153042774284
3.9	0.00056702527122865	-0.00543450289798676	0.970127802088025	0.197513051192814	0.970029723693519	0.198100538700015	0.000118276210740495	-0.00586645376075345
4	-0.000322013696063198	-0.00601753384915163	0.988956296344988	0.0453587717508966	0.989038244339038	0.0454017078472889	-0.00092610748760716	-0.00626948124153128
4.1	-0.00113043276876489	-0.00653435904652404	0.984074888047967	-0.108745476420369	0.984012842353841	-0.108681469127949	-0.00214918330971494	-0.00692873392562926
4.2	-0.0024209728143814	-0.00684340931045556	0.954804760908734	-0.260768961391179	0.954998408221119	-0.260200222929019	-0.00377903924617364	-0.0071996144957738
4.3	-0.00353731858731723	-0.00722365497582278	0.902942613109737	-0.405169487717297	0.902943494331461	-0.405150975141632	-0.00555988919866553	-0.00728217049424869
4.4	-0.00508901145429942	-0.00732851367643329	0.829120299211574	-0.540238329654739	0.82904047075862	-0.540222373545621	-0.00765417700660587	-0.0067956115491004
4.5	-0.00657591087598261	-0.00728104489733544	0.735245942872628	-0.6625348172238	0.735122642835431	-0.662388812980532	-0.00946394820142018	-0.00561653896014068
4.6	-0.00837756649477253	-0.00664609529792373	0.623305465124706	-0.768520613793899	0.623291076847339	-0.768291402199087	-0.0108201344685077	-0.0043286096783271
4.7	-0.00985294876268633	-0.00599167242538651	0.496326256789752	-0.855879311911999	0.496443369071954	-0.855634966186635	-0.0122701503575051	-0.00309682854004549
4.8	-0.0112507821920308	-0.0047482591786268	0.357206229938394	-0.922327210442007	0.35749976245878	-0.922139071165928	-0.0133289614810387	-0.00136957377143812
4.9	-0.0119330927802782	-0.00362246142260217	0.209668935947325	-0.966152835802463	0.209928498307614	-0.966102052021654	-0.0137131078179627	0.000822052436884186
5	-0.0123675382944585	-0.00238231606244554	0.0575308295486269	-0.98663677253059	0.0576889806422975	-0.986509141512398	-0.0131106966079902	0.00321520998105614
5.1	-0.0121710402732345	-0.00141672693687081	-0.0959224710068254	-0.983578209835487	-0.0956016927704031	-0.98351568783518	-0.0118735927397153	0.00535543673436913
5.2	-0.0119130136673219	-0.000438375900922412	-0.247414659022256	-0.956835288146013	-0.246987734323702	-0.956957367794276	-0.0104016787602914	0.00759187242009279
5.3	-0.0116516045485999	6.67090402106071E-05	-0.392859484619535	-0.906895847960286	-0.392570928044931	-0.907240136977289	-0.00818285736612782	0.00969181142188138
5.4	-0.0115884047502585	0.000956132832782736	-0.528919309168534	-0.834938177477648	-0.5287835862539	-0.83522748104387	-0.00545746838485383	0.0113515574537065
5.5	-0.0116446299028683	0.00184790846867482	-0.651912442748993	-0.742623363593864	-0.651862662522965	-0.742936897026548	-0.00222257545933982	0.0119522954811411
5.6	-0.0115925138671544	0.00335822942870002	-0.759122309720347	-0.632529223871571	-0.759135793058492	-0.632699432745663	0.000289521563829548	0.0115624344385326
5.7	-0.0113569537498171	0.00464608959821832	-0.848160352308263	-0.507011408775111	-0.848136643051	-0.507186380900908	0.00239015280450988	0.0114061216655948
5.8	-0.0109557967175796	0.00620182067698768	-0.916392376713969	-0.369094132225181	-0.916437237835226	-0.369386041789153	0.00453068333266047	0.0111188924296935
5.9	-0.0104821455997245	0.00740819265235257	-0.962496279130717	-0.222543519616388	-0.962616590412567	-0.222591400455506	0.00652986917037072	0.0106893181770866
6	-0.0098902744409103	0.00897227239146141	-0.98545272817382	-0.0705812832919156	-0.985449667787188	-0.0706499290240222	0.00892694404295875	0.0101354973984244
6.1	-0.00906614520502616	0.0103767725829943	-0.984383921598159	0.0832680398995369	-0.984387125621678	0.083164762513564	0.011283316327835	0.00811762724444039
6.2	-0.00794282845177078	0.0117861327745907	-0.959346285291866	0.235107188763399	-0.959394356622969	0.234925602038189	0.012662702935466	0.00545108582999323
6.3	-0.00670978570655884	0.0126264066600986	-0.91116524222236	0.381059439371369	-0.911189570017795	0.3809308521501	0.0132053942612206	0.00236781497869758
6.4	-0.00537152661470719	0.0131184033398036	-0.840959803415327	0.517769879834881	-0.840951068081985	0.517556450768201	0.0127304733077729	-0.00080949627913975
6.5	-0.00414896884147238	0.0131385483915233	-0.750346451462465	0.642069440642429	-0.750446910240348	0.64189720534016	0.0117000320976705	-0.00371608409778756
6.6	-0.00270089303343181	0.0131089402992012	-0.641442440291504	0.750584349055645	-0.64159081642145	0.750438473580555	0.0101596437170562	-0.006102055253668
6.7	-0.00138570364425894	0.0126263386522752	-0.517171539260359	0.840907835797256	-0.517292606015401	0.840750743586472	0.00817334295717195	-0.00792124931169985
6.8	-0.000129877406917682	0.0120993666105844	-0.380353696439953	0.910876556357362	-0.380564641822083	0.910801529447212	0.00595912242831873	-0.00911942476234995
6.9	0.000882754539628902	0.0112480728287745	-0.234374785295358	0.958812029093587	-0.23462531918811	0.958808201414492	0.00390701000121318	-0.00974267802298093
7	0.00193938730624793	0.010450290158412	-0.0826569719514308	0.983430848620414	-0.0829150447548124	0.983400778211006	0.00191253440819573	-0.0102941286254979
7.1	0.00265489114760279	0.00943075181652736	0.0707531017211159	0.984230491170627	0.0705466375456559	0.984218364802029	-0.000354290051421526	-0.0102547806320208
7.2	0.00330502523105985	0.00841070944187447	0.222601297106153	0.961314571818631	0.222346206181266	0.961358517485535	-0.0022196774703812	-0.00944802445591214
7.3	0.00342596511565569	0.00717890985313447	0.36906438292927	0.915066605128382	0.368824377854242	0.915157202583872	-0.00381744630860381	-0.00830666298491754
7.4	0.00340801915526975	0.0061586180856856	0.506543963486494	0.846513333758122	0.50632589187284	0.846675028332478	-0.00520215850123584	-0.00686668537119828
7.5	0.00306087245118767	0.00512018241387695	0.631493770323893	0.757588685492322	0.631333860014862	0.757760282166169	-0.00592667491494377	-0.00513635724843822
7.6	0.00280781976712919	0.00433513898731455	0.741447733969709	0.650552831253629	0.741232480072329	0.650713424439336	-0.00620249080928514	-0.00387760228119321
7.7	0.00225561246253936	0.00374750023268836	0.833333576744796	0.527594186691945	0.833182564769239	0.527788834072516	-0.00653843510592325	-0.00231481285760871
7.8	0.0019021573331571	0.00346425145663751	0.905146164189738	0.391783405560993	0.905025264700539	0.392004720335727	-0.00620004951442628	-0.000576294640083188
7.9	0.0012533188991367	0.0032934406373164	0.954812917223879	0.246645191827997	0.95477235631046	0.246870386388991	-0.00538903335415558	0.00134836770587173
8	0.000816309563263542	0.00358859614044928	0.981568773873686	0.0955732955710814	0.981638988246262	0.0958651513709725	-0.00386649157080158	0.00313201169765873
8.1	0.000213336262000154	0.00422076010001927	0.984530350245285	-0.0580438176938889	0.984654251949537	-0.0577727110545767	-0.00190091406074651	0.00368798901715937
8.2	0.000173246637344798	0.00508687024392104	0.963431489575099	-0.210126590705399	0.963497166276305	-0.209830832714751	-0.000536549559652416	0.00375050595586093
8.3	0.00020991484492523	0.00599597707220522	0.91901512107331	-0.357032623934251	0.91915244731687	-0.356776768661336	0.000735480227215196	0.00349695005582579
8.4	0.00071235198228078	0.00675133504995273	0.852483241538543	-0.495255672297117	0.852694680429638	-0.495055863468987	0.00170357295749799	0.00294480056510233
8.5	0.00109616083242228	0.00745854557422873	0.765348471615029	-0.621646963662768	0.765464113189509	-0.621521080362198	0.00274865518076411	0.00263676672110984
8.6	0.00192769010621526	0.00812233070430952	0.659309273838868	-0.732761912294278	0.659506366045649	-0.732576571899335	0.00411377090579244	0.00143318354493353
8.7	0.00293433302125611	0.00876616074789418	0.537557566799248	-0.825970732207768	0.537838977063113	-0.825861361942384	0.00462344495772451	-8.36154686721466E-05
8.8	0.00467542866687392	0.00894400878965451	0.402993853866715	-0.899341795693211	0.403199665491854	-0.899287259282541	0.00443689359520694	-0.00151178177540455
8.9	0.0065698387549867	0.00838431738756714	0.258506794504251	-0.951066299452488	0.258748257822026	-0.95092584519097	0.00406286306306715	-0.00244025789537042
9	0.00861519997503469	0.00680118216227359	0.107587516483614	-0.979376746372938	0.107949250284271	-0.979346738020061	0.00400787595668129	-0.00289556681702772
9.1	0.0101218478198077	0.00467081770061631	-0.0454005034374721	-0.98410860489536	-0.0450483660183169	-0.984122837710965	0.0043048246988325	-0.00348123711947478
9.2	0.0112343929150557	0.00192967694761372	-0.197649284030396	-0.965133550382648	-0.197293669893036	-0.965203846754727	0.00490127417971966	-0.00392817041577674
9.3	0.0113969872362922	-0.00086820281569885	-0.345113000519922	-0.922753711094796	-0.344756070088767	-0.922817719291604	0.00580541109733975	-0.00448102643323074
9.4	0.0108266391528033	-0.00379452647805703	-0.484057427893543	-0.857888014353525	-0.483734258517829	-0.858035502923253	0.00668935371686155	-0.00540641251135463
9.5	0.00916594861802387	-0.00592167444914963	-0.611020961121104	-0.772286993872206	-0.610814812220401	-0.772424002806817	0.00739442644682059	-0.00670174182732283
9.6	0.00734888083415293	-0.00759317548370748	-0.723518030230061	-0.668160873489063	-0.723245217844262	-0.668345284705482	0.00663576157126922	-0.00853931317226792
9.7	0.00522809439719089	-0.00857648167187277	-0.818370744002939	-0.547724764207043	-0.818124302798544	-0.547993646836394	0.00529988455661554	-0.00937232906625085
9.8	0.00297991760743638	-0.00932936358488634	-0.893370640926846	-0.41400609579184	-0.893161434669242	-0.414280651868114	0.00395626720522409	-0.0095482741961054
9.9	0.000335472345989571	-0.00940066368994773	-0.946585071054202	-0.270377629968608	-0.946472376226524	-0.270706587795936	0.00293538353596469	-0.00906216440642646
10	-0.00239686612053732	-0.00897504034644353	-0.977215799093146	-0.120386977726711	-0.977135209868844	-0.120765319268141	0.00286256858934939	-0.00831903323449906
10.1	-0.00509080704721313	-0.00756435563484563	-0.983934689278583	0.0329238192754541	-0.983914487132487	0.0324460368657877	0.00273941422063533	-0.00869181075833642
10.2	-0.0070739647473024	-0.00581029244200012	-0.966789788017697	0.185181814056265	-0.966774498648551	0.184732142853202	0.00209055539654337	-0.00887416610079953
10.3	-0.0088072400494239	-0.0036297159495264	-0.926270741595804	0.332914527945996	-0.926405565797241	0.332374335162794	0.00125682848652989	-0.00907020732932172
10.4	-0.00998623045496339	-0.00161477666943746	-0.86342266011584	0.472516317855062	-0.863687222856197	0.471980657905809	0.000463146156356345	-0.00919968669307681
10.5	-0.0110098601960254	0.000853849711221628	-0.779656667011842	0.60096248240537	-0.779939067882719	0.600575650295398	0.000318965553810444	-0.00920953822880586
10.6	-0.0113490779990903	0.00338424429319479	-0.676652930576675	0.714506198970067	-0.677078786007555	0.714162527203941	0.000399680525806413	-0.0100337757589205
10.7	-0.0109435412268806	0.00622173398377355	-0.55761979625237	0.810735294764595	-0.558030960779661	0.810447295181967	0.000250497420408196	-0.0110659228371382
10.8	-0.00970825727874862	0.00858079009011917	-0.424983716029115	0.887335511073236	-0.425493731103427	0.887106627151828	-0.000409374433301948	-0.0123057972241108
10.9	-0.0081364006611444	0.0109038167574684	-0.28211959961658	0.942535205556503	-0.282607129866016	0.942484329336369	-0.00170446555665064	-0.0132680469113508
11	-0.0057591628501061	0.0124958732689669	-0.132221899785332	0.974639913322347	-0.132767735099818	0.974636039490995	-0.00286849316879289	-0.0139659673811084
11.1	-0.00293640421323102	0.0138244807718738	0.0205214907960835	0.983150203107495	0.019892955543676	0.983233438090484	-0.00425888787794335	-0.0145371742380895
11.2	0.000350380513738775	0.0140373597457395	0.172718771515628	0.968061924727559	0.172200191082434	0.968265129586771	-0.00554627503135017	-0.0147800343047966
11.3	0.00360802339007222	0.0135192503278588	0.320737769452966	0.929521682800182	0.320308797017353	0.92978432158751	-0.00660262129580708	-0.0146193986479515
11.4	0.00648439902537283	0.0119822971448412	0.461165911036644	0.86840830013696	0.460702337762709	0.868668416420126	-0.00755141560757996	-0.0140432002897596
11.5	0.00886658798104435	0.0103575112099516	0.590045124698044	0.786166233108897	0.589687840746239	0.786584209226672	-0.00804935210720036	-0.0135909878340987
11.6	0.0108428048012454	0.0079725527196206	0.704795543434171	0.685224806599783	0.704529463895144	0.685705256592835	-0.00933402560552165	-0.0135549135958478
11.7	0.0123787390145017	0.00550244699940055	0.802654635946903	0.567548049277731	0.802416261334132	0.567970156493661	-0.0108977756468246	-0.0127572261846244
11.8	0.0130691356849057	0.00237301125711912	0.880960713302733	0.435886383810817	0.880777486587997	0.43643863333524	-0.0124673877329195	-0.0114787524052742
11.9	0.0129138848350245	-0.000500356479759983	0.937688825750783	0.293991282206439	0.937651430259439	0.29453516435888	-0.0138688633757266	-0.00914628074591258
12	0.0114644305820614	-0.00327988437245108	0.972079798115284	0.145263598751479	0.972068275469398	0.145743134196876	-0.0136841642363822	-0.00668330587538374
12.1	0.00978083620838171	-0.00510285924361369	0.982825941553736	-0.00752824683478386	0.982802069554389	-0.00705522763786611	-0.0131797682525253	-0.00545575084700311
12.2	0.00767266741668783	-0.00665215540346913	0.969576692795798	-0.160013421160242	0.969684118666084	-0.159576377327038	-0.0130536275200043	-0.00420662723991217
12.3	0.00546614061567429	-0.00750232550637133	0.932844377182793	-0.30834661002907	0.933030639369391	-0.30798878270098	-0.0127406173696544	-0.00305550461122681
12.4	0.00291313730812948	-0.0081207487619968	0.873985088782701	-0.449296528472979	0.874118502155278	-0.448921767572487	-0.0125144973326359	-0.0020008780841526
12.5	0.000473922494638345	-0.00796738253997422	0.793495344450246	-0.579766632729405	0.793954595856572	-0.579374814448038	-0.0117896762252428	-0.000816369573349609
12.6	-0.001948532914148	-0.00716712974955179	0.693697755178474	-0.695646718876332	0.694044992269408	-0.695337832816664	-0.0110190991316057	-0.000489480142204533
